! Network Analyzer HP8722D
! Hewlett-Packard
! Data name: Linha & Wilkinson
! Saver's name: Rodrigo Anjos
! Comments: Teste da utilização de aquisição
continua pelo VNA HP8722D
! Time and date: 23/5/2025 11:00
!              Frequency                     S11                                                   S21                                                   S12                                                   S22
# HZ  S  MA R 50
4800000000.000000      3.125153000000000E-01      3.744141000000000E+01      4.707489000000000E-01     -1.282500000000000E+02
4801000000.000000      3.129730000000000E-01      3.772265000000000E+01      4.725189000000000E-01     -1.288828000000000E+02
4802000000.000000      3.141632000000000E-01      3.789844000000000E+01      4.723816000000000E-01     -1.295000000000000E+02
4803000000.000000      3.150940000000000E-01      3.805078000000000E+01      4.760132000000000E-01     -1.300234000000000E+02
4804000000.000000      3.156586000000000E-01      3.825195000000000E+01      4.767303000000000E-01     -1.309297000000000E+02
4805000000.000000      3.176727000000000E-01      3.837500000000000E+01      4.781494000000000E-01     -1.317109000000000E+02
4806000000.000000      3.182526000000000E-01      3.857617000000000E+01      4.797211000000000E-01     -1.324844000000000E+02
4807000000.000000      3.193817000000000E-01      3.869726000000000E+01      4.810638000000000E-01     -1.333437000000000E+02
4808000000.000000      3.202515000000000E-01      3.890234000000000E+01      4.813843000000000E-01     -1.338984000000000E+02
4809000000.000000      3.218842000000000E-01      3.905859000000000E+01      4.837494000000000E-01     -1.348281000000000E+02
4810000000.000000      3.233948000000000E-01      3.920703000000000E+01      4.855347000000000E-01     -1.354375000000000E+02
4811000000.000000      3.243713000000000E-01      3.925000000000000E+01      4.869843000000000E-01     -1.362813000000000E+02
4812000000.000000      3.266907000000000E-01      3.950000000000000E+01      4.870300000000000E-01     -1.369531000000000E+02
4813000000.000000      3.274994000000000E-01      3.964062000000000E+01      4.873657000000000E-01     -1.377031000000000E+02
4814000000.000000      3.287048000000000E-01      3.960351000000000E+01      4.881744000000000E-01     -1.384063000000000E+02
4815000000.000000      3.299408000000000E-01      3.971484000000000E+01      4.891510000000000E-01     -1.390625000000000E+02
4816000000.000000      3.326569000000000E-01      3.990234000000000E+01      4.888458000000000E-01     -1.398125000000000E+02
4817000000.000000      3.335114000000000E-01      3.996289000000000E+01      4.898682000000000E-01     -1.406484000000000E+02
4818000000.000000      3.348541000000000E-01      3.997070000000000E+01      4.900818000000000E-01     -1.412969000000000E+02
4819000000.000000      3.375244000000000E-01      3.999609000000000E+01      4.901581000000000E-01     -1.421016000000000E+02
4820000000.000000      3.377533000000000E-01      4.019336000000000E+01      4.896393000000000E-01     -1.426641000000000E+02
4821000000.000000      3.401489000000000E-01      4.016992000000000E+01      4.910736000000000E-01     -1.435625000000000E+02
4822000000.000000      3.415527000000000E-01      4.004492000000000E+01      4.889221000000000E-01     -1.443047000000000E+02
4823000000.000000      3.431702000000000E-01      4.009570000000000E+01      4.913177000000000E-01     -1.450156000000000E+02
4824000000.000000      3.452759000000000E-01      4.026757000000000E+01      4.903717000000000E-01     -1.457969000000000E+02
4825000000.000000      3.468628000000000E-01      4.003906000000000E+01      4.902802000000000E-01     -1.463906000000000E+02
4826000000.000000      3.481598000000000E-01      3.997070000000000E+01      4.895935000000000E-01     -1.473125000000000E+02
4827000000.000000      3.501282000000000E-01      4.004492000000000E+01      4.895630000000000E-01     -1.479687000000000E+02
4828000000.000000      3.522949000000000E-01      4.004883000000000E+01      4.899139000000000E-01     -1.486875000000000E+02
4829000000.000000      3.535156000000000E-01      4.019336000000000E+01      4.902802000000000E-01     -1.493125000000000E+02
4830000000.000000      3.555145000000000E-01      3.997656000000000E+01      4.875336000000000E-01     -1.501641000000000E+02
4831000000.000000      3.568268000000000E-01      3.989258000000000E+01      4.883118000000000E-01     -1.508203000000000E+02
4832000000.000000      3.589172000000000E-01      3.993555000000000E+01      4.869843000000000E-01     -1.513828000000000E+02
4833000000.000000      3.596039000000000E-01      3.979297000000000E+01      4.860687000000000E-01     -1.522656000000000E+02
4834000000.000000      3.613281000000000E-01      3.967773000000000E+01      4.856262000000000E-01     -1.529766000000000E+02
4835000000.000000      3.638153000000000E-01      3.962891000000000E+01      4.846039000000000E-01     -1.537266000000000E+02
4836000000.000000      3.655853000000000E-01      3.954883000000000E+01      4.833679000000000E-01     -1.544688000000000E+02
4837000000.000000      3.660583000000000E-01      3.952539000000000E+01      4.815979000000000E-01     -1.553047000000000E+02
4838000000.000000      3.681793000000000E-01      3.920898000000000E+01      4.823151000000000E-01     -1.556562000000000E+02
4839000000.000000      3.719025000000000E-01      3.924414000000000E+01      4.797058000000000E-01     -1.564922000000000E+02
4840000000.000000      3.717041000000000E-01      3.899609000000000E+01      4.801636000000000E-01     -1.571406000000000E+02
4841000000.000000      3.744049000000000E-01      3.898633000000000E+01      4.780426000000000E-01     -1.580312000000000E+02
4842000000.000000      3.748474000000000E-01      3.869922000000000E+01      4.774323000000000E-01     -1.586641000000000E+02
4843000000.000000      3.771973000000000E-01      3.853711000000000E+01      4.763641000000000E-01     -1.594219000000000E+02
4844000000.000000      3.775177000000000E-01      3.836133000000000E+01      4.737091000000000E-01     -1.601641000000000E+02
4845000000.000000      3.798676000000000E-01      3.838672000000000E+01      4.716644000000000E-01     -1.608281000000000E+02
4846000000.000000      3.818207000000000E-01      3.815039000000000E+01      4.713287000000000E-01     -1.614063000000000E+02
4847000000.000000      3.826904000000000E-01      3.799609000000000E+01      4.708099000000000E-01     -1.619609000000000E+02
4848000000.000000      3.835907000000000E-01      3.776953000000000E+01      4.683838000000000E-01     -1.629297000000000E+02
4849000000.000000      3.850403000000000E-01      3.762500000000000E+01      4.654694000000000E-01     -1.637109000000000E+02
4850000000.000000      3.861847000000000E-01      3.738086000000000E+01      4.641724000000000E-01     -1.643750000000000E+02
4851000000.000000      3.883057000000000E-01      3.731054000000000E+01      4.636688000000000E-01     -1.650938000000000E+02
4852000000.000000      3.889923000000000E-01      3.710351000000000E+01      4.602661000000000E-01     -1.657734000000000E+02
4853000000.000000      3.907013000000000E-01      3.691601000000000E+01      4.578247000000000E-01     -1.664766000000000E+02
4854000000.000000      3.921204000000000E-01      3.664648000000000E+01      4.555359000000000E-01     -1.673047000000000E+02
4855000000.000000      3.932648000000000E-01      3.655664000000000E+01      4.540405000000000E-01     -1.680000000000000E+02
4856000000.000000      3.945160000000000E-01      3.633398000000000E+01      4.511414000000000E-01     -1.685937000000000E+02
4857000000.000000      3.958588000000000E-01      3.607031000000000E+01      4.513702000000000E-01     -1.692266000000000E+02
4858000000.000000      3.961639000000000E-01      3.574023000000000E+01      4.470673000000000E-01     -1.699531000000000E+02
4859000000.000000      3.975525000000000E-01      3.551953000000000E+01      4.458160000000000E-01     -1.707656000000000E+02
4860000000.000000      3.982544000000000E-01      3.553906000000000E+01      4.419250000000000E-01     -1.713672000000000E+02
4861000000.000000      4.000549000000000E-01      3.523242000000000E+01      4.390869000000000E-01     -1.722031000000000E+02
4862000000.000000      3.994141000000000E-01      3.489453000000000E+01      4.371948000000000E-01     -1.727578000000000E+02
4863000000.000000      4.008789000000000E-01      3.473437000000000E+01      4.340515000000000E-01     -1.737578000000000E+02
4864000000.000000      4.027557000000000E-01      3.444921000000000E+01      4.329071000000000E-01     -1.739219000000000E+02
4865000000.000000      4.034424000000000E-01      3.418359000000000E+01      4.287567000000000E-01     -1.745937000000000E+02
4866000000.000000      4.042816000000000E-01      3.400391000000000E+01      4.264679000000000E-01     -1.753906000000000E+02
4867000000.000000      4.046173000000000E-01      3.375781000000000E+01      4.223633000000000E-01     -1.762266000000000E+02
4868000000.000000      4.056549000000000E-01      3.342578000000000E+01      4.205322000000000E-01     -1.770703000000000E+02
4869000000.000000      4.066467000000000E-01      3.334179000000000E+01      4.169006000000000E-01     -1.771953000000000E+02
4870000000.000000      4.071503000000000E-01      3.310351000000000E+01      4.127655000000000E-01     -1.779609000000000E+02
4871000000.000000      4.067688000000000E-01      3.291601000000000E+01      4.107666000000000E-01     -1.788203000000000E+02
4872000000.000000      4.085999000000000E-01      3.268555000000000E+01      4.049377000000000E-01     -1.792812000000000E+02
4873000000.000000      4.085236000000000E-01      3.241211000000000E+01      4.030762000000000E-01      1.799844000000000E+02
4874000000.000000      4.098969000000000E-01      3.221484000000000E+01      3.987427000000000E-01      1.793203000000000E+02
4875000000.000000      4.102631000000000E-01      3.186230000000000E+01      3.961945000000000E-01      1.788984000000000E+02
4876000000.000000      4.100342000000000E-01      3.181152000000000E+01      3.944855000000000E-01      1.782656000000000E+02
4877000000.000000      4.114380000000000E-01      3.134375000000000E+01      3.907166000000000E-01      1.778203000000000E+02
4878000000.000000      4.109955000000000E-01      3.105664000000000E+01      3.864136000000000E-01      1.773047000000000E+02
4879000000.000000      4.123993000000000E-01      3.096289000000000E+01      3.815765000000000E-01      1.765469000000000E+02
4880000000.000000      4.131775000000000E-01      3.071289000000000E+01      3.802338000000000E-01      1.760078000000000E+02
4881000000.000000      4.131317000000000E-01      3.049511000000000E+01      3.773346000000000E-01      1.757891000000000E+02
4882000000.000000      4.139252000000000E-01      3.036621000000000E+01      3.722382000000000E-01      1.748984000000000E+02
4883000000.000000      4.135437000000000E-01      3.008008000000000E+01      3.681030000000000E-01      1.743281000000000E+02
4884000000.000000      4.146729000000000E-01      2.992090000000000E+01      3.651123000000000E-01      1.736250000000000E+02
4885000000.000000      4.145966000000000E-01      2.969824000000000E+01      3.626556000000000E-01      1.736328000000000E+02
4886000000.000000      4.148712000000000E-01      2.950781000000000E+01      3.576508000000000E-01      1.730703000000000E+02
4887000000.000000      4.147034000000000E-01      2.918652000000000E+01      3.546448000000000E-01      1.725859000000000E+02
4888000000.000000      4.146729000000000E-01      2.883594000000000E+01      3.506927000000000E-01      1.719219000000000E+02
4889000000.000000      4.142609000000000E-01      2.871484000000000E+01      3.466187000000000E-01      1.716328000000000E+02
4890000000.000000      4.132996000000000E-01      2.839062000000000E+01      3.435974000000000E-01      1.708594000000000E+02
4891000000.000000      4.152222000000000E-01      2.820996000000000E+01      3.401794000000000E-01      1.704531000000000E+02
4892000000.000000      4.138336000000000E-01      2.814550000000000E+01      3.357697000000000E-01      1.703984000000000E+02
4893000000.000000      4.145203000000000E-01      2.776562000000000E+01      3.329468000000000E-01      1.697344000000000E+02
4894000000.000000      4.154358000000000E-01      2.764551000000000E+01      3.303223000000000E-01      1.691328000000000E+02
4895000000.000000      4.152832000000000E-01      2.727344000000000E+01      3.276672000000000E-01      1.691328000000000E+02
4896000000.000000      4.150543000000000E-01      2.717578000000000E+01      3.231201000000000E-01      1.686094000000000E+02
4897000000.000000      4.147797000000000E-01      2.700976000000000E+01      3.197632000000000E-01      1.679766000000000E+02
4898000000.000000      4.149017000000000E-01      2.677441000000000E+01      3.171539000000000E-01      1.677031000000000E+02
4899000000.000000      4.146423000000000E-01      2.655371000000000E+01      3.132324000000000E-01      1.671250000000000E+02
4900000000.000000      4.148560000000000E-01      2.630664000000000E+01      3.099060000000000E-01      1.669844000000000E+02
4901000000.000000      4.147339000000000E-01      2.608398000000000E+01      3.066406000000000E-01      1.665469000000000E+02
4902000000.000000      4.147339000000000E-01      2.591211000000000E+01      3.035889000000000E-01      1.662031000000000E+02
4903000000.000000      4.149170000000000E-01      2.579687000000000E+01      2.988586000000000E-01      1.657109000000000E+02
4904000000.000000      4.148712000000000E-01      2.545312000000000E+01      2.967987000000000E-01      1.652969000000000E+02
4905000000.000000      4.135895000000000E-01      2.533691000000000E+01      2.930603000000000E-01      1.649844000000000E+02
4906000000.000000      4.129028000000000E-01      2.515429000000000E+01      2.894135000000000E-01      1.647891000000000E+02
4907000000.000000      4.127502000000000E-01      2.494824000000000E+01      2.865601000000000E-01      1.640781000000000E+02
4908000000.000000      4.133606000000000E-01      2.466894000000000E+01      2.833099000000000E-01      1.637656000000000E+02
4909000000.000000      4.129639000000000E-01      2.459765000000000E+01      2.796478000000000E-01      1.635781000000000E+02
4910000000.000000      4.124298000000000E-01      2.440820000000000E+01      2.762451000000000E-01      1.631250000000000E+02
4911000000.000000      4.129333000000000E-01      2.420898000000000E+01      2.730255000000000E-01      1.627266000000000E+02
4912000000.000000      4.123993000000000E-01      2.400488000000000E+01      2.693634000000000E-01      1.623516000000000E+02
4913000000.000000      4.133606000000000E-01      2.386621000000000E+01      2.657013000000000E-01      1.619766000000000E+02
4914000000.000000      4.126587000000000E-01      2.364356000000000E+01      2.625275000000000E-01      1.619453000000000E+02
4915000000.000000      4.125061000000000E-01      2.355469000000000E+01      2.584534000000000E-01      1.612109000000000E+02
4916000000.000000      4.116364000000000E-01      2.338379000000000E+01      2.549438000000000E-01      1.608047000000000E+02
4917000000.000000      4.116211000000000E-01      2.316308000000000E+01      2.515564000000000E-01      1.607891000000000E+02
4918000000.000000      4.117432000000000E-01      2.302734000000000E+01      2.473450000000000E-01      1.605391000000000E+02
4919000000.000000      4.108124000000000E-01      2.296191000000000E+01      2.440948000000000E-01      1.604922000000000E+02
4920000000.000000      4.105988000000000E-01      2.258594000000000E+01      2.401581000000000E-01      1.599219000000000E+02
4921000000.000000      4.102478000000000E-01      2.253222000000000E+01      2.364883000000000E-01      1.594844000000000E+02
4922000000.000000      4.101868000000000E-01      2.238965000000000E+01      2.326431000000000E-01      1.594219000000000E+02
4923000000.000000      4.103699000000000E-01      2.219433000000000E+01      2.291412000000000E-01      1.592344000000000E+02
4924000000.000000      4.102783000000000E-01      2.215527000000000E+01      2.246170000000000E-01      1.587188000000000E+02
4925000000.000000      4.093628000000000E-01      2.181055000000000E+01      2.215042000000000E-01      1.587265000000000E+02
4926000000.000000      4.093323000000000E-01      2.166504000000000E+01      2.174225000000000E-01      1.584844000000000E+02
4927000000.000000      4.096069000000000E-01      2.157129000000000E+01      2.134247000000000E-01      1.583906000000000E+02
4928000000.000000      4.098358000000000E-01      2.120019000000000E+01      2.097626000000000E-01      1.583359000000000E+02
4929000000.000000      4.079742000000000E-01      2.113770000000000E+01      2.057648000000000E-01      1.582734000000000E+02
4930000000.000000      4.089508000000000E-01      2.095996000000000E+01      2.023010000000000E-01      1.580234000000000E+02
4931000000.000000      4.080200000000000E-01      2.085449000000000E+01      1.984329000000000E-01      1.579766000000000E+02
4932000000.000000      4.074554000000000E-01      2.069629000000000E+01      1.943893000000000E-01      1.580781000000000E+02
4933000000.000000      4.069672000000000E-01      2.064844000000000E+01      1.895523000000000E-01      1.582109000000000E+02
4934000000.000000      4.078827000000000E-01      2.021973000000000E+01      1.857834000000000E-01      1.580937000000000E+02
4935000000.000000      4.084778000000000E-01      2.029492000000000E+01      1.827698000000000E-01      1.582734000000000E+02
4936000000.000000      4.070587000000000E-01      2.004785000000000E+01      1.785355000000000E-01      1.585312000000000E+02
4937000000.000000      4.073944000000000E-01      1.982715000000000E+01      1.748428000000000E-01      1.586172000000000E+02
4938000000.000000      4.067688000000000E-01      1.971191000000000E+01      1.711121000000000E-01      1.588516000000000E+02
4939000000.000000      4.071045000000000E-01      1.967773000000000E+01      1.675644000000000E-01      1.590781000000000E+02
4940000000.000000      4.061279000000000E-01      1.941895000000000E+01      1.634979000000000E-01      1.592734000000000E+02
4941000000.000000      4.057465000000000E-01      1.925195000000000E+01      1.598511000000000E-01      1.597578000000000E+02
4942000000.000000      4.059143000000000E-01      1.910156000000000E+01      1.558914000000000E-01      1.603281000000000E+02
4943000000.000000      4.059753000000000E-01      1.896777000000000E+01      1.528854000000000E-01      1.608594000000000E+02
4944000000.000000      4.048767000000000E-01      1.864648000000000E+01      1.493759000000000E-01      1.613984000000000E+02
4945000000.000000      4.040680000000000E-01      1.847852000000000E+01      1.453323000000000E-01      1.618750000000000E+02
4946000000.000000      4.061127000000000E-01      1.847265000000000E+01      1.423874000000000E-01      1.626172000000000E+02
4947000000.000000      4.049988000000000E-01      1.835742000000000E+01      1.387863000000000E-01      1.635156000000000E+02
4948000000.000000      4.044647000000000E-01      1.812793000000000E+01      1.361389000000000E-01      1.643281000000000E+02
4949000000.000000      4.034119000000000E-01      1.805859000000000E+01      1.332169000000000E-01      1.657109000000000E+02
4950000000.000000      4.040680000000000E-01      1.800977000000000E+01      1.301498000000000E-01      1.665781000000000E+02
4951000000.000000      4.038391000000000E-01      1.772461000000000E+01      1.274414000000000E-01      1.675156000000000E+02
4952000000.000000      4.032288000000000E-01      1.748047000000000E+01      1.245079000000000E-01      1.688359000000000E+02
4953000000.000000      4.024506000000000E-01      1.744336000000000E+01      1.224174000000000E-01      1.702109000000000E+02
4954000000.000000      4.027557000000000E-01      1.727832000000000E+01      1.201744000000000E-01      1.716875000000000E+02
