! Network Analyzer HP8722D
! Hewlett-Packard
! Data name: Linha & Wilkinson
! Saver's name: Rodrigo Anjos
! Comments: Teste da utilização de aquisição
continua pelo VNA HP8722D
! Time and date: 23/5/2025 15:49
!              Frequency                     S11                                                   S21                                                   S12                                                   S22
# HZ  S  MA R 50
4800000000.000000      2.804260000000000E-01      4.034375000000000E+01      4.878387000000000E-01     -1.298359000000000E+02
4801000000.000000      2.815094000000000E-01      4.066796000000000E+01      4.886017000000000E-01     -1.306719000000000E+02
4802000000.000000      2.826691000000000E-01      4.088281000000000E+01      4.920654000000000E-01     -1.312891000000000E+02
4803000000.000000      2.833405000000000E-01      4.104492000000000E+01      4.940643000000000E-01     -1.320000000000000E+02
4804000000.000000      2.848969000000000E-01      4.134179000000000E+01      4.946747000000000E-01     -1.326094000000000E+02
4805000000.000000      2.868805000000000E-01      4.137304000000000E+01      4.960938000000000E-01     -1.336016000000000E+02
4806000000.000000      2.878723000000000E-01      4.154297000000000E+01      4.980927000000000E-01     -1.341563000000000E+02
4807000000.000000      2.889862000000000E-01      4.174218000000000E+01      4.991150000000000E-01     -1.350703000000000E+02
4808000000.000000      2.899628000000000E-01      4.192968000000000E+01      5.009155000000000E-01     -1.356875000000000E+02
4809000000.000000      2.919006000000000E-01      4.218554000000000E+01      5.026245000000000E-01     -1.364922000000000E+02
4810000000.000000      2.935181000000000E-01      4.230664000000000E+01      5.027161000000000E-01     -1.370859000000000E+02
4811000000.000000      2.950745000000000E-01      4.247070000000000E+01      5.035400000000000E-01     -1.378438000000000E+02
4812000000.000000      2.973328000000000E-01      4.268164000000000E+01      5.057068000000000E-01     -1.386016000000000E+02
4813000000.000000      2.987518000000000E-01      4.277148000000000E+01      5.060730000000000E-01     -1.393437000000000E+02
4814000000.000000      2.998657000000000E-01      4.276172000000000E+01      5.063477000000000E-01     -1.400781000000000E+02
4815000000.000000      3.018188000000000E-01      4.283399000000000E+01      5.055542000000000E-01     -1.407344000000000E+02
4816000000.000000      3.037872000000000E-01      4.304688000000000E+01      5.067749000000000E-01     -1.412812000000000E+02
4817000000.000000      3.048706000000000E-01      4.316015000000000E+01      5.082397000000000E-01     -1.422031000000000E+02
4818000000.000000      3.071136000000000E-01      4.308594000000000E+01      5.082092000000000E-01     -1.428750000000000E+02
4819000000.000000      3.094940000000000E-01      4.316015000000000E+01      5.081787000000000E-01     -1.437109000000000E+02
4820000000.000000      3.103638000000000E-01      4.317187000000000E+01      5.090332000000000E-01     -1.443359000000000E+02
4821000000.000000      3.134613000000000E-01      4.324023000000000E+01      5.094299000000000E-01     -1.452891000000000E+02
4822000000.000000      3.141785000000000E-01      4.314843000000000E+01      5.077209000000000E-01     -1.460312000000000E+02
4823000000.000000      3.163452000000000E-01      4.306445000000000E+01      5.083313000000000E-01     -1.467500000000000E+02
4824000000.000000      3.178864000000000E-01      4.321094000000000E+01      5.086060000000000E-01     -1.473281000000000E+02
4825000000.000000      3.195648000000000E-01      4.303124000000000E+01      5.073242000000000E-01     -1.481016000000000E+02
4826000000.000000      3.215027000000000E-01      4.300586000000000E+01      5.093384000000000E-01     -1.488828000000000E+02
4827000000.000000      3.233795000000000E-01      4.303711000000000E+01      5.066833000000000E-01     -1.495547000000000E+02
4828000000.000000      3.258667000000000E-01      4.295898000000000E+01      5.083618000000000E-01     -1.502969000000000E+02
4829000000.000000      3.272095000000000E-01      4.306054000000000E+01      5.082092000000000E-01     -1.509609000000000E+02
4830000000.000000      3.297577000000000E-01      4.277344000000000E+01      5.064697000000000E-01     -1.517031000000000E+02
4831000000.000000      3.304749000000000E-01      4.279297000000000E+01      5.060120000000000E-01     -1.524844000000000E+02
4832000000.000000      3.330231000000000E-01      4.278906000000000E+01      5.046387000000000E-01     -1.530937000000000E+02
4833000000.000000      3.331604000000000E-01      4.252930000000000E+01      5.046387000000000E-01     -1.538281000000000E+02
4834000000.000000      3.361816000000000E-01      4.243750000000000E+01      5.032654000000000E-01     -1.544609000000000E+02
4835000000.000000      3.382568000000000E-01      4.237695000000000E+01      5.024414000000000E-01     -1.554219000000000E+02
4836000000.000000      3.400879000000000E-01      4.221289000000000E+01      5.018005000000000E-01     -1.559219000000000E+02
4837000000.000000      3.411865000000000E-01      4.218750000000000E+01      4.991302000000000E-01     -1.569766000000000E+02
4838000000.000000      3.419800000000000E-01      4.193359000000000E+01      4.990692000000000E-01     -1.574453000000000E+02
4839000000.000000      3.458862000000000E-01      4.185351000000000E+01      4.978638000000000E-01     -1.581250000000000E+02
4840000000.000000      3.463287000000000E-01      4.161914000000000E+01      4.966736000000000E-01     -1.589375000000000E+02
4841000000.000000      3.488770000000000E-01      4.150976000000000E+01      4.953613000000000E-01     -1.595781000000000E+02
4842000000.000000      3.497009000000000E-01      4.135742000000000E+01      4.940948000000000E-01     -1.601484000000000E+02
4843000000.000000      3.521881000000000E-01      4.089844000000000E+01      4.941864000000000E-01     -1.610312000000000E+02
4844000000.000000      3.524017000000000E-01      4.079492000000000E+01      4.920807000000000E-01     -1.617031000000000E+02
4845000000.000000      3.542175000000000E-01      4.076757000000000E+01      4.899292000000000E-01     -1.622109000000000E+02
4846000000.000000      3.562469000000000E-01      4.052734000000000E+01      4.891357000000000E-01     -1.630938000000000E+02
4847000000.000000      3.578033000000000E-01      4.040625000000000E+01      4.877014000000000E-01     -1.636797000000000E+02
4848000000.000000      3.587494000000000E-01      4.006055000000000E+01      4.849243000000000E-01     -1.644687000000000E+02
4849000000.000000      3.603516000000000E-01      3.979883000000000E+01      4.833832000000000E-01     -1.651406000000000E+02
4850000000.000000      3.614807000000000E-01      3.965234000000000E+01      4.815826000000000E-01     -1.660078000000000E+02
4851000000.000000      3.634949000000000E-01      3.950781000000000E+01      4.791718000000000E-01     -1.667734000000000E+02
4852000000.000000      3.649902000000000E-01      3.920898000000000E+01      4.772949000000000E-01     -1.671484000000000E+02
4853000000.000000      3.665009000000000E-01      3.900586000000000E+01      4.745636000000000E-01     -1.681406000000000E+02
4854000000.000000      3.674469000000000E-01      3.866601000000000E+01      4.730225000000000E-01     -1.688594000000000E+02
4855000000.000000      3.684235000000000E-01      3.858789000000000E+01      4.700623000000000E-01     -1.695156000000000E+02
4856000000.000000      3.695526000000000E-01      3.828906000000000E+01      4.685059000000000E-01     -1.702891000000000E+02
4857000000.000000      3.707886000000000E-01      3.810937000000000E+01      4.666595000000000E-01     -1.707187000000000E+02
4858000000.000000      3.716583000000000E-01      3.770703000000000E+01      4.628601000000000E-01     -1.715078000000000E+02
4859000000.000000      3.727875000000000E-01      3.740820000000000E+01      4.629517000000000E-01     -1.722344000000000E+02
4860000000.000000      3.735199000000000E-01      3.738672000000000E+01      4.597626000000000E-01     -1.729531000000000E+02
4861000000.000000      3.750305000000000E-01      3.699414000000000E+01      4.563446000000000E-01     -1.735937000000000E+02
4862000000.000000      3.743286000000000E-01      3.661718000000000E+01      4.540405000000000E-01     -1.741562000000000E+02
4863000000.000000      3.762665000000000E-01      3.653906000000000E+01      4.498291000000000E-01     -1.749922000000000E+02
4864000000.000000      3.767548000000000E-01      3.615429000000000E+01      4.477844000000000E-01     -1.754922000000000E+02
4865000000.000000      3.776398000000000E-01      3.586719000000000E+01      4.444122000000000E-01     -1.761172000000000E+02
4866000000.000000      3.793945000000000E-01      3.558008000000000E+01      4.415131000000000E-01     -1.768672000000000E+02
4867000000.000000      3.783112000000000E-01      3.539648000000000E+01      4.384918000000000E-01     -1.774531000000000E+02
4868000000.000000      3.800507000000000E-01      3.511523000000000E+01      4.346008000000000E-01     -1.783281000000000E+02
4869000000.000000      3.809662000000000E-01      3.487695000000000E+01      4.314117000000000E-01     -1.789141000000000E+02
4870000000.000000      3.827057000000000E-01      3.460351000000000E+01      4.285126000000000E-01     -1.793906000000000E+02
4871000000.000000      3.825684000000000E-01      3.425781000000000E+01      4.253235000000000E-01      1.799375000000000E+02
4872000000.000000      3.841248000000000E-01      3.394336000000000E+01      4.214630000000000E-01      1.796797000000000E+02
4873000000.000000      3.843384000000000E-01      3.378515000000000E+01      4.179230000000000E-01      1.787109000000000E+02
4874000000.000000      3.833771000000000E-01      3.348828000000000E+01      4.141846000000000E-01      1.781719000000000E+02
4875000000.000000      3.840942000000000E-01      3.315625000000000E+01      4.127960000000000E-01      1.776250000000000E+02
4876000000.000000      3.850403000000000E-01      3.311328000000000E+01      4.088593000000000E-01      1.769140000000000E+02
4877000000.000000      3.864746000000000E-01      3.265039000000000E+01      4.056702000000000E-01      1.763672000000000E+02
4878000000.000000      3.856812000000000E-01      3.243164000000000E+01      4.010468000000000E-01      1.756719000000000E+02
4879000000.000000      3.860626000000000E-01      3.230859000000000E+01      3.969116000000000E-01      1.753750000000000E+02
4880000000.000000      3.871613000000000E-01      3.196680000000000E+01      3.948822000000000E-01      1.748828000000000E+02
4881000000.000000      3.865356000000000E-01      3.169531000000000E+01      3.904572000000000E-01      1.742188000000000E+02
4882000000.000000      3.883362000000000E-01      3.143164000000000E+01      3.887939000000000E-01      1.738281000000000E+02
4883000000.000000      3.876648000000000E-01      3.109472000000000E+01      3.834839000000000E-01      1.729063000000000E+02
4884000000.000000      3.881073000000000E-01      3.092480000000000E+01      3.793945000000000E-01      1.726406000000000E+02
4885000000.000000      3.882141000000000E-01      3.071191000000000E+01      3.769531000000000E-01      1.722344000000000E+02
4886000000.000000      3.874817000000000E-01      3.042871000000000E+01      3.737183000000000E-01      1.718047000000000E+02
4887000000.000000      3.885498000000000E-01      3.019140000000000E+01      3.705139000000000E-01      1.712031000000000E+02
4888000000.000000      3.882904000000000E-01      2.969238000000000E+01      3.681946000000000E-01      1.705234000000000E+02
4889000000.000000      3.881073000000000E-01      2.962597000000000E+01      3.633881000000000E-01      1.703516000000000E+02
4890000000.000000      3.875427000000000E-01      2.927929000000000E+01      3.571167000000000E-01      1.695000000000000E+02
4891000000.000000      3.878326000000000E-01      2.916797000000000E+01      3.548584000000000E-01      1.691094000000000E+02
4892000000.000000      3.872375000000000E-01      2.884375000000000E+01      3.515472000000000E-01      1.689297000000000E+02
4893000000.000000      3.883209000000000E-01      2.866601000000000E+01      3.478851000000000E-01      1.682812000000000E+02
4894000000.000000      3.875427000000000E-01      2.843359000000000E+01      3.433990000000000E-01      1.679844000000000E+02
4895000000.000000      3.883209000000000E-01      2.811621000000000E+01      3.422394000000000E-01      1.675859000000000E+02
4896000000.000000      3.868713000000000E-01      2.788867000000000E+01      3.374939000000000E-01      1.670781000000000E+02
4897000000.000000      3.872986000000000E-01      2.761914000000000E+01      3.344421000000000E-01      1.667422000000000E+02
4898000000.000000      3.867340000000000E-01      2.743945000000000E+01      3.318329000000000E-01      1.664844000000000E+02
4899000000.000000      3.857880000000000E-01      2.718945000000000E+01      3.263397000000000E-01      1.660391000000000E+02
4900000000.000000      3.864288000000000E-01      2.698437000000000E+01      3.245697000000000E-01      1.654766000000000E+02
4901000000.000000      3.864594000000000E-01      2.680469000000000E+01      3.206177000000000E-01      1.651875000000000E+02
4902000000.000000      3.875427000000000E-01      2.654297000000000E+01      3.174896000000000E-01      1.648828000000000E+02
4903000000.000000      3.870087000000000E-01      2.644531000000000E+01      3.135986000000000E-01      1.641953000000000E+02
4904000000.000000      3.868256000000000E-01      2.607031000000000E+01      3.105011000000000E-01      1.638906000000000E+02
4905000000.000000      3.859100000000000E-01      2.602051000000000E+01      3.068542000000000E-01      1.635937000000000E+02
4906000000.000000      3.854218000000000E-01      2.579980000000000E+01      3.032379000000000E-01      1.633516000000000E+02
4907000000.000000      3.858490000000000E-01      2.556641000000000E+01      3.009338000000000E-01      1.627031000000000E+02
4908000000.000000      3.852081000000000E-01      2.525586000000000E+01      2.970276000000000E-01      1.622266000000000E+02
4909000000.000000      3.839874000000000E-01      2.529687000000000E+01      2.927704000000000E-01      1.619297000000000E+02
4910000000.000000      3.847504000000000E-01      2.484082000000000E+01      2.899170000000000E-01      1.616484000000000E+02
4911000000.000000      3.845825000000000E-01      2.469238000000000E+01      2.862549000000000E-01      1.612422000000000E+02
4912000000.000000      3.836365000000000E-01      2.451269000000000E+01      2.821655000000000E-01      1.606719000000000E+02
4913000000.000000      3.843689000000000E-01      2.430273000000000E+01      2.794037000000000E-01      1.604687000000000E+02
4914000000.000000      3.848724000000000E-01      2.406933000000000E+01      2.757416000000000E-01      1.602734000000000E+02
4915000000.000000      3.833923000000000E-01      2.388770000000000E+01      2.716522000000000E-01      1.597500000000000E+02
4916000000.000000      3.829651000000000E-01      2.375195000000000E+01      2.676086000000000E-01      1.593906000000000E+02
4917000000.000000      3.823547000000000E-01      2.359277000000000E+01      2.644348000000000E-01      1.590859000000000E+02
4918000000.000000      3.830719000000000E-01      2.341309000000000E+01      2.598877000000000E-01      1.586953000000000E+02
4919000000.000000      3.813782000000000E-01      2.327637000000000E+01      2.570801000000000E-01      1.586484000000000E+02
4920000000.000000      3.826599000000000E-01      2.301562000000000E+01      2.528076000000000E-01      1.581406000000000E+02
4921000000.000000      3.808899000000000E-01      2.296484000000000E+01      2.496567000000000E-01      1.578516000000000E+02
4922000000.000000      3.812866000000000E-01      2.262012000000000E+01      2.457047000000000E-01      1.577578000000000E+02
4923000000.000000      3.816071000000000E-01      2.265429000000000E+01      2.409286000000000E-01      1.575469000000000E+02
4924000000.000000      3.810425000000000E-01      2.231445000000000E+01      2.367172000000000E-01      1.570625000000000E+02
4925000000.000000      3.800659000000000E-01      2.207617000000000E+01      2.328720000000000E-01      1.569453000000000E+02
4926000000.000000      3.807068000000000E-01      2.196289000000000E+01      2.294769000000000E-01      1.566015000000000E+02
4927000000.000000      3.799133000000000E-01      2.168750000000000E+01      2.249756000000000E-01      1.566094000000000E+02
4928000000.000000      3.809052000000000E-01      2.150097000000000E+01      2.214966000000000E-01      1.563594000000000E+02
4929000000.000000      3.794098000000000E-01      2.148340000000000E+01      2.169647000000000E-01      1.562734000000000E+02
4930000000.000000      3.792877000000000E-01      2.121582000000000E+01      2.130051000000000E-01      1.562266000000000E+02
4931000000.000000      3.796387000000000E-01      2.095019000000000E+01      2.098236000000000E-01      1.562187000000000E+02
4932000000.000000      3.791809000000000E-01      2.084375000000000E+01      2.046890000000000E-01      1.558203000000000E+02
4933000000.000000      3.789978000000000E-01      2.069922000000000E+01      1.999817000000000E-01      1.562266000000000E+02
4934000000.000000      3.791504000000000E-01      2.055664000000000E+01      1.966095000000000E-01      1.560547000000000E+02
4935000000.000000      3.787384000000000E-01      2.029101000000000E+01      1.933212000000000E-01      1.563516000000000E+02
4936000000.000000      3.769379000000000E-01      2.017871000000000E+01      1.884155000000000E-01      1.563516000000000E+02
4937000000.000000      3.777618000000000E-01      1.987012000000000E+01      1.848145000000000E-01      1.563437000000000E+02
4938000000.000000      3.773651000000000E-01      1.992090000000000E+01      1.804352000000000E-01      1.566641000000000E+02
4939000000.000000      3.769989000000000E-01      1.969531000000000E+01      1.764603000000000E-01      1.569219000000000E+02
4940000000.000000      3.773193000000000E-01      1.953418000000000E+01      1.727600000000000E-01      1.569609000000000E+02
4941000000.000000      3.766937000000000E-01      1.927051000000000E+01      1.689758000000000E-01      1.576094000000000E+02
4942000000.000000      3.755493000000000E-01      1.922266000000000E+01      1.647263000000000E-01      1.579609000000000E+02
4943000000.000000      3.755035000000000E-01      1.899805000000000E+01      1.615829000000000E-01      1.584609000000000E+02
4944000000.000000      3.750305000000000E-01      1.872559000000000E+01      1.571503000000000E-01      1.588203000000000E+02
4945000000.000000      3.761597000000000E-01      1.862305000000000E+01      1.538544000000000E-01      1.594844000000000E+02
4946000000.000000      3.752899000000000E-01      1.849316000000000E+01      1.501999000000000E-01      1.601563000000000E+02
4947000000.000000      3.744049000000000E-01      1.831250000000000E+01      1.467361000000000E-01      1.610234000000000E+02
4948000000.000000      3.751984000000000E-01      1.820019000000000E+01      1.435547000000000E-01      1.617422000000000E+02
4949000000.000000      3.739166000000000E-01      1.808203000000000E+01      1.400223000000000E-01      1.629141000000000E+02
4950000000.000000      3.742676000000000E-01      1.788086000000000E+01      1.369019000000000E-01      1.636953000000000E+02
4951000000.000000      3.740540000000000E-01      1.754199000000000E+01      1.341324000000000E-01      1.645859000000000E+02
4952000000.000000      3.725739000000000E-01      1.756640000000000E+01      1.315079000000000E-01      1.659375000000000E+02
4953000000.000000      3.728790000000000E-01      1.727051000000000E+01      1.290817000000000E-01      1.672266000000000E+02
4954000000.000000      3.724060000000000E-01      1.703613000000000E+01      1.263046000000000E-01      1.686250000000000E+02
