! Network Analyzer HP8722D
! Hewlett-Packard
! Data name: Linha & Wilkinson
! Saver's name: Rodrigo Anjos
! Comments: Teste da utilização de aquisição
continua pelo VNA HP8722D
! Time and date: 23/5/2025 13:13
!              Frequency                     S11                                                   S21                                                   S12                                                   S22
# HZ  S  MA R 50
4800000000.000000      2.867889000000000E-01      3.960938000000000E+01      4.828491000000000E-01     -1.294219000000000E+02
4801000000.000000      2.883759000000000E-01      3.989453000000000E+01      4.856415000000000E-01     -1.301406000000000E+02
4802000000.000000      2.892761000000000E-01      4.004296000000000E+01      4.859924000000000E-01     -1.307578000000000E+02
4803000000.000000      2.903748000000000E-01      4.027148000000000E+01      4.887238000000000E-01     -1.315391000000000E+02
4804000000.000000      2.913818000000000E-01      4.058984000000000E+01      4.893494000000000E-01     -1.320469000000000E+02
4805000000.000000      2.931213000000000E-01      4.057031000000000E+01      4.913940000000000E-01     -1.328516000000000E+02
4806000000.000000      2.942200000000000E-01      4.078125000000000E+01      4.925385000000000E-01     -1.335938000000000E+02
4807000000.000000      2.954559000000000E-01      4.094140000000000E+01      4.942627000000000E-01     -1.345703000000000E+02
4808000000.000000      2.962494000000000E-01      4.120703000000000E+01      4.964294000000000E-01     -1.348906000000000E+02
4809000000.000000      2.979279000000000E-01      4.145508000000000E+01      4.967804000000000E-01     -1.359141000000000E+02
4810000000.000000      2.999420000000000E-01      4.148828000000000E+01      4.983521000000000E-01     -1.364766000000000E+02
4811000000.000000      3.014679000000000E-01      4.162890000000000E+01      4.996948000000000E-01     -1.374375000000000E+02
4812000000.000000      3.036041000000000E-01      4.193164000000000E+01      5.001831000000000E-01     -1.380625000000000E+02
4813000000.000000      3.048553000000000E-01      4.194726000000000E+01      5.018005000000000E-01     -1.388125000000000E+02
4814000000.000000      3.055725000000000E-01      4.204102000000000E+01      5.017700000000000E-01     -1.394922000000000E+02
4815000000.000000      3.076477000000000E-01      4.214257000000000E+01      5.029907000000000E-01     -1.402891000000000E+02
4816000000.000000      3.099976000000000E-01      4.222852000000000E+01      5.043945000000000E-01     -1.408828000000000E+02
4817000000.000000      3.114319000000000E-01      4.231054000000000E+01      5.042419000000000E-01     -1.417109000000000E+02
4818000000.000000      3.124847000000000E-01      4.226563000000000E+01      5.037842000000000E-01     -1.423203000000000E+02
4819000000.000000      3.146820000000000E-01      4.233007000000000E+01      5.036316000000000E-01     -1.431484000000000E+02
4820000000.000000      3.157501000000000E-01      4.244922000000000E+01      5.048218000000000E-01     -1.439687000000000E+02
4821000000.000000      3.186188000000000E-01      4.251562000000000E+01      5.047302000000000E-01     -1.446172000000000E+02
4822000000.000000      3.195343000000000E-01      4.236718000000000E+01      5.033875000000000E-01     -1.454141000000000E+02
4823000000.000000      3.212891000000000E-01      4.237305000000000E+01      5.048828000000000E-01     -1.459844000000000E+02
4824000000.000000      3.229523000000000E-01      4.252343000000000E+01      5.044861000000000E-01     -1.469141000000000E+02
4825000000.000000      3.253021000000000E-01      4.233984000000000E+01      5.033264000000000E-01     -1.476250000000000E+02
4826000000.000000      3.269348000000000E-01      4.236914000000000E+01      5.045471000000000E-01     -1.484688000000000E+02
4827000000.000000      3.289948000000000E-01      4.231250000000000E+01      5.044250000000000E-01     -1.489375000000000E+02
4828000000.000000      3.309174000000000E-01      4.228516000000000E+01      5.031433000000000E-01     -1.496719000000000E+02
4829000000.000000      3.324585000000000E-01      4.237109000000000E+01      5.035095000000000E-01     -1.503594000000000E+02
4830000000.000000      3.346405000000000E-01      4.206445000000000E+01      5.027466000000000E-01     -1.512656000000000E+02
4831000000.000000      3.358765000000000E-01      4.201562000000000E+01      5.028076000000000E-01     -1.520234000000000E+02
4832000000.000000      3.382416000000000E-01      4.212695000000000E+01      5.023193000000000E-01     -1.525938000000000E+02
4833000000.000000      3.392639000000000E-01      4.188867000000000E+01      5.014954000000000E-01     -1.532344000000000E+02
4834000000.000000      3.414307000000000E-01      4.175586000000000E+01      4.994507000000000E-01     -1.540625000000000E+02
4835000000.000000      3.434143000000000E-01      4.163086000000000E+01      4.997711000000000E-01     -1.549844000000000E+02
4836000000.000000      3.453979000000000E-01      4.165039000000000E+01      4.968414000000000E-01     -1.554141000000000E+02
4837000000.000000      3.465729000000000E-01      4.155078000000000E+01      4.951630000000000E-01     -1.564609000000000E+02
4838000000.000000      3.486938000000000E-01      4.131640000000000E+01      4.951935000000000E-01     -1.569531000000000E+02
4839000000.000000      3.513947000000000E-01      4.122070000000000E+01      4.945831000000000E-01     -1.576328000000000E+02
4840000000.000000      3.517456000000000E-01      4.091406000000000E+01      4.934540000000000E-01     -1.581406000000000E+02
4841000000.000000      3.539429000000000E-01      4.096484000000000E+01      4.929047000000000E-01     -1.590937000000000E+02
4842000000.000000      3.548126000000000E-01      4.068164000000000E+01      4.914703000000000E-01     -1.598516000000000E+02
4843000000.000000      3.577576000000000E-01      4.046288000000000E+01      4.903564000000000E-01     -1.606094000000000E+02
4844000000.000000      3.582764000000000E-01      4.028906000000000E+01      4.891663000000000E-01     -1.612266000000000E+02
4845000000.000000      3.600922000000000E-01      4.024804000000000E+01      4.865417000000000E-01     -1.618438000000000E+02
4846000000.000000      3.621368000000000E-01      4.002539000000000E+01      4.866333000000000E-01     -1.625625000000000E+02
4847000000.000000      3.635101000000000E-01      3.978711000000000E+01      4.839630000000000E-01     -1.633203000000000E+02
4848000000.000000      3.643036000000000E-01      3.957812000000000E+01      4.810486000000000E-01     -1.639453000000000E+02
4849000000.000000      3.654633000000000E-01      3.932812000000000E+01      4.807739000000000E-01     -1.646250000000000E+02
4850000000.000000      3.671265000000000E-01      3.922656000000000E+01      4.783020000000000E-01     -1.654453000000000E+02
4851000000.000000      3.688202000000000E-01      3.909180000000000E+01      4.775848000000000E-01     -1.661875000000000E+02
4852000000.000000      3.704529000000000E-01      3.883203000000000E+01      4.743347000000000E-01     -1.669688000000000E+02
4853000000.000000      3.712921000000000E-01      3.853516000000000E+01      4.712982000000000E-01     -1.673828000000000E+02
4854000000.000000      3.724365000000000E-01      3.824023000000000E+01      4.695282000000000E-01     -1.684531000000000E+02
4855000000.000000      3.739014000000000E-01      3.805859000000000E+01      4.673462000000000E-01     -1.688906000000000E+02
4856000000.000000      3.746948000000000E-01      3.778906000000000E+01      4.655304000000000E-01     -1.696250000000000E+02
4857000000.000000      3.759613000000000E-01      3.778125000000000E+01      4.627991000000000E-01     -1.702891000000000E+02
4858000000.000000      3.765564000000000E-01      3.730078000000000E+01      4.601898000000000E-01     -1.710859000000000E+02
4859000000.000000      3.783417000000000E-01      3.701562000000000E+01      4.590149000000000E-01     -1.717891000000000E+02
4860000000.000000      3.790588000000000E-01      3.693945000000000E+01      4.564362000000000E-01     -1.721641000000000E+02
4861000000.000000      3.802795000000000E-01      3.673828000000000E+01      4.532928000000000E-01     -1.729609000000000E+02
4862000000.000000      3.809204000000000E-01      3.635156000000000E+01      4.512482000000000E-01     -1.737656000000000E+02
4863000000.000000      3.818207000000000E-01      3.615429000000000E+01      4.472198000000000E-01     -1.744766000000000E+02
4864000000.000000      3.832855000000000E-01      3.584961000000000E+01      4.450989000000000E-01     -1.748359000000000E+02
4865000000.000000      3.834686000000000E-01      3.557617000000000E+01      4.414978000000000E-01     -1.758516000000000E+02
4866000000.000000      3.849335000000000E-01      3.532617000000000E+01      4.383087000000000E-01     -1.764922000000000E+02
4867000000.000000      3.848724000000000E-01      3.504883000000000E+01      4.358215000000000E-01     -1.770859000000000E+02
4868000000.000000      3.861542000000000E-01      3.483593000000000E+01      4.330292000000000E-01     -1.777969000000000E+02
4869000000.000000      3.870239000000000E-01      3.459570000000000E+01      4.295959000000000E-01     -1.785078000000000E+02
4870000000.000000      3.877716000000000E-01      3.442578000000000E+01      4.257965000000000E-01     -1.789297000000000E+02
4871000000.000000      3.877411000000000E-01      3.400391000000000E+01      4.225922000000000E-01     -1.796484000000000E+02
4872000000.000000      3.893127000000000E-01      3.375586000000000E+01      4.188080000000000E-01      1.799219000000000E+02
4873000000.000000      3.891754000000000E-01      3.355859000000000E+01      4.161530000000000E-01      1.789922000000000E+02
4874000000.000000      3.898010000000000E-01      3.324023000000000E+01      4.132843000000000E-01      1.785547000000000E+02
4875000000.000000      3.899078000000000E-01      3.291016000000000E+01      4.089355000000000E-01      1.781094000000000E+02
4876000000.000000      3.910522000000000E-01      3.280078000000000E+01      4.059906000000000E-01      1.774609000000000E+02
4877000000.000000      3.915558000000000E-01      3.241796000000000E+01      4.040222000000000E-01      1.767422000000000E+02
4878000000.000000      3.912506000000000E-01      3.217968000000000E+01      4.001312000000000E-01      1.762734000000000E+02
4879000000.000000      3.929901000000000E-01      3.193164000000000E+01      3.943634000000000E-01      1.757578000000000E+02
4880000000.000000      3.928833000000000E-01      3.167871000000000E+01      3.932648000000000E-01      1.750156000000000E+02
4881000000.000000      3.924561000000000E-01      3.138867000000000E+01      3.897552000000000E-01      1.746875000000000E+02
4882000000.000000      3.935852000000000E-01      3.129297000000000E+01      3.852844000000000E-01      1.740625000000000E+02
4883000000.000000      3.928986000000000E-01      3.094629000000000E+01      3.817902000000000E-01      1.732344000000000E+02
4884000000.000000      3.941803000000000E-01      3.062793000000000E+01      3.790588000000000E-01      1.730156000000000E+02
4885000000.000000      3.933868000000000E-01      3.045507000000000E+01      3.742828000000000E-01      1.727344000000000E+02
4886000000.000000      3.942871000000000E-01      3.031054000000000E+01      3.715515000000000E-01      1.722812000000000E+02
4887000000.000000      3.937531000000000E-01      3.008008000000000E+01      3.687744000000000E-01      1.713594000000000E+02
4888000000.000000      3.936768000000000E-01      2.970508000000000E+01      3.654327000000000E-01      1.710703000000000E+02
4889000000.000000      3.941193000000000E-01      2.945117000000000E+01      3.610687000000000E-01      1.705547000000000E+02
4890000000.000000      3.930664000000000E-01      2.911914000000000E+01      3.555450000000000E-01      1.698984000000000E+02
4891000000.000000      3.943939000000000E-01      2.887402000000000E+01      3.544922000000000E-01      1.695547000000000E+02
4892000000.000000      3.939362000000000E-01      2.874414000000000E+01      3.500671000000000E-01      1.692812000000000E+02
4893000000.000000      3.944702000000000E-01      2.839746000000000E+01      3.476563000000000E-01      1.686094000000000E+02
4894000000.000000      3.940887000000000E-01      2.826562000000000E+01      3.420410000000000E-01      1.681094000000000E+02
4895000000.000000      3.943329000000000E-01      2.805761000000000E+01      3.392181000000000E-01      1.682422000000000E+02
4896000000.000000      3.943024000000000E-01      2.769726000000000E+01      3.362732000000000E-01      1.672422000000000E+02
4897000000.000000      3.934174000000000E-01      2.755859000000000E+01      3.317108000000000E-01      1.670781000000000E+02
4898000000.000000      3.940277000000000E-01      2.746777000000000E+01      3.293610000000000E-01      1.664687000000000E+02
4899000000.000000      3.936920000000000E-01      2.712305000000000E+01      3.254547000000000E-01      1.662031000000000E+02
4900000000.000000      3.927307000000000E-01      2.677637000000000E+01      3.214569000000000E-01      1.659375000000000E+02
4901000000.000000      3.928680000000000E-01      2.669043000000000E+01      3.194427000000000E-01      1.654531000000000E+02
4902000000.000000      3.927002000000000E-01      2.651074000000000E+01      3.161316000000000E-01      1.651953000000000E+02
4903000000.000000      3.932343000000000E-01      2.627734000000000E+01      3.122711000000000E-01      1.646797000000000E+02
4904000000.000000      3.924866000000000E-01      2.609766000000000E+01      3.085480000000000E-01      1.641797000000000E+02
4905000000.000000      3.921661000000000E-01      2.587793000000000E+01      3.057404000000000E-01      1.638281000000000E+02
4906000000.000000      3.915405000000000E-01      2.564844000000000E+01      3.021545000000000E-01      1.636641000000000E+02
4907000000.000000      3.923340000000000E-01      2.548535000000000E+01      2.993011000000000E-01      1.631953000000000E+02
4908000000.000000      3.927002000000000E-01      2.523340000000000E+01      2.953491000000000E-01      1.626484000000000E+02
4909000000.000000      3.906097000000000E-01      2.505664000000000E+01      2.920990000000000E-01      1.623750000000000E+02
4910000000.000000      3.908234000000000E-01      2.493261000000000E+01      2.883148000000000E-01      1.617969000000000E+02
4911000000.000000      3.912659000000000E-01      2.462695000000000E+01      2.844696000000000E-01      1.616406000000000E+02
4912000000.000000      3.907471000000000E-01      2.445898000000000E+01      2.817688000000000E-01      1.611719000000000E+02
4913000000.000000      3.898621000000000E-01      2.425781000000000E+01      2.776642000000000E-01      1.609688000000000E+02
4914000000.000000      3.907166000000000E-01      2.401953000000000E+01      2.741394000000000E-01      1.605547000000000E+02
4915000000.000000      3.900604000000000E-01      2.389160000000000E+01      2.702484000000000E-01      1.600781000000000E+02
4916000000.000000      3.899384000000000E-01      2.383203000000000E+01      2.660675000000000E-01      1.597188000000000E+02
4917000000.000000      3.899078000000000E-01      2.356348000000000E+01      2.624969000000000E-01      1.596172000000000E+02
4918000000.000000      3.891144000000000E-01      2.345215000000000E+01      2.588196000000000E-01      1.590703000000000E+02
4919000000.000000      3.889160000000000E-01      2.318164000000000E+01      2.553253000000000E-01      1.590781000000000E+02
4920000000.000000      3.892212000000000E-01      2.293359000000000E+01      2.509460000000000E-01      1.585312000000000E+02
4921000000.000000      3.878326000000000E-01      2.278515000000000E+01      2.480011000000000E-01      1.582969000000000E+02
4922000000.000000      3.886261000000000E-01      2.248145000000000E+01      2.442245000000000E-01      1.580391000000000E+02
4923000000.000000      3.883057000000000E-01      2.239941000000000E+01      2.394562000000000E-01      1.576953000000000E+02
4924000000.000000      3.881378000000000E-01      2.234179000000000E+01      2.358322000000000E-01      1.573359000000000E+02
4925000000.000000      3.873749000000000E-01      2.199414000000000E+01      2.319412000000000E-01      1.572500000000000E+02
4926000000.000000      3.866882000000000E-01      2.198144000000000E+01      2.286072000000000E-01      1.570313000000000E+02
4927000000.000000      3.874512000000000E-01      2.175488000000000E+01      2.241211000000000E-01      1.567656000000000E+02
4928000000.000000      3.869934000000000E-01      2.159766000000000E+01      2.202148000000000E-01      1.566484000000000E+02
4929000000.000000      3.858948000000000E-01      2.134570000000000E+01      2.160263000000000E-01      1.565547000000000E+02
4930000000.000000      3.854828000000000E-01      2.123730000000000E+01      2.120514000000000E-01      1.564062000000000E+02
4931000000.000000      3.858948000000000E-01      2.093164000000000E+01      2.086792000000000E-01      1.564766000000000E+02
4932000000.000000      3.860779000000000E-01      2.087207000000000E+01      2.043533000000000E-01      1.561563000000000E+02
4933000000.000000      3.854065000000000E-01      2.068848000000000E+01      1.994095000000000E-01      1.563047000000000E+02
4934000000.000000      3.854523000000000E-01      2.025391000000000E+01      1.953506000000000E-01      1.563828000000000E+02
4935000000.000000      3.858032000000000E-01      2.039063000000000E+01      1.920090000000000E-01      1.564531000000000E+02
4936000000.000000      3.832092000000000E-01      2.024707000000000E+01      1.876221000000000E-01      1.565859000000000E+02
4937000000.000000      3.841705000000000E-01      2.008691000000000E+01      1.842422000000000E-01      1.565078000000000E+02
4938000000.000000      3.844452000000000E-01      1.977344000000000E+01      1.794586000000000E-01      1.570625000000000E+02
4939000000.000000      3.834686000000000E-01      1.968554000000000E+01      1.760330000000000E-01      1.571875000000000E+02
4940000000.000000      3.836975000000000E-01      1.943262000000000E+01      1.717224000000000E-01      1.573516000000000E+02
4941000000.000000      3.831177000000000E-01      1.931933000000000E+01      1.682510000000000E-01      1.578281000000000E+02
4942000000.000000      3.824158000000000E-01      1.932129000000000E+01      1.641617000000000E-01      1.580781000000000E+02
4943000000.000000      3.833618000000000E-01      1.889648000000000E+01      1.605530000000000E-01      1.585078000000000E+02
4944000000.000000      3.820648000000000E-01      1.864355000000000E+01      1.569138000000000E-01      1.591953000000000E+02
4945000000.000000      3.829956000000000E-01      1.876660000000000E+01      1.528091000000000E-01      1.597031000000000E+02
4946000000.000000      3.819580000000000E-01      1.855273000000000E+01      1.492615000000000E-01      1.602813000000000E+02
4947000000.000000      3.812103000000000E-01      1.821582000000000E+01      1.459503000000000E-01      1.611016000000000E+02
4948000000.000000      3.811493000000000E-01      1.826953000000000E+01      1.424789000000000E-01      1.617734000000000E+02
4949000000.000000      3.808899000000000E-01      1.788379000000000E+01      1.398163000000000E-01      1.630469000000000E+02
4950000000.000000      3.816528000000000E-01      1.802930000000000E+01      1.362915000000000E-01      1.637812000000000E+02
4951000000.000000      3.809357000000000E-01      1.787793000000000E+01      1.333389000000000E-01      1.646797000000000E+02
4952000000.000000      3.801422000000000E-01      1.748242000000000E+01      1.305695000000000E-01      1.659922000000000E+02
4953000000.000000      3.793030000000000E-01      1.726074000000000E+01      1.282043000000000E-01      1.673594000000000E+02
4954000000.000000      3.790894000000000E-01      1.724414000000000E+01      1.253891000000000E-01      1.686641000000000E+02
