! Network Analyzer HP8722D
! Hewlett-Packard
! Data name: Linha & Wilkinson
! Saver's name: Rodrigo Anjos
! Comments: Teste da utilização de aquisição
continua pelo VNA HP8722D
! Time and date: 23/5/2025 10:21
!              Frequency                     S11                                                   S21                                                   S12                                                   S22
# HZ  S  MA R 50
4800000000.000000      3.160248000000000E-01      3.699414000000000E+01      4.702301000000000E-01     -1.279844000000000E+02
4801000000.000000      3.166504000000000E-01      3.733007000000000E+01      4.707794000000000E-01     -1.286562000000000E+02
4802000000.000000      3.178558000000000E-01      3.750977000000000E+01      4.711914000000000E-01     -1.291797000000000E+02
4803000000.000000      3.183594000000000E-01      3.767578000000000E+01      4.762115000000000E-01     -1.300859000000000E+02
4804000000.000000      3.194427000000000E-01      3.786133000000000E+01      4.768524000000000E-01     -1.308047000000000E+02
4805000000.000000      3.214722000000000E-01      3.790820000000000E+01      4.779510000000000E-01     -1.316953000000000E+02
4806000000.000000      3.220367000000000E-01      3.810742000000000E+01      4.781799000000000E-01     -1.323516000000000E+02
4807000000.000000      3.228912000000000E-01      3.825000000000000E+01      4.803925000000000E-01     -1.330156000000000E+02
4808000000.000000      3.231201000000000E-01      3.847070000000000E+01      4.822693000000000E-01     -1.337734000000000E+02
4809000000.000000      3.247223000000000E-01      3.867969000000000E+01      4.838867000000000E-01     -1.345625000000000E+02
4810000000.000000      3.263092000000000E-01      3.878711000000000E+01      4.835968000000000E-01     -1.351016000000000E+02
4811000000.000000      3.273926000000000E-01      3.890234000000000E+01      4.847107000000000E-01     -1.360469000000000E+02
4812000000.000000      3.302765000000000E-01      3.916211000000000E+01      4.850006000000000E-01     -1.366094000000000E+02
4813000000.000000      3.308105000000000E-01      3.920898000000000E+01      4.859619000000000E-01     -1.374609000000000E+02
4814000000.000000      3.317413000000000E-01      3.920312000000000E+01      4.864349000000000E-01     -1.380156000000000E+02
4815000000.000000      3.329315000000000E-01      3.939648000000000E+01      4.884796000000000E-01     -1.388516000000000E+02
4816000000.000000      3.351440000000000E-01      3.941992000000000E+01      4.880524000000000E-01     -1.394531000000000E+02
4817000000.000000      3.361664000000000E-01      3.958789000000000E+01      4.885254000000000E-01     -1.405234000000000E+02
4818000000.000000      3.380432000000000E-01      3.956640000000000E+01      4.894409000000000E-01     -1.411719000000000E+02
4819000000.000000      3.399658000000000E-01      3.961328000000000E+01      4.889679000000000E-01     -1.418906000000000E+02
4820000000.000000      3.402557000000000E-01      3.975195000000000E+01      4.890747000000000E-01     -1.425000000000000E+02
4821000000.000000      3.438873000000000E-01      3.973047000000000E+01      4.894867000000000E-01     -1.434219000000000E+02
4822000000.000000      3.437653000000000E-01      3.967578000000000E+01      4.881287000000000E-01     -1.438906000000000E+02
4823000000.000000      3.460541000000000E-01      3.975976000000000E+01      4.894562000000000E-01     -1.447187000000000E+02
4824000000.000000      3.478088000000000E-01      3.981640000000000E+01      4.890137000000000E-01     -1.455469000000000E+02
4825000000.000000      3.497314000000000E-01      3.976758000000000E+01      4.897308000000000E-01     -1.461875000000000E+02
4826000000.000000      3.507385000000000E-01      3.976758000000000E+01      4.894562000000000E-01     -1.469453000000000E+02
4827000000.000000      3.528748000000000E-01      3.972851000000000E+01      4.887390000000000E-01     -1.477031000000000E+02
4828000000.000000      3.546295000000000E-01      3.973828000000000E+01      4.882965000000000E-01     -1.484297000000000E+02
4829000000.000000      3.560944000000000E-01      3.985937000000000E+01      4.870758000000000E-01     -1.489453000000000E+02
4830000000.000000      3.582001000000000E-01      3.966992000000000E+01      4.873047000000000E-01     -1.499063000000000E+02
4831000000.000000      3.589325000000000E-01      3.960351000000000E+01      4.862366000000000E-01     -1.506328000000000E+02
4832000000.000000      3.612823000000000E-01      3.968359000000000E+01      4.855957000000000E-01     -1.512891000000000E+02
4833000000.000000      3.627014000000000E-01      3.935351000000000E+01      4.854736000000000E-01     -1.518672000000000E+02
4834000000.000000      3.642273000000000E-01      3.938086000000000E+01      4.835663000000000E-01     -1.526172000000000E+02
4835000000.000000      3.659363000000000E-01      3.918750000000000E+01      4.840393000000000E-01     -1.533437000000000E+02
4836000000.000000      3.681335000000000E-01      3.929883000000000E+01      4.816742000000000E-01     -1.540937000000000E+02
4837000000.000000      3.695831000000000E-01      3.918359000000000E+01      4.810486000000000E-01     -1.550703000000000E+02
4838000000.000000      3.704224000000000E-01      3.904687000000000E+01      4.794464000000000E-01     -1.555078000000000E+02
4839000000.000000      3.732300000000000E-01      3.905468000000000E+01      4.797363000000000E-01     -1.560547000000000E+02
4840000000.000000      3.748779000000000E-01      3.868359000000000E+01      4.787903000000000E-01     -1.570000000000000E+02
4841000000.000000      3.760529000000000E-01      3.869922000000000E+01      4.769745000000000E-01     -1.579453000000000E+02
4842000000.000000      3.775482000000000E-01      3.850781000000000E+01      4.758148000000000E-01     -1.583359000000000E+02
4843000000.000000      3.799133000000000E-01      3.819921000000000E+01      4.751434000000000E-01     -1.593281000000000E+02
4844000000.000000      3.802338000000000E-01      3.828516000000000E+01      4.727783000000000E-01     -1.599062000000000E+02
4845000000.000000      3.816528000000000E-01      3.817578000000000E+01      4.720612000000000E-01     -1.604531000000000E+02
4846000000.000000      3.840637000000000E-01      3.793359000000000E+01      4.702606000000000E-01     -1.612813000000000E+02
4847000000.000000      3.857117000000000E-01      3.785156000000000E+01      4.680176000000000E-01     -1.618906000000000E+02
4848000000.000000      3.858185000000000E-01      3.752344000000000E+01      4.654694000000000E-01     -1.624844000000000E+02
4849000000.000000      3.884583000000000E-01      3.728906000000000E+01      4.651642000000000E-01     -1.634375000000000E+02
4850000000.000000      3.892212000000000E-01      3.716211000000000E+01      4.619293000000000E-01     -1.640938000000000E+02
4851000000.000000      3.907623000000000E-01      3.716211000000000E+01      4.616852000000000E-01     -1.649219000000000E+02
4852000000.000000      3.917847000000000E-01      3.689648000000000E+01      4.589996000000000E-01     -1.654531000000000E+02
4853000000.000000      3.932037000000000E-01      3.667969000000000E+01      4.571991000000000E-01     -1.664297000000000E+02
4854000000.000000      3.949432000000000E-01      3.645703000000000E+01      4.549408000000000E-01     -1.669609000000000E+02
4855000000.000000      3.958740000000000E-01      3.633203000000000E+01      4.535828000000000E-01     -1.677187000000000E+02
4856000000.000000      3.974457000000000E-01      3.602344000000000E+01      4.503784000000000E-01     -1.681562000000000E+02
4857000000.000000      3.983459000000000E-01      3.590429000000000E+01      4.477997000000000E-01     -1.689531000000000E+02
4858000000.000000      3.988953000000000E-01      3.560937000000000E+01      4.461365000000000E-01     -1.696250000000000E+02
4859000000.000000      4.003906000000000E-01      3.541797000000000E+01      4.434204000000000E-01     -1.705312000000000E+02
4860000000.000000      4.012146000000000E-01      3.525976000000000E+01      4.402313000000000E-01     -1.711250000000000E+02
4861000000.000000      4.018097000000000E-01      3.506250000000000E+01      4.388733000000000E-01     -1.717656000000000E+02
4862000000.000000      4.025269000000000E-01      3.482031000000000E+01      4.381866000000000E-01     -1.724844000000000E+02
4863000000.000000      4.040375000000000E-01      3.455469000000000E+01      4.328308000000000E-01     -1.731875000000000E+02
4864000000.000000      4.049530000000000E-01      3.424609000000000E+01      4.297943000000000E-01     -1.738047000000000E+02
4865000000.000000      4.048615000000000E-01      3.397851000000000E+01      4.283447000000000E-01     -1.744844000000000E+02
4866000000.000000      4.065247000000000E-01      3.385156000000000E+01      4.232635000000000E-01     -1.751875000000000E+02
4867000000.000000      4.064484000000000E-01      3.364062000000000E+01      4.221497000000000E-01     -1.761094000000000E+02
4868000000.000000      4.080963000000000E-01      3.343164000000000E+01      4.177856000000000E-01     -1.765234000000000E+02
4869000000.000000      4.083405000000000E-01      3.312304000000000E+01      4.147491000000000E-01     -1.771484000000000E+02
4870000000.000000      4.095917000000000E-01      3.296289000000000E+01      4.116974000000000E-01     -1.776875000000000E+02
4871000000.000000      4.099426000000000E-01      3.262109000000000E+01      4.096069000000000E-01     -1.784375000000000E+02
4872000000.000000      4.126434000000000E-01      3.246679000000000E+01      4.059906000000000E-01     -1.789844000000000E+02
4873000000.000000      4.121246000000000E-01      3.225781000000000E+01      4.026642000000000E-01     -1.795938000000000E+02
4874000000.000000      4.123993000000000E-01      3.211328000000000E+01      3.977814000000000E-01      1.796719000000000E+02
4875000000.000000      4.131012000000000E-01      3.173340000000000E+01      3.953552000000000E-01      1.790469000000000E+02
4876000000.000000      4.138031000000000E-01      3.167285000000000E+01      3.914032000000000E-01      1.785781000000000E+02
4877000000.000000      4.145660000000000E-01      3.127734000000000E+01      3.893127000000000E-01      1.781953000000000E+02
4878000000.000000      4.127655000000000E-01      3.092285000000000E+01      3.858490000000000E-01      1.775234000000000E+02
4879000000.000000      4.152832000000000E-01      3.088183000000000E+01      3.802948000000000E-01      1.770078000000000E+02
4880000000.000000      4.154968000000000E-01      3.048340000000000E+01      3.795776000000000E-01      1.762266000000000E+02
4881000000.000000      4.159393000000000E-01      3.039844000000000E+01      3.762207000000000E-01      1.758203000000000E+02
4882000000.000000      4.162140000000000E-01      3.017187000000000E+01      3.712158000000000E-01      1.752187000000000E+02
4883000000.000000      4.157867000000000E-01      2.988476000000000E+01      3.663025000000000E-01      1.745703000000000E+02
4884000000.000000      4.172516000000000E-01      2.972168000000000E+01      3.645630000000000E-01      1.742109000000000E+02
4885000000.000000      4.173279000000000E-01      2.948535000000000E+01      3.599854000000000E-01      1.736016000000000E+02
4886000000.000000      4.174042000000000E-01      2.927246000000000E+01      3.571777000000000E-01      1.733047000000000E+02
4887000000.000000      4.171295000000000E-01      2.903906000000000E+01      3.543701000000000E-01      1.725937000000000E+02
4888000000.000000      4.170837000000000E-01      2.877832000000000E+01      3.504791000000000E-01      1.722188000000000E+02
4889000000.000000      4.167328000000000E-01      2.854199000000000E+01      3.464508000000000E-01      1.719219000000000E+02
4890000000.000000      4.169617000000000E-01      2.830566000000000E+01      3.433075000000000E-01      1.711172000000000E+02
4891000000.000000      4.182587000000000E-01      2.814355000000000E+01      3.403931000000000E-01      1.707344000000000E+02
4892000000.000000      4.176636000000000E-01      2.781250000000000E+01      3.365021000000000E-01      1.703438000000000E+02
4893000000.000000      4.185944000000000E-01      2.770312000000000E+01      3.335876000000000E-01      1.698906000000000E+02
4894000000.000000      4.175873000000000E-01      2.745800000000000E+01      3.277130000000000E-01      1.694453000000000E+02
4895000000.000000      4.180756000000000E-01      2.713183000000000E+01      3.266296000000000E-01      1.692812000000000E+02
4896000000.000000      4.170380000000000E-01      2.701660000000000E+01      3.225861000000000E-01      1.687422000000000E+02
4897000000.000000      4.168701000000000E-01      2.693554000000000E+01      3.186493000000000E-01      1.684062000000000E+02
4898000000.000000      4.173584000000000E-01      2.664258000000000E+01      3.158417000000000E-01      1.680938000000000E+02
4899000000.000000      4.168549000000000E-01      2.650391000000000E+01      3.126221000000000E-01      1.674297000000000E+02
4900000000.000000      4.170685000000000E-01      2.626953000000000E+01      3.094482000000000E-01      1.671875000000000E+02
4901000000.000000      4.171906000000000E-01      2.591992000000000E+01      3.057709000000000E-01      1.667266000000000E+02
4902000000.000000      4.167480000000000E-01      2.599218000000000E+01      3.026428000000000E-01      1.665078000000000E+02
4903000000.000000      4.179382000000000E-01      2.566504000000000E+01      2.984772000000000E-01      1.659922000000000E+02
4904000000.000000      4.164581000000000E-01      2.542285000000000E+01      2.957916000000000E-01      1.654609000000000E+02
4905000000.000000      4.165497000000000E-01      2.522265000000000E+01      2.939758000000000E-01      1.650391000000000E+02
4906000000.000000      4.163818000000000E-01      2.507715000000000E+01      2.890930000000000E-01      1.649453000000000E+02
4907000000.000000      4.164581000000000E-01      2.490039000000000E+01      2.858734000000000E-01      1.644922000000000E+02
4908000000.000000      4.165955000000000E-01      2.459082000000000E+01      2.832489000000000E-01      1.640156000000000E+02
4909000000.000000      4.160309000000000E-01      2.450000000000000E+01      2.789612000000000E-01      1.636562000000000E+02
4910000000.000000      4.161987000000000E-01      2.433789000000000E+01      2.751160000000000E-01      1.634063000000000E+02
4911000000.000000      4.156342000000000E-01      2.414355000000000E+01      2.726440000000000E-01      1.630703000000000E+02
4912000000.000000      4.146271000000000E-01      2.406250000000000E+01      2.684631000000000E-01      1.625625000000000E+02
4913000000.000000      4.159241000000000E-01      2.386328000000000E+01      2.653046000000000E-01      1.623125000000000E+02
4914000000.000000      4.153900000000000E-01      2.360254000000000E+01      2.614594000000000E-01      1.619453000000000E+02
4915000000.000000      4.153442000000000E-01      2.340625000000000E+01      2.579803000000000E-01      1.614609000000000E+02
4916000000.000000      4.149170000000000E-01      2.331250000000000E+01      2.539978000000000E-01      1.612266000000000E+02
4917000000.000000      4.151154000000000E-01      2.319531000000000E+01      2.507172000000000E-01      1.609609000000000E+02
4918000000.000000      4.146881000000000E-01      2.303418000000000E+01      2.471390000000000E-01      1.604922000000000E+02
4919000000.000000      4.136658000000000E-01      2.285547000000000E+01      2.440033000000000E-01      1.605625000000000E+02
4920000000.000000      4.144135000000000E-01      2.252246000000000E+01      2.390518000000000E-01      1.599453000000000E+02
4921000000.000000      4.149628000000000E-01      2.259180000000000E+01      2.361374000000000E-01      1.597891000000000E+02
4922000000.000000      4.142303000000000E-01      2.234961000000000E+01      2.323914000000000E-01      1.596016000000000E+02
4923000000.000000      4.126282000000000E-01      2.216406000000000E+01      2.283020000000000E-01      1.593594000000000E+02
4924000000.000000      4.140625000000000E-01      2.197754000000000E+01      2.244568000000000E-01      1.589375000000000E+02
4925000000.000000      4.122314000000000E-01      2.181055000000000E+01      2.218475000000000E-01      1.588984000000000E+02
4926000000.000000      4.129639000000000E-01      2.160937000000000E+01      2.177429000000000E-01      1.587188000000000E+02
4927000000.000000      4.125977000000000E-01      2.150391000000000E+01      2.131500000000000E-01      1.584141000000000E+02
4928000000.000000      4.123993000000000E-01      2.109473000000000E+01      2.098999000000000E-01      1.584922000000000E+02
4929000000.000000      4.116669000000000E-01      2.110156000000000E+01      2.058640000000000E-01      1.582969000000000E+02
4930000000.000000      4.124298000000000E-01      2.102441000000000E+01      2.019577000000000E-01      1.582187000000000E+02
4931000000.000000      4.116364000000000E-01      2.079394000000000E+01      1.979675000000000E-01      1.581953000000000E+02
4932000000.000000      4.111176000000000E-01      2.065430000000000E+01      1.941147000000000E-01      1.580312000000000E+02
4933000000.000000      4.115295000000000E-01      2.051367000000000E+01      1.889267000000000E-01      1.583906000000000E+02
4934000000.000000      4.128418000000000E-01      2.023730000000000E+01      1.861725000000000E-01      1.580937000000000E+02
4935000000.000000      4.118805000000000E-01      2.008301000000000E+01      1.830750000000000E-01      1.584297000000000E+02
4936000000.000000      4.104614000000000E-01      2.002441000000000E+01      1.785965000000000E-01      1.583359000000000E+02
4937000000.000000      4.105530000000000E-01      1.982617000000000E+01      1.747971000000000E-01      1.587109000000000E+02
4938000000.000000      4.105377000000000E-01      1.980762000000000E+01      1.712341000000000E-01      1.589297000000000E+02
4939000000.000000      4.098511000000000E-01      1.975293000000000E+01      1.671982000000000E-01      1.592656000000000E+02
4940000000.000000      4.095612000000000E-01      1.947168000000000E+01      1.634674000000000E-01      1.594297000000000E+02
4941000000.000000      4.095764000000000E-01      1.928418000000000E+01      1.596451000000000E-01      1.599531000000000E+02
4942000000.000000      4.092255000000000E-01      1.914453000000000E+01      1.560593000000000E-01      1.604063000000000E+02
4943000000.000000      4.089508000000000E-01      1.890527000000000E+01      1.525040000000000E-01      1.610937000000000E+02
4944000000.000000      4.081573000000000E-01      1.866699000000000E+01      1.492386000000000E-01      1.615078000000000E+02
4945000000.000000      4.083862000000000E-01      1.852539000000000E+01      1.450424000000000E-01      1.622344000000000E+02
4946000000.000000      4.085693000000000E-01      1.839453000000000E+01      1.422882000000000E-01      1.627891000000000E+02
4947000000.000000      4.083710000000000E-01      1.816406000000000E+01      1.391068000000000E-01      1.635937000000000E+02
4948000000.000000      4.084015000000000E-01      1.809082000000000E+01      1.356583000000000E-01      1.645078000000000E+02
4949000000.000000      4.066925000000000E-01      1.797559000000000E+01      1.330032000000000E-01      1.657344000000000E+02
4950000000.000000      4.076843000000000E-01      1.786328000000000E+01      1.300659000000000E-01      1.666797000000000E+02
4951000000.000000      4.072876000000000E-01      1.764648000000000E+01      1.275177000000000E-01      1.674844000000000E+02
4952000000.000000      4.066315000000000E-01      1.749902000000000E+01      1.247406000000000E-01      1.688359000000000E+02
4953000000.000000      4.065704000000000E-01      1.734179000000000E+01      1.222305000000000E-01      1.703125000000000E+02
4954000000.000000      4.069214000000000E-01      1.709570000000000E+01      1.199684000000000E-01      1.715391000000000E+02
