! Network Analyzer HP8722D
! Hewlett-Packard
! Data name: Linha & Wilkinson
! Saver's name: Rodrigo Anjos
! Comments: Teste da utilização de aquisição
continua pelo VNA HP8722D
! Time and date: 23/5/2025 13:23
!              Frequency                     S11                                                   S21                                                   S12                                                   S22
# HZ  S  MA R 50
4800000000.000000      2.897339000000000E-01      3.953906000000000E+01      4.826813000000000E-01     -1.296875000000000E+02
4801000000.000000      2.908325000000000E-01      3.984961000000000E+01      4.844208000000000E-01     -1.303437000000000E+02
4802000000.000000      2.922821000000000E-01      4.004102000000000E+01      4.855347000000000E-01     -1.310156000000000E+02
4803000000.000000      2.929077000000000E-01      4.017774000000000E+01      4.885864000000000E-01     -1.316406000000000E+02
4804000000.000000      2.940674000000000E-01      4.038671000000000E+01      4.904938000000000E-01     -1.323047000000000E+02
4805000000.000000      2.962494000000000E-01      4.050977000000000E+01      4.901276000000000E-01     -1.330078000000000E+02
4806000000.000000      2.967224000000000E-01      4.073828000000000E+01      4.928284000000000E-01     -1.340391000000000E+02
4807000000.000000      2.981873000000000E-01      4.090429000000000E+01      4.930420000000000E-01     -1.348516000000000E+02
4808000000.000000      2.991333000000000E-01      4.106250000000000E+01      4.955444000000000E-01     -1.351406000000000E+02
4809000000.000000      3.011780000000000E-01      4.123828000000000E+01      4.954376000000000E-01     -1.362344000000000E+02
4810000000.000000      3.023987000000000E-01      4.139062000000000E+01      4.974060000000000E-01     -1.366797000000000E+02
4811000000.000000      3.041077000000000E-01      4.151563000000000E+01      4.975128000000000E-01     -1.374922000000000E+02
4812000000.000000      3.068237000000000E-01      4.171484000000000E+01      4.998169000000000E-01     -1.381094000000000E+02
4813000000.000000      3.074341000000000E-01      4.176758000000000E+01      5.000305000000000E-01     -1.388750000000000E+02
4814000000.000000      3.085175000000000E-01      4.191406000000000E+01      4.999390000000000E-01     -1.396484000000000E+02
4815000000.000000      3.100739000000000E-01      4.198438000000000E+01      5.008240000000000E-01     -1.404922000000000E+02
4816000000.000000      3.127747000000000E-01      4.203321000000000E+01      5.014343000000000E-01     -1.411094000000000E+02
4817000000.000000      3.136444000000000E-01      4.216992000000000E+01      5.032043000000000E-01     -1.418516000000000E+02
4818000000.000000      3.154907000000000E-01      4.215039000000000E+01      5.024414000000000E-01     -1.426484000000000E+02
4819000000.000000      3.175964000000000E-01      4.223242000000000E+01      5.022583000000000E-01     -1.434453000000000E+02
4820000000.000000      3.187866000000000E-01      4.232617000000000E+01      5.038452000000000E-01     -1.440625000000000E+02
4821000000.000000      3.214569000000000E-01      4.231250000000000E+01      5.050049000000000E-01     -1.446719000000000E+02
4822000000.000000      3.223877000000000E-01      4.215039000000000E+01      5.020142000000000E-01     -1.456328000000000E+02
4823000000.000000      3.246155000000000E-01      4.219531000000000E+01      5.042419000000000E-01     -1.463906000000000E+02
4824000000.000000      3.264160000000000E-01      4.238671000000000E+01      5.028381000000000E-01     -1.470078000000000E+02
4825000000.000000      3.280029000000000E-01      4.223242000000000E+01      5.034180000000000E-01     -1.477266000000000E+02
4826000000.000000      3.293457000000000E-01      4.210351000000000E+01      5.031433000000000E-01     -1.486953000000000E+02
4827000000.000000      3.315735000000000E-01      4.217187000000000E+01      5.017395000000000E-01     -1.491719000000000E+02
4828000000.000000      3.338318000000000E-01      4.208593000000000E+01      5.032043000000000E-01     -1.498828000000000E+02
4829000000.000000      3.351135000000000E-01      4.218359000000000E+01      5.007935000000000E-01     -1.506328000000000E+02
4830000000.000000      3.369446000000000E-01      4.192187000000000E+01      5.019226000000000E-01     -1.513984000000000E+02
4831000000.000000      3.381958000000000E-01      4.180078000000000E+01      5.004578000000000E-01     -1.523828000000000E+02
4832000000.000000      3.405609000000000E-01      4.183789000000000E+01      4.995728000000000E-01     -1.528359000000000E+02
4833000000.000000      3.416748000000000E-01      4.167773000000000E+01      4.984131000000000E-01     -1.535859000000000E+02
4834000000.000000      3.434296000000000E-01      4.157227000000000E+01      4.976807000000000E-01     -1.544219000000000E+02
4835000000.000000      3.455505000000000E-01      4.144336000000000E+01      4.977875000000000E-01     -1.549453000000000E+02
4836000000.000000      3.475800000000000E-01      4.142383000000000E+01      4.957733000000000E-01     -1.557031000000000E+02
4837000000.000000      3.487396000000000E-01      4.133008000000000E+01      4.950409000000000E-01     -1.565625000000000E+02
4838000000.000000      3.501740000000000E-01      4.110547000000000E+01      4.941559000000000E-01     -1.571094000000000E+02
4839000000.000000      3.539124000000000E-01      4.098046000000000E+01      4.915009000000000E-01     -1.578516000000000E+02
4840000000.000000      3.544464000000000E-01      4.066015000000000E+01      4.916229000000000E-01     -1.586797000000000E+02
4841000000.000000      3.562164000000000E-01      4.059766000000000E+01      4.907684000000000E-01     -1.592656000000000E+02
4842000000.000000      3.568420000000000E-01      4.043359000000000E+01      4.884949000000000E-01     -1.601328000000000E+02
4843000000.000000      3.602905000000000E-01      4.026563000000000E+01      4.880981000000000E-01     -1.608906000000000E+02
4844000000.000000      3.608246000000000E-01      4.003515000000000E+01      4.867096000000000E-01     -1.614297000000000E+02
4845000000.000000      3.624268000000000E-01      3.993555000000000E+01      4.840088000000000E-01     -1.621484000000000E+02
4846000000.000000      3.641815000000000E-01      3.978711000000000E+01      4.836121000000000E-01     -1.628672000000000E+02
4847000000.000000      3.659058000000000E-01      3.966211000000000E+01      4.806366000000000E-01     -1.634766000000000E+02
4848000000.000000      3.663940000000000E-01      3.932617000000000E+01      4.783936000000000E-01     -1.643594000000000E+02
4849000000.000000      3.683929000000000E-01      3.907227000000000E+01      4.767761000000000E-01     -1.651016000000000E+02
4850000000.000000      3.699493000000000E-01      3.886328000000000E+01      4.754639000000000E-01     -1.656328000000000E+02
4851000000.000000      3.712463000000000E-01      3.876758000000000E+01      4.741669000000000E-01     -1.663984000000000E+02
4852000000.000000      3.726349000000000E-01      3.850976000000000E+01      4.731598000000000E-01     -1.670156000000000E+02
4853000000.000000      3.741913000000000E-01      3.825195000000000E+01      4.700470000000000E-01     -1.678047000000000E+02
4854000000.000000      3.744507000000000E-01      3.807422000000000E+01      4.673767000000000E-01     -1.685703000000000E+02
4855000000.000000      3.758698000000000E-01      3.782227000000000E+01      4.648895000000000E-01     -1.691875000000000E+02
4856000000.000000      3.775177000000000E-01      3.762109000000000E+01      4.621887000000000E-01     -1.698281000000000E+02
4857000000.000000      3.785706000000000E-01      3.735937000000000E+01      4.618988000000000E-01     -1.705156000000000E+02
4858000000.000000      3.792419000000000E-01      3.708984000000000E+01      4.584961000000000E-01     -1.713203000000000E+02
4859000000.000000      3.804779000000000E-01      3.691601000000000E+01      4.560089000000000E-01     -1.721016000000000E+02
4860000000.000000      3.816528000000000E-01      3.668554000000000E+01      4.542084000000000E-01     -1.726953000000000E+02
4861000000.000000      3.823090000000000E-01      3.647070000000000E+01      4.511566000000000E-01     -1.733359000000000E+02
4862000000.000000      3.820496000000000E-01      3.620312000000000E+01      4.482727000000000E-01     -1.739297000000000E+02
4863000000.000000      3.838348000000000E-01      3.589453000000000E+01      4.448853000000000E-01     -1.748906000000000E+02
4864000000.000000      3.853302000000000E-01      3.556641000000000E+01      4.438324000000000E-01     -1.751406000000000E+02
4865000000.000000      3.852844000000000E-01      3.540039000000000E+01      4.395752000000000E-01     -1.759687000000000E+02
4866000000.000000      3.868561000000000E-01      3.502539000000000E+01      4.360962000000000E-01     -1.765938000000000E+02
4867000000.000000      3.863373000000000E-01      3.486914000000000E+01      4.336853000000000E-01     -1.775000000000000E+02
4868000000.000000      3.882446000000000E-01      3.455859000000000E+01      4.304199000000000E-01     -1.779844000000000E+02
4869000000.000000      3.888397000000000E-01      3.436914000000000E+01      4.273376000000000E-01     -1.786406000000000E+02
4870000000.000000      3.893585000000000E-01      3.412890000000000E+01      4.242706000000000E-01     -1.790234000000000E+02
4871000000.000000      3.900299000000000E-01      3.376172000000000E+01      4.203033000000000E-01     -1.799766000000000E+02
4872000000.000000      3.908997000000000E-01      3.362109000000000E+01      4.168701000000000E-01      1.798359000000000E+02
4873000000.000000      3.915405000000000E-01      3.344922000000000E+01      4.138336000000000E-01      1.788047000000000E+02
4874000000.000000      3.913574000000000E-01      3.313867000000000E+01      4.093781000000000E-01      1.782422000000000E+02
4875000000.000000      3.924408000000000E-01      3.275391000000000E+01      4.062347000000000E-01      1.777187000000000E+02
4876000000.000000      3.930511000000000E-01      3.270898000000000E+01      4.038696000000000E-01      1.772969000000000E+02
4877000000.000000      3.940125000000000E-01      3.214453000000000E+01      4.006500000000000E-01      1.764844000000000E+02
4878000000.000000      3.936462000000000E-01      3.205273000000000E+01      3.964233000000000E-01      1.759922000000000E+02
4879000000.000000      3.945465000000000E-01      3.181055000000000E+01      3.922424000000000E-01      1.755547000000000E+02
4880000000.000000      3.950958000000000E-01      3.151074000000000E+01      3.903503000000000E-01      1.749063000000000E+02
4881000000.000000      3.952789000000000E-01      3.121973000000000E+01      3.863983000000000E-01      1.743984000000000E+02
4882000000.000000      3.957367000000000E-01      3.110742000000000E+01      3.818665000000000E-01      1.738750000000000E+02
4883000000.000000      3.949890000000000E-01      3.079004000000000E+01      3.783417000000000E-01      1.734062000000000E+02
4884000000.000000      3.959961000000000E-01      3.059277000000000E+01      3.751678000000000E-01      1.729922000000000E+02
4885000000.000000      3.962250000000000E-01      3.032617000000000E+01      3.719330000000000E-01      1.725859000000000E+02
4886000000.000000      3.946686000000000E-01      3.013476000000000E+01      3.682709000000000E-01      1.719453000000000E+02
4887000000.000000      3.948669000000000E-01      2.975976000000000E+01      3.638000000000000E-01      1.715391000000000E+02
4888000000.000000      3.957672000000000E-01      2.956933000000000E+01      3.613281000000000E-01      1.710000000000000E+02
4889000000.000000      3.959961000000000E-01      2.932226000000000E+01      3.568420000000000E-01      1.706016000000000E+02
4890000000.000000      3.949280000000000E-01      2.897754000000000E+01      3.546448000000000E-01      1.696563000000000E+02
4891000000.000000      3.962250000000000E-01      2.885351000000000E+01      3.489990000000000E-01      1.693750000000000E+02
4892000000.000000      3.950653000000000E-01      2.857324000000000E+01      3.462677000000000E-01      1.692578000000000E+02
4893000000.000000      3.960114000000000E-01      2.835254000000000E+01      3.433838000000000E-01      1.686016000000000E+02
4894000000.000000      3.958130000000000E-01      2.811328000000000E+01      3.386993000000000E-01      1.681641000000000E+02
4895000000.000000      3.966980000000000E-01      2.791016000000000E+01      3.364868000000000E-01      1.676328000000000E+02
4896000000.000000      3.952637000000000E-01      2.762988000000000E+01      3.327789000000000E-01      1.675078000000000E+02
4897000000.000000      3.942413000000000E-01      2.743261000000000E+01      3.285522000000000E-01      1.668047000000000E+02
4898000000.000000      3.951721000000000E-01      2.724316000000000E+01      3.253632000000000E-01      1.666172000000000E+02
4899000000.000000      3.953400000000000E-01      2.706543000000000E+01      3.228455000000000E-01      1.660469000000000E+02
4900000000.000000      3.943787000000000E-01      2.676953000000000E+01      3.205414000000000E-01      1.657812000000000E+02
4901000000.000000      3.944702000000000E-01      2.653027000000000E+01      3.157196000000000E-01      1.653281000000000E+02
4902000000.000000      3.949280000000000E-01      2.636719000000000E+01      3.132629000000000E-01      1.651172000000000E+02
4903000000.000000      3.949585000000000E-01      2.620703000000000E+01      3.083954000000000E-01      1.646328000000000E+02
4904000000.000000      3.939667000000000E-01      2.586035000000000E+01      3.056183000000000E-01      1.642578000000000E+02
4905000000.000000      3.938293000000000E-01      2.565625000000000E+01      3.033295000000000E-01      1.637344000000000E+02
4906000000.000000      3.937531000000000E-01      2.547363000000000E+01      2.980957000000000E-01      1.636953000000000E+02
4907000000.000000      3.941956000000000E-01      2.517871000000000E+01      2.955322000000000E-01      1.630469000000000E+02
4908000000.000000      3.936615000000000E-01      2.516797000000000E+01      2.925873000000000E-01      1.625859000000000E+02
4909000000.000000      3.925781000000000E-01      2.490234000000000E+01      2.882538000000000E-01      1.623359000000000E+02
4910000000.000000      3.929596000000000E-01      2.485156000000000E+01      2.843170000000000E-01      1.619219000000000E+02
4911000000.000000      3.929901000000000E-01      2.458398000000000E+01      2.817841000000000E-01      1.617344000000000E+02
4912000000.000000      3.921661000000000E-01      2.438672000000000E+01      2.779236000000000E-01      1.611172000000000E+02
4913000000.000000      3.922424000000000E-01      2.409668000000000E+01      2.743683000000000E-01      1.607578000000000E+02
4914000000.000000      3.915558000000000E-01      2.392676000000000E+01      2.710266000000000E-01      1.605937000000000E+02
4915000000.000000      3.914337000000000E-01      2.388476000000000E+01      2.669373000000000E-01      1.600156000000000E+02
4916000000.000000      3.921204000000000E-01      2.363672000000000E+01      2.632141000000000E-01      1.597344000000000E+02
4917000000.000000      3.907318000000000E-01      2.350586000000000E+01      2.602386000000000E-01      1.594453000000000E+02
4918000000.000000      3.904572000000000E-01      2.342090000000000E+01      2.555389000000000E-01      1.590469000000000E+02
4919000000.000000      3.895264000000000E-01      2.323047000000000E+01      2.521973000000000E-01      1.590000000000000E+02
4920000000.000000      3.907928000000000E-01      2.294726000000000E+01      2.478638000000000E-01      1.584609000000000E+02
4921000000.000000      3.904724000000000E-01      2.281250000000000E+01      2.449036000000000E-01      1.584297000000000E+02
4922000000.000000      3.909760000000000E-01      2.246680000000000E+01      2.408600000000000E-01      1.582187000000000E+02
4923000000.000000      3.888550000000000E-01      2.237207000000000E+01      2.364578000000000E-01      1.580234000000000E+02
4924000000.000000      3.899994000000000E-01      2.223828000000000E+01      2.323761000000000E-01      1.575312000000000E+02
4925000000.000000      3.890228000000000E-01      2.194434000000000E+01      2.286453000000000E-01      1.573437000000000E+02
4926000000.000000      3.887329000000000E-01      2.190722000000000E+01      2.251587000000000E-01      1.571016000000000E+02
4927000000.000000      3.889465000000000E-01      2.162890000000000E+01      2.211838000000000E-01      1.569141000000000E+02
4928000000.000000      3.884583000000000E-01      2.150293000000000E+01      2.170486000000000E-01      1.567656000000000E+02
4929000000.000000      3.881073000000000E-01      2.127148000000000E+01      2.130203000000000E-01      1.567969000000000E+02
4930000000.000000      3.876343000000000E-01      2.125977000000000E+01      2.090225000000000E-01      1.567109000000000E+02
4931000000.000000      3.875275000000000E-01      2.097949000000000E+01      2.053604000000000E-01      1.567188000000000E+02
4932000000.000000      3.872375000000000E-01      2.092871000000000E+01      2.011337000000000E-01      1.567109000000000E+02
4933000000.000000      3.881836000000000E-01      2.058203000000000E+01      1.963577000000000E-01      1.567031000000000E+02
4934000000.000000      3.872070000000000E-01      2.048633000000000E+01      1.922913000000000E-01      1.565234000000000E+02
4935000000.000000      3.881836000000000E-01      2.030273000000000E+01      1.893234000000000E-01      1.567344000000000E+02
4936000000.000000      3.860626000000000E-01      1.998535000000000E+01      1.845932000000000E-01      1.570078000000000E+02
4937000000.000000      3.859406000000000E-01      1.992285000000000E+01      1.808243000000000E-01      1.570000000000000E+02
4938000000.000000      3.858032000000000E-01      1.973340000000000E+01      1.772690000000000E-01      1.574531000000000E+02
4939000000.000000      3.852234000000000E-01      1.974609000000000E+01      1.735153000000000E-01      1.577031000000000E+02
4940000000.000000      3.849487000000000E-01      1.938867000000000E+01      1.691666000000000E-01      1.578984000000000E+02
4941000000.000000      3.856049000000000E-01      1.929688000000000E+01      1.653366000000000E-01      1.582891000000000E+02
4942000000.000000      3.832245000000000E-01      1.907910000000000E+01      1.616898000000000E-01      1.585391000000000E+02
4943000000.000000      3.850555000000000E-01      1.905566000000000E+01      1.575241000000000E-01      1.592187000000000E+02
4944000000.000000      3.832550000000000E-01      1.868750000000000E+01      1.540604000000000E-01      1.598359000000000E+02
4945000000.000000      3.838806000000000E-01      1.862402000000000E+01      1.505661000000000E-01      1.603594000000000E+02
4946000000.000000      3.836212000000000E-01      1.847265000000000E+01      1.471100000000000E-01      1.611719000000000E+02
4947000000.000000      3.831635000000000E-01      1.829980000000000E+01      1.439667000000000E-01      1.617969000000000E+02
4948000000.000000      3.835297000000000E-01      1.812598000000000E+01      1.410141000000000E-01      1.626406000000000E+02
4949000000.000000      3.820648000000000E-01      1.795898000000000E+01      1.379700000000000E-01      1.640156000000000E+02
4950000000.000000      3.825226000000000E-01      1.780176000000000E+01      1.346359000000000E-01      1.646719000000000E+02
4951000000.000000      3.827972000000000E-01      1.771484000000000E+01      1.317062000000000E-01      1.656641000000000E+02
4952000000.000000      3.813934000000000E-01      1.746875000000000E+01      1.287689000000000E-01      1.669844000000000E+02
4953000000.000000      3.808746000000000E-01      1.729492000000000E+01      1.264343000000000E-01      1.682266000000000E+02
4954000000.000000      3.813629000000000E-01      1.714746000000000E+01      1.240540000000000E-01      1.697187000000000E+02
