! Network Analyzer HP8722D
! Hewlett-Packard
! Data name: Linha & Wilkinson
! Saver's name: Rodrigo Anjos
! Comments: Teste da utilização de aquisição
continua pelo VNA HP8722D
! Time and date: 23/5/2025 11:37
!              Frequency                     S11                                                   S21                                                   S12                                                   S22
# HZ  S  MA R 50
4800000000.000000      3.105011000000000E-01      3.746875000000000E+01      4.727783000000000E-01     -1.279726000000000E+02
4801000000.000000      3.113708000000000E-01      3.775391000000000E+01      4.730225000000000E-01     -1.287344000000000E+02
4802000000.000000      3.122711000000000E-01      3.792383000000000E+01      4.745178000000000E-01     -1.294219000000000E+02
4803000000.000000      3.130493000000000E-01      3.804101000000000E+01      4.778595000000000E-01     -1.300390000000000E+02
4804000000.000000      3.137207000000000E-01      3.832422000000000E+01      4.789734000000000E-01     -1.307734000000000E+02
4805000000.000000      3.156281000000000E-01      3.842968000000000E+01      4.793243000000000E-01     -1.315312000000000E+02
4806000000.000000      3.163300000000000E-01      3.865625000000000E+01      4.802551000000000E-01     -1.322813000000000E+02
4807000000.000000      3.174744000000000E-01      3.874023000000000E+01      4.828339000000000E-01     -1.333047000000000E+02
4808000000.000000      3.182373000000000E-01      3.889062000000000E+01      4.836884000000000E-01     -1.338047000000000E+02
4809000000.000000      3.198853000000000E-01      3.912890000000000E+01      4.848938000000000E-01     -1.346953000000000E+02
4810000000.000000      3.217316000000000E-01      3.927539000000000E+01      4.862061000000000E-01     -1.351406000000000E+02
4811000000.000000      3.233643000000000E-01      3.937500000000000E+01      4.885101000000000E-01     -1.361328000000000E+02
4812000000.000000      3.248749000000000E-01      3.956836000000000E+01      4.884338000000000E-01     -1.368594000000000E+02
4813000000.000000      3.254700000000000E-01      3.973242000000000E+01      4.892273000000000E-01     -1.375547000000000E+02
4814000000.000000      3.268738000000000E-01      3.967382000000000E+01      4.898682000000000E-01     -1.381562000000000E+02
4815000000.000000      3.285980000000000E-01      3.986914000000000E+01      4.907379000000000E-01     -1.389062000000000E+02
4816000000.000000      3.305817000000000E-01      3.999414000000000E+01      4.922943000000000E-01     -1.395234000000000E+02
4817000000.000000      3.316040000000000E-01      4.009179000000000E+01      4.920654000000000E-01     -1.403750000000000E+02
4818000000.000000      3.330688000000000E-01      4.008789000000000E+01      4.917755000000000E-01     -1.412266000000000E+02
4819000000.000000      3.347931000000000E-01      4.020312000000000E+01      4.920197000000000E-01     -1.418594000000000E+02
4820000000.000000      3.359222000000000E-01      4.026757000000000E+01      4.922791000000000E-01     -1.425156000000000E+02
4821000000.000000      3.382568000000000E-01      4.026367000000000E+01      4.925232000000000E-01     -1.433594000000000E+02
4822000000.000000      3.392029000000000E-01      4.024414000000000E+01      4.911499000000000E-01     -1.440859000000000E+02
4823000000.000000      3.408051000000000E-01      4.028516000000000E+01      4.921722000000000E-01     -1.448047000000000E+02
4824000000.000000      3.433685000000000E-01      4.040235000000000E+01      4.913940000000000E-01     -1.456094000000000E+02
4825000000.000000      3.443756000000000E-01      4.027929000000000E+01      4.920959000000000E-01     -1.461953000000000E+02
4826000000.000000      3.457642000000000E-01      4.027734000000000E+01      4.919739000000000E-01     -1.471641000000000E+02
4827000000.000000      3.479462000000000E-01      4.026367000000000E+01      4.920959000000000E-01     -1.476797000000000E+02
4828000000.000000      3.501740000000000E-01      4.029492000000000E+01      4.924011000000000E-01     -1.485781000000000E+02
4829000000.000000      3.513031000000000E-01      4.034180000000000E+01      4.899597000000000E-01     -1.490859000000000E+02
4830000000.000000      3.537140000000000E-01      4.007813000000000E+01      4.907684000000000E-01     -1.499531000000000E+02
4831000000.000000      3.544769000000000E-01      4.007226000000000E+01      4.901733000000000E-01     -1.506641000000000E+02
4832000000.000000      3.559113000000000E-01      4.007813000000000E+01      4.895172000000000E-01     -1.512266000000000E+02
4833000000.000000      3.575592000000000E-01      3.992578000000000E+01      4.887543000000000E-01     -1.518984000000000E+02
4834000000.000000      3.591003000000000E-01      3.989258000000000E+01      4.872131000000000E-01     -1.527812000000000E+02
4835000000.000000      3.619537000000000E-01      3.976563000000000E+01      4.886322000000000E-01     -1.535781000000000E+02
4836000000.000000      3.638000000000000E-01      3.968554000000000E+01      4.855347000000000E-01     -1.541484000000000E+02
4837000000.000000      3.648987000000000E-01      3.978711000000000E+01      4.849396000000000E-01     -1.551094000000000E+02
4838000000.000000      3.656311000000000E-01      3.952929000000000E+01      4.845581000000000E-01     -1.554531000000000E+02
4839000000.000000      3.689270000000000E-01      3.945703000000000E+01      4.824829000000000E-01     -1.563437000000000E+02
4840000000.000000      3.698425000000000E-01      3.923437000000000E+01      4.831696000000000E-01     -1.568594000000000E+02
4841000000.000000      3.718414000000000E-01      3.915039000000000E+01      4.808197000000000E-01     -1.577344000000000E+02
4842000000.000000      3.729858000000000E-01      3.902344000000000E+01      4.799652000000000E-01     -1.585312000000000E+02
4843000000.000000      3.752136000000000E-01      3.872656000000000E+01      4.772186000000000E-01     -1.592734000000000E+02
4844000000.000000      3.762970000000000E-01      3.862890000000000E+01      4.763489000000000E-01     -1.600312000000000E+02
4845000000.000000      3.781586000000000E-01      3.858203000000000E+01      4.749146000000000E-01     -1.605781000000000E+02
4846000000.000000      3.799438000000000E-01      3.835546000000000E+01      4.740143000000000E-01     -1.613828000000000E+02
4847000000.000000      3.811340000000000E-01      3.818359000000000E+01      4.727936000000000E-01     -1.618984000000000E+02
4848000000.000000      3.825378000000000E-01      3.799805000000000E+01      4.696808000000000E-01     -1.627500000000000E+02
4849000000.000000      3.839722000000000E-01      3.776953000000000E+01      4.687958000000000E-01     -1.633828000000000E+02
4850000000.000000      3.851929000000000E-01      3.772265000000000E+01      4.675140000000000E-01     -1.643828000000000E+02
4851000000.000000      3.865967000000000E-01      3.748047000000000E+01      4.657135000000000E-01     -1.648281000000000E+02
4852000000.000000      3.880005000000000E-01      3.740820000000000E+01      4.631653000000000E-01     -1.656172000000000E+02
4853000000.000000      3.894653000000000E-01      3.707422000000000E+01      4.612427000000000E-01     -1.662500000000000E+02
4854000000.000000      3.907013000000000E-01      3.689844000000000E+01      4.595184000000000E-01     -1.670781000000000E+02
4855000000.000000      3.914185000000000E-01      3.668164000000000E+01      4.570923000000000E-01     -1.677344000000000E+02
4856000000.000000      3.931274000000000E-01      3.643359000000000E+01      4.539185000000000E-01     -1.683203000000000E+02
4857000000.000000      3.944855000000000E-01      3.635937000000000E+01      4.533081000000000E-01     -1.690078000000000E+02
4858000000.000000      3.948212000000000E-01      3.594531000000000E+01      4.499359000000000E-01     -1.698984000000000E+02
4859000000.000000      3.961639000000000E-01      3.583008000000000E+01      4.478760000000000E-01     -1.705234000000000E+02
4860000000.000000      3.971863000000000E-01      3.566601000000000E+01      4.451141000000000E-01     -1.711797000000000E+02
4861000000.000000      3.984985000000000E-01      3.544531000000000E+01      4.424591000000000E-01     -1.720078000000000E+02
4862000000.000000      3.986816000000000E-01      3.517773000000000E+01      4.402161000000000E-01     -1.724844000000000E+02
4863000000.000000      3.998718000000000E-01      3.499414000000000E+01      4.370422000000000E-01     -1.733984000000000E+02
4864000000.000000      4.014130000000000E-01      3.473828000000000E+01      4.349976000000000E-01     -1.738906000000000E+02
4865000000.000000      4.011230000000000E-01      3.439258000000000E+01      4.329987000000000E-01     -1.744375000000000E+02
4866000000.000000      4.032135000000000E-01      3.414258000000000E+01      4.291077000000000E-01     -1.751953000000000E+02
4867000000.000000      4.020691000000000E-01      3.399609000000000E+01      4.263153000000000E-01     -1.759922000000000E+02
4868000000.000000      4.043121000000000E-01      3.367773000000000E+01      4.239807000000000E-01     -1.766641000000000E+02
4869000000.000000      4.050446000000000E-01      3.351367000000000E+01      4.194183000000000E-01     -1.773594000000000E+02
4870000000.000000      4.053040000000000E-01      3.329492000000000E+01      4.181519000000000E-01     -1.778359000000000E+02
4871000000.000000      4.060059000000000E-01      3.309179000000000E+01      4.127808000000000E-01     -1.784922000000000E+02
4872000000.000000      4.079132000000000E-01      3.282422000000000E+01      4.102173000000000E-01     -1.790313000000000E+02
4873000000.000000      4.072723000000000E-01      3.270312000000000E+01      4.068298000000000E-01     -1.798047000000000E+02
4874000000.000000      4.071655000000000E-01      3.236719000000000E+01      4.027710000000000E-01      1.794141000000000E+02
4875000000.000000      4.089813000000000E-01      3.210742000000000E+01      3.993073000000000E-01      1.791563000000000E+02
4876000000.000000      4.100647000000000E-01      3.205078000000000E+01      3.962250000000000E-01      1.784062000000000E+02
4877000000.000000      4.101715000000000E-01      3.157519000000000E+01      3.949432000000000E-01      1.777500000000000E+02
4878000000.000000      4.093018000000000E-01      3.135058000000000E+01      3.896942000000000E-01      1.773047000000000E+02
4879000000.000000      4.107819000000000E-01      3.118261000000000E+01      3.852234000000000E-01      1.768047000000000E+02
4880000000.000000      4.107361000000000E-01      3.097363000000000E+01      3.816528000000000E-01      1.761484000000000E+02
4881000000.000000      4.111633000000000E-01      3.066601000000000E+01      3.790741000000000E-01      1.759453000000000E+02
4882000000.000000      4.126587000000000E-01      3.042480000000000E+01      3.779907000000000E-01      1.751016000000000E+02
4883000000.000000      4.109344000000000E-01      3.016699000000000E+01      3.708801000000000E-01      1.745781000000000E+02
4884000000.000000      4.127808000000000E-01      3.001855000000000E+01      3.690796000000000E-01      1.739297000000000E+02
4885000000.000000      4.127502000000000E-01      2.982422000000000E+01      3.649292000000000E-01      1.736797000000000E+02
4886000000.000000      4.128265000000000E-01      2.964355000000000E+01      3.616028000000000E-01      1.730234000000000E+02
4887000000.000000      4.131165000000000E-01      2.934765000000000E+01      3.585510000000000E-01      1.727500000000000E+02
4888000000.000000      4.127808000000000E-01      2.892285000000000E+01      3.552246000000000E-01      1.720547000000000E+02
4889000000.000000      4.125519000000000E-01      2.884863000000000E+01      3.512421000000000E-01      1.718672000000000E+02
4890000000.000000      4.127045000000000E-01      2.870117000000000E+01      3.470001000000000E-01      1.706719000000000E+02
4891000000.000000      4.130554000000000E-01      2.848145000000000E+01      3.439941000000000E-01      1.708125000000000E+02
4892000000.000000      4.126892000000000E-01      2.827246000000000E+01      3.413849000000000E-01      1.703828000000000E+02
4893000000.000000      4.140930000000000E-01      2.791699000000000E+01      3.372040000000000E-01      1.698125000000000E+02
4894000000.000000      4.121552000000000E-01      2.786230000000000E+01      3.332520000000000E-01      1.694687000000000E+02
4895000000.000000      4.132538000000000E-01      2.768652000000000E+01      3.302612000000000E-01      1.689531000000000E+02
4896000000.000000      4.132690000000000E-01      2.726074000000000E+01      3.269806000000000E-01      1.686484000000000E+02
4897000000.000000      4.129333000000000E-01      2.714160000000000E+01      3.224945000000000E-01      1.680156000000000E+02
4898000000.000000      4.130859000000000E-01      2.706250000000000E+01      3.199768000000000E-01      1.677891000000000E+02
4899000000.000000      4.128876000000000E-01      2.669726000000000E+01      3.167114000000000E-01      1.673437000000000E+02
4900000000.000000      4.126587000000000E-01      2.639648000000000E+01      3.135529000000000E-01      1.670781000000000E+02
4901000000.000000      4.132233000000000E-01      2.640527000000000E+01      3.110046000000000E-01      1.664766000000000E+02
4902000000.000000      4.132538000000000E-01      2.602051000000000E+01      3.071136000000000E-01      1.662266000000000E+02
4903000000.000000      4.128723000000000E-01      2.607422000000000E+01      3.026428000000000E-01      1.657187000000000E+02
4904000000.000000      4.124298000000000E-01      2.568554000000000E+01      2.995148000000000E-01      1.653906000000000E+02
4905000000.000000      4.111328000000000E-01      2.543652000000000E+01      2.969513000000000E-01      1.648750000000000E+02
4906000000.000000      4.117126000000000E-01      2.519238000000000E+01      2.928772000000000E-01      1.648125000000000E+02
4907000000.000000      4.121552000000000E-01      2.521973000000000E+01      2.897644000000000E-01      1.642578000000000E+02
4908000000.000000      4.123535000000000E-01      2.485058000000000E+01      2.873230000000000E-01      1.637656000000000E+02
4909000000.000000      4.116821000000000E-01      2.466894000000000E+01      2.828217000000000E-01      1.634453000000000E+02
4910000000.000000      4.111786000000000E-01      2.455664000000000E+01      2.796936000000000E-01      1.631641000000000E+02
4911000000.000000      4.117279000000000E-01      2.433594000000000E+01      2.766876000000000E-01      1.626484000000000E+02
4912000000.000000      4.114380000000000E-01      2.426562000000000E+01      2.728577000000000E-01      1.621953000000000E+02
4913000000.000000      4.118042000000000E-01      2.402832000000000E+01      2.694855000000000E-01      1.618984000000000E+02
4914000000.000000      4.109497000000000E-01      2.371387000000000E+01      2.660217000000000E-01      1.617188000000000E+02
4915000000.000000      4.102478000000000E-01      2.374804000000000E+01      2.615967000000000E-01      1.612422000000000E+02
4916000000.000000      4.094086000000000E-01      2.350098000000000E+01      2.589417000000000E-01      1.610703000000000E+02
4917000000.000000      4.098511000000000E-01      2.331933000000000E+01      2.549438000000000E-01      1.605781000000000E+02
4918000000.000000      4.098816000000000E-01      2.315625000000000E+01      2.509308000000000E-01      1.600703000000000E+02
4919000000.000000      4.080505000000000E-01      2.300097000000000E+01      2.475891000000000E-01      1.602422000000000E+02
4920000000.000000      4.105377000000000E-01      2.273828000000000E+01      2.433929000000000E-01      1.596562000000000E+02
4921000000.000000      4.086914000000000E-01      2.277734000000000E+01      2.400589000000000E-01      1.595391000000000E+02
4922000000.000000      4.087677000000000E-01      2.254492000000000E+01      2.360840000000000E-01      1.593125000000000E+02
4923000000.000000      4.085999000000000E-01      2.237891000000000E+01      2.323685000000000E-01      1.590234000000000E+02
4924000000.000000      4.086609000000000E-01      2.210449000000000E+01      2.285080000000000E-01      1.586016000000000E+02
4925000000.000000      4.092560000000000E-01      2.195801000000000E+01      2.248917000000000E-01      1.584063000000000E+02
4926000000.000000      4.080963000000000E-01      2.177051000000000E+01      2.210693000000000E-01      1.583047000000000E+02
4927000000.000000      4.085388000000000E-01      2.162109000000000E+01      2.166977000000000E-01      1.581172000000000E+02
4928000000.000000      4.090576000000000E-01      2.134082000000000E+01      2.133789000000000E-01      1.579297000000000E+02
4929000000.000000      4.065247000000000E-01      2.122070000000000E+01      2.090149000000000E-01      1.579375000000000E+02
4930000000.000000      4.074402000000000E-01      2.112500000000000E+01      2.053146000000000E-01      1.577109000000000E+02
4931000000.000000      4.077301000000000E-01      2.098926000000000E+01      2.013321000000000E-01      1.576484000000000E+02
4932000000.000000      4.072571000000000E-01      2.080371000000000E+01      1.981049000000000E-01      1.575234000000000E+02
4933000000.000000      4.062653000000000E-01      2.060449000000000E+01      1.928406000000000E-01      1.578125000000000E+02
4934000000.000000      4.053192000000000E-01      2.044531000000000E+01      1.892548000000000E-01      1.578281000000000E+02
4935000000.000000      4.061737000000000E-01      2.041113000000000E+01      1.856308000000000E-01      1.580547000000000E+02
4936000000.000000      4.047089000000000E-01      2.017480000000000E+01      1.813431000000000E-01      1.580625000000000E+02
4937000000.000000      4.061890000000000E-01      1.993262000000000E+01      1.775436000000000E-01      1.579844000000000E+02
4938000000.000000      4.047852000000000E-01      1.981348000000000E+01      1.741028000000000E-01      1.584297000000000E+02
4939000000.000000      4.058075000000000E-01      1.977930000000000E+01      1.700134000000000E-01      1.586328000000000E+02
4940000000.000000      4.046936000000000E-01      1.949512000000000E+01      1.660919000000000E-01      1.588672000000000E+02
4941000000.000000      4.054108000000000E-01      1.939062000000000E+01      1.626358000000000E-01      1.592187000000000E+02
4942000000.000000      4.036865000000000E-01      1.929688000000000E+01      1.588669000000000E-01      1.596016000000000E+02
4943000000.000000      4.037323000000000E-01      1.904980000000000E+01      1.555405000000000E-01      1.602266000000000E+02
4944000000.000000      4.039612000000000E-01      1.887695000000000E+01      1.516113000000000E-01      1.606250000000000E+02
4945000000.000000      4.029541000000000E-01      1.871484000000000E+01      1.479416000000000E-01      1.613906000000000E+02
4946000000.000000      4.038696000000000E-01      1.858887000000000E+01      1.444550000000000E-01      1.620156000000000E+02
4947000000.000000      4.029999000000000E-01      1.837988000000000E+01      1.413574000000000E-01      1.628203000000000E+02
4948000000.000000      4.038239000000000E-01      1.827637000000000E+01      1.383667000000000E-01      1.637187000000000E+02
4949000000.000000      4.021301000000000E-01      1.807226000000000E+01      1.347656000000000E-01      1.647969000000000E+02
4950000000.000000      4.025726000000000E-01      1.796875000000000E+01      1.319427000000000E-01      1.655234000000000E+02
4951000000.000000      4.023285000000000E-01      1.778906000000000E+01      1.292419000000000E-01      1.664453000000000E+02
4952000000.000000      4.004211000000000E-01      1.755957000000000E+01      1.263580000000000E-01      1.677266000000000E+02
4953000000.000000      4.008636000000000E-01      1.733594000000000E+01      1.241493000000000E-01      1.690859000000000E+02
4954000000.000000      4.008026000000000E-01      1.728223000000000E+01      1.219101000000000E-01      1.706016000000000E+02
