! Network Analyzer HP8722D
! Hewlett-Packard
! Data name: Linha & Wilkinson
! Saver's name: Rodrigo Anjos
! Comments: Teste da utilização de aquisição
continua pelo VNA HP8722D
! Time and date: 23/5/2025 08:48
!              Frequency                     S11                                                   S21                                                   S12                                                   S22
# HZ  S  MA R 50
4800000000.000000      3.544312000000000E-01      3.355273000000000E+01      4.507599000000000E-01     -1.246992000000000E+02
4801000000.000000      3.547058000000000E-01      3.380468000000000E+01      4.517517000000000E-01     -1.251250000000000E+02
4802000000.000000      3.552246000000000E-01      3.388476000000000E+01      4.537659000000000E-01     -1.259727000000000E+02
4803000000.000000      3.555450000000000E-01      3.405078000000000E+01      4.573517000000000E-01     -1.265586000000000E+02
4804000000.000000      3.561859000000000E-01      3.433203000000000E+01      4.564667000000000E-01     -1.273438000000000E+02
4805000000.000000      3.574829000000000E-01      3.438477000000000E+01      4.583893000000000E-01     -1.281250000000000E+02
4806000000.000000      3.580322000000000E-01      3.452148000000000E+01      4.598999000000000E-01     -1.287891000000000E+02
4807000000.000000      3.583069000000000E-01      3.467968000000000E+01      4.615021000000000E-01     -1.296797000000000E+02
4808000000.000000      3.590851000000000E-01      3.483203000000000E+01      4.631805000000000E-01     -1.302344000000000E+02
4809000000.000000      3.600464000000000E-01      3.500195000000000E+01      4.638214000000000E-01     -1.311328000000000E+02
4810000000.000000      3.611755000000000E-01      3.507421000000000E+01      4.655457000000000E-01     -1.317188000000000E+02
4811000000.000000      3.624573000000000E-01      3.527734000000000E+01      4.661560000000000E-01     -1.325469000000000E+02
4812000000.000000      3.647461000000000E-01      3.545312000000000E+01      4.664154000000000E-01     -1.334063000000000E+02
4813000000.000000      3.653107000000000E-01      3.554296000000000E+01      4.678955000000000E-01     -1.338750000000000E+02
4814000000.000000      3.656311000000000E-01      3.555469000000000E+01      4.686279000000000E-01     -1.347500000000000E+02
4815000000.000000      3.668518000000000E-01      3.572461000000000E+01      4.688568000000000E-01     -1.354219000000000E+02
4816000000.000000      3.688812000000000E-01      3.583984000000000E+01      4.691315000000000E-01     -1.360703000000000E+02
4817000000.000000      3.690948000000000E-01      3.596680000000000E+01      4.703674000000000E-01     -1.371016000000000E+02
4818000000.000000      3.709564000000000E-01      3.597461000000000E+01      4.696503000000000E-01     -1.377734000000000E+02
4819000000.000000      3.724060000000000E-01      3.608007000000000E+01      4.701233000000000E-01     -1.383672000000000E+02
4820000000.000000      3.721466000000000E-01      3.620312000000000E+01      4.713593000000000E-01     -1.391016000000000E+02
4821000000.000000      3.747101000000000E-01      3.619336000000000E+01      4.716187000000000E-01     -1.399688000000000E+02
4822000000.000000      3.757172000000000E-01      3.620117000000000E+01      4.703217000000000E-01     -1.405313000000000E+02
4823000000.000000      3.774261000000000E-01      3.626953000000000E+01      4.724884000000000E-01     -1.414219000000000E+02
4824000000.000000      3.790741000000000E-01      3.645312000000000E+01      4.696655000000000E-01     -1.421250000000000E+02
4825000000.000000      3.802795000000000E-01      3.631250000000000E+01      4.695740000000000E-01     -1.427578000000000E+02
4826000000.000000      3.818359000000000E-01      3.631250000000000E+01      4.711914000000000E-01     -1.435469000000000E+02
4827000000.000000      3.836670000000000E-01      3.640039000000000E+01      4.698029000000000E-01     -1.443047000000000E+02
4828000000.000000      3.853302000000000E-01      3.641406000000000E+01      4.699402000000000E-01     -1.450234000000000E+02
4829000000.000000      3.865051000000000E-01      3.667383000000000E+01      4.699402000000000E-01     -1.455859000000000E+02
4830000000.000000      3.880768000000000E-01      3.633984000000000E+01      4.686127000000000E-01     -1.463672000000000E+02
4831000000.000000      3.894806000000000E-01      3.633398000000000E+01      4.685974000000000E-01     -1.471797000000000E+02
4832000000.000000      3.909912000000000E-01      3.643750000000000E+01      4.690247000000000E-01     -1.478203000000000E+02
4833000000.000000      3.918152000000000E-01      3.630273000000000E+01      4.677277000000000E-01     -1.485312000000000E+02
4834000000.000000      3.939209000000000E-01      3.631640000000000E+01      4.667969000000000E-01     -1.493906000000000E+02
4835000000.000000      3.955536000000000E-01      3.625586000000000E+01      4.660645000000000E-01     -1.501016000000000E+02
4836000000.000000      3.968964000000000E-01      3.628906000000000E+01      4.637604000000000E-01     -1.507969000000000E+02
4837000000.000000      3.988190000000000E-01      3.626562000000000E+01      4.633331000000000E-01     -1.515703000000000E+02
4838000000.000000      3.988647000000000E-01      3.608007000000000E+01      4.631500000000000E-01     -1.520313000000000E+02
4839000000.000000      4.034576000000000E-01      3.614258000000000E+01      4.621277000000000E-01     -1.529844000000000E+02
4840000000.000000      4.040222000000000E-01      3.598242000000000E+01      4.622955000000000E-01     -1.535703000000000E+02
4841000000.000000      4.046021000000000E-01      3.591797000000000E+01      4.613953000000000E-01     -1.543281000000000E+02
4842000000.000000      4.058990000000000E-01      3.573828000000000E+01      4.591217000000000E-01     -1.550937000000000E+02
4843000000.000000      4.085999000000000E-01      3.559179000000000E+01      4.585571000000000E-01     -1.558672000000000E+02
4844000000.000000      4.096680000000000E-01      3.552734000000000E+01      4.561768000000000E-01     -1.563672000000000E+02
4845000000.000000      4.104309000000000E-01      3.552929000000000E+01      4.563293000000000E-01     -1.571172000000000E+02
4846000000.000000      4.128723000000000E-01      3.531836000000000E+01      4.545898000000000E-01     -1.579609000000000E+02
4847000000.000000      4.138489000000000E-01      3.527539000000000E+01      4.538574000000000E-01     -1.585391000000000E+02
4848000000.000000      4.148712000000000E-01      3.504297000000000E+01      4.515839000000000E-01     -1.592891000000000E+02
4849000000.000000      4.158325000000000E-01      3.490234000000000E+01      4.509735000000000E-01     -1.599531000000000E+02
4850000000.000000      4.185333000000000E-01      3.482617000000000E+01      4.488983000000000E-01     -1.608672000000000E+02
4851000000.000000      4.193726000000000E-01      3.477930000000000E+01      4.486237000000000E-01     -1.615781000000000E+02
4852000000.000000      4.203339000000000E-01      3.459570000000000E+01      4.445496000000000E-01     -1.622187000000000E+02
4853000000.000000      4.221039000000000E-01      3.434570000000000E+01      4.416809000000000E-01     -1.628438000000000E+02
4854000000.000000      4.232635000000000E-01      3.424609000000000E+01      4.408722000000000E-01     -1.637031000000000E+02
4855000000.000000      4.243011000000000E-01      3.403320000000000E+01      4.402161000000000E-01     -1.644219000000000E+02
4856000000.000000      4.262085000000000E-01      3.394336000000000E+01      4.373474000000000E-01     -1.652187000000000E+02
4857000000.000000      4.273987000000000E-01      3.381250000000000E+01      4.345398000000000E-01     -1.658281000000000E+02
4858000000.000000      4.279785000000000E-01      3.357422000000000E+01      4.329071000000000E-01     -1.664063000000000E+02
4859000000.000000      4.297791000000000E-01      3.341601000000000E+01      4.315948000000000E-01     -1.673437000000000E+02
4860000000.000000      4.297791000000000E-01      3.329883000000000E+01      4.280396000000000E-01     -1.678516000000000E+02
4861000000.000000      4.315033000000000E-01      3.303125000000000E+01      4.252472000000000E-01     -1.686719000000000E+02
4862000000.000000      4.318237000000000E-01      3.285156000000000E+01      4.244690000000000E-01     -1.694453000000000E+02
4863000000.000000      4.326172000000000E-01      3.267969000000000E+01      4.208374000000000E-01     -1.702344000000000E+02
4864000000.000000      4.344177000000000E-01      3.245312000000000E+01      4.172058000000000E-01     -1.707656000000000E+02
4865000000.000000      4.349823000000000E-01      3.223242000000000E+01      4.142609000000000E-01     -1.712812000000000E+02
4866000000.000000      4.367371000000000E-01      3.205664000000000E+01      4.123230000000000E-01     -1.722734000000000E+02
4867000000.000000      4.367828000000000E-01      3.193164000000000E+01      4.076538000000000E-01     -1.730469000000000E+02
4868000000.000000      4.380493000000000E-01      3.167578000000000E+01      4.060364000000000E-01     -1.735625000000000E+02
4869000000.000000      4.382172000000000E-01      3.156054000000000E+01      4.034882000000000E-01     -1.742578000000000E+02
4870000000.000000      4.392548000000000E-01      3.134375000000000E+01      3.993683000000000E-01     -1.747266000000000E+02
4871000000.000000      4.394989000000000E-01      3.105273000000000E+01      3.972168000000000E-01     -1.754766000000000E+02
4872000000.000000      4.415894000000000E-01      3.093945000000000E+01      3.938446000000000E-01     -1.760781000000000E+02
4873000000.000000      4.414673000000000E-01      3.079297000000000E+01      3.899384000000000E-01     -1.767266000000000E+02
4874000000.000000      4.428253000000000E-01      3.066113000000000E+01      3.863678000000000E-01     -1.774922000000000E+02
4875000000.000000      4.428101000000000E-01      3.035449000000000E+01      3.831940000000000E-01     -1.778359000000000E+02
4876000000.000000      4.440918000000000E-01      3.023144000000000E+01      3.800354000000000E-01     -1.784688000000000E+02
4877000000.000000      4.459076000000000E-01      2.982715000000000E+01      3.768158000000000E-01     -1.792578000000000E+02
4878000000.000000      4.444275000000000E-01      2.958887000000000E+01      3.728027000000000E-01     -1.798594000000000E+02
4879000000.000000      4.430237000000000E-01      2.950098000000000E+01      3.685608000000000E-01      1.797266000000000E+02
4880000000.000000      4.467010000000000E-01      2.924805000000000E+01      3.672791000000000E-01      1.791328000000000E+02
4881000000.000000      4.466705000000000E-01      2.903809000000000E+01      3.640289000000000E-01      1.787266000000000E+02
4882000000.000000      4.473877000000000E-01      2.892969000000000E+01      3.596802000000000E-01      1.780781000000000E+02
4883000000.000000      4.469604000000000E-01      2.858496000000000E+01      3.560486000000000E-01      1.775859000000000E+02
4884000000.000000      4.479828000000000E-01      2.855469000000000E+01      3.528137000000000E-01      1.768906000000000E+02
4885000000.000000      4.484253000000000E-01      2.843750000000000E+01      3.494873000000000E-01      1.767344000000000E+02
4886000000.000000      4.482422000000000E-01      2.813183000000000E+01      3.462677000000000E-01      1.763047000000000E+02
4887000000.000000      4.479828000000000E-01      2.787207000000000E+01      3.426971000000000E-01      1.755078000000000E+02
4888000000.000000      4.498901000000000E-01      2.769433000000000E+01      3.386536000000000E-01      1.750937000000000E+02
4889000000.000000      4.500275000000000E-01      2.747949000000000E+01      3.342743000000000E-01      1.747969000000000E+02
4890000000.000000      4.474487000000000E-01      2.710546000000000E+01      3.311920000000000E-01      1.737890000000000E+02
4891000000.000000      4.487762000000000E-01      2.711914000000000E+01      3.276062000000000E-01      1.738281000000000E+02
4892000000.000000      4.496460000000000E-01      2.681445000000000E+01      3.245239000000000E-01      1.732188000000000E+02
4893000000.000000      4.506073000000000E-01      2.687109000000000E+01      3.207550000000000E-01      1.727266000000000E+02
4894000000.000000      4.507141000000000E-01      2.670312000000000E+01      3.182678000000000E-01      1.723516000000000E+02
4895000000.000000      4.510651000000000E-01      2.638965000000000E+01      3.153992000000000E-01      1.719922000000000E+02
4896000000.000000      4.511108000000000E-01      2.597265000000000E+01      3.116913000000000E-01      1.716094000000000E+02
4897000000.000000      4.501495000000000E-01      2.606738000000000E+01      3.078308000000000E-01      1.711016000000000E+02
4898000000.000000      4.481659000000000E-01      2.598633000000000E+01      3.052521000000000E-01      1.708125000000000E+02
4899000000.000000      4.493256000000000E-01      2.580078000000000E+01      3.011017000000000E-01      1.701797000000000E+02
4900000000.000000      4.497833000000000E-01      2.542480000000000E+01      2.980804000000000E-01      1.698828000000000E+02
4901000000.000000      4.510956000000000E-01      2.524219000000000E+01      2.950287000000000E-01      1.695781000000000E+02
4902000000.000000      4.504395000000000E-01      2.495605000000000E+01      2.927246000000000E-01      1.691562000000000E+02
4903000000.000000      4.498901000000000E-01      2.477734000000000E+01      2.880402000000000E-01      1.686875000000000E+02
4904000000.000000      4.495697000000000E-01      2.459473000000000E+01      2.852631000000000E-01      1.682734000000000E+02
4905000000.000000      4.488525000000000E-01      2.437695000000000E+01      2.821198000000000E-01      1.677813000000000E+02
4906000000.000000      4.503479000000000E-01      2.433398000000000E+01      2.781830000000000E-01      1.676797000000000E+02
4907000000.000000      4.503632000000000E-01      2.405566000000000E+01      2.758484000000000E-01      1.671328000000000E+02
4908000000.000000      4.513397000000000E-01      2.393164000000000E+01      2.720490000000000E-01      1.667266000000000E+02
4909000000.000000      4.509888000000000E-01      2.369824000000000E+01      2.683716000000000E-01      1.663750000000000E+02
4910000000.000000      4.502411000000000E-01      2.357520000000000E+01      2.658997000000000E-01      1.660938000000000E+02
4911000000.000000      4.502258000000000E-01      2.351563000000000E+01      2.628326000000000E-01      1.658672000000000E+02
4912000000.000000      4.498291000000000E-01      2.338574000000000E+01      2.592316000000000E-01      1.651875000000000E+02
4913000000.000000      4.488525000000000E-01      2.323535000000000E+01      2.556763000000000E-01      1.649688000000000E+02
4914000000.000000      4.507294000000000E-01      2.301562000000000E+01      2.523956000000000E-01      1.649062000000000E+02
4915000000.000000      4.503784000000000E-01      2.300879000000000E+01      2.481384000000000E-01      1.644453000000000E+02
4916000000.000000      4.506683000000000E-01      2.275488000000000E+01      2.447433000000000E-01      1.639062000000000E+02
4917000000.000000      4.500275000000000E-01      2.270410000000000E+01      2.419891000000000E-01      1.638125000000000E+02
4918000000.000000      4.500122000000000E-01      2.242285000000000E+01      2.381439000000000E-01      1.633672000000000E+02
4919000000.000000      4.485931000000000E-01      2.220313000000000E+01      2.350388000000000E-01      1.633281000000000E+02
4920000000.000000      4.487305000000000E-01      2.209961000000000E+01      2.309952000000000E-01      1.628047000000000E+02
4921000000.000000      4.476166000000000E-01      2.203906000000000E+01      2.279739000000000E-01      1.625625000000000E+02
4922000000.000000      4.494171000000000E-01      2.186621000000000E+01      2.244644000000000E-01      1.624531000000000E+02
4923000000.000000      4.501801000000000E-01      2.158496000000000E+01      2.203369000000000E-01      1.620156000000000E+02
4924000000.000000      4.491577000000000E-01      2.133887000000000E+01      2.165527000000000E-01      1.618359000000000E+02
4925000000.000000      4.465332000000000E-01      2.123047000000000E+01      2.127380000000000E-01      1.616094000000000E+02
4926000000.000000      4.470978000000000E-01      2.116894000000000E+01      2.091064000000000E-01      1.615547000000000E+02
4927000000.000000      4.499207000000000E-01      2.090137000000000E+01      2.060394000000000E-01      1.612266000000000E+02
4928000000.000000      4.479370000000000E-01      2.073925000000000E+01      2.017517000000000E-01      1.611641000000000E+02
4929000000.000000      4.465027000000000E-01      2.063965000000000E+01      1.978531000000000E-01      1.611328000000000E+02
4930000000.000000      4.483032000000000E-01      2.059180000000000E+01      1.940765000000000E-01      1.609375000000000E+02
4931000000.000000      4.473267000000000E-01      2.040820000000000E+01      1.914063000000000E-01      1.608906000000000E+02
4932000000.000000      4.477997000000000E-01      2.020312000000000E+01      1.866531000000000E-01      1.608594000000000E+02
4933000000.000000      4.471436000000000E-01      1.998535000000000E+01      1.828690000000000E-01      1.610859000000000E+02
4934000000.000000      4.475708000000000E-01      1.995215000000000E+01      1.790695000000000E-01      1.609688000000000E+02
4935000000.000000      4.482269000000000E-01      1.986426000000000E+01      1.759338000000000E-01      1.612813000000000E+02
4936000000.000000      4.494019000000000E-01      1.958984000000000E+01      1.716766000000000E-01      1.613516000000000E+02
4937000000.000000      4.483032000000000E-01      1.942480000000000E+01      1.680832000000000E-01      1.612734000000000E+02
4938000000.000000      4.454041000000000E-01      1.924902000000000E+01      1.646729000000000E-01      1.615234000000000E+02
4939000000.000000      4.473724000000000E-01      1.921875000000000E+01      1.609802000000000E-01      1.618906000000000E+02
4940000000.000000      4.467468000000000E-01      1.901172000000000E+01      1.570663000000000E-01      1.620859000000000E+02
4941000000.000000      4.472198000000000E-01      1.903223000000000E+01      1.536560000000000E-01      1.625703000000000E+02
4942000000.000000      4.441376000000000E-01      1.880273000000000E+01      1.500702000000000E-01      1.630078000000000E+02
4943000000.000000      4.452515000000000E-01      1.855371000000000E+01      1.462860000000000E-01      1.634375000000000E+02
4944000000.000000      4.454041000000000E-01      1.826269000000000E+01      1.436539000000000E-01      1.640234000000000E+02
4945000000.000000      4.454803000000000E-01      1.822949000000000E+01      1.398315000000000E-01      1.646719000000000E+02
4946000000.000000      4.461212000000000E-01      1.829297000000000E+01      1.368103000000000E-01      1.652109000000000E+02
4947000000.000000      4.447327000000000E-01      1.796094000000000E+01      1.335068000000000E-01      1.662656000000000E+02
4948000000.000000      4.445343000000000E-01      1.802246000000000E+01      1.307144000000000E-01      1.671016000000000E+02
4949000000.000000      4.436188000000000E-01      1.797754000000000E+01      1.277847000000000E-01      1.682031000000000E+02
4950000000.000000      4.452667000000000E-01      1.762402000000000E+01      1.248016000000000E-01      1.692031000000000E+02
4951000000.000000      4.453888000000000E-01      1.766016000000000E+01      1.225929000000000E-01      1.700391000000000E+02
4952000000.000000      4.451447000000000E-01      1.737890000000000E+01      1.189384000000000E-01      1.713672000000000E+02
4953000000.000000      4.442902000000000E-01      1.704199000000000E+01      1.175156000000000E-01      1.729375000000000E+02
4954000000.000000      4.449768000000000E-01      1.715039000000000E+01      1.150131000000000E-01      1.740078000000000E+02
