! Network Analyzer HP8722D
! Hewlett-Packard
! Data name: Linha & Wilkinson
! Saver's name: Rodrigo Anjos
! Comments: Teste da utilização de aquisição
continua pelo VNA HP8722D
! Time and date: 23/5/2025 10:15
!              Frequency                     S11                                                   S21                                                   S12                                                   S22
# HZ  S  MA R 50
4800000000.000000      3.161774000000000E-01      3.694140000000000E+01      4.686890000000000E-01     -1.275664000000000E+02
4801000000.000000      3.167419000000000E-01      3.718164000000000E+01      4.703369000000000E-01     -1.283281000000000E+02
4802000000.000000      3.175354000000000E-01      3.731640000000000E+01      4.706268000000000E-01     -1.288984000000000E+02
4803000000.000000      3.181915000000000E-01      3.744922000000000E+01      4.740448000000000E-01     -1.295547000000000E+02
4804000000.000000      3.190002000000000E-01      3.774609000000000E+01      4.739838000000000E-01     -1.302187000000000E+02
4805000000.000000      3.208466000000000E-01      3.771289000000000E+01      4.761047000000000E-01     -1.311094000000000E+02
4806000000.000000      3.215332000000000E-01      3.797656000000000E+01      4.790344000000000E-01     -1.317578000000000E+02
4807000000.000000      3.226471000000000E-01      3.814844000000000E+01      4.793243000000000E-01     -1.326250000000000E+02
4808000000.000000      3.232727000000000E-01      3.828711000000000E+01      4.808044000000000E-01     -1.333203000000000E+02
4809000000.000000      3.249359000000000E-01      3.862109000000000E+01      4.816437000000000E-01     -1.339922000000000E+02
4810000000.000000      3.260956000000000E-01      3.875391000000000E+01      4.836884000000000E-01     -1.346719000000000E+02
4811000000.000000      3.280640000000000E-01      3.876367000000000E+01      4.840698000000000E-01     -1.354844000000000E+02
4812000000.000000      3.299408000000000E-01      3.899023000000000E+01      4.850311000000000E-01     -1.362813000000000E+02
4813000000.000000      3.303223000000000E-01      3.910742000000000E+01      4.862671000000000E-01     -1.369922000000000E+02
4814000000.000000      3.318024000000000E-01      3.911523000000000E+01      4.870300000000000E-01     -1.378438000000000E+02
4815000000.000000      3.330383000000000E-01      3.922656000000000E+01      4.870758000000000E-01     -1.384219000000000E+02
4816000000.000000      3.347626000000000E-01      3.944531000000000E+01      4.874725000000000E-01     -1.392344000000000E+02
4817000000.000000      3.359833000000000E-01      3.951172000000000E+01      4.891205000000000E-01     -1.399453000000000E+02
4818000000.000000      3.378448000000000E-01      3.949414000000000E+01      4.890442000000000E-01     -1.405781000000000E+02
4819000000.000000      3.393250000000000E-01      3.962891000000000E+01      4.884644000000000E-01     -1.412734000000000E+02
4820000000.000000      3.401489000000000E-01      3.966601000000000E+01      4.891357000000000E-01     -1.421094000000000E+02
4821000000.000000      3.430176000000000E-01      3.972656000000000E+01      4.903564000000000E-01     -1.428984000000000E+02
4822000000.000000      3.436432000000000E-01      3.961328000000000E+01      4.887085000000000E-01     -1.437187000000000E+02
4823000000.000000      3.457489000000000E-01      3.961914000000000E+01      4.893341000000000E-01     -1.443750000000000E+02
4824000000.000000      3.470612000000000E-01      3.982617000000000E+01      4.890900000000000E-01     -1.452578000000000E+02
4825000000.000000      3.485718000000000E-01      3.969336000000000E+01      4.874420000000000E-01     -1.458203000000000E+02
4826000000.000000      3.507538000000000E-01      3.966797000000000E+01      4.884796000000000E-01     -1.466797000000000E+02
4827000000.000000      3.524170000000000E-01      3.965625000000000E+01      4.875641000000000E-01     -1.472265000000000E+02
4828000000.000000      3.543854000000000E-01      3.963672000000000E+01      4.867554000000000E-01     -1.479766000000000E+02
4829000000.000000      3.559113000000000E-01      3.970117000000000E+01      4.867554000000000E-01     -1.486484000000000E+02
4830000000.000000      3.575439000000000E-01      3.954687000000000E+01      4.878998000000000E-01     -1.494375000000000E+02
4831000000.000000      3.586578000000000E-01      3.953320000000000E+01      4.865570000000000E-01     -1.503281000000000E+02
4832000000.000000      3.605957000000000E-01      3.967382000000000E+01      4.864655000000000E-01     -1.507578000000000E+02
4833000000.000000      3.619232000000000E-01      3.942383000000000E+01      4.852295000000000E-01     -1.515156000000000E+02
4834000000.000000      3.638611000000000E-01      3.935547000000000E+01      4.850464000000000E-01     -1.522891000000000E+02
4835000000.000000      3.660431000000000E-01      3.926758000000000E+01      4.827576000000000E-01     -1.530000000000000E+02
4836000000.000000      3.677521000000000E-01      3.924023000000000E+01      4.816742000000000E-01     -1.537500000000000E+02
4837000000.000000      3.692627000000000E-01      3.923047000000000E+01      4.813232000000000E-01     -1.546484000000000E+02
4838000000.000000      3.698425000000000E-01      3.897265000000000E+01      4.799042000000000E-01     -1.551094000000000E+02
4839000000.000000      3.736877000000000E-01      3.897070000000000E+01      4.797668000000000E-01     -1.558281000000000E+02
4840000000.000000      3.739319000000000E-01      3.878711000000000E+01      4.789581000000000E-01     -1.566484000000000E+02
4841000000.000000      3.757782000000000E-01      3.875195000000000E+01      4.782257000000000E-01     -1.573672000000000E+02
4842000000.000000      3.765411000000000E-01      3.848047000000000E+01      4.761658000000000E-01     -1.580000000000000E+02
4843000000.000000      3.801270000000000E-01      3.820313000000000E+01      4.759369000000000E-01     -1.586719000000000E+02
4844000000.000000      3.802795000000000E-01      3.816797000000000E+01      4.735260000000000E-01     -1.594922000000000E+02
4845000000.000000      3.814697000000000E-01      3.815625000000000E+01      4.724579000000000E-01     -1.601406000000000E+02
4846000000.000000      3.839569000000000E-01      3.791601000000000E+01      4.718628000000000E-01     -1.607891000000000E+02
4847000000.000000      3.852386000000000E-01      3.782617000000000E+01      4.697723000000000E-01     -1.613828000000000E+02
4848000000.000000      3.864136000000000E-01      3.759375000000000E+01      4.668884000000000E-01     -1.622500000000000E+02
4849000000.000000      3.876190000000000E-01      3.731445000000000E+01      4.656219000000000E-01     -1.631250000000000E+02
4850000000.000000      3.893890000000000E-01      3.724023000000000E+01      4.628601000000000E-01     -1.637266000000000E+02
4851000000.000000      3.908386000000000E-01      3.716211000000000E+01      4.631195000000000E-01     -1.645156000000000E+02
4852000000.000000      3.920593000000000E-01      3.686132000000000E+01      4.606934000000000E-01     -1.652109000000000E+02
4853000000.000000      3.930969000000000E-01      3.667578000000000E+01      4.560699000000000E-01     -1.656563000000000E+02
4854000000.000000      3.945313000000000E-01      3.646484000000000E+01      4.558716000000000E-01     -1.668672000000000E+02
4855000000.000000      3.946838000000000E-01      3.648633000000000E+01      4.534760000000000E-01     -1.672422000000000E+02
4856000000.000000      3.968658000000000E-01      3.605664000000000E+01      4.527740000000000E-01     -1.680625000000000E+02
4857000000.000000      3.983154000000000E-01      3.603125000000000E+01      4.499817000000000E-01     -1.686016000000000E+02
4858000000.000000      3.994293000000000E-01      3.573242000000000E+01      4.471283000000000E-01     -1.694219000000000E+02
4859000000.000000      4.002686000000000E-01      3.547852000000000E+01      4.454041000000000E-01     -1.701719000000000E+02
4860000000.000000      4.011841000000000E-01      3.537500000000000E+01      4.423523000000000E-01     -1.707344000000000E+02
4861000000.000000      4.019623000000000E-01      3.510156000000000E+01      4.393005000000000E-01     -1.716328000000000E+02
4862000000.000000      4.029388000000000E-01      3.489062000000000E+01      4.393158000000000E-01     -1.719844000000000E+02
4863000000.000000      4.044952000000000E-01      3.457812000000000E+01      4.353180000000000E-01     -1.729844000000000E+02
4864000000.000000      4.051056000000000E-01      3.431445000000000E+01      4.328613000000000E-01     -1.734688000000000E+02
4865000000.000000      4.059448000000000E-01      3.411914000000000E+01      4.284821000000000E-01     -1.739375000000000E+02
4866000000.000000      4.070129000000000E-01      3.388867000000000E+01      4.270477000000000E-01     -1.747813000000000E+02
4867000000.000000      4.063416000000000E-01      3.364062000000000E+01      4.231262000000000E-01     -1.757344000000000E+02
4868000000.000000      4.080811000000000E-01      3.342773000000000E+01      4.216156000000000E-01     -1.762031000000000E+02
4869000000.000000      4.092712000000000E-01      3.320117000000000E+01      4.187775000000000E-01     -1.769297000000000E+02
4870000000.000000      4.108887000000000E-01      3.299023000000000E+01      4.155273000000000E-01     -1.771797000000000E+02
4871000000.000000      4.111633000000000E-01      3.268945000000000E+01      4.113007000000000E-01     -1.782891000000000E+02
4872000000.000000      4.118500000000000E-01      3.246679000000000E+01      4.073334000000000E-01     -1.785156000000000E+02
4873000000.000000      4.117126000000000E-01      3.241211000000000E+01      4.039307000000000E-01     -1.795703000000000E+02
4874000000.000000      4.127197000000000E-01      3.208984000000000E+01      4.020386000000000E-01      1.798906000000000E+02
4875000000.000000      4.130554000000000E-01      3.186718000000000E+01      3.965912000000000E-01      1.795859000000000E+02
4876000000.000000      4.138947000000000E-01      3.170019000000000E+01      3.948212000000000E-01      1.788125000000000E+02
4877000000.000000      4.144897000000000E-01      3.118945000000000E+01      3.904114000000000E-01      1.782031000000000E+02
4878000000.000000      4.146576000000000E-01      3.107129000000000E+01      3.878937000000000E-01      1.778281000000000E+02
4879000000.000000      4.156036000000000E-01      3.095312000000000E+01      3.840332000000000E-01      1.772422000000000E+02
4880000000.000000      4.166870000000000E-01      3.068848000000000E+01      3.812103000000000E-01      1.765312000000000E+02
4881000000.000000      4.162903000000000E-01      3.041894000000000E+01      3.771362000000000E-01      1.760234000000000E+02
4882000000.000000      4.161224000000000E-01      3.015039000000000E+01      3.744507000000000E-01      1.755469000000000E+02
4883000000.000000      4.164734000000000E-01      2.995800000000000E+01      3.698578000000000E-01      1.749844000000000E+02
4884000000.000000      4.167938000000000E-01      2.973828000000000E+01      3.670502000000000E-01      1.743515000000000E+02
4885000000.000000      4.177704000000000E-01      2.948925000000000E+01      3.627319000000000E-01      1.741797000000000E+02
4886000000.000000      4.183502000000000E-01      2.930566000000000E+01      3.599091000000000E-01      1.735859000000000E+02
4887000000.000000      4.178162000000000E-01      2.906250000000000E+01      3.568878000000000E-01      1.730234000000000E+02
4888000000.000000      4.178619000000000E-01      2.879101000000000E+01      3.529205000000000E-01      1.725547000000000E+02
4889000000.000000      4.182587000000000E-01      2.860937000000000E+01      3.493042000000000E-01      1.721328000000000E+02
4890000000.000000      4.174347000000000E-01      2.837597000000000E+01      3.461761000000000E-01      1.713750000000000E+02
4891000000.000000      4.176788000000000E-01      2.821972000000000E+01      3.412781000000000E-01      1.711016000000000E+02
4892000000.000000      4.180908000000000E-01      2.802246000000000E+01      3.377228000000000E-01      1.707266000000000E+02
4893000000.000000      4.175262000000000E-01      2.781250000000000E+01      3.343048000000000E-01      1.700703000000000E+02
4894000000.000000      4.172516000000000E-01      2.754395000000000E+01      3.313446000000000E-01      1.698125000000000E+02
4895000000.000000      4.187469000000000E-01      2.729199000000000E+01      3.295593000000000E-01      1.691172000000000E+02
4896000000.000000      4.189148000000000E-01      2.710156000000000E+01      3.240356000000000E-01      1.689766000000000E+02
4897000000.000000      4.176483000000000E-01      2.693554000000000E+01      3.216553000000000E-01      1.685078000000000E+02
4898000000.000000      4.178619000000000E-01      2.662207000000000E+01      3.181763000000000E-01      1.680859000000000E+02
4899000000.000000      4.180908000000000E-01      2.644238000000000E+01      3.144989000000000E-01      1.675859000000000E+02
4900000000.000000      4.178772000000000E-01      2.624707000000000E+01      3.107758000000000E-01      1.674375000000000E+02
4901000000.000000      4.184875000000000E-01      2.608789000000000E+01      3.086243000000000E-01      1.669141000000000E+02
4902000000.000000      4.177094000000000E-01      2.594531000000000E+01      3.050385000000000E-01      1.666094000000000E+02
4903000000.000000      4.177551000000000E-01      2.570019000000000E+01      3.004761000000000E-01      1.661562000000000E+02
4904000000.000000      4.181366000000000E-01      2.538867000000000E+01      2.978821000000000E-01      1.657266000000000E+02
4905000000.000000      4.174805000000000E-01      2.534765000000000E+01      2.951508000000000E-01      1.652422000000000E+02
4906000000.000000      4.171753000000000E-01      2.513184000000000E+01      2.914124000000000E-01      1.651484000000000E+02
4907000000.000000      4.171143000000000E-01      2.507617000000000E+01      2.884827000000000E-01      1.646328000000000E+02
4908000000.000000      4.173889000000000E-01      2.462695000000000E+01      2.854004000000000E-01      1.642422000000000E+02
4909000000.000000      4.156799000000000E-01      2.452832000000000E+01      2.810364000000000E-01      1.638281000000000E+02
4910000000.000000      4.158325000000000E-01      2.442187000000000E+01      2.775421000000000E-01      1.634063000000000E+02
4911000000.000000      4.167328000000000E-01      2.424511000000000E+01      2.746582000000000E-01      1.631406000000000E+02
4912000000.000000      4.158936000000000E-01      2.408008000000000E+01      2.709961000000000E-01      1.626875000000000E+02
4913000000.000000      4.160919000000000E-01      2.391504000000000E+01      2.678528000000000E-01      1.623672000000000E+02
4914000000.000000      4.160767000000000E-01      2.362988000000000E+01      2.641907000000000E-01      1.621016000000000E+02
4915000000.000000      4.156647000000000E-01      2.357226000000000E+01      2.598114000000000E-01      1.615000000000000E+02
4916000000.000000      4.152832000000000E-01      2.333594000000000E+01      2.561340000000000E-01      1.612109000000000E+02
4917000000.000000      4.149933000000000E-01      2.324414000000000E+01      2.532959000000000E-01      1.610547000000000E+02
4918000000.000000      4.143982000000000E-01      2.296387000000000E+01      2.489090000000000E-01      1.607656000000000E+02
4919000000.000000      4.145508000000000E-01      2.275391000000000E+01      2.460709000000000E-01      1.605547000000000E+02
4920000000.000000      4.140625000000000E-01      2.268945000000000E+01      2.418137000000000E-01      1.600234000000000E+02
4921000000.000000      4.138336000000000E-01      2.249218000000000E+01      2.383804000000000E-01      1.597422000000000E+02
4922000000.000000      4.141998000000000E-01      2.238379000000000E+01      2.341003000000000E-01      1.596641000000000E+02
4923000000.000000      4.133911000000000E-01      2.222461000000000E+01      2.306213000000000E-01      1.594844000000000E+02
4924000000.000000      4.141235000000000E-01      2.202051000000000E+01      2.265015000000000E-01      1.590469000000000E+02
4925000000.000000      4.136658000000000E-01      2.179492000000000E+01      2.230453000000000E-01      1.587265000000000E+02
4926000000.000000      4.140015000000000E-01      2.162598000000000E+01      2.192993000000000E-01      1.586016000000000E+02
4927000000.000000      4.140778000000000E-01      2.158496000000000E+01      2.149887000000000E-01      1.585781000000000E+02
4928000000.000000      4.143829000000000E-01      2.125683000000000E+01      2.114868000000000E-01      1.583359000000000E+02
4929000000.000000      4.121552000000000E-01      2.122070000000000E+01      2.072067000000000E-01      1.582109000000000E+02
4930000000.000000      4.122162000000000E-01      2.103125000000000E+01      2.041931000000000E-01      1.580547000000000E+02
4931000000.000000      4.120789000000000E-01      2.082520000000000E+01      2.001419000000000E-01      1.582031000000000E+02
4932000000.000000      4.125061000000000E-01      2.061230000000000E+01      1.959610000000000E-01      1.579141000000000E+02
4933000000.000000      4.122009000000000E-01      2.043848000000000E+01      1.912918000000000E-01      1.581484000000000E+02
4934000000.000000      4.121704000000000E-01      2.027734000000000E+01      1.882095000000000E-01      1.579531000000000E+02
4935000000.000000      4.127808000000000E-01      2.025000000000000E+01      1.847610000000000E-01      1.582422000000000E+02
4936000000.000000      4.109650000000000E-01      1.994336000000000E+01      1.797638000000000E-01      1.582891000000000E+02
4937000000.000000      4.110718000000000E-01      1.984863000000000E+01      1.766815000000000E-01      1.586094000000000E+02
4938000000.000000      4.107056000000000E-01      1.981934000000000E+01      1.728821000000000E-01      1.587734000000000E+02
4939000000.000000      4.103699000000000E-01      1.961719000000000E+01      1.685944000000000E-01      1.590547000000000E+02
4940000000.000000      4.105072000000000E-01      1.943848000000000E+01      1.646957000000000E-01      1.591563000000000E+02
4941000000.000000      4.110260000000000E-01      1.915527000000000E+01      1.613922000000000E-01      1.596250000000000E+02
4942000000.000000      4.092255000000000E-01      1.911816000000000E+01      1.573792000000000E-01      1.600547000000000E+02
4943000000.000000      4.093781000000000E-01      1.900195000000000E+01      1.542740000000000E-01      1.605859000000000E+02
4944000000.000000      4.089203000000000E-01      1.877148000000000E+01      1.505966000000000E-01      1.610156000000000E+02
4945000000.000000      4.085083000000000E-01      1.874902000000000E+01      1.469650000000000E-01      1.615234000000000E+02
4946000000.000000      4.095459000000000E-01      1.862793000000000E+01      1.435623000000000E-01      1.623281000000000E+02
4947000000.000000      4.092560000000000E-01      1.832227000000000E+01      1.404953000000000E-01      1.629531000000000E+02
4948000000.000000      4.086914000000000E-01      1.827148000000000E+01      1.373367000000000E-01      1.639375000000000E+02
4949000000.000000      4.069366000000000E-01      1.805566000000000E+01      1.343002000000000E-01      1.649531000000000E+02
4950000000.000000      4.081116000000000E-01      1.800977000000000E+01      1.310654000000000E-01      1.658516000000000E+02
4951000000.000000      4.076996000000000E-01      1.770410000000000E+01      1.280518000000000E-01      1.669375000000000E+02
4952000000.000000      4.065704000000000E-01      1.748437000000000E+01      1.255112000000000E-01      1.679531000000000E+02
4953000000.000000      4.058228000000000E-01      1.731152000000000E+01      1.228561000000000E-01      1.697109000000000E+02
4954000000.000000      4.071045000000000E-01      1.720801000000000E+01      1.206474000000000E-01      1.707422000000000E+02
