! Network Analyzer HP8722D
! Hewlett-Packard
! Data name: Linha & Wilkinson
! Saver's name: Rodrigo Anjos
! Comments: Teste da utilização de aquisição
continua pelo VNA HP8722D
! Time and date: 23/5/2025 12:56
!              Frequency                     S11                                                   S21                                                   S12                                                   S22
# HZ  S  MA R 50
4800000000.000000      2.881927000000000E-01      3.962695000000000E+01      4.841766000000000E-01     -1.298047000000000E+02
4801000000.000000      2.898712000000000E-01      3.988672000000000E+01      4.855194000000000E-01     -1.305781000000000E+02
4802000000.000000      2.908936000000000E-01      4.012891000000000E+01      4.859009000000000E-01     -1.310313000000000E+02
4803000000.000000      2.913971000000000E-01      4.026172000000000E+01      4.897461000000000E-01     -1.318438000000000E+02
4804000000.000000      2.928772000000000E-01      4.057031000000000E+01      4.904633000000000E-01     -1.324531000000000E+02
4805000000.000000      2.947083000000000E-01      4.059766000000000E+01      4.922485000000000E-01     -1.332891000000000E+02
4806000000.000000      2.957153000000000E-01      4.072266000000000E+01      4.941406000000000E-01     -1.338906000000000E+02
4807000000.000000      2.968140000000000E-01      4.101953000000000E+01      4.949646000000000E-01     -1.346875000000000E+02
4808000000.000000      2.977142000000000E-01      4.113671000000000E+01      4.963379000000000E-01     -1.352578000000000E+02
4809000000.000000      2.998047000000000E-01      4.134375000000000E+01      4.968719000000000E-01     -1.362109000000000E+02
4810000000.000000      3.013000000000000E-01      4.151563000000000E+01      4.989929000000000E-01     -1.367734000000000E+02
4811000000.000000      3.029938000000000E-01      4.164453000000000E+01      5.004578000000000E-01     -1.376875000000000E+02
4812000000.000000      3.052521000000000E-01      4.171288000000000E+01      5.009460000000000E-01     -1.383359000000000E+02
4813000000.000000      3.063965000000000E-01      4.195117000000000E+01      4.998169000000000E-01     -1.390703000000000E+02
4814000000.000000      3.074188000000000E-01      4.185742000000000E+01      5.014343000000000E-01     -1.398125000000000E+02
4815000000.000000      3.091125000000000E-01      4.204102000000000E+01      5.026550000000000E-01     -1.405469000000000E+02
4816000000.000000      3.116455000000000E-01      4.219727000000000E+01      5.032349000000000E-01     -1.412422000000000E+02
4817000000.000000      3.126221000000000E-01      4.224609000000000E+01      5.040894000000000E-01     -1.420156000000000E+02
4818000000.000000      3.144836000000000E-01      4.219727000000000E+01      5.044861000000000E-01     -1.427031000000000E+02
4819000000.000000      3.167267000000000E-01      4.236133000000000E+01      5.041809000000000E-01     -1.435937000000000E+02
4820000000.000000      3.178864000000000E-01      4.232422000000000E+01      5.040588000000000E-01     -1.442031000000000E+02
4821000000.000000      3.202057000000000E-01      4.236328000000000E+01      5.050964000000000E-01     -1.450000000000000E+02
4822000000.000000      3.209229000000000E-01      4.222070000000000E+01      5.034790000000000E-01     -1.456719000000000E+02
4823000000.000000      3.232269000000000E-01      4.226953000000000E+01      5.039978000000000E-01     -1.464922000000000E+02
4824000000.000000      3.251953000000000E-01      4.242383000000000E+01      5.041809000000000E-01     -1.473672000000000E+02
4825000000.000000      3.265991000000000E-01      4.220508000000000E+01      5.033569000000000E-01     -1.478516000000000E+02
4826000000.000000      3.287506000000000E-01      4.227735000000000E+01      5.034180000000000E-01     -1.486719000000000E+02
4827000000.000000      3.306580000000000E-01      4.224609000000000E+01      5.012817000000000E-01     -1.491953000000000E+02
4828000000.000000      3.327637000000000E-01      4.215820000000000E+01      5.046997000000000E-01     -1.500703000000000E+02
4829000000.000000      3.343658000000000E-01      4.212891000000000E+01      5.026550000000000E-01     -1.508047000000000E+02
4830000000.000000      3.364716000000000E-01      4.204297000000000E+01      5.024109000000000E-01     -1.515078000000000E+02
4831000000.000000      3.374634000000000E-01      4.191796000000000E+01      5.017090000000000E-01     -1.521250000000000E+02
4832000000.000000      3.394928000000000E-01      4.197070000000000E+01      5.002136000000000E-01     -1.527656000000000E+02
4833000000.000000      3.406067000000000E-01      4.167188000000000E+01      5.000305000000000E-01     -1.534688000000000E+02
4834000000.000000      3.430176000000000E-01      4.155273000000000E+01      4.985962000000000E-01     -1.542578000000000E+02
4835000000.000000      3.448334000000000E-01      4.135351000000000E+01      4.998474000000000E-01     -1.551641000000000E+02
4836000000.000000      3.468170000000000E-01      4.148046000000000E+01      4.960022000000000E-01     -1.557188000000000E+02
4837000000.000000      3.477020000000000E-01      4.137304000000000E+01      4.957581000000000E-01     -1.568594000000000E+02
4838000000.000000      3.495941000000000E-01      4.116015000000000E+01      4.950562000000000E-01     -1.571797000000000E+02
4839000000.000000      3.531189000000000E-01      4.107422000000000E+01      4.931335000000000E-01     -1.577969000000000E+02
4840000000.000000      3.531799000000000E-01      4.075195000000000E+01      4.931183000000000E-01     -1.586016000000000E+02
4841000000.000000      3.549194000000000E-01      4.073047000000000E+01      4.910278000000000E-01     -1.595234000000000E+02
4842000000.000000      3.558350000000000E-01      4.056445000000000E+01      4.906769000000000E-01     -1.602344000000000E+02
4843000000.000000      3.592072000000000E-01      4.028516000000000E+01      4.891968000000000E-01     -1.608516000000000E+02
4844000000.000000      3.596649000000000E-01      4.010156000000000E+01      4.864044000000000E-01     -1.615234000000000E+02
4845000000.000000      3.610535000000000E-01      4.002343000000000E+01      4.851837000000000E-01     -1.622187000000000E+02
4846000000.000000      3.627167000000000E-01      3.972851000000000E+01      4.837799000000000E-01     -1.628672000000000E+02
4847000000.000000      3.643341000000000E-01      3.961914000000000E+01      4.825897000000000E-01     -1.635703000000000E+02
4848000000.000000      3.656158000000000E-01      3.932031000000000E+01      4.797821000000000E-01     -1.644531000000000E+02
4849000000.000000      3.669739000000000E-01      3.907422000000000E+01      4.797668000000000E-01     -1.651641000000000E+02
4850000000.000000      3.687744000000000E-01      3.893945000000000E+01      4.764099000000000E-01     -1.656328000000000E+02
4851000000.000000      3.696136000000000E-01      3.883789000000000E+01      4.752350000000000E-01     -1.664609000000000E+02
4852000000.000000      3.711395000000000E-01      3.858984000000000E+01      4.730682000000000E-01     -1.670781000000000E+02
4853000000.000000      3.728485000000000E-01      3.828516000000000E+01      4.684753000000000E-01     -1.678125000000000E+02
4854000000.000000      3.742523000000000E-01      3.808008000000000E+01      4.681854000000000E-01     -1.686953000000000E+02
4855000000.000000      3.740234000000000E-01      3.796093000000000E+01      4.664154000000000E-01     -1.691328000000000E+02
4856000000.000000      3.760529000000000E-01      3.769922000000000E+01      4.625244000000000E-01     -1.700078000000000E+02
4857000000.000000      3.775635000000000E-01      3.754101000000000E+01      4.620361000000000E-01     -1.706953000000000E+02
4858000000.000000      3.777008000000000E-01      3.716992000000000E+01      4.589539000000000E-01     -1.712265000000000E+02
4859000000.000000      3.786163000000000E-01      3.693164000000000E+01      4.582977000000000E-01     -1.721016000000000E+02
4860000000.000000      3.799896000000000E-01      3.665039000000000E+01      4.530487000000000E-01     -1.725078000000000E+02
4861000000.000000      3.809814000000000E-01      3.651562000000000E+01      4.511108000000000E-01     -1.735312000000000E+02
4862000000.000000      3.815460000000000E-01      3.622461000000000E+01      4.487305000000000E-01     -1.739687000000000E+02
4863000000.000000      3.833466000000000E-01      3.596484000000000E+01      4.447937000000000E-01     -1.748906000000000E+02
4864000000.000000      3.842468000000000E-01      3.558398000000000E+01      4.436188000000000E-01     -1.753828000000000E+02
4865000000.000000      3.851318000000000E-01      3.540039000000000E+01      4.408722000000000E-01     -1.760078000000000E+02
4866000000.000000      3.859406000000000E-01      3.523242000000000E+01      4.370880000000000E-01     -1.767891000000000E+02
4867000000.000000      3.860016000000000E-01      3.504883000000000E+01      4.338379000000000E-01     -1.775156000000000E+02
4868000000.000000      3.871918000000000E-01      3.454883000000000E+01      4.314575000000000E-01     -1.780000000000000E+02
4869000000.000000      3.876190000000000E-01      3.436914000000000E+01      4.274445000000000E-01     -1.786328000000000E+02
4870000000.000000      3.883514000000000E-01      3.420703000000000E+01      4.253693000000000E-01     -1.790000000000000E+02
4871000000.000000      3.880310000000000E-01      3.383984000000000E+01      4.205170000000000E-01     -1.799609000000000E+02
4872000000.000000      3.906097000000000E-01      3.363867000000000E+01      4.186096000000000E-01      1.792891000000000E+02
4873000000.000000      3.898773000000000E-01      3.338867000000000E+01      4.141693000000000E-01      1.786641000000000E+02
4874000000.000000      3.908691000000000E-01      3.317578000000000E+01      4.105988000000000E-01      1.782109000000000E+02
4875000000.000000      3.910065000000000E-01      3.277344000000000E+01      4.064789000000000E-01      1.778750000000000E+02
4876000000.000000      3.917999000000000E-01      3.262500000000000E+01      4.057007000000000E-01      1.770313000000000E+02
4877000000.000000      3.925476000000000E-01      3.225390000000000E+01      4.000092000000000E-01      1.764609000000000E+02
4878000000.000000      3.913879000000000E-01      3.196680000000000E+01      3.978729000000000E-01      1.760234000000000E+02
4879000000.000000      3.930054000000000E-01      3.172363000000000E+01      3.929138000000000E-01      1.756953000000000E+02
4880000000.000000      3.941498000000000E-01      3.145508000000000E+01      3.894196000000000E-01      1.749453000000000E+02
4881000000.000000      3.931427000000000E-01      3.131640000000000E+01      3.866119000000000E-01      1.744297000000000E+02
4882000000.000000      3.941803000000000E-01      3.122949000000000E+01      3.830719000000000E-01      1.737734000000000E+02
4883000000.000000      3.936615000000000E-01      3.070898000000000E+01      3.800049000000000E-01      1.730156000000000E+02
4884000000.000000      3.943176000000000E-01      3.055566000000000E+01      3.755188000000000E-01      1.726406000000000E+02
4885000000.000000      3.944397000000000E-01      3.034961000000000E+01      3.712463000000000E-01      1.725312000000000E+02
4886000000.000000      3.954163000000000E-01      3.007324000000000E+01      3.685760000000000E-01      1.720312000000000E+02
4887000000.000000      3.948212000000000E-01      2.986133000000000E+01      3.663177000000000E-01      1.713750000000000E+02
4888000000.000000      3.943939000000000E-01      2.951269000000000E+01      3.627472000000000E-01      1.707109000000000E+02
4889000000.000000      3.955994000000000E-01      2.934570000000000E+01      3.595734000000000E-01      1.704687000000000E+02
4890000000.000000      3.934021000000000E-01      2.905468000000000E+01      3.530121000000000E-01      1.696953000000000E+02
4891000000.000000      3.951569000000000E-01      2.880859000000000E+01      3.509979000000000E-01      1.694922000000000E+02
4892000000.000000      3.943329000000000E-01      2.859179000000000E+01      3.484955000000000E-01      1.689609000000000E+02
4893000000.000000      3.949738000000000E-01      2.820313000000000E+01      3.441772000000000E-01      1.684375000000000E+02
4894000000.000000      3.945160000000000E-01      2.809863000000000E+01      3.404541000000000E-01      1.682031000000000E+02
4895000000.000000      3.953705000000000E-01      2.788183000000000E+01      3.363495000000000E-01      1.677031000000000E+02
4896000000.000000      3.950653000000000E-01      2.763379000000000E+01      3.327179000000000E-01      1.672188000000000E+02
4897000000.000000      3.947296000000000E-01      2.751074000000000E+01      3.297272000000000E-01      1.669922000000000E+02
4898000000.000000      3.943939000000000E-01      2.729199000000000E+01      3.271790000000000E-01      1.665469000000000E+02
4899000000.000000      3.936310000000000E-01      2.692871000000000E+01      3.244781000000000E-01      1.660078000000000E+02
4900000000.000000      3.941040000000000E-01      2.675000000000000E+01      3.200226000000000E-01      1.658281000000000E+02
4901000000.000000      3.939209000000000E-01      2.646191000000000E+01      3.168793000000000E-01      1.653672000000000E+02
4902000000.000000      3.937683000000000E-01      2.639648000000000E+01      3.130493000000000E-01      1.650156000000000E+02
4903000000.000000      3.936005000000000E-01      2.622559000000000E+01      3.097076000000000E-01      1.646250000000000E+02
4904000000.000000      3.934937000000000E-01      2.612402000000000E+01      3.056641000000000E-01      1.640547000000000E+02
4905000000.000000      3.921814000000000E-01      2.569824000000000E+01      3.034363000000000E-01      1.638672000000000E+02
4906000000.000000      3.931427000000000E-01      2.543262000000000E+01      2.999420000000000E-01      1.635547000000000E+02
4907000000.000000      3.921661000000000E-01      2.533300000000000E+01      2.966309000000000E-01      1.629922000000000E+02
4908000000.000000      3.925629000000000E-01      2.505566000000000E+01      2.933502000000000E-01      1.625625000000000E+02
4909000000.000000      3.917236000000000E-01      2.484668000000000E+01      2.892303000000000E-01      1.621875000000000E+02
4910000000.000000      3.912964000000000E-01      2.473242000000000E+01      2.857819000000000E-01      1.618906000000000E+02
4911000000.000000      3.921814000000000E-01      2.461816000000000E+01      2.827148000000000E-01      1.615391000000000E+02
4912000000.000000      3.912048000000000E-01      2.449804000000000E+01      2.788849000000000E-01      1.610703000000000E+02
4913000000.000000      3.914642000000000E-01      2.415722000000000E+01      2.755737000000000E-01      1.606953000000000E+02
4914000000.000000      3.904419000000000E-01      2.397461000000000E+01      2.718201000000000E-01      1.604922000000000E+02
4915000000.000000      3.905487000000000E-01      2.370019000000000E+01      2.674561000000000E-01      1.601328000000000E+02
4916000000.000000      3.903656000000000E-01      2.357324000000000E+01      2.643585000000000E-01      1.595625000000000E+02
4917000000.000000      3.905182000000000E-01      2.344141000000000E+01      2.612152000000000E-01      1.593984000000000E+02
4918000000.000000      3.904114000000000E-01      2.326270000000000E+01      2.566071000000000E-01      1.590781000000000E+02
4919000000.000000      3.888092000000000E-01      2.307617000000000E+01      2.529602000000000E-01      1.589766000000000E+02
4920000000.000000      3.900452000000000E-01      2.269726000000000E+01      2.490158000000000E-01      1.582891000000000E+02
4921000000.000000      3.892212000000000E-01      2.269824000000000E+01      2.450790000000000E-01      1.582734000000000E+02
4922000000.000000      3.894348000000000E-01      2.256836000000000E+01      2.414322000000000E-01      1.580547000000000E+02
4923000000.000000      3.894043000000000E-01      2.240039000000000E+01      2.369843000000000E-01      1.579375000000000E+02
4924000000.000000      3.884888000000000E-01      2.212207000000000E+01      2.331314000000000E-01      1.574453000000000E+02
4925000000.000000      3.880615000000000E-01      2.202734000000000E+01      2.295685000000000E-01      1.573359000000000E+02
4926000000.000000      3.883820000000000E-01      2.183105000000000E+01      2.255325000000000E-01      1.570781000000000E+02
4927000000.000000      3.879395000000000E-01      2.169238000000000E+01      2.219238000000000E-01      1.568984000000000E+02
4928000000.000000      3.872070000000000E-01      2.131836000000000E+01      2.172928000000000E-01      1.568594000000000E+02
4929000000.000000      3.867645000000000E-01      2.136425000000000E+01      2.131119000000000E-01      1.567578000000000E+02
4930000000.000000      3.865356000000000E-01      2.118652000000000E+01      2.096176000000000E-01      1.564922000000000E+02
4931000000.000000      3.862305000000000E-01      2.081543000000000E+01      2.062225000000000E-01      1.565781000000000E+02
4932000000.000000      3.859711000000000E-01      2.075293000000000E+01      2.015533000000000E-01      1.564922000000000E+02
4933000000.000000      3.861084000000000E-01      2.056641000000000E+01      1.967239000000000E-01      1.566406000000000E+02
4934000000.000000      3.869476000000000E-01      2.031152000000000E+01      1.933441000000000E-01      1.564141000000000E+02
4935000000.000000      3.872528000000000E-01      2.029101000000000E+01      1.900253000000000E-01      1.567969000000000E+02
4936000000.000000      3.843536000000000E-01      2.002930000000000E+01      1.854019000000000E-01      1.568906000000000E+02
4937000000.000000      3.853607000000000E-01      1.987207000000000E+01      1.812897000000000E-01      1.570156000000000E+02
4938000000.000000      3.837280000000000E-01      1.981641000000000E+01      1.778870000000000E-01      1.572500000000000E+02
4939000000.000000      3.841858000000000E-01      1.962012000000000E+01      1.737213000000000E-01      1.575703000000000E+02
4940000000.000000      3.841400000000000E-01      1.942578000000000E+01      1.696472000000000E-01      1.576406000000000E+02
4941000000.000000      3.842010000000000E-01      1.913476000000000E+01      1.657257000000000E-01      1.581484000000000E+02
4942000000.000000      3.829651000000000E-01      1.909082000000000E+01      1.622849000000000E-01      1.584531000000000E+02
4943000000.000000      3.835602000000000E-01      1.895605000000000E+01      1.582260000000000E-01      1.590937000000000E+02
4944000000.000000      3.827667000000000E-01      1.875684000000000E+01      1.548767000000000E-01      1.597344000000000E+02
4945000000.000000      3.826447000000000E-01      1.849316000000000E+01      1.514130000000000E-01      1.603281000000000E+02
4946000000.000000      3.826599000000000E-01      1.844922000000000E+01      1.477203000000000E-01      1.609375000000000E+02
4947000000.000000      3.819427000000000E-01      1.820703000000000E+01      1.445160000000000E-01      1.619062000000000E+02
4948000000.000000      3.815918000000000E-01      1.799805000000000E+01      1.411819000000000E-01      1.625234000000000E+02
4949000000.000000      3.814697000000000E-01      1.786426000000000E+01      1.379852000000000E-01      1.638672000000000E+02
4950000000.000000      3.817444000000000E-01      1.782910000000000E+01      1.348114000000000E-01      1.645391000000000E+02
4951000000.000000      3.808899000000000E-01      1.762402000000000E+01      1.320953000000000E-01      1.655469000000000E+02
4952000000.000000      3.805695000000000E-01      1.733203000000000E+01      1.291199000000000E-01      1.666250000000000E+02
4953000000.000000      3.801727000000000E-01      1.709570000000000E+01      1.267471000000000E-01      1.682812000000000E+02
4954000000.000000      3.799438000000000E-01      1.706836000000000E+01      1.247940000000000E-01      1.695859000000000E+02
