! Network Analyzer HP8722D
! Hewlett-Packard
! Data name: Linha & Wilkinson
! Saver's name: Rodrigo Anjos
! Comments: Teste da utilização de aquisição
continua pelo VNA HP8722D
! Time and date: 23/5/2025 16:39
!              Frequency                     S11                                                   S21                                                   S12                                                   S22
# HZ  S  MA R 50
4800000000.000000      2.805634000000000E-01      4.056250000000000E+01      4.881897000000000E-01     -1.300234000000000E+02
4801000000.000000      2.814026000000000E-01      4.079883000000000E+01      4.883728000000000E-01     -1.306719000000000E+02
4802000000.000000      2.827301000000000E-01      4.097070000000000E+01      4.920654000000000E-01     -1.316953000000000E+02
4803000000.000000      2.838440000000000E-01      4.115624000000000E+01      4.944611000000000E-01     -1.322187000000000E+02
4804000000.000000      2.846375000000000E-01      4.146093000000000E+01      4.963531000000000E-01     -1.328984000000000E+02
4805000000.000000      2.871246000000000E-01      4.155663000000000E+01      4.957581000000000E-01     -1.337891000000000E+02
4806000000.000000      2.879944000000000E-01      4.171484000000000E+01      4.980469000000000E-01     -1.344063000000000E+02
4807000000.000000      2.892761000000000E-01      4.192187000000000E+01      4.998932000000000E-01     -1.352422000000000E+02
4808000000.000000      2.901001000000000E-01      4.209961000000000E+01      5.000916000000000E-01     -1.357031000000000E+02
4809000000.000000      2.918701000000000E-01      4.239843000000000E+01      5.015564000000000E-01     -1.367891000000000E+02
4810000000.000000      2.936859000000000E-01      4.246875000000000E+01      5.038757000000000E-01     -1.374375000000000E+02
4811000000.000000      2.955017000000000E-01      4.257031000000000E+01      5.040588000000000E-01     -1.381562000000000E+02
4812000000.000000      2.977753000000000E-01      4.273633000000000E+01      5.050659000000000E-01     -1.388125000000000E+02
4813000000.000000      2.987366000000000E-01      4.275195000000000E+01      5.061035000000000E-01     -1.395234000000000E+02
4814000000.000000      3.002167000000000E-01      4.284375000000000E+01      5.066833000000000E-01     -1.402812000000000E+02
4815000000.000000      3.018646000000000E-01      4.301562000000000E+01      5.058289000000000E-01     -1.411250000000000E+02
4816000000.000000      3.046112000000000E-01      4.307422000000000E+01      5.075073000000000E-01     -1.417109000000000E+02
4817000000.000000      3.056335000000000E-01      4.315234000000000E+01      5.063477000000000E-01     -1.423906000000000E+02
4818000000.000000      3.074799000000000E-01      4.315625000000000E+01      5.069580000000000E-01     -1.432734000000000E+02
4819000000.000000      3.095551000000000E-01      4.307422000000000E+01      5.080872000000000E-01     -1.438750000000000E+02
4820000000.000000      3.101959000000000E-01      4.320898000000000E+01      5.079346000000000E-01     -1.446875000000000E+02
4821000000.000000      3.131104000000000E-01      4.332031000000000E+01      5.099182000000000E-01     -1.453359000000000E+02
4822000000.000000      3.144226000000000E-01      4.316796000000000E+01      5.069885000000000E-01     -1.461797000000000E+02
4823000000.000000      3.170013000000000E-01      4.314649000000000E+01      5.093079000000000E-01     -1.469531000000000E+02
4824000000.000000      3.184052000000000E-01      4.328321000000000E+01      5.089417000000000E-01     -1.478203000000000E+02
4825000000.000000      3.209534000000000E-01      4.317578000000000E+01      5.078125000000000E-01     -1.482812000000000E+02
4826000000.000000      3.220520000000000E-01      4.311132000000000E+01      5.079956000000000E-01     -1.491797000000000E+02
4827000000.000000      3.237000000000000E-01      4.300586000000000E+01      5.073853000000000E-01     -1.498516000000000E+02
4828000000.000000      3.263702000000000E-01      4.299805000000000E+01      5.088806000000000E-01     -1.505938000000000E+02
4829000000.000000      3.278656000000000E-01      4.301367000000000E+01      5.065002000000000E-01     -1.513281000000000E+02
4830000000.000000      3.295593000000000E-01      4.281640000000000E+01      5.070496000000000E-01     -1.520000000000000E+02
4831000000.000000      3.311615000000000E-01      4.273633000000000E+01      5.057983000000000E-01     -1.526797000000000E+02
4832000000.000000      3.333130000000000E-01      4.272851000000000E+01      5.040283000000000E-01     -1.533359000000000E+02
4833000000.000000      3.343658000000000E-01      4.254687000000000E+01      5.031738000000000E-01     -1.540078000000000E+02
4834000000.000000      3.362732000000000E-01      4.242383000000000E+01      5.036316000000000E-01     -1.549297000000000E+02
4835000000.000000      3.385468000000000E-01      4.229101000000000E+01      5.021362000000000E-01     -1.556172000000000E+02
4836000000.000000      3.399506000000000E-01      4.212500000000000E+01      5.003662000000000E-01     -1.563203000000000E+02
4837000000.000000      3.419495000000000E-01      4.214453000000000E+01      4.995880000000000E-01     -1.572656000000000E+02
4838000000.000000      3.432312000000000E-01      4.186328000000000E+01      4.998932000000000E-01     -1.575625000000000E+02
4839000000.000000      3.461151000000000E-01      4.173828000000000E+01      4.984131000000000E-01     -1.583516000000000E+02
4840000000.000000      3.470764000000000E-01      4.152929000000000E+01      4.977875000000000E-01     -1.591797000000000E+02
4841000000.000000      3.490295000000000E-01      4.146093000000000E+01      4.958038000000000E-01     -1.598984000000000E+02
4842000000.000000      3.491821000000000E-01      4.116406000000000E+01      4.944763000000000E-01     -1.604453000000000E+02
4843000000.000000      3.528748000000000E-01      4.087695000000000E+01      4.937744000000000E-01     -1.612578000000000E+02
4844000000.000000      3.538971000000000E-01      4.085938000000000E+01      4.906158000000000E-01     -1.621094000000000E+02
4845000000.000000      3.554535000000000E-01      4.069726000000000E+01      4.880981000000000E-01     -1.627500000000000E+02
4846000000.000000      3.568115000000000E-01      4.043750000000000E+01      4.890442000000000E-01     -1.633906000000000E+02
4847000000.000000      3.585663000000000E-01      4.031446000000000E+01      4.862823000000000E-01     -1.639062000000000E+02
4848000000.000000      3.593903000000000E-01      4.009375000000000E+01      4.829102000000000E-01     -1.648047000000000E+02
4849000000.000000      3.612823000000000E-01      3.977148000000000E+01      4.834137000000000E-01     -1.653828000000000E+02
4850000000.000000      3.620300000000000E-01      3.952929000000000E+01      4.806519000000000E-01     -1.663281000000000E+02
4851000000.000000      3.641968000000000E-01      3.943359000000000E+01      4.790649000000000E-01     -1.670391000000000E+02
4852000000.000000      3.647614000000000E-01      3.918945000000000E+01      4.772339000000000E-01     -1.676484000000000E+02
4853000000.000000      3.667297000000000E-01      3.886133000000000E+01      4.740295000000000E-01     -1.683281000000000E+02
4854000000.000000      3.672485000000000E-01      3.867383000000000E+01      4.723663000000000E-01     -1.690703000000000E+02
4855000000.000000      3.679962000000000E-01      3.850781000000000E+01      4.702301000000000E-01     -1.697500000000000E+02
4856000000.000000      3.699493000000000E-01      3.819921000000000E+01      4.669189000000000E-01     -1.704766000000000E+02
4857000000.000000      3.705750000000000E-01      3.793164000000000E+01      4.657440000000000E-01     -1.710156000000000E+02
4858000000.000000      3.721619000000000E-01      3.772265000000000E+01      4.641571000000000E-01     -1.717813000000000E+02
4859000000.000000      3.730011000000000E-01      3.747656000000000E+01      4.608612000000000E-01     -1.725391000000000E+02
4860000000.000000      3.738556000000000E-01      3.715820000000000E+01      4.586182000000000E-01     -1.731172000000000E+02
4861000000.000000      3.744965000000000E-01      3.690430000000000E+01      4.548645000000000E-01     -1.739453000000000E+02
4862000000.000000      3.758392000000000E-01      3.663867000000000E+01      4.528503000000000E-01     -1.743125000000000E+02
4863000000.000000      3.765564000000000E-01      3.647461000000000E+01      4.489594000000000E-01     -1.752422000000000E+02
4864000000.000000      3.774109000000000E-01      3.607031000000000E+01      4.463654000000000E-01     -1.756719000000000E+02
4865000000.000000      3.780670000000000E-01      3.583203000000000E+01      4.440155000000000E-01     -1.764219000000000E+02
4866000000.000000      3.793335000000000E-01      3.545703000000000E+01      4.397583000000000E-01     -1.771094000000000E+02
4867000000.000000      3.801270000000000E-01      3.534570000000000E+01      4.390411000000000E-01     -1.778750000000000E+02
4868000000.000000      3.812714000000000E-01      3.507226000000000E+01      4.345551000000000E-01     -1.781797000000000E+02
4869000000.000000      3.824310000000000E-01      3.479297000000000E+01      4.316254000000000E-01     -1.790937000000000E+02
4870000000.000000      3.816223000000000E-01      3.457031000000000E+01      4.283752000000000E-01     -1.795938000000000E+02
4871000000.000000      3.825684000000000E-01      3.426758000000000E+01      4.234467000000000E-01      1.795781000000000E+02
4872000000.000000      3.838959000000000E-01      3.395117000000000E+01      4.208374000000000E-01      1.792031000000000E+02
4873000000.000000      3.836060000000000E-01      3.387695000000000E+01      4.178772000000000E-01      1.784765000000000E+02
4874000000.000000      3.843689000000000E-01      3.350781000000000E+01      4.134979000000000E-01      1.777187000000000E+02
4875000000.000000      3.839722000000000E-01      3.307617000000000E+01      4.101410000000000E-01      1.772969000000000E+02
4876000000.000000      3.850555000000000E-01      3.296875000000000E+01      4.078064000000000E-01      1.767812000000000E+02
4877000000.000000      3.850403000000000E-01      3.250195000000000E+01      4.038086000000000E-01      1.761719000000000E+02
4878000000.000000      3.856659000000000E-01      3.240429000000000E+01      4.003143000000000E-01      1.755938000000000E+02
4879000000.000000      3.860474000000000E-01      3.221289000000000E+01      3.966217000000000E-01      1.751953000000000E+02
4880000000.000000      3.867340000000000E-01      3.184765000000000E+01      3.924408000000000E-01      1.742969000000000E+02
4881000000.000000      3.864441000000000E-01      3.154394000000000E+01      3.902893000000000E-01      1.740703000000000E+02
4882000000.000000      3.871155000000000E-01      3.136230000000000E+01      3.852844000000000E-01      1.734922000000000E+02
4883000000.000000      3.876648000000000E-01      3.101660000000000E+01      3.824768000000000E-01      1.728125000000000E+02
4884000000.000000      3.873138000000000E-01      3.083105000000000E+01      3.795013000000000E-01      1.723750000000000E+02
4885000000.000000      3.871765000000000E-01      3.057617000000000E+01      3.747559000000000E-01      1.720937000000000E+02
4886000000.000000      3.878326000000000E-01      3.035742000000000E+01      3.720093000000000E-01      1.713750000000000E+02
4887000000.000000      3.877563000000000E-01      2.998242000000000E+01      3.684235000000000E-01      1.710156000000000E+02
4888000000.000000      3.877411000000000E-01      2.966699000000000E+01      3.650055000000000E-01      1.705859000000000E+02
4889000000.000000      3.874512000000000E-01      2.948437000000000E+01      3.619843000000000E-01      1.699922000000000E+02
4890000000.000000      3.864746000000000E-01      2.930176000000000E+01      3.583069000000000E-01      1.692812000000000E+02
4891000000.000000      3.884583000000000E-01      2.910547000000000E+01      3.538208000000000E-01      1.689531000000000E+02
4892000000.000000      3.870697000000000E-01      2.883691000000000E+01      3.500671000000000E-01      1.689922000000000E+02
4893000000.000000      3.880920000000000E-01      2.850879000000000E+01      3.479309000000000E-01      1.682344000000000E+02
4894000000.000000      3.866882000000000E-01      2.837305000000000E+01      3.424377000000000E-01      1.678828000000000E+02
4895000000.000000      3.878326000000000E-01      2.816406000000000E+01      3.424377000000000E-01      1.674375000000000E+02
4896000000.000000      3.874969000000000E-01      2.782910000000000E+01      3.350220000000000E-01      1.669922000000000E+02
4897000000.000000      3.873138000000000E-01      2.761328000000000E+01      3.324738000000000E-01      1.665547000000000E+02
4898000000.000000      3.863220000000000E-01      2.748047000000000E+01      3.299713000000000E-01      1.663516000000000E+02
4899000000.000000      3.862915000000000E-01      2.714648000000000E+01      3.263397000000000E-01      1.655703000000000E+02
4900000000.000000      3.863373000000000E-01      2.700000000000000E+01      3.228760000000000E-01      1.653672000000000E+02
4901000000.000000      3.861694000000000E-01      2.667871000000000E+01      3.196106000000000E-01      1.650312000000000E+02
4902000000.000000      3.861542000000000E-01      2.646289000000000E+01      3.169250000000000E-01      1.647656000000000E+02
4903000000.000000      3.859863000000000E-01      2.639257000000000E+01      3.120117000000000E-01      1.642187000000000E+02
4904000000.000000      3.859253000000000E-01      2.610547000000000E+01      3.085175000000000E-01      1.638281000000000E+02
4905000000.000000      3.853302000000000E-01      2.596680000000000E+01      3.059692000000000E-01      1.634063000000000E+02
4906000000.000000      3.846893000000000E-01      2.556347000000000E+01      3.017578000000000E-01      1.631719000000000E+02
4907000000.000000      3.850708000000000E-01      2.546972000000000E+01      2.993622000000000E-01      1.624922000000000E+02
4908000000.000000      3.859253000000000E-01      2.527050000000000E+01      2.957458000000000E-01      1.621562000000000E+02
4909000000.000000      3.840332000000000E-01      2.506738000000000E+01      2.923431000000000E-01      1.618828000000000E+02
4910000000.000000      3.831482000000000E-01      2.490234000000000E+01      2.882080000000000E-01      1.615391000000000E+02
4911000000.000000      3.845825000000000E-01      2.466797000000000E+01      2.850800000000000E-01      1.612500000000000E+02
4912000000.000000      3.828888000000000E-01      2.449804000000000E+01      2.808838000000000E-01      1.606875000000000E+02
4913000000.000000      3.832397000000000E-01      2.422852000000000E+01      2.768402000000000E-01      1.604531000000000E+02
4914000000.000000      3.825684000000000E-01      2.409277000000000E+01      2.741241000000000E-01      1.601563000000000E+02
4915000000.000000      3.831329000000000E-01      2.385644000000000E+01      2.699738000000000E-01      1.597265000000000E+02
4916000000.000000      3.826904000000000E-01      2.368164000000000E+01      2.663116000000000E-01      1.592656000000000E+02
4917000000.000000      3.831024000000000E-01      2.364062000000000E+01      2.624969000000000E-01      1.589609000000000E+02
4918000000.000000      3.826294000000000E-01      2.334179000000000E+01      2.580872000000000E-01      1.587422000000000E+02
4919000000.000000      3.818512000000000E-01      2.317676000000000E+01      2.551270000000000E-01      1.586562000000000E+02
4920000000.000000      3.821869000000000E-01      2.297754000000000E+01      2.507782000000000E-01      1.582187000000000E+02
4921000000.000000      3.805237000000000E-01      2.289355000000000E+01      2.476730000000000E-01      1.578984000000000E+02
4922000000.000000      3.813019000000000E-01      2.258984000000000E+01      2.434082000000000E-01      1.578438000000000E+02
4923000000.000000      3.804932000000000E-01      2.246680000000000E+01      2.394943000000000E-01      1.576719000000000E+02
4924000000.000000      3.804169000000000E-01      2.222851000000000E+01      2.352219000000000E-01      1.570859000000000E+02
4925000000.000000      3.793182000000000E-01      2.198340000000000E+01      2.316666000000000E-01      1.570156000000000E+02
4926000000.000000      3.793793000000000E-01      2.193359000000000E+01      2.276306000000000E-01      1.566015000000000E+02
4927000000.000000      3.800964000000000E-01      2.163281000000000E+01      2.233887000000000E-01      1.566172000000000E+02
4928000000.000000      3.803711000000000E-01      2.148926000000000E+01      2.197495000000000E-01      1.565000000000000E+02
4929000000.000000      3.783722000000000E-01      2.132813000000000E+01      2.152710000000000E-01      1.564297000000000E+02
4930000000.000000      3.786469000000000E-01      2.125293000000000E+01      2.117310000000000E-01      1.561797000000000E+02
4931000000.000000      3.784485000000000E-01      2.095996000000000E+01      2.082977000000000E-01      1.561563000000000E+02
4932000000.000000      3.782654000000000E-01      2.082715000000000E+01      2.036819000000000E-01      1.561484000000000E+02
4933000000.000000      3.779144000000000E-01      2.047070000000000E+01      1.986160000000000E-01      1.563828000000000E+02
4934000000.000000      3.780212000000000E-01      2.038574000000000E+01      1.953812000000000E-01      1.560937000000000E+02
4935000000.000000      3.787231000000000E-01      2.028613000000000E+01      1.917877000000000E-01      1.565078000000000E+02
4936000000.000000      3.764801000000000E-01      2.005371000000000E+01      1.872559000000000E-01      1.564922000000000E+02
4937000000.000000      3.779755000000000E-01      1.980371000000000E+01      1.830826000000000E-01      1.564531000000000E+02
4938000000.000000      3.764801000000000E-01      1.986328000000000E+01      1.790771000000000E-01      1.568516000000000E+02
4939000000.000000      3.769989000000000E-01      1.968262000000000E+01      1.755676000000000E-01      1.571875000000000E+02
4940000000.000000      3.758087000000000E-01      1.930762000000000E+01      1.711197000000000E-01      1.572266000000000E+02
4941000000.000000      3.755341000000000E-01      1.916016000000000E+01      1.675339000000000E-01      1.577734000000000E+02
4942000000.000000      3.751526000000000E-01      1.916211000000000E+01      1.636581000000000E-01      1.582031000000000E+02
4943000000.000000      3.752136000000000E-01      1.883398000000000E+01      1.601791000000000E-01      1.586328000000000E+02
4944000000.000000      3.750458000000000E-01      1.873633000000000E+01      1.563263000000000E-01      1.593672000000000E+02
4945000000.000000      3.748627000000000E-01      1.841699000000000E+01      1.524200000000000E-01      1.599688000000000E+02
4946000000.000000      3.744354000000000E-01      1.841699000000000E+01      1.489029000000000E-01      1.606484000000000E+02
4947000000.000000      3.743439000000000E-01      1.815820000000000E+01      1.455841000000000E-01      1.614375000000000E+02
4948000000.000000      3.743591000000000E-01      1.813769000000000E+01      1.419678000000000E-01      1.622344000000000E+02
4949000000.000000      3.731232000000000E-01      1.793750000000000E+01      1.395111000000000E-01      1.634766000000000E+02
4950000000.000000      3.727722000000000E-01      1.783008000000000E+01      1.359711000000000E-01      1.643750000000000E+02
4951000000.000000      3.723297000000000E-01      1.748535000000000E+01      1.332397000000000E-01      1.652656000000000E+02
4952000000.000000      3.720856000000000E-01      1.724512000000000E+01      1.304398000000000E-01      1.666172000000000E+02
4953000000.000000      3.718414000000000E-01      1.722363000000000E+01      1.279144000000000E-01      1.680156000000000E+02
4954000000.000000      3.721619000000000E-01      1.706933000000000E+01      1.259003000000000E-01      1.690703000000000E+02
