! Network Analyzer HP8722D
! Hewlett-Packard
! Data name: Linha & Wilkinson
! Saver's name: Rodrigo Anjos
! Comments: Teste da utilização de aquisição
continua pelo VNA HP8722D
! Time and date: 23/5/2025 15:23
!              Frequency                     S11                                                   S21                                                   S12                                                   S22
# HZ  S  MA R 50
4800000000.000000      2.831116000000000E-01      3.998828000000000E+01      4.882050000000000E-01     -1.296094000000000E+02
4801000000.000000      2.839050000000000E-01      4.030859000000000E+01      4.883881000000000E-01     -1.302891000000000E+02
4802000000.000000      2.854004000000000E-01      4.043359000000000E+01      4.910736000000000E-01     -1.308672000000000E+02
4803000000.000000      2.862549000000000E-01      4.068555000000000E+01      4.934540000000000E-01     -1.316484000000000E+02
4804000000.000000      2.875366000000000E-01      4.097070000000000E+01      4.934540000000000E-01     -1.323047000000000E+02
4805000000.000000      2.898254000000000E-01      4.099999000000000E+01      4.936371000000000E-01     -1.331640000000000E+02
4806000000.000000      2.905426000000000E-01      4.118360000000000E+01      4.960327000000000E-01     -1.337344000000000E+02
4807000000.000000      2.921753000000000E-01      4.134961000000000E+01      4.964294000000000E-01     -1.346328000000000E+02
4808000000.000000      2.921906000000000E-01      4.164258000000000E+01      4.991455000000000E-01     -1.352187000000000E+02
4809000000.000000      2.942810000000000E-01      4.177930000000000E+01      5.003967000000000E-01     -1.361953000000000E+02
4810000000.000000      2.959137000000000E-01      4.192383000000000E+01      5.018921000000000E-01     -1.366094000000000E+02
4811000000.000000      2.982330000000000E-01      4.211719000000000E+01      5.036926000000000E-01     -1.374297000000000E+02
4812000000.000000      2.995758000000000E-01      4.220508000000000E+01      5.048523000000000E-01     -1.381328000000000E+02
4813000000.000000      3.011017000000000E-01      4.240820000000000E+01      5.044861000000000E-01     -1.390000000000000E+02
4814000000.000000      3.023376000000000E-01      4.242969000000000E+01      5.051575000000000E-01     -1.396328000000000E+02
4815000000.000000      3.040771000000000E-01      4.256640000000000E+01      5.047913000000000E-01     -1.403125000000000E+02
4816000000.000000      3.060608000000000E-01      4.261719000000000E+01      5.072021000000000E-01     -1.410469000000000E+02
4817000000.000000      3.076630000000000E-01      4.276757000000000E+01      5.067444000000000E-01     -1.419219000000000E+02
4818000000.000000      3.092346000000000E-01      4.270312000000000E+01      5.063782000000000E-01     -1.426563000000000E+02
4819000000.000000      3.110046000000000E-01      4.276367000000000E+01      5.071716000000000E-01     -1.433828000000000E+02
4820000000.000000      3.123779000000000E-01      4.292382000000000E+01      5.075684000000000E-01     -1.438281000000000E+02
4821000000.000000      3.152771000000000E-01      4.292773000000000E+01      5.082397000000000E-01     -1.448125000000000E+02
4822000000.000000      3.163452000000000E-01      4.274804000000000E+01      5.075989000000000E-01     -1.455156000000000E+02
4823000000.000000      3.186340000000000E-01      4.273242000000000E+01      5.078735000000000E-01     -1.462578000000000E+02
4824000000.000000      3.200226000000000E-01      4.310351000000000E+01      5.073853000000000E-01     -1.470391000000000E+02
4825000000.000000      3.219757000000000E-01      4.279882000000000E+01      5.062561000000000E-01     -1.477344000000000E+02
4826000000.000000      3.236389000000000E-01      4.268555000000000E+01      5.065613000000000E-01     -1.486797000000000E+02
4827000000.000000      3.257599000000000E-01      4.277929000000000E+01      5.061646000000000E-01     -1.492031000000000E+02
4828000000.000000      3.282166000000000E-01      4.274414000000000E+01      5.079041000000000E-01     -1.498125000000000E+02
4829000000.000000      3.290405000000000E-01      4.280663000000000E+01      5.067444000000000E-01     -1.505781000000000E+02
4830000000.000000      3.308258000000000E-01      4.261719000000000E+01      5.040283000000000E-01     -1.515078000000000E+02
4831000000.000000      3.330231000000000E-01      4.250977000000000E+01      5.054321000000000E-01     -1.522109000000000E+02
4832000000.000000      3.350220000000000E-01      4.250000000000000E+01      5.038757000000000E-01     -1.527500000000000E+02
4833000000.000000      3.359070000000000E-01      4.227735000000000E+01      5.045166000000000E-01     -1.534219000000000E+02
4834000000.000000      3.376770000000000E-01      4.228320000000000E+01      5.031128000000000E-01     -1.542266000000000E+02
4835000000.000000      3.398438000000000E-01      4.209961000000000E+01      5.007629000000000E-01     -1.550078000000000E+02
4836000000.000000      3.421173000000000E-01      4.197461000000000E+01      4.997253000000000E-01     -1.557422000000000E+02
4837000000.000000      3.432922000000000E-01      4.200391000000000E+01      4.984894000000000E-01     -1.565078000000000E+02
4838000000.000000      3.442688000000000E-01      4.170117000000000E+01      4.981995000000000E-01     -1.570078000000000E+02
4839000000.000000      3.479767000000000E-01      4.165039000000000E+01      4.981384000000000E-01     -1.576172000000000E+02
4840000000.000000      3.483734000000000E-01      4.142187000000000E+01      4.976959000000000E-01     -1.583594000000000E+02
4841000000.000000      3.504181000000000E-01      4.134766000000000E+01      4.962616000000000E-01     -1.592422000000000E+02
4842000000.000000      3.509674000000000E-01      4.113281000000000E+01      4.949493000000000E-01     -1.598984000000000E+02
4843000000.000000      3.539886000000000E-01      4.085351000000000E+01      4.939117000000000E-01     -1.607109000000000E+02
4844000000.000000      3.545227000000000E-01      4.073438000000000E+01      4.902954000000000E-01     -1.614297000000000E+02
4845000000.000000      3.563385000000000E-01      4.065039000000000E+01      4.895782000000000E-01     -1.621953000000000E+02
4846000000.000000      3.585968000000000E-01      4.047656000000000E+01      4.888916000000000E-01     -1.626875000000000E+02
4847000000.000000      3.597565000000000E-01      4.034375000000000E+01      4.868317000000000E-01     -1.634063000000000E+02
4848000000.000000      3.604126000000000E-01      3.995703000000000E+01      4.837799000000000E-01     -1.640469000000000E+02
4849000000.000000      3.622284000000000E-01      3.970508000000000E+01      4.843140000000000E-01     -1.647578000000000E+02
4850000000.000000      3.635254000000000E-01      3.960351000000000E+01      4.819794000000000E-01     -1.656563000000000E+02
4851000000.000000      3.656006000000000E-01      3.943945000000000E+01      4.797363000000000E-01     -1.663047000000000E+02
4852000000.000000      3.661499000000000E-01      3.910547000000000E+01      4.774323000000000E-01     -1.670000000000000E+02
4853000000.000000      3.681335000000000E-01      3.894336000000000E+01      4.745178000000000E-01     -1.677656000000000E+02
4854000000.000000      3.690643000000000E-01      3.869336000000000E+01      4.737396000000000E-01     -1.685547000000000E+02
4855000000.000000      3.702850000000000E-01      3.846094000000000E+01      4.715576000000000E-01     -1.690000000000000E+02
4856000000.000000      3.714905000000000E-01      3.818554000000000E+01      4.690857000000000E-01     -1.699219000000000E+02
4857000000.000000      3.734436000000000E-01      3.801562000000000E+01      4.671326000000000E-01     -1.703203000000000E+02
4858000000.000000      3.736572000000000E-01      3.768164000000000E+01      4.651337000000000E-01     -1.710078000000000E+02
4859000000.000000      3.753204000000000E-01      3.744531000000000E+01      4.615479000000000E-01     -1.719375000000000E+02
4860000000.000000      3.754730000000000E-01      3.723242000000000E+01      4.595795000000000E-01     -1.726250000000000E+02
4861000000.000000      3.767548000000000E-01      3.704492000000000E+01      4.559479000000000E-01     -1.732500000000000E+02
4862000000.000000      3.771057000000000E-01      3.668164000000000E+01      4.547272000000000E-01     -1.736719000000000E+02
4863000000.000000      3.787537000000000E-01      3.650586000000000E+01      4.509125000000000E-01     -1.747344000000000E+02
4864000000.000000      3.797150000000000E-01      3.622070000000000E+01      4.492035000000000E-01     -1.751875000000000E+02
4865000000.000000      3.807678000000000E-01      3.584375000000000E+01      4.448547000000000E-01     -1.758281000000000E+02
4866000000.000000      3.813171000000000E-01      3.552539000000000E+01      4.422913000000000E-01     -1.766719000000000E+02
4867000000.000000      3.816833000000000E-01      3.533984000000000E+01      4.399109000000000E-01     -1.772500000000000E+02
4868000000.000000      3.827820000000000E-01      3.507617000000000E+01      4.358521000000000E-01     -1.780156000000000E+02
4869000000.000000      3.833008000000000E-01      3.485156000000000E+01      4.336243000000000E-01     -1.784765000000000E+02
4870000000.000000      3.840332000000000E-01      3.458593000000000E+01      4.302979000000000E-01     -1.791484000000000E+02
4871000000.000000      3.839569000000000E-01      3.429688000000000E+01      4.259186000000000E-01     -1.798203000000000E+02
4872000000.000000      3.857117000000000E-01      3.404297000000000E+01      4.234924000000000E-01      1.797188000000000E+02
4873000000.000000      3.859863000000000E-01      3.382813000000000E+01      4.197388000000000E-01      1.790703000000000E+02
4874000000.000000      3.862457000000000E-01      3.360742000000000E+01      4.153748000000000E-01      1.784375000000000E+02
4875000000.000000      3.859863000000000E-01      3.326367000000000E+01      4.119720000000000E-01      1.777266000000000E+02
4876000000.000000      3.873444000000000E-01      3.318164000000000E+01      4.102936000000000E-01      1.772734000000000E+02
4877000000.000000      3.878632000000000E-01      3.249414000000000E+01      4.059448000000000E-01      1.767266000000000E+02
4878000000.000000      3.875122000000000E-01      3.239258000000000E+01      4.030762000000000E-01      1.760313000000000E+02
4879000000.000000      3.890686000000000E-01      3.215820000000000E+01      3.984680000000000E-01      1.756172000000000E+02
4880000000.000000      3.894196000000000E-01      3.190430000000000E+01      3.957520000000000E-01      1.750391000000000E+02
4881000000.000000      3.882294000000000E-01      3.184375000000000E+01      3.910217000000000E-01      1.747344000000000E+02
4882000000.000000      3.895264000000000E-01      3.136230000000000E+01      3.878021000000000E-01      1.738359000000000E+02
4883000000.000000      3.894348000000000E-01      3.117578000000000E+01      3.848114000000000E-01      1.732578000000000E+02
4884000000.000000      3.904877000000000E-01      3.096191000000000E+01      3.803101000000000E-01      1.727656000000000E+02
4885000000.000000      3.905792000000000E-01      3.060059000000000E+01      3.778687000000000E-01      1.724844000000000E+02
4886000000.000000      3.906860000000000E-01      3.044434000000000E+01      3.736115000000000E-01      1.722500000000000E+02
4887000000.000000      3.904266000000000E-01      3.024316000000000E+01      3.716431000000000E-01      1.714062000000000E+02
4888000000.000000      3.909302000000000E-01      2.983887000000000E+01      3.681183000000000E-01      1.708672000000000E+02
4889000000.000000      3.906555000000000E-01      2.967676000000000E+01      3.634033000000000E-01      1.706797000000000E+02
4890000000.000000      3.899689000000000E-01      2.940820000000000E+01      3.598328000000000E-01      1.698516000000000E+02
4891000000.000000      3.907928000000000E-01      2.917187000000000E+01      3.556976000000000E-01      1.693516000000000E+02
4892000000.000000      3.904572000000000E-01      2.898438000000000E+01      3.532410000000000E-01      1.693906000000000E+02
4893000000.000000      3.914642000000000E-01      2.867773000000000E+01      3.491364000000000E-01      1.686797000000000E+02
4894000000.000000      3.900909000000000E-01      2.853222000000000E+01      3.453522000000000E-01      1.681562000000000E+02
4895000000.000000      3.903198000000000E-01      2.822461000000000E+01      3.422241000000000E-01      1.678047000000000E+02
4896000000.000000      3.901672000000000E-01      2.796777000000000E+01      3.394165000000000E-01      1.672812000000000E+02
4897000000.000000      3.894043000000000E-01      2.782422000000000E+01      3.350830000000000E-01      1.668437000000000E+02
4898000000.000000      3.889923000000000E-01      2.758105000000000E+01      3.321533000000000E-01      1.665859000000000E+02
4899000000.000000      3.895569000000000E-01      2.723437000000000E+01      3.286591000000000E-01      1.659453000000000E+02
4900000000.000000      3.891449000000000E-01      2.689648000000000E+01      3.246460000000000E-01      1.657422000000000E+02
4901000000.000000      3.894196000000000E-01      2.679883000000000E+01      3.224335000000000E-01      1.653281000000000E+02
4902000000.000000      3.895264000000000E-01      2.658203000000000E+01      3.186188000000000E-01      1.649688000000000E+02
4903000000.000000      3.889618000000000E-01      2.640234000000000E+01      3.143463000000000E-01      1.646406000000000E+02
4904000000.000000      3.894653000000000E-01      2.609570000000000E+01      3.110046000000000E-01      1.640547000000000E+02
4905000000.000000      3.883820000000000E-01      2.607812000000000E+01      3.086243000000000E-01      1.638125000000000E+02
4906000000.000000      3.880768000000000E-01      2.585058000000000E+01      3.043518000000000E-01      1.634609000000000E+02
4907000000.000000      3.883667000000000E-01      2.559863000000000E+01      3.012238000000000E-01      1.628750000000000E+02
4908000000.000000      3.886566000000000E-01      2.544531000000000E+01      2.977142000000000E-01      1.625391000000000E+02
4909000000.000000      3.872681000000000E-01      2.516211000000000E+01      2.944489000000000E-01      1.621250000000000E+02
4910000000.000000      3.873138000000000E-01      2.501953000000000E+01      2.906036000000000E-01      1.617734000000000E+02
4911000000.000000      3.871918000000000E-01      2.480762000000000E+01      2.872467000000000E-01      1.614844000000000E+02
4912000000.000000      3.866119000000000E-01      2.464355000000000E+01      2.837524000000000E-01      1.608750000000000E+02
4913000000.000000      3.869934000000000E-01      2.426562000000000E+01      2.802124000000000E-01      1.605547000000000E+02
4914000000.000000      3.869629000000000E-01      2.403320000000000E+01      2.761078000000000E-01      1.605312000000000E+02
4915000000.000000      3.859406000000000E-01      2.397265000000000E+01      2.726288000000000E-01      1.598516000000000E+02
4916000000.000000      3.857574000000000E-01      2.384277000000000E+01      2.688904000000000E-01      1.593906000000000E+02
4917000000.000000      3.858490000000000E-01      2.358008000000000E+01      2.651367000000000E-01      1.593203000000000E+02
4918000000.000000      3.856659000000000E-01      2.338281000000000E+01      2.609711000000000E-01      1.588516000000000E+02
4919000000.000000      3.846130000000000E-01      2.325781000000000E+01      2.579193000000000E-01      1.587500000000000E+02
4920000000.000000      3.856049000000000E-01      2.298144000000000E+01      2.538757000000000E-01      1.581172000000000E+02
4921000000.000000      3.846130000000000E-01      2.287890000000000E+01      2.501831000000000E-01      1.579531000000000E+02
4922000000.000000      3.845062000000000E-01      2.265234000000000E+01      2.462845000000000E-01      1.580312000000000E+02
4923000000.000000      3.848267000000000E-01      2.242090000000000E+01      2.419739000000000E-01      1.576875000000000E+02
4924000000.000000      3.844299000000000E-01      2.252930000000000E+01      2.376480000000000E-01      1.570859000000000E+02
4925000000.000000      3.838959000000000E-01      2.220313000000000E+01      2.339401000000000E-01      1.571719000000000E+02
4926000000.000000      3.825073000000000E-01      2.200195000000000E+01      2.306671000000000E-01      1.568438000000000E+02
4927000000.000000      3.829193000000000E-01      2.175097000000000E+01      2.257233000000000E-01      1.566719000000000E+02
4928000000.000000      3.823547000000000E-01      2.161621000000000E+01      2.222519000000000E-01      1.565156000000000E+02
4929000000.000000      3.821106000000000E-01      2.132226000000000E+01      2.180786000000000E-01      1.562813000000000E+02
4930000000.000000      3.826294000000000E-01      2.137988000000000E+01      2.137985000000000E-01      1.560547000000000E+02
4931000000.000000      3.813171000000000E-01      2.110254000000000E+01      2.104721000000000E-01      1.560937000000000E+02
4932000000.000000      3.824615000000000E-01      2.095313000000000E+01      2.060013000000000E-01      1.561406000000000E+02
4933000000.000000      3.815460000000000E-01      2.072558000000000E+01      2.009735000000000E-01      1.561719000000000E+02
4934000000.000000      3.819733000000000E-01      2.058887000000000E+01      1.973190000000000E-01      1.559531000000000E+02
4935000000.000000      3.819427000000000E-01      2.049316000000000E+01      1.939621000000000E-01      1.563516000000000E+02
4936000000.000000      3.805542000000000E-01      2.012500000000000E+01      1.891479000000000E-01      1.561953000000000E+02
4937000000.000000      3.805084000000000E-01      1.998340000000000E+01      1.855164000000000E-01      1.562266000000000E+02
4938000000.000000      3.792877000000000E-01      2.002246000000000E+01      1.813126000000000E-01      1.566094000000000E+02
4939000000.000000      3.796997000000000E-01      1.967578000000000E+01      1.775970000000000E-01      1.567812000000000E+02
4940000000.000000      3.794403000000000E-01      1.964453000000000E+01      1.732712000000000E-01      1.569687000000000E+02
4941000000.000000      3.793182000000000E-01      1.935742000000000E+01      1.697464000000000E-01      1.574062000000000E+02
4942000000.000000      3.777618000000000E-01      1.928906000000000E+01      1.658859000000000E-01      1.578359000000000E+02
4943000000.000000      3.780670000000000E-01      1.921973000000000E+01      1.620712000000000E-01      1.581328000000000E+02
4944000000.000000      3.788147000000000E-01      1.875977000000000E+01      1.580048000000000E-01      1.587656000000000E+02
4945000000.000000      3.778992000000000E-01      1.877344000000000E+01      1.544800000000000E-01      1.592813000000000E+02
4946000000.000000      3.777618000000000E-01      1.859668000000000E+01      1.512299000000000E-01      1.597422000000000E+02
4947000000.000000      3.774567000000000E-01      1.830957000000000E+01      1.471329000000000E-01      1.607656000000000E+02
4948000000.000000      3.782196000000000E-01      1.819043000000000E+01      1.442261000000000E-01      1.614609000000000E+02
4949000000.000000      3.758392000000000E-01      1.802246000000000E+01      1.411438000000000E-01      1.625234000000000E+02
4950000000.000000      3.771667000000000E-01      1.804492000000000E+01      1.375809000000000E-01      1.634063000000000E+02
4951000000.000000      3.761597000000000E-01      1.770801000000000E+01      1.347885000000000E-01      1.642969000000000E+02
4952000000.000000      3.747253000000000E-01      1.752637000000000E+01      1.317062000000000E-01      1.654453000000000E+02
4953000000.000000      3.751678000000000E-01      1.734375000000000E+01      1.294556000000000E-01      1.668984000000000E+02
4954000000.000000      3.754425000000000E-01      1.719336000000000E+01      1.266022000000000E-01      1.681484000000000E+02
