! Network Analyzer HP8722D
! Hewlett-Packard
! Data name: Linha & Wilkinson
! Saver's name: Rodrigo Anjos
! Comments: Teste da utilização de aquisição
continua pelo VNA HP8722D
! Time and date: 23/5/2025 10:13
!              Frequency                     S11                                                   S21                                                   S12                                                   S22
# HZ  S  MA R 50
4800000000.000000      3.167877000000000E-01      3.675195000000000E+01      4.681091000000000E-01     -1.274609000000000E+02
4801000000.000000      3.175201000000000E-01      3.708593000000000E+01      4.689178000000000E-01     -1.281953000000000E+02
4802000000.000000      3.192139000000000E-01      3.722851000000000E+01      4.707184000000000E-01     -1.288672000000000E+02
4803000000.000000      3.193512000000000E-01      3.741015000000000E+01      4.737091000000000E-01     -1.294766000000000E+02
4804000000.000000      3.200226000000000E-01      3.760742000000000E+01      4.745483000000000E-01     -1.302578000000000E+02
4805000000.000000      3.222046000000000E-01      3.768164000000000E+01      4.746704000000000E-01     -1.309687000000000E+02
4806000000.000000      3.229675000000000E-01      3.795312000000000E+01      4.763641000000000E-01     -1.316641000000000E+02
4807000000.000000      3.237000000000000E-01      3.804688000000000E+01      4.795990000000000E-01     -1.327188000000000E+02
4808000000.000000      3.240814000000000E-01      3.824023000000000E+01      4.801331000000000E-01     -1.331953000000000E+02
4809000000.000000      3.258972000000000E-01      3.845312000000000E+01      4.813385000000000E-01     -1.340391000000000E+02
4810000000.000000      3.268738000000000E-01      3.858593000000000E+01      4.828339000000000E-01     -1.346641000000000E+02
4811000000.000000      3.285522000000000E-01      3.870508000000000E+01      4.839172000000000E-01     -1.354063000000000E+02
4812000000.000000      3.308868000000000E-01      3.891797000000000E+01      4.826355000000000E-01     -1.362187000000000E+02
4813000000.000000      3.317413000000000E-01      3.902344000000000E+01      4.854889000000000E-01     -1.369297000000000E+02
4814000000.000000      3.323517000000000E-01      3.908203000000000E+01      4.848480000000000E-01     -1.374687000000000E+02
4815000000.000000      3.338165000000000E-01      3.917773000000000E+01      4.861908000000000E-01     -1.383281000000000E+02
4816000000.000000      3.359070000000000E-01      3.926562000000000E+01      4.873352000000000E-01     -1.390391000000000E+02
4817000000.000000      3.366547000000000E-01      3.942578000000000E+01      4.867706000000000E-01     -1.399141000000000E+02
4818000000.000000      3.387146000000000E-01      3.933203000000000E+01      4.877625000000000E-01     -1.406172000000000E+02
4819000000.000000      3.404846000000000E-01      3.948437000000000E+01      4.876709000000000E-01     -1.412969000000000E+02
4820000000.000000      3.412323000000000E-01      3.951562000000000E+01      4.876862000000000E-01     -1.419609000000000E+02
4821000000.000000      3.436432000000000E-01      3.959375000000000E+01      4.896545000000000E-01     -1.427813000000000E+02
4822000000.000000      3.442230000000000E-01      3.955859000000000E+01      4.884949000000000E-01     -1.435937000000000E+02
4823000000.000000      3.462372000000000E-01      3.966406000000000E+01      4.900055000000000E-01     -1.442109000000000E+02
4824000000.000000      3.483276000000000E-01      3.978516000000000E+01      4.882660000000000E-01     -1.449766000000000E+02
4825000000.000000      3.497467000000000E-01      3.963672000000000E+01      4.871826000000000E-01     -1.455859000000000E+02
4826000000.000000      3.512573000000000E-01      3.949414000000000E+01      4.879303000000000E-01     -1.465156000000000E+02
4827000000.000000      3.531342000000000E-01      3.966211000000000E+01      4.879913000000000E-01     -1.471484000000000E+02
4828000000.000000      3.554382000000000E-01      3.957031000000000E+01      4.869843000000000E-01     -1.479531000000000E+02
4829000000.000000      3.569031000000000E-01      3.963867000000000E+01      4.873199000000000E-01     -1.484219000000000E+02
4830000000.000000      3.588562000000000E-01      3.952539000000000E+01      4.870300000000000E-01     -1.493359000000000E+02
4831000000.000000      3.595428000000000E-01      3.952929000000000E+01      4.867401000000000E-01     -1.502422000000000E+02
4832000000.000000      3.615417000000000E-01      3.947461000000000E+01      4.861145000000000E-01     -1.508203000000000E+02
4833000000.000000      3.620148000000000E-01      3.938867000000000E+01      4.840393000000000E-01     -1.513515000000000E+02
4834000000.000000      3.643341000000000E-01      3.929492000000000E+01      4.827271000000000E-01     -1.521797000000000E+02
4835000000.000000      3.667908000000000E-01      3.916016000000000E+01      4.831390000000000E-01     -1.529219000000000E+02
4836000000.000000      3.684845000000000E-01      3.914648000000000E+01      4.821014000000000E-01     -1.535234000000000E+02
4837000000.000000      3.696442000000000E-01      3.914453000000000E+01      4.808655000000000E-01     -1.544531000000000E+02
4838000000.000000      3.712311000000000E-01      3.889257000000000E+01      4.799652000000000E-01     -1.550781000000000E+02
4839000000.000000      3.746796000000000E-01      3.886914000000000E+01      4.788361000000000E-01     -1.557500000000000E+02
4840000000.000000      3.750610000000000E-01      3.854687000000000E+01      4.782257000000000E-01     -1.563359000000000E+02
4841000000.000000      3.757477000000000E-01      3.870117000000000E+01      4.764099000000000E-01     -1.572344000000000E+02
4842000000.000000      3.777313000000000E-01      3.837109000000000E+01      4.757385000000000E-01     -1.578203000000000E+02
4843000000.000000      3.805084000000000E-01      3.816601000000000E+01      4.751434000000000E-01     -1.585938000000000E+02
4844000000.000000      3.806915000000000E-01      3.806836000000000E+01      4.739227000000000E-01     -1.595234000000000E+02
4845000000.000000      3.826141000000000E-01      3.803320000000000E+01      4.716034000000000E-01     -1.599375000000000E+02
4846000000.000000      3.844452000000000E-01      3.785351000000000E+01      4.701080000000000E-01     -1.607734000000000E+02
4847000000.000000      3.856659000000000E-01      3.774609000000000E+01      4.685211000000000E-01     -1.614453000000000E+02
4848000000.000000      3.872681000000000E-01      3.748437000000000E+01      4.673615000000000E-01     -1.622187000000000E+02
4849000000.000000      3.887177000000000E-01      3.724218000000000E+01      4.655151000000000E-01     -1.627187000000000E+02
4850000000.000000      3.900299000000000E-01      3.716211000000000E+01      4.625092000000000E-01     -1.636016000000000E+02
4851000000.000000      3.915863000000000E-01      3.709375000000000E+01      4.625549000000000E-01     -1.644297000000000E+02
4852000000.000000      3.922119000000000E-01      3.692773000000000E+01      4.602356000000000E-01     -1.651719000000000E+02
4853000000.000000      3.945618000000000E-01      3.670898000000000E+01      4.568024000000000E-01     -1.657187000000000E+02
4854000000.000000      3.954926000000000E-01      3.634961000000000E+01      4.555206000000000E-01     -1.665156000000000E+02
4855000000.000000      3.965759000000000E-01      3.636719000000000E+01      4.524994000000000E-01     -1.670938000000000E+02
4856000000.000000      3.979492000000000E-01      3.602539000000000E+01      4.512329000000000E-01     -1.677813000000000E+02
4857000000.000000      3.991089000000000E-01      3.588281000000000E+01      4.517517000000000E-01     -1.685390000000000E+02
4858000000.000000      3.999023000000000E-01      3.555273000000000E+01      4.473114000000000E-01     -1.692812000000000E+02
4859000000.000000      4.013367000000000E-01      3.539648000000000E+01      4.447937000000000E-01     -1.699922000000000E+02
4860000000.000000      4.026794000000000E-01      3.534180000000000E+01      4.423523000000000E-01     -1.705156000000000E+02
4861000000.000000      4.038086000000000E-01      3.502148000000000E+01      4.397125000000000E-01     -1.715781000000000E+02
4862000000.000000      4.040527000000000E-01      3.485937000000000E+01      4.389801000000000E-01     -1.719766000000000E+02
4863000000.000000      4.050140000000000E-01      3.454102000000000E+01      4.334106000000000E-01     -1.729141000000000E+02
4864000000.000000      4.055786000000000E-01      3.432226000000000E+01      4.316559000000000E-01     -1.735156000000000E+02
4865000000.000000      4.063263000000000E-01      3.418750000000000E+01      4.286652000000000E-01     -1.738984000000000E+02
4866000000.000000      4.077606000000000E-01      3.389257000000000E+01      4.256134000000000E-01     -1.747344000000000E+02
4867000000.000000      4.075470000000000E-01      3.361523000000000E+01      4.223633000000000E-01     -1.755234000000000E+02
4868000000.000000      4.095306000000000E-01      3.341211000000000E+01      4.193420000000000E-01     -1.760078000000000E+02
4869000000.000000      4.093628000000000E-01      3.321875000000000E+01      4.154816000000000E-01     -1.768594000000000E+02
4870000000.000000      4.110107000000000E-01      3.304101000000000E+01      4.127350000000000E-01     -1.772812000000000E+02
4871000000.000000      4.110260000000000E-01      3.270703000000000E+01      4.105225000000000E-01     -1.779844000000000E+02
4872000000.000000      4.133453000000000E-01      3.243164000000000E+01      4.067688000000000E-01     -1.786406000000000E+02
4873000000.000000      4.127655000000000E-01      3.230664000000000E+01      4.034119000000000E-01     -1.794297000000000E+02
4874000000.000000      4.133911000000000E-01      3.215625000000000E+01      4.002686000000000E-01     -1.800000000000000E+02
4875000000.000000      4.140472000000000E-01      3.173633000000000E+01      3.980255000000000E-01      1.795078000000000E+02
4876000000.000000      4.146118000000000E-01      3.165430000000000E+01      3.931732000000000E-01      1.789063000000000E+02
4877000000.000000      4.147949000000000E-01      3.128320000000000E+01      3.913422000000000E-01      1.782344000000000E+02
4878000000.000000      4.146881000000000E-01      3.110352000000000E+01      3.863831000000000E-01      1.778594000000000E+02
4879000000.000000      4.167786000000000E-01      3.088769000000000E+01      3.833160000000000E-01      1.774844000000000E+02
4880000000.000000      4.163055000000000E-01      3.065722000000000E+01      3.787842000000000E-01      1.767187000000000E+02
4881000000.000000      4.168854000000000E-01      3.048828000000000E+01      3.766479000000000E-01      1.760781000000000E+02
4882000000.000000      4.172668000000000E-01      3.040234000000000E+01      3.729706000000000E-01      1.756719000000000E+02
4883000000.000000      4.167480000000000E-01      2.986816000000000E+01      3.697662000000000E-01      1.750078000000000E+02
4884000000.000000      4.175568000000000E-01      2.983691000000000E+01      3.652191000000000E-01      1.746328000000000E+02
4885000000.000000      4.186707000000000E-01      2.957226000000000E+01      3.624573000000000E-01      1.741094000000000E+02
4886000000.000000      4.179230000000000E-01      2.927929000000000E+01      3.588257000000000E-01      1.736641000000000E+02
4887000000.000000      4.185333000000000E-01      2.904199000000000E+01      3.553619000000000E-01      1.730703000000000E+02
4888000000.000000      4.190521000000000E-01      2.878222000000000E+01      3.521576000000000E-01      1.724531000000000E+02
4889000000.000000      4.189911000000000E-01      2.868847000000000E+01      3.469086000000000E-01      1.721719000000000E+02
4890000000.000000      4.180603000000000E-01      2.832324000000000E+01      3.445282000000000E-01      1.713359000000000E+02
4891000000.000000      4.192963000000000E-01      2.816113000000000E+01      3.405609000000000E-01      1.709766000000000E+02
4892000000.000000      4.189606000000000E-01      2.796093000000000E+01      3.373413000000000E-01      1.707422000000000E+02
4893000000.000000      4.199677000000000E-01      2.772168000000000E+01      3.337097000000000E-01      1.702578000000000E+02
4894000000.000000      4.188080000000000E-01      2.755176000000000E+01      3.300629000000000E-01      1.700391000000000E+02
4895000000.000000      4.199066000000000E-01      2.738867000000000E+01      3.291168000000000E-01      1.692969000000000E+02
4896000000.000000      4.192657000000000E-01      2.699316000000000E+01      3.237610000000000E-01      1.690156000000000E+02
4897000000.000000      4.176788000000000E-01      2.708887000000000E+01      3.209991000000000E-01      1.684766000000000E+02
4898000000.000000      4.193573000000000E-01      2.668359000000000E+01      3.177032000000000E-01      1.681562000000000E+02
4899000000.000000      4.193115000000000E-01      2.651367000000000E+01      3.142242000000000E-01      1.676094000000000E+02
4900000000.000000      4.191284000000000E-01      2.624609000000000E+01      3.108826000000000E-01      1.674531000000000E+02
4901000000.000000      4.186401000000000E-01      2.600390000000000E+01      3.076477000000000E-01      1.669922000000000E+02
4902000000.000000      4.185638000000000E-01      2.584179000000000E+01      3.043518000000000E-01      1.667187000000000E+02
4903000000.000000      4.188843000000000E-01      2.573925000000000E+01      3.001251000000000E-01      1.662031000000000E+02
4904000000.000000      4.195709000000000E-01      2.548340000000000E+01      2.967834000000000E-01      1.657344000000000E+02
4905000000.000000      4.187164000000000E-01      2.534668000000000E+01      2.943878000000000E-01      1.653516000000000E+02
4906000000.000000      4.183655000000000E-01      2.512500000000000E+01      2.904663000000000E-01      1.651328000000000E+02
4907000000.000000      4.181519000000000E-01      2.484277000000000E+01      2.878265000000000E-01      1.645703000000000E+02
4908000000.000000      4.181824000000000E-01      2.467480000000000E+01      2.848206000000000E-01      1.642812000000000E+02
4909000000.000000      4.175720000000000E-01      2.455078000000000E+01      2.803345000000000E-01      1.638984000000000E+02
4910000000.000000      4.166718000000000E-01      2.437988000000000E+01      2.777252000000000E-01      1.635313000000000E+02
4911000000.000000      4.175262000000000E-01      2.431250000000000E+01      2.734375000000000E-01      1.631797000000000E+02
4912000000.000000      4.167633000000000E-01      2.416113000000000E+01      2.707062000000000E-01      1.628047000000000E+02
4913000000.000000      4.167328000000000E-01      2.375879000000000E+01      2.669830000000000E-01      1.623750000000000E+02
4914000000.000000      4.174042000000000E-01      2.364941000000000E+01      2.634125000000000E-01      1.622578000000000E+02
4915000000.000000      4.162750000000000E-01      2.365820000000000E+01      2.594910000000000E-01      1.616484000000000E+02
4916000000.000000      4.156647000000000E-01      2.335059000000000E+01      2.560577000000000E-01      1.612109000000000E+02
4917000000.000000      4.166718000000000E-01      2.334179000000000E+01      2.525177000000000E-01      1.610156000000000E+02
4918000000.000000      4.160767000000000E-01      2.311035000000000E+01      2.483902000000000E-01      1.607891000000000E+02
4919000000.000000      4.145050000000000E-01      2.292480000000000E+01      2.460098000000000E-01      1.609141000000000E+02
4920000000.000000      4.154816000000000E-01      2.257129000000000E+01      2.410507000000000E-01      1.599453000000000E+02
4921000000.000000      4.153748000000000E-01      2.250879000000000E+01      2.386169000000000E-01      1.598828000000000E+02
4922000000.000000      4.153442000000000E-01      2.231445000000000E+01      2.337799000000000E-01      1.598984000000000E+02
4923000000.000000      4.151764000000000E-01      2.224414000000000E+01      2.295456000000000E-01      1.594063000000000E+02
4924000000.000000      4.148712000000000E-01      2.206543000000000E+01      2.262268000000000E-01      1.591172000000000E+02
4925000000.000000      4.151154000000000E-01      2.188672000000000E+01      2.224121000000000E-01      1.590000000000000E+02
4926000000.000000      4.142609000000000E-01      2.176172000000000E+01      2.186661000000000E-01      1.586875000000000E+02
4927000000.000000      4.143829000000000E-01      2.150977000000000E+01      2.147598000000000E-01      1.585625000000000E+02
4928000000.000000      4.145508000000000E-01      2.137305000000000E+01      2.114563000000000E-01      1.585078000000000E+02
4929000000.000000      4.139252000000000E-01      2.118555000000000E+01      2.067719000000000E-01      1.584922000000000E+02
4930000000.000000      4.139099000000000E-01      2.124023000000000E+01      2.035065000000000E-01      1.582422000000000E+02
4931000000.000000      4.137268000000000E-01      2.079297000000000E+01      2.003174000000000E-01      1.582266000000000E+02
4932000000.000000      4.130554000000000E-01      2.066601000000000E+01      1.954956000000000E-01      1.580547000000000E+02
4933000000.000000      4.134064000000000E-01      2.057031000000000E+01      1.906281000000000E-01      1.581875000000000E+02
4934000000.000000      4.138947000000000E-01      2.048242000000000E+01      1.877747000000000E-01      1.582187000000000E+02
4935000000.000000      4.141235000000000E-01      2.033789000000000E+01      1.839600000000000E-01      1.583594000000000E+02
4936000000.000000      4.123535000000000E-01      2.005078000000000E+01      1.798935000000000E-01      1.584141000000000E+02
4937000000.000000      4.127045000000000E-01      1.980371000000000E+01      1.760254000000000E-01      1.584375000000000E+02
4938000000.000000      4.113312000000000E-01      1.985840000000000E+01      1.722870000000000E-01      1.586484000000000E+02
4939000000.000000      4.102020000000000E-01      1.971582000000000E+01      1.688461000000000E-01      1.591640000000000E+02
4940000000.000000      4.116821000000000E-01      1.945313000000000E+01      1.644363000000000E-01      1.591328000000000E+02
4941000000.000000      4.115906000000000E-01      1.935351000000000E+01      1.610489000000000E-01      1.598828000000000E+02
4942000000.000000      4.113464000000000E-01      1.922168000000000E+01      1.573029000000000E-01      1.599766000000000E+02
4943000000.000000      4.104614000000000E-01      1.904394000000000E+01      1.533585000000000E-01      1.605781000000000E+02
4944000000.000000      4.104156000000000E-01      1.880273000000000E+01      1.502762000000000E-01      1.610547000000000E+02
4945000000.000000      4.101868000000000E-01      1.858887000000000E+01      1.466904000000000E-01      1.617656000000000E+02
4946000000.000000      4.102478000000000E-01      1.849121000000000E+01      1.436462000000000E-01      1.625703000000000E+02
4947000000.000000      4.099121000000000E-01      1.828223000000000E+01      1.399460000000000E-01      1.632656000000000E+02
4948000000.000000      4.098206000000000E-01      1.831738000000000E+01      1.367798000000000E-01      1.638750000000000E+02
4949000000.000000      4.087982000000000E-01      1.794336000000000E+01      1.339493000000000E-01      1.650859000000000E+02
4950000000.000000      4.095001000000000E-01      1.792773000000000E+01      1.306686000000000E-01      1.660859000000000E+02
4951000000.000000      4.098206000000000E-01      1.768066000000000E+01      1.279068000000000E-01      1.670391000000000E+02
4952000000.000000      4.087372000000000E-01      1.758203000000000E+01      1.252136000000000E-01      1.681953000000000E+02
4953000000.000000      4.086456000000000E-01      1.737207000000000E+01      1.230087000000000E-01      1.695625000000000E+02
4954000000.000000      4.081421000000000E-01      1.728516000000000E+01      1.202126000000000E-01      1.709766000000000E+02
