! Network Analyzer HP8722D
! Hewlett-Packard
! Data name: Linha & Wilkinson
! Saver's name: Rodrigo Anjos
! Comments: Teste da utilização de aquisição
continua pelo VNA HP8722D
! Time and date: 23/5/2025 11:38
!              Frequency                     S11                                                   S21                                                   S12                                                   S22
# HZ  S  MA R 50
4800000000.000000      3.106384000000000E-01      3.740429000000000E+01      4.721832000000000E-01     -1.278359000000000E+02
4801000000.000000      3.113708000000000E-01      3.777344000000000E+01      4.719238000000000E-01     -1.284922000000000E+02
4802000000.000000      3.122864000000000E-01      3.792969000000000E+01      4.734955000000000E-01     -1.293203000000000E+02
4803000000.000000      3.128815000000000E-01      3.803320000000000E+01      4.768219000000000E-01     -1.297969000000000E+02
4804000000.000000      3.140717000000000E-01      3.827929000000000E+01      4.772797000000000E-01     -1.306015000000000E+02
4805000000.000000      3.162537000000000E-01      3.838086000000000E+01      4.789886000000000E-01     -1.315078000000000E+02
4806000000.000000      3.168182000000000E-01      3.858984000000000E+01      4.798431000000000E-01     -1.321094000000000E+02
4807000000.000000      3.177185000000000E-01      3.875000000000000E+01      4.829102000000000E-01     -1.329766000000000E+02
4808000000.000000      3.185883000000000E-01      3.889843000000000E+01      4.833221000000000E-01     -1.336406000000000E+02
4809000000.000000      3.198242000000000E-01      3.913281000000000E+01      4.851685000000000E-01     -1.344687000000000E+02
4810000000.000000      3.211212000000000E-01      3.920898000000000E+01      4.861298000000000E-01     -1.350781000000000E+02
4811000000.000000      3.231049000000000E-01      3.940625000000000E+01      4.856110000000000E-01     -1.360078000000000E+02
4812000000.000000      3.249207000000000E-01      3.958789000000000E+01      4.868164000000000E-01     -1.365937000000000E+02
4813000000.000000      3.258820000000000E-01      3.974218000000000E+01      4.880219000000000E-01     -1.372578000000000E+02
4814000000.000000      3.264313000000000E-01      3.974609000000000E+01      4.887390000000000E-01     -1.378984000000000E+02
4815000000.000000      3.285065000000000E-01      3.989648000000000E+01      4.881134000000000E-01     -1.386563000000000E+02
4816000000.000000      3.308105000000000E-01      3.997461000000000E+01      4.903564000000000E-01     -1.395313000000000E+02
4817000000.000000      3.315735000000000E-01      4.016602000000000E+01      4.903107000000000E-01     -1.402656000000000E+02
4818000000.000000      3.330383000000000E-01      4.006445000000000E+01      4.913788000000000E-01     -1.410625000000000E+02
4819000000.000000      3.350067000000000E-01      4.017383000000000E+01      4.899902000000000E-01     -1.416719000000000E+02
4820000000.000000      3.361816000000000E-01      4.022265000000000E+01      4.906769000000000E-01     -1.423750000000000E+02
4821000000.000000      3.381042000000000E-01      4.022461000000000E+01      4.911652000000000E-01     -1.432031000000000E+02
4822000000.000000      3.389740000000000E-01      4.026953000000000E+01      4.905243000000000E-01     -1.439687000000000E+02
4823000000.000000      3.410950000000000E-01      4.022265000000000E+01      4.914398000000000E-01     -1.447109000000000E+02
4824000000.000000      3.430023000000000E-01      4.040039000000000E+01      4.915314000000000E-01     -1.455078000000000E+02
4825000000.000000      3.445587000000000E-01      4.025976000000000E+01      4.905853000000000E-01     -1.461484000000000E+02
4826000000.000000      3.465118000000000E-01      4.016602000000000E+01      4.917908000000000E-01     -1.470000000000000E+02
4827000000.000000      3.488464000000000E-01      4.026953000000000E+01      4.906158000000000E-01     -1.474297000000000E+02
4828000000.000000      3.501892000000000E-01      4.018750000000000E+01      4.901581000000000E-01     -1.483281000000000E+02
4829000000.000000      3.516083000000000E-01      4.032422000000000E+01      4.902191000000000E-01     -1.489141000000000E+02
4830000000.000000      3.529663000000000E-01      4.012500000000000E+01      4.897919000000000E-01     -1.497578000000000E+02
4831000000.000000      3.547516000000000E-01      4.006836000000000E+01      4.881439000000000E-01     -1.505312000000000E+02
4832000000.000000      3.567200000000000E-01      4.007813000000000E+01      4.879303000000000E-01     -1.511797000000000E+02
4833000000.000000      3.575745000000000E-01      3.993750000000000E+01      4.873352000000000E-01     -1.518828000000000E+02
4834000000.000000      3.589172000000000E-01      3.991015000000000E+01      4.868622000000000E-01     -1.526250000000000E+02
4835000000.000000      3.619995000000000E-01      3.973437000000000E+01      4.873505000000000E-01     -1.533594000000000E+02
4836000000.000000      3.633118000000000E-01      3.978711000000000E+01      4.841614000000000E-01     -1.540156000000000E+02
4837000000.000000      3.645782000000000E-01      3.974804000000000E+01      4.823151000000000E-01     -1.549687000000000E+02
4838000000.000000      3.661652000000000E-01      3.947266000000000E+01      4.830627000000000E-01     -1.553516000000000E+02
4839000000.000000      3.694611000000000E-01      3.953516000000000E+01      4.813690000000000E-01     -1.560859000000000E+02
4840000000.000000      3.702087000000000E-01      3.918945000000000E+01      4.813385000000000E-01     -1.567578000000000E+02
4841000000.000000      3.717651000000000E-01      3.915820000000000E+01      4.798889000000000E-01     -1.575312000000000E+02
4842000000.000000      3.729095000000000E-01      3.905273000000000E+01      4.782104000000000E-01     -1.583125000000000E+02
4843000000.000000      3.759308000000000E-01      3.869726000000000E+01      4.770050000000000E-01     -1.591953000000000E+02
4844000000.000000      3.762054000000000E-01      3.861133000000000E+01      4.756317000000000E-01     -1.598047000000000E+02
4845000000.000000      3.783112000000000E-01      3.863867000000000E+01      4.751129000000000E-01     -1.603594000000000E+02
4846000000.000000      3.796844000000000E-01      3.835546000000000E+01      4.734344000000000E-01     -1.611797000000000E+02
4847000000.000000      3.810883000000000E-01      3.833593000000000E+01      4.715118000000000E-01     -1.617500000000000E+02
4848000000.000000      3.818359000000000E-01      3.802734000000000E+01      4.693451000000000E-01     -1.624297000000000E+02
4849000000.000000      3.832855000000000E-01      3.781445000000000E+01      4.693756000000000E-01     -1.633437000000000E+02
4850000000.000000      3.845825000000000E-01      3.764843000000000E+01      4.659119000000000E-01     -1.640078000000000E+02
4851000000.000000      3.862610000000000E-01      3.764453000000000E+01      4.656219000000000E-01     -1.647656000000000E+02
4852000000.000000      3.878632000000000E-01      3.729883000000000E+01      4.610443000000000E-01     -1.654922000000000E+02
4853000000.000000      3.885040000000000E-01      3.707422000000000E+01      4.586029000000000E-01     -1.661484000000000E+02
4854000000.000000      3.904724000000000E-01      3.684765000000000E+01      4.581451000000000E-01     -1.668984000000000E+02
4855000000.000000      3.914490000000000E-01      3.666601000000000E+01      4.566498000000000E-01     -1.676797000000000E+02
4856000000.000000      3.931122000000000E-01      3.648438000000000E+01      4.535217000000000E-01     -1.682031000000000E+02
4857000000.000000      3.937836000000000E-01      3.636914000000000E+01      4.515533000000000E-01     -1.689609000000000E+02
4858000000.000000      3.943787000000000E-01      3.612695000000000E+01      4.491730000000000E-01     -1.695391000000000E+02
4859000000.000000      3.958130000000000E-01      3.575390000000000E+01      4.474182000000000E-01     -1.703984000000000E+02
4860000000.000000      3.976288000000000E-01      3.578320000000000E+01      4.444275000000000E-01     -1.711172000000000E+02
4861000000.000000      3.973236000000000E-01      3.544140000000000E+01      4.431458000000000E-01     -1.718359000000000E+02
4862000000.000000      3.989868000000000E-01      3.527148000000000E+01      4.406738000000000E-01     -1.722188000000000E+02
4863000000.000000      3.996429000000000E-01      3.498437000000000E+01      4.364929000000000E-01     -1.732578000000000E+02
4864000000.000000      4.008026000000000E-01      3.475195000000000E+01      4.345245000000000E-01     -1.737813000000000E+02
4865000000.000000      4.022827000000000E-01      3.437891000000000E+01      4.317474000000000E-01     -1.743359000000000E+02
4866000000.000000      4.027252000000000E-01      3.416406000000000E+01      4.281464000000000E-01     -1.751562000000000E+02
4867000000.000000      4.024811000000000E-01      3.399805000000000E+01      4.246521000000000E-01     -1.758437000000000E+02
4868000000.000000      4.038696000000000E-01      3.368359000000000E+01      4.233093000000000E-01     -1.764141000000000E+02
4869000000.000000      4.049835000000000E-01      3.355469000000000E+01      4.194336000000000E-01     -1.771719000000000E+02
4870000000.000000      4.057922000000000E-01      3.341406000000000E+01      4.166718000000000E-01     -1.776875000000000E+02
4871000000.000000      4.060516000000000E-01      3.306055000000000E+01      4.124603000000000E-01     -1.784609000000000E+02
4872000000.000000      4.080048000000000E-01      3.275000000000000E+01      4.086456000000000E-01     -1.789609000000000E+02
4873000000.000000      4.069061000000000E-01      3.266211000000000E+01      4.077606000000000E-01     -1.796953000000000E+02
4874000000.000000      4.085693000000000E-01      3.239843000000000E+01      4.021759000000000E-01      1.798203000000000E+02
4875000000.000000      4.087524000000000E-01      3.206445000000000E+01      3.994598000000000E-01      1.790625000000000E+02
4876000000.000000      4.100037000000000E-01      3.204687000000000E+01      3.962402000000000E-01      1.785000000000000E+02
4877000000.000000      4.102936000000000E-01      3.153809000000000E+01      3.940887000000000E-01      1.778594000000000E+02
4878000000.000000      4.102173000000000E-01      3.142187000000000E+01      3.886414000000000E-01      1.774219000000000E+02
4879000000.000000      4.108734000000000E-01      3.118652000000000E+01      3.838043000000000E-01      1.768516000000000E+02
4880000000.000000      4.120636000000000E-01      3.087793000000000E+01      3.817902000000000E-01      1.762578000000000E+02
4881000000.000000      4.116516000000000E-01      3.062109000000000E+01      3.791199000000000E-01      1.758203000000000E+02
4882000000.000000      4.122162000000000E-01      3.053906000000000E+01      3.765564000000000E-01      1.752969000000000E+02
4883000000.000000      4.112854000000000E-01      3.026660000000000E+01      3.720703000000000E-01      1.748281000000000E+02
4884000000.000000      4.124603000000000E-01      3.002539000000000E+01      3.678894000000000E-01      1.740156000000000E+02
4885000000.000000      4.131622000000000E-01      2.970898000000000E+01      3.641815000000000E-01      1.738516000000000E+02
4886000000.000000      4.127655000000000E-01      2.957910000000000E+01      3.616486000000000E-01      1.733906000000000E+02
4887000000.000000      4.132538000000000E-01      2.932910000000000E+01      3.590240000000000E-01      1.727422000000000E+02
4888000000.000000      4.130402000000000E-01      2.894140000000000E+01      3.543396000000000E-01      1.721250000000000E+02
4889000000.000000      4.131470000000000E-01      2.885644000000000E+01      3.496399000000000E-01      1.718437000000000E+02
4890000000.000000      4.130249000000000E-01      2.863379000000000E+01      3.473663000000000E-01      1.710938000000000E+02
4891000000.000000      4.133148000000000E-01      2.847656000000000E+01      3.436432000000000E-01      1.707500000000000E+02
4892000000.000000      4.121246000000000E-01      2.812500000000000E+01      3.410797000000000E-01      1.706875000000000E+02
4893000000.000000      4.134674000000000E-01      2.799023000000000E+01      3.360138000000000E-01      1.699062000000000E+02
4894000000.000000      4.129028000000000E-01      2.783105000000000E+01      3.328857000000000E-01      1.693438000000000E+02
4895000000.000000      4.143829000000000E-01      2.743750000000000E+01      3.302155000000000E-01      1.693047000000000E+02
4896000000.000000      4.139404000000000E-01      2.730371000000000E+01      3.263092000000000E-01      1.688203000000000E+02
4897000000.000000      4.129486000000000E-01      2.724023000000000E+01      3.229828000000000E-01      1.682734000000000E+02
4898000000.000000      4.131775000000000E-01      2.696582000000000E+01      3.191528000000000E-01      1.678281000000000E+02
4899000000.000000      4.134521000000000E-01      2.663086000000000E+01      3.164215000000000E-01      1.673828000000000E+02
4900000000.000000      4.133911000000000E-01      2.645996000000000E+01      3.135681000000000E-01      1.671328000000000E+02
4901000000.000000      4.124756000000000E-01      2.616308000000000E+01      3.099976000000000E-01      1.666797000000000E+02
4902000000.000000      4.131317000000000E-01      2.618847000000000E+01      3.059235000000000E-01      1.663281000000000E+02
4903000000.000000      4.138947000000000E-01      2.603808000000000E+01      3.020630000000000E-01      1.657891000000000E+02
4904000000.000000      4.130402000000000E-01      2.581445000000000E+01      2.996216000000000E-01      1.653828000000000E+02
4905000000.000000      4.122467000000000E-01      2.550390000000000E+01      2.972107000000000E-01      1.649531000000000E+02
4906000000.000000      4.119720000000000E-01      2.518066000000000E+01      2.927246000000000E-01      1.648828000000000E+02
4907000000.000000      4.127808000000000E-01      2.509082000000000E+01      2.895966000000000E-01      1.643672000000000E+02
4908000000.000000      4.123688000000000E-01      2.489551000000000E+01      2.870483000000000E-01      1.637812000000000E+02
4909000000.000000      4.106293000000000E-01      2.467578000000000E+01      2.828064000000000E-01      1.634531000000000E+02
4910000000.000000      4.120636000000000E-01      2.466015000000000E+01      2.791138000000000E-01      1.631406000000000E+02
4911000000.000000      4.107056000000000E-01      2.444238000000000E+01      2.761383000000000E-01      1.629609000000000E+02
4912000000.000000      4.110870000000000E-01      2.416992000000000E+01      2.725830000000000E-01      1.623828000000000E+02
4913000000.000000      4.109955000000000E-01      2.408691000000000E+01      2.689362000000000E-01      1.620234000000000E+02
4914000000.000000      4.109650000000000E-01      2.386621000000000E+01      2.655182000000000E-01      1.618672000000000E+02
4915000000.000000      4.105835000000000E-01      2.363379000000000E+01      2.615356000000000E-01      1.612890000000000E+02
4916000000.000000      4.107819000000000E-01      2.338379000000000E+01      2.578430000000000E-01      1.609062000000000E+02
4917000000.000000      4.104004000000000E-01      2.323047000000000E+01      2.546234000000000E-01      1.607188000000000E+02
4918000000.000000      4.102783000000000E-01      2.310351000000000E+01      2.501068000000000E-01      1.603984000000000E+02
4919000000.000000      4.091492000000000E-01      2.299121000000000E+01      2.475662000000000E-01      1.602734000000000E+02
4920000000.000000      4.094543000000000E-01      2.274121000000000E+01      2.437439000000000E-01      1.597344000000000E+02
4921000000.000000      4.087677000000000E-01      2.266992000000000E+01      2.398834000000000E-01      1.596641000000000E+02
4922000000.000000      4.085236000000000E-01      2.248535000000000E+01      2.363968000000000E-01      1.594375000000000E+02
4923000000.000000      4.092865000000000E-01      2.239551000000000E+01      2.317200000000000E-01      1.590781000000000E+02
4924000000.000000      4.092712000000000E-01      2.224804000000000E+01      2.280731000000000E-01      1.588750000000000E+02
4925000000.000000      4.083405000000000E-01      2.197949000000000E+01      2.245102000000000E-01      1.586094000000000E+02
4926000000.000000      4.088287000000000E-01      2.193262000000000E+01      2.207260000000000E-01      1.583516000000000E+02
4927000000.000000      4.079895000000000E-01      2.169336000000000E+01      2.169418000000000E-01      1.581797000000000E+02
4928000000.000000      4.079895000000000E-01      2.141699000000000E+01      2.132187000000000E-01      1.581719000000000E+02
4929000000.000000      4.070892000000000E-01      2.125488000000000E+01      2.086182000000000E-01      1.579453000000000E+02
4930000000.000000      4.071503000000000E-01      2.115918000000000E+01      2.050171000000000E-01      1.576797000000000E+02
4931000000.000000      4.060516000000000E-01      2.089942000000000E+01      2.013550000000000E-01      1.578672000000000E+02
4932000000.000000      4.057159000000000E-01      2.074317000000000E+01      1.969376000000000E-01      1.578750000000000E+02
4933000000.000000      4.059906000000000E-01      2.062598000000000E+01      1.924667000000000E-01      1.578359000000000E+02
4934000000.000000      4.055786000000000E-01      2.045898000000000E+01      1.889725000000000E-01      1.577266000000000E+02
4935000000.000000      4.069061000000000E-01      2.040430000000000E+01      1.860809000000000E-01      1.580312000000000E+02
4936000000.000000      4.048767000000000E-01      2.008789000000000E+01      1.813354000000000E-01      1.581640000000000E+02
4937000000.000000      4.055634000000000E-01      1.982324000000000E+01      1.776199000000000E-01      1.581484000000000E+02
4938000000.000000      4.042816000000000E-01      1.994336000000000E+01      1.739349000000000E-01      1.584531000000000E+02
4939000000.000000      4.041595000000000E-01      1.977051000000000E+01      1.700287000000000E-01      1.587031000000000E+02
4940000000.000000      4.036407000000000E-01      1.937012000000000E+01      1.661682000000000E-01      1.588828000000000E+02
4941000000.000000      4.054565000000000E-01      1.935742000000000E+01      1.625061000000000E-01      1.593906000000000E+02
4942000000.000000      4.034271000000000E-01      1.916504000000000E+01      1.582642000000000E-01      1.597344000000000E+02
4943000000.000000      4.039764000000000E-01      1.903223000000000E+01      1.547318000000000E-01      1.602578000000000E+02
4944000000.000000      4.033356000000000E-01      1.871094000000000E+01      1.518402000000000E-01      1.607500000000000E+02
4945000000.000000      4.031982000000000E-01      1.885449000000000E+01      1.475372000000000E-01      1.613828000000000E+02
4946000000.000000      4.034424000000000E-01      1.858105000000000E+01      1.447144000000000E-01      1.619297000000000E+02
4947000000.000000      4.030914000000000E-01      1.833691000000000E+01      1.410294000000000E-01      1.627812000000000E+02
4948000000.000000      4.028320000000000E-01      1.826660000000000E+01      1.377411000000000E-01      1.636719000000000E+02
4949000000.000000      4.016266000000000E-01      1.800488000000000E+01      1.345367000000000E-01      1.647109000000000E+02
4950000000.000000      4.025116000000000E-01      1.796777000000000E+01      1.319656000000000E-01      1.657578000000000E+02
4951000000.000000      4.019775000000000E-01      1.792383000000000E+01      1.288986000000000E-01      1.664453000000000E+02
4952000000.000000      4.014435000000000E-01      1.751074000000000E+01      1.265030000000000E-01      1.677266000000000E+02
4953000000.000000      4.005280000000000E-01      1.740430000000000E+01      1.237717000000000E-01      1.690312000000000E+02
4954000000.000000      4.015808000000000E-01      1.725586000000000E+01      1.213188000000000E-01      1.704297000000000E+02
