! Network Analyzer HP8722D
! Hewlett-Packard
! Data name: Linha & Wilkinson
! Saver's name: Rodrigo Anjos
! Comments: Teste da utilização de aquisição
continua pelo VNA HP8722D
! Time and date: 23/5/2025 15:56
!              Frequency                     S11                                                   S21                                                   S12                                                   S22
# HZ  S  MA R 50
4800000000.000000      2.791748000000000E-01      4.052539000000000E+01      4.886322000000000E-01     -1.300781000000000E+02
4801000000.000000      2.804718000000000E-01      4.075000000000000E+01      4.900208000000000E-01     -1.306328000000000E+02
4802000000.000000      2.818451000000000E-01      4.095117000000000E+01      4.908142000000000E-01     -1.312500000000000E+02
4803000000.000000      2.824249000000000E-01      4.114453000000000E+01      4.933624000000000E-01     -1.318750000000000E+02
4804000000.000000      2.840271000000000E-01      4.142774000000000E+01      4.950104000000000E-01     -1.327422000000000E+02
4805000000.000000      2.857513000000000E-01      4.152929000000000E+01      4.957581000000000E-01     -1.334922000000000E+02
4806000000.000000      2.871399000000000E-01      4.161328000000000E+01      4.981995000000000E-01     -1.341953000000000E+02
4807000000.000000      2.888031000000000E-01      4.181641000000000E+01      4.983521000000000E-01     -1.350859000000000E+02
4808000000.000000      2.895966000000000E-01      4.203906000000000E+01      5.008240000000000E-01     -1.355859000000000E+02
4809000000.000000      2.912598000000000E-01      4.228906000000000E+01      5.008850000000000E-01     -1.364219000000000E+02
4810000000.000000      2.926178000000000E-01      4.243164000000000E+01      5.029602000000000E-01     -1.371875000000000E+02
4811000000.000000      2.946320000000000E-01      4.258985000000000E+01      5.030212000000000E-01     -1.379062000000000E+02
4812000000.000000      2.969971000000000E-01      4.276172000000000E+01      5.043945000000000E-01     -1.385078000000000E+02
4813000000.000000      2.980957000000000E-01      4.287890000000000E+01      5.060120000000000E-01     -1.393750000000000E+02
4814000000.000000      2.992706000000000E-01      4.291016000000000E+01      5.071716000000000E-01     -1.398594000000000E+02
4815000000.000000      3.011017000000000E-01      4.300586000000000E+01      5.066223000000000E-01     -1.408984000000000E+02
4816000000.000000      3.032532000000000E-01      4.308594000000000E+01      5.087585000000000E-01     -1.414063000000000E+02
4817000000.000000      3.044128000000000E-01      4.316211000000000E+01      5.074463000000000E-01     -1.423047000000000E+02
4818000000.000000      3.064270000000000E-01      4.311913000000000E+01      5.080261000000000E-01     -1.431094000000000E+02
4819000000.000000      3.085785000000000E-01      4.322266000000000E+01      5.086365000000000E-01     -1.437422000000000E+02
4820000000.000000      3.094025000000000E-01      4.333398000000000E+01      5.088806000000000E-01     -1.444922000000000E+02
4821000000.000000      3.121948000000000E-01      4.322461000000000E+01      5.102234000000000E-01     -1.451094000000000E+02
4822000000.000000      3.135681000000000E-01      4.324609000000000E+01      5.078125000000000E-01     -1.460000000000000E+02
4823000000.000000      3.154449000000000E-01      4.322461000000000E+01      5.099792000000000E-01     -1.466719000000000E+02
4824000000.000000      3.174591000000000E-01      4.334765000000000E+01      5.079346000000000E-01     -1.473750000000000E+02
4825000000.000000      3.191223000000000E-01      4.312696000000000E+01      5.073242000000000E-01     -1.480547000000000E+02
4826000000.000000      3.208771000000000E-01      4.313867000000000E+01      5.076904000000000E-01     -1.490547000000000E+02
4827000000.000000      3.234406000000000E-01      4.310351000000000E+01      5.074158000000000E-01     -1.495312000000000E+02
4828000000.000000      3.254089000000000E-01      4.308789000000000E+01      5.081177000000000E-01     -1.502187000000000E+02
4829000000.000000      3.266144000000000E-01      4.311913000000000E+01      5.075073000000000E-01     -1.509453000000000E+02
4830000000.000000      3.287659000000000E-01      4.290039000000000E+01      5.063171000000000E-01     -1.517812000000000E+02
4831000000.000000      3.299866000000000E-01      4.279101000000000E+01      5.052795000000000E-01     -1.525391000000000E+02
4832000000.000000      3.325500000000000E-01      4.285742000000000E+01      5.052185000000000E-01     -1.531250000000000E+02
4833000000.000000      3.334198000000000E-01      4.261719000000000E+01      5.040283000000000E-01     -1.539219000000000E+02
4834000000.000000      3.357086000000000E-01      4.238477000000000E+01      5.035400000000000E-01     -1.546406000000000E+02
4835000000.000000      3.379517000000000E-01      4.233398000000000E+01      5.042725000000000E-01     -1.554219000000000E+02
4836000000.000000      3.390656000000000E-01      4.228906000000000E+01      5.011902000000000E-01     -1.560156000000000E+02
4837000000.000000      3.404846000000000E-01      4.226953000000000E+01      4.988708000000000E-01     -1.570625000000000E+02
4838000000.000000      3.418732000000000E-01      4.192968000000000E+01      4.991608000000000E-01     -1.573203000000000E+02
4839000000.000000      3.455353000000000E-01      4.192773000000000E+01      4.984741000000000E-01     -1.582734000000000E+02
4840000000.000000      3.466644000000000E-01      4.151563000000000E+01      4.969330000000000E-01     -1.587812000000000E+02
4841000000.000000      3.482819000000000E-01      4.151757000000000E+01      4.977112000000000E-01     -1.597265000000000E+02
4842000000.000000      3.491364000000000E-01      4.130664000000000E+01      4.952087000000000E-01     -1.604219000000000E+02
4843000000.000000      3.520050000000000E-01      4.102344000000000E+01      4.940948000000000E-01     -1.610859000000000E+02
4844000000.000000      3.527527000000000E-01      4.093750000000000E+01      4.930725000000000E-01     -1.617031000000000E+02
4845000000.000000      3.543396000000000E-01      4.075976000000000E+01      4.903870000000000E-01     -1.625234000000000E+02
4846000000.000000      3.561096000000000E-01      4.049414000000000E+01      4.894409000000000E-01     -1.631875000000000E+02
4847000000.000000      3.580475000000000E-01      4.032227000000000E+01      4.884186000000000E-01     -1.638281000000000E+02
4848000000.000000      3.584900000000000E-01      4.005664000000000E+01      4.851227000000000E-01     -1.644922000000000E+02
4849000000.000000      3.598480000000000E-01      3.988672000000000E+01      4.832458000000000E-01     -1.652500000000000E+02
4850000000.000000      3.609009000000000E-01      3.967773000000000E+01      4.822235000000000E-01     -1.660625000000000E+02
4851000000.000000      3.624420000000000E-01      3.955664000000000E+01      4.807892000000000E-01     -1.667344000000000E+02
4852000000.000000      3.641968000000000E-01      3.923633000000000E+01      4.771576000000000E-01     -1.674141000000000E+02
4853000000.000000      3.652039000000000E-01      3.901562000000000E+01      4.730225000000000E-01     -1.682812000000000E+02
4854000000.000000      3.664856000000000E-01      3.878515000000000E+01      4.724274000000000E-01     -1.688594000000000E+02
4855000000.000000      3.678436000000000E-01      3.850195000000000E+01      4.711761000000000E-01     -1.695391000000000E+02
4856000000.000000      3.690796000000000E-01      3.830078000000000E+01      4.687195000000000E-01     -1.703047000000000E+02
4857000000.000000      3.697662000000000E-01      3.807812000000000E+01      4.680481000000000E-01     -1.706719000000000E+02
4858000000.000000      3.710938000000000E-01      3.780273000000000E+01      4.639435000000000E-01     -1.714844000000000E+02
4859000000.000000      3.718109000000000E-01      3.745117000000000E+01      4.622803000000000E-01     -1.721719000000000E+02
4860000000.000000      3.734894000000000E-01      3.742578000000000E+01      4.582672000000000E-01     -1.728125000000000E+02
4861000000.000000      3.737488000000000E-01      3.706055000000000E+01      4.558258000000000E-01     -1.735078000000000E+02
4862000000.000000      3.748932000000000E-01      3.673437000000000E+01      4.550629000000000E-01     -1.741797000000000E+02
4863000000.000000      3.761597000000000E-01      3.663671000000000E+01      4.506683000000000E-01     -1.750391000000000E+02
4864000000.000000      3.769073000000000E-01      3.626562000000000E+01      4.483337000000000E-01     -1.756484000000000E+02
4865000000.000000      3.773499000000000E-01      3.587109000000000E+01      4.449310000000000E-01     -1.760859000000000E+02
4866000000.000000      3.780365000000000E-01      3.564258000000000E+01      4.425201000000000E-01     -1.769453000000000E+02
4867000000.000000      3.787384000000000E-01      3.541992000000000E+01      4.402161000000000E-01     -1.776797000000000E+02
4868000000.000000      3.796692000000000E-01      3.508984000000000E+01      4.364471000000000E-01     -1.782500000000000E+02
4869000000.000000      3.813171000000000E-01      3.490820000000000E+01      4.315796000000000E-01     -1.788359000000000E+02
4870000000.000000      3.814392000000000E-01      3.455469000000000E+01      4.288177000000000E-01     -1.794297000000000E+02
4871000000.000000      3.813782000000000E-01      3.428320000000000E+01      4.248505000000000E-01      1.797812000000000E+02
4872000000.000000      3.836975000000000E-01      3.400391000000000E+01      4.223633000000000E-01      1.793594000000000E+02
4873000000.000000      3.829193000000000E-01      3.381445000000000E+01      4.193573000000000E-01      1.784765000000000E+02
4874000000.000000      3.835449000000000E-01      3.365234000000000E+01      4.159851000000000E-01      1.780313000000000E+02
4875000000.000000      3.837128000000000E-01      3.320898000000000E+01      4.111786000000000E-01      1.774141000000000E+02
4876000000.000000      3.847961000000000E-01      3.314258000000000E+01      4.082184000000000E-01      1.768047000000000E+02
4877000000.000000      3.852997000000000E-01      3.258008000000000E+01      4.042358000000000E-01      1.761641000000000E+02
4878000000.000000      3.849945000000000E-01      3.243945000000000E+01      4.023438000000000E-01      1.757266000000000E+02
4879000000.000000      3.862000000000000E-01      3.224804000000000E+01      3.979034000000000E-01      1.753125000000000E+02
4880000000.000000      3.865814000000000E-01      3.188183000000000E+01      3.950806000000000E-01      1.745156000000000E+02
4881000000.000000      3.865204000000000E-01      3.152050000000000E+01      3.910828000000000E-01      1.740547000000000E+02
4882000000.000000      3.859711000000000E-01      3.146484000000000E+01      3.884277000000000E-01      1.735937000000000E+02
4883000000.000000      3.866730000000000E-01      3.113086000000000E+01      3.840332000000000E-01      1.727422000000000E+02
4884000000.000000      3.875732000000000E-01      3.086133000000000E+01      3.806610000000000E-01      1.725547000000000E+02
4885000000.000000      3.877563000000000E-01      3.068848000000000E+01      3.763885000000000E-01      1.722109000000000E+02
4886000000.000000      3.875275000000000E-01      3.050293000000000E+01      3.740997000000000E-01      1.716875000000000E+02
4887000000.000000      3.880157000000000E-01      3.011133000000000E+01      3.705597000000000E-01      1.709297000000000E+02
4888000000.000000      3.873749000000000E-01      2.978027000000000E+01      3.660431000000000E-01      1.706563000000000E+02
4889000000.000000      3.873749000000000E-01      2.961035000000000E+01      3.617096000000000E-01      1.703047000000000E+02
4890000000.000000      3.871765000000000E-01      2.929980000000000E+01      3.592682000000000E-01      1.695703000000000E+02
4891000000.000000      3.870239000000000E-01      2.906836000000000E+01      3.554688000000000E-01      1.692422000000000E+02
4892000000.000000      3.875580000000000E-01      2.888086000000000E+01      3.519897000000000E-01      1.688750000000000E+02
4893000000.000000      3.877716000000000E-01      2.861230000000000E+01      3.485718000000000E-01      1.683594000000000E+02
4894000000.000000      3.869934000000000E-01      2.844727000000000E+01      3.438110000000000E-01      1.679297000000000E+02
4895000000.000000      3.880310000000000E-01      2.825684000000000E+01      3.422852000000000E-01      1.674297000000000E+02
4896000000.000000      3.872986000000000E-01      2.795801000000000E+01      3.373413000000000E-01      1.672891000000000E+02
4897000000.000000      3.860626000000000E-01      2.777734000000000E+01      3.348236000000000E-01      1.664063000000000E+02
4898000000.000000      3.868408000000000E-01      2.750781000000000E+01      3.303833000000000E-01      1.663359000000000E+02
4899000000.000000      3.863831000000000E-01      2.712305000000000E+01      3.273010000000000E-01      1.659609000000000E+02
4900000000.000000      3.862305000000000E-01      2.697754000000000E+01      3.244781000000000E-01      1.655000000000000E+02
4901000000.000000      3.862305000000000E-01      2.687793000000000E+01      3.215485000000000E-01      1.651094000000000E+02
4902000000.000000      3.856354000000000E-01      2.648046000000000E+01      3.179321000000000E-01      1.646250000000000E+02
4903000000.000000      3.867950000000000E-01      2.635937000000000E+01      3.132324000000000E-01      1.642266000000000E+02
4904000000.000000      3.852997000000000E-01      2.601953000000000E+01      3.104706000000000E-01      1.638047000000000E+02
4905000000.000000      3.856812000000000E-01      2.588086000000000E+01      3.081055000000000E-01      1.633281000000000E+02
4906000000.000000      3.850250000000000E-01      2.572656000000000E+01      3.038940000000000E-01      1.632813000000000E+02
4907000000.000000      3.849487000000000E-01      2.545312000000000E+01      3.014984000000000E-01      1.626719000000000E+02
4908000000.000000      3.855896000000000E-01      2.517480000000000E+01      2.973938000000000E-01      1.622890000000000E+02
4909000000.000000      3.844604000000000E-01      2.517285000000000E+01      2.927856000000000E-01      1.618984000000000E+02
4910000000.000000      3.838654000000000E-01      2.491796000000000E+01      2.893982000000000E-01      1.616562000000000E+02
4911000000.000000      3.848114000000000E-01      2.469141000000000E+01      2.866669000000000E-01      1.612734000000000E+02
4912000000.000000      3.832550000000000E-01      2.457324000000000E+01      2.826843000000000E-01      1.607422000000000E+02
4913000000.000000      3.843231000000000E-01      2.431055000000000E+01      2.788239000000000E-01      1.602422000000000E+02
4914000000.000000      3.837280000000000E-01      2.412109000000000E+01      2.756805000000000E-01      1.601641000000000E+02
4915000000.000000      3.827667000000000E-01      2.395508000000000E+01      2.714233000000000E-01      1.595312000000000E+02
4916000000.000000      3.824463000000000E-01      2.382715000000000E+01      2.676086000000000E-01      1.592187000000000E+02
4917000000.000000      3.824921000000000E-01      2.360547000000000E+01      2.644958000000000E-01      1.590547000000000E+02
4918000000.000000      3.825226000000000E-01      2.335742000000000E+01      2.597504000000000E-01      1.587188000000000E+02
4919000000.000000      3.811951000000000E-01      2.324805000000000E+01      2.565613000000000E-01      1.585312000000000E+02
4920000000.000000      3.816376000000000E-01      2.297168000000000E+01      2.518158000000000E-01      1.580703000000000E+02
4921000000.000000      3.798065000000000E-01      2.295410000000000E+01      2.487717000000000E-01      1.579453000000000E+02
4922000000.000000      3.807831000000000E-01      2.248437000000000E+01      2.443619000000000E-01      1.576641000000000E+02
4923000000.000000      3.801880000000000E-01      2.258008000000000E+01      2.411270000000000E-01      1.575859000000000E+02
4924000000.000000      3.800354000000000E-01      2.226172000000000E+01      2.369232000000000E-01      1.570391000000000E+02
4925000000.000000      3.793640000000000E-01      2.211524000000000E+01      2.330704000000000E-01      1.569453000000000E+02
4926000000.000000      3.790741000000000E-01      2.193652000000000E+01      2.297211000000000E-01      1.566562000000000E+02
4927000000.000000      3.797607000000000E-01      2.176660000000000E+01      2.250366000000000E-01      1.565625000000000E+02
4928000000.000000      3.798676000000000E-01      2.151074000000000E+01      2.213135000000000E-01      1.564844000000000E+02
4929000000.000000      3.788757000000000E-01      2.131152000000000E+01      2.166901000000000E-01      1.562266000000000E+02
4930000000.000000      3.779755000000000E-01      2.126953000000000E+01      2.125092000000000E-01      1.562344000000000E+02
4931000000.000000      3.784790000000000E-01      2.097363000000000E+01      2.095413000000000E-01      1.560313000000000E+02
4932000000.000000      3.778381000000000E-01      2.075781000000000E+01      2.044830000000000E-01      1.560703000000000E+02
4933000000.000000      3.782043000000000E-01      2.064941000000000E+01      1.999512000000000E-01      1.562109000000000E+02
4934000000.000000      3.786316000000000E-01      2.024902000000000E+01      1.962509000000000E-01      1.559844000000000E+02
4935000000.000000      3.789673000000000E-01      2.036231000000000E+01      1.936264000000000E-01      1.561406000000000E+02
4936000000.000000      3.764648000000000E-01      2.010840000000000E+01      1.883163000000000E-01      1.562813000000000E+02
4937000000.000000      3.773956000000000E-01      2.007129000000000E+01      1.841736000000000E-01      1.564141000000000E+02
4938000000.000000      3.757172000000000E-01      1.989062000000000E+01      1.809540000000000E-01      1.567344000000000E+02
4939000000.000000      3.761444000000000E-01      1.966797000000000E+01      1.767960000000000E-01      1.568281000000000E+02
4940000000.000000      3.760986000000000E-01      1.939453000000000E+01      1.725311000000000E-01      1.569922000000000E+02
4941000000.000000      3.763123000000000E-01      1.933398000000000E+01      1.688690000000000E-01      1.575156000000000E+02
4942000000.000000      3.752594000000000E-01      1.912695000000000E+01      1.645508000000000E-01      1.580391000000000E+02
4943000000.000000      3.746185000000000E-01      1.908594000000000E+01      1.609573000000000E-01      1.583203000000000E+02
4944000000.000000      3.751678000000000E-01      1.876562000000000E+01      1.571274000000000E-01      1.588516000000000E+02
4945000000.000000      3.748322000000000E-01      1.858301000000000E+01      1.529617000000000E-01      1.597031000000000E+02
4946000000.000000      3.739166000000000E-01      1.840332000000000E+01      1.502762000000000E-01      1.600312000000000E+02
4947000000.000000      3.739014000000000E-01      1.818848000000000E+01      1.462555000000000E-01      1.611875000000000E+02
4948000000.000000      3.744507000000000E-01      1.796582000000000E+01      1.435013000000000E-01      1.617969000000000E+02
4949000000.000000      3.727722000000000E-01      1.783301000000000E+01      1.407242000000000E-01      1.630469000000000E+02
4950000000.000000      3.726807000000000E-01      1.783984000000000E+01      1.367798000000000E-01      1.636406000000000E+02
4951000000.000000      3.724365000000000E-01      1.763769000000000E+01      1.340256000000000E-01      1.648125000000000E+02
4952000000.000000      3.726959000000000E-01      1.746191000000000E+01      1.311188000000000E-01      1.659688000000000E+02
4953000000.000000      3.719177000000000E-01      1.715918000000000E+01      1.289368000000000E-01      1.672969000000000E+02
4954000000.000000      3.715820000000000E-01      1.712695000000000E+01      1.266251000000000E-01      1.686797000000000E+02
