! Network Analyzer HP8722D
! Hewlett-Packard
! Data name: Linha & Wilkinson
! Saver's name: Rodrigo Anjos
! Comments: Teste da utilização de aquisição
continua pelo VNA HP8722D
! Time and date: 23/5/2025 13:37
!              Frequency                     S11                                                   S21                                                   S12                                                   S22
# HZ  S  MA R 50
4800000000.000000      2.925873000000000E-01      3.936718000000000E+01      4.829865000000000E-01     -1.297031000000000E+02
4801000000.000000      2.936401000000000E-01      3.965820000000000E+01      4.836273000000000E-01     -1.300781000000000E+02
4802000000.000000      2.949677000000000E-01      3.982617000000000E+01      4.846039000000000E-01     -1.309609000000000E+02
4803000000.000000      2.955933000000000E-01      3.995312000000000E+01      4.867249000000000E-01     -1.316484000000000E+02
4804000000.000000      2.965698000000000E-01      4.024023000000000E+01      4.880676000000000E-01     -1.322500000000000E+02
4805000000.000000      2.987823000000000E-01      4.033008000000000E+01      4.895020000000000E-01     -1.332578000000000E+02
4806000000.000000      2.996979000000000E-01      4.047461000000000E+01      4.921875000000000E-01     -1.338203000000000E+02
4807000000.000000      3.008881000000000E-01      4.074804000000000E+01      4.927826000000000E-01     -1.347344000000000E+02
4808000000.000000      3.016663000000000E-01      4.090625000000000E+01      4.939728000000000E-01     -1.353672000000000E+02
4809000000.000000      3.038177000000000E-01      4.114258000000000E+01      4.941101000000000E-01     -1.361562000000000E+02
4810000000.000000      3.051300000000000E-01      4.110937000000000E+01      4.965515000000000E-01     -1.366719000000000E+02
4811000000.000000      3.067627000000000E-01      4.131640000000000E+01      4.994049000000000E-01     -1.376719000000000E+02
4812000000.000000      3.090668000000000E-01      4.148828000000000E+01      4.977722000000000E-01     -1.383203000000000E+02
4813000000.000000      3.100891000000000E-01      4.160352000000000E+01      4.987030000000000E-01     -1.390078000000000E+02
4814000000.000000      3.114166000000000E-01      4.159180000000000E+01      4.994049000000000E-01     -1.399219000000000E+02
4815000000.000000      3.124390000000000E-01      4.178515000000000E+01      4.996948000000000E-01     -1.405000000000000E+02
4816000000.000000      3.153839000000000E-01      4.184960000000000E+01      5.013123000000000E-01     -1.411406000000000E+02
4817000000.000000      3.162537000000000E-01      4.188477000000000E+01      5.014038000000000E-01     -1.419531000000000E+02
4818000000.000000      3.180695000000000E-01      4.194140000000000E+01      5.003967000000000E-01     -1.427422000000000E+02
4819000000.000000      3.197937000000000E-01      4.194140000000000E+01      5.012817000000000E-01     -1.433984000000000E+02
4820000000.000000      3.210449000000000E-01      4.199609000000000E+01      5.010986000000000E-01     -1.441641000000000E+02
4821000000.000000      3.236847000000000E-01      4.201562000000000E+01      5.016479000000000E-01     -1.448594000000000E+02
4822000000.000000      3.247833000000000E-01      4.196875000000000E+01      5.005798000000000E-01     -1.454687000000000E+02
4823000000.000000      3.269348000000000E-01      4.195508000000000E+01      5.025330000000000E-01     -1.462969000000000E+02
4824000000.000000      3.288574000000000E-01      4.215234000000000E+01      5.007019000000000E-01     -1.471250000000000E+02
4825000000.000000      3.300018000000000E-01      4.190234000000000E+01      5.011292000000000E-01     -1.477344000000000E+02
4826000000.000000      3.321686000000000E-01      4.191406000000000E+01      5.011902000000000E-01     -1.485703000000000E+02
4827000000.000000      3.339233000000000E-01      4.191602000000000E+01      4.986725000000000E-01     -1.493281000000000E+02
4828000000.000000      3.364410000000000E-01      4.187304000000000E+01      4.984131000000000E-01     -1.499687000000000E+02
4829000000.000000      3.379211000000000E-01      4.189843000000000E+01      4.999084000000000E-01     -1.505781000000000E+02
4830000000.000000      3.397980000000000E-01      4.168945000000000E+01      4.989777000000000E-01     -1.514297000000000E+02
4831000000.000000      3.406677000000000E-01      4.155273000000000E+01      4.983826000000000E-01     -1.521328000000000E+02
4832000000.000000      3.430176000000000E-01      4.164063000000000E+01      4.970551000000000E-01     -1.529063000000000E+02
4833000000.000000      3.442230000000000E-01      4.138281000000000E+01      4.963837000000000E-01     -1.534844000000000E+02
4834000000.000000      3.462830000000000E-01      4.135742000000000E+01      4.956512000000000E-01     -1.543672000000000E+02
4835000000.000000      3.482513000000000E-01      4.115430000000000E+01      4.953308000000000E-01     -1.550156000000000E+02
4836000000.000000      3.503723000000000E-01      4.114258000000000E+01      4.940338000000000E-01     -1.557500000000000E+02
4837000000.000000      3.515930000000000E-01      4.116796000000000E+01      4.924316000000000E-01     -1.566562000000000E+02
4838000000.000000      3.530731000000000E-01      4.089063000000000E+01      4.924316000000000E-01     -1.572187000000000E+02
4839000000.000000      3.561707000000000E-01      4.078515000000000E+01      4.917603000000000E-01     -1.578828000000000E+02
4840000000.000000      3.563995000000000E-01      4.048047000000000E+01      4.897003000000000E-01     -1.586719000000000E+02
4841000000.000000      3.587036000000000E-01      4.046094000000000E+01      4.890442000000000E-01     -1.592891000000000E+02
4842000000.000000      3.589325000000000E-01      4.029101000000000E+01      4.863281000000000E-01     -1.598828000000000E+02
4843000000.000000      3.622742000000000E-01      3.992383000000000E+01      4.867401000000000E-01     -1.607969000000000E+02
4844000000.000000      3.622742000000000E-01      3.985547000000000E+01      4.846802000000000E-01     -1.613359000000000E+02
4845000000.000000      3.645325000000000E-01      3.975390000000000E+01      4.837036000000000E-01     -1.620391000000000E+02
4846000000.000000      3.663635000000000E-01      3.955469000000000E+01      4.815826000000000E-01     -1.627578000000000E+02
4847000000.000000      3.674927000000000E-01      3.943164000000000E+01      4.790344000000000E-01     -1.634766000000000E+02
4848000000.000000      3.686676000000000E-01      3.908594000000000E+01      4.781342000000000E-01     -1.642344000000000E+02
4849000000.000000      3.699951000000000E-01      3.884375000000000E+01      4.759064000000000E-01     -1.649453000000000E+02
4850000000.000000      3.711090000000000E-01      3.875000000000000E+01      4.735565000000000E-01     -1.656406000000000E+02
4851000000.000000      3.728485000000000E-01      3.869922000000000E+01      4.729767000000000E-01     -1.664141000000000E+02
4852000000.000000      3.740845000000000E-01      3.825976000000000E+01      4.708405000000000E-01     -1.671641000000000E+02
4853000000.000000      3.752747000000000E-01      3.810742000000000E+01      4.678192000000000E-01     -1.677578000000000E+02
4854000000.000000      3.766785000000000E-01      3.788476000000000E+01      4.647064000000000E-01     -1.685390000000000E+02
4855000000.000000      3.774414000000000E-01      3.768359000000000E+01      4.647369000000000E-01     -1.693281000000000E+02
4856000000.000000      3.786316000000000E-01      3.744141000000000E+01      4.603882000000000E-01     -1.699141000000000E+02
4857000000.000000      3.798828000000000E-01      3.720312000000000E+01      4.603271000000000E-01     -1.706250000000000E+02
4858000000.000000      3.809052000000000E-01      3.688672000000000E+01      4.568481000000000E-01     -1.713594000000000E+02
4859000000.000000      3.817139000000000E-01      3.680664000000000E+01      4.549255000000000E-01     -1.719609000000000E+02
4860000000.000000      3.832397000000000E-01      3.658398000000000E+01      4.504395000000000E-01     -1.726641000000000E+02
4861000000.000000      3.839111000000000E-01      3.630468000000000E+01      4.495239000000000E-01     -1.733750000000000E+02
4862000000.000000      3.849335000000000E-01      3.595703000000000E+01      4.459839000000000E-01     -1.740703000000000E+02
4863000000.000000      3.854828000000000E-01      3.584765000000000E+01      4.420013000000000E-01     -1.749297000000000E+02
4864000000.000000      3.875580000000000E-01      3.547656000000000E+01      4.393158000000000E-01     -1.751719000000000E+02
4865000000.000000      3.873444000000000E-01      3.515820000000000E+01      4.364624000000000E-01     -1.760000000000000E+02
4866000000.000000      3.888550000000000E-01      3.495703000000000E+01      4.333801000000000E-01     -1.767344000000000E+02
4867000000.000000      3.883209000000000E-01      3.472070000000000E+01      4.321747000000000E-01     -1.774688000000000E+02
4868000000.000000      3.904266000000000E-01      3.443164000000000E+01      4.290466000000000E-01     -1.778437000000000E+02
4869000000.000000      3.906097000000000E-01      3.420117000000000E+01      4.257660000000000E-01     -1.786094000000000E+02
4870000000.000000      3.916473000000000E-01      3.394726000000000E+01      4.218903000000000E-01     -1.791953000000000E+02
4871000000.000000      3.910065000000000E-01      3.368750000000000E+01      4.187012000000000E-01     -1.799687000000000E+02
4872000000.000000      3.934631000000000E-01      3.344922000000000E+01      4.152679000000000E-01      1.796406000000000E+02
4873000000.000000      3.928223000000000E-01      3.314258000000000E+01      4.107208000000000E-01      1.790234000000000E+02
4874000000.000000      3.934631000000000E-01      3.302343000000000E+01      4.071808000000000E-01      1.783281000000000E+02
4875000000.000000      3.940582000000000E-01      3.264453000000000E+01      4.040680000000000E-01      1.777812000000000E+02
4876000000.000000      3.945313000000000E-01      3.252148000000000E+01      4.033661000000000E-01      1.772500000000000E+02
4877000000.000000      3.957062000000000E-01      3.205469000000000E+01      3.977966000000000E-01      1.764531000000000E+02
4878000000.000000      3.952789000000000E-01      3.198925000000000E+01      3.947449000000000E-01      1.760234000000000E+02
4879000000.000000      3.963623000000000E-01      3.171972000000000E+01      3.898163000000000E-01      1.756016000000000E+02
4880000000.000000      3.966980000000000E-01      3.136425000000000E+01      3.864594000000000E-01      1.749375000000000E+02
4881000000.000000      3.961334000000000E-01      3.111816000000000E+01      3.840027000000000E-01      1.745312000000000E+02
4882000000.000000      3.968964000000000E-01      3.105762000000000E+01      3.807678000000000E-01      1.737813000000000E+02
4883000000.000000      3.976898000000000E-01      3.058008000000000E+01      3.763428000000000E-01      1.733047000000000E+02
4884000000.000000      3.981934000000000E-01      3.043554000000000E+01      3.727112000000000E-01      1.728984000000000E+02
4885000000.000000      3.972473000000000E-01      3.015820000000000E+01      3.690186000000000E-01      1.723516000000000E+02
4886000000.000000      3.978424000000000E-01      3.009472000000000E+01      3.668518000000000E-01      1.718828000000000E+02
4887000000.000000      3.969421000000000E-01      2.970508000000000E+01      3.636322000000000E-01      1.713516000000000E+02
4888000000.000000      3.973846000000000E-01      2.930664000000000E+01      3.592377000000000E-01      1.708984000000000E+02
4889000000.000000      3.975220000000000E-01      2.925097000000000E+01      3.553619000000000E-01      1.706016000000000E+02
4890000000.000000      3.967743000000000E-01      2.899609000000000E+01      3.517914000000000E-01      1.696797000000000E+02
4891000000.000000      3.984070000000000E-01      2.873144000000000E+01      3.468933000000000E-01      1.696172000000000E+02
4892000000.000000      3.976898000000000E-01      2.859277000000000E+01      3.441772000000000E-01      1.691406000000000E+02
4893000000.000000      3.989563000000000E-01      2.830469000000000E+01      3.411560000000000E-01      1.684141000000000E+02
4894000000.000000      3.967438000000000E-01      2.807617000000000E+01      3.376160000000000E-01      1.682266000000000E+02
4895000000.000000      3.979645000000000E-01      2.779394000000000E+01      3.354950000000000E-01      1.676875000000000E+02
4896000000.000000      3.978271000000000E-01      2.746289000000000E+01      3.301544000000000E-01      1.675000000000000E+02
4897000000.000000      3.977661000000000E-01      2.737793000000000E+01      3.273468000000000E-01      1.669922000000000E+02
4898000000.000000      3.974915000000000E-01      2.719433000000000E+01      3.245850000000000E-01      1.666250000000000E+02
4899000000.000000      3.971863000000000E-01      2.695410000000000E+01      3.208618000000000E-01      1.661562000000000E+02
4900000000.000000      3.970490000000000E-01      2.671289000000000E+01      3.169708000000000E-01      1.658125000000000E+02
4901000000.000000      3.969116000000000E-01      2.637890000000000E+01      3.143463000000000E-01      1.655000000000000E+02
4902000000.000000      3.965759000000000E-01      2.629004000000000E+01      3.112030000000000E-01      1.652500000000000E+02
4903000000.000000      3.966675000000000E-01      2.607715000000000E+01      3.074493000000000E-01      1.647656000000000E+02
4904000000.000000      3.965759000000000E-01      2.589160000000000E+01      3.037415000000000E-01      1.642656000000000E+02
4905000000.000000      3.958435000000000E-01      2.562012000000000E+01      3.005524000000000E-01      1.638828000000000E+02
4906000000.000000      3.957367000000000E-01      2.543457000000000E+01      2.962036000000000E-01      1.636562000000000E+02
4907000000.000000      3.955231000000000E-01      2.521191000000000E+01      2.936707000000000E-01      1.630703000000000E+02
4908000000.000000      3.960114000000000E-01      2.501172000000000E+01      2.907715000000000E-01      1.626016000000000E+02
4909000000.000000      3.945313000000000E-01      2.485156000000000E+01      2.865448000000000E-01      1.624609000000000E+02
4910000000.000000      3.948975000000000E-01      2.468164000000000E+01      2.827759000000000E-01      1.620234000000000E+02
4911000000.000000      3.953094000000000E-01      2.452343000000000E+01      2.800903000000000E-01      1.617109000000000E+02
4912000000.000000      3.942261000000000E-01      2.433105000000000E+01      2.762604000000000E-01      1.611016000000000E+02
4913000000.000000      3.950653000000000E-01      2.402929000000000E+01      2.725220000000000E-01      1.610312000000000E+02
4914000000.000000      3.942719000000000E-01      2.385644000000000E+01      2.691040000000000E-01      1.607812000000000E+02
4915000000.000000      3.937073000000000E-01      2.383594000000000E+01      2.646790000000000E-01      1.601875000000000E+02
4916000000.000000      3.935547000000000E-01      2.354004000000000E+01      2.620697000000000E-01      1.598984000000000E+02
4917000000.000000      3.928680000000000E-01      2.343359000000000E+01      2.581177000000000E-01      1.596562000000000E+02
4918000000.000000      3.927612000000000E-01      2.321680000000000E+01      2.536621000000000E-01      1.593672000000000E+02
4919000000.000000      3.922272000000000E-01      2.304590000000000E+01      2.500763000000000E-01      1.590391000000000E+02
4920000000.000000      3.919067000000000E-01      2.280957000000000E+01      2.464066000000000E-01      1.586953000000000E+02
4921000000.000000      3.919678000000000E-01      2.270117000000000E+01      2.432251000000000E-01      1.585469000000000E+02
4922000000.000000      3.927460000000000E-01      2.254590000000000E+01      2.390900000000000E-01      1.584141000000000E+02
4923000000.000000      3.917694000000000E-01      2.236523000000000E+01      2.350311000000000E-01      1.580078000000000E+02
4924000000.000000      3.920898000000000E-01      2.225390000000000E+01      2.311325000000000E-01      1.578125000000000E+02
4925000000.000000      3.905487000000000E-01      2.181543000000000E+01      2.272186000000000E-01      1.574453000000000E+02
4926000000.000000      3.907623000000000E-01      2.191895000000000E+01      2.239227000000000E-01      1.574531000000000E+02
4927000000.000000      3.901978000000000E-01      2.170020000000000E+01      2.188721000000000E-01      1.571406000000000E+02
4928000000.000000      3.909149000000000E-01      2.137109000000000E+01      2.155075000000000E-01      1.570078000000000E+02
4929000000.000000      3.892059000000000E-01      2.129101000000000E+01      2.108383000000000E-01      1.570391000000000E+02
4930000000.000000      3.896179000000000E-01      2.116601000000000E+01      2.070541000000000E-01      1.569687000000000E+02
4931000000.000000      3.899689000000000E-01      2.092285000000000E+01      2.038956000000000E-01      1.568438000000000E+02
4932000000.000000      3.896484000000000E-01      2.072070000000000E+01      1.995087000000000E-01      1.568750000000000E+02
4933000000.000000      3.896332000000000E-01      2.057812000000000E+01      1.948929000000000E-01      1.568828000000000E+02
4934000000.000000      3.902588000000000E-01      2.039746000000000E+01      1.910706000000000E-01      1.567422000000000E+02
4935000000.000000      3.895721000000000E-01      2.025586000000000E+01      1.874390000000000E-01      1.571875000000000E+02
4936000000.000000      3.876038000000000E-01      2.010840000000000E+01      1.833267000000000E-01      1.572031000000000E+02
4937000000.000000      3.891296000000000E-01      1.992188000000000E+01      1.794815000000000E-01      1.573750000000000E+02
4938000000.000000      3.879852000000000E-01      1.982617000000000E+01      1.760788000000000E-01      1.576015000000000E+02
4939000000.000000      3.869324000000000E-01      1.956933000000000E+01      1.717148000000000E-01      1.578672000000000E+02
4940000000.000000      3.880005000000000E-01      1.939355000000000E+01      1.679764000000000E-01      1.579844000000000E+02
4941000000.000000      3.877258000000000E-01      1.915430000000000E+01      1.644897000000000E-01      1.587578000000000E+02
4942000000.000000      3.862000000000000E-01      1.908398000000000E+01      1.602020000000000E-01      1.589375000000000E+02
4943000000.000000      3.866882000000000E-01      1.902637000000000E+01      1.567307000000000E-01      1.595703000000000E+02
4944000000.000000      3.868866000000000E-01      1.878222000000000E+01      1.531067000000000E-01      1.599922000000000E+02
4945000000.000000      3.861847000000000E-01      1.859961000000000E+01      1.496048000000000E-01      1.606172000000000E+02
4946000000.000000      3.862305000000000E-01      1.839844000000000E+01      1.460266000000000E-01      1.613906000000000E+02
4947000000.000000      3.849030000000000E-01      1.818066000000000E+01      1.423798000000000E-01      1.622422000000000E+02
4948000000.000000      3.853302000000000E-01      1.821875000000000E+01      1.395035000000000E-01      1.630000000000000E+02
4949000000.000000      3.841858000000000E-01      1.786426000000000E+01      1.364365000000000E-01      1.645156000000000E+02
4950000000.000000      3.850403000000000E-01      1.789941000000000E+01      1.334381000000000E-01      1.652578000000000E+02
4951000000.000000      3.840637000000000E-01      1.772754000000000E+01      1.305542000000000E-01      1.659609000000000E+02
4952000000.000000      3.831787000000000E-01      1.748828000000000E+01      1.279755000000000E-01      1.673125000000000E+02
4953000000.000000      3.833160000000000E-01      1.731250000000000E+01      1.256409000000000E-01      1.687813000000000E+02
4954000000.000000      3.837585000000000E-01      1.724023000000000E+01      1.233559000000000E-01      1.702812000000000E+02
