! Network Analyzer HP8722D
! Hewlett-Packard
! Data name: Linha & Wilkinson
! Saver's name: Rodrigo Anjos
! Comments: Teste da utilização de aquisição
continua pelo VNA HP8722D
! Time and date: 23/5/2025 12:36
!              Frequency                     S11                                                   S21                                                   S12                                                   S22
# HZ  S  MA R 50
4800000000.000000      2.898865000000000E-01      3.933203000000000E+01      4.817963000000000E-01     -1.292109000000000E+02
4801000000.000000      2.909851000000000E-01      3.957226000000000E+01      4.835205000000000E-01     -1.299609000000000E+02
4802000000.000000      2.918243000000000E-01      3.973437000000000E+01      4.843140000000000E-01     -1.306641000000000E+02
4803000000.000000      2.928619000000000E-01      3.996679000000000E+01      4.882507000000000E-01     -1.315000000000000E+02
4804000000.000000      2.939911000000000E-01      4.024804000000000E+01      4.903870000000000E-01     -1.322500000000000E+02
4805000000.000000      2.962952000000000E-01      4.030469000000000E+01      4.889832000000000E-01     -1.327656000000000E+02
4806000000.000000      2.969360000000000E-01      4.046484000000000E+01      4.923553000000000E-01     -1.334297000000000E+02
4807000000.000000      2.982941000000000E-01      4.072070000000000E+01      4.919281000000000E-01     -1.342500000000000E+02
4808000000.000000      2.989197000000000E-01      4.083008000000000E+01      4.949493000000000E-01     -1.349141000000000E+02
4809000000.000000      3.006287000000000E-01      4.108203000000000E+01      4.962463000000000E-01     -1.357578000000000E+02
4810000000.000000      3.024445000000000E-01      4.128125000000000E+01      4.981232000000000E-01     -1.362734000000000E+02
4811000000.000000      3.042908000000000E-01      4.135547000000000E+01      4.968719000000000E-01     -1.372813000000000E+02
4812000000.000000      3.066406000000000E-01      4.152539000000000E+01      4.991455000000000E-01     -1.377734000000000E+02
4813000000.000000      3.064728000000000E-01      4.162305000000000E+01      4.985657000000000E-01     -1.387891000000000E+02
4814000000.000000      3.080292000000000E-01      4.171484000000000E+01      5.016479000000000E-01     -1.392812000000000E+02
4815000000.000000      3.099823000000000E-01      4.173633000000000E+01      5.010681000000000E-01     -1.401094000000000E+02
4816000000.000000      3.124390000000000E-01      4.195508000000000E+01      5.023193000000000E-01     -1.408203000000000E+02
4817000000.000000      3.133545000000000E-01      4.199804000000000E+01      5.027771000000000E-01     -1.415000000000000E+02
4818000000.000000      3.151245000000000E-01      4.203515000000000E+01      5.014648000000000E-01     -1.424453000000000E+02
4819000000.000000      3.172760000000000E-01      4.208398000000000E+01      5.035400000000000E-01     -1.430000000000000E+02
4820000000.000000      3.180695000000000E-01      4.221289000000000E+01      5.021057000000000E-01     -1.436016000000000E+02
4821000000.000000      3.212891000000000E-01      4.223437000000000E+01      5.033875000000000E-01     -1.446094000000000E+02
4822000000.000000      3.220367000000000E-01      4.213086000000000E+01      5.024719000000000E-01     -1.451172000000000E+02
4823000000.000000      3.240204000000000E-01      4.205274000000000E+01      5.036621000000000E-01     -1.459297000000000E+02
4824000000.000000      3.257751000000000E-01      4.220508000000000E+01      5.029602000000000E-01     -1.468672000000000E+02
4825000000.000000      3.275604000000000E-01      4.206640000000000E+01      5.037842000000000E-01     -1.475156000000000E+02
4826000000.000000      3.291626000000000E-01      4.212695000000000E+01      5.019226000000000E-01     -1.483984000000000E+02
4827000000.000000      3.309021000000000E-01      4.208398000000000E+01      5.025330000000000E-01     -1.487344000000000E+02
4828000000.000000      3.339081000000000E-01      4.202344000000000E+01      5.023804000000000E-01     -1.494688000000000E+02
4829000000.000000      3.348389000000000E-01      4.213281000000000E+01      5.013428000000000E-01     -1.502578000000000E+02
4830000000.000000      3.368073000000000E-01      4.187304000000000E+01      5.005493000000000E-01     -1.511016000000000E+02
4831000000.000000      3.386078000000000E-01      4.184179000000000E+01      5.010376000000000E-01     -1.518359000000000E+02
4832000000.000000      3.399506000000000E-01      4.183203000000000E+01      4.987030000000000E-01     -1.523828000000000E+02
4833000000.000000      3.411255000000000E-01      4.163671000000000E+01      4.991913000000000E-01     -1.531953000000000E+02
4834000000.000000      3.432312000000000E-01      4.159570000000000E+01      4.978180000000000E-01     -1.539844000000000E+02
4835000000.000000      3.457031000000000E-01      4.145508000000000E+01      4.969788000000000E-01     -1.547969000000000E+02
4836000000.000000      3.473053000000000E-01      4.134961000000000E+01      4.958649000000000E-01     -1.553359000000000E+02
4837000000.000000      3.483429000000000E-01      4.133985000000000E+01      4.950104000000000E-01     -1.563594000000000E+02
4838000000.000000      3.501740000000000E-01      4.103711000000000E+01      4.937286000000000E-01     -1.566328000000000E+02
4839000000.000000      3.533020000000000E-01      4.098828000000000E+01      4.931335000000000E-01     -1.574297000000000E+02
4840000000.000000      3.541412000000000E-01      4.070898000000000E+01      4.928589000000000E-01     -1.581250000000000E+02
4841000000.000000      3.560486000000000E-01      4.076953000000000E+01      4.911957000000000E-01     -1.590781000000000E+02
4842000000.000000      3.574066000000000E-01      4.046484000000000E+01      4.887085000000000E-01     -1.595391000000000E+02
4843000000.000000      3.598785000000000E-01      4.023828000000000E+01      4.896240000000000E-01     -1.602813000000000E+02
4844000000.000000      3.599396000000000E-01      4.005273000000000E+01      4.876251000000000E-01     -1.611172000000000E+02
4845000000.000000      3.624420000000000E-01      3.994726000000000E+01      4.860992000000000E-01     -1.616328000000000E+02
4846000000.000000      3.637695000000000E-01      3.974023000000000E+01      4.840393000000000E-01     -1.624141000000000E+02
4847000000.000000      3.656158000000000E-01      3.971875000000000E+01      4.825592000000000E-01     -1.630703000000000E+02
4848000000.000000      3.661194000000000E-01      3.944140000000000E+01      4.790802000000000E-01     -1.638906000000000E+02
4849000000.000000      3.675842000000000E-01      3.913281000000000E+01      4.796906000000000E-01     -1.645703000000000E+02
4850000000.000000      3.696136000000000E-01      3.883203000000000E+01      4.773102000000000E-01     -1.652891000000000E+02
4851000000.000000      3.709717000000000E-01      3.873632000000000E+01      4.766846000000000E-01     -1.660859000000000E+02
4852000000.000000      3.719940000000000E-01      3.855078000000000E+01      4.733734000000000E-01     -1.667187000000000E+02
4853000000.000000      3.731995000000000E-01      3.844336000000000E+01      4.697266000000000E-01     -1.673906000000000E+02
4854000000.000000      3.747711000000000E-01      3.812304000000000E+01      4.688873000000000E-01     -1.682422000000000E+02
4855000000.000000      3.755493000000000E-01      3.791211000000000E+01      4.669647000000000E-01     -1.689141000000000E+02
4856000000.000000      3.769836000000000E-01      3.762500000000000E+01      4.640198000000000E-01     -1.694375000000000E+02
4857000000.000000      3.778534000000000E-01      3.750781000000000E+01      4.628143000000000E-01     -1.702422000000000E+02
4858000000.000000      3.789673000000000E-01      3.717382000000000E+01      4.609222000000000E-01     -1.708672000000000E+02
4859000000.000000      3.802795000000000E-01      3.694531000000000E+01      4.590759000000000E-01     -1.717344000000000E+02
4860000000.000000      3.815002000000000E-01      3.674414000000000E+01      4.557037000000000E-01     -1.721797000000000E+02
4861000000.000000      3.813934000000000E-01      3.657031000000000E+01      4.525452000000000E-01     -1.728750000000000E+02
4862000000.000000      3.824463000000000E-01      3.629101000000000E+01      4.499359000000000E-01     -1.736875000000000E+02
4863000000.000000      3.840485000000000E-01      3.609375000000000E+01      4.468384000000000E-01     -1.743438000000000E+02
4864000000.000000      3.853302000000000E-01      3.578516000000000E+01      4.447937000000000E-01     -1.750156000000000E+02
4865000000.000000      3.854065000000000E-01      3.548242000000000E+01      4.406128000000000E-01     -1.756094000000000E+02
4866000000.000000      3.865356000000000E-01      3.516406000000000E+01      4.370728000000000E-01     -1.762734000000000E+02
4867000000.000000      3.866882000000000E-01      3.487695000000000E+01      4.356842000000000E-01     -1.770937000000000E+02
4868000000.000000      3.883209000000000E-01      3.460546000000000E+01      4.321747000000000E-01     -1.777031000000000E+02
4869000000.000000      3.886414000000000E-01      3.447070000000000E+01      4.273834000000000E-01     -1.782969000000000E+02
4870000000.000000      3.892670000000000E-01      3.416601000000000E+01      4.251251000000000E-01     -1.786719000000000E+02
4871000000.000000      3.895264000000000E-01      3.378906000000000E+01      4.219513000000000E-01     -1.795156000000000E+02
4872000000.000000      3.915863000000000E-01      3.358789000000000E+01      4.192200000000000E-01      1.799922000000000E+02
4873000000.000000      3.912048000000000E-01      3.351171000000000E+01      4.150696000000000E-01      1.792422000000000E+02
4874000000.000000      3.916779000000000E-01      3.317968000000000E+01      4.114380000000000E-01      1.785312000000000E+02
4875000000.000000      3.920135000000000E-01      3.292773000000000E+01      4.082794000000000E-01      1.781172000000000E+02
4876000000.000000      3.930969000000000E-01      3.273046000000000E+01      4.066162000000000E-01      1.775000000000000E+02
4877000000.000000      3.940887000000000E-01      3.222265000000000E+01      4.026947000000000E-01      1.768984000000000E+02
4878000000.000000      3.931427000000000E-01      3.208398000000000E+01      3.988037000000000E-01      1.763906000000000E+02
4879000000.000000      3.947296000000000E-01      3.183496000000000E+01      3.958893000000000E-01      1.757344000000000E+02
4880000000.000000      3.952637000000000E-01      3.150586000000000E+01      3.917236000000000E-01      1.752734000000000E+02
4881000000.000000      3.951416000000000E-01      3.145020000000000E+01      3.879089000000000E-01      1.747890000000000E+02
4882000000.000000      3.959503000000000E-01      3.119238000000000E+01      3.854523000000000E-01      1.742656000000000E+02
4883000000.000000      3.946533000000000E-01      3.077929000000000E+01      3.803406000000000E-01      1.735937000000000E+02
4884000000.000000      3.962708000000000E-01      3.062500000000000E+01      3.770905000000000E-01      1.729609000000000E+02
4885000000.000000      3.961182000000000E-01      3.049316000000000E+01      3.736877000000000E-01      1.728047000000000E+02
4886000000.000000      3.958130000000000E-01      3.025879000000000E+01      3.699493000000000E-01      1.724609000000000E+02
4887000000.000000      3.962402000000000E-01      2.992773000000000E+01      3.671875000000000E-01      1.717187000000000E+02
4888000000.000000      3.963165000000000E-01      2.957520000000000E+01      3.635712000000000E-01      1.711016000000000E+02
4889000000.000000      3.962860000000000E-01      2.935059000000000E+01      3.605194000000000E-01      1.710625000000000E+02
4890000000.000000      3.954315000000000E-01      2.902832000000000E+01      3.569946000000000E-01      1.698437000000000E+02
4891000000.000000      3.964233000000000E-01      2.884863000000000E+01      3.522949000000000E-01      1.696172000000000E+02
4892000000.000000      3.963928000000000E-01      2.867480000000000E+01      3.494415000000000E-01      1.694766000000000E+02
4893000000.000000      3.967590000000000E-01      2.842968000000000E+01      3.456726000000000E-01      1.690234000000000E+02
4894000000.000000      3.956146000000000E-01      2.829297000000000E+01      3.410797000000000E-01      1.684062000000000E+02
4895000000.000000      3.970795000000000E-01      2.787598000000000E+01      3.391266000000000E-01      1.680938000000000E+02
4896000000.000000      3.961945000000000E-01      2.753418000000000E+01      3.347015000000000E-01      1.676328000000000E+02
4897000000.000000      3.962402000000000E-01      2.753125000000000E+01      3.308563000000000E-01      1.670859000000000E+02
4898000000.000000      3.953705000000000E-01      2.731836000000000E+01      3.300323000000000E-01      1.669219000000000E+02
4899000000.000000      3.955231000000000E-01      2.709765000000000E+01      3.247528000000000E-01      1.662031000000000E+02
4900000000.000000      3.952942000000000E-01      2.687597000000000E+01      3.220520000000000E-01      1.661094000000000E+02
4901000000.000000      3.954468000000000E-01      2.661621000000000E+01      3.180847000000000E-01      1.655781000000000E+02
4902000000.000000      3.952789000000000E-01      2.637793000000000E+01      3.155823000000000E-01      1.651875000000000E+02
4903000000.000000      3.956909000000000E-01      2.621973000000000E+01      3.111725000000000E-01      1.648828000000000E+02
4904000000.000000      3.945618000000000E-01      2.597851000000000E+01      3.080139000000000E-01      1.643437000000000E+02
4905000000.000000      3.952332000000000E-01      2.577051000000000E+01      3.053894000000000E-01      1.638828000000000E+02
4906000000.000000      3.944855000000000E-01      2.549609000000000E+01      3.013000000000000E-01      1.637344000000000E+02
4907000000.000000      3.939209000000000E-01      2.533105000000000E+01      2.984314000000000E-01      1.633359000000000E+02
4908000000.000000      3.953094000000000E-01      2.512793000000000E+01      2.945099000000000E-01      1.627891000000000E+02
4909000000.000000      3.932648000000000E-01      2.497265000000000E+01      2.912292000000000E-01      1.623203000000000E+02
4910000000.000000      3.936005000000000E-01      2.473926000000000E+01      2.870789000000000E-01      1.620078000000000E+02
4911000000.000000      3.928375000000000E-01      2.468750000000000E+01      2.844086000000000E-01      1.616016000000000E+02
4912000000.000000      3.930664000000000E-01      2.440820000000000E+01      2.798309000000000E-01      1.612969000000000E+02
4913000000.000000      3.929901000000000E-01      2.426270000000000E+01      2.770996000000000E-01      1.610156000000000E+02
4914000000.000000      3.924408000000000E-01      2.402929000000000E+01      2.736359000000000E-01      1.606641000000000E+02
4915000000.000000      3.928680000000000E-01      2.387598000000000E+01      2.690887000000000E-01      1.602890000000000E+02
4916000000.000000      3.917389000000000E-01      2.373437000000000E+01      2.660217000000000E-01      1.597265000000000E+02
4917000000.000000      3.916321000000000E-01      2.356152000000000E+01      2.620850000000000E-01      1.595781000000000E+02
4918000000.000000      3.908386000000000E-01      2.337305000000000E+01      2.578125000000000E-01      1.591406000000000E+02
4919000000.000000      3.914642000000000E-01      2.322558000000000E+01      2.546844000000000E-01      1.589609000000000E+02
4920000000.000000      3.911591000000000E-01      2.297363000000000E+01      2.503357000000000E-01      1.585234000000000E+02
4921000000.000000      3.906860000000000E-01      2.282910000000000E+01      2.474594000000000E-01      1.584375000000000E+02
4922000000.000000      3.909607000000000E-01      2.261621000000000E+01      2.433472000000000E-01      1.581172000000000E+02
4923000000.000000      3.893127000000000E-01      2.250879000000000E+01      2.390671000000000E-01      1.579844000000000E+02
4924000000.000000      3.911133000000000E-01      2.228418000000000E+01      2.352524000000000E-01      1.575703000000000E+02
4925000000.000000      3.899231000000000E-01      2.202148000000000E+01      2.313614000000000E-01      1.574453000000000E+02
4926000000.000000      3.896942000000000E-01      2.202148000000000E+01      2.274780000000000E-01      1.572109000000000E+02
4927000000.000000      3.889465000000000E-01      2.167675000000000E+01      2.224579000000000E-01      1.569609000000000E+02
4928000000.000000      3.897247000000000E-01      2.141016000000000E+01      2.196045000000000E-01      1.568281000000000E+02
4929000000.000000      3.880005000000000E-01      2.128320000000000E+01      2.154694000000000E-01      1.567891000000000E+02
4930000000.000000      3.881989000000000E-01      2.132422000000000E+01      2.113571000000000E-01      1.564609000000000E+02
4931000000.000000      3.888092000000000E-01      2.087891000000000E+01      2.078476000000000E-01      1.566250000000000E+02
4932000000.000000      3.887329000000000E-01      2.083887000000000E+01      2.029114000000000E-01      1.565625000000000E+02
4933000000.000000      3.886871000000000E-01      2.070313000000000E+01      1.983490000000000E-01      1.564922000000000E+02
4934000000.000000      3.882751000000000E-01      2.041308000000000E+01      1.949615000000000E-01      1.564453000000000E+02
4935000000.000000      3.883514000000000E-01      2.040820000000000E+01      1.918182000000000E-01      1.567109000000000E+02
4936000000.000000      3.865051000000000E-01      2.010058000000000E+01      1.869583000000000E-01      1.566015000000000E+02
4937000000.000000      3.874054000000000E-01      2.005664000000000E+01      1.832809000000000E-01      1.567969000000000E+02
4938000000.000000      3.857727000000000E-01      1.994824000000000E+01      1.791153000000000E-01      1.569844000000000E+02
4939000000.000000      3.863525000000000E-01      1.966211000000000E+01      1.753311000000000E-01      1.573516000000000E+02
4940000000.000000      3.862305000000000E-01      1.954297000000000E+01      1.714249000000000E-01      1.573750000000000E+02
4941000000.000000      3.853912000000000E-01      1.934277000000000E+01      1.675873000000000E-01      1.580312000000000E+02
4942000000.000000      3.856354000000000E-01      1.925293000000000E+01      1.633606000000000E-01      1.584375000000000E+02
4943000000.000000      3.851166000000000E-01      1.893164000000000E+01      1.600418000000000E-01      1.586406000000000E+02
4944000000.000000      3.853760000000000E-01      1.885644000000000E+01      1.566391000000000E-01      1.593125000000000E+02
4945000000.000000      3.847504000000000E-01      1.865039000000000E+01      1.527405000000000E-01      1.597734000000000E+02
4946000000.000000      3.846588000000000E-01      1.851660000000000E+01      1.493835000000000E-01      1.605547000000000E+02
4947000000.000000      3.844147000000000E-01      1.828320000000000E+01      1.454544000000000E-01      1.613516000000000E+02
4948000000.000000      3.842926000000000E-01      1.825586000000000E+01      1.419220000000000E-01      1.620859000000000E+02
4949000000.000000      3.835297000000000E-01      1.792676000000000E+01      1.391296000000000E-01      1.631172000000000E+02
4950000000.000000      3.831329000000000E-01      1.791016000000000E+01      1.359787000000000E-01      1.639531000000000E+02
4951000000.000000      3.840485000000000E-01      1.771875000000000E+01      1.332550000000000E-01      1.648984000000000E+02
4952000000.000000      3.825378000000000E-01      1.744824000000000E+01      1.297913000000000E-01      1.659453000000000E+02
4953000000.000000      3.826447000000000E-01      1.721875000000000E+01      1.274643000000000E-01      1.676484000000000E+02
4954000000.000000      3.818207000000000E-01      1.720508000000000E+01      1.247292000000000E-01      1.685625000000000E+02
