! Network Analyzer HP8722D
! Hewlett-Packard
! Data name: Linha & Wilkinson
! Saver's name: Rodrigo Anjos
! Comments: Teste da utilização de aquisição
continua pelo VNA HP8722D
! Time and date: 23/5/2025 08:54
!              Frequency                     S11                                                   S21                                                   S12                                                   S22
# HZ  S  MA R 50
4800000000.000000      3.415527000000000E-01      3.461328000000000E+01      4.560699000000000E-01     -1.256797000000000E+02
4801000000.000000      3.423462000000000E-01      3.485937000000000E+01      4.575806000000000E-01     -1.262773000000000E+02
4802000000.000000      3.426819000000000E-01      3.505664000000000E+01      4.589081000000000E-01     -1.271445000000000E+02
4803000000.000000      3.435516000000000E-01      3.512890000000000E+01      4.639435000000000E-01     -1.276250000000000E+02
4804000000.000000      3.439331000000000E-01      3.543164000000000E+01      4.632568000000000E-01     -1.284062000000000E+02
4805000000.000000      3.457031000000000E-01      3.545898000000000E+01      4.637604000000000E-01     -1.293047000000000E+02
4806000000.000000      3.462067000000000E-01      3.562304000000000E+01      4.646912000000000E-01     -1.297812000000000E+02
4807000000.000000      3.469696000000000E-01      3.581250000000000E+01      4.665833000000000E-01     -1.306250000000000E+02
4808000000.000000      3.469849000000000E-01      3.594531000000000E+01      4.697418000000000E-01     -1.312109000000000E+02
4809000000.000000      3.489075000000000E-01      3.612500000000000E+01      4.690399000000000E-01     -1.323047000000000E+02
4810000000.000000      3.493958000000000E-01      3.629101000000000E+01      4.705505000000000E-01     -1.329844000000000E+02
4811000000.000000      3.509216000000000E-01      3.641797000000000E+01      4.717712000000000E-01     -1.338047000000000E+02
4812000000.000000      3.528595000000000E-01      3.664063000000000E+01      4.713287000000000E-01     -1.343516000000000E+02
4813000000.000000      3.534088000000000E-01      3.668554000000000E+01      4.728088000000000E-01     -1.350469000000000E+02
4814000000.000000      3.543091000000000E-01      3.673828000000000E+01      4.745636000000000E-01     -1.359062000000000E+02
4815000000.000000      3.555756000000000E-01      3.688672000000000E+01      4.735565000000000E-01     -1.365937000000000E+02
4816000000.000000      3.579254000000000E-01      3.701562000000000E+01      4.756775000000000E-01     -1.372031000000000E+02
4817000000.000000      3.586273000000000E-01      3.703906000000000E+01      4.751892000000000E-01     -1.381250000000000E+02
4818000000.000000      3.596344000000000E-01      3.713086000000000E+01      4.760895000000000E-01     -1.388047000000000E+02
4819000000.000000      3.611603000000000E-01      3.716406000000000E+01      4.760284000000000E-01     -1.395781000000000E+02
4820000000.000000      3.620911000000000E-01      3.729687000000000E+01      4.768829000000000E-01     -1.401172000000000E+02
4821000000.000000      3.643799000000000E-01      3.730664000000000E+01      4.772949000000000E-01     -1.410312000000000E+02
4822000000.000000      3.647614000000000E-01      3.725000000000000E+01      4.772339000000000E-01     -1.415703000000000E+02
4823000000.000000      3.675079000000000E-01      3.731836000000000E+01      4.766693000000000E-01     -1.424375000000000E+02
4824000000.000000      3.692322000000000E-01      3.748242000000000E+01      4.764252000000000E-01     -1.432422000000000E+02
4825000000.000000      3.700409000000000E-01      3.734375000000000E+01      4.757385000000000E-01     -1.438828000000000E+02
4826000000.000000      3.716278000000000E-01      3.737695000000000E+01      4.757690000000000E-01     -1.447734000000000E+02
4827000000.000000      3.735504000000000E-01      3.741796000000000E+01      4.757385000000000E-01     -1.453672000000000E+02
4828000000.000000      3.759003000000000E-01      3.742578000000000E+01      4.759979000000000E-01     -1.459844000000000E+02
4829000000.000000      3.766785000000000E-01      3.747265000000000E+01      4.754486000000000E-01     -1.467500000000000E+02
4830000000.000000      3.777924000000000E-01      3.739648000000000E+01      4.741669000000000E-01     -1.474688000000000E+02
4831000000.000000      3.792419000000000E-01      3.740429000000000E+01      4.740295000000000E-01     -1.482969000000000E+02
4832000000.000000      3.812103000000000E-01      3.739648000000000E+01      4.736328000000000E-01     -1.487813000000000E+02
4833000000.000000      3.826294000000000E-01      3.729687000000000E+01      4.726105000000000E-01     -1.495156000000000E+02
4834000000.000000      3.837891000000000E-01      3.730859000000000E+01      4.724884000000000E-01     -1.503203000000000E+02
4835000000.000000      3.860931000000000E-01      3.714453000000000E+01      4.717865000000000E-01     -1.511953000000000E+02
4836000000.000000      3.882141000000000E-01      3.714453000000000E+01      4.693451000000000E-01     -1.517500000000000E+02
4837000000.000000      3.888397000000000E-01      3.720508000000000E+01      4.691010000000000E-01     -1.527422000000000E+02
4838000000.000000      3.898315000000000E-01      3.705078000000000E+01      4.679565000000000E-01     -1.531563000000000E+02
4839000000.000000      3.937988000000000E-01      3.702539000000000E+01      4.683533000000000E-01     -1.539375000000000E+02
4840000000.000000      3.938141000000000E-01      3.678711000000000E+01      4.676056000000000E-01     -1.546250000000000E+02
4841000000.000000      3.952942000000000E-01      3.680273000000000E+01      4.655762000000000E-01     -1.554297000000000E+02
4842000000.000000      3.972015000000000E-01      3.663476000000000E+01      4.650726000000000E-01     -1.560156000000000E+02
4843000000.000000      3.997345000000000E-01      3.634961000000000E+01      4.644470000000000E-01     -1.568125000000000E+02
4844000000.000000      4.002380000000000E-01      3.633398000000000E+01      4.618530000000000E-01     -1.576094000000000E+02
4845000000.000000      4.018402000000000E-01      3.628515000000000E+01      4.601288000000000E-01     -1.582578000000000E+02
4846000000.000000      4.041290000000000E-01      3.615820000000000E+01      4.597931000000000E-01     -1.590312000000000E+02
4847000000.000000      4.046173000000000E-01      3.603320000000000E+01      4.578705000000000E-01     -1.596641000000000E+02
4848000000.000000      4.061279000000000E-01      3.591601000000000E+01      4.548035000000000E-01     -1.603516000000000E+02
4849000000.000000      4.068298000000000E-01      3.566015000000000E+01      4.549408000000000E-01     -1.610937000000000E+02
4850000000.000000      4.085999000000000E-01      3.550195000000000E+01      4.540863000000000E-01     -1.618984000000000E+02
4851000000.000000      4.096832000000000E-01      3.551562000000000E+01      4.523315000000000E-01     -1.624609000000000E+02
4852000000.000000      4.114227000000000E-01      3.533594000000000E+01      4.500275000000000E-01     -1.632109000000000E+02
4853000000.000000      4.128113000000000E-01      3.513086000000000E+01      4.456024000000000E-01     -1.639453000000000E+02
4854000000.000000      4.137421000000000E-01      3.485547000000000E+01      4.443817000000000E-01     -1.647578000000000E+02
4855000000.000000      4.155426000000000E-01      3.475000000000000E+01      4.420166000000000E-01     -1.655859000000000E+02
4856000000.000000      4.165955000000000E-01      3.462500000000000E+01      4.403992000000000E-01     -1.661094000000000E+02
4857000000.000000      4.177551000000000E-01      3.452539000000000E+01      4.399567000000000E-01     -1.666797000000000E+02
4858000000.000000      4.183502000000000E-01      3.409375000000000E+01      4.375153000000000E-01     -1.676016000000000E+02
4859000000.000000      4.196320000000000E-01      3.396679000000000E+01      4.358215000000000E-01     -1.685078000000000E+02
4860000000.000000      4.208221000000000E-01      3.390234000000000E+01      4.326477000000000E-01     -1.689609000000000E+02
4861000000.000000      4.225006000000000E-01      3.372265000000000E+01      4.299164000000000E-01     -1.697813000000000E+02
4862000000.000000      4.222260000000000E-01      3.355469000000000E+01      4.271698000000000E-01     -1.703906000000000E+02
4863000000.000000      4.238892000000000E-01      3.325390000000000E+01      4.247437000000000E-01     -1.709766000000000E+02
4864000000.000000      4.244537000000000E-01      3.299609000000000E+01      4.220734000000000E-01     -1.715859000000000E+02
4865000000.000000      4.259796000000000E-01      3.291211000000000E+01      4.193878000000000E-01     -1.723125000000000E+02
4866000000.000000      4.266815000000000E-01      3.258789000000000E+01      4.157867000000000E-01     -1.730781000000000E+02
4867000000.000000      4.267731000000000E-01      3.241211000000000E+01      4.133911000000000E-01     -1.737422000000000E+02
4868000000.000000      4.281158000000000E-01      3.214453000000000E+01      4.106598000000000E-01     -1.744297000000000E+02
4869000000.000000      4.288025000000000E-01      3.208593000000000E+01      4.063873000000000E-01     -1.752187000000000E+02
4870000000.000000      4.295654000000000E-01      3.182519000000000E+01      4.053192000000000E-01     -1.756172000000000E+02
4871000000.000000      4.297791000000000E-01      3.155957000000000E+01      4.008331000000000E-01     -1.764297000000000E+02
4872000000.000000      4.322662000000000E-01      3.143261000000000E+01      3.978271000000000E-01     -1.768281000000000E+02
4873000000.000000      4.318695000000000E-01      3.111328000000000E+01      3.935242000000000E-01     -1.775312000000000E+02
4874000000.000000      4.326019000000000E-01      3.101269000000000E+01      3.908234000000000E-01     -1.782969000000000E+02
4875000000.000000      4.337311000000000E-01      3.068457000000000E+01      3.856506000000000E-01     -1.790547000000000E+02
4876000000.000000      4.337006000000000E-01      3.066797000000000E+01      3.844299000000000E-01     -1.794062000000000E+02
4877000000.000000      4.348450000000000E-01      3.021875000000000E+01      3.814087000000000E-01      1.799531000000000E+02
4878000000.000000      4.345398000000000E-01      3.012695000000000E+01      3.783264000000000E-01      1.792734000000000E+02
4879000000.000000      4.358673000000000E-01      2.983984000000000E+01      3.741302000000000E-01      1.789453000000000E+02
4880000000.000000      4.370422000000000E-01      2.967382000000000E+01      3.706512000000000E-01      1.782734000000000E+02
4881000000.000000      4.360657000000000E-01      2.952148000000000E+01      3.672791000000000E-01      1.778984000000000E+02
4882000000.000000      4.373932000000000E-01      2.930273000000000E+01      3.649139000000000E-01      1.770547000000000E+02
4883000000.000000      4.376984000000000E-01      2.903809000000000E+01      3.601837000000000E-01      1.766094000000000E+02
4884000000.000000      4.386292000000000E-01      2.896093000000000E+01      3.574524000000000E-01      1.760625000000000E+02
4885000000.000000      4.384155000000000E-01      2.874414000000000E+01      3.527374000000000E-01      1.756484000000000E+02
4886000000.000000      4.389191000000000E-01      2.858007000000000E+01      3.505707000000000E-01      1.752734000000000E+02
4887000000.000000      4.393311000000000E-01      2.826172000000000E+01      3.471069000000000E-01      1.746797000000000E+02
4888000000.000000      4.398804000000000E-01      2.790527000000000E+01      3.432465000000000E-01      1.740859000000000E+02
4889000000.000000      4.391022000000000E-01      2.780859000000000E+01      3.395691000000000E-01      1.736875000000000E+02
4890000000.000000      4.389496000000000E-01      2.768359000000000E+01      3.353577000000000E-01      1.729609000000000E+02
4891000000.000000      4.397736000000000E-01      2.731934000000000E+01      3.311462000000000E-01      1.725703000000000E+02
4892000000.000000      4.380951000000000E-01      2.706836000000000E+01      3.287048000000000E-01      1.723047000000000E+02
4893000000.000000      4.403381000000000E-01      2.704785000000000E+01      3.254852000000000E-01      1.716640000000000E+02
4894000000.000000      4.396362000000000E-01      2.693848000000000E+01      3.223877000000000E-01      1.713281000000000E+02
4895000000.000000      4.405518000000000E-01      2.659472000000000E+01      3.198242000000000E-01      1.710234000000000E+02
4896000000.000000      4.403992000000000E-01      2.652441000000000E+01      3.153687000000000E-01      1.706094000000000E+02
4897000000.000000      4.397278000000000E-01      2.634082000000000E+01      3.114929000000000E-01      1.700703000000000E+02
4898000000.000000      4.396973000000000E-01      2.606836000000000E+01      3.097687000000000E-01      1.696797000000000E+02
4899000000.000000      4.402466000000000E-01      2.577343000000000E+01      3.062286000000000E-01      1.692422000000000E+02
4900000000.000000      4.399109000000000E-01      2.556445000000000E+01      3.027649000000000E-01      1.689453000000000E+02
4901000000.000000      4.382629000000000E-01      2.556641000000000E+01      2.993622000000000E-01      1.685156000000000E+02
4902000000.000000      4.399414000000000E-01      2.534765000000000E+01      2.956085000000000E-01      1.681562000000000E+02
4903000000.000000      4.402618000000000E-01      2.517871000000000E+01      2.917480000000000E-01      1.678047000000000E+02
4904000000.000000      4.405365000000000E-01      2.493457000000000E+01      2.892303000000000E-01      1.672578000000000E+02
4905000000.000000      4.386139000000000E-01      2.495312000000000E+01      2.862701000000000E-01      1.667344000000000E+02
4906000000.000000      4.391632000000000E-01      2.464355000000000E+01      2.820129000000000E-01      1.666797000000000E+02
4907000000.000000      4.398193000000000E-01      2.454297000000000E+01      2.797089000000000E-01      1.662188000000000E+02
4908000000.000000      4.411011000000000E-01      2.418848000000000E+01      2.769012000000000E-01      1.657344000000000E+02
4909000000.000000      4.393463000000000E-01      2.395117000000000E+01      2.726135000000000E-01      1.653672000000000E+02
4910000000.000000      4.392395000000000E-01      2.404492000000000E+01      2.696228000000000E-01      1.650859000000000E+02
4911000000.000000      4.389954000000000E-01      2.370703000000000E+01      2.664185000000000E-01      1.647344000000000E+02
4912000000.000000      4.393616000000000E-01      2.348145000000000E+01      2.627869000000000E-01      1.643594000000000E+02
4913000000.000000      4.378357000000000E-01      2.331933000000000E+01      2.593231000000000E-01      1.640078000000000E+02
4914000000.000000      4.388580000000000E-01      2.310645000000000E+01      2.556458000000000E-01      1.636641000000000E+02
4915000000.000000      4.391174000000000E-01      2.297168000000000E+01      2.518311000000000E-01      1.632344000000000E+02
4916000000.000000      4.371490000000000E-01      2.293750000000000E+01      2.490234000000000E-01      1.628750000000000E+02
4917000000.000000      4.378967000000000E-01      2.282227000000000E+01      2.456741000000000E-01      1.625391000000000E+02
4918000000.000000      4.383087000000000E-01      2.256543000000000E+01      2.412872000000000E-01      1.623047000000000E+02
4919000000.000000      4.396210000000000E-01      2.223731000000000E+01      2.383652000000000E-01      1.623047000000000E+02
4920000000.000000      4.400940000000000E-01      2.227246000000000E+01      2.343216000000000E-01      1.615859000000000E+02
4921000000.000000      4.375763000000000E-01      2.215723000000000E+01      2.312088000000000E-01      1.615234000000000E+02
4922000000.000000      4.382935000000000E-01      2.177051000000000E+01      2.272644000000000E-01      1.613203000000000E+02
4923000000.000000      4.360504000000000E-01      2.195313000000000E+01      2.231827000000000E-01      1.612031000000000E+02
4924000000.000000      4.365387000000000E-01      2.161523000000000E+01      2.199173000000000E-01      1.606875000000000E+02
4925000000.000000      4.385834000000000E-01      2.118945000000000E+01      2.161865000000000E-01      1.606875000000000E+02
4926000000.000000      4.354858000000000E-01      2.142578000000000E+01      2.126465000000000E-01      1.603750000000000E+02
4927000000.000000      4.360962000000000E-01      2.127734000000000E+01      2.078476000000000E-01      1.602266000000000E+02
4928000000.000000      4.369507000000000E-01      2.080859000000000E+01      2.050476000000000E-01      1.602266000000000E+02
4929000000.000000      4.369659000000000E-01      2.089648000000000E+01      2.005539000000000E-01      1.601328000000000E+02
4930000000.000000      4.347839000000000E-01      2.077148000000000E+01      1.969910000000000E-01      1.599609000000000E+02
4931000000.000000      4.366608000000000E-01      2.065625000000000E+01      1.940079000000000E-01      1.600000000000000E+02
4932000000.000000      4.367065000000000E-01      2.037207000000000E+01      1.900558000000000E-01      1.598750000000000E+02
4933000000.000000      4.351807000000000E-01      2.047656000000000E+01      1.851578000000000E-01      1.600469000000000E+02
4934000000.000000      4.360657000000000E-01      2.012109000000000E+01      1.816559000000000E-01      1.597734000000000E+02
4935000000.000000      4.359741000000000E-01      2.015918000000000E+01      1.787949000000000E-01      1.600078000000000E+02
4936000000.000000      4.337921000000000E-01      1.978223000000000E+01      1.740799000000000E-01      1.601250000000000E+02
4937000000.000000      4.350128000000000E-01      1.947558000000000E+01      1.707077000000000E-01      1.602500000000000E+02
4938000000.000000      4.339905000000000E-01      1.953223000000000E+01      1.668930000000000E-01      1.604922000000000E+02
4939000000.000000      4.344177000000000E-01      1.956738000000000E+01      1.628189000000000E-01      1.608828000000000E+02
4940000000.000000      4.346161000000000E-01      1.913672000000000E+01      1.597214000000000E-01      1.610078000000000E+02
4941000000.000000      4.353638000000000E-01      1.907324000000000E+01      1.565552000000000E-01      1.615156000000000E+02
4942000000.000000      4.346619000000000E-01      1.890527000000000E+01      1.523666000000000E-01      1.618984000000000E+02
4943000000.000000      4.323578000000000E-01      1.878320000000000E+01      1.490021000000000E-01      1.623750000000000E+02
4944000000.000000      4.336395000000000E-01      1.874609000000000E+01      1.459122000000000E-01      1.629609000000000E+02
4945000000.000000      4.339752000000000E-01      1.842090000000000E+01      1.420288000000000E-01      1.635937000000000E+02
4946000000.000000      4.344025000000000E-01      1.842773000000000E+01      1.390076000000000E-01      1.643437000000000E+02
4947000000.000000      4.331055000000000E-01      1.819140000000000E+01      1.356812000000000E-01      1.651484000000000E+02
4948000000.000000      4.338074000000000E-01      1.795703000000000E+01      1.328964000000000E-01      1.659141000000000E+02
4949000000.000000      4.314117000000000E-01      1.783398000000000E+01      1.295013000000000E-01      1.671328000000000E+02
4950000000.000000      4.333801000000000E-01      1.773828000000000E+01      1.268692000000000E-01      1.680234000000000E+02
4951000000.000000      4.346313000000000E-01      1.780859000000000E+01      1.241570000000000E-01      1.689687000000000E+02
4952000000.000000      4.324493000000000E-01      1.752441000000000E+01      1.211472000000000E-01      1.702344000000000E+02
4953000000.000000      4.302673000000000E-01      1.728808000000000E+01      1.188965000000000E-01      1.715625000000000E+02
4954000000.000000      4.317932000000000E-01      1.725879000000000E+01      1.170921000000000E-01      1.729375000000000E+02
