! Network Analyzer HP8722D
! Hewlett-Packard
! Data name: Linha & Wilkinson
! Saver's name: Rodrigo Anjos
! Comments: Teste da utilização de aquisição
continua pelo VNA HP8722D
! Time and date: 23/5/2025 12:04
!              Frequency                     S11                                                   S21                                                   S12                                                   S22
# HZ  S  MA R 50
4800000000.000000      2.977753000000000E-01      3.865820000000000E+01      4.783936000000000E-01     -1.289609000000000E+02
4801000000.000000      2.988129000000000E-01      3.892578000000000E+01      4.802246000000000E-01     -1.296016000000000E+02
4802000000.000000      2.998657000000000E-01      3.905664000000000E+01      4.819489000000000E-01     -1.302578000000000E+02
4803000000.000000      3.005066000000000E-01      3.926367000000000E+01      4.836578000000000E-01     -1.311172000000000E+02
4804000000.000000      3.016510000000000E-01      3.954297000000000E+01      4.835510000000000E-01     -1.318438000000000E+02
4805000000.000000      3.041229000000000E-01      3.958789000000000E+01      4.859161000000000E-01     -1.323906000000000E+02
4806000000.000000      3.049316000000000E-01      3.981250000000000E+01      4.862671000000000E-01     -1.331484000000000E+02
4807000000.000000      3.054199000000000E-01      3.994336000000000E+01      4.885712000000000E-01     -1.340312000000000E+02
4808000000.000000      3.064270000000000E-01      4.011132000000000E+01      4.900970000000000E-01     -1.345703000000000E+02
4809000000.000000      3.079224000000000E-01      4.040625000000000E+01      4.910583000000000E-01     -1.355391000000000E+02
4810000000.000000      3.096619000000000E-01      4.051758000000000E+01      4.928436000000000E-01     -1.358984000000000E+02
4811000000.000000      3.108978000000000E-01      4.061913000000000E+01      4.931335000000000E-01     -1.369219000000000E+02
4812000000.000000      3.132324000000000E-01      4.086328000000000E+01      4.939270000000000E-01     -1.376328000000000E+02
4813000000.000000      3.143768000000000E-01      4.095508000000000E+01      4.962463000000000E-01     -1.382969000000000E+02
4814000000.000000      3.152924000000000E-01      4.100586000000000E+01      4.969788000000000E-01     -1.389297000000000E+02
4815000000.000000      3.170013000000000E-01      4.107617000000000E+01      4.964905000000000E-01     -1.397891000000000E+02
4816000000.000000      3.194427000000000E-01      4.119922000000000E+01      4.985657000000000E-01     -1.403516000000000E+02
4817000000.000000      3.203430000000000E-01      4.126367000000000E+01      4.970398000000000E-01     -1.414063000000000E+02
4818000000.000000      3.211670000000000E-01      4.126953000000000E+01      4.990997000000000E-01     -1.418203000000000E+02
4819000000.000000      3.240051000000000E-01      4.133594000000000E+01      4.975891000000000E-01     -1.427578000000000E+02
4820000000.000000      3.249512000000000E-01      4.136719000000000E+01      4.989319000000000E-01     -1.433750000000000E+02
4821000000.000000      3.272705000000000E-01      4.149610000000000E+01      4.995880000000000E-01     -1.441484000000000E+02
4822000000.000000      3.283691000000000E-01      4.137695000000000E+01      4.969177000000000E-01     -1.449063000000000E+02
4823000000.000000      3.303223000000000E-01      4.143164000000000E+01      5.008545000000000E-01     -1.457266000000000E+02
4824000000.000000      3.325043000000000E-01      4.153710000000000E+01      4.978027000000000E-01     -1.465547000000000E+02
4825000000.000000      3.341217000000000E-01      4.142187000000000E+01      4.975433000000000E-01     -1.470781000000000E+02
4826000000.000000      3.353271000000000E-01      4.139453000000000E+01      4.989014000000000E-01     -1.478516000000000E+02
4827000000.000000      3.374329000000000E-01      4.138281000000000E+01      4.974976000000000E-01     -1.484219000000000E+02
4828000000.000000      3.398132000000000E-01      4.142774000000000E+01      4.984894000000000E-01     -1.493047000000000E+02
4829000000.000000      3.410950000000000E-01      4.136719000000000E+01      4.974365000000000E-01     -1.500469000000000E+02
4830000000.000000      3.426819000000000E-01      4.119141000000000E+01      4.964447000000000E-01     -1.508203000000000E+02
4831000000.000000      3.442230000000000E-01      4.121484000000000E+01      4.971008000000000E-01     -1.514297000000000E+02
4832000000.000000      3.464966000000000E-01      4.118554000000000E+01      4.955139000000000E-01     -1.520937000000000E+02
4833000000.000000      3.473969000000000E-01      4.102344000000000E+01      4.943085000000000E-01     -1.528437000000000E+02
4834000000.000000      3.493195000000000E-01      4.099218000000000E+01      4.943848000000000E-01     -1.536172000000000E+02
4835000000.000000      3.513336000000000E-01      4.072851000000000E+01      4.923096000000000E-01     -1.543906000000000E+02
4836000000.000000      3.531952000000000E-01      4.076172000000000E+01      4.923401000000000E-01     -1.550625000000000E+02
4837000000.000000      3.543396000000000E-01      4.066992000000000E+01      4.895172000000000E-01     -1.560078000000000E+02
4838000000.000000      3.561096000000000E-01      4.049414000000000E+01      4.903259000000000E-01     -1.563828000000000E+02
4839000000.000000      3.595428000000000E-01      4.034765000000000E+01      4.890747000000000E-01     -1.572969000000000E+02
4840000000.000000      3.598938000000000E-01      4.013672000000000E+01      4.884338000000000E-01     -1.578203000000000E+02
4841000000.000000      3.617401000000000E-01      4.011523000000000E+01      4.859314000000000E-01     -1.587031000000000E+02
4842000000.000000      3.624115000000000E-01      3.996289000000000E+01      4.855194000000000E-01     -1.593672000000000E+02
4843000000.000000      3.660889000000000E-01      3.968945000000000E+01      4.855347000000000E-01     -1.601094000000000E+02
4844000000.000000      3.666229000000000E-01      3.954492000000000E+01      4.827118000000000E-01     -1.606953000000000E+02
4845000000.000000      3.677368000000000E-01      3.946875000000000E+01      4.814148000000000E-01     -1.614531000000000E+02
4846000000.000000      3.697510000000000E-01      3.922266000000000E+01      4.795074000000000E-01     -1.621641000000000E+02
4847000000.000000      3.712311000000000E-01      3.911718000000000E+01      4.787292000000000E-01     -1.626094000000000E+02
4848000000.000000      3.724365000000000E-01      3.879101000000000E+01      4.755707000000000E-01     -1.635703000000000E+02
4849000000.000000      3.745880000000000E-01      3.857617000000000E+01      4.759674000000000E-01     -1.642031000000000E+02
4850000000.000000      3.749695000000000E-01      3.843945000000000E+01      4.726715000000000E-01     -1.648750000000000E+02
4851000000.000000      3.761292000000000E-01      3.833398000000000E+01      4.721222000000000E-01     -1.656719000000000E+02
4852000000.000000      3.779449000000000E-01      3.807031000000000E+01      4.680328000000000E-01     -1.665078000000000E+02
4853000000.000000      3.798065000000000E-01      3.792578000000000E+01      4.650421000000000E-01     -1.670547000000000E+02
4854000000.000000      3.804779000000000E-01      3.766016000000000E+01      4.640961000000000E-01     -1.679453000000000E+02
4855000000.000000      3.815918000000000E-01      3.743555000000000E+01      4.635925000000000E-01     -1.685390000000000E+02
4856000000.000000      3.828430000000000E-01      3.728516000000000E+01      4.597473000000000E-01     -1.691719000000000E+02
4857000000.000000      3.843079000000000E-01      3.703320000000000E+01      4.584198000000000E-01     -1.697969000000000E+02
4858000000.000000      3.848877000000000E-01      3.665039000000000E+01      4.565125000000000E-01     -1.706172000000000E+02
4859000000.000000      3.867035000000000E-01      3.645508000000000E+01      4.543304000000000E-01     -1.714375000000000E+02
4860000000.000000      3.872833000000000E-01      3.635742000000000E+01      4.506378000000000E-01     -1.718984000000000E+02
4861000000.000000      3.884125000000000E-01      3.608007000000000E+01      4.465485000000000E-01     -1.726641000000000E+02
4862000000.000000      3.885193000000000E-01      3.580273000000000E+01      4.464722000000000E-01     -1.733281000000000E+02
4863000000.000000      3.903656000000000E-01      3.556445000000000E+01      4.435425000000000E-01     -1.742500000000000E+02
4864000000.000000      3.919830000000000E-01      3.531250000000000E+01      4.385681000000000E-01     -1.745703000000000E+02
4865000000.000000      3.916473000000000E-01      3.506836000000000E+01      4.374237000000000E-01     -1.751641000000000E+02
4866000000.000000      3.943024000000000E-01      3.471094000000000E+01      4.337921000000000E-01     -1.760469000000000E+02
4867000000.000000      3.931732000000000E-01      3.447461000000000E+01      4.311829000000000E-01     -1.768750000000000E+02
4868000000.000000      3.941040000000000E-01      3.439648000000000E+01      4.282532000000000E-01     -1.775156000000000E+02
4869000000.000000      3.954620000000000E-01      3.405859000000000E+01      4.241486000000000E-01     -1.779844000000000E+02
4870000000.000000      3.957214000000000E-01      3.373047000000000E+01      4.213409000000000E-01     -1.783828000000000E+02
4871000000.000000      3.961182000000000E-01      3.350000000000000E+01      4.180298000000000E-01     -1.792578000000000E+02
4872000000.000000      3.982239000000000E-01      3.328125000000000E+01      4.144897000000000E-01     -1.796875000000000E+02
4873000000.000000      3.979950000000000E-01      3.310742000000000E+01      4.114532000000000E-01      1.794531000000000E+02
4874000000.000000      3.983307000000000E-01      3.284570000000000E+01      4.070282000000000E-01      1.789844000000000E+02
4875000000.000000      3.991852000000000E-01      3.241796000000000E+01      4.040680000000000E-01      1.784844000000000E+02
4876000000.000000      3.991852000000000E-01      3.240234000000000E+01      4.017334000000000E-01      1.778203000000000E+02
4877000000.000000      3.994446000000000E-01      3.191992000000000E+01      3.978729000000000E-01      1.770000000000000E+02
4878000000.000000      3.991547000000000E-01      3.186914000000000E+01      3.945770000000000E-01      1.765234000000000E+02
4879000000.000000      4.006348000000000E-01      3.153711000000000E+01      3.905945000000000E-01      1.761719000000000E+02
4880000000.000000      4.014740000000000E-01      3.113770000000000E+01      3.882599000000000E-01      1.755391000000000E+02
4881000000.000000      4.002686000000000E-01      3.106738000000000E+01      3.850555000000000E-01      1.750859000000000E+02
4882000000.000000      4.016876000000000E-01      3.087011000000000E+01      3.810120000000000E-01      1.744844000000000E+02
4883000000.000000      4.022064000000000E-01      3.053320000000000E+01      3.773804000000000E-01      1.737813000000000E+02
4884000000.000000      4.022827000000000E-01      3.029394000000000E+01      3.731079000000000E-01      1.735391000000000E+02
4885000000.000000      4.024353000000000E-01      3.011719000000000E+01      3.691254000000000E-01      1.730000000000000E+02
4886000000.000000      4.033356000000000E-01      2.996289000000000E+01      3.664856000000000E-01      1.727266000000000E+02
4887000000.000000      4.019928000000000E-01      2.976171000000000E+01      3.630219000000000E-01      1.718984000000000E+02
4888000000.000000      4.027252000000000E-01      2.931933000000000E+01      3.612823000000000E-01      1.712891000000000E+02
4889000000.000000      4.028778000000000E-01      2.919726000000000E+01      3.552246000000000E-01      1.709531000000000E+02
4890000000.000000      4.014282000000000E-01      2.898144000000000E+01      3.525696000000000E-01      1.702578000000000E+02
4891000000.000000      4.028778000000000E-01      2.865234000000000E+01      3.475342000000000E-01      1.700469000000000E+02
4892000000.000000      4.026642000000000E-01      2.842090000000000E+01      3.451080000000000E-01      1.697187000000000E+02
4893000000.000000      4.024811000000000E-01      2.819140000000000E+01      3.416138000000000E-01      1.691094000000000E+02
4894000000.000000      4.028320000000000E-01      2.804394000000000E+01      3.384399000000000E-01      1.686172000000000E+02
4895000000.000000      4.027710000000000E-01      2.771289000000000E+01      3.355103000000000E-01      1.684141000000000E+02
4896000000.000000      4.022064000000000E-01      2.754883000000000E+01      3.316956000000000E-01      1.679609000000000E+02
4897000000.000000      4.019318000000000E-01      2.736328000000000E+01      3.280487000000000E-01      1.676484000000000E+02
4898000000.000000      4.022522000000000E-01      2.716504000000000E+01      3.249817000000000E-01      1.670547000000000E+02
4899000000.000000      4.020691000000000E-01      2.691308000000000E+01      3.210602000000000E-01      1.665937000000000E+02
4900000000.000000      4.015808000000000E-01      2.664160000000000E+01      3.175049000000000E-01      1.663281000000000E+02
4901000000.000000      4.013062000000000E-01      2.642675000000000E+01      3.144836000000000E-01      1.658516000000000E+02
4902000000.000000      4.024506000000000E-01      2.626367000000000E+01      3.115234000000000E-01      1.655547000000000E+02
4903000000.000000      4.016571000000000E-01      2.610547000000000E+01      3.070374000000000E-01      1.650703000000000E+02
4904000000.000000      4.016724000000000E-01      2.583008000000000E+01      3.040466000000000E-01      1.646563000000000E+02
4905000000.000000      4.020996000000000E-01      2.559668000000000E+01      3.008881000000000E-01      1.641797000000000E+02
4906000000.000000      4.015503000000000E-01      2.548047000000000E+01      2.977295000000000E-01      1.639531000000000E+02
4907000000.000000      4.015808000000000E-01      2.524707000000000E+01      2.945709000000000E-01      1.635469000000000E+02
4908000000.000000      4.013824000000000E-01      2.502539000000000E+01      2.910614000000000E-01      1.629609000000000E+02
4909000000.000000      4.005280000000000E-01      2.478222000000000E+01      2.869873000000000E-01      1.627656000000000E+02
4910000000.000000      3.999939000000000E-01      2.473145000000000E+01      2.836456000000000E-01      1.624063000000000E+02
4911000000.000000      4.001007000000000E-01      2.452246000000000E+01      2.810974000000000E-01      1.620547000000000E+02
4912000000.000000      3.995209000000000E-01      2.443554000000000E+01      2.765045000000000E-01      1.616328000000000E+02
4913000000.000000      4.010773000000000E-01      2.407617000000000E+01      2.730103000000000E-01      1.613047000000000E+02
4914000000.000000      3.998413000000000E-01      2.379004000000000E+01      2.695007000000000E-01      1.611875000000000E+02
4915000000.000000      3.989868000000000E-01      2.385937000000000E+01      2.656708000000000E-01      1.604219000000000E+02
4916000000.000000      3.992920000000000E-01      2.360742000000000E+01      2.619781000000000E-01      1.601406000000000E+02
4917000000.000000      3.995972000000000E-01      2.342480000000000E+01      2.583923000000000E-01      1.599062000000000E+02
4918000000.000000      3.996582000000000E-01      2.322558000000000E+01      2.550201000000000E-01      1.595859000000000E+02
4919000000.000000      3.971710000000000E-01      2.304492000000000E+01      2.514954000000000E-01      1.594922000000000E+02
4920000000.000000      3.988647000000000E-01      2.286621000000000E+01      2.470322000000000E-01      1.588203000000000E+02
4921000000.000000      3.980255000000000E-01      2.272656000000000E+01      2.434998000000000E-01      1.587891000000000E+02
4922000000.000000      3.979950000000000E-01      2.247656000000000E+01      2.400208000000000E-01      1.585234000000000E+02
4923000000.000000      3.971100000000000E-01      2.237597000000000E+01      2.352448000000000E-01      1.581563000000000E+02
4924000000.000000      3.976135000000000E-01      2.222363000000000E+01      2.317810000000000E-01      1.579766000000000E+02
4925000000.000000      3.969879000000000E-01      2.204199000000000E+01      2.283554000000000E-01      1.578594000000000E+02
4926000000.000000      3.969116000000000E-01      2.186133000000000E+01      2.243118000000000E-01      1.575938000000000E+02
4927000000.000000      3.954163000000000E-01      2.166602000000000E+01      2.200089000000000E-01      1.573437000000000E+02
4928000000.000000      3.962708000000000E-01      2.142676000000000E+01      2.160568000000000E-01      1.572500000000000E+02
4929000000.000000      3.956299000000000E-01      2.132129000000000E+01      2.115707000000000E-01      1.571406000000000E+02
4930000000.000000      3.961334000000000E-01      2.114551000000000E+01      2.081909000000000E-01      1.570937000000000E+02
4931000000.000000      3.957062000000000E-01      2.088477000000000E+01      2.048645000000000E-01      1.570313000000000E+02
4932000000.000000      3.956451000000000E-01      2.083496000000000E+01      2.004089000000000E-01      1.569453000000000E+02
4933000000.000000      3.946686000000000E-01      2.073730000000000E+01      1.952896000000000E-01      1.571484000000000E+02
4934000000.000000      3.952332000000000E-01      2.033496000000000E+01      1.918564000000000E-01      1.568906000000000E+02
4935000000.000000      3.946533000000000E-01      2.038867000000000E+01      1.884918000000000E-01      1.573125000000000E+02
4936000000.000000      3.937531000000000E-01      1.994629000000000E+01      1.840744000000000E-01      1.573203000000000E+02
4937000000.000000      3.945465000000000E-01      1.983008000000000E+01      1.806564000000000E-01      1.572813000000000E+02
4938000000.000000      3.928223000000000E-01      1.981641000000000E+01      1.768875000000000E-01      1.575156000000000E+02
4939000000.000000      3.922119000000000E-01      1.981641000000000E+01      1.730957000000000E-01      1.577969000000000E+02
4940000000.000000      3.937988000000000E-01      1.955762000000000E+01      1.689529000000000E-01      1.580312000000000E+02
4941000000.000000      3.929443000000000E-01      1.930762000000000E+01      1.650925000000000E-01      1.585078000000000E+02
4942000000.000000      3.916931000000000E-01      1.925977000000000E+01      1.614075000000000E-01      1.588906000000000E+02
4943000000.000000      3.926544000000000E-01      1.909277000000000E+01      1.574326000000000E-01      1.594453000000000E+02
4944000000.000000      3.916779000000000E-01      1.869922000000000E+01      1.540604000000000E-01      1.600156000000000E+02
4945000000.000000      3.927460000000000E-01      1.860742000000000E+01      1.502075000000000E-01      1.602734000000000E+02
4946000000.000000      3.916016000000000E-01      1.850098000000000E+01      1.468964000000000E-01      1.612109000000000E+02
4947000000.000000      3.911743000000000E-01      1.839746000000000E+01      1.436539000000000E-01      1.618984000000000E+02
4948000000.000000      3.918762000000000E-01      1.821094000000000E+01      1.398849000000000E-01      1.627812000000000E+02
4949000000.000000      3.905334000000000E-01      1.802539000000000E+01      1.369019000000000E-01      1.639688000000000E+02
4950000000.000000      3.912811000000000E-01      1.792773000000000E+01      1.339722000000000E-01      1.647734000000000E+02
4951000000.000000      3.911591000000000E-01      1.760644000000000E+01      1.308975000000000E-01      1.657656000000000E+02
4952000000.000000      3.897247000000000E-01      1.743750000000000E+01      1.282349000000000E-01      1.671562000000000E+02
4953000000.000000      3.889160000000000E-01      1.730957000000000E+01      1.261215000000000E-01      1.683672000000000E+02
4954000000.000000      3.887177000000000E-01      1.731250000000000E+01      1.232872000000000E-01      1.695859000000000E+02
