! Network Analyzer HP8722D
! Hewlett-Packard
! Data name: Linha & Wilkinson
! Saver's name: Rodrigo Anjos
! Comments: Teste da utilização de aquisição
continua pelo VNA HP8722D
! Time and date: 23/5/2025 12:17
!              Frequency                     S11                                                   S21                                                   S12                                                   S22
# HZ  S  MA R 50
4800000000.000000      2.977142000000000E-01      3.867969000000000E+01      4.776154000000000E-01     -1.289766000000000E+02
4801000000.000000      2.984772000000000E-01      3.897461000000000E+01      4.797516000000000E-01     -1.296016000000000E+02
4802000000.000000      2.997894000000000E-01      3.909961000000000E+01      4.812927000000000E-01     -1.300547000000000E+02
4803000000.000000      3.005371000000000E-01      3.927734000000000E+01      4.841003000000000E-01     -1.309687000000000E+02
4804000000.000000      3.016052000000000E-01      3.958203000000000E+01      4.859772000000000E-01     -1.317109000000000E+02
4805000000.000000      3.037872000000000E-01      3.956836000000000E+01      4.876099000000000E-01     -1.324531000000000E+02
4806000000.000000      3.040466000000000E-01      3.982226000000000E+01      4.878540000000000E-01     -1.331563000000000E+02
4807000000.000000      3.052368000000000E-01      4.004296000000000E+01      4.894867000000000E-01     -1.339766000000000E+02
4808000000.000000      3.059845000000000E-01      4.020703000000000E+01      4.909973000000000E-01     -1.345937000000000E+02
4809000000.000000      3.077087000000000E-01      4.041992000000000E+01      4.910431000000000E-01     -1.354687000000000E+02
4810000000.000000      3.097076000000000E-01      4.045312000000000E+01      4.934540000000000E-01     -1.361016000000000E+02
4811000000.000000      3.110199000000000E-01      4.068749000000000E+01      4.951477000000000E-01     -1.370469000000000E+02
4812000000.000000      3.131104000000000E-01      4.081836000000000E+01      4.955750000000000E-01     -1.375547000000000E+02
4813000000.000000      3.137512000000000E-01      4.087500000000000E+01      4.958191000000000E-01     -1.384844000000000E+02
4814000000.000000      3.150482000000000E-01      4.105859000000000E+01      4.956055000000000E-01     -1.388750000000000E+02
4815000000.000000      3.163910000000000E-01      4.109179000000000E+01      4.964905000000000E-01     -1.396641000000000E+02
4816000000.000000      3.189545000000000E-01      4.124023000000000E+01      4.981384000000000E-01     -1.405391000000000E+02
4817000000.000000      3.203278000000000E-01      4.124413000000000E+01      4.996338000000000E-01     -1.412656000000000E+02
4818000000.000000      3.215942000000000E-01      4.139648000000000E+01      4.985657000000000E-01     -1.420859000000000E+02
4819000000.000000      3.239746000000000E-01      4.137695000000000E+01      4.994202000000000E-01     -1.428281000000000E+02
4820000000.000000      3.243103000000000E-01      4.149610000000000E+01      4.983215000000000E-01     -1.433438000000000E+02
4821000000.000000      3.267975000000000E-01      4.144336000000000E+01      4.995422000000000E-01     -1.442031000000000E+02
4822000000.000000      3.278961000000000E-01      4.145117000000000E+01      4.976501000000000E-01     -1.450391000000000E+02
4823000000.000000      3.302460000000000E-01      4.146874000000000E+01      5.003662000000000E-01     -1.457031000000000E+02
4824000000.000000      3.317566000000000E-01      4.159375000000000E+01      4.983521000000000E-01     -1.465078000000000E+02
4825000000.000000      3.334045000000000E-01      4.136523000000000E+01      4.979706000000000E-01     -1.470078000000000E+02
4826000000.000000      3.354950000000000E-01      4.147265000000000E+01      4.991913000000000E-01     -1.480234000000000E+02
4827000000.000000      3.374939000000000E-01      4.135351000000000E+01      4.989777000000000E-01     -1.485781000000000E+02
4828000000.000000      3.391113000000000E-01      4.140038000000000E+01      4.992371000000000E-01     -1.493281000000000E+02
4829000000.000000      3.408661000000000E-01      4.143359000000000E+01      4.976654000000000E-01     -1.499297000000000E+02
4830000000.000000      3.426361000000000E-01      4.124219000000000E+01      4.970856000000000E-01     -1.508672000000000E+02
4831000000.000000      3.441772000000000E-01      4.121484000000000E+01      4.966888000000000E-01     -1.515000000000000E+02
4832000000.000000      3.460388000000000E-01      4.114453000000000E+01      4.957733000000000E-01     -1.522578000000000E+02
4833000000.000000      3.470154000000000E-01      4.103711000000000E+01      4.954376000000000E-01     -1.527656000000000E+02
4834000000.000000      3.489380000000000E-01      4.093359000000000E+01      4.943390000000000E-01     -1.535859000000000E+02
4835000000.000000      3.512878000000000E-01      4.080664000000000E+01      4.939117000000000E-01     -1.544765000000000E+02
4836000000.000000      3.532104000000000E-01      4.075195000000000E+01      4.921722000000000E-01     -1.551797000000000E+02
4837000000.000000      3.541870000000000E-01      4.070898000000000E+01      4.908600000000000E-01     -1.559766000000000E+02
4838000000.000000      3.554230000000000E-01      4.048633000000000E+01      4.893951000000000E-01     -1.562891000000000E+02
4839000000.000000      3.593140000000000E-01      4.047461000000000E+01      4.895782000000000E-01     -1.571953000000000E+02
4840000000.000000      3.599396000000000E-01      4.016015000000000E+01      4.882965000000000E-01     -1.578750000000000E+02
4841000000.000000      3.615723000000000E-01      4.009961000000000E+01      4.878082000000000E-01     -1.587656000000000E+02
4842000000.000000      3.630066000000000E-01      3.997851000000000E+01      4.851532000000000E-01     -1.592187000000000E+02
4843000000.000000      3.656006000000000E-01      3.962109000000000E+01      4.860077000000000E-01     -1.600547000000000E+02
4844000000.000000      3.659973000000000E-01      3.953711000000000E+01      4.833069000000000E-01     -1.606875000000000E+02
4845000000.000000      3.675537000000000E-01      3.943554000000000E+01      4.809418000000000E-01     -1.615469000000000E+02
4846000000.000000      3.698578000000000E-01      3.928125000000000E+01      4.801636000000000E-01     -1.620703000000000E+02
4847000000.000000      3.710785000000000E-01      3.914648000000000E+01      4.785461000000000E-01     -1.629062000000000E+02
4848000000.000000      3.720551000000000E-01      3.876562000000000E+01      4.763489000000000E-01     -1.634922000000000E+02
4849000000.000000      3.735352000000000E-01      3.863867000000000E+01      4.761353000000000E-01     -1.644219000000000E+02
4850000000.000000      3.754120000000000E-01      3.842187000000000E+01      4.738617000000000E-01     -1.649922000000000E+02
4851000000.000000      3.764954000000000E-01      3.840234000000000E+01      4.717865000000000E-01     -1.657812000000000E+02
4852000000.000000      3.777161000000000E-01      3.822656000000000E+01      4.692841000000000E-01     -1.663437000000000E+02
4853000000.000000      3.790436000000000E-01      3.786328000000000E+01      4.657288000000000E-01     -1.671094000000000E+02
4854000000.000000      3.802032000000000E-01      3.751367000000000E+01      4.642181000000000E-01     -1.679453000000000E+02
4855000000.000000      3.813782000000000E-01      3.748828000000000E+01      4.618073000000000E-01     -1.686953000000000E+02
4856000000.000000      3.832092000000000E-01      3.721484000000000E+01      4.599915000000000E-01     -1.693359000000000E+02
4857000000.000000      3.843079000000000E-01      3.708398000000000E+01      4.579468000000000E-01     -1.699141000000000E+02
4858000000.000000      3.849182000000000E-01      3.675390000000000E+01      4.556274000000000E-01     -1.705312000000000E+02
4859000000.000000      3.859100000000000E-01      3.644140000000000E+01      4.533539000000000E-01     -1.714297000000000E+02
4860000000.000000      3.867798000000000E-01      3.640234000000000E+01      4.503937000000000E-01     -1.721172000000000E+02
4861000000.000000      3.878937000000000E-01      3.610742000000000E+01      4.466095000000000E-01     -1.727266000000000E+02
4862000000.000000      3.878174000000000E-01      3.581640000000000E+01      4.462433000000000E-01     -1.732344000000000E+02
4863000000.000000      3.899689000000000E-01      3.571680000000000E+01      4.437561000000000E-01     -1.741484000000000E+02
4864000000.000000      3.905029000000000E-01      3.538476000000000E+01      4.408722000000000E-01     -1.746641000000000E+02
4865000000.000000      3.914337000000000E-01      3.508594000000000E+01      4.381256000000000E-01     -1.751797000000000E+02
4866000000.000000      3.920288000000000E-01      3.477148000000000E+01      4.333344000000000E-01     -1.760313000000000E+02
4867000000.000000      3.923645000000000E-01      3.449023000000000E+01      4.308167000000000E-01     -1.766484000000000E+02
4868000000.000000      3.940582000000000E-01      3.428320000000000E+01      4.278564000000000E-01     -1.771094000000000E+02
4869000000.000000      3.939819000000000E-01      3.416601000000000E+01      4.252930000000000E-01     -1.779140000000000E+02
4870000000.000000      3.950958000000000E-01      3.384375000000000E+01      4.227448000000000E-01     -1.783828000000000E+02
4871000000.000000      3.959808000000000E-01      3.355078000000000E+01      4.187317000000000E-01     -1.791563000000000E+02
4872000000.000000      3.964996000000000E-01      3.333398000000000E+01      4.143219000000000E-01     -1.799766000000000E+02
4873000000.000000      3.969727000000000E-01      3.314062000000000E+01      4.113922000000000E-01      1.795703000000000E+02
4874000000.000000      3.975677000000000E-01      3.295898000000000E+01      4.078979000000000E-01      1.788672000000000E+02
4875000000.000000      3.976288000000000E-01      3.260351000000000E+01      4.038239000000000E-01      1.783750000000000E+02
4876000000.000000      3.987885000000000E-01      3.249023000000000E+01      4.024811000000000E-01      1.776875000000000E+02
4877000000.000000      4.004364000000000E-01      3.200781000000000E+01      3.977203000000000E-01      1.770547000000000E+02
4878000000.000000      3.990021000000000E-01      3.174316000000000E+01      3.949432000000000E-01      1.766641000000000E+02
4879000000.000000      4.001617000000000E-01      3.159472000000000E+01      3.914948000000000E-01      1.759140000000000E+02
4880000000.000000      4.005890000000000E-01      3.124512000000000E+01      3.881226000000000E-01      1.754453000000000E+02
4881000000.000000      4.003296000000000E-01      3.113867000000000E+01      3.830566000000000E-01      1.750859000000000E+02
4882000000.000000      4.010620000000000E-01      3.088867000000000E+01      3.811340000000000E-01      1.745234000000000E+02
4883000000.000000      4.008026000000000E-01      3.049511000000000E+01      3.760681000000000E-01      1.738437000000000E+02
4884000000.000000      4.010620000000000E-01      3.035058000000000E+01      3.740387000000000E-01      1.732812000000000E+02
4885000000.000000      4.018860000000000E-01      3.018750000000000E+01      3.694763000000000E-01      1.730312000000000E+02
4886000000.000000      4.018097000000000E-01      2.992773000000000E+01      3.667908000000000E-01      1.726328000000000E+02
4887000000.000000      4.017792000000000E-01      2.969238000000000E+01      3.628693000000000E-01      1.718359000000000E+02
4888000000.000000      4.028168000000000E-01      2.931641000000000E+01      3.605804000000000E-01      1.713516000000000E+02
4889000000.000000      4.022980000000000E-01      2.926758000000000E+01      3.556824000000000E-01      1.712031000000000E+02
4890000000.000000      4.006500000000000E-01      2.882519000000000E+01      3.524780000000000E-01      1.702031000000000E+02
4891000000.000000      4.020538000000000E-01      2.872461000000000E+01      3.486023000000000E-01      1.699297000000000E+02
4892000000.000000      4.013519000000000E-01      2.840723000000000E+01      3.451691000000000E-01      1.697031000000000E+02
4893000000.000000      4.022980000000000E-01      2.817090000000000E+01      3.418579000000000E-01      1.690469000000000E+02
4894000000.000000      4.021759000000000E-01      2.807324000000000E+01      3.371887000000000E-01      1.688359000000000E+02
4895000000.000000      4.031372000000000E-01      2.776464000000000E+01      3.350677000000000E-01      1.683594000000000E+02
4896000000.000000      4.022675000000000E-01      2.753027000000000E+01      3.312225000000000E-01      1.678828000000000E+02
4897000000.000000      4.016113000000000E-01      2.736816000000000E+01      3.272858000000000E-01      1.677031000000000E+02
4898000000.000000      4.018402000000000E-01      2.722363000000000E+01      3.233185000000000E-01      1.669844000000000E+02
4899000000.000000      4.016113000000000E-01      2.694043000000000E+01      3.216400000000000E-01      1.665313000000000E+02
4900000000.000000      4.013824000000000E-01      2.664160000000000E+01      3.183899000000000E-01      1.663047000000000E+02
4901000000.000000      4.011078000000000E-01      2.647656000000000E+01      3.149109000000000E-01      1.659531000000000E+02
4902000000.000000      4.007874000000000E-01      2.632715000000000E+01      3.117218000000000E-01      1.654687000000000E+02
4903000000.000000      4.015045000000000E-01      2.611133000000000E+01      3.077850000000000E-01      1.650469000000000E+02
4904000000.000000      4.021759000000000E-01      2.583984000000000E+01      3.043976000000000E-01      1.646328000000000E+02
4905000000.000000      4.004822000000000E-01      2.562891000000000E+01      3.014679000000000E-01      1.642031000000000E+02
4906000000.000000      4.017792000000000E-01      2.547949000000000E+01      2.975006000000000E-01      1.641797000000000E+02
4907000000.000000      4.012909000000000E-01      2.541504000000000E+01      2.951355000000000E-01      1.633359000000000E+02
4908000000.000000      4.000092000000000E-01      2.502930000000000E+01      2.911530000000000E-01      1.631328000000000E+02
4909000000.000000      3.998413000000000E-01      2.485156000000000E+01      2.872467000000000E-01      1.627031000000000E+02
4910000000.000000      3.998566000000000E-01      2.476953000000000E+01      2.838898000000000E-01      1.625234000000000E+02
4911000000.000000      3.993378000000000E-01      2.457715000000000E+01      2.807312000000000E-01      1.621328000000000E+02
4912000000.000000      3.993530000000000E-01      2.441406000000000E+01      2.771759000000000E-01      1.616484000000000E+02
4913000000.000000      4.001312000000000E-01      2.412695000000000E+01      2.734985000000000E-01      1.612344000000000E+02
4914000000.000000      3.986206000000000E-01      2.390137000000000E+01      2.698364000000000E-01      1.611016000000000E+02
4915000000.000000      3.994751000000000E-01      2.379004000000000E+01      2.659454000000000E-01      1.605391000000000E+02
4916000000.000000      3.981018000000000E-01      2.362402000000000E+01      2.628479000000000E-01      1.601719000000000E+02
4917000000.000000      3.981781000000000E-01      2.335059000000000E+01      2.587433000000000E-01      1.599219000000000E+02
4918000000.000000      3.980560000000000E-01      2.334375000000000E+01      2.546692000000000E-01      1.595391000000000E+02
4919000000.000000      3.963318000000000E-01      2.306347000000000E+01      2.515106000000000E-01      1.594219000000000E+02
4920000000.000000      3.975372000000000E-01      2.282227000000000E+01      2.477264000000000E-01      1.588750000000000E+02
4921000000.000000      3.974152000000000E-01      2.267285000000000E+01      2.438812000000000E-01      1.587969000000000E+02
4922000000.000000      3.970795000000000E-01      2.249218000000000E+01      2.403564000000000E-01      1.586094000000000E+02
4923000000.000000      3.961792000000000E-01      2.240723000000000E+01      2.357788000000000E-01      1.582891000000000E+02
4924000000.000000      3.968964000000000E-01      2.225098000000000E+01      2.316589000000000E-01      1.578047000000000E+02
4925000000.000000      3.953247000000000E-01      2.200098000000000E+01      2.282867000000000E-01      1.577422000000000E+02
4926000000.000000      3.959808000000000E-01      2.185645000000000E+01      2.250595000000000E-01      1.576406000000000E+02
4927000000.000000      3.954620000000000E-01      2.169629000000000E+01      2.194901000000000E-01      1.572891000000000E+02
4928000000.000000      3.967285000000000E-01      2.131738000000000E+01      2.167969000000000E-01      1.572656000000000E+02
4929000000.000000      3.947906000000000E-01      2.124023000000000E+01      2.122650000000000E-01      1.572344000000000E+02
4930000000.000000      3.952332000000000E-01      2.111133000000000E+01      2.077408000000000E-01      1.569844000000000E+02
4931000000.000000      3.946991000000000E-01      2.089648000000000E+01      2.045517000000000E-01      1.568125000000000E+02
4932000000.000000      3.943634000000000E-01      2.091601000000000E+01      2.003098000000000E-01      1.569844000000000E+02
4933000000.000000      3.944092000000000E-01      2.072363000000000E+01      1.954575000000000E-01      1.571484000000000E+02
4934000000.000000      3.942719000000000E-01      2.035840000000000E+01      1.922226000000000E-01      1.569141000000000E+02
4935000000.000000      3.948669000000000E-01      2.034863000000000E+01      1.887817000000000E-01      1.571875000000000E+02
4936000000.000000      3.933716000000000E-01      2.008984000000000E+01      1.843033000000000E-01      1.571406000000000E+02
4937000000.000000      3.939362000000000E-01      1.992285000000000E+01      1.805344000000000E-01      1.572578000000000E+02
4938000000.000000      3.926544000000000E-01      1.992090000000000E+01      1.766891000000000E-01      1.575781000000000E+02
4939000000.000000      3.926849000000000E-01      1.955957000000000E+01      1.729507000000000E-01      1.577656000000000E+02
4940000000.000000      3.927002000000000E-01      1.953906000000000E+01      1.686096000000000E-01      1.579297000000000E+02
4941000000.000000      3.926697000000000E-01      1.928613000000000E+01      1.654892000000000E-01      1.586406000000000E+02
4942000000.000000      3.915710000000000E-01      1.934277000000000E+01      1.612625000000000E-01      1.587344000000000E+02
4943000000.000000      3.923950000000000E-01      1.910645000000000E+01      1.575394000000000E-01      1.594844000000000E+02
4944000000.000000      3.919373000000000E-01      1.871875000000000E+01      1.539993000000000E-01      1.599219000000000E+02
4945000000.000000      3.905945000000000E-01      1.868750000000000E+01      1.500320000000000E-01      1.606562000000000E+02
4946000000.000000      3.920593000000000E-01      1.859961000000000E+01      1.467285000000000E-01      1.609688000000000E+02
4947000000.000000      3.903656000000000E-01      1.832520000000000E+01      1.434021000000000E-01      1.619531000000000E+02
4948000000.000000      3.913574000000000E-01      1.820703000000000E+01      1.402206000000000E-01      1.625000000000000E+02
4949000000.000000      3.898926000000000E-01      1.800879000000000E+01      1.372604000000000E-01      1.638594000000000E+02
4950000000.000000      3.904877000000000E-01      1.784277000000000E+01      1.339417000000000E-01      1.646484000000000E+02
4951000000.000000      3.902588000000000E-01      1.774121000000000E+01      1.311417000000000E-01      1.656172000000000E+02
4952000000.000000      3.891296000000000E-01      1.764746000000000E+01      1.281281000000000E-01      1.669844000000000E+02
4953000000.000000      3.883057000000000E-01      1.745117000000000E+01      1.261063000000000E-01      1.682266000000000E+02
4954000000.000000      3.890381000000000E-01      1.723340000000000E+01      1.232452000000000E-01      1.695937000000000E+02
