! Network Analyzer HP8722D
! Hewlett-Packard
! Data name: Linha & Wilkinson
! Saver's name: Rodrigo Anjos
! Comments: Teste da utilização de aquisição
continua pelo VNA HP8722D
! Time and date: 23/5/2025 11:36
!              Frequency                     S11                                                   S21                                                   S12                                                   S22
# HZ  S  MA R 50
4800000000.000000      3.094330000000000E-01      3.759570000000000E+01      4.726715000000000E-01     -1.280234000000000E+02
4801000000.000000      3.105469000000000E-01      3.779297000000000E+01      4.718170000000000E-01     -1.286953000000000E+02
4802000000.000000      3.111725000000000E-01      3.793554000000000E+01      4.745483000000000E-01     -1.291797000000000E+02
4803000000.000000      3.119507000000000E-01      3.817578000000000E+01      4.761963000000000E-01     -1.300703000000000E+02
4804000000.000000      3.129272000000000E-01      3.834765000000000E+01      4.792328000000000E-01     -1.307812000000000E+02
4805000000.000000      3.147125000000000E-01      3.848242000000000E+01      4.793549000000000E-01     -1.315469000000000E+02
4806000000.000000      3.155060000000000E-01      3.862500000000000E+01      4.805603000000000E-01     -1.322813000000000E+02
4807000000.000000      3.164673000000000E-01      3.880664000000000E+01      4.832916000000000E-01     -1.330547000000000E+02
4808000000.000000      3.172607000000000E-01      3.904492000000000E+01      4.836884000000000E-01     -1.336484000000000E+02
4809000000.000000      3.190308000000000E-01      3.921679000000000E+01      4.860077000000000E-01     -1.345625000000000E+02
4810000000.000000      3.204803000000000E-01      3.936523000000000E+01      4.855652000000000E-01     -1.352109000000000E+02
4811000000.000000      3.218231000000000E-01      3.949023000000000E+01      4.866638000000000E-01     -1.361250000000000E+02
4812000000.000000      3.243103000000000E-01      3.968945000000000E+01      4.865570000000000E-01     -1.367344000000000E+02
4813000000.000000      3.247681000000000E-01      3.981445000000000E+01      4.884491000000000E-01     -1.374297000000000E+02
4814000000.000000      3.257294000000000E-01      3.983593000000000E+01      4.896851000000000E-01     -1.380703000000000E+02
4815000000.000000      3.270569000000000E-01      3.998047000000000E+01      4.898376000000000E-01     -1.388281000000000E+02
4816000000.000000      3.298035000000000E-01      4.002343000000000E+01      4.918060000000000E-01     -1.395078000000000E+02
4817000000.000000      3.305511000000000E-01      4.019336000000000E+01      4.912262000000000E-01     -1.403984000000000E+02
4818000000.000000      3.323669000000000E-01      4.013476000000000E+01      4.904480000000000E-01     -1.411250000000000E+02
4819000000.000000      3.337860000000000E-01      4.016992000000000E+01      4.920502000000000E-01     -1.417656000000000E+02
4820000000.000000      3.350372000000000E-01      4.028516000000000E+01      4.915466000000000E-01     -1.422344000000000E+02
4821000000.000000      3.373108000000000E-01      4.035937000000000E+01      4.927063000000000E-01     -1.433281000000000E+02
4822000000.000000      3.386383000000000E-01      4.027539000000000E+01      4.903870000000000E-01     -1.440938000000000E+02
4823000000.000000      3.402557000000000E-01      4.025586000000000E+01      4.925079000000000E-01     -1.448125000000000E+02
4824000000.000000      3.423462000000000E-01      4.045312000000000E+01      4.918518000000000E-01     -1.455547000000000E+02
4825000000.000000      3.435822000000000E-01      4.031250000000000E+01      4.924774000000000E-01     -1.462265000000000E+02
4826000000.000000      3.455658000000000E-01      4.031054000000000E+01      4.917603000000000E-01     -1.470781000000000E+02
4827000000.000000      3.469391000000000E-01      4.030469000000000E+01      4.916534000000000E-01     -1.475937000000000E+02
4828000000.000000      3.493652000000000E-01      4.030078000000000E+01      4.916992000000000E-01     -1.485625000000000E+02
4829000000.000000      3.500671000000000E-01      4.032031000000000E+01      4.901733000000000E-01     -1.492656000000000E+02
4830000000.000000      3.523102000000000E-01      4.022851000000000E+01      4.902802000000000E-01     -1.498906000000000E+02
4831000000.000000      3.534851000000000E-01      4.015038000000000E+01      4.900818000000000E-01     -1.506172000000000E+02
4832000000.000000      3.553925000000000E-01      4.019921000000000E+01      4.882507000000000E-01     -1.512812000000000E+02
4833000000.000000      3.565063000000000E-01      4.007617000000000E+01      4.890137000000000E-01     -1.519375000000000E+02
4834000000.000000      3.589630000000000E-01      3.992969000000000E+01      4.880066000000000E-01     -1.527109000000000E+02
4835000000.000000      3.613739000000000E-01      3.979101000000000E+01      4.871979000000000E-01     -1.534531000000000E+02
4836000000.000000      3.624878000000000E-01      3.982812000000000E+01      4.852448000000000E-01     -1.543125000000000E+02
4837000000.000000      3.635559000000000E-01      3.981836000000000E+01      4.834442000000000E-01     -1.550937000000000E+02
4838000000.000000      3.652802000000000E-01      3.955078000000000E+01      4.848633000000000E-01     -1.556328000000000E+02
4839000000.000000      3.681793000000000E-01      3.947266000000000E+01      4.828796000000000E-01     -1.562422000000000E+02
4840000000.000000      3.694611000000000E-01      3.923437000000000E+01      4.828186000000000E-01     -1.567891000000000E+02
4841000000.000000      3.710175000000000E-01      3.923242000000000E+01      4.807129000000000E-01     -1.576797000000000E+02
4842000000.000000      3.722992000000000E-01      3.905078000000000E+01      4.796753000000000E-01     -1.583984000000000E+02
4843000000.000000      3.749237000000000E-01      3.877344000000000E+01      4.788361000000000E-01     -1.590859000000000E+02
4844000000.000000      3.755035000000000E-01      3.864843000000000E+01      4.765930000000000E-01     -1.599375000000000E+02
4845000000.000000      3.774261000000000E-01      3.867188000000000E+01      4.746399000000000E-01     -1.605156000000000E+02
4846000000.000000      3.789825000000000E-01      3.843945000000000E+01      4.742432000000000E-01     -1.612344000000000E+02
4847000000.000000      3.803711000000000E-01      3.838476000000000E+01      4.726257000000000E-01     -1.620000000000000E+02
4848000000.000000      3.817596000000000E-01      3.801953000000000E+01      4.693604000000000E-01     -1.625703000000000E+02
4849000000.000000      3.829193000000000E-01      3.784180000000000E+01      4.687500000000000E-01     -1.634531000000000E+02
4850000000.000000      3.841095000000000E-01      3.773633000000000E+01      4.667053000000000E-01     -1.640469000000000E+02
4851000000.000000      3.860779000000000E-01      3.758008000000000E+01      4.659271000000000E-01     -1.649375000000000E+02
4852000000.000000      3.871155000000000E-01      3.734375000000000E+01      4.645691000000000E-01     -1.654453000000000E+02
4853000000.000000      3.887177000000000E-01      3.716211000000000E+01      4.592133000000000E-01     -1.662578000000000E+02
4854000000.000000      3.896790000000000E-01      3.693945000000000E+01      4.586639000000000E-01     -1.670312000000000E+02
4855000000.000000      3.908539000000000E-01      3.671484000000000E+01      4.558716000000000E-01     -1.676094000000000E+02
4856000000.000000      3.920441000000000E-01      3.658984000000000E+01      4.543304000000000E-01     -1.685078000000000E+02
4857000000.000000      3.934937000000000E-01      3.633398000000000E+01      4.533386000000000E-01     -1.687734000000000E+02
4858000000.000000      3.940887000000000E-01      3.601563000000000E+01      4.507294000000000E-01     -1.698203000000000E+02
4859000000.000000      3.955688000000000E-01      3.575586000000000E+01      4.486542000000000E-01     -1.704766000000000E+02
4860000000.000000      3.968506000000000E-01      3.578711000000000E+01      4.446564000000000E-01     -1.712344000000000E+02
4861000000.000000      3.966827000000000E-01      3.547852000000000E+01      4.428101000000000E-01     -1.719375000000000E+02
4862000000.000000      3.979187000000000E-01      3.528906000000000E+01      4.412994000000000E-01     -1.725937000000000E+02
4863000000.000000      3.996429000000000E-01      3.510351000000000E+01      4.355164000000000E-01     -1.732656000000000E+02
4864000000.000000      4.003601000000000E-01      3.475195000000000E+01      4.357452000000000E-01     -1.737500000000000E+02
4865000000.000000      4.008026000000000E-01      3.449804000000000E+01      4.310760000000000E-01     -1.743125000000000E+02
4866000000.000000      4.021759000000000E-01      3.416406000000000E+01      4.275360000000000E-01     -1.752656000000000E+02
4867000000.000000      4.021606000000000E-01      3.402929000000000E+01      4.261932000000000E-01     -1.758672000000000E+02
4868000000.000000      4.035645000000000E-01      3.380664000000000E+01      4.236298000000000E-01     -1.766172000000000E+02
4869000000.000000      4.043884000000000E-01      3.357617000000000E+01      4.192352000000000E-01     -1.772266000000000E+02
4870000000.000000      4.054413000000000E-01      3.328711000000000E+01      4.152679000000000E-01     -1.777422000000000E+02
4871000000.000000      4.056091000000000E-01      3.299805000000000E+01      4.122314000000000E-01     -1.784844000000000E+02
4872000000.000000      4.071198000000000E-01      3.277344000000000E+01      4.093628000000000E-01     -1.788203000000000E+02
4873000000.000000      4.069672000000000E-01      3.261133000000000E+01      4.060822000000000E-01     -1.796016000000000E+02
4874000000.000000      4.070892000000000E-01      3.243945000000000E+01      4.016876000000000E-01      1.795078000000000E+02
4875000000.000000      4.082489000000000E-01      3.212891000000000E+01      3.997955000000000E-01      1.789922000000000E+02
4876000000.000000      4.087677000000000E-01      3.196386000000000E+01      3.970032000000000E-01      1.784922000000000E+02
4877000000.000000      4.095306000000000E-01      3.156054000000000E+01      3.928833000000000E-01      1.780469000000000E+02
4878000000.000000      4.089355000000000E-01      3.139160000000000E+01      3.893890000000000E-01      1.774453000000000E+02
4879000000.000000      4.099579000000000E-01      3.111425000000000E+01      3.857269000000000E-01      1.769687000000000E+02
4880000000.000000      4.107666000000000E-01      3.089062000000000E+01      3.839569000000000E-01      1.762500000000000E+02
4881000000.000000      4.112854000000000E-01      3.070508000000000E+01      3.779602000000000E-01      1.758672000000000E+02
4882000000.000000      4.113464000000000E-01      3.055078000000000E+01      3.767853000000000E-01      1.751406000000000E+02
4883000000.000000      4.110870000000000E-01      3.021875000000000E+01      3.715668000000000E-01      1.746094000000000E+02
4884000000.000000      4.115906000000000E-01      2.994238000000000E+01      3.672791000000000E-01      1.742734000000000E+02
4885000000.000000      4.126892000000000E-01      2.980566000000000E+01      3.654175000000000E-01      1.737187000000000E+02
4886000000.000000      4.119568000000000E-01      2.962793000000000E+01      3.600006000000000E-01      1.732812000000000E+02
4887000000.000000      4.126740000000000E-01      2.934961000000000E+01      3.589172000000000E-01      1.727734000000000E+02
4888000000.000000      4.129181000000000E-01      2.901855000000000E+01      3.551941000000000E-01      1.720781000000000E+02
4889000000.000000      4.124298000000000E-01      2.891113000000000E+01      3.516998000000000E-01      1.718828000000000E+02
4890000000.000000      4.116516000000000E-01      2.859277000000000E+01      3.472443000000000E-01      1.710000000000000E+02
4891000000.000000      4.120941000000000E-01      2.841992000000000E+01      3.441620000000000E-01      1.708594000000000E+02
4892000000.000000      4.131012000000000E-01      2.823339000000000E+01      3.400421000000000E-01      1.703672000000000E+02
4893000000.000000      4.132385000000000E-01      2.787304000000000E+01      3.371582000000000E-01      1.697578000000000E+02
4894000000.000000      4.124603000000000E-01      2.771387000000000E+01      3.321228000000000E-01      1.692812000000000E+02
4895000000.000000      4.136200000000000E-01      2.750097000000000E+01      3.308258000000000E-01      1.690312000000000E+02
4896000000.000000      4.130554000000000E-01      2.730469000000000E+01      3.261414000000000E-01      1.687344000000000E+02
4897000000.000000      4.113922000000000E-01      2.713574000000000E+01      3.221893000000000E-01      1.683359000000000E+02
4898000000.000000      4.123535000000000E-01      2.691015000000000E+01      3.205719000000000E-01      1.678594000000000E+02
4899000000.000000      4.122620000000000E-01      2.662207000000000E+01      3.163910000000000E-01      1.673594000000000E+02
4900000000.000000      4.117126000000000E-01      2.646679000000000E+01      3.132935000000000E-01      1.669219000000000E+02
4901000000.000000      4.132233000000000E-01      2.635742000000000E+01      3.100739000000000E-01      1.666172000000000E+02
4902000000.000000      4.122162000000000E-01      2.612890000000000E+01      3.061981000000000E-01      1.662344000000000E+02
4903000000.000000      4.124603000000000E-01      2.601758000000000E+01      3.024292000000000E-01      1.657969000000000E+02
4904000000.000000      4.119568000000000E-01      2.564941000000000E+01      2.997437000000000E-01      1.653984000000000E+02
4905000000.000000      4.121399000000000E-01      2.543554000000000E+01      2.969360000000000E-01      1.648359000000000E+02
4906000000.000000      4.118500000000000E-01      2.526269000000000E+01      2.933655000000000E-01      1.648750000000000E+02
4907000000.000000      4.104919000000000E-01      2.506054000000000E+01      2.904205000000000E-01      1.643828000000000E+02
4908000000.000000      4.116669000000000E-01      2.490527000000000E+01      2.864838000000000E-01      1.638828000000000E+02
4909000000.000000      4.107361000000000E-01      2.472949000000000E+01      2.827606000000000E-01      1.635313000000000E+02
4910000000.000000      4.103394000000000E-01      2.449316000000000E+01      2.790833000000000E-01      1.633125000000000E+02
4911000000.000000      4.107666000000000E-01      2.432617000000000E+01      2.761841000000000E-01      1.628125000000000E+02
4912000000.000000      4.098206000000000E-01      2.424121000000000E+01      2.729797000000000E-01      1.624063000000000E+02
4913000000.000000      4.117889000000000E-01      2.407031000000000E+01      2.688751000000000E-01      1.620859000000000E+02
4914000000.000000      4.102173000000000E-01      2.376660000000000E+01      2.655945000000000E-01      1.618203000000000E+02
4915000000.000000      4.105225000000000E-01      2.365625000000000E+01      2.615356000000000E-01      1.612890000000000E+02
4916000000.000000      4.102631000000000E-01      2.356152000000000E+01      2.585602000000000E-01      1.608828000000000E+02
4917000000.000000      4.090424000000000E-01      2.327148000000000E+01      2.547150000000000E-01      1.607812000000000E+02
4918000000.000000      4.096527000000000E-01      2.320313000000000E+01      2.504730000000000E-01      1.603594000000000E+02
4919000000.000000      4.086151000000000E-01      2.296777000000000E+01      2.474670000000000E-01      1.603125000000000E+02
4920000000.000000      4.086456000000000E-01      2.273828000000000E+01      2.429123000000000E-01      1.596797000000000E+02
4921000000.000000      4.079590000000000E-01      2.270410000000000E+01      2.402802000000000E-01      1.596016000000000E+02
4922000000.000000      4.093323000000000E-01      2.243750000000000E+01      2.357712000000000E-01      1.594141000000000E+02
4923000000.000000      4.081268000000000E-01      2.225000000000000E+01      2.322922000000000E-01      1.591406000000000E+02
4924000000.000000      4.081268000000000E-01      2.218066000000000E+01      2.280273000000000E-01      1.585938000000000E+02
4925000000.000000      4.078369000000000E-01      2.187304000000000E+01      2.243576000000000E-01      1.585312000000000E+02
4926000000.000000      4.078674000000000E-01      2.188477000000000E+01      2.204666000000000E-01      1.583437000000000E+02
4927000000.000000      4.078217000000000E-01      2.174023000000000E+01      2.164307000000000E-01      1.582891000000000E+02
4928000000.000000      4.078522000000000E-01      2.144726000000000E+01      2.131348000000000E-01      1.581172000000000E+02
4929000000.000000      4.072113000000000E-01      2.126660000000000E+01      2.087173000000000E-01      1.580937000000000E+02
4930000000.000000      4.065857000000000E-01      2.123047000000000E+01      2.047806000000000E-01      1.578828000000000E+02
4931000000.000000      4.057312000000000E-01      2.092968000000000E+01      2.013016000000000E-01      1.577344000000000E+02
4932000000.000000      4.069977000000000E-01      2.078027000000000E+01      1.965866000000000E-01      1.576406000000000E+02
4933000000.000000      4.063110000000000E-01      2.054688000000000E+01      1.921158000000000E-01      1.579297000000000E+02
4934000000.000000      4.065247000000000E-01      2.039746000000000E+01      1.887741000000000E-01      1.578672000000000E+02
4935000000.000000      4.062195000000000E-01      2.041211000000000E+01      1.856079000000000E-01      1.579922000000000E+02
4936000000.000000      4.051666000000000E-01      1.998926000000000E+01      1.816177000000000E-01      1.581563000000000E+02
4937000000.000000      4.058533000000000E-01      1.991406000000000E+01      1.769104000000000E-01      1.581640000000000E+02
4938000000.000000      4.043427000000000E-01      1.999512000000000E+01      1.737900000000000E-01      1.584141000000000E+02
4939000000.000000      4.043579000000000E-01      1.981152000000000E+01      1.699677000000000E-01      1.587109000000000E+02
4940000000.000000      4.044495000000000E-01      1.948926000000000E+01      1.661835000000000E-01      1.588438000000000E+02
4941000000.000000      4.050751000000000E-01      1.923340000000000E+01      1.623230000000000E-01      1.591640000000000E+02
4942000000.000000      4.033813000000000E-01      1.913086000000000E+01      1.584091000000000E-01      1.598125000000000E+02
4943000000.000000      4.034576000000000E-01      1.905762000000000E+01      1.551895000000000E-01      1.601250000000000E+02
4944000000.000000      4.025726000000000E-01      1.882226000000000E+01      1.514511000000000E-01      1.606797000000000E+02
4945000000.000000      4.034882000000000E-01      1.865332000000000E+01      1.478577000000000E-01      1.614687000000000E+02
4946000000.000000      4.031219000000000E-01      1.853711000000000E+01      1.444092000000000E-01      1.620703000000000E+02
4947000000.000000      4.029846000000000E-01      1.835742000000000E+01      1.411591000000000E-01      1.627812000000000E+02
4948000000.000000      4.042969000000000E-01      1.824902000000000E+01      1.379929000000000E-01      1.637266000000000E+02
4949000000.000000      4.023895000000000E-01      1.805566000000000E+01      1.351471000000000E-01      1.648672000000000E+02
4950000000.000000      4.026489000000000E-01      1.791504000000000E+01      1.319046000000000E-01      1.654844000000000E+02
4951000000.000000      4.022675000000000E-01      1.769140000000000E+01      1.294022000000000E-01      1.665469000000000E+02
4952000000.000000      4.014282000000000E-01      1.755176000000000E+01      1.262054000000000E-01      1.677734000000000E+02
4953000000.000000      4.009705000000000E-01      1.745801000000000E+01      1.239014000000000E-01      1.692812000000000E+02
4954000000.000000      4.019165000000000E-01      1.730273000000000E+01      1.213570000000000E-01      1.704531000000000E+02
