! Network Analyzer HP8722D
! Hewlett-Packard
! Data name: Linha & Wilkinson
! Saver's name: Rodrigo Anjos
! Comments: Teste da utilização de aquisição
continua pelo VNA HP8722D
! Time and date: 23/5/2025 15:19
!              Frequency                     S11                                                   S21                                                   S12                                                   S22
# HZ  S  MA R 50
4800000000.000000      2.833557000000000E-01      4.002539000000000E+01      4.860687000000000E-01     -1.295078000000000E+02
4801000000.000000      2.846069000000000E-01      4.033008000000000E+01      4.875946000000000E-01     -1.301875000000000E+02
4802000000.000000      2.857513000000000E-01      4.047071000000000E+01      4.889221000000000E-01     -1.308203000000000E+02
4803000000.000000      2.865906000000000E-01      4.068359000000000E+01      4.912567000000000E-01     -1.314297000000000E+02
4804000000.000000      2.877655000000000E-01      4.097461000000000E+01      4.909821000000000E-01     -1.321719000000000E+02
4805000000.000000      2.894592000000000E-01      4.108788000000000E+01      4.927673000000000E-01     -1.331016000000000E+02
4806000000.000000      2.906342000000000E-01      4.115234000000000E+01      4.953156000000000E-01     -1.337031000000000E+02
4807000000.000000      2.917175000000000E-01      4.145508000000000E+01      4.967804000000000E-01     -1.345234000000000E+02
4808000000.000000      2.930298000000000E-01      4.161718000000000E+01      4.974365000000000E-01     -1.350312000000000E+02
4809000000.000000      2.944946000000000E-01      4.187304000000000E+01      4.989014000000000E-01     -1.361797000000000E+02
4810000000.000000      2.962189000000000E-01      4.191796000000000E+01      5.003357000000000E-01     -1.368281000000000E+02
4811000000.000000      2.981720000000000E-01      4.206445000000000E+01      5.007629000000000E-01     -1.374375000000000E+02
4812000000.000000      3.004456000000000E-01      4.225195000000000E+01      5.026245000000000E-01     -1.383125000000000E+02
4813000000.000000      3.007813000000000E-01      4.244922000000000E+01      5.024719000000000E-01     -1.390156000000000E+02
4814000000.000000      3.025665000000000E-01      4.242188000000000E+01      5.050659000000000E-01     -1.396406000000000E+02
4815000000.000000      3.041534000000000E-01      4.260742000000000E+01      5.049744000000000E-01     -1.404063000000000E+02
4816000000.000000      3.065338000000000E-01      4.266015000000000E+01      5.059509000000000E-01     -1.410469000000000E+02
4817000000.000000      3.077393000000000E-01      4.277148000000000E+01      5.062866000000000E-01     -1.418906000000000E+02
4818000000.000000      3.096313000000000E-01      4.277344000000000E+01      5.069580000000000E-01     -1.426250000000000E+02
4819000000.000000      3.116302000000000E-01      4.277734000000000E+01      5.065613000000000E-01     -1.431797000000000E+02
4820000000.000000      3.123474000000000E-01      4.288476000000000E+01      5.068665000000000E-01     -1.438906000000000E+02
4821000000.000000      3.157654000000000E-01      4.289648000000000E+01      5.071106000000000E-01     -1.447969000000000E+02
4822000000.000000      3.164063000000000E-01      4.277344000000000E+01      5.049133000000000E-01     -1.455547000000000E+02
4823000000.000000      3.182526000000000E-01      4.278710000000000E+01      5.067444000000000E-01     -1.461719000000000E+02
4824000000.000000      3.206482000000000E-01      4.298633000000000E+01      5.066528000000000E-01     -1.470703000000000E+02
4825000000.000000      3.221588000000000E-01      4.276563000000000E+01      5.068665000000000E-01     -1.476797000000000E+02
4826000000.000000      3.237305000000000E-01      4.284765000000000E+01      5.061646000000000E-01     -1.485547000000000E+02
4827000000.000000      3.262787000000000E-01      4.271874000000000E+01      5.067444000000000E-01     -1.492109000000000E+02
4828000000.000000      3.283691000000000E-01      4.267968000000000E+01      5.066528000000000E-01     -1.499453000000000E+02
4829000000.000000      3.295288000000000E-01      4.278320000000000E+01      5.057373000000000E-01     -1.505859000000000E+02
4830000000.000000      3.313751000000000E-01      4.261132000000000E+01      5.061951000000000E-01     -1.513515000000000E+02
4831000000.000000      3.334045000000000E-01      4.249804000000000E+01      5.043335000000000E-01     -1.522266000000000E+02
4832000000.000000      3.350983000000000E-01      4.252149000000000E+01      5.028076000000000E-01     -1.527031000000000E+02
4833000000.000000      3.363800000000000E-01      4.227539000000000E+01      5.026855000000000E-01     -1.533281000000000E+02
4834000000.000000      3.382568000000000E-01      4.228516000000000E+01      5.021667000000000E-01     -1.541563000000000E+02
4835000000.000000      3.403168000000000E-01      4.203321000000000E+01      5.009155000000000E-01     -1.551484000000000E+02
4836000000.000000      3.420258000000000E-01      4.198242000000000E+01      4.996948000000000E-01     -1.556562000000000E+02
4837000000.000000      3.432007000000000E-01      4.194140000000000E+01      4.984131000000000E-01     -1.567266000000000E+02
4838000000.000000      3.444519000000000E-01      4.168750000000000E+01      4.980621000000000E-01     -1.570156000000000E+02
4839000000.000000      3.484497000000000E-01      4.164648000000000E+01      4.974060000000000E-01     -1.578438000000000E+02
4840000000.000000      3.487244000000000E-01      4.142578000000000E+01      4.966736000000000E-01     -1.584922000000000E+02
4841000000.000000      3.506317000000000E-01      4.134961000000000E+01      4.936066000000000E-01     -1.592422000000000E+02
4842000000.000000      3.516693000000000E-01      4.115039000000000E+01      4.932404000000000E-01     -1.599531000000000E+02
4843000000.000000      3.546448000000000E-01      4.087695000000000E+01      4.923401000000000E-01     -1.607500000000000E+02
4844000000.000000      3.558044000000000E-01      4.063281000000000E+01      4.900360000000000E-01     -1.616094000000000E+02
4845000000.000000      3.571167000000000E-01      4.057031000000000E+01      4.889374000000000E-01     -1.620312000000000E+02
4846000000.000000      3.590698000000000E-01      4.031836000000000E+01      4.875183000000000E-01     -1.627031000000000E+02
4847000000.000000      3.604126000000000E-01      4.023438000000000E+01      4.860992000000000E-01     -1.634531000000000E+02
4848000000.000000      3.614502000000000E-01      3.985742000000000E+01      4.838715000000000E-01     -1.640469000000000E+02
4849000000.000000      3.628235000000000E-01      3.962109000000000E+01      4.831085000000000E-01     -1.648359000000000E+02
4850000000.000000      3.643494000000000E-01      3.941015000000000E+01      4.806824000000000E-01     -1.657109000000000E+02
4851000000.000000      3.663635000000000E-01      3.946484000000000E+01      4.798126000000000E-01     -1.662969000000000E+02
4852000000.000000      3.664703000000000E-01      3.906445000000000E+01      4.759674000000000E-01     -1.669219000000000E+02
4853000000.000000      3.684387000000000E-01      3.888867000000000E+01      4.718781000000000E-01     -1.678281000000000E+02
4854000000.000000      3.691406000000000E-01      3.854101000000000E+01      4.729462000000000E-01     -1.684375000000000E+02
4855000000.000000      3.707428000000000E-01      3.842187000000000E+01      4.710693000000000E-01     -1.691719000000000E+02
4856000000.000000      3.718262000000000E-01      3.813867000000000E+01      4.666748000000000E-01     -1.698125000000000E+02
4857000000.000000      3.733063000000000E-01      3.790234000000000E+01      4.665833000000000E-01     -1.704531000000000E+02
4858000000.000000      3.738098000000000E-01      3.758203000000000E+01      4.631500000000000E-01     -1.712734000000000E+02
4859000000.000000      3.760376000000000E-01      3.734375000000000E+01      4.621277000000000E-01     -1.718984000000000E+02
4860000000.000000      3.766022000000000E-01      3.727344000000000E+01      4.585419000000000E-01     -1.726094000000000E+02
4861000000.000000      3.768921000000000E-01      3.690820000000000E+01      4.551239000000000E-01     -1.734375000000000E+02
4862000000.000000      3.775330000000000E-01      3.669531000000000E+01      4.524536000000000E-01     -1.738125000000000E+02
4863000000.000000      3.789978000000000E-01      3.644531000000000E+01      4.494171000000000E-01     -1.749219000000000E+02
4864000000.000000      3.800812000000000E-01      3.612500000000000E+01      4.478607000000000E-01     -1.751406000000000E+02
4865000000.000000      3.810425000000000E-01      3.592382000000000E+01      4.433899000000000E-01     -1.758906000000000E+02
4866000000.000000      3.820801000000000E-01      3.554492000000000E+01      4.414673000000000E-01     -1.766250000000000E+02
4867000000.000000      3.820038000000000E-01      3.537890000000000E+01      4.376373000000000E-01     -1.772500000000000E+02
4868000000.000000      3.829498000000000E-01      3.510742000000000E+01      4.342804000000000E-01     -1.780234000000000E+02
4869000000.000000      3.837585000000000E-01      3.479883000000000E+01      4.321289000000000E-01     -1.786406000000000E+02
4870000000.000000      3.841553000000000E-01      3.453516000000000E+01      4.286804000000000E-01     -1.791641000000000E+02
4871000000.000000      3.846436000000000E-01      3.414844000000000E+01      4.259796000000000E-01     -1.797109000000000E+02
4872000000.000000      3.867035000000000E-01      3.405078000000000E+01      4.214935000000000E-01      1.797031000000000E+02
4873000000.000000      3.865814000000000E-01      3.381445000000000E+01      4.185791000000000E-01      1.789453000000000E+02
4874000000.000000      3.867035000000000E-01      3.360547000000000E+01      4.144287000000000E-01      1.782578000000000E+02
4875000000.000000      3.869476000000000E-01      3.333789000000000E+01      4.115601000000000E-01      1.777656000000000E+02
4876000000.000000      3.879700000000000E-01      3.295898000000000E+01      4.080048000000000E-01      1.772500000000000E+02
4877000000.000000      3.884583000000000E-01      3.264062000000000E+01      4.045563000000000E-01      1.766328000000000E+02
4878000000.000000      3.880005000000000E-01      3.243164000000000E+01      4.019470000000000E-01      1.759219000000000E+02
4879000000.000000      3.891144000000000E-01      3.215820000000000E+01      3.983002000000000E-01      1.756641000000000E+02
4880000000.000000      3.896942000000000E-01      3.191601000000000E+01      3.949890000000000E-01      1.751016000000000E+02
4881000000.000000      3.895721000000000E-01      3.169336000000000E+01      3.904877000000000E-01      1.745078000000000E+02
4882000000.000000      3.899384000000000E-01      3.140429000000000E+01      3.875580000000000E-01      1.737187000000000E+02
4883000000.000000      3.897552000000000E-01      3.100390000000000E+01      3.838348000000000E-01      1.733125000000000E+02
4884000000.000000      3.907166000000000E-01      3.088867000000000E+01      3.791809000000000E-01      1.730078000000000E+02
4885000000.000000      3.909760000000000E-01      3.065820000000000E+01      3.752594000000000E-01      1.726641000000000E+02
4886000000.000000      3.911438000000000E-01      3.049805000000000E+01      3.726807000000000E-01      1.720078000000000E+02
4887000000.000000      3.907776000000000E-01      3.016699000000000E+01      3.694611000000000E-01      1.715391000000000E+02
4888000000.000000      3.901215000000000E-01      2.977246000000000E+01      3.671570000000000E-01      1.708672000000000E+02
4889000000.000000      3.912048000000000E-01      2.956347000000000E+01      3.618774000000000E-01      1.705781000000000E+02
4890000000.000000      3.906555000000000E-01      2.932226000000000E+01      3.583069000000000E-01      1.696563000000000E+02
4891000000.000000      3.911438000000000E-01      2.911230000000000E+01      3.541870000000000E-01      1.695703000000000E+02
4892000000.000000      3.903961000000000E-01      2.889257000000000E+01      3.521729000000000E-01      1.692656000000000E+02
4893000000.000000      3.915863000000000E-01      2.856152000000000E+01      3.475494000000000E-01      1.684062000000000E+02
4894000000.000000      3.904877000000000E-01      2.842968000000000E+01      3.444519000000000E-01      1.680469000000000E+02
4895000000.000000      3.915710000000000E-01      2.824707000000000E+01      3.419800000000000E-01      1.677422000000000E+02
4896000000.000000      3.902588000000000E-01      2.803125000000000E+01      3.383942000000000E-01      1.672812000000000E+02
4897000000.000000      3.896484000000000E-01      2.774414000000000E+01      3.326874000000000E-01      1.669453000000000E+02
4898000000.000000      3.900452000000000E-01      2.762207000000000E+01      3.317871000000000E-01      1.663125000000000E+02
4899000000.000000      3.901215000000000E-01      2.731445000000000E+01      3.269653000000000E-01      1.659219000000000E+02
4900000000.000000      3.897400000000000E-01      2.710938000000000E+01      3.225098000000000E-01      1.658203000000000E+02
4901000000.000000      3.895874000000000E-01      2.689844000000000E+01      3.215027000000000E-01      1.652812000000000E+02
4902000000.000000      3.905182000000000E-01      2.651074000000000E+01      3.173828000000000E-01      1.649922000000000E+02
4903000000.000000      3.908691000000000E-01      2.641308000000000E+01      3.130341000000000E-01      1.645000000000000E+02
4904000000.000000      3.896942000000000E-01      2.611425000000000E+01      3.098602000000000E-01      1.639766000000000E+02
4905000000.000000      3.889771000000000E-01      2.588574000000000E+01      3.071594000000000E-01      1.636484000000000E+02
4906000000.000000      3.886261000000000E-01      2.575195000000000E+01      3.038025000000000E-01      1.635234000000000E+02
4907000000.000000      3.884583000000000E-01      2.555273000000000E+01      3.002930000000000E-01      1.629453000000000E+02
4908000000.000000      3.890533000000000E-01      2.527734000000000E+01      2.970581000000000E-01      1.626094000000000E+02
4909000000.000000      3.877563000000000E-01      2.505957000000000E+01      2.929077000000000E-01      1.622109000000000E+02
4910000000.000000      3.875275000000000E-01      2.497559000000000E+01      2.900085000000000E-01      1.618438000000000E+02
4911000000.000000      3.880157000000000E-01      2.477734000000000E+01      2.864075000000000E-01      1.614844000000000E+02
4912000000.000000      3.873138000000000E-01      2.458593000000000E+01      2.823334000000000E-01      1.609688000000000E+02
4913000000.000000      3.882904000000000E-01      2.430273000000000E+01      2.783203000000000E-01      1.606250000000000E+02
4914000000.000000      3.875732000000000E-01      2.406738000000000E+01      2.752380000000000E-01      1.604687000000000E+02
4915000000.000000      3.873901000000000E-01      2.397559000000000E+01      2.708588000000000E-01      1.598984000000000E+02
4916000000.000000      3.871460000000000E-01      2.383594000000000E+01      2.676239000000000E-01      1.596719000000000E+02
4917000000.000000      3.865051000000000E-01      2.357617000000000E+01      2.643433000000000E-01      1.593203000000000E+02
4918000000.000000      3.861084000000000E-01      2.335938000000000E+01      2.599030000000000E-01      1.589609000000000E+02
4919000000.000000      3.850403000000000E-01      2.326855000000000E+01      2.572784000000000E-01      1.588594000000000E+02
4920000000.000000      3.852844000000000E-01      2.298438000000000E+01      2.527161000000000E-01      1.582031000000000E+02
4921000000.000000      3.847809000000000E-01      2.296093000000000E+01      2.496643000000000E-01      1.581563000000000E+02
4922000000.000000      3.847809000000000E-01      2.267969000000000E+01      2.454071000000000E-01      1.578906000000000E+02
4923000000.000000      3.851013000000000E-01      2.260547000000000E+01      2.408600000000000E-01      1.576094000000000E+02
4924000000.000000      3.850403000000000E-01      2.229492000000000E+01      2.368393000000000E-01      1.571953000000000E+02
4925000000.000000      3.832245000000000E-01      2.219629000000000E+01      2.329636000000000E-01      1.570313000000000E+02
4926000000.000000      3.837891000000000E-01      2.198340000000000E+01      2.293854000000000E-01      1.568281000000000E+02
4927000000.000000      3.835602000000000E-01      2.179688000000000E+01      2.255402000000000E-01      1.566250000000000E+02
4928000000.000000      3.832855000000000E-01      2.157129000000000E+01      2.214203000000000E-01      1.565547000000000E+02
4929000000.000000      3.814087000000000E-01      2.143261000000000E+01      2.167969000000000E-01      1.564687000000000E+02
4930000000.000000      3.833160000000000E-01      2.134863000000000E+01      2.134094000000000E-01      1.561797000000000E+02
4931000000.000000      3.821106000000000E-01      2.110938000000000E+01      2.096710000000000E-01      1.561953000000000E+02
4932000000.000000      3.818970000000000E-01      2.092187000000000E+01      2.047882000000000E-01      1.561641000000000E+02
4933000000.000000      3.815613000000000E-01      2.067871000000000E+01      2.002945000000000E-01      1.563281000000000E+02
4934000000.000000      3.819427000000000E-01      2.054101000000000E+01      1.965790000000000E-01      1.560469000000000E+02
4935000000.000000      3.820496000000000E-01      2.047949000000000E+01      1.933517000000000E-01      1.563516000000000E+02
4936000000.000000      3.813782000000000E-01      2.020215000000000E+01      1.885071000000000E-01      1.562109000000000E+02
4937000000.000000      3.811188000000000E-01      2.002636000000000E+01      1.845322000000000E-01      1.565234000000000E+02
4938000000.000000      3.796387000000000E-01      2.006054000000000E+01      1.812286000000000E-01      1.568047000000000E+02
4939000000.000000      3.804474000000000E-01      1.974316000000000E+01      1.767578000000000E-01      1.569375000000000E+02
4940000000.000000      3.802185000000000E-01      1.960840000000000E+01      1.725922000000000E-01      1.571250000000000E+02
4941000000.000000      3.801880000000000E-01      1.927637000000000E+01      1.689835000000000E-01      1.574922000000000E+02
4942000000.000000      3.789063000000000E-01      1.923828000000000E+01      1.649628000000000E-01      1.579687000000000E+02
4943000000.000000      3.784637000000000E-01      1.907715000000000E+01      1.613312000000000E-01      1.584531000000000E+02
4944000000.000000      3.794403000000000E-01      1.876562000000000E+01      1.578445000000000E-01      1.588750000000000E+02
4945000000.000000      3.778687000000000E-01      1.857715000000000E+01      1.533279000000000E-01      1.595391000000000E+02
4946000000.000000      3.789368000000000E-01      1.860449000000000E+01      1.502609000000000E-01      1.601641000000000E+02
4947000000.000000      3.780060000000000E-01      1.832520000000000E+01      1.468430000000000E-01      1.609531000000000E+02
4948000000.000000      3.778687000000000E-01      1.823730000000000E+01      1.434708000000000E-01      1.616406000000000E+02
4949000000.000000      3.774109000000000E-01      1.800097000000000E+01      1.405945000000000E-01      1.627812000000000E+02
4950000000.000000      3.773041000000000E-01      1.800879000000000E+01      1.369781000000000E-01      1.635391000000000E+02
4951000000.000000      3.772278000000000E-01      1.764941000000000E+01      1.341171000000000E-01      1.645234000000000E+02
4952000000.000000      3.760223000000000E-01      1.745410000000000E+01      1.312943000000000E-01      1.656328000000000E+02
4953000000.000000      3.759155000000000E-01      1.736230000000000E+01      1.288605000000000E-01      1.670469000000000E+02
4954000000.000000      3.761749000000000E-01      1.727734000000000E+01      1.260147000000000E-01      1.683906000000000E+02
