! Network Analyzer HP8722D
! Hewlett-Packard
! Data name: Linha & Wilkinson
! Saver's name: Rodrigo Anjos
! Comments: Teste da utilização de aquisição
continua pelo VNA HP8722D
! Time and date: 23/5/2025 13:15
!              Frequency                     S11                                                   S21                                                   S12                                                   S22
# HZ  S  MA R 50
4800000000.000000      2.859192000000000E-01      3.969727000000000E+01      4.850616000000000E-01     -1.294766000000000E+02
4801000000.000000      2.869720000000000E-01      3.999218000000000E+01      4.858398000000000E-01     -1.301172000000000E+02
4802000000.000000      2.879181000000000E-01      4.013085000000000E+01      4.878693000000000E-01     -1.305938000000000E+02
4803000000.000000      2.886047000000000E-01      4.037890000000000E+01      4.899750000000000E-01     -1.315469000000000E+02
4804000000.000000      2.902222000000000E-01      4.068749000000000E+01      4.924469000000000E-01     -1.320703000000000E+02
4805000000.000000      2.923126000000000E-01      4.072070000000000E+01      4.913940000000000E-01     -1.330078000000000E+02
4806000000.000000      2.923279000000000E-01      4.092382000000000E+01      4.933624000000000E-01     -1.336641000000000E+02
4807000000.000000      2.942657000000000E-01      4.113086000000000E+01      4.938354000000000E-01     -1.343984000000000E+02
4808000000.000000      2.951965000000000E-01      4.128711000000000E+01      4.974365000000000E-01     -1.352422000000000E+02
4809000000.000000      2.969818000000000E-01      4.158984000000000E+01      4.980774000000000E-01     -1.359688000000000E+02
4810000000.000000      2.991333000000000E-01      4.155273000000000E+01      4.982300000000000E-01     -1.365937000000000E+02
4811000000.000000      3.005524000000000E-01      4.168945000000000E+01      5.005798000000000E-01     -1.374844000000000E+02
4812000000.000000      3.025055000000000E-01      4.189649000000000E+01      5.015564000000000E-01     -1.382422000000000E+02
4813000000.000000      3.029175000000000E-01      4.200391000000000E+01      5.026550000000000E-01     -1.388281000000000E+02
4814000000.000000      3.048553000000000E-01      4.208008000000000E+01      5.018005000000000E-01     -1.396328000000000E+02
4815000000.000000      3.063507000000000E-01      4.227539000000000E+01      5.037842000000000E-01     -1.403281000000000E+02
4816000000.000000      3.087158000000000E-01      4.239843000000000E+01      5.047607000000000E-01     -1.410469000000000E+02
4817000000.000000      3.097992000000000E-01      4.241406000000000E+01      5.044556000000000E-01     -1.417422000000000E+02
4818000000.000000      3.116150000000000E-01      4.240234000000000E+01      5.053101000000000E-01     -1.425469000000000E+02
4819000000.000000      3.136597000000000E-01      4.252343000000000E+01      5.052490000000000E-01     -1.432734000000000E+02
4820000000.000000      3.146820000000000E-01      4.257031000000000E+01      5.050659000000000E-01     -1.438281000000000E+02
4821000000.000000      3.172607000000000E-01      4.262891000000000E+01      5.054016000000000E-01     -1.447578000000000E+02
4822000000.000000      3.184204000000000E-01      4.250781000000000E+01      5.047913000000000E-01     -1.454609000000000E+02
4823000000.000000      3.203583000000000E-01      4.252734000000000E+01      5.058899000000000E-01     -1.461406000000000E+02
4824000000.000000      3.221436000000000E-01      4.271093000000000E+01      5.049133000000000E-01     -1.469531000000000E+02
4825000000.000000      3.246307000000000E-01      4.241796000000000E+01      5.043640000000000E-01     -1.476875000000000E+02
4826000000.000000      3.255157000000000E-01      4.249413000000000E+01      5.049438000000000E-01     -1.484609000000000E+02
4827000000.000000      3.282318000000000E-01      4.246875000000000E+01      5.033875000000000E-01     -1.489687000000000E+02
4828000000.000000      3.304443000000000E-01      4.231641000000000E+01      5.041809000000000E-01     -1.498594000000000E+02
4829000000.000000      3.320465000000000E-01      4.240430000000000E+01      5.033875000000000E-01     -1.506719000000000E+02
4830000000.000000      3.330841000000000E-01      4.218163000000000E+01      5.039368000000000E-01     -1.512812000000000E+02
4831000000.000000      3.353424000000000E-01      4.219531000000000E+01      5.024109000000000E-01     -1.520469000000000E+02
4832000000.000000      3.369751000000000E-01      4.219140000000000E+01      5.016785000000000E-01     -1.526016000000000E+02
4833000000.000000      3.381348000000000E-01      4.199219000000000E+01      5.016785000000000E-01     -1.534765000000000E+02
4834000000.000000      3.401489000000000E-01      4.193164000000000E+01      5.001831000000000E-01     -1.541328000000000E+02
4835000000.000000      3.421936000000000E-01      4.172461000000000E+01      5.002747000000000E-01     -1.548047000000000E+02
4836000000.000000      3.445587000000000E-01      4.177539000000000E+01      4.981995000000000E-01     -1.553906000000000E+02
4837000000.000000      3.455200000000000E-01      4.166601000000000E+01      4.966888000000000E-01     -1.566015000000000E+02
4838000000.000000      3.469696000000000E-01      4.145703000000000E+01      4.964447000000000E-01     -1.570469000000000E+02
4839000000.000000      3.500061000000000E-01      4.140038000000000E+01      4.959412000000000E-01     -1.575312000000000E+02
4840000000.000000      3.506775000000000E-01      4.113281000000000E+01      4.955597000000000E-01     -1.583672000000000E+02
4841000000.000000      3.523560000000000E-01      4.108398000000000E+01      4.942017000000000E-01     -1.591640000000000E+02
4842000000.000000      3.542480000000000E-01      4.080274000000000E+01      4.926147000000000E-01     -1.597734000000000E+02
4843000000.000000      3.566895000000000E-01      4.055078000000000E+01      4.902649000000000E-01     -1.605000000000000E+02
4844000000.000000      3.574371000000000E-01      4.032617000000000E+01      4.885712000000000E-01     -1.612656000000000E+02
4845000000.000000      3.588257000000000E-01      4.035546000000000E+01      4.879456000000000E-01     -1.618359000000000E+02
4846000000.000000      3.607483000000000E-01      4.002539000000000E+01      4.867859000000000E-01     -1.626094000000000E+02
4847000000.000000      3.623657000000000E-01      3.989453000000000E+01      4.855042000000000E-01     -1.633594000000000E+02
4848000000.000000      3.626862000000000E-01      3.969336000000000E+01      4.812622000000000E-01     -1.640000000000000E+02
4849000000.000000      3.650360000000000E-01      3.932226000000000E+01      4.813690000000000E-01     -1.646797000000000E+02
4850000000.000000      3.655090000000000E-01      3.928711000000000E+01      4.787903000000000E-01     -1.655703000000000E+02
4851000000.000000      3.675537000000000E-01      3.914844000000000E+01      4.780426000000000E-01     -1.662188000000000E+02
4852000000.000000      3.685608000000000E-01      3.882421000000000E+01      4.746246000000000E-01     -1.670938000000000E+02
4853000000.000000      3.706665000000000E-01      3.866601000000000E+01      4.722137000000000E-01     -1.676563000000000E+02
4854000000.000000      3.716888000000000E-01      3.832422000000000E+01      4.712524000000000E-01     -1.684062000000000E+02
4855000000.000000      3.723145000000000E-01      3.816406000000000E+01      4.689789000000000E-01     -1.690625000000000E+02
4856000000.000000      3.741455000000000E-01      3.785547000000000E+01      4.661407000000000E-01     -1.697109000000000E+02
4857000000.000000      3.750458000000000E-01      3.778320000000000E+01      4.647064000000000E-01     -1.703906000000000E+02
4858000000.000000      3.759003000000000E-01      3.741796000000000E+01      4.615784000000000E-01     -1.709687000000000E+02
4859000000.000000      3.772430000000000E-01      3.715820000000000E+01      4.601593000000000E-01     -1.718984000000000E+02
4860000000.000000      3.779449000000000E-01      3.706640000000000E+01      4.563904000000000E-01     -1.725625000000000E+02
4861000000.000000      3.791046000000000E-01      3.675976000000000E+01      4.540100000000000E-01     -1.733047000000000E+02
4862000000.000000      3.794556000000000E-01      3.644531000000000E+01      4.516754000000000E-01     -1.737344000000000E+02
4863000000.000000      3.815002000000000E-01      3.617383000000000E+01      4.479523000000000E-01     -1.744375000000000E+02
4864000000.000000      3.821716000000000E-01      3.589062000000000E+01      4.464569000000000E-01     -1.750859000000000E+02
4865000000.000000      3.828125000000000E-01      3.559765000000000E+01      4.426727000000000E-01     -1.757266000000000E+02
4866000000.000000      3.835297000000000E-01      3.545703000000000E+01      4.389496000000000E-01     -1.765312000000000E+02
4867000000.000000      3.836212000000000E-01      3.520898000000000E+01      4.375916000000000E-01     -1.771953000000000E+02
4868000000.000000      3.847961000000000E-01      3.490039000000000E+01      4.334106000000000E-01     -1.777969000000000E+02
4869000000.000000      3.853455000000000E-01      3.462891000000000E+01      4.296112000000000E-01     -1.785078000000000E+02
4870000000.000000      3.863983000000000E-01      3.445117000000000E+01      4.266205000000000E-01     -1.790781000000000E+02
4871000000.000000      3.862915000000000E-01      3.398438000000000E+01      4.236145000000000E-01     -1.796016000000000E+02
4872000000.000000      3.873444000000000E-01      3.388476000000000E+01      4.196625000000000E-01      1.798594000000000E+02
4873000000.000000      3.885651000000000E-01      3.367188000000000E+01      4.177704000000000E-01      1.791406000000000E+02
4874000000.000000      3.883362000000000E-01      3.337109000000000E+01      4.126740000000000E-01      1.782969000000000E+02
4875000000.000000      3.890991000000000E-01      3.294922000000000E+01      4.104614000000000E-01      1.778437000000000E+02
4876000000.000000      3.899231000000000E-01      3.279101000000000E+01      4.077454000000000E-01      1.772500000000000E+02
4877000000.000000      3.898621000000000E-01      3.239258000000000E+01      4.035950000000000E-01      1.766406000000000E+02
4878000000.000000      3.905487000000000E-01      3.215820000000000E+01      4.008179000000000E-01      1.761406000000000E+02
4879000000.000000      3.916473000000000E-01      3.208789000000000E+01      3.963013000000000E-01      1.758125000000000E+02
4880000000.000000      3.922119000000000E-01      3.166504000000000E+01      3.932953000000000E-01      1.750156000000000E+02
4881000000.000000      3.919983000000000E-01      3.146973000000000E+01      3.898773000000000E-01      1.745703000000000E+02
4882000000.000000      3.924866000000000E-01      3.132129000000000E+01      3.877869000000000E-01      1.740547000000000E+02
4883000000.000000      3.921356000000000E-01      3.094141000000000E+01      3.824463000000000E-01      1.735781000000000E+02
4884000000.000000      3.929749000000000E-01      3.075390000000000E+01      3.784332000000000E-01      1.730781000000000E+02
4885000000.000000      3.932037000000000E-01      3.045507000000000E+01      3.754730000000000E-01      1.727109000000000E+02
4886000000.000000      3.934631000000000E-01      3.026269000000000E+01      3.719177000000000E-01      1.721484000000000E+02
4887000000.000000      3.928375000000000E-01      3.003515000000000E+01      3.685455000000000E-01      1.715234000000000E+02
4888000000.000000      3.932495000000000E-01      2.954199000000000E+01      3.660736000000000E-01      1.708203000000000E+02
4889000000.000000      3.928070000000000E-01      2.941699000000000E+01      3.603668000000000E-01      1.705234000000000E+02
4890000000.000000      3.919983000000000E-01      2.917969000000000E+01      3.572998000000000E-01      1.701328000000000E+02
4891000000.000000      3.933868000000000E-01      2.887402000000000E+01      3.544312000000000E-01      1.694844000000000E+02
4892000000.000000      3.926697000000000E-01      2.882519000000000E+01      3.493042000000000E-01      1.692422000000000E+02
4893000000.000000      3.934021000000000E-01      2.852734000000000E+01      3.469543000000000E-01      1.687187000000000E+02
4894000000.000000      3.932190000000000E-01      2.830957000000000E+01      3.433075000000000E-01      1.683047000000000E+02
4895000000.000000      3.932190000000000E-01      2.806445000000000E+01      3.408508000000000E-01      1.681406000000000E+02
4896000000.000000      3.925781000000000E-01      2.780468000000000E+01      3.364716000000000E-01      1.674922000000000E+02
4897000000.000000      3.928986000000000E-01      2.756445000000000E+01      3.331451000000000E-01      1.670781000000000E+02
4898000000.000000      3.920135000000000E-01      2.734570000000000E+01      3.287964000000000E-01      1.667969000000000E+02
4899000000.000000      3.919220000000000E-01      2.714550000000000E+01      3.261414000000000E-01      1.661953000000000E+02
4900000000.000000      3.927765000000000E-01      2.681347000000000E+01      3.235626000000000E-01      1.658047000000000E+02
4901000000.000000      3.915558000000000E-01      2.674316000000000E+01      3.191223000000000E-01      1.653984000000000E+02
4902000000.000000      3.919525000000000E-01      2.655078000000000E+01      3.162079000000000E-01      1.651328000000000E+02
4903000000.000000      3.924255000000000E-01      2.635058000000000E+01      3.120880000000000E-01      1.647812000000000E+02
4904000000.000000      3.919830000000000E-01      2.604785000000000E+01      3.083038000000000E-01      1.642891000000000E+02
4905000000.000000      3.904266000000000E-01      2.581347000000000E+01      3.059540000000000E-01      1.637500000000000E+02
4906000000.000000      3.905182000000000E-01      2.576660000000000E+01      3.018341000000000E-01      1.637344000000000E+02
4907000000.000000      3.906403000000000E-01      2.545117000000000E+01      2.996216000000000E-01      1.630703000000000E+02
4908000000.000000      3.918457000000000E-01      2.521289000000000E+01      2.954712000000000E-01      1.625547000000000E+02
4909000000.000000      3.896179000000000E-01      2.503027000000000E+01      2.922821000000000E-01      1.623281000000000E+02
4910000000.000000      3.891144000000000E-01      2.484082000000000E+01      2.884369000000000E-01      1.618125000000000E+02
4911000000.000000      3.904419000000000E-01      2.476660000000000E+01      2.850494000000000E-01      1.615781000000000E+02
4912000000.000000      3.895569000000000E-01      2.454004000000000E+01      2.812195000000000E-01      1.610703000000000E+02
4913000000.000000      3.897705000000000E-01      2.426953000000000E+01      2.787323000000000E-01      1.607734000000000E+02
4914000000.000000      3.894501000000000E-01      2.406738000000000E+01      2.747498000000000E-01      1.606094000000000E+02
4915000000.000000      3.891907000000000E-01      2.394824000000000E+01      2.706757000000000E-01      1.599219000000000E+02
4916000000.000000      3.887482000000000E-01      2.371192000000000E+01      2.667999000000000E-01      1.596250000000000E+02
4917000000.000000      3.890991000000000E-01      2.357617000000000E+01      2.630463000000000E-01      1.594063000000000E+02
4918000000.000000      3.886719000000000E-01      2.331347000000000E+01      2.587433000000000E-01      1.591406000000000E+02
4919000000.000000      3.881378000000000E-01      2.321484000000000E+01      2.558746000000000E-01      1.590078000000000E+02
4920000000.000000      3.876495000000000E-01      2.298730000000000E+01      2.522583000000000E-01      1.584297000000000E+02
4921000000.000000      3.874207000000000E-01      2.295312000000000E+01      2.486954000000000E-01      1.581797000000000E+02
4922000000.000000      3.871460000000000E-01      2.256445000000000E+01      2.438431000000000E-01      1.580469000000000E+02
4923000000.000000      3.868561000000000E-01      2.251172000000000E+01      2.396622000000000E-01      1.577422000000000E+02
4924000000.000000      3.872528000000000E-01      2.230762000000000E+01      2.360535000000000E-01      1.573750000000000E+02
4925000000.000000      3.865814000000000E-01      2.208984000000000E+01      2.326355000000000E-01      1.571719000000000E+02
4926000000.000000      3.856049000000000E-01      2.196289000000000E+01      2.286530000000000E-01      1.569219000000000E+02
4927000000.000000      3.864288000000000E-01      2.175683000000000E+01      2.242508000000000E-01      1.568125000000000E+02
4928000000.000000      3.857269000000000E-01      2.141894000000000E+01      2.207870000000000E-01      1.566250000000000E+02
4929000000.000000      3.847198000000000E-01      2.138476000000000E+01      2.162704000000000E-01      1.565703000000000E+02
4930000000.000000      3.850861000000000E-01      2.117285000000000E+01      2.126617000000000E-01      1.563672000000000E+02
4931000000.000000      3.840027000000000E-01      2.085059000000000E+01      2.089386000000000E-01      1.562578000000000E+02
4932000000.000000      3.847504000000000E-01      2.087500000000000E+01      2.040863000000000E-01      1.563125000000000E+02
4933000000.000000      3.842468000000000E-01      2.072949000000000E+01      1.996307000000000E-01      1.563828000000000E+02
4934000000.000000      3.852386000000000E-01      2.050781000000000E+01      1.963501000000000E-01      1.562578000000000E+02
4935000000.000000      3.845825000000000E-01      2.037500000000000E+01      1.922073000000000E-01      1.565703000000000E+02
4936000000.000000      3.824921000000000E-01      2.004590000000000E+01      1.881104000000000E-01      1.565547000000000E+02
4937000000.000000      3.841095000000000E-01      1.997949000000000E+01      1.841736000000000E-01      1.566484000000000E+02
4938000000.000000      3.834839000000000E-01      1.985742000000000E+01      1.799393000000000E-01      1.567344000000000E+02
4939000000.000000      3.831482000000000E-01      1.969922000000000E+01      1.759644000000000E-01      1.571172000000000E+02
4940000000.000000      3.822784000000000E-01      1.945117000000000E+01      1.723251000000000E-01      1.573203000000000E+02
4941000000.000000      3.825378000000000E-01      1.938477000000000E+01      1.679306000000000E-01      1.577109000000000E+02
4942000000.000000      3.817749000000000E-01      1.923144000000000E+01      1.641998000000000E-01      1.580469000000000E+02
4943000000.000000      3.814545000000000E-01      1.896094000000000E+01      1.609268000000000E-01      1.586016000000000E+02
4944000000.000000      3.818512000000000E-01      1.868359000000000E+01      1.571579000000000E-01      1.589453000000000E+02
4945000000.000000      3.811493000000000E-01      1.864062000000000E+01      1.532059000000000E-01      1.594375000000000E+02
4946000000.000000      3.812103000000000E-01      1.860742000000000E+01      1.498260000000000E-01      1.602266000000000E+02
4947000000.000000      3.805389000000000E-01      1.829687000000000E+01      1.460342000000000E-01      1.610547000000000E+02
4948000000.000000      3.806610000000000E-01      1.822851000000000E+01      1.431198000000000E-01      1.619297000000000E+02
4949000000.000000      3.794708000000000E-01      1.784863000000000E+01      1.397171000000000E-01      1.628281000000000E+02
4950000000.000000      3.802032000000000E-01      1.791992000000000E+01      1.362457000000000E-01      1.638203000000000E+02
4951000000.000000      3.800812000000000E-01      1.764258000000000E+01      1.337280000000000E-01      1.646563000000000E+02
4952000000.000000      3.785248000000000E-01      1.752539000000000E+01      1.306381000000000E-01      1.658594000000000E+02
4953000000.000000      3.781891000000000E-01      1.725488000000000E+01      1.283798000000000E-01      1.672188000000000E+02
4954000000.000000      3.791046000000000E-01      1.725879000000000E+01      1.257324000000000E-01      1.685625000000000E+02
