! Network Analyzer HP8722D
! Hewlett-Packard
! Data name: Linha & Wilkinson
! Saver's name: Rodrigo Anjos
! Comments: Teste da utilização de aquisição
continua pelo VNA HP8722D
! Time and date: 23/5/2025 09:15
!              Frequency                     S11                                                   S21                                                   S12                                                   S22
# HZ  S  MA R 50
4800000000.000000      3.347168000000000E-01      3.528515000000000E+01      4.587097000000000E-01     -1.263086000000000E+02
4801000000.000000      3.357849000000000E-01      3.553320000000000E+01      4.610748000000000E-01     -1.269219000000000E+02
4802000000.000000      3.354797000000000E-01      3.566797000000000E+01      4.622345000000000E-01     -1.275977000000000E+02
4803000000.000000      3.367157000000000E-01      3.583593000000000E+01      4.643402000000000E-01     -1.282344000000000E+02
4804000000.000000      3.369293000000000E-01      3.605273000000000E+01      4.659271000000000E-01     -1.290625000000000E+02
4805000000.000000      3.390808000000000E-01      3.613086000000000E+01      4.675598000000000E-01     -1.299687000000000E+02
4806000000.000000      3.391418000000000E-01      3.627734000000000E+01      4.689026000000000E-01     -1.303828000000000E+02
4807000000.000000      3.399200000000000E-01      3.645508000000000E+01      4.689789000000000E-01     -1.315469000000000E+02
4808000000.000000      3.404541000000000E-01      3.665234000000000E+01      4.710693000000000E-01     -1.319297000000000E+02
4809000000.000000      3.419495000000000E-01      3.685351000000000E+01      4.727325000000000E-01     -1.329375000000000E+02
4810000000.000000      3.433533000000000E-01      3.693554000000000E+01      4.733582000000000E-01     -1.334219000000000E+02
4811000000.000000      3.449249000000000E-01      3.714844000000000E+01      4.742737000000000E-01     -1.342734000000000E+02
4812000000.000000      3.466492000000000E-01      3.728125000000000E+01      4.750366000000000E-01     -1.351484000000000E+02
4813000000.000000      3.472290000000000E-01      3.745703000000000E+01      4.757233000000000E-01     -1.357188000000000E+02
4814000000.000000      3.479767000000000E-01      3.733593000000000E+01      4.766541000000000E-01     -1.362578000000000E+02
4815000000.000000      3.492737000000000E-01      3.755859000000000E+01      4.777527000000000E-01     -1.371328000000000E+02
4816000000.000000      3.516235000000000E-01      3.767773000000000E+01      4.784698000000000E-01     -1.378594000000000E+02
4817000000.000000      3.524933000000000E-01      3.784570000000000E+01      4.781494000000000E-01     -1.387266000000000E+02
4818000000.000000      3.539429000000000E-01      3.778711000000000E+01      4.788666000000000E-01     -1.394687000000000E+02
4819000000.000000      3.553314000000000E-01      3.787500000000000E+01      4.783173000000000E-01     -1.400938000000000E+02
4820000000.000000      3.561859000000000E-01      3.793750000000000E+01      4.788971000000000E-01     -1.406094000000000E+02
4821000000.000000      3.585052000000000E-01      3.800781000000000E+01      4.789124000000000E-01     -1.415547000000000E+02
4822000000.000000      3.591919000000000E-01      3.788086000000000E+01      4.783783000000000E-01     -1.422109000000000E+02
4823000000.000000      3.613892000000000E-01      3.803711000000000E+01      4.803772000000000E-01     -1.429688000000000E+02
4824000000.000000      3.628387000000000E-01      3.809570000000000E+01      4.778748000000000E-01     -1.438047000000000E+02
4825000000.000000      3.646851000000000E-01      3.805273000000000E+01      4.783325000000000E-01     -1.443281000000000E+02
4826000000.000000      3.659058000000000E-01      3.795703000000000E+01      4.794769000000000E-01     -1.452734000000000E+02
4827000000.000000      3.677216000000000E-01      3.805664000000000E+01      4.781647000000000E-01     -1.458047000000000E+02
4828000000.000000      3.702850000000000E-01      3.801953000000000E+01      4.787903000000000E-01     -1.466094000000000E+02
4829000000.000000      3.715973000000000E-01      3.816211000000000E+01      4.771271000000000E-01     -1.473516000000000E+02
4830000000.000000      3.726501000000000E-01      3.800976000000000E+01      4.784851000000000E-01     -1.480625000000000E+02
4831000000.000000      3.739929000000000E-01      3.798047000000000E+01      4.771576000000000E-01     -1.489687000000000E+02
4832000000.000000      3.757019000000000E-01      3.799609000000000E+01      4.762268000000000E-01     -1.495391000000000E+02
4833000000.000000      3.765717000000000E-01      3.789258000000000E+01      4.752960000000000E-01     -1.502031000000000E+02
4834000000.000000      3.781128000000000E-01      3.786914000000000E+01      4.745789000000000E-01     -1.509375000000000E+02
4835000000.000000      3.811493000000000E-01      3.772265000000000E+01      4.744568000000000E-01     -1.518672000000000E+02
4836000000.000000      3.823700000000000E-01      3.775586000000000E+01      4.728699000000000E-01     -1.523984000000000E+02
4837000000.000000      3.830566000000000E-01      3.776172000000000E+01      4.725952000000000E-01     -1.532812000000000E+02
4838000000.000000      3.850250000000000E-01      3.749609000000000E+01      4.714355000000000E-01     -1.538516000000000E+02
4839000000.000000      3.886108000000000E-01      3.750977000000000E+01      4.702911000000000E-01     -1.547031000000000E+02
4840000000.000000      3.887787000000000E-01      3.729883000000000E+01      4.701538000000000E-01     -1.552109000000000E+02
4841000000.000000      3.906403000000000E-01      3.736133000000000E+01      4.685822000000000E-01     -1.560625000000000E+02
4842000000.000000      3.914337000000000E-01      3.711523000000000E+01      4.673920000000000E-01     -1.564687000000000E+02
4843000000.000000      3.943787000000000E-01      3.694726000000000E+01      4.667053000000000E-01     -1.574141000000000E+02
4844000000.000000      3.949890000000000E-01      3.680273000000000E+01      4.635620000000000E-01     -1.582344000000000E+02
4845000000.000000      3.962097000000000E-01      3.680273000000000E+01      4.636383000000000E-01     -1.587891000000000E+02
4846000000.000000      3.981628000000000E-01      3.654882000000000E+01      4.615326000000000E-01     -1.595859000000000E+02
4847000000.000000      4.001465000000000E-01      3.657617000000000E+01      4.606476000000000E-01     -1.601953000000000E+02
4848000000.000000      4.008179000000000E-01      3.634375000000000E+01      4.578857000000000E-01     -1.608359000000000E+02
4849000000.000000      4.021149000000000E-01      3.607226000000000E+01      4.563904000000000E-01     -1.616328000000000E+02
4850000000.000000      4.031830000000000E-01      3.597265000000000E+01      4.549255000000000E-01     -1.623984000000000E+02
4851000000.000000      4.050903000000000E-01      3.598437000000000E+01      4.544983000000000E-01     -1.632734000000000E+02
4852000000.000000      4.062653000000000E-01      3.573828000000000E+01      4.507294000000000E-01     -1.638828000000000E+02
4853000000.000000      4.076996000000000E-01      3.547070000000000E+01      4.485626000000000E-01     -1.646016000000000E+02
4854000000.000000      4.088898000000000E-01      3.537304000000000E+01      4.468079000000000E-01     -1.653125000000000E+02
4855000000.000000      4.103851000000000E-01      3.513672000000000E+01      4.458923000000000E-01     -1.660859000000000E+02
4856000000.000000      4.113922000000000E-01      3.496094000000000E+01      4.416504000000000E-01     -1.667891000000000E+02
4857000000.000000      4.127960000000000E-01      3.492188000000000E+01      4.422302000000000E-01     -1.673125000000000E+02
4858000000.000000      4.134369000000000E-01      3.450000000000000E+01      4.401093000000000E-01     -1.680703000000000E+02
4859000000.000000      4.147186000000000E-01      3.435351000000000E+01      4.365692000000000E-01     -1.688984000000000E+02
4860000000.000000      4.159088000000000E-01      3.428125000000000E+01      4.329529000000000E-01     -1.696484000000000E+02
4861000000.000000      4.162903000000000E-01      3.401367000000000E+01      4.311066000000000E-01     -1.704141000000000E+02
4862000000.000000      4.173279000000000E-01      3.381054000000000E+01      4.296417000000000E-01     -1.708672000000000E+02
4863000000.000000      4.192047000000000E-01      3.361914000000000E+01      4.248657000000000E-01     -1.716016000000000E+02
4864000000.000000      4.203796000000000E-01      3.340820000000000E+01      4.234772000000000E-01     -1.723047000000000E+02
4865000000.000000      4.200592000000000E-01      3.317383000000000E+01      4.210968000000000E-01     -1.730703000000000E+02
4866000000.000000      4.215546000000000E-01      3.288671000000000E+01      4.163818000000000E-01     -1.736797000000000E+02
4867000000.000000      4.216919000000000E-01      3.274609000000000E+01      4.158630000000000E-01     -1.744922000000000E+02
4868000000.000000      4.229279000000000E-01      3.259570000000000E+01      4.120178000000000E-01     -1.750156000000000E+02
4869000000.000000      4.230804000000000E-01      3.236523000000000E+01      4.087677000000000E-01     -1.756641000000000E+02
4870000000.000000      4.243011000000000E-01      3.204687000000000E+01      4.055481000000000E-01     -1.761484000000000E+02
4871000000.000000      4.251556000000000E-01      3.199219000000000E+01      4.031372000000000E-01     -1.770078000000000E+02
4872000000.000000      4.265137000000000E-01      3.173730000000000E+01      3.992310000000000E-01     -1.773828000000000E+02
4873000000.000000      4.269409000000000E-01      3.151367000000000E+01      3.962250000000000E-01     -1.782266000000000E+02
4874000000.000000      4.273529000000000E-01      3.132715000000000E+01      3.922424000000000E-01     -1.789531000000000E+02
4875000000.000000      4.283600000000000E-01      3.094922000000000E+01      3.890381000000000E-01     -1.793906000000000E+02
4876000000.000000      4.290009000000000E-01      3.094922000000000E+01      3.861389000000000E-01      1.797812000000000E+02
4877000000.000000      4.300079000000000E-01      3.053906000000000E+01      3.829193000000000E-01      1.793516000000000E+02
4878000000.000000      4.292603000000000E-01      3.031347000000000E+01      3.796539000000000E-01      1.787031000000000E+02
4879000000.000000      4.306335000000000E-01      3.019043000000000E+01      3.744659000000000E-01      1.781875000000000E+02
4880000000.000000      4.307098000000000E-01      2.997265000000000E+01      3.712616000000000E-01      1.777422000000000E+02
4881000000.000000      4.311371000000000E-01      2.971386000000000E+01      3.687134000000000E-01      1.773828000000000E+02
4882000000.000000      4.322510000000000E-01      2.951465000000000E+01      3.651733000000000E-01      1.765312000000000E+02
4883000000.000000      4.316254000000000E-01      2.925879000000000E+01      3.613434000000000E-01      1.760937000000000E+02
4884000000.000000      4.327698000000000E-01      2.908398000000000E+01      3.588257000000000E-01      1.758437000000000E+02
4885000000.000000      4.329376000000000E-01      2.885644000000000E+01      3.539734000000000E-01      1.752500000000000E+02
4886000000.000000      4.334412000000000E-01      2.874218000000000E+01      3.523560000000000E-01      1.748437000000000E+02
4887000000.000000      4.338074000000000E-01      2.848828000000000E+01      3.473816000000000E-01      1.741641000000000E+02
4888000000.000000      4.331970000000000E-01      2.819336000000000E+01      3.453369000000000E-01      1.735859000000000E+02
4889000000.000000      4.339600000000000E-01      2.812597000000000E+01      3.411713000000000E-01      1.731562000000000E+02
4890000000.000000      4.323273000000000E-01      2.771484000000000E+01      3.373108000000000E-01      1.724766000000000E+02
4891000000.000000      4.331207000000000E-01      2.765625000000000E+01      3.335571000000000E-01      1.721406000000000E+02
4892000000.000000      4.334259000000000E-01      2.745703000000000E+01      3.299408000000000E-01      1.719609000000000E+02
4893000000.000000      4.350281000000000E-01      2.717187000000000E+01      3.273468000000000E-01      1.713047000000000E+02
4894000000.000000      4.341888000000000E-01      2.704199000000000E+01      3.239594000000000E-01      1.708984000000000E+02
4895000000.000000      4.356842000000000E-01      2.669531000000000E+01      3.210602000000000E-01      1.705000000000000E+02
4896000000.000000      4.331360000000000E-01      2.658105000000000E+01      3.177948000000000E-01      1.701172000000000E+02
4897000000.000000      4.331665000000000E-01      2.637890000000000E+01      3.126984000000000E-01      1.696172000000000E+02
4898000000.000000      4.337158000000000E-01      2.630762000000000E+01      3.110199000000000E-01      1.692500000000000E+02
4899000000.000000      4.331207000000000E-01      2.601758000000000E+01      3.068695000000000E-01      1.687578000000000E+02
4900000000.000000      4.338074000000000E-01      2.582129000000000E+01      3.041382000000000E-01      1.685390000000000E+02
4901000000.000000      4.337921000000000E-01      2.573242000000000E+01      3.003235000000000E-01      1.681015000000000E+02
4902000000.000000      4.335022000000000E-01      2.548242000000000E+01      2.971039000000000E-01      1.677266000000000E+02
4903000000.000000      4.345245000000000E-01      2.532031000000000E+01      2.940521000000000E-01      1.672969000000000E+02
4904000000.000000      4.345856000000000E-01      2.501367000000000E+01      2.907715000000000E-01      1.667344000000000E+02
4905000000.000000      4.334259000000000E-01      2.488476000000000E+01      2.873840000000000E-01      1.663437000000000E+02
4906000000.000000      4.335480000000000E-01      2.466015000000000E+01      2.833557000000000E-01      1.663672000000000E+02
4907000000.000000      4.333191000000000E-01      2.453613000000000E+01      2.808533000000000E-01      1.657422000000000E+02
4908000000.000000      4.328156000000000E-01      2.438086000000000E+01      2.780457000000000E-01      1.652344000000000E+02
4909000000.000000      4.324951000000000E-01      2.421777000000000E+01      2.737274000000000E-01      1.650312000000000E+02
4910000000.000000      4.328003000000000E-01      2.410742000000000E+01      2.707977000000000E-01      1.645391000000000E+02
4911000000.000000      4.333649000000000E-01      2.394043000000000E+01      2.674713000000000E-01      1.643203000000000E+02
4912000000.000000      4.317169000000000E-01      2.366309000000000E+01      2.639160000000000E-01      1.638828000000000E+02
4913000000.000000      4.322205000000000E-01      2.358398000000000E+01      2.599792000000000E-01      1.634375000000000E+02
4914000000.000000      4.334412000000000E-01      2.335938000000000E+01      2.566681000000000E-01      1.633594000000000E+02
4915000000.000000      4.319153000000000E-01      2.322558000000000E+01      2.536926000000000E-01      1.627422000000000E+02
4916000000.000000      4.325714000000000E-01      2.308887000000000E+01      2.502747000000000E-01      1.625859000000000E+02
4917000000.000000      4.318695000000000E-01      2.283886000000000E+01      2.463226000000000E-01      1.622890000000000E+02
4918000000.000000      4.316101000000000E-01      2.269433000000000E+01      2.426834000000000E-01      1.618984000000000E+02
4919000000.000000      4.306793000000000E-01      2.268457000000000E+01      2.394638000000000E-01      1.619062000000000E+02
4920000000.000000      4.315186000000000E-01      2.235840000000000E+01      2.356491000000000E-01      1.613047000000000E+02
4921000000.000000      4.310303000000000E-01      2.224414000000000E+01      2.312775000000000E-01      1.610781000000000E+02
4922000000.000000      4.319763000000000E-01      2.211524000000000E+01      2.285080000000000E-01      1.608047000000000E+02
4923000000.000000      4.308624000000000E-01      2.194238000000000E+01      2.243729000000000E-01      1.606797000000000E+02
4924000000.000000      4.313660000000000E-01      2.182422000000000E+01      2.200317000000000E-01      1.601719000000000E+02
4925000000.000000      4.300995000000000E-01      2.154492000000000E+01      2.170792000000000E-01      1.602656000000000E+02
4926000000.000000      4.305115000000000E-01      2.151465000000000E+01      2.135010000000000E-01      1.600000000000000E+02
4927000000.000000      4.306488000000000E-01      2.120703000000000E+01      2.089081000000000E-01      1.597812000000000E+02
4928000000.000000      4.306030000000000E-01      2.111230000000000E+01      2.058105000000000E-01      1.597734000000000E+02
4929000000.000000      4.286804000000000E-01      2.086230000000000E+01      2.017365000000000E-01      1.597031000000000E+02
4930000000.000000      4.299316000000000E-01      2.082031000000000E+01      1.984482000000000E-01      1.595078000000000E+02
4931000000.000000      4.299774000000000E-01      2.054980000000000E+01      1.944733000000000E-01      1.595391000000000E+02
4932000000.000000      4.296875000000000E-01      2.043262000000000E+01      1.905823000000000E-01      1.594297000000000E+02
4933000000.000000      4.290009000000000E-01      2.029297000000000E+01      1.862030000000000E-01      1.596016000000000E+02
4934000000.000000      4.297333000000000E-01      2.025293000000000E+01      1.822586000000000E-01      1.594531000000000E+02
4935000000.000000      4.294281000000000E-01      2.002441000000000E+01      1.795959000000000E-01      1.597265000000000E+02
4936000000.000000      4.277954000000000E-01      1.992285000000000E+01      1.750183000000000E-01      1.596172000000000E+02
4937000000.000000      4.287109000000000E-01      1.961035000000000E+01      1.718369000000000E-01      1.598203000000000E+02
4938000000.000000      4.277954000000000E-01      1.957129000000000E+01      1.677780000000000E-01      1.601953000000000E+02
4939000000.000000      4.272461000000000E-01      1.951367000000000E+01      1.641846000000000E-01      1.604922000000000E+02
4940000000.000000      4.282227000000000E-01      1.930762000000000E+01      1.599960000000000E-01      1.606953000000000E+02
4941000000.000000      4.274597000000000E-01      1.907617000000000E+01      1.569366000000000E-01      1.611328000000000E+02
4942000000.000000      4.257660000000000E-01      1.901953000000000E+01      1.531906000000000E-01      1.613984000000000E+02
4943000000.000000      4.281311000000000E-01      1.889746000000000E+01      1.496887000000000E-01      1.621172000000000E+02
4944000000.000000      4.272461000000000E-01      1.860059000000000E+01      1.460876000000000E-01      1.625469000000000E+02
4945000000.000000      4.259796000000000E-01      1.846387000000000E+01      1.425934000000000E-01      1.632422000000000E+02
4946000000.000000      4.269562000000000E-01      1.847168000000000E+01      1.393280000000000E-01      1.639609000000000E+02
4947000000.000000      4.267120000000000E-01      1.834375000000000E+01      1.359634000000000E-01      1.647500000000000E+02
4948000000.000000      4.271698000000000E-01      1.803125000000000E+01      1.333618000000000E-01      1.654453000000000E+02
4949000000.000000      4.250336000000000E-01      1.796094000000000E+01      1.300964000000000E-01      1.668047000000000E+02
4950000000.000000      4.258270000000000E-01      1.783398000000000E+01      1.274414000000000E-01      1.677891000000000E+02
4951000000.000000      4.259033000000000E-01      1.768066000000000E+01      1.242638000000000E-01      1.686250000000000E+02
4952000000.000000      4.246216000000000E-01      1.738281000000000E+01      1.218491000000000E-01      1.699609000000000E+02
4953000000.000000      4.237061000000000E-01      1.720801000000000E+01      1.197281000000000E-01      1.714375000000000E+02
4954000000.000000      4.242554000000000E-01      1.718262000000000E+01      1.176720000000000E-01      1.726641000000000E+02
