! Network Analyzer HP8722D
! Hewlett-Packard
! Data name: Linha & Wilkinson
! Saver's name: Rodrigo Anjos
! Comments: Teste da utilização de aquisição
continua pelo VNA HP8722D
! Time and date: 23/5/2025 11:49
!              Frequency                     S11                                                   S21                                                   S12                                                   S22
# HZ  S  MA R 50
4800000000.000000      3.071289000000000E-01      3.775781000000000E+01      4.741821000000000E-01     -1.283516000000000E+02
4801000000.000000      3.079224000000000E-01      3.794922000000000E+01      4.745331000000000E-01     -1.288437000000000E+02
4802000000.000000      3.089752000000000E-01      3.818945000000000E+01      4.763031000000000E-01     -1.293750000000000E+02
4803000000.000000      3.100739000000000E-01      3.836328000000000E+01      4.796906000000000E-01     -1.302344000000000E+02
4804000000.000000      3.105621000000000E-01      3.858789000000000E+01      4.809418000000000E-01     -1.309219000000000E+02
4805000000.000000      3.128357000000000E-01      3.869336000000000E+01      4.812927000000000E-01     -1.316953000000000E+02
4806000000.000000      3.132782000000000E-01      3.889453000000000E+01      4.832764000000000E-01     -1.323984000000000E+02
4807000000.000000      3.140869000000000E-01      3.899414000000000E+01      4.852142000000000E-01     -1.332734000000000E+02
4808000000.000000      3.150635000000000E-01      3.923242000000000E+01      4.856262000000000E-01     -1.340469000000000E+02
4809000000.000000      3.166199000000000E-01      3.943945000000000E+01      4.862366000000000E-01     -1.348047000000000E+02
4810000000.000000      3.182220000000000E-01      3.950586000000000E+01      4.884644000000000E-01     -1.352969000000000E+02
4811000000.000000      3.197784000000000E-01      3.967968000000000E+01      4.897003000000000E-01     -1.362656000000000E+02
4812000000.000000      3.218231000000000E-01      3.988281000000000E+01      4.907684000000000E-01     -1.370781000000000E+02
4813000000.000000      3.221436000000000E-01      4.002149000000000E+01      4.898682000000000E-01     -1.376406000000000E+02
4814000000.000000      3.232727000000000E-01      4.008008000000000E+01      4.915009000000000E-01     -1.381875000000000E+02
4815000000.000000      3.249969000000000E-01      4.019336000000000E+01      4.922485000000000E-01     -1.392422000000000E+02
4816000000.000000      3.275757000000000E-01      4.029687000000000E+01      4.930878000000000E-01     -1.397891000000000E+02
4817000000.000000      3.282623000000000E-01      4.037695000000000E+01      4.928284000000000E-01     -1.405078000000000E+02
4818000000.000000      3.298798000000000E-01      4.036718000000000E+01      4.929352000000000E-01     -1.413516000000000E+02
4819000000.000000      3.320465000000000E-01      4.047071000000000E+01      4.939880000000000E-01     -1.420391000000000E+02
4820000000.000000      3.325958000000000E-01      4.054688000000000E+01      4.940338000000000E-01     -1.427344000000000E+02
4821000000.000000      3.348083000000000E-01      4.060742000000000E+01      4.944916000000000E-01     -1.435781000000000E+02
4822000000.000000      3.360748000000000E-01      4.049024000000000E+01      4.935760000000000E-01     -1.443594000000000E+02
4823000000.000000      3.381500000000000E-01      4.049609000000000E+01      4.939575000000000E-01     -1.450078000000000E+02
4824000000.000000      3.401031000000000E-01      4.065625000000000E+01      4.937592000000000E-01     -1.456953000000000E+02
4825000000.000000      3.416748000000000E-01      4.053515000000000E+01      4.944611000000000E-01     -1.463984000000000E+02
4826000000.000000      3.426514000000000E-01      4.053906000000000E+01      4.936371000000000E-01     -1.472031000000000E+02
4827000000.000000      3.448181000000000E-01      4.054492000000000E+01      4.942017000000000E-01     -1.478906000000000E+02
4828000000.000000      3.473053000000000E-01      4.057031000000000E+01      4.936676000000000E-01     -1.486094000000000E+02
4829000000.000000      3.483887000000000E-01      4.061523000000000E+01      4.927216000000000E-01     -1.493438000000000E+02
4830000000.000000      3.501740000000000E-01      4.044922000000000E+01      4.930725000000000E-01     -1.499766000000000E+02
4831000000.000000      3.515320000000000E-01      4.030078000000000E+01      4.920959000000000E-01     -1.508203000000000E+02
4832000000.000000      3.541260000000000E-01      4.039844000000000E+01      4.920807000000000E-01     -1.515156000000000E+02
4833000000.000000      3.545074000000000E-01      4.017774000000000E+01      4.911499000000000E-01     -1.521250000000000E+02
4834000000.000000      3.566437000000000E-01      4.014062000000000E+01      4.906158000000000E-01     -1.529219000000000E+02
4835000000.000000      3.589020000000000E-01      3.996875000000000E+01      4.889221000000000E-01     -1.536016000000000E+02
4836000000.000000      3.608398000000000E-01      4.001367000000000E+01      4.876404000000000E-01     -1.543594000000000E+02
4837000000.000000      3.617859000000000E-01      3.995117000000000E+01      4.859619000000000E-01     -1.553125000000000E+02
4838000000.000000      3.630829000000000E-01      3.984179000000000E+01      4.872894000000000E-01     -1.556953000000000E+02
4839000000.000000      3.668060000000000E-01      3.964453000000000E+01      4.845276000000000E-01     -1.564453000000000E+02
4840000000.000000      3.673859000000000E-01      3.946289000000000E+01      4.838562000000000E-01     -1.570703000000000E+02
4841000000.000000      3.693237000000000E-01      3.954102000000000E+01      4.839478000000000E-01     -1.580547000000000E+02
4842000000.000000      3.698120000000000E-01      3.922070000000000E+01      4.808655000000000E-01     -1.585703000000000E+02
4843000000.000000      3.728027000000000E-01      3.896679000000000E+01      4.806976000000000E-01     -1.594609000000000E+02
4844000000.000000      3.734131000000000E-01      3.888086000000000E+01      4.791107000000000E-01     -1.601641000000000E+02
4845000000.000000      3.754272000000000E-01      3.885351000000000E+01      4.772797000000000E-01     -1.606484000000000E+02
4846000000.000000      3.771820000000000E-01      3.858007000000000E+01      4.751434000000000E-01     -1.616406000000000E+02
4847000000.000000      3.783569000000000E-01      3.850000000000000E+01      4.747772000000000E-01     -1.620703000000000E+02
4848000000.000000      3.791046000000000E-01      3.824804000000000E+01      4.714355000000000E-01     -1.629688000000000E+02
4849000000.000000      3.809357000000000E-01      3.798633000000000E+01      4.715576000000000E-01     -1.636172000000000E+02
4850000000.000000      3.820496000000000E-01      3.789648000000000E+01      4.680939000000000E-01     -1.643281000000000E+02
4851000000.000000      3.834534000000000E-01      3.780859000000000E+01      4.680176000000000E-01     -1.651094000000000E+02
4852000000.000000      3.848419000000000E-01      3.752148000000000E+01      4.657288000000000E-01     -1.658828000000000E+02
4853000000.000000      3.871307000000000E-01      3.733593000000000E+01      4.626617000000000E-01     -1.663906000000000E+02
4854000000.000000      3.875580000000000E-01      3.710742000000000E+01      4.608917000000000E-01     -1.672812000000000E+02
4855000000.000000      3.885193000000000E-01      3.694336000000000E+01      4.582062000000000E-01     -1.679375000000000E+02
4856000000.000000      3.898621000000000E-01      3.671093000000000E+01      4.569092000000000E-01     -1.685703000000000E+02
4857000000.000000      3.913116000000000E-01      3.656250000000000E+01      4.541626000000000E-01     -1.691641000000000E+02
4858000000.000000      3.915710000000000E-01      3.619141000000000E+01      4.524384000000000E-01     -1.697734000000000E+02
4859000000.000000      3.934021000000000E-01      3.593164000000000E+01      4.501801000000000E-01     -1.708828000000000E+02
4860000000.000000      3.942261000000000E-01      3.587109000000000E+01      4.477692000000000E-01     -1.712500000000000E+02
4861000000.000000      3.956299000000000E-01      3.568750000000000E+01      4.453735000000000E-01     -1.721406000000000E+02
4862000000.000000      3.962097000000000E-01      3.541406000000000E+01      4.431610000000000E-01     -1.726406000000000E+02
4863000000.000000      3.975067000000000E-01      3.519726000000000E+01      4.397888000000000E-01     -1.734609000000000E+02
4864000000.000000      3.986969000000000E-01      3.489258000000000E+01      4.376373000000000E-01     -1.740391000000000E+02
4865000000.000000      3.984375000000000E-01      3.459961000000000E+01      4.338074000000000E-01     -1.745703000000000E+02
4866000000.000000      4.006195000000000E-01      3.433594000000000E+01      4.314880000000000E-01     -1.754375000000000E+02
4867000000.000000      4.005127000000000E-01      3.425976000000000E+01      4.281921000000000E-01     -1.762891000000000E+02
4868000000.000000      4.015656000000000E-01      3.382813000000000E+01      4.253693000000000E-01     -1.768594000000000E+02
4869000000.000000      4.011688000000000E-01      3.367773000000000E+01      4.220276000000000E-01     -1.774453000000000E+02
4870000000.000000      4.024963000000000E-01      3.352148000000000E+01      4.190826000000000E-01     -1.777266000000000E+02
4871000000.000000      4.029694000000000E-01      3.314453000000000E+01      4.147644000000000E-01     -1.786797000000000E+02
4872000000.000000      4.052277000000000E-01      3.295507000000000E+01      4.120636000000000E-01     -1.792500000000000E+02
4873000000.000000      4.044495000000000E-01      3.283203000000000E+01      4.092560000000000E-01      1.799062000000000E+02
4874000000.000000      4.060516000000000E-01      3.252344000000000E+01      4.054718000000000E-01      1.793516000000000E+02
4875000000.000000      4.062958000000000E-01      3.218945000000000E+01      4.003601000000000E-01      1.788984000000000E+02
4876000000.000000      4.073334000000000E-01      3.205078000000000E+01      3.981781000000000E-01      1.782891000000000E+02
4877000000.000000      4.085388000000000E-01      3.158496000000000E+01      3.956909000000000E-01      1.776406000000000E+02
4878000000.000000      4.071960000000000E-01      3.136035000000000E+01      3.912201000000000E-01      1.770625000000000E+02
4879000000.000000      4.093475000000000E-01      3.139551000000000E+01      3.868256000000000E-01      1.766250000000000E+02
4880000000.000000      4.095001000000000E-01      3.097656000000000E+01      3.838806000000000E-01      1.761484000000000E+02
4881000000.000000      4.095306000000000E-01      3.078222000000000E+01      3.818970000000000E-01      1.755625000000000E+02
4882000000.000000      4.102783000000000E-01      3.062500000000000E+01      3.782806000000000E-01      1.751172000000000E+02
4883000000.000000      4.094086000000000E-01      3.030078000000000E+01      3.741150000000000E-01      1.743828000000000E+02
4884000000.000000      4.105072000000000E-01      3.016699000000000E+01      3.712311000000000E-01      1.738203000000000E+02
4885000000.000000      4.101410000000000E-01      2.982226000000000E+01      3.682861000000000E-01      1.736016000000000E+02
4886000000.000000      4.107056000000000E-01      2.958203000000000E+01      3.640442000000000E-01      1.729687000000000E+02
4887000000.000000      4.100494000000000E-01      2.936914000000000E+01      3.602142000000000E-01      1.725859000000000E+02
4888000000.000000      4.101563000000000E-01      2.911621000000000E+01      3.569183000000000E-01      1.718047000000000E+02
4889000000.000000      4.105530000000000E-01      2.891406000000000E+01      3.522034000000000E-01      1.713906000000000E+02
4890000000.000000      4.098816000000000E-01      2.854199000000000E+01      3.490295000000000E-01      1.708437000000000E+02
4891000000.000000      4.109802000000000E-01      2.845800000000000E+01      3.464813000000000E-01      1.705547000000000E+02
4892000000.000000      4.113922000000000E-01      2.822168000000000E+01      3.420868000000000E-01      1.703047000000000E+02
4893000000.000000      4.109955000000000E-01      2.803808000000000E+01      3.394012000000000E-01      1.696875000000000E+02
4894000000.000000      4.101868000000000E-01      2.791016000000000E+01      3.341980000000000E-01      1.693750000000000E+02
4895000000.000000      4.118042000000000E-01      2.745996000000000E+01      3.323212000000000E-01      1.690000000000000E+02
4896000000.000000      4.107513000000000E-01      2.733496000000000E+01      3.298035000000000E-01      1.684297000000000E+02
4897000000.000000      4.111176000000000E-01      2.727441000000000E+01      3.249207000000000E-01      1.678750000000000E+02
4898000000.000000      4.108429000000000E-01      2.685059000000000E+01      3.218842000000000E-01      1.676250000000000E+02
4899000000.000000      4.113617000000000E-01      2.675293000000000E+01      3.183136000000000E-01      1.671406000000000E+02
4900000000.000000      4.098206000000000E-01      2.649316000000000E+01      3.152771000000000E-01      1.667969000000000E+02
4901000000.000000      4.109497000000000E-01      2.630078000000000E+01      3.121643000000000E-01      1.664297000000000E+02
4902000000.000000      4.108734000000000E-01      2.613476000000000E+01      3.087616000000000E-01      1.660469000000000E+02
4903000000.000000      4.099121000000000E-01      2.596875000000000E+01      3.045502000000000E-01      1.656797000000000E+02
4904000000.000000      4.097443000000000E-01      2.560449000000000E+01      3.016663000000000E-01      1.651406000000000E+02
4905000000.000000      4.105530000000000E-01      2.548535000000000E+01      2.985382000000000E-01      1.648281000000000E+02
4906000000.000000      4.089966000000000E-01      2.536718000000000E+01      2.952576000000000E-01      1.646016000000000E+02
4907000000.000000      4.096375000000000E-01      2.531933000000000E+01      2.918854000000000E-01      1.640156000000000E+02
4908000000.000000      4.096985000000000E-01      2.483984000000000E+01      2.890015000000000E-01      1.634609000000000E+02
4909000000.000000      4.089813000000000E-01      2.466406000000000E+01      2.851257000000000E-01      1.632031000000000E+02
4910000000.000000      4.087067000000000E-01      2.460156000000000E+01      2.813416000000000E-01      1.629453000000000E+02
4911000000.000000      4.091034000000000E-01      2.449609000000000E+01      2.779999000000000E-01      1.626953000000000E+02
4912000000.000000      4.086609000000000E-01      2.424316000000000E+01      2.741852000000000E-01      1.620391000000000E+02
4913000000.000000      4.087067000000000E-01      2.397754000000000E+01      2.705688000000000E-01      1.619453000000000E+02
4914000000.000000      4.081268000000000E-01      2.382226000000000E+01      2.679749000000000E-01      1.616875000000000E+02
4915000000.000000      4.081268000000000E-01      2.372851000000000E+01      2.630920000000000E-01      1.609531000000000E+02
4916000000.000000      4.077606000000000E-01      2.350293000000000E+01      2.602081000000000E-01      1.606875000000000E+02
4917000000.000000      4.080048000000000E-01      2.331152000000000E+01      2.569580000000000E-01      1.603984000000000E+02
4918000000.000000      4.076080000000000E-01      2.320410000000000E+01      2.520447000000000E-01      1.600547000000000E+02
4919000000.000000      4.065094000000000E-01      2.309277000000000E+01      2.494125000000000E-01      1.599922000000000E+02
4920000000.000000      4.074097000000000E-01      2.283008000000000E+01      2.450485000000000E-01      1.593359000000000E+02
4921000000.000000      4.060516000000000E-01      2.273340000000000E+01      2.419510000000000E-01      1.591875000000000E+02
4922000000.000000      4.062500000000000E-01      2.247461000000000E+01      2.381821000000000E-01      1.590937000000000E+02
4923000000.000000      4.059296000000000E-01      2.225488000000000E+01      2.335587000000000E-01      1.588828000000000E+02
4924000000.000000      4.074097000000000E-01      2.203711000000000E+01      2.291870000000000E-01      1.585078000000000E+02
4925000000.000000      4.066010000000000E-01      2.194726000000000E+01      2.263412000000000E-01      1.583203000000000E+02
4926000000.000000      4.046326000000000E-01      2.183496000000000E+01      2.228241000000000E-01      1.580625000000000E+02
4927000000.000000      4.055023000000000E-01      2.163281000000000E+01      2.179260000000000E-01      1.578750000000000E+02
4928000000.000000      4.049072000000000E-01      2.135742000000000E+01      2.145004000000000E-01      1.576641000000000E+02
4929000000.000000      4.048615000000000E-01      2.127051000000000E+01      2.099609000000000E-01      1.577578000000000E+02
4930000000.000000      4.053040000000000E-01      2.115820000000000E+01      2.068024000000000E-01      1.576641000000000E+02
4931000000.000000      4.041443000000000E-01      2.091015000000000E+01      2.029724000000000E-01      1.574922000000000E+02
4932000000.000000      4.046936000000000E-01      2.092187000000000E+01      1.984253000000000E-01      1.573828000000000E+02
4933000000.000000      4.049072000000000E-01      2.063477000000000E+01      1.943054000000000E-01      1.574922000000000E+02
4934000000.000000      4.043579000000000E-01      2.035351000000000E+01      1.909027000000000E-01      1.572734000000000E+02
4935000000.000000      4.048309000000000E-01      2.050781000000000E+01      1.869431000000000E-01      1.576875000000000E+02
4936000000.000000      4.025879000000000E-01      2.014551000000000E+01      1.829605000000000E-01      1.577031000000000E+02
4937000000.000000      4.033203000000000E-01      1.994824000000000E+01      1.789322000000000E-01      1.578750000000000E+02
4938000000.000000      4.024811000000000E-01      1.988867000000000E+01      1.748810000000000E-01      1.579766000000000E+02
4939000000.000000      4.018555000000000E-01      1.971875000000000E+01      1.713409000000000E-01      1.583594000000000E+02
4940000000.000000      4.021759000000000E-01      1.946973000000000E+01      1.670685000000000E-01      1.585391000000000E+02
4941000000.000000      4.011993000000000E-01      1.941406000000000E+01      1.637344000000000E-01      1.590312000000000E+02
4942000000.000000      4.020996000000000E-01      1.909668000000000E+01      1.599197000000000E-01      1.592969000000000E+02
4943000000.000000      4.019165000000000E-01      1.901953000000000E+01      1.563797000000000E-01      1.598594000000000E+02
4944000000.000000      4.008789000000000E-01      1.888476000000000E+01      1.526108000000000E-01      1.603828000000000E+02
4945000000.000000      4.008942000000000E-01      1.867676000000000E+01      1.489868000000000E-01      1.607578000000000E+02
4946000000.000000      4.011688000000000E-01      1.865430000000000E+01      1.453781000000000E-01      1.617188000000000E+02
4947000000.000000      4.002075000000000E-01      1.834082000000000E+01      1.422043000000000E-01      1.623047000000000E+02
4948000000.000000      4.006958000000000E-01      1.827246000000000E+01      1.390305000000000E-01      1.632656000000000E+02
4949000000.000000      3.999329000000000E-01      1.800879000000000E+01      1.361618000000000E-01      1.642266000000000E+02
4950000000.000000      3.999634000000000E-01      1.791504000000000E+01      1.330261000000000E-01      1.652187000000000E+02
4951000000.000000      3.993225000000000E-01      1.787109000000000E+01      1.302261000000000E-01      1.661641000000000E+02
4952000000.000000      3.995209000000000E-01      1.759668000000000E+01      1.273956000000000E-01      1.673750000000000E+02
4953000000.000000      3.986053000000000E-01      1.748730000000000E+01      1.248627000000000E-01      1.685234000000000E+02
4954000000.000000      3.990784000000000E-01      1.735547000000000E+01      1.223297000000000E-01      1.700000000000000E+02
