! Network Analyzer HP8722D
! Hewlett-Packard
! Data name: Linha & Wilkinson
! Saver's name: Rodrigo Anjos
! Comments: Teste da utilização de aquisição
continua pelo VNA HP8722D
! Time and date: 23/5/2025 10:16
!              Frequency                     S11                                                   S21                                                   S12                                                   S22
# HZ  S  MA R 50
4800000000.000000      3.157654000000000E-01      3.692773000000000E+01      4.686737000000000E-01     -1.278008000000000E+02
4801000000.000000      3.164215000000000E-01      3.717382000000000E+01      4.682159000000000E-01     -1.282656000000000E+02
4802000000.000000      3.176270000000000E-01      3.733007000000000E+01      4.717560000000000E-01     -1.288281000000000E+02
4803000000.000000      3.179626000000000E-01      3.748242000000000E+01      4.746094000000000E-01     -1.298281000000000E+02
4804000000.000000      3.189240000000000E-01      3.770703000000000E+01      4.756317000000000E-01     -1.302656000000000E+02
4805000000.000000      3.208618000000000E-01      3.775195000000000E+01      4.769592000000000E-01     -1.313281000000000E+02
4806000000.000000      3.216095000000000E-01      3.800586000000000E+01      4.773865000000000E-01     -1.318594000000000E+02
4807000000.000000      3.227692000000000E-01      3.815430000000000E+01      4.788055000000000E-01     -1.325859000000000E+02
4808000000.000000      3.231201000000000E-01      3.835156000000000E+01      4.800720000000000E-01     -1.333437000000000E+02
4809000000.000000      3.252106000000000E-01      3.857812000000000E+01      4.811401000000000E-01     -1.340312000000000E+02
4810000000.000000      3.261414000000000E-01      3.865234000000000E+01      4.833374000000000E-01     -1.347188000000000E+02
4811000000.000000      3.278656000000000E-01      3.876758000000000E+01      4.848938000000000E-01     -1.358203000000000E+02
4812000000.000000      3.291931000000000E-01      3.902929000000000E+01      4.845886000000000E-01     -1.361953000000000E+02
4813000000.000000      3.302460000000000E-01      3.911133000000000E+01      4.855194000000000E-01     -1.371094000000000E+02
4814000000.000000      3.313293000000000E-01      3.918359000000000E+01      4.868317000000000E-01     -1.376172000000000E+02
4815000000.000000      3.326416000000000E-01      3.930859000000000E+01      4.873505000000000E-01     -1.384766000000000E+02
4816000000.000000      3.347321000000000E-01      3.939648000000000E+01      4.888000000000000E-01     -1.391641000000000E+02
4817000000.000000      3.358002000000000E-01      3.952148000000000E+01      4.891510000000000E-01     -1.399141000000000E+02
4818000000.000000      3.371887000000000E-01      3.949609000000000E+01      4.883575000000000E-01     -1.406875000000000E+02
4819000000.000000      3.393097000000000E-01      3.956836000000000E+01      4.876862000000000E-01     -1.414766000000000E+02
4820000000.000000      3.401947000000000E-01      3.969336000000000E+01      4.903412000000000E-01     -1.421484000000000E+02
4821000000.000000      3.426819000000000E-01      3.972656000000000E+01      4.913940000000000E-01     -1.427422000000000E+02
4822000000.000000      3.435364000000000E-01      3.970703000000000E+01      4.874878000000000E-01     -1.436406000000000E+02
4823000000.000000      3.455353000000000E-01      3.968164000000000E+01      4.896393000000000E-01     -1.444219000000000E+02
4824000000.000000      3.465729000000000E-01      3.979297000000000E+01      4.903717000000000E-01     -1.450938000000000E+02
4825000000.000000      3.488007000000000E-01      3.973828000000000E+01      4.890594000000000E-01     -1.457813000000000E+02
4826000000.000000      3.499146000000000E-01      3.966992000000000E+01      4.891052000000000E-01     -1.466406000000000E+02
4827000000.000000      3.522949000000000E-01      3.970703000000000E+01      4.882355000000000E-01     -1.471172000000000E+02
4828000000.000000      3.539886000000000E-01      3.972070000000000E+01      4.895630000000000E-01     -1.480625000000000E+02
4829000000.000000      3.551788000000000E-01      3.979101000000000E+01      4.881592000000000E-01     -1.486875000000000E+02
4830000000.000000      3.573761000000000E-01      3.963867000000000E+01      4.885864000000000E-01     -1.494375000000000E+02
4831000000.000000      3.590851000000000E-01      3.954102000000000E+01      4.864197000000000E-01     -1.501328000000000E+02
4832000000.000000      3.608398000000000E-01      3.955859000000000E+01      4.859772000000000E-01     -1.508047000000000E+02
4833000000.000000      3.616333000000000E-01      3.936914000000000E+01      4.851532000000000E-01     -1.514219000000000E+02
4834000000.000000      3.634949000000000E-01      3.934570000000000E+01      4.838257000000000E-01     -1.523750000000000E+02
4835000000.000000      3.661499000000000E-01      3.926367000000000E+01      4.832916000000000E-01     -1.529766000000000E+02
4836000000.000000      3.682098000000000E-01      3.925390000000000E+01      4.825592000000000E-01     -1.538906000000000E+02
4837000000.000000      3.684998000000000E-01      3.914258000000000E+01      4.803772000000000E-01     -1.547266000000000E+02
4838000000.000000      3.701935000000000E-01      3.903125000000000E+01      4.806824000000000E-01     -1.551406000000000E+02
4839000000.000000      3.738403000000000E-01      3.897070000000000E+01      4.797668000000000E-01     -1.558906000000000E+02
4840000000.000000      3.742981000000000E-01      3.867188000000000E+01      4.795990000000000E-01     -1.566250000000000E+02
4841000000.000000      3.753052000000000E-01      3.874414000000000E+01      4.772949000000000E-01     -1.575156000000000E+02
4842000000.000000      3.768768000000000E-01      3.852930000000000E+01      4.763336000000000E-01     -1.580391000000000E+02
4843000000.000000      3.796234000000000E-01      3.825781000000000E+01      4.749603000000000E-01     -1.588359000000000E+02
4844000000.000000      3.807068000000000E-01      3.817578000000000E+01      4.741669000000000E-01     -1.596016000000000E+02
4845000000.000000      3.823242000000000E-01      3.803320000000000E+01      4.720001000000000E-01     -1.601406000000000E+02
4846000000.000000      3.840637000000000E-01      3.789258000000000E+01      4.717407000000000E-01     -1.607656000000000E+02
4847000000.000000      3.852692000000000E-01      3.793164000000000E+01      4.689178000000000E-01     -1.615781000000000E+02
4848000000.000000      3.858795000000000E-01      3.758594000000000E+01      4.676208000000000E-01     -1.624063000000000E+02
4849000000.000000      3.874359000000000E-01      3.738086000000000E+01      4.671478000000000E-01     -1.630156000000000E+02
4850000000.000000      3.890991000000000E-01      3.722851000000000E+01      4.638214000000000E-01     -1.637500000000000E+02
4851000000.000000      3.906250000000000E-01      3.713672000000000E+01      4.635925000000000E-01     -1.645000000000000E+02
4852000000.000000      3.922729000000000E-01      3.687695000000000E+01      4.620514000000000E-01     -1.651719000000000E+02
4853000000.000000      3.932037000000000E-01      3.676367000000000E+01      4.586945000000000E-01     -1.658594000000000E+02
4854000000.000000      3.943787000000000E-01      3.648633000000000E+01      4.573822000000000E-01     -1.667109000000000E+02
4855000000.000000      3.958435000000000E-01      3.632031000000000E+01      4.553833000000000E-01     -1.673672000000000E+02
4856000000.000000      3.973236000000000E-01      3.611719000000000E+01      4.519653000000000E-01     -1.680234000000000E+02
4857000000.000000      3.985596000000000E-01      3.594531000000000E+01      4.515686000000000E-01     -1.688125000000000E+02
4858000000.000000      3.993683000000000E-01      3.566797000000000E+01      4.477081000000000E-01     -1.693438000000000E+02
4859000000.000000      4.006348000000000E-01      3.543750000000000E+01      4.461060000000000E-01     -1.700938000000000E+02
4860000000.000000      4.010315000000000E-01      3.539063000000000E+01      4.441071000000000E-01     -1.709219000000000E+02
4861000000.000000      4.019012000000000E-01      3.514843000000000E+01      4.415894000000000E-01     -1.716563000000000E+02
4862000000.000000      4.022827000000000E-01      3.483398000000000E+01      4.392548000000000E-01     -1.721016000000000E+02
4863000000.000000      4.045563000000000E-01      3.463672000000000E+01      4.351349000000000E-01     -1.729844000000000E+02
4864000000.000000      4.053497000000000E-01      3.434375000000000E+01      4.329376000000000E-01     -1.735547000000000E+02
4865000000.000000      4.060211000000000E-01      3.410742000000000E+01      4.296722000000000E-01     -1.742266000000000E+02
4866000000.000000      4.061737000000000E-01      3.384570000000000E+01      4.258423000000000E-01     -1.749141000000000E+02
4867000000.000000      4.074707000000000E-01      3.367578000000000E+01      4.242706000000000E-01     -1.757109000000000E+02
4868000000.000000      4.091339000000000E-01      3.344336000000000E+01      4.214478000000000E-01     -1.765234000000000E+02
4869000000.000000      4.087067000000000E-01      3.317968000000000E+01      4.178314000000000E-01     -1.768437000000000E+02
4870000000.000000      4.096375000000000E-01      3.299805000000000E+01      4.157410000000000E-01     -1.774375000000000E+02
4871000000.000000      4.107666000000000E-01      3.275391000000000E+01      4.116516000000000E-01     -1.781094000000000E+02
4872000000.000000      4.122162000000000E-01      3.250000000000000E+01      4.085541000000000E-01     -1.786875000000000E+02
4873000000.000000      4.118652000000000E-01      3.228906000000000E+01      4.042664000000000E-01     -1.794375000000000E+02
4874000000.000000      4.123688000000000E-01      3.208984000000000E+01      4.015198000000000E-01      1.798281000000000E+02
4875000000.000000      4.125977000000000E-01      3.182129000000000E+01      3.981018000000000E-01      1.795156000000000E+02
4876000000.000000      4.136810000000000E-01      3.172852000000000E+01      3.966370000000000E-01      1.787500000000000E+02
4877000000.000000      4.147644000000000E-01      3.122656000000000E+01      3.909149000000000E-01      1.782422000000000E+02
4878000000.000000      4.136810000000000E-01      3.122363000000000E+01      3.880615000000000E-01      1.776328000000000E+02
4879000000.000000      4.158173000000000E-01      3.090723000000000E+01      3.834534000000000E-01      1.771484000000000E+02
4880000000.000000      4.163208000000000E-01      3.064550000000000E+01      3.808899000000000E-01      1.764141000000000E+02
4881000000.000000      4.158173000000000E-01      3.037793000000000E+01      3.788910000000000E-01      1.762656000000000E+02
4882000000.000000      4.167938000000000E-01      3.021289000000000E+01      3.754272000000000E-01      1.756250000000000E+02
4883000000.000000      4.169617000000000E-01      3.000586000000000E+01      3.695831000000000E-01      1.748203000000000E+02
4884000000.000000      4.171753000000000E-01      2.977636000000000E+01      3.662567000000000E-01      1.744922000000000E+02
4885000000.000000      4.174194000000000E-01      2.957520000000000E+01      3.646240000000000E-01      1.740781000000000E+02
4886000000.000000      4.178162000000000E-01      2.939941000000000E+01      3.599243000000000E-01      1.736250000000000E+02
4887000000.000000      4.178772000000000E-01      2.922558000000000E+01      3.554382000000000E-01      1.729844000000000E+02
4888000000.000000      4.183350000000000E-01      2.893359000000000E+01      3.537292000000000E-01      1.724844000000000E+02
4889000000.000000      4.178162000000000E-01      2.871875000000000E+01      3.494110000000000E-01      1.720469000000000E+02
4890000000.000000      4.170837000000000E-01      2.841992000000000E+01      3.440704000000000E-01      1.713047000000000E+02
4891000000.000000      4.178009000000000E-01      2.825781000000000E+01      3.424683000000000E-01      1.709063000000000E+02
4892000000.000000      4.173279000000000E-01      2.803125000000000E+01      3.388519000000000E-01      1.705547000000000E+02
4893000000.000000      4.185486000000000E-01      2.774805000000000E+01      3.352661000000000E-01      1.699375000000000E+02
4894000000.000000      4.190063000000000E-01      2.770117000000000E+01      3.319397000000000E-01      1.697344000000000E+02
4895000000.000000      4.179688000000000E-01      2.724316000000000E+01      3.289948000000000E-01      1.693359000000000E+02
4896000000.000000      4.185181000000000E-01      2.709570000000000E+01      3.243713000000000E-01      1.687187000000000E+02
4897000000.000000      4.183655000000000E-01      2.707031000000000E+01      3.214111000000000E-01      1.684844000000000E+02
4898000000.000000      4.179382000000000E-01      2.682714000000000E+01      3.184052000000000E-01      1.679844000000000E+02
4899000000.000000      4.186401000000000E-01      2.647070000000000E+01      3.151398000000000E-01      1.676016000000000E+02
4900000000.000000      4.183197000000000E-01      2.624902000000000E+01      3.107300000000000E-01      1.673359000000000E+02
4901000000.000000      4.183044000000000E-01      2.611914000000000E+01      3.085175000000000E-01      1.668359000000000E+02
4902000000.000000      4.182281000000000E-01      2.591113000000000E+01      3.054657000000000E-01      1.665703000000000E+02
4903000000.000000      4.178009000000000E-01      2.571191000000000E+01      3.005829000000000E-01      1.660469000000000E+02
4904000000.000000      4.173584000000000E-01      2.535156000000000E+01      2.980957000000000E-01      1.658359000000000E+02
4905000000.000000      4.163818000000000E-01      2.533105000000000E+01      2.940521000000000E-01      1.651719000000000E+02
4906000000.000000      4.165344000000000E-01      2.513184000000000E+01      2.915955000000000E-01      1.651250000000000E+02
4907000000.000000      4.174652000000000E-01      2.490918000000000E+01      2.888641000000000E-01      1.646406000000000E+02
4908000000.000000      4.174194000000000E-01      2.468554000000000E+01      2.849884000000000E-01      1.641641000000000E+02
4909000000.000000      4.161224000000000E-01      2.450879000000000E+01      2.803497000000000E-01      1.637812000000000E+02
4910000000.000000      4.159088000000000E-01      2.445410000000000E+01      2.776947000000000E-01      1.634609000000000E+02
4911000000.000000      4.169159000000000E-01      2.434082000000000E+01      2.748718000000000E-01      1.629844000000000E+02
4912000000.000000      4.159088000000000E-01      2.415820000000000E+01      2.708282000000000E-01      1.627344000000000E+02
4913000000.000000      4.163513000000000E-01      2.378613000000000E+01      2.677765000000000E-01      1.622813000000000E+02
4914000000.000000      4.159851000000000E-01      2.369433000000000E+01      2.637939000000000E-01      1.621719000000000E+02
4915000000.000000      4.159393000000000E-01      2.362793000000000E+01      2.605286000000000E-01      1.615313000000000E+02
4916000000.000000      4.156494000000000E-01      2.337891000000000E+01      2.566528000000000E-01      1.612969000000000E+02
4917000000.000000      4.162598000000000E-01      2.324219000000000E+01      2.541199000000000E-01      1.609922000000000E+02
4918000000.000000      4.156647000000000E-01      2.298535000000000E+01      2.488937000000000E-01      1.607031000000000E+02
4919000000.000000      4.137573000000000E-01      2.284961000000000E+01      2.457504000000000E-01      1.605234000000000E+02
4920000000.000000      4.146118000000000E-01      2.262988000000000E+01      2.417450000000000E-01      1.600937000000000E+02
4921000000.000000      4.137573000000000E-01      2.255566000000000E+01      2.387924000000000E-01      1.598906000000000E+02
4922000000.000000      4.145050000000000E-01      2.239551000000000E+01      2.344894000000000E-01      1.594609000000000E+02
4923000000.000000      4.140472000000000E-01      2.224316000000000E+01      2.300797000000000E-01      1.593906000000000E+02
4924000000.000000      4.136810000000000E-01      2.207226000000000E+01      2.264557000000000E-01      1.590859000000000E+02
4925000000.000000      4.135895000000000E-01      2.197656000000000E+01      2.232513000000000E-01      1.588438000000000E+02
4926000000.000000      4.130096000000000E-01      2.182227000000000E+01      2.192535000000000E-01      1.585859000000000E+02
4927000000.000000      4.128113000000000E-01      2.159961000000000E+01      2.153168000000000E-01      1.585078000000000E+02
4928000000.000000      4.131775000000000E-01      2.135254000000000E+01      2.115631000000000E-01      1.584297000000000E+02
4929000000.000000      4.124451000000000E-01      2.115625000000000E+01      2.076263000000000E-01      1.582969000000000E+02
4930000000.000000      4.121399000000000E-01      2.102149000000000E+01      2.040329000000000E-01      1.581172000000000E+02
4931000000.000000      4.118042000000000E-01      2.082129000000000E+01      2.011490000000000E-01      1.580156000000000E+02
4932000000.000000      4.116669000000000E-01      2.071972000000000E+01      1.957855000000000E-01      1.578906000000000E+02
4933000000.000000      4.117737000000000E-01      2.054688000000000E+01      1.914520000000000E-01      1.580391000000000E+02
4934000000.000000      4.122620000000000E-01      2.048047000000000E+01      1.877518000000000E-01      1.579062000000000E+02
4935000000.000000      4.121246000000000E-01      2.012500000000000E+01      1.850052000000000E-01      1.582734000000000E+02
4936000000.000000      4.097748000000000E-01      2.004981000000000E+01      1.799927000000000E-01      1.581563000000000E+02
4937000000.000000      4.109039000000000E-01      1.984766000000000E+01      1.765594000000000E-01      1.583906000000000E+02
4938000000.000000      4.106140000000000E-01      1.988477000000000E+01      1.728516000000000E-01      1.585312000000000E+02
4939000000.000000      4.100494000000000E-01      1.970215000000000E+01      1.689148000000000E-01      1.589453000000000E+02
4940000000.000000      4.102783000000000E-01      1.942383000000000E+01      1.651459000000000E-01      1.590625000000000E+02
4941000000.000000      4.104919000000000E-01      1.918750000000000E+01      1.613312000000000E-01      1.596719000000000E+02
4942000000.000000      4.094391000000000E-01      1.924219000000000E+01      1.573257000000000E-01      1.599297000000000E+02
4943000000.000000      4.098358000000000E-01      1.885742000000000E+01      1.538849000000000E-01      1.603437000000000E+02
4944000000.000000      4.100342000000000E-01      1.885742000000000E+01      1.508636000000000E-01      1.610625000000000E+02
4945000000.000000      4.093781000000000E-01      1.877539000000000E+01      1.466904000000000E-01      1.615547000000000E+02
4946000000.000000      4.089813000000000E-01      1.850098000000000E+01      1.436539000000000E-01      1.622500000000000E+02
4947000000.000000      4.090424000000000E-01      1.834082000000000E+01      1.402435000000000E-01      1.632109000000000E+02
4948000000.000000      4.090576000000000E-01      1.826465000000000E+01      1.366882000000000E-01      1.640391000000000E+02
4949000000.000000      4.080048000000000E-01      1.811426000000000E+01      1.342926000000000E-01      1.649922000000000E+02
4950000000.000000      4.086609000000000E-01      1.791308000000000E+01      1.312561000000000E-01      1.657109000000000E+02
4951000000.000000      4.080200000000000E-01      1.791113000000000E+01      1.283417000000000E-01      1.668750000000000E+02
4952000000.000000      4.073029000000000E-01      1.752441000000000E+01      1.254196000000000E-01      1.680625000000000E+02
4953000000.000000      4.065399000000000E-01      1.737012000000000E+01      1.229744000000000E-01      1.695703000000000E+02
4954000000.000000      4.070435000000000E-01      1.717676000000000E+01      1.206207000000000E-01      1.706484000000000E+02
