! Network Analyzer HP8722D
! Hewlett-Packard
! Data name: Linha & Wilkinson
! Saver's name: Rodrigo Anjos
! Comments: Teste da utilização de aquisição
continua pelo VNA HP8722D
! Time and date: 23/5/2025 15:06
!              Frequency                     S11                                                   S21                                                   S12                                                   S22
# HZ  S  MA R 50
4800000000.000000      2.830353000000000E-01      4.002343000000000E+01      4.855499000000000E-01     -1.296953000000000E+02
4801000000.000000      2.841339000000000E-01      4.028906000000000E+01      4.874573000000000E-01     -1.301875000000000E+02
4802000000.000000      2.851715000000000E-01      4.051367000000000E+01      4.883423000000000E-01     -1.308047000000000E+02
4803000000.000000      2.863770000000000E-01      4.068749000000000E+01      4.918518000000000E-01     -1.315938000000000E+02
4804000000.000000      2.875824000000000E-01      4.103516000000000E+01      4.928436000000000E-01     -1.323594000000000E+02
4805000000.000000      2.897034000000000E-01      4.105273000000000E+01      4.947052000000000E-01     -1.330937000000000E+02
4806000000.000000      2.903137000000000E-01      4.124804000000000E+01      4.950562000000000E-01     -1.337422000000000E+02
4807000000.000000      2.916718000000000E-01      4.147461000000000E+01      4.964294000000000E-01     -1.346875000000000E+02
4808000000.000000      2.929230000000000E-01      4.162305000000000E+01      5.000000000000000E-01     -1.351016000000000E+02
4809000000.000000      2.944336000000000E-01      4.188672000000000E+01      4.984589000000000E-01     -1.359922000000000E+02
4810000000.000000      2.960663000000000E-01      4.198242000000000E+01      5.018005000000000E-01     -1.367578000000000E+02
4811000000.000000      2.978058000000000E-01      4.207617000000000E+01      5.019836000000000E-01     -1.376172000000000E+02
4812000000.000000      2.998505000000000E-01      4.224218000000000E+01      5.032349000000000E-01     -1.383281000000000E+02
4813000000.000000      3.004913000000000E-01      4.241211000000000E+01      5.025024000000000E-01     -1.390703000000000E+02
4814000000.000000      3.018799000000000E-01      4.247266000000000E+01      5.046997000000000E-01     -1.397109000000000E+02
4815000000.000000      3.040924000000000E-01      4.264844000000000E+01      5.039673000000000E-01     -1.404141000000000E+02
4816000000.000000      3.065796000000000E-01      4.269140000000000E+01      5.059814000000000E-01     -1.410781000000000E+02
4817000000.000000      3.072968000000000E-01      4.284180000000000E+01      5.061340000000000E-01     -1.419531000000000E+02
4818000000.000000      3.090973000000000E-01      4.279297000000000E+01      5.057678000000000E-01     -1.426406000000000E+02
4819000000.000000      3.112183000000000E-01      4.282422000000000E+01      5.054321000000000E-01     -1.433906000000000E+02
4820000000.000000      3.122406000000000E-01      4.290039000000000E+01      5.057983000000000E-01     -1.440078000000000E+02
4821000000.000000      3.149261000000000E-01      4.293359000000000E+01      5.077820000000000E-01     -1.448672000000000E+02
4822000000.000000      3.159027000000000E-01      4.279297000000000E+01      5.061340000000000E-01     -1.456484000000000E+02
4823000000.000000      3.184052000000000E-01      4.282617000000000E+01      5.077515000000000E-01     -1.463359000000000E+02
4824000000.000000      3.196564000000000E-01      4.294531000000000E+01      5.059814000000000E-01     -1.471484000000000E+02
4825000000.000000      3.220825000000000E-01      4.281054000000000E+01      5.066528000000000E-01     -1.478203000000000E+02
4826000000.000000      3.240051000000000E-01      4.272851000000000E+01      5.050964000000000E-01     -1.484688000000000E+02
4827000000.000000      3.259735000000000E-01      4.282422000000000E+01      5.064697000000000E-01     -1.492500000000000E+02
4828000000.000000      3.281403000000000E-01      4.265625000000000E+01      5.055237000000000E-01     -1.499687000000000E+02
4829000000.000000      3.300323000000000E-01      4.279492000000000E+01      5.057983000000000E-01     -1.507187000000000E+02
4830000000.000000      3.312683000000000E-01      4.255859000000000E+01      5.047607000000000E-01     -1.515156000000000E+02
4831000000.000000      3.329163000000000E-01      4.248242000000000E+01      5.043335000000000E-01     -1.522109000000000E+02
4832000000.000000      3.347321000000000E-01      4.250781000000000E+01      5.036316000000000E-01     -1.528750000000000E+02
4833000000.000000      3.356476000000000E-01      4.225390000000000E+01      5.030212000000000E-01     -1.535000000000000E+02
4834000000.000000      3.376007000000000E-01      4.225586000000000E+01      5.016785000000000E-01     -1.541797000000000E+02
4835000000.000000      3.402405000000000E-01      4.205664000000000E+01      5.013733000000000E-01     -1.550859000000000E+02
4836000000.000000      3.420410000000000E-01      4.193945000000000E+01      4.988708000000000E-01     -1.557422000000000E+02
4837000000.000000      3.435364000000000E-01      4.195117000000000E+01      4.976654000000000E-01     -1.566875000000000E+02
4838000000.000000      3.447876000000000E-01      4.170507000000000E+01      4.985046000000000E-01     -1.569609000000000E+02
4839000000.000000      3.481140000000000E-01      4.160742000000000E+01      4.978790000000000E-01     -1.578047000000000E+02
4840000000.000000      3.485413000000000E-01      4.135351000000000E+01      4.961700000000000E-01     -1.583984000000000E+02
4841000000.000000      3.502655000000000E-01      4.129687000000000E+01      4.948578000000000E-01     -1.593594000000000E+02
4842000000.000000      3.515472000000000E-01      4.116601000000000E+01      4.929199000000000E-01     -1.600234000000000E+02
4843000000.000000      3.541718000000000E-01      4.078125000000000E+01      4.927826000000000E-01     -1.608203000000000E+02
4844000000.000000      3.552399000000000E-01      4.064843000000000E+01      4.906616000000000E-01     -1.614687000000000E+02
4845000000.000000      3.572998000000000E-01      4.051953000000000E+01      4.895477000000000E-01     -1.620937000000000E+02
4846000000.000000      3.586121000000000E-01      4.034570000000000E+01      4.868774000000000E-01     -1.627578000000000E+02
4847000000.000000      3.598022000000000E-01      4.031250000000000E+01      4.856262000000000E-01     -1.634687000000000E+02
4848000000.000000      3.609314000000000E-01      3.990234000000000E+01      4.834900000000000E-01     -1.642031000000000E+02
4849000000.000000      3.627472000000000E-01      3.964258000000000E+01      4.835205000000000E-01     -1.648516000000000E+02
4850000000.000000      3.639679000000000E-01      3.945313000000000E+01      4.803467000000000E-01     -1.656875000000000E+02
4851000000.000000      3.658142000000000E-01      3.940625000000000E+01      4.795990000000000E-01     -1.663750000000000E+02
4852000000.000000      3.667603000000000E-01      3.913867000000000E+01      4.772797000000000E-01     -1.670078000000000E+02
4853000000.000000      3.683319000000000E-01      3.882421000000000E+01      4.741058000000000E-01     -1.677344000000000E+02
4854000000.000000      3.694458000000000E-01      3.850976000000000E+01      4.715424000000000E-01     -1.686250000000000E+02
4855000000.000000      3.704071000000000E-01      3.840234000000000E+01      4.708862000000000E-01     -1.690469000000000E+02
4856000000.000000      3.721771000000000E-01      3.805664000000000E+01      4.674988000000000E-01     -1.700000000000000E+02
4857000000.000000      3.730469000000000E-01      3.802734000000000E+01      4.661407000000000E-01     -1.704609000000000E+02
4858000000.000000      3.738251000000000E-01      3.761523000000000E+01      4.635010000000000E-01     -1.712422000000000E+02
4859000000.000000      3.751831000000000E-01      3.736719000000000E+01      4.623108000000000E-01     -1.719297000000000E+02
4860000000.000000      3.763885000000000E-01      3.726171000000000E+01      4.577026000000000E-01     -1.725078000000000E+02
4861000000.000000      3.768768000000000E-01      3.692187000000000E+01      4.544983000000000E-01     -1.734219000000000E+02
4862000000.000000      3.773956000000000E-01      3.660156000000000E+01      4.523621000000000E-01     -1.739219000000000E+02
4863000000.000000      3.792267000000000E-01      3.636133000000000E+01      4.480896000000000E-01     -1.746250000000000E+02
4864000000.000000      3.796997000000000E-01      3.605273000000000E+01      4.473267000000000E-01     -1.753359000000000E+02
4865000000.000000      3.803864000000000E-01      3.585351000000000E+01      4.444427000000000E-01     -1.758672000000000E+02
4866000000.000000      3.812561000000000E-01      3.551562000000000E+01      4.422455000000000E-01     -1.767656000000000E+02
4867000000.000000      3.814240000000000E-01      3.531836000000000E+01      4.384155000000000E-01     -1.774531000000000E+02
4868000000.000000      3.832092000000000E-01      3.502344000000000E+01      4.359131000000000E-01     -1.779531000000000E+02
4869000000.000000      3.833313000000000E-01      3.479492000000000E+01      4.314423000000000E-01     -1.785703000000000E+02
4870000000.000000      3.842773000000000E-01      3.448047000000000E+01      4.290009000000000E-01     -1.790078000000000E+02
4871000000.000000      3.845520000000000E-01      3.412695000000000E+01      4.249573000000000E-01     -1.797656000000000E+02
4872000000.000000      3.856812000000000E-01      3.403515000000000E+01      4.214783000000000E-01      1.797266000000000E+02
4873000000.000000      3.854828000000000E-01      3.379687000000000E+01      4.183655000000000E-01      1.789141000000000E+02
4874000000.000000      3.863525000000000E-01      3.348242000000000E+01      4.144897000000000E-01      1.784453000000000E+02
4875000000.000000      3.868103000000000E-01      3.315234000000000E+01      4.117737000000000E-01      1.777578000000000E+02
4876000000.000000      3.874664000000000E-01      3.298633000000000E+01      4.089661000000000E-01      1.772266000000000E+02
4877000000.000000      3.886566000000000E-01      3.264257000000000E+01      4.056091000000000E-01      1.766328000000000E+02
4878000000.000000      3.879852000000000E-01      3.230078000000000E+01      4.015656000000000E-01      1.759609000000000E+02
4879000000.000000      3.888397000000000E-01      3.213086000000000E+01      3.974152000000000E-01      1.754453000000000E+02
4880000000.000000      3.891296000000000E-01      3.181836000000000E+01      3.947144000000000E-01      1.751094000000000E+02
4881000000.000000      3.889923000000000E-01      3.157812000000000E+01      3.907013000000000E-01      1.744062000000000E+02
4882000000.000000      3.900909000000000E-01      3.136425000000000E+01      3.880157000000000E-01      1.738359000000000E+02
4883000000.000000      3.903656000000000E-01      3.104589000000000E+01      3.838196000000000E-01      1.732500000000000E+02
4884000000.000000      3.907166000000000E-01      3.091504000000000E+01      3.804932000000000E-01      1.728828000000000E+02
4885000000.000000      3.902893000000000E-01      3.064453000000000E+01      3.773041000000000E-01      1.725156000000000E+02
4886000000.000000      3.906555000000000E-01      3.042578000000000E+01      3.728638000000000E-01      1.720469000000000E+02
4887000000.000000      3.902588000000000E-01      3.018555000000000E+01      3.699493000000000E-01      1.712734000000000E+02
4888000000.000000      3.902893000000000E-01      2.973242000000000E+01      3.668213000000000E-01      1.708828000000000E+02
4889000000.000000      3.902283000000000E-01      2.951172000000000E+01      3.610229000000000E-01      1.706875000000000E+02
4890000000.000000      3.892670000000000E-01      2.930664000000000E+01      3.592682000000000E-01      1.698828000000000E+02
4891000000.000000      3.901215000000000E-01      2.913379000000000E+01      3.546295000000000E-01      1.693281000000000E+02
4892000000.000000      3.901825000000000E-01      2.888379000000000E+01      3.515778000000000E-01      1.691328000000000E+02
4893000000.000000      3.905029000000000E-01      2.862305000000000E+01      3.491821000000000E-01      1.685313000000000E+02
4894000000.000000      3.903503000000000E-01      2.833887000000000E+01      3.453064000000000E-01      1.681172000000000E+02
4895000000.000000      3.904877000000000E-01      2.814941000000000E+01      3.419342000000000E-01      1.679062000000000E+02
4896000000.000000      3.904114000000000E-01      2.783203000000000E+01      3.368073000000000E-01      1.673672000000000E+02
4897000000.000000      3.896027000000000E-01      2.775195000000000E+01      3.337097000000000E-01      1.669297000000000E+02
4898000000.000000      3.903503000000000E-01      2.757421000000000E+01      3.305054000000000E-01      1.665390000000000E+02
4899000000.000000      3.904419000000000E-01      2.726855000000000E+01      3.276520000000000E-01      1.660391000000000E+02
4900000000.000000      3.902740000000000E-01      2.688477000000000E+01      3.245697000000000E-01      1.656875000000000E+02
4901000000.000000      3.892365000000000E-01      2.681445000000000E+01      3.203583000000000E-01      1.653984000000000E+02
4902000000.000000      3.885803000000000E-01      2.658203000000000E+01      3.170319000000000E-01      1.650156000000000E+02
4903000000.000000      3.897858000000000E-01      2.644336000000000E+01      3.132782000000000E-01      1.645469000000000E+02
4904000000.000000      3.891602000000000E-01      2.610742000000000E+01      3.103180000000000E-01      1.640156000000000E+02
4905000000.000000      3.882294000000000E-01      2.590918000000000E+01      3.073120000000000E-01      1.636797000000000E+02
4906000000.000000      3.889160000000000E-01      2.581640000000000E+01      3.039093000000000E-01      1.634297000000000E+02
4907000000.000000      3.882294000000000E-01      2.543848000000000E+01      3.001404000000000E-01      1.628515000000000E+02
4908000000.000000      3.891449000000000E-01      2.525195000000000E+01      2.975922000000000E-01      1.623750000000000E+02
4909000000.000000      3.870544000000000E-01      2.505273000000000E+01      2.927551000000000E-01      1.622422000000000E+02
4910000000.000000      3.863068000000000E-01      2.484472000000000E+01      2.898407000000000E-01      1.617422000000000E+02
4911000000.000000      3.862152000000000E-01      2.475488000000000E+01      2.862091000000000E-01      1.615313000000000E+02
4912000000.000000      3.863525000000000E-01      2.451660000000000E+01      2.836609000000000E-01      1.610000000000000E+02
4913000000.000000      3.872986000000000E-01      2.435449000000000E+01      2.789917000000000E-01      1.605547000000000E+02
4914000000.000000      3.870544000000000E-01      2.414160000000000E+01      2.757111000000000E-01      1.604453000000000E+02
4915000000.000000      3.863373000000000E-01      2.399219000000000E+01      2.710114000000000E-01      1.599453000000000E+02
4916000000.000000      3.863068000000000E-01      2.366797000000000E+01      2.680206000000000E-01      1.595547000000000E+02
4917000000.000000      3.860779000000000E-01      2.369336000000000E+01      2.644806000000000E-01      1.593828000000000E+02
4918000000.000000      3.853607000000000E-01      2.324414000000000E+01      2.600250000000000E-01      1.588750000000000E+02
4919000000.000000      3.846283000000000E-01      2.323144000000000E+01      2.567139000000000E-01      1.588516000000000E+02
4920000000.000000      3.856812000000000E-01      2.307617000000000E+01      2.532501000000000E-01      1.580859000000000E+02
4921000000.000000      3.838501000000000E-01      2.282813000000000E+01      2.490768000000000E-01      1.579375000000000E+02
4922000000.000000      3.846130000000000E-01      2.264062000000000E+01      2.452087000000000E-01      1.578359000000000E+02
4923000000.000000      3.841553000000000E-01      2.255078000000000E+01      2.408600000000000E-01      1.576641000000000E+02
4924000000.000000      3.839417000000000E-01      2.237695000000000E+01      2.366180000000000E-01      1.572031000000000E+02
4925000000.000000      3.834534000000000E-01      2.208887000000000E+01      2.335815000000000E-01      1.570703000000000E+02
4926000000.000000      3.830566000000000E-01      2.207422000000000E+01      2.297592000000000E-01      1.569453000000000E+02
4927000000.000000      3.835144000000000E-01      2.176856000000000E+01      2.252808000000000E-01      1.566875000000000E+02
4928000000.000000      3.834686000000000E-01      2.148144000000000E+01      2.221680000000000E-01      1.564141000000000E+02
4929000000.000000      3.819885000000000E-01      2.141308000000000E+01      2.171173000000000E-01      1.564531000000000E+02
4930000000.000000      3.825226000000000E-01      2.121777000000000E+01      2.137070000000000E-01      1.562109000000000E+02
4931000000.000000      3.814240000000000E-01      2.107129000000000E+01      2.099152000000000E-01      1.560625000000000E+02
4932000000.000000      3.817749000000000E-01      2.092285000000000E+01      2.050400000000000E-01      1.562031000000000E+02
4933000000.000000      3.812408000000000E-01      2.067969000000000E+01      2.002640000000000E-01      1.562891000000000E+02
4934000000.000000      3.813477000000000E-01      2.053711000000000E+01      1.967392000000000E-01      1.560937000000000E+02
4935000000.000000      3.822327000000000E-01      2.040430000000000E+01      1.934891000000000E-01      1.563437000000000E+02
4936000000.000000      3.808746000000000E-01      2.020215000000000E+01      1.891937000000000E-01      1.564766000000000E+02
4937000000.000000      3.801727000000000E-01      1.999023000000000E+01      1.845093000000000E-01      1.564375000000000E+02
4938000000.000000      3.799744000000000E-01      1.998340000000000E+01      1.806870000000000E-01      1.567500000000000E+02
4939000000.000000      3.796539000000000E-01      1.967578000000000E+01      1.772003000000000E-01      1.569375000000000E+02
4940000000.000000      3.798981000000000E-01      1.955273000000000E+01      1.727295000000000E-01      1.570859000000000E+02
4941000000.000000      3.792114000000000E-01      1.920117000000000E+01      1.688995000000000E-01      1.577266000000000E+02
4942000000.000000      3.785400000000000E-01      1.922266000000000E+01      1.649628000000000E-01      1.577969000000000E+02
4943000000.000000      3.788605000000000E-01      1.905762000000000E+01      1.613617000000000E-01      1.583594000000000E+02
4944000000.000000      3.786011000000000E-01      1.875488000000000E+01      1.577759000000000E-01      1.588672000000000E+02
4945000000.000000      3.778076000000000E-01      1.871191000000000E+01      1.538620000000000E-01      1.595469000000000E+02
4946000000.000000      3.780823000000000E-01      1.859277000000000E+01      1.506424000000000E-01      1.601172000000000E+02
4947000000.000000      3.776550000000000E-01      1.822461000000000E+01      1.464081000000000E-01      1.609062000000000E+02
4948000000.000000      3.764191000000000E-01      1.824219000000000E+01      1.438065000000000E-01      1.614844000000000E+02
4949000000.000000      3.767395000000000E-01      1.805176000000000E+01      1.404419000000000E-01      1.629141000000000E+02
4950000000.000000      3.760071000000000E-01      1.776758000000000E+01      1.369858000000000E-01      1.636406000000000E+02
4951000000.000000      3.763580000000000E-01      1.766016000000000E+01      1.341629000000000E-01      1.645469000000000E+02
4952000000.000000      3.758698000000000E-01      1.744141000000000E+01      1.309128000000000E-01      1.658203000000000E+02
4953000000.000000      3.754425000000000E-01      1.730469000000000E+01      1.286087000000000E-01      1.670234000000000E+02
4954000000.000000      3.753815000000000E-01      1.721094000000000E+01      1.261978000000000E-01      1.683828000000000E+02
