! Network Analyzer HP8722D
! Hewlett-Packard
! Data name: Linha & Wilkinson
! Saver's name: Rodrigo Anjos
! Comments: Teste da utilização de aquisição
continua pelo VNA HP8722D
! Time and date: 23/5/2025 16:10
!              Frequency                     S11                                                   S21                                                   S12                                                   S22
# HZ  S  MA R 50
4800000000.000000      2.798920000000000E-01      4.024414000000000E+01      4.874420000000000E-01     -1.295781000000000E+02
4801000000.000000      2.812653000000000E-01      4.064062000000000E+01      4.881592000000000E-01     -1.302734000000000E+02
4802000000.000000      2.820892000000000E-01      4.078515000000000E+01      4.890442000000000E-01     -1.309141000000000E+02
4803000000.000000      2.832947000000000E-01      4.098828000000000E+01      4.935150000000000E-01     -1.315781000000000E+02
4804000000.000000      2.844543000000000E-01      4.125781000000000E+01      4.938965000000000E-01     -1.324922000000000E+02
4805000000.000000      2.862854000000000E-01      4.132617000000000E+01      4.961548000000000E-01     -1.332813000000000E+02
4806000000.000000      2.873840000000000E-01      4.145312000000000E+01      4.969788000000000E-01     -1.337969000000000E+02
4807000000.000000      2.887115000000000E-01      4.169335000000000E+01      4.986267000000000E-01     -1.347188000000000E+02
4808000000.000000      2.896118000000000E-01      4.197070000000000E+01      5.015564000000000E-01     -1.354219000000000E+02
4809000000.000000      2.918091000000000E-01      4.208008000000000E+01      5.018616000000000E-01     -1.361328000000000E+02
4810000000.000000      2.930603000000000E-01      4.219531000000000E+01      5.026550000000000E-01     -1.367266000000000E+02
4811000000.000000      2.948761000000000E-01      4.238281000000000E+01      5.043945000000000E-01     -1.375469000000000E+02
4812000000.000000      2.971954000000000E-01      4.261132000000000E+01      5.039978000000000E-01     -1.383828000000000E+02
4813000000.000000      2.986755000000000E-01      4.269140000000000E+01      5.045776000000000E-01     -1.390469000000000E+02
4814000000.000000      2.993011000000000E-01      4.272656000000000E+01      5.065918000000000E-01     -1.395547000000000E+02
4815000000.000000      3.009796000000000E-01      4.278320000000000E+01      5.077209000000000E-01     -1.405078000000000E+02
4816000000.000000      3.031006000000000E-01      4.300781000000000E+01      5.083313000000000E-01     -1.412031000000000E+02
4817000000.000000      3.045807000000000E-01      4.304296000000000E+01      5.079041000000000E-01     -1.419297000000000E+02
4818000000.000000      3.063660000000000E-01      4.307422000000000E+01      5.082397000000000E-01     -1.428594000000000E+02
4819000000.000000      3.084717000000000E-01      4.316211000000000E+01      5.089722000000000E-01     -1.433672000000000E+02
4820000000.000000      3.091431000000000E-01      4.324219000000000E+01      5.091858000000000E-01     -1.441250000000000E+02
4821000000.000000      3.123779000000000E-01      4.320508000000000E+01      5.096130000000000E-01     -1.449375000000000E+02
4822000000.000000      3.133698000000000E-01      4.308398000000000E+01      5.086975000000000E-01     -1.457187000000000E+02
4823000000.000000      3.153229000000000E-01      4.311523000000000E+01      5.098572000000000E-01     -1.462344000000000E+02
4824000000.000000      3.173370000000000E-01      4.327344000000000E+01      5.095215000000000E-01     -1.470703000000000E+02
4825000000.000000      3.189697000000000E-01      4.313867000000000E+01      5.081177000000000E-01     -1.478594000000000E+02
4826000000.000000      3.211365000000000E-01      4.303711000000000E+01      5.080872000000000E-01     -1.486094000000000E+02
4827000000.000000      3.231659000000000E-01      4.310742000000000E+01      5.069885000000000E-01     -1.490937000000000E+02
4828000000.000000      3.252869000000000E-01      4.304296000000000E+01      5.079956000000000E-01     -1.499687000000000E+02
4829000000.000000      3.268433000000000E-01      4.300781000000000E+01      5.080872000000000E-01     -1.506719000000000E+02
4830000000.000000      3.283081000000000E-01      4.282617000000000E+01      5.061951000000000E-01     -1.514375000000000E+02
4831000000.000000      3.301849000000000E-01      4.280859000000000E+01      5.053711000000000E-01     -1.522656000000000E+02
4832000000.000000      3.316650000000000E-01      4.276367000000000E+01      5.040588000000000E-01     -1.528984000000000E+02
4833000000.000000      3.335571000000000E-01      4.254687000000000E+01      5.041199000000000E-01     -1.533203000000000E+02
4834000000.000000      3.353271000000000E-01      4.251562000000000E+01      5.038757000000000E-01     -1.544609000000000E+02
4835000000.000000      3.376770000000000E-01      4.230664000000000E+01      5.032043000000000E-01     -1.551016000000000E+02
4836000000.000000      3.388062000000000E-01      4.234765000000000E+01      5.001831000000000E-01     -1.556250000000000E+02
4837000000.000000      3.404541000000000E-01      4.225586000000000E+01      5.005188000000000E-01     -1.566406000000000E+02
4838000000.000000      3.416443000000000E-01      4.196485000000000E+01      5.001221000000000E-01     -1.571094000000000E+02
4839000000.000000      3.452301000000000E-01      4.193164000000000E+01      4.987030000000000E-01     -1.577734000000000E+02
4840000000.000000      3.464203000000000E-01      4.167382000000000E+01      4.986115000000000E-01     -1.586484000000000E+02
4841000000.000000      3.475342000000000E-01      4.158593000000000E+01      4.971008000000000E-01     -1.594297000000000E+02
4842000000.000000      3.491058000000000E-01      4.127149000000000E+01      4.957886000000000E-01     -1.599609000000000E+02
4843000000.000000      3.517151000000000E-01      4.106835000000000E+01      4.948578000000000E-01     -1.607734000000000E+02
4844000000.000000      3.526001000000000E-01      4.088672000000000E+01      4.931335000000000E-01     -1.614531000000000E+02
4845000000.000000      3.545532000000000E-01      4.085351000000000E+01      4.907990000000000E-01     -1.620703000000000E+02
4846000000.000000      3.562927000000000E-01      4.065820000000000E+01      4.903107000000000E-01     -1.627578000000000E+02
4847000000.000000      3.577881000000000E-01      4.051562000000000E+01      4.877014000000000E-01     -1.635547000000000E+02
4848000000.000000      3.585815000000000E-01      4.019727000000000E+01      4.848785000000000E-01     -1.641719000000000E+02
4849000000.000000      3.605957000000000E-01      3.990039000000000E+01      4.842224000000000E-01     -1.649531000000000E+02
4850000000.000000      3.622589000000000E-01      3.983203000000000E+01      4.824066000000000E-01     -1.655781000000000E+02
4851000000.000000      3.631592000000000E-01      3.970703000000000E+01      4.823761000000000E-01     -1.663203000000000E+02
4852000000.000000      3.648224000000000E-01      3.937891000000000E+01      4.788666000000000E-01     -1.669609000000000E+02
4853000000.000000      3.658905000000000E-01      3.907227000000000E+01      4.748077000000000E-01     -1.677187000000000E+02
4854000000.000000      3.668365000000000E-01      3.879883000000000E+01      4.744568000000000E-01     -1.686094000000000E+02
4855000000.000000      3.684235000000000E-01      3.860547000000000E+01      4.723358000000000E-01     -1.691641000000000E+02
4856000000.000000      3.692169000000000E-01      3.840429000000000E+01      4.690399000000000E-01     -1.698047000000000E+02
4857000000.000000      3.703613000000000E-01      3.814258000000000E+01      4.678650000000000E-01     -1.703438000000000E+02
4858000000.000000      3.712463000000000E-01      3.783398000000000E+01      4.646759000000000E-01     -1.712969000000000E+02
4859000000.000000      3.728638000000000E-01      3.759961000000000E+01      4.642487000000000E-01     -1.718281000000000E+02
4860000000.000000      3.738403000000000E-01      3.751367000000000E+01      4.608459000000000E-01     -1.725312000000000E+02
4861000000.000000      3.751526000000000E-01      3.708984000000000E+01      4.579468000000000E-01     -1.732812000000000E+02
4862000000.000000      3.753204000000000E-01      3.681445000000000E+01      4.546356000000000E-01     -1.739531000000000E+02
4863000000.000000      3.769836000000000E-01      3.667187000000000E+01      4.519653000000000E-01     -1.747422000000000E+02
4864000000.000000      3.768158000000000E-01      3.626367000000000E+01      4.475403000000000E-01     -1.752109000000000E+02
4865000000.000000      3.772125000000000E-01      3.607617000000000E+01      4.464264000000000E-01     -1.757578000000000E+02
4866000000.000000      3.788147000000000E-01      3.571875000000000E+01      4.435883000000000E-01     -1.767109000000000E+02
4867000000.000000      3.785400000000000E-01      3.553515000000000E+01      4.399414000000000E-01     -1.772891000000000E+02
4868000000.000000      3.802643000000000E-01      3.525000000000000E+01      4.376526000000000E-01     -1.779219000000000E+02
4869000000.000000      3.807678000000000E-01      3.491015000000000E+01      4.338531000000000E-01     -1.784922000000000E+02
4870000000.000000      3.818054000000000E-01      3.473828000000000E+01      4.308167000000000E-01     -1.789844000000000E+02
4871000000.000000      3.819122000000000E-01      3.439062000000000E+01      4.272156000000000E-01     -1.798125000000000E+02
4872000000.000000      3.833771000000000E-01      3.420117000000000E+01      4.235992000000000E-01      1.798516000000000E+02
4873000000.000000      3.836670000000000E-01      3.390820000000000E+01      4.204712000000000E-01      1.789453000000000E+02
4874000000.000000      3.841095000000000E-01      3.372656000000000E+01      4.166412000000000E-01      1.781328000000000E+02
4875000000.000000      3.842926000000000E-01      3.327734000000000E+01      4.141541000000000E-01      1.777187000000000E+02
4876000000.000000      3.852692000000000E-01      3.319336000000000E+01      4.094086000000000E-01      1.771406000000000E+02
4877000000.000000      3.861847000000000E-01      3.272656000000000E+01      4.062042000000000E-01      1.763359000000000E+02
4878000000.000000      3.850861000000000E-01      3.250391000000000E+01      4.050598000000000E-01      1.761406000000000E+02
4879000000.000000      3.868103000000000E-01      3.243164000000000E+01      3.992004000000000E-01      1.757500000000000E+02
4880000000.000000      3.869324000000000E-01      3.197949000000000E+01      3.970642000000000E-01      1.748672000000000E+02
4881000000.000000      3.865967000000000E-01      3.172070000000000E+01      3.928223000000000E-01      1.744844000000000E+02
4882000000.000000      3.875885000000000E-01      3.157812000000000E+01      3.898926000000000E-01      1.737187000000000E+02
4883000000.000000      3.872223000000000E-01      3.129980000000000E+01      3.852081000000000E-01      1.733828000000000E+02
4884000000.000000      3.875275000000000E-01      3.100683000000000E+01      3.813324000000000E-01      1.726797000000000E+02
4885000000.000000      3.877716000000000E-01      3.064550000000000E+01      3.780670000000000E-01      1.724688000000000E+02
4886000000.000000      3.884735000000000E-01      3.050976000000000E+01      3.748779000000000E-01      1.719844000000000E+02
4887000000.000000      3.875275000000000E-01      3.012793000000000E+01      3.717804000000000E-01      1.713906000000000E+02
4888000000.000000      3.878937000000000E-01      2.986133000000000E+01      3.694763000000000E-01      1.709297000000000E+02
4889000000.000000      3.876953000000000E-01      2.964453000000000E+01      3.643646000000000E-01      1.706250000000000E+02
4890000000.000000      3.870087000000000E-01      2.940722000000000E+01      3.608398000000000E-01      1.697266000000000E+02
4891000000.000000      3.880005000000000E-01      2.925781000000000E+01      3.576202000000000E-01      1.693047000000000E+02
4892000000.000000      3.883057000000000E-01      2.895996000000000E+01      3.539276000000000E-01      1.688906000000000E+02
4893000000.000000      3.877258000000000E-01      2.879492000000000E+01      3.502808000000000E-01      1.684453000000000E+02
4894000000.000000      3.876495000000000E-01      2.841601000000000E+01      3.454742000000000E-01      1.680625000000000E+02
4895000000.000000      3.876801000000000E-01      2.808984000000000E+01      3.428345000000000E-01      1.676953000000000E+02
4896000000.000000      3.872528000000000E-01      2.804199000000000E+01      3.397675000000000E-01      1.672969000000000E+02
4897000000.000000      3.872833000000000E-01      2.781933000000000E+01      3.361053000000000E-01      1.666094000000000E+02
4898000000.000000      3.882904000000000E-01      2.757813000000000E+01      3.339386000000000E-01      1.665156000000000E+02
4899000000.000000      3.875732000000000E-01      2.740527000000000E+01      3.289642000000000E-01      1.658281000000000E+02
4900000000.000000      3.874512000000000E-01      2.704394000000000E+01      3.257599000000000E-01      1.655625000000000E+02
4901000000.000000      3.872681000000000E-01      2.688965000000000E+01      3.227081000000000E-01      1.653125000000000E+02
4902000000.000000      3.874207000000000E-01      2.649609000000000E+01      3.197021000000000E-01      1.648594000000000E+02
4903000000.000000      3.871765000000000E-01      2.648340000000000E+01      3.153992000000000E-01      1.644297000000000E+02
4904000000.000000      3.855133000000000E-01      2.628125000000000E+01      3.127747000000000E-01      1.639609000000000E+02
4905000000.000000      3.862610000000000E-01      2.599414000000000E+01      3.093262000000000E-01      1.637109000000000E+02
4906000000.000000      3.855743000000000E-01      2.588867000000000E+01      3.058472000000000E-01      1.635313000000000E+02
4907000000.000000      3.857880000000000E-01      2.550586000000000E+01      3.025360000000000E-01      1.628906000000000E+02
4908000000.000000      3.852997000000000E-01      2.542480000000000E+01      2.991791000000000E-01      1.624609000000000E+02
4909000000.000000      3.843536000000000E-01      2.518066000000000E+01      2.952423000000000E-01      1.621172000000000E+02
4910000000.000000      3.843384000000000E-01      2.508105000000000E+01      2.917938000000000E-01      1.618047000000000E+02
4911000000.000000      3.850708000000000E-01      2.475293000000000E+01      2.882996000000000E-01      1.613672000000000E+02
4912000000.000000      3.847198000000000E-01      2.472265000000000E+01      2.844543000000000E-01      1.610000000000000E+02
4913000000.000000      3.847961000000000E-01      2.439844000000000E+01      2.808685000000000E-01      1.607344000000000E+02
4914000000.000000      3.844147000000000E-01      2.414453000000000E+01      2.770081000000000E-01      1.603906000000000E+02
4915000000.000000      3.833618000000000E-01      2.418066000000000E+01      2.736359000000000E-01      1.596953000000000E+02
4916000000.000000      3.835449000000000E-01      2.391797000000000E+01      2.701569000000000E-01      1.593281000000000E+02
4917000000.000000      3.831940000000000E-01      2.373145000000000E+01      2.672577000000000E-01      1.592969000000000E+02
4918000000.000000      3.829956000000000E-01      2.349121000000000E+01      2.621155000000000E-01      1.586719000000000E+02
4919000000.000000      3.825378000000000E-01      2.322754000000000E+01      2.592163000000000E-01      1.586875000000000E+02
4920000000.000000      3.822174000000000E-01      2.308300000000000E+01      2.543640000000000E-01      1.580937000000000E+02
4921000000.000000      3.811035000000000E-01      2.313574000000000E+01      2.516174000000000E-01      1.579687000000000E+02
4922000000.000000      3.814087000000000E-01      2.273730000000000E+01      2.469101000000000E-01      1.577578000000000E+02
4923000000.000000      3.810120000000000E-01      2.258301000000000E+01      2.424850000000000E-01      1.575234000000000E+02
4924000000.000000      3.805389000000000E-01      2.231543000000000E+01      2.386780000000000E-01      1.569922000000000E+02
4925000000.000000      3.804932000000000E-01      2.230762000000000E+01      2.352524000000000E-01      1.569609000000000E+02
4926000000.000000      3.802338000000000E-01      2.200684000000000E+01      2.318344000000000E-01      1.565625000000000E+02
4927000000.000000      3.801117000000000E-01      2.166211000000000E+01      2.267380000000000E-01      1.563359000000000E+02
4928000000.000000      3.806610000000000E-01      2.159472000000000E+01      2.230911000000000E-01      1.562891000000000E+02
4929000000.000000      3.793335000000000E-01      2.142188000000000E+01      2.186966000000000E-01      1.563672000000000E+02
4930000000.000000      3.795776000000000E-01      2.134961000000000E+01      2.150650000000000E-01      1.561016000000000E+02
4931000000.000000      3.793030000000000E-01      2.116992000000000E+01      2.111893000000000E-01      1.560937000000000E+02
4932000000.000000      3.795624000000000E-01      2.091504000000000E+01      2.066116000000000E-01      1.559219000000000E+02
4933000000.000000      3.794556000000000E-01      2.072363000000000E+01      2.017136000000000E-01      1.559922000000000E+02
4934000000.000000      3.789368000000000E-01      2.057129000000000E+01      1.980667000000000E-01      1.558984000000000E+02
4935000000.000000      3.789978000000000E-01      2.052734000000000E+01      1.949768000000000E-01      1.561094000000000E+02
4936000000.000000      3.777008000000000E-01      2.024902000000000E+01      1.900787000000000E-01      1.561563000000000E+02
4937000000.000000      3.783417000000000E-01      2.003125000000000E+01      1.863022000000000E-01      1.562578000000000E+02
4938000000.000000      3.773499000000000E-01      1.994336000000000E+01      1.829758000000000E-01      1.565234000000000E+02
4939000000.000000      3.763580000000000E-01      1.989844000000000E+01      1.784821000000000E-01      1.567500000000000E+02
4940000000.000000      3.771362000000000E-01      1.954687000000000E+01      1.742401000000000E-01      1.566172000000000E+02
4941000000.000000      3.778229000000000E-01      1.941797000000000E+01      1.705933000000000E-01      1.572500000000000E+02
4942000000.000000      3.759460000000000E-01      1.925488000000000E+01      1.667786000000000E-01      1.577109000000000E+02
4943000000.000000      3.759918000000000E-01      1.908594000000000E+01      1.626434000000000E-01      1.580391000000000E+02
4944000000.000000      3.757935000000000E-01      1.887793000000000E+01      1.592560000000000E-01      1.584375000000000E+02
4945000000.000000      3.752747000000000E-01      1.861719000000000E+01      1.550522000000000E-01      1.589687000000000E+02
4946000000.000000      3.754425000000000E-01      1.851660000000000E+01      1.514816000000000E-01      1.597344000000000E+02
4947000000.000000      3.749695000000000E-01      1.829199000000000E+01      1.481171000000000E-01      1.604453000000000E+02
4948000000.000000      3.759308000000000E-01      1.817773000000000E+01      1.443100000000000E-01      1.612187000000000E+02
4949000000.000000      3.741760000000000E-01      1.805859000000000E+01      1.417923000000000E-01      1.622578000000000E+02
4950000000.000000      3.741455000000000E-01      1.787695000000000E+01      1.379700000000000E-01      1.632187000000000E+02
4951000000.000000      3.737030000000000E-01      1.765625000000000E+01      1.355667000000000E-01      1.642578000000000E+02
4952000000.000000      3.729248000000000E-01      1.751562000000000E+01      1.322708000000000E-01      1.652031000000000E+02
4953000000.000000      3.731384000000000E-01      1.729590000000000E+01      1.298141000000000E-01      1.666328000000000E+02
4954000000.000000      3.727264000000000E-01      1.714258000000000E+01      1.270981000000000E-01      1.678203000000000E+02
