! Network Analyzer HP8722D
! Hewlett-Packard
! Data name: Linha & Wilkinson
! Saver's name: Rodrigo Anjos
! Comments: Teste da utilização de aquisição
continua pelo VNA HP8722D
! Time and date: 23/5/2025 11:49
!              Frequency                     S11                                                   S21                                                   S12                                                   S22
# HZ  S  MA R 50
4800000000.000000      3.061829000000000E-01      3.790820000000000E+01      4.737854000000000E-01     -1.280937000000000E+02
4801000000.000000      3.073273000000000E-01      3.815625000000000E+01      4.743500000000000E-01     -1.287109000000000E+02
4802000000.000000      3.077393000000000E-01      3.828320000000000E+01      4.758148000000000E-01     -1.294375000000000E+02
4803000000.000000      3.086395000000000E-01      3.847265000000000E+01      4.789581000000000E-01     -1.302031000000000E+02
4804000000.000000      3.098907000000000E-01      3.873242000000000E+01      4.800720000000000E-01     -1.309219000000000E+02
4805000000.000000      3.116302000000000E-01      3.876367000000000E+01      4.807739000000000E-01     -1.316719000000000E+02
4806000000.000000      3.119965000000000E-01      3.905078000000000E+01      4.827728000000000E-01     -1.324063000000000E+02
4807000000.000000      3.133240000000000E-01      3.916406000000000E+01      4.836121000000000E-01     -1.333281000000000E+02
4808000000.000000      3.140869000000000E-01      3.934570000000000E+01      4.853058000000000E-01     -1.337734000000000E+02
4809000000.000000      3.158722000000000E-01      3.960156000000000E+01      4.857025000000000E-01     -1.346250000000000E+02
4810000000.000000      3.172150000000000E-01      3.962305000000000E+01      4.867554000000000E-01     -1.351953000000000E+02
4811000000.000000      3.188477000000000E-01      3.976758000000000E+01      4.896698000000000E-01     -1.361562000000000E+02
4812000000.000000      3.208313000000000E-01      4.001562000000000E+01      4.892273000000000E-01     -1.368047000000000E+02
4813000000.000000      3.213654000000000E-01      4.012695000000000E+01      4.903107000000000E-01     -1.375078000000000E+02
4814000000.000000      3.228149000000000E-01      4.015429000000000E+01      4.915619000000000E-01     -1.381641000000000E+02
4815000000.000000      3.239136000000000E-01      4.037499000000000E+01      4.913330000000000E-01     -1.390234000000000E+02
4816000000.000000      3.263245000000000E-01      4.043359000000000E+01      4.929047000000000E-01     -1.397344000000000E+02
4817000000.000000      3.274689000000000E-01      4.043359000000000E+01      4.930267000000000E-01     -1.406016000000000E+02
4818000000.000000      3.287201000000000E-01      4.053320000000000E+01      4.945679000000000E-01     -1.411797000000000E+02
4819000000.000000      3.309021000000000E-01      4.053320000000000E+01      4.928284000000000E-01     -1.418281000000000E+02
4820000000.000000      3.316498000000000E-01      4.068359000000000E+01      4.936523000000000E-01     -1.426875000000000E+02
4821000000.000000      3.344116000000000E-01      4.071485000000000E+01      4.944916000000000E-01     -1.433594000000000E+02
4822000000.000000      3.356628000000000E-01      4.067383000000000E+01      4.935760000000000E-01     -1.441094000000000E+02
4823000000.000000      3.376770000000000E-01      4.064062000000000E+01      4.945374000000000E-01     -1.450156000000000E+02
4824000000.000000      3.388519000000000E-01      4.084961000000000E+01      4.936523000000000E-01     -1.456094000000000E+02
4825000000.000000      3.406677000000000E-01      4.066211000000000E+01      4.946289000000000E-01     -1.463281000000000E+02
4826000000.000000      3.420410000000000E-01      4.066015000000000E+01      4.939728000000000E-01     -1.472265000000000E+02
4827000000.000000      3.441772000000000E-01      4.066992000000000E+01      4.927979000000000E-01     -1.476172000000000E+02
4828000000.000000      3.469696000000000E-01      4.060547000000000E+01      4.941711000000000E-01     -1.483750000000000E+02
4829000000.000000      3.479767000000000E-01      4.063672000000000E+01      4.927216000000000E-01     -1.493047000000000E+02
4830000000.000000      3.499451000000000E-01      4.045117000000000E+01      4.930878000000000E-01     -1.499219000000000E+02
4831000000.000000      3.508606000000000E-01      4.048633000000000E+01      4.912567000000000E-01     -1.508125000000000E+02
4832000000.000000      3.531494000000000E-01      4.051171000000000E+01      4.902496000000000E-01     -1.513672000000000E+02
4833000000.000000      3.538971000000000E-01      4.041016000000000E+01      4.891815000000000E-01     -1.519766000000000E+02
4834000000.000000      3.554688000000000E-01      4.017578000000000E+01      4.903259000000000E-01     -1.528906000000000E+02
4835000000.000000      3.588867000000000E-01      4.011132000000000E+01      4.889984000000000E-01     -1.534688000000000E+02
4836000000.000000      3.599854000000000E-01      4.013085000000000E+01      4.878082000000000E-01     -1.543437000000000E+02
4837000000.000000      3.612366000000000E-01      4.009570000000000E+01      4.848785000000000E-01     -1.551563000000000E+02
4838000000.000000      3.622437000000000E-01      3.991601000000000E+01      4.862671000000000E-01     -1.556094000000000E+02
4839000000.000000      3.658142000000000E-01      3.980859000000000E+01      4.851990000000000E-01     -1.564375000000000E+02
4840000000.000000      3.665924000000000E-01      3.963476000000000E+01      4.834747000000000E-01     -1.571016000000000E+02
4841000000.000000      3.682251000000000E-01      3.951757000000000E+01      4.834442000000000E-01     -1.577578000000000E+02
4842000000.000000      3.694458000000000E-01      3.933008000000000E+01      4.806213000000000E-01     -1.586406000000000E+02
4843000000.000000      3.721466000000000E-01      3.901367000000000E+01      4.798584000000000E-01     -1.592109000000000E+02
4844000000.000000      3.726044000000000E-01      3.889843000000000E+01      4.790192000000000E-01     -1.600000000000000E+02
4845000000.000000      3.739929000000000E-01      3.884375000000000E+01      4.775696000000000E-01     -1.606250000000000E+02
4846000000.000000      3.763580000000000E-01      3.869141000000000E+01      4.759521000000000E-01     -1.612422000000000E+02
4847000000.000000      3.776398000000000E-01      3.853125000000000E+01      4.750061000000000E-01     -1.621016000000000E+02
4848000000.000000      3.784027000000000E-01      3.834375000000000E+01      4.710236000000000E-01     -1.628203000000000E+02
4849000000.000000      3.800812000000000E-01      3.804688000000000E+01      4.714813000000000E-01     -1.635703000000000E+02
4850000000.000000      3.819885000000000E-01      3.803320000000000E+01      4.682465000000000E-01     -1.641406000000000E+02
4851000000.000000      3.830719000000000E-01      3.787695000000000E+01      4.678802000000000E-01     -1.650625000000000E+02
4852000000.000000      3.847504000000000E-01      3.762890000000000E+01      4.647675000000000E-01     -1.657266000000000E+02
4853000000.000000      3.851013000000000E-01      3.737695000000000E+01      4.631958000000000E-01     -1.663125000000000E+02
4854000000.000000      3.870544000000000E-01      3.721875000000000E+01      4.600677000000000E-01     -1.670234000000000E+02
4855000000.000000      3.880768000000000E-01      3.701953000000000E+01      4.584503000000000E-01     -1.678125000000000E+02
4856000000.000000      3.890686000000000E-01      3.674219000000000E+01      4.553680000000000E-01     -1.683828000000000E+02
4857000000.000000      3.910828000000000E-01      3.658398000000000E+01      4.535065000000000E-01     -1.692344000000000E+02
4858000000.000000      3.923035000000000E-01      3.620117000000000E+01      4.518738000000000E-01     -1.698359000000000E+02
4859000000.000000      3.929596000000000E-01      3.613672000000000E+01      4.496155000000000E-01     -1.706016000000000E+02
4860000000.000000      3.935547000000000E-01      3.591797000000000E+01      4.459686000000000E-01     -1.711797000000000E+02
4861000000.000000      3.948517000000000E-01      3.572461000000000E+01      4.447327000000000E-01     -1.721016000000000E+02
4862000000.000000      3.957520000000000E-01      3.547266000000000E+01      4.432831000000000E-01     -1.726172000000000E+02
4863000000.000000      3.965302000000000E-01      3.528906000000000E+01      4.381866000000000E-01     -1.733438000000000E+02
4864000000.000000      3.977661000000000E-01      3.496094000000000E+01      4.359283000000000E-01     -1.739141000000000E+02
4865000000.000000      3.986053000000000E-01      3.467187000000000E+01      4.327545000000000E-01     -1.746406000000000E+02
4866000000.000000      3.993225000000000E-01      3.430273000000000E+01      4.291687000000000E-01     -1.753515000000000E+02
4867000000.000000      3.990173000000000E-01      3.426367000000000E+01      4.261017000000000E-01     -1.762031000000000E+02
4868000000.000000      4.008789000000000E-01      3.403125000000000E+01      4.236450000000000E-01     -1.766797000000000E+02
4869000000.000000      4.014130000000000E-01      3.379492000000000E+01      4.210815000000000E-01     -1.774844000000000E+02
4870000000.000000      4.024811000000000E-01      3.355859000000000E+01      4.200592000000000E-01     -1.778984000000000E+02
4871000000.000000      4.022980000000000E-01      3.316601000000000E+01      4.148865000000000E-01     -1.785312000000000E+02
4872000000.000000      4.043121000000000E-01      3.302343000000000E+01      4.118042000000000E-01     -1.790781000000000E+02
4873000000.000000      4.040833000000000E-01      3.283984000000000E+01      4.082184000000000E-01     -1.798203000000000E+02
4874000000.000000      4.046173000000000E-01      3.264843000000000E+01      4.041138000000000E-01      1.795547000000000E+02
4875000000.000000      4.053955000000000E-01      3.225586000000000E+01      4.008331000000000E-01      1.790859000000000E+02
4876000000.000000      4.057159000000000E-01      3.221484000000000E+01      3.973541000000000E-01      1.785938000000000E+02
4877000000.000000      4.071045000000000E-01      3.180469000000000E+01      3.944092000000000E-01      1.777109000000000E+02
4878000000.000000      4.065247000000000E-01      3.154297000000000E+01      3.917084000000000E-01      1.775312000000000E+02
4879000000.000000      4.077759000000000E-01      3.145020000000000E+01      3.875580000000000E-01      1.769453000000000E+02
4880000000.000000      4.081573000000000E-01      3.110156000000000E+01      3.842163000000000E-01      1.762578000000000E+02
4881000000.000000      4.087067000000000E-01      3.083984000000000E+01      3.813477000000000E-01      1.758750000000000E+02
4882000000.000000      4.089661000000000E-01      3.063477000000000E+01      3.773041000000000E-01      1.749063000000000E+02
4883000000.000000      4.086609000000000E-01      3.032324000000000E+01      3.733673000000000E-01      1.744297000000000E+02
4884000000.000000      4.093323000000000E-01      3.015429000000000E+01      3.708801000000000E-01      1.739375000000000E+02
4885000000.000000      4.089355000000000E-01      2.998437000000000E+01      3.662567000000000E-01      1.735937000000000E+02
4886000000.000000      4.096680000000000E-01      2.974804000000000E+01      3.626556000000000E-01      1.731875000000000E+02
4887000000.000000      4.097900000000000E-01      2.958984000000000E+01      3.603210000000000E-01      1.725937000000000E+02
4888000000.000000      4.096375000000000E-01      2.918652000000000E+01      3.550262000000000E-01      1.722265000000000E+02
4889000000.000000      4.092102000000000E-01      2.901758000000000E+01      3.521576000000000E-01      1.717266000000000E+02
4890000000.000000      4.088593000000000E-01      2.878613000000000E+01      3.495178000000000E-01      1.708203000000000E+02
4891000000.000000      4.105530000000000E-01      2.850586000000000E+01      3.452911000000000E-01      1.706484000000000E+02
4892000000.000000      4.091644000000000E-01      2.820313000000000E+01      3.421631000000000E-01      1.701875000000000E+02
4893000000.000000      4.096375000000000E-01      2.802832000000000E+01      3.373718000000000E-01      1.695391000000000E+02
4894000000.000000      4.098816000000000E-01      2.783594000000000E+01      3.343964000000000E-01      1.694297000000000E+02
4895000000.000000      4.108582000000000E-01      2.764843000000000E+01      3.318787000000000E-01      1.689844000000000E+02
4896000000.000000      4.102173000000000E-01      2.745605000000000E+01      3.291321000000000E-01      1.684453000000000E+02
4897000000.000000      4.096832000000000E-01      2.728808000000000E+01      3.233337000000000E-01      1.680859000000000E+02
4898000000.000000      4.098816000000000E-01      2.706738000000000E+01      3.213959000000000E-01      1.678437000000000E+02
4899000000.000000      4.099121000000000E-01      2.684863000000000E+01      3.177032000000000E-01      1.672109000000000E+02
4900000000.000000      4.091187000000000E-01      2.651758000000000E+01      3.141479000000000E-01      1.669453000000000E+02
4901000000.000000      4.094849000000000E-01      2.636816000000000E+01      3.110199000000000E-01      1.664766000000000E+02
4902000000.000000      4.097595000000000E-01      2.611133000000000E+01      3.084412000000000E-01      1.660938000000000E+02
4903000000.000000      4.092712000000000E-01      2.599707000000000E+01      3.036346000000000E-01      1.656797000000000E+02
4904000000.000000      4.093781000000000E-01      2.560547000000000E+01      3.003235000000000E-01      1.654375000000000E+02
4905000000.000000      4.089813000000000E-01      2.555078000000000E+01      2.965698000000000E-01      1.649297000000000E+02
4906000000.000000      4.087830000000000E-01      2.549023000000000E+01      2.944641000000000E-01      1.647344000000000E+02
4907000000.000000      4.088440000000000E-01      2.518261000000000E+01      2.917175000000000E-01      1.639453000000000E+02
4908000000.000000      4.085999000000000E-01      2.490527000000000E+01      2.879791000000000E-01      1.637578000000000E+02
4909000000.000000      4.071808000000000E-01      2.476660000000000E+01      2.834320000000000E-01      1.633359000000000E+02
4910000000.000000      4.067383000000000E-01      2.472851000000000E+01      2.806549000000000E-01      1.630859000000000E+02
4911000000.000000      4.078522000000000E-01      2.458301000000000E+01      2.779694000000000E-01      1.626406000000000E+02
4912000000.000000      4.072113000000000E-01      2.445801000000000E+01      2.740784000000000E-01      1.621719000000000E+02
4913000000.000000      4.080811000000000E-01      2.404980000000000E+01      2.705688000000000E-01      1.620234000000000E+02
4914000000.000000      4.073944000000000E-01      2.394824000000000E+01      2.669983000000000E-01      1.616328000000000E+02
4915000000.000000      4.068146000000000E-01      2.380957000000000E+01      2.624207000000000E-01      1.610547000000000E+02
4916000000.000000      4.060059000000000E-01      2.363476000000000E+01      2.595062000000000E-01      1.608281000000000E+02
4917000000.000000      4.070740000000000E-01      2.345215000000000E+01      2.562866000000000E-01      1.605703000000000E+02
4918000000.000000      4.068909000000000E-01      2.325195000000000E+01      2.519684000000000E-01      1.601328000000000E+02
4919000000.000000      4.040527000000000E-01      2.308594000000000E+01      2.492065000000000E-01      1.601953000000000E+02
4920000000.000000      4.069061000000000E-01      2.293945000000000E+01      2.446289000000000E-01      1.595000000000000E+02
4921000000.000000      4.054565000000000E-01      2.281445000000000E+01      2.415543000000000E-01      1.594609000000000E+02
4922000000.000000      4.063568000000000E-01      2.242090000000000E+01      2.374420000000000E-01      1.591797000000000E+02
4923000000.000000      4.055176000000000E-01      2.239551000000000E+01      2.336426000000000E-01      1.591172000000000E+02
4924000000.000000      4.039459000000000E-01      2.221680000000000E+01      2.294617000000000E-01      1.585391000000000E+02
4925000000.000000      4.038849000000000E-01      2.205761000000000E+01      2.256393000000000E-01      1.584531000000000E+02
4926000000.000000      4.039307000000000E-01      2.195605000000000E+01      2.219772000000000E-01      1.582656000000000E+02
4927000000.000000      4.034576000000000E-01      2.170703000000000E+01      2.179108000000000E-01      1.580078000000000E+02
4928000000.000000      4.048309000000000E-01      2.141211000000000E+01      2.140656000000000E-01      1.577812000000000E+02
4929000000.000000      4.034882000000000E-01      2.128125000000000E+01      2.095490000000000E-01      1.578281000000000E+02
4930000000.000000      4.034119000000000E-01      2.113183000000000E+01      2.065277000000000E-01      1.575312000000000E+02
4931000000.000000      4.029388000000000E-01      2.090625000000000E+01      2.027893000000000E-01      1.576406000000000E+02
4932000000.000000      4.031219000000000E-01      2.090527000000000E+01      1.985245000000000E-01      1.574609000000000E+02
4933000000.000000      4.025421000000000E-01      2.062598000000000E+01      1.936188000000000E-01      1.576562000000000E+02
4934000000.000000      4.026184000000000E-01      2.045605000000000E+01      1.901016000000000E-01      1.575156000000000E+02
4935000000.000000      4.031982000000000E-01      2.033105000000000E+01      1.864166000000000E-01      1.579219000000000E+02
4936000000.000000      4.021454000000000E-01      2.015918000000000E+01      1.825104000000000E-01      1.577969000000000E+02
4937000000.000000      4.018860000000000E-01      1.993457000000000E+01      1.787033000000000E-01      1.579609000000000E+02
4938000000.000000      4.007416000000000E-01      1.994629000000000E+01      1.750107000000000E-01      1.581563000000000E+02
4939000000.000000      4.023132000000000E-01      1.975586000000000E+01      1.709442000000000E-01      1.585000000000000E+02
4940000000.000000      4.010315000000000E-01      1.948144000000000E+01      1.669006000000000E-01      1.586016000000000E+02
4941000000.000000      4.007416000000000E-01      1.938477000000000E+01      1.635971000000000E-01      1.591328000000000E+02
4942000000.000000      4.005432000000000E-01      1.925586000000000E+01      1.593094000000000E-01      1.593203000000000E+02
4943000000.000000      4.010315000000000E-01      1.917773000000000E+01      1.559525000000000E-01      1.598438000000000E+02
4944000000.000000      4.000549000000000E-01      1.883691000000000E+01      1.522675000000000E-01      1.604297000000000E+02
4945000000.000000      3.997803000000000E-01      1.871191000000000E+01      1.485825000000000E-01      1.610312000000000E+02
4946000000.000000      4.008789000000000E-01      1.858594000000000E+01      1.450806000000000E-01      1.617266000000000E+02
4947000000.000000      3.992310000000000E-01      1.839160000000000E+01      1.417313000000000E-01      1.625781000000000E+02
4948000000.000000      3.998566000000000E-01      1.824805000000000E+01      1.389771000000000E-01      1.633125000000000E+02
4949000000.000000      3.985291000000000E-01      1.814355000000000E+01      1.358719000000000E-01      1.644297000000000E+02
4950000000.000000      3.993988000000000E-01      1.803320000000000E+01      1.325302000000000E-01      1.653047000000000E+02
4951000000.000000      3.994598000000000E-01      1.761328000000000E+01      1.297226000000000E-01      1.664219000000000E+02
4952000000.000000      3.970947000000000E-01      1.745410000000000E+01      1.267929000000000E-01      1.674922000000000E+02
4953000000.000000      3.975220000000000E-01      1.748535000000000E+01      1.246376000000000E-01      1.686563000000000E+02
4954000000.000000      3.971558000000000E-01      1.732226000000000E+01      1.221962000000000E-01      1.701094000000000E+02
