! Network Analyzer HP8722D
! Hewlett-Packard
! Data name: Linha & Wilkinson
! Saver's name: Rodrigo Anjos
! Comments: Teste da utilização de aquisição
continua pelo VNA HP8722D
! Time and date: 23/5/2025 10:20
!              Frequency                     S11                                                   S21                                                   S12                                                   S22
# HZ  S  MA R 50
4800000000.000000      3.146057000000000E-01      3.715820000000000E+01      4.700012000000000E-01     -1.280391000000000E+02
4801000000.000000      3.151855000000000E-01      3.734766000000000E+01      4.698029000000000E-01     -1.285078000000000E+02
4802000000.000000      3.165131000000000E-01      3.757421000000000E+01      4.726105000000000E-01     -1.291953000000000E+02
4803000000.000000      3.165894000000000E-01      3.778320000000000E+01      4.739838000000000E-01     -1.299453000000000E+02
4804000000.000000      3.175049000000000E-01      3.803125000000000E+01      4.768982000000000E-01     -1.308359000000000E+02
4805000000.000000      3.199005000000000E-01      3.800195000000000E+01      4.771118000000000E-01     -1.314453000000000E+02
4806000000.000000      3.199768000000000E-01      3.827734000000000E+01      4.785156000000000E-01     -1.322187000000000E+02
4807000000.000000      3.210754000000000E-01      3.836914000000000E+01      4.803619000000000E-01     -1.331250000000000E+02
4808000000.000000      3.215485000000000E-01      3.861133000000000E+01      4.829712000000000E-01     -1.336875000000000E+02
4809000000.000000      3.235321000000000E-01      3.871484000000000E+01      4.832916000000000E-01     -1.344922000000000E+02
4810000000.000000      3.248596000000000E-01      3.889843000000000E+01      4.850006000000000E-01     -1.351719000000000E+02
4811000000.000000      3.265686000000000E-01      3.905078000000000E+01      4.858246000000000E-01     -1.359688000000000E+02
4812000000.000000      3.285980000000000E-01      3.917969000000000E+01      4.856567000000000E-01     -1.367578000000000E+02
4813000000.000000      3.290405000000000E-01      3.932422000000000E+01      4.862213000000000E-01     -1.374063000000000E+02
4814000000.000000      3.302155000000000E-01      3.937500000000000E+01      4.877777000000000E-01     -1.381094000000000E+02
4815000000.000000      3.314819000000000E-01      3.951757000000000E+01      4.871216000000000E-01     -1.387734000000000E+02
4816000000.000000      3.339996000000000E-01      3.965234000000000E+01      4.901886000000000E-01     -1.395625000000000E+02
4817000000.000000      3.351746000000000E-01      3.967968000000000E+01      4.879608000000000E-01     -1.403047000000000E+02
4818000000.000000      3.356171000000000E-01      3.975976000000000E+01      4.889679000000000E-01     -1.411719000000000E+02
4819000000.000000      3.380280000000000E-01      3.979687000000000E+01      4.901428000000000E-01     -1.418203000000000E+02
4820000000.000000      3.392334000000000E-01      3.988867000000000E+01      4.900513000000000E-01     -1.425234000000000E+02
4821000000.000000      3.421783000000000E-01      3.989062000000000E+01      4.902039000000000E-01     -1.431953000000000E+02
4822000000.000000      3.422852000000000E-01      3.984766000000000E+01      4.901428000000000E-01     -1.439766000000000E+02
4823000000.000000      3.444824000000000E-01      3.985937000000000E+01      4.901123000000000E-01     -1.446953000000000E+02
4824000000.000000      3.460693000000000E-01      3.998437000000000E+01      4.896393000000000E-01     -1.455547000000000E+02
4825000000.000000      3.479156000000000E-01      3.988476000000000E+01      4.895020000000000E-01     -1.461250000000000E+02
4826000000.000000      3.492584000000000E-01      3.984961000000000E+01      4.891663000000000E-01     -1.470078000000000E+02
4827000000.000000      3.511658000000000E-01      3.988281000000000E+01      4.882050000000000E-01     -1.476719000000000E+02
4828000000.000000      3.536224000000000E-01      3.980664000000000E+01      4.886932000000000E-01     -1.483281000000000E+02
4829000000.000000      3.550415000000000E-01      3.987890000000000E+01      4.884796000000000E-01     -1.491094000000000E+02
4830000000.000000      3.569031000000000E-01      3.974609000000000E+01      4.887695000000000E-01     -1.499219000000000E+02
4831000000.000000      3.578186000000000E-01      3.974023000000000E+01      4.871216000000000E-01     -1.506719000000000E+02
4832000000.000000      3.596497000000000E-01      3.971094000000000E+01      4.858246000000000E-01     -1.513515000000000E+02
4833000000.000000      3.611755000000000E-01      3.957226000000000E+01      4.866943000000000E-01     -1.517656000000000E+02
4834000000.000000      3.628082000000000E-01      3.954102000000000E+01      4.848022000000000E-01     -1.527578000000000E+02
4835000000.000000      3.646240000000000E-01      3.945508000000000E+01      4.853973000000000E-01     -1.533594000000000E+02
4836000000.000000      3.666840000000000E-01      3.937500000000000E+01      4.825134000000000E-01     -1.540625000000000E+02
4837000000.000000      3.677673000000000E-01      3.930859000000000E+01      4.800720000000000E-01     -1.549766000000000E+02
4838000000.000000      3.692017000000000E-01      3.906641000000000E+01      4.819641000000000E-01     -1.554062000000000E+02
4839000000.000000      3.726959000000000E-01      3.911133000000000E+01      4.798126000000000E-01     -1.562344000000000E+02
4840000000.000000      3.730621000000000E-01      3.879101000000000E+01      4.802246000000000E-01     -1.569453000000000E+02
4841000000.000000      3.749695000000000E-01      3.883203000000000E+01      4.786224000000000E-01     -1.575938000000000E+02
4842000000.000000      3.762207000000000E-01      3.856836000000000E+01      4.762726000000000E-01     -1.582656000000000E+02
4843000000.000000      3.782806000000000E-01      3.833593000000000E+01      4.769287000000000E-01     -1.592109000000000E+02
4844000000.000000      3.793335000000000E-01      3.826757000000000E+01      4.739380000000000E-01     -1.596953000000000E+02
4845000000.000000      3.812103000000000E-01      3.820313000000000E+01      4.728088000000000E-01     -1.605234000000000E+02
4846000000.000000      3.825836000000000E-01      3.808789000000000E+01      4.728394000000000E-01     -1.613750000000000E+02
4847000000.000000      3.836823000000000E-01      3.797266000000000E+01      4.696655000000000E-01     -1.619219000000000E+02
4848000000.000000      3.846130000000000E-01      3.768555000000000E+01      4.676971000000000E-01     -1.626875000000000E+02
4849000000.000000      3.861694000000000E-01      3.737500000000000E+01      4.662170000000000E-01     -1.633594000000000E+02
4850000000.000000      3.878021000000000E-01      3.731640000000000E+01      4.639130000000000E-01     -1.640312000000000E+02
4851000000.000000      3.898621000000000E-01      3.720508000000000E+01      4.630890000000000E-01     -1.648906000000000E+02
4852000000.000000      3.908844000000000E-01      3.698633000000000E+01      4.599762000000000E-01     -1.655859000000000E+02
4853000000.000000      3.917694000000000E-01      3.678125000000000E+01      4.584198000000000E-01     -1.661328000000000E+02
4854000000.000000      3.927155000000000E-01      3.653320000000000E+01      4.559784000000000E-01     -1.669531000000000E+02
4855000000.000000      3.938904000000000E-01      3.645117000000000E+01      4.543762000000000E-01     -1.677109000000000E+02
4856000000.000000      3.953705000000000E-01      3.613867000000000E+01      4.520264000000000E-01     -1.684844000000000E+02
4857000000.000000      3.970032000000000E-01      3.606445000000000E+01      4.499969000000000E-01     -1.691094000000000E+02
4858000000.000000      3.980255000000000E-01      3.568945000000000E+01      4.474640000000000E-01     -1.699141000000000E+02
4859000000.000000      3.988647000000000E-01      3.548242000000000E+01      4.459686000000000E-01     -1.706875000000000E+02
4860000000.000000      4.001007000000000E-01      3.536133000000000E+01      4.423676000000000E-01     -1.709453000000000E+02
4861000000.000000      4.009094000000000E-01      3.507226000000000E+01      4.394379000000000E-01     -1.719297000000000E+02
4862000000.000000      4.011536000000000E-01      3.485547000000000E+01      4.391022000000000E-01     -1.723594000000000E+02
4863000000.000000      4.019012000000000E-01      3.473828000000000E+01      4.341125000000000E-01     -1.730937000000000E+02
4864000000.000000      4.034271000000000E-01      3.444336000000000E+01      4.317322000000000E-01     -1.740156000000000E+02
4865000000.000000      4.042053000000000E-01      3.411914000000000E+01      4.292603000000000E-01     -1.743984000000000E+02
4866000000.000000      4.052887000000000E-01      3.388672000000000E+01      4.254761000000000E-01     -1.752344000000000E+02
4867000000.000000      4.052582000000000E-01      3.381640000000000E+01      4.219513000000000E-01     -1.759922000000000E+02
4868000000.000000      4.069214000000000E-01      3.351563000000000E+01      4.201965000000000E-01     -1.766875000000000E+02
4869000000.000000      4.072418000000000E-01      3.327148000000000E+01      4.169922000000000E-01     -1.774297000000000E+02
4870000000.000000      4.089966000000000E-01      3.300586000000000E+01      4.135284000000000E-01     -1.778672000000000E+02
4871000000.000000      4.092560000000000E-01      3.276367000000000E+01      4.108276000000000E-01     -1.783906000000000E+02
4872000000.000000      4.101868000000000E-01      3.257813000000000E+01      4.057465000000000E-01     -1.789297000000000E+02
4873000000.000000      4.104309000000000E-01      3.234961000000000E+01      4.031677000000000E-01     -1.797969000000000E+02
4874000000.000000      4.110107000000000E-01      3.205273000000000E+01      4.004059000000000E-01      1.798359000000000E+02
4875000000.000000      4.114075000000000E-01      3.174902000000000E+01      3.960266000000000E-01      1.790859000000000E+02
4876000000.000000      4.120026000000000E-01      3.179296000000000E+01      3.934784000000000E-01      1.785859000000000E+02
4877000000.000000      4.129791000000000E-01      3.130273000000000E+01      3.894806000000000E-01      1.778203000000000E+02
4878000000.000000      4.125366000000000E-01      3.102636000000000E+01      3.874664000000000E-01      1.773516000000000E+02
4879000000.000000      4.143219000000000E-01      3.103613000000000E+01      3.829193000000000E-01      1.768594000000000E+02
4880000000.000000      4.141388000000000E-01      3.059961000000000E+01      3.793640000000000E-01      1.763515000000000E+02
4881000000.000000      4.136353000000000E-01      3.046289000000000E+01      3.765717000000000E-01      1.759140000000000E+02
4882000000.000000      4.143524000000000E-01      3.018066000000000E+01      3.724823000000000E-01      1.752500000000000E+02
4883000000.000000      4.144287000000000E-01      2.985254000000000E+01      3.692322000000000E-01      1.746953000000000E+02
4884000000.000000      4.160156000000000E-01      2.971777000000000E+01      3.651123000000000E-01      1.740313000000000E+02
4885000000.000000      4.158020000000000E-01      2.958984000000000E+01      3.624268000000000E-01      1.737578000000000E+02
4886000000.000000      4.162292000000000E-01      2.940722000000000E+01      3.586884000000000E-01      1.731328000000000E+02
4887000000.000000      4.159088000000000E-01      2.919043000000000E+01      3.557129000000000E-01      1.729531000000000E+02
4888000000.000000      4.161987000000000E-01      2.874023000000000E+01      3.518829000000000E-01      1.721953000000000E+02
4889000000.000000      4.160919000000000E-01      2.855566000000000E+01      3.478088000000000E-01      1.719063000000000E+02
4890000000.000000      4.162598000000000E-01      2.831445000000000E+01      3.434753000000000E-01      1.710781000000000E+02
4891000000.000000      4.167328000000000E-01      2.819433000000000E+01      3.410034000000000E-01      1.710781000000000E+02
4892000000.000000      4.156952000000000E-01      2.790332000000000E+01      3.364563000000000E-01      1.708047000000000E+02
4893000000.000000      4.172058000000000E-01      2.771289000000000E+01      3.340759000000000E-01      1.696328000000000E+02
4894000000.000000      4.167786000000000E-01      2.761621000000000E+01      3.312531000000000E-01      1.696953000000000E+02
4895000000.000000      4.174347000000000E-01      2.725390000000000E+01      3.256989000000000E-01      1.691797000000000E+02
4896000000.000000      4.169922000000000E-01      2.704394000000000E+01      3.240814000000000E-01      1.686406000000000E+02
4897000000.000000      4.151459000000000E-01      2.679101000000000E+01      3.205872000000000E-01      1.684062000000000E+02
4898000000.000000      4.162903000000000E-01      2.670312000000000E+01      3.170776000000000E-01      1.679375000000000E+02
4899000000.000000      4.158020000000000E-01      2.651464000000000E+01      3.143158000000000E-01      1.673594000000000E+02
4900000000.000000      4.158325000000000E-01      2.620703000000000E+01      3.101807000000000E-01      1.672266000000000E+02
4901000000.000000      4.158783000000000E-01      2.592480000000000E+01      3.071289000000000E-01      1.666641000000000E+02
4902000000.000000      4.159088000000000E-01      2.588867000000000E+01      3.035278000000000E-01      1.663984000000000E+02
4903000000.000000      4.158173000000000E-01      2.581152000000000E+01      2.998810000000000E-01      1.657422000000000E+02
4904000000.000000      4.154968000000000E-01      2.553711000000000E+01      2.963715000000000E-01      1.654687000000000E+02
4905000000.000000      4.158630000000000E-01      2.535058000000000E+01      2.935333000000000E-01      1.650859000000000E+02
4906000000.000000      4.146271000000000E-01      2.506445000000000E+01      2.901459000000000E-01      1.648828000000000E+02
4907000000.000000      4.158020000000000E-01      2.490429000000000E+01      2.875824000000000E-01      1.644453000000000E+02
4908000000.000000      4.140625000000000E-01      2.466699000000000E+01      2.842712000000000E-01      1.640000000000000E+02
4909000000.000000      4.152222000000000E-01      2.447851000000000E+01      2.801361000000000E-01      1.637109000000000E+02
4910000000.000000      4.142151000000000E-01      2.436621000000000E+01      2.761536000000000E-01      1.631953000000000E+02
4911000000.000000      4.144440000000000E-01      2.430371000000000E+01      2.733154000000000E-01      1.629375000000000E+02
4912000000.000000      4.142303000000000E-01      2.404980000000000E+01      2.697601000000000E-01      1.625078000000000E+02
4913000000.000000      4.148407000000000E-01      2.390039000000000E+01      2.668457000000000E-01      1.622109000000000E+02
4914000000.000000      4.141998000000000E-01      2.365820000000000E+01      2.631378000000000E-01      1.619453000000000E+02
4915000000.000000      4.138947000000000E-01      2.363672000000000E+01      2.590790000000000E-01      1.614219000000000E+02
4916000000.000000      4.135895000000000E-01      2.330469000000000E+01      2.555695000000000E-01      1.611328000000000E+02
4917000000.000000      4.132843000000000E-01      2.327929000000000E+01      2.522888000000000E-01      1.608359000000000E+02
4918000000.000000      4.131775000000000E-01      2.293359000000000E+01      2.477112000000000E-01      1.604609000000000E+02
4919000000.000000      4.115601000000000E-01      2.271973000000000E+01      2.449036000000000E-01      1.604219000000000E+02
4920000000.000000      4.124298000000000E-01      2.268750000000000E+01      2.408905000000000E-01      1.598203000000000E+02
4921000000.000000      4.128571000000000E-01      2.256250000000000E+01      2.367630000000000E-01      1.597656000000000E+02
4922000000.000000      4.119873000000000E-01      2.230469000000000E+01      2.339478000000000E-01      1.596953000000000E+02
4923000000.000000      4.117737000000000E-01      2.234473000000000E+01      2.294922000000000E-01      1.593750000000000E+02
4924000000.000000      4.114685000000000E-01      2.211914000000000E+01      2.253876000000000E-01      1.589062000000000E+02
4925000000.000000      4.108276000000000E-01      2.188477000000000E+01      2.224121000000000E-01      1.588281000000000E+02
4926000000.000000      4.107971000000000E-01      2.170117000000000E+01      2.183151000000000E-01      1.585781000000000E+02
4927000000.000000      4.110260000000000E-01      2.149707000000000E+01      2.139816000000000E-01      1.584297000000000E+02
4928000000.000000      4.104004000000000E-01      2.130762000000000E+01      2.106247000000000E-01      1.583437000000000E+02
4929000000.000000      4.106293000000000E-01      2.114453000000000E+01      2.062378000000000E-01      1.581719000000000E+02
4930000000.000000      4.106598000000000E-01      2.100976000000000E+01      2.024765000000000E-01      1.580703000000000E+02
4931000000.000000      4.101868000000000E-01      2.075293000000000E+01      1.989899000000000E-01      1.579766000000000E+02
4932000000.000000      4.099579000000000E-01      2.069531000000000E+01      1.944962000000000E-01      1.580000000000000E+02
4933000000.000000      4.103699000000000E-01      2.053320000000000E+01      1.899643000000000E-01      1.582734000000000E+02
4934000000.000000      4.107361000000000E-01      2.027734000000000E+01      1.867752000000000E-01      1.580547000000000E+02
4935000000.000000      4.104004000000000E-01      2.018555000000000E+01      1.835175000000000E-01      1.582187000000000E+02
4936000000.000000      4.091949000000000E-01      1.996582000000000E+01      1.787491000000000E-01      1.584063000000000E+02
4937000000.000000      4.093781000000000E-01      1.982129000000000E+01      1.754990000000000E-01      1.585938000000000E+02
4938000000.000000      4.084015000000000E-01      1.977051000000000E+01      1.714249000000000E-01      1.587578000000000E+02
4939000000.000000      4.077606000000000E-01      1.935742000000000E+01      1.678238000000000E-01      1.591250000000000E+02
4940000000.000000      4.087677000000000E-01      1.934766000000000E+01      1.635971000000000E-01      1.592187000000000E+02
4941000000.000000      4.080658000000000E-01      1.925977000000000E+01      1.604767000000000E-01      1.597656000000000E+02
4942000000.000000      4.065704000000000E-01      1.914355000000000E+01      1.567993000000000E-01      1.601797000000000E+02
4943000000.000000      4.075317000000000E-01      1.909668000000000E+01      1.531448000000000E-01      1.608047000000000E+02
4944000000.000000      4.068604000000000E-01      1.875586000000000E+01      1.496429000000000E-01      1.613125000000000E+02
4945000000.000000      4.071655000000000E-01      1.859082000000000E+01      1.460342000000000E-01      1.619219000000000E+02
4946000000.000000      4.065552000000000E-01      1.848437000000000E+01      1.427841000000000E-01      1.625937000000000E+02
4947000000.000000      4.061737000000000E-01      1.830859000000000E+01      1.389847000000000E-01      1.633750000000000E+02
4948000000.000000      4.068146000000000E-01      1.819531000000000E+01      1.361160000000000E-01      1.643984000000000E+02
4949000000.000000      4.051666000000000E-01      1.798242000000000E+01      1.332321000000000E-01      1.654375000000000E+02
4950000000.000000      4.055481000000000E-01      1.782910000000000E+01      1.304016000000000E-01      1.663437000000000E+02
4951000000.000000      4.053497000000000E-01      1.762891000000000E+01      1.278915000000000E-01      1.671797000000000E+02
4952000000.000000      4.058380000000000E-01      1.741406000000000E+01      1.244125000000000E-01      1.683750000000000E+02
4953000000.000000      4.045715000000000E-01      1.734863000000000E+01      1.227570000000000E-01      1.699219000000000E+02
4954000000.000000      4.051361000000000E-01      1.712891000000000E+01      1.201401000000000E-01      1.714219000000000E+02
