! Network Analyzer HP8722D
! Hewlett-Packard
! Data name: Linha & Wilkinson
! Saver's name: Rodrigo Anjos
! Comments: Teste da utilização de aquisição
continua pelo VNA HP8722D
! Time and date: 23/5/2025 13:04
!              Frequency                     S11                                                   S21                                                   S12                                                   S22
# HZ  S  MA R 50
4800000000.000000      2.856293000000000E-01      3.978516000000000E+01      4.861298000000000E-01     -1.296250000000000E+02
4801000000.000000      2.864075000000000E-01      4.005273000000000E+01      4.864044000000000E-01     -1.302734000000000E+02
4802000000.000000      2.880096000000000E-01      4.024414000000000E+01      4.887238000000000E-01     -1.309375000000000E+02
4803000000.000000      2.886963000000000E-01      4.041016000000000E+01      4.903717000000000E-01     -1.316015000000000E+02
4804000000.000000      2.900085000000000E-01      4.070898000000000E+01      4.920807000000000E-01     -1.323359000000000E+02
4805000000.000000      2.919922000000000E-01      4.076172000000000E+01      4.934082000000000E-01     -1.329687000000000E+02
4806000000.000000      2.928467000000000E-01      4.092578000000000E+01      4.935303000000000E-01     -1.338594000000000E+02
4807000000.000000      2.940826000000000E-01      4.116211000000000E+01      4.962616000000000E-01     -1.346797000000000E+02
4808000000.000000      2.954102000000000E-01      4.131640000000000E+01      4.971008000000000E-01     -1.353359000000000E+02
4809000000.000000      2.970276000000000E-01      4.152344000000000E+01      4.980621000000000E-01     -1.361406000000000E+02
4810000000.000000      2.984314000000000E-01      4.168750000000000E+01      5.006104000000000E-01     -1.365859000000000E+02
4811000000.000000      3.002472000000000E-01      4.183398000000000E+01      5.001221000000000E-01     -1.375781000000000E+02
4812000000.000000      3.027649000000000E-01      4.193749000000000E+01      5.022278000000000E-01     -1.384766000000000E+02
4813000000.000000      3.034668000000000E-01      4.214063000000000E+01      5.024109000000000E-01     -1.389453000000000E+02
4814000000.000000      3.050232000000000E-01      4.213086000000000E+01      5.041809000000000E-01     -1.396250000000000E+02
4815000000.000000      3.062439000000000E-01      4.219531000000000E+01      5.028381000000000E-01     -1.404141000000000E+02
4816000000.000000      3.088226000000000E-01      4.236914000000000E+01      5.048218000000000E-01     -1.412344000000000E+02
4817000000.000000      3.099060000000000E-01      4.240624000000000E+01      5.048218000000000E-01     -1.418906000000000E+02
4818000000.000000      3.118896000000000E-01      4.245117000000000E+01      5.048523000000000E-01     -1.427578000000000E+02
4819000000.000000      3.135376000000000E-01      4.254102000000000E+01      5.049438000000000E-01     -1.433594000000000E+02
4820000000.000000      3.148193000000000E-01      4.256249000000000E+01      5.049438000000000E-01     -1.439062000000000E+02
4821000000.000000      3.174591000000000E-01      4.260351000000000E+01      5.059204000000000E-01     -1.448125000000000E+02
4822000000.000000      3.186188000000000E-01      4.250781000000000E+01      5.052795000000000E-01     -1.456094000000000E+02
4823000000.000000      3.203888000000000E-01      4.254492000000000E+01      5.055237000000000E-01     -1.464531000000000E+02
4824000000.000000      3.224640000000000E-01      4.266211000000000E+01      5.054626000000000E-01     -1.472109000000000E+02
4825000000.000000      3.238831000000000E-01      4.254492000000000E+01      5.060425000000000E-01     -1.476484000000000E+02
4826000000.000000      3.253021000000000E-01      4.239453000000000E+01      5.059509000000000E-01     -1.487187000000000E+02
4827000000.000000      3.277740000000000E-01      4.244141000000000E+01      5.047607000000000E-01     -1.491797000000000E+02
4828000000.000000      3.299255000000000E-01      4.244531000000000E+01      5.054932000000000E-01     -1.500156000000000E+02
4829000000.000000      3.315887000000000E-01      4.240039000000000E+01      5.047913000000000E-01     -1.506953000000000E+02
4830000000.000000      3.332062000000000E-01      4.221875000000000E+01      5.042114000000000E-01     -1.515234000000000E+02
4831000000.000000      3.348999000000000E-01      4.214453000000000E+01      5.028381000000000E-01     -1.521406000000000E+02
4832000000.000000      3.365784000000000E-01      4.220312000000000E+01      5.013123000000000E-01     -1.528125000000000E+02
4833000000.000000      3.380432000000000E-01      4.195703000000000E+01      5.013428000000000E-01     -1.535000000000000E+02
4834000000.000000      3.399506000000000E-01      4.194921000000000E+01      5.001831000000000E-01     -1.542266000000000E+02
4835000000.000000      3.419800000000000E-01      4.178906000000000E+01      4.997559000000000E-01     -1.550390000000000E+02
4836000000.000000      3.436890000000000E-01      4.175195000000000E+01      4.978943000000000E-01     -1.557656000000000E+02
4837000000.000000      3.448334000000000E-01      4.166601000000000E+01      4.972992000000000E-01     -1.565391000000000E+02
4838000000.000000      3.464813000000000E-01      4.144921000000000E+01      4.962006000000000E-01     -1.570547000000000E+02
4839000000.000000      3.498077000000000E-01      4.134961000000000E+01      4.967499000000000E-01     -1.577344000000000E+02
4840000000.000000      3.501892000000000E-01      4.109571000000000E+01      4.937439000000000E-01     -1.585469000000000E+02
4841000000.000000      3.515320000000000E-01      4.116406000000000E+01      4.940643000000000E-01     -1.592891000000000E+02
4842000000.000000      3.527679000000000E-01      4.083593000000000E+01      4.918213000000000E-01     -1.599062000000000E+02
4843000000.000000      3.560028000000000E-01      4.045703000000000E+01      4.911194000000000E-01     -1.607578000000000E+02
4844000000.000000      3.565521000000000E-01      4.039648000000000E+01      4.898224000000000E-01     -1.615234000000000E+02
4845000000.000000      3.590240000000000E-01      4.022656000000000E+01      4.863281000000000E-01     -1.621016000000000E+02
4846000000.000000      3.604889000000000E-01      4.011914000000000E+01      4.859924000000000E-01     -1.627187000000000E+02
4847000000.000000      3.616943000000000E-01      4.002539000000000E+01      4.850006000000000E-01     -1.635078000000000E+02
4848000000.000000      3.631744000000000E-01      3.967968000000000E+01      4.813690000000000E-01     -1.643672000000000E+02
4849000000.000000      3.643951000000000E-01      3.944726000000000E+01      4.814148000000000E-01     -1.648672000000000E+02
4850000000.000000      3.653870000000000E-01      3.924609000000000E+01      4.783478000000000E-01     -1.656406000000000E+02
4851000000.000000      3.676758000000000E-01      3.907617000000000E+01      4.780121000000000E-01     -1.664063000000000E+02
4852000000.000000      3.690186000000000E-01      3.885937000000000E+01      4.761505000000000E-01     -1.670703000000000E+02
4853000000.000000      3.701935000000000E-01      3.855078000000000E+01      4.722595000000000E-01     -1.678125000000000E+02
4854000000.000000      3.710022000000000E-01      3.819726000000000E+01      4.708557000000000E-01     -1.686250000000000E+02
4855000000.000000      3.723297000000000E-01      3.817968000000000E+01      4.699707000000000E-01     -1.691719000000000E+02
4856000000.000000      3.737793000000000E-01      3.785742000000000E+01      4.660492000000000E-01     -1.699766000000000E+02
4857000000.000000      3.750153000000000E-01      3.767578000000000E+01      4.640656000000000E-01     -1.705000000000000E+02
4858000000.000000      3.756256000000000E-01      3.736133000000000E+01      4.612427000000000E-01     -1.710625000000000E+02
4859000000.000000      3.769073000000000E-01      3.702148000000000E+01      4.592590000000000E-01     -1.719766000000000E+02
4860000000.000000      3.784332000000000E-01      3.698633000000000E+01      4.558716000000000E-01     -1.726719000000000E+02
4861000000.000000      3.785553000000000E-01      3.662695000000000E+01      4.535522000000000E-01     -1.735156000000000E+02
4862000000.000000      3.791351000000000E-01      3.641211000000000E+01      4.521027000000000E-01     -1.740234000000000E+02
4863000000.000000      3.806763000000000E-01      3.614453000000000E+01      4.474182000000000E-01     -1.747969000000000E+02
4864000000.000000      3.815155000000000E-01      3.582226000000000E+01      4.465942000000000E-01     -1.752500000000000E+02
4865000000.000000      3.820496000000000E-01      3.564062000000000E+01      4.425812000000000E-01     -1.758047000000000E+02
4866000000.000000      3.832703000000000E-01      3.533984000000000E+01      4.391785000000000E-01     -1.766953000000000E+02
4867000000.000000      3.836975000000000E-01      3.505664000000000E+01      4.366913000000000E-01     -1.773203000000000E+02
4868000000.000000      3.846436000000000E-01      3.477344000000000E+01      4.345093000000000E-01     -1.779140000000000E+02
4869000000.000000      3.854523000000000E-01      3.457422000000000E+01      4.295502000000000E-01     -1.786719000000000E+02
4870000000.000000      3.854370000000000E-01      3.428906000000000E+01      4.264832000000000E-01     -1.790937000000000E+02
4871000000.000000      3.862000000000000E-01      3.401367000000000E+01      4.235840000000000E-01     -1.798672000000000E+02
4872000000.000000      3.884430000000000E-01      3.372851000000000E+01      4.202423000000000E-01      1.795703000000000E+02
4873000000.000000      3.880157000000000E-01      3.354297000000000E+01      4.180756000000000E-01      1.789063000000000E+02
4874000000.000000      3.886261000000000E-01      3.332812000000000E+01      4.138031000000000E-01      1.783281000000000E+02
4875000000.000000      3.884277000000000E-01      3.291601000000000E+01      4.104919000000000E-01      1.779531000000000E+02
4876000000.000000      3.889923000000000E-01      3.286133000000000E+01      4.068604000000000E-01      1.771953000000000E+02
4877000000.000000      3.905182000000000E-01      3.236719000000000E+01      4.048309000000000E-01      1.765781000000000E+02
4878000000.000000      3.896179000000000E-01      3.217578000000000E+01      4.006500000000000E-01      1.760078000000000E+02
4879000000.000000      3.923035000000000E-01      3.205078000000000E+01      3.948059000000000E-01      1.755859000000000E+02
4880000000.000000      3.917542000000000E-01      3.159082000000000E+01      3.928223000000000E-01      1.750078000000000E+02
4881000000.000000      3.912964000000000E-01      3.143847000000000E+01      3.894806000000000E-01      1.744922000000000E+02
4882000000.000000      3.919373000000000E-01      3.128320000000000E+01      3.875122000000000E-01      1.739453000000000E+02
4883000000.000000      3.910217000000000E-01      3.079980000000000E+01      3.819427000000000E-01      1.733438000000000E+02
4884000000.000000      3.924408000000000E-01      3.073925000000000E+01      3.786621000000000E-01      1.725156000000000E+02
4885000000.000000      3.926697000000000E-01      3.030566000000000E+01      3.743896000000000E-01      1.725312000000000E+02
4886000000.000000      3.927460000000000E-01      3.027832000000000E+01      3.711090000000000E-01      1.719453000000000E+02
4887000000.000000      3.924561000000000E-01      2.990527000000000E+01      3.693237000000000E-01      1.712188000000000E+02
4888000000.000000      3.924255000000000E-01      2.962695000000000E+01      3.655243000000000E-01      1.709766000000000E+02
4889000000.000000      3.931122000000000E-01      2.942676000000000E+01      3.594360000000000E-01      1.704687000000000E+02
4890000000.000000      3.906097000000000E-01      2.929004000000000E+01      3.564606000000000E-01      1.697422000000000E+02
4891000000.000000      3.928528000000000E-01      2.918164000000000E+01      3.537292000000000E-01      1.694687000000000E+02
4892000000.000000      3.924866000000000E-01      2.868164000000000E+01      3.502808000000000E-01      1.693438000000000E+02
4893000000.000000      3.926849000000000E-01      2.844727000000000E+01      3.457031000000000E-01      1.683594000000000E+02
4894000000.000000      3.923340000000000E-01      2.834277000000000E+01      3.442535000000000E-01      1.682109000000000E+02
4895000000.000000      3.927612000000000E-01      2.796777000000000E+01      3.412628000000000E-01      1.677891000000000E+02
4896000000.000000      3.929138000000000E-01      2.780957000000000E+01      3.362579000000000E-01      1.672812000000000E+02
4897000000.000000      3.921051000000000E-01      2.757519000000000E+01      3.317719000000000E-01      1.668203000000000E+02
4898000000.000000      3.922729000000000E-01      2.735156000000000E+01      3.308258000000000E-01      1.665469000000000E+02
4899000000.000000      3.919830000000000E-01      2.707520000000000E+01      3.254089000000000E-01      1.660234000000000E+02
4900000000.000000      3.921661000000000E-01      2.678320000000000E+01      3.228607000000000E-01      1.657031000000000E+02
4901000000.000000      3.920593000000000E-01      2.670215000000000E+01      3.192749000000000E-01      1.652734000000000E+02
4902000000.000000      3.928680000000000E-01      2.639843000000000E+01      3.165131000000000E-01      1.649922000000000E+02
4903000000.000000      3.924103000000000E-01      2.627636000000000E+01      3.115845000000000E-01      1.645313000000000E+02
4904000000.000000      3.913727000000000E-01      2.595312000000000E+01      3.091278000000000E-01      1.641562000000000E+02
4905000000.000000      3.902893000000000E-01      2.580273000000000E+01      3.061829000000000E-01      1.637266000000000E+02
4906000000.000000      3.902588000000000E-01      2.562500000000000E+01      3.020325000000000E-01      1.635234000000000E+02
4907000000.000000      3.906250000000000E-01      2.543554000000000E+01      2.991638000000000E-01      1.629453000000000E+02
4908000000.000000      3.907471000000000E-01      2.515137000000000E+01      2.957458000000000E-01      1.624922000000000E+02
4909000000.000000      3.891754000000000E-01      2.509472000000000E+01      2.912140000000000E-01      1.621562000000000E+02
4910000000.000000      3.887024000000000E-01      2.484472000000000E+01      2.888031000000000E-01      1.618203000000000E+02
4911000000.000000      3.897400000000000E-01      2.463086000000000E+01      2.850037000000000E-01      1.615156000000000E+02
4912000000.000000      3.888855000000000E-01      2.435351000000000E+01      2.814331000000000E-01      1.610391000000000E+02
4913000000.000000      3.882141000000000E-01      2.418066000000000E+01      2.784424000000000E-01      1.606172000000000E+02
4914000000.000000      3.889008000000000E-01      2.397559000000000E+01      2.743835000000000E-01      1.603828000000000E+02
4915000000.000000      3.885193000000000E-01      2.380566000000000E+01      2.700348000000000E-01      1.600000000000000E+02
4916000000.000000      3.888855000000000E-01      2.373730000000000E+01      2.662048000000000E-01      1.594687000000000E+02
4917000000.000000      3.878021000000000E-01      2.348731000000000E+01      2.628021000000000E-01      1.593750000000000E+02
4918000000.000000      3.877258000000000E-01      2.335547000000000E+01      2.589111000000000E-01      1.589844000000000E+02
4919000000.000000      3.860779000000000E-01      2.318848000000000E+01      2.559204000000000E-01      1.588203000000000E+02
4920000000.000000      3.873901000000000E-01      2.293067000000000E+01      2.515259000000000E-01      1.582969000000000E+02
4921000000.000000      3.860626000000000E-01      2.279199000000000E+01      2.479172000000000E-01      1.580859000000000E+02
4922000000.000000      3.865356000000000E-01      2.256152000000000E+01      2.439346000000000E-01      1.579219000000000E+02
4923000000.000000      3.862610000000000E-01      2.243652000000000E+01      2.395477000000000E-01      1.576328000000000E+02
4924000000.000000      3.862457000000000E-01      2.231445000000000E+01      2.357254000000000E-01      1.573750000000000E+02
4925000000.000000      3.861542000000000E-01      2.205273000000000E+01      2.322311000000000E-01      1.572656000000000E+02
4926000000.000000      3.854065000000000E-01      2.186230000000000E+01      2.287903000000000E-01      1.568359000000000E+02
4927000000.000000      3.852997000000000E-01      2.171093000000000E+01      2.238312000000000E-01      1.566562000000000E+02
4928000000.000000      3.855743000000000E-01      2.143261000000000E+01      2.204208000000000E-01      1.564766000000000E+02
4929000000.000000      3.839417000000000E-01      2.125000000000000E+01      2.159653000000000E-01      1.564609000000000E+02
4930000000.000000      3.850098000000000E-01      2.106543000000000E+01      2.121887000000000E-01      1.563125000000000E+02
4931000000.000000      3.835297000000000E-01      2.097363000000000E+01      2.089844000000000E-01      1.562734000000000E+02
4932000000.000000      3.837128000000000E-01      2.077832000000000E+01      2.034988000000000E-01      1.561719000000000E+02
4933000000.000000      3.826904000000000E-01      2.069531000000000E+01      1.991730000000000E-01      1.563047000000000E+02
4934000000.000000      3.834076000000000E-01      2.032813000000000E+01      1.956711000000000E-01      1.561406000000000E+02
4935000000.000000      3.841858000000000E-01      2.040625000000000E+01      1.917648000000000E-01      1.564141000000000E+02
4936000000.000000      3.821869000000000E-01      1.998242000000000E+01      1.877441000000000E-01      1.565156000000000E+02
4937000000.000000      3.828735000000000E-01      1.993555000000000E+01      1.841049000000000E-01      1.566328000000000E+02
4938000000.000000      3.821564000000000E-01      1.985742000000000E+01      1.797409000000000E-01      1.568047000000000E+02
4939000000.000000      3.821869000000000E-01      1.970312000000000E+01      1.756058000000000E-01      1.571094000000000E+02
4940000000.000000      3.814697000000000E-01      1.942187000000000E+01      1.715240000000000E-01      1.570234000000000E+02
4941000000.000000      3.816223000000000E-01      1.934961000000000E+01      1.682587000000000E-01      1.578125000000000E+02
4942000000.000000      3.802490000000000E-01      1.914844000000000E+01      1.639862000000000E-01      1.580469000000000E+02
4943000000.000000      3.801270000000000E-01      1.902637000000000E+01      1.602097000000000E-01      1.586406000000000E+02
4944000000.000000      3.802490000000000E-01      1.873437000000000E+01      1.570435000000000E-01      1.590000000000000E+02
4945000000.000000      3.802643000000000E-01      1.847265000000000E+01      1.527634000000000E-01      1.597188000000000E+02
4946000000.000000      3.809814000000000E-01      1.845410000000000E+01      1.496658000000000E-01      1.602656000000000E+02
4947000000.000000      3.795319000000000E-01      1.823828000000000E+01      1.458359000000000E-01      1.610391000000000E+02
4948000000.000000      3.784790000000000E-01      1.813281000000000E+01      1.428375000000000E-01      1.619062000000000E+02
4949000000.000000      3.793335000000000E-01      1.790332000000000E+01      1.397247000000000E-01      1.629844000000000E+02
4950000000.000000      3.787079000000000E-01      1.791308000000000E+01      1.367874000000000E-01      1.638281000000000E+02
4951000000.000000      3.785706000000000E-01      1.760351000000000E+01      1.337128000000000E-01      1.647500000000000E+02
4952000000.000000      3.777313000000000E-01      1.738770000000000E+01      1.306305000000000E-01      1.660859000000000E+02
4953000000.000000      3.773956000000000E-01      1.732617000000000E+01      1.281815000000000E-01      1.674062000000000E+02
4954000000.000000      3.773651000000000E-01      1.697168000000000E+01      1.253510000000000E-01      1.686797000000000E+02
