! Network Analyzer HP8722D
! Hewlett-Packard
! Data name: Linha & Wilkinson
! Saver's name: Rodrigo Anjos
! Comments: Teste da utilização de aquisição
continua pelo VNA HP8722D
! Time and date: 23/5/2025 10:06
!              Frequency                     S11                                                   S21                                                   S12                                                   S22
# HZ  S  MA R 50
4800000000.000000      3.190155000000000E-01      3.660351000000000E+01      4.676666000000000E-01     -1.276328000000000E+02
4801000000.000000      3.191681000000000E-01      3.692187000000000E+01      4.689026000000000E-01     -1.282109000000000E+02
4802000000.000000      3.205261000000000E-01      3.710938000000000E+01      4.696350000000000E-01     -1.288125000000000E+02
4803000000.000000      3.212128000000000E-01      3.733789000000000E+01      4.725189000000000E-01     -1.293516000000000E+02
4804000000.000000      3.217773000000000E-01      3.750586000000000E+01      4.744568000000000E-01     -1.304062000000000E+02
4805000000.000000      3.234406000000000E-01      3.751953000000000E+01      4.739532000000000E-01     -1.309141000000000E+02
4806000000.000000      3.244476000000000E-01      3.775000000000000E+01      4.765167000000000E-01     -1.316875000000000E+02
4807000000.000000      3.247833000000000E-01      3.786914000000000E+01      4.768219000000000E-01     -1.325000000000000E+02
4808000000.000000      3.253021000000000E-01      3.808398000000000E+01      4.789886000000000E-01     -1.331640000000000E+02
4809000000.000000      3.270264000000000E-01      3.826367000000000E+01      4.807892000000000E-01     -1.339844000000000E+02
4810000000.000000      3.284302000000000E-01      3.846875000000000E+01      4.812927000000000E-01     -1.345391000000000E+02
4811000000.000000      3.299408000000000E-01      3.857031000000000E+01      4.825897000000000E-01     -1.355859000000000E+02
4812000000.000000      3.322601000000000E-01      3.872265000000000E+01      4.829407000000000E-01     -1.361172000000000E+02
4813000000.000000      3.327332000000000E-01      3.887890000000000E+01      4.849243000000000E-01     -1.368594000000000E+02
4814000000.000000      3.336945000000000E-01      3.883398000000000E+01      4.853058000000000E-01     -1.375313000000000E+02
4815000000.000000      3.352203000000000E-01      3.906445000000000E+01      4.868774000000000E-01     -1.382266000000000E+02
4816000000.000000      3.375397000000000E-01      3.913476000000000E+01      4.870911000000000E-01     -1.390391000000000E+02
4817000000.000000      3.382721000000000E-01      3.924023000000000E+01      4.875641000000000E-01     -1.398047000000000E+02
4818000000.000000      3.400879000000000E-01      3.924023000000000E+01      4.867401000000000E-01     -1.406797000000000E+02
4819000000.000000      3.415527000000000E-01      3.936328000000000E+01      4.863281000000000E-01     -1.413437000000000E+02
4820000000.000000      3.423157000000000E-01      3.944531000000000E+01      4.882050000000000E-01     -1.419688000000000E+02
4821000000.000000      3.449097000000000E-01      3.949804000000000E+01      4.880524000000000E-01     -1.427578000000000E+02
4822000000.000000      3.461456000000000E-01      3.936718000000000E+01      4.885712000000000E-01     -1.434219000000000E+02
4823000000.000000      3.474121000000000E-01      3.942968000000000E+01      4.875641000000000E-01     -1.443672000000000E+02
4824000000.000000      3.493805000000000E-01      3.946875000000000E+01      4.865112000000000E-01     -1.449219000000000E+02
4825000000.000000      3.512878000000000E-01      3.940625000000000E+01      4.882507000000000E-01     -1.456484000000000E+02
4826000000.000000      3.528137000000000E-01      3.945313000000000E+01      4.885864000000000E-01     -1.464844000000000E+02
4827000000.000000      3.549347000000000E-01      3.946484000000000E+01      4.872742000000000E-01     -1.471875000000000E+02
4828000000.000000      3.564453000000000E-01      3.946289000000000E+01      4.866791000000000E-01     -1.478672000000000E+02
4829000000.000000      3.582611000000000E-01      3.952734000000000E+01      4.856720000000000E-01     -1.484922000000000E+02
4830000000.000000      3.594055000000000E-01      3.933984000000000E+01      4.860229000000000E-01     -1.493047000000000E+02
4831000000.000000      3.606110000000000E-01      3.937695000000000E+01      4.854126000000000E-01     -1.500547000000000E+02
4832000000.000000      3.630524000000000E-01      3.946680000000000E+01      4.845886000000000E-01     -1.508047000000000E+02
4833000000.000000      3.641052000000000E-01      3.922852000000000E+01      4.830627000000000E-01     -1.514688000000000E+02
4834000000.000000      3.659515000000000E-01      3.911328000000000E+01      4.835815000000000E-01     -1.523047000000000E+02
4835000000.000000      3.675079000000000E-01      3.898828000000000E+01      4.825897000000000E-01     -1.529375000000000E+02
4836000000.000000      3.698730000000000E-01      3.902344000000000E+01      4.808502000000000E-01     -1.535000000000000E+02
4837000000.000000      3.707733000000000E-01      3.895508000000000E+01      4.798584000000000E-01     -1.544453000000000E+02
4838000000.000000      3.722076000000000E-01      3.886133000000000E+01      4.801941000000000E-01     -1.549297000000000E+02
4839000000.000000      3.758850000000000E-01      3.872070000000000E+01      4.789734000000000E-01     -1.556797000000000E+02
4840000000.000000      3.760529000000000E-01      3.843164000000000E+01      4.778748000000000E-01     -1.564687000000000E+02
4841000000.000000      3.780212000000000E-01      3.850976000000000E+01      4.761353000000000E-01     -1.572734000000000E+02
4842000000.000000      3.787689000000000E-01      3.825000000000000E+01      4.748688000000000E-01     -1.577891000000000E+02
4843000000.000000      3.815460000000000E-01      3.798633000000000E+01      4.738922000000000E-01     -1.586797000000000E+02
4844000000.000000      3.819733000000000E-01      3.793554000000000E+01      4.724121000000000E-01     -1.593906000000000E+02
4845000000.000000      3.840637000000000E-01      3.793359000000000E+01      4.701843000000000E-01     -1.599141000000000E+02
4846000000.000000      3.858643000000000E-01      3.768945000000000E+01      4.708405000000000E-01     -1.608281000000000E+02
4847000000.000000      3.875427000000000E-01      3.760742000000000E+01      4.681091000000000E-01     -1.613594000000000E+02
4848000000.000000      3.884430000000000E-01      3.742578000000000E+01      4.663849000000000E-01     -1.621719000000000E+02
4849000000.000000      3.889771000000000E-01      3.724218000000000E+01      4.654236000000000E-01     -1.629141000000000E+02
4850000000.000000      3.911285000000000E-01      3.704687000000000E+01      4.633026000000000E-01     -1.635781000000000E+02
4851000000.000000      3.925171000000000E-01      3.696289000000000E+01      4.609375000000000E-01     -1.643750000000000E+02
4852000000.000000      3.942719000000000E-01      3.665234000000000E+01      4.591980000000000E-01     -1.649219000000000E+02
4853000000.000000      3.956604000000000E-01      3.657422000000000E+01      4.561157000000000E-01     -1.657500000000000E+02
4854000000.000000      3.967896000000000E-01      3.628906000000000E+01      4.540710000000000E-01     -1.665625000000000E+02
4855000000.000000      3.977661000000000E-01      3.610937000000000E+01      4.531097000000000E-01     -1.671875000000000E+02
4856000000.000000      3.991089000000000E-01      3.603906000000000E+01      4.501343000000000E-01     -1.678906000000000E+02
4857000000.000000      4.005432000000000E-01      3.575586000000000E+01      4.497528000000000E-01     -1.685078000000000E+02
4858000000.000000      4.010468000000000E-01      3.545312000000000E+01      4.469452000000000E-01     -1.693359000000000E+02
4859000000.000000      4.019928000000000E-01      3.519726000000000E+01      4.451904000000000E-01     -1.700156000000000E+02
4860000000.000000      4.035950000000000E-01      3.515429000000000E+01      4.420776000000000E-01     -1.706563000000000E+02
4861000000.000000      4.036713000000000E-01      3.498047000000000E+01      4.393616000000000E-01     -1.713438000000000E+02
4862000000.000000      4.047241000000000E-01      3.472461000000000E+01      4.370422000000000E-01     -1.719531000000000E+02
4863000000.000000      4.061737000000000E-01      3.455078000000000E+01      4.347229000000000E-01     -1.728906000000000E+02
4864000000.000000      4.074097000000000E-01      3.432226000000000E+01      4.318390000000000E-01     -1.733672000000000E+02
4865000000.000000      4.078064000000000E-01      3.396484000000000E+01      4.279022000000000E-01     -1.739297000000000E+02
4866000000.000000      4.088745000000000E-01      3.375781000000000E+01      4.246063000000000E-01     -1.746953000000000E+02
4867000000.000000      4.090424000000000E-01      3.353711000000000E+01      4.214478000000000E-01     -1.753125000000000E+02
4868000000.000000      4.106293000000000E-01      3.328711000000000E+01      4.190216000000000E-01     -1.761797000000000E+02
4869000000.000000      4.110260000000000E-01      3.309179000000000E+01      4.151764000000000E-01     -1.767891000000000E+02
4870000000.000000      4.118652000000000E-01      3.291992000000000E+01      4.126892000000000E-01     -1.772109000000000E+02
4871000000.000000      4.122162000000000E-01      3.256445000000000E+01      4.094086000000000E-01     -1.780234000000000E+02
4872000000.000000      4.142303000000000E-01      3.245898000000000E+01      4.056854000000000E-01     -1.784609000000000E+02
4873000000.000000      4.144287000000000E-01      3.220898000000000E+01      4.022369000000000E-01     -1.790469000000000E+02
4874000000.000000      4.143524000000000E-01      3.204297000000000E+01      3.982849000000000E-01      1.799531000000000E+02
4875000000.000000      4.139404000000000E-01      3.172656000000000E+01      3.953705000000000E-01      1.795078000000000E+02
4876000000.000000      4.154816000000000E-01      3.162890000000000E+01      3.942719000000000E-01      1.789922000000000E+02
4877000000.000000      4.169312000000000E-01      3.116796000000000E+01      3.893738000000000E-01      1.783516000000000E+02
4878000000.000000      4.158783000000000E-01      3.096582000000000E+01      3.857727000000000E-01      1.779531000000000E+02
4879000000.000000      4.179382000000000E-01      3.090820000000000E+01      3.823853000000000E-01      1.773359000000000E+02
4880000000.000000      4.178467000000000E-01      3.058008000000000E+01      3.785095000000000E-01      1.766641000000000E+02
4881000000.000000      4.178619000000000E-01      3.036035000000000E+01      3.756561000000000E-01      1.763281000000000E+02
4882000000.000000      4.181976000000000E-01      3.010644000000000E+01      3.725281000000000E-01      1.756719000000000E+02
4883000000.000000      4.181366000000000E-01      2.989843000000000E+01      3.688049000000000E-01      1.751094000000000E+02
4884000000.000000      4.195404000000000E-01      2.972949000000000E+01      3.642883000000000E-01      1.746641000000000E+02
4885000000.000000      4.192505000000000E-01      2.947558000000000E+01      3.616638000000000E-01      1.742031000000000E+02
4886000000.000000      4.188995000000000E-01      2.926270000000000E+01      3.582916000000000E-01      1.735859000000000E+02
4887000000.000000      4.197693000000000E-01      2.903809000000000E+01      3.553009000000000E-01      1.733984000000000E+02
4888000000.000000      4.197083000000000E-01      2.871484000000000E+01      3.517303000000000E-01      1.727187000000000E+02
4889000000.000000      4.197845000000000E-01      2.858496000000000E+01      3.488312000000000E-01      1.724688000000000E+02
4890000000.000000      4.195862000000000E-01      2.825390000000000E+01      3.450775000000000E-01      1.714531000000000E+02
4891000000.000000      4.197693000000000E-01      2.816992000000000E+01      3.402710000000000E-01      1.712265000000000E+02
4892000000.000000      4.196777000000000E-01      2.786133000000000E+01      3.358917000000000E-01      1.706250000000000E+02
4893000000.000000      4.202576000000000E-01      2.779590000000000E+01      3.334961000000000E-01      1.701875000000000E+02
4894000000.000000      4.200897000000000E-01      2.739355000000000E+01      3.301086000000000E-01      1.697969000000000E+02
4895000000.000000      4.206390000000000E-01      2.725781000000000E+01      3.270264000000000E-01      1.697500000000000E+02
4896000000.000000      4.198761000000000E-01      2.699121000000000E+01      3.227997000000000E-01      1.690547000000000E+02
4897000000.000000      4.204407000000000E-01      2.685059000000000E+01      3.195496000000000E-01      1.685859000000000E+02
4898000000.000000      4.194641000000000E-01      2.669531000000000E+01      3.169403000000000E-01      1.683125000000000E+02
4899000000.000000      4.199982000000000E-01      2.629004000000000E+01      3.130951000000000E-01      1.676953000000000E+02
4900000000.000000      4.194946000000000E-01      2.619824000000000E+01      3.105316000000000E-01      1.675078000000000E+02
4901000000.000000      4.198761000000000E-01      2.594531000000000E+01      3.069916000000000E-01      1.670156000000000E+02
4902000000.000000      4.212341000000000E-01      2.569531000000000E+01      3.036041000000000E-01      1.666875000000000E+02
4903000000.000000      4.199524000000000E-01      2.558398000000000E+01      2.989655000000000E-01      1.662656000000000E+02
4904000000.000000      4.196930000000000E-01      2.539258000000000E+01      2.963715000000000E-01      1.660156000000000E+02
4905000000.000000      4.190216000000000E-01      2.524707000000000E+01      2.934113000000000E-01      1.654453000000000E+02
4906000000.000000      4.196320000000000E-01      2.495117000000000E+01      2.899628000000000E-01      1.652344000000000E+02
4907000000.000000      4.205322000000000E-01      2.494922000000000E+01      2.861786000000000E-01      1.646563000000000E+02
4908000000.000000      4.190979000000000E-01      2.475488000000000E+01      2.837830000000000E-01      1.642500000000000E+02
4909000000.000000      4.186096000000000E-01      2.436816000000000E+01      2.796478000000000E-01      1.640312000000000E+02
4910000000.000000      4.182434000000000E-01      2.436816000000000E+01      2.767639000000000E-01      1.635781000000000E+02
4911000000.000000      4.181366000000000E-01      2.419531000000000E+01      2.730560000000000E-01      1.633359000000000E+02
4912000000.000000      4.174652000000000E-01      2.397559000000000E+01      2.694244000000000E-01      1.629609000000000E+02
4913000000.000000      4.186096000000000E-01      2.375488000000000E+01      2.659760000000000E-01      1.625625000000000E+02
4914000000.000000      4.182129000000000E-01      2.352441000000000E+01      2.626038000000000E-01      1.622109000000000E+02
4915000000.000000      4.171906000000000E-01      2.351563000000000E+01      2.588501000000000E-01      1.617422000000000E+02
4916000000.000000      4.174652000000000E-01      2.329883000000000E+01      2.554321000000000E-01      1.614141000000000E+02
4917000000.000000      4.175110000000000E-01      2.313281000000000E+01      2.519684000000000E-01      1.612266000000000E+02
4918000000.000000      4.177094000000000E-01      2.297070000000000E+01      2.481155000000000E-01      1.607031000000000E+02
4919000000.000000      4.161987000000000E-01      2.281445000000000E+01      2.451172000000000E-01      1.606641000000000E+02
4920000000.000000      4.156952000000000E-01      2.259472000000000E+01      2.403564000000000E-01      1.601484000000000E+02
4921000000.000000      4.166870000000000E-01      2.250683000000000E+01      2.380905000000000E-01      1.598438000000000E+02
4922000000.000000      4.170532000000000E-01      2.222363000000000E+01      2.333298000000000E-01      1.598359000000000E+02
4923000000.000000      4.167175000000000E-01      2.221972000000000E+01      2.298355000000000E-01      1.596562000000000E+02
4924000000.000000      4.161224000000000E-01      2.197656000000000E+01      2.252808000000000E-01      1.591875000000000E+02
4925000000.000000      4.154205000000000E-01      2.175683000000000E+01      2.217560000000000E-01      1.590703000000000E+02
4926000000.000000      4.153442000000000E-01      2.178809000000000E+01      2.186356000000000E-01      1.588828000000000E+02
4927000000.000000      4.148102000000000E-01      2.144043000000000E+01      2.144394000000000E-01      1.586172000000000E+02
4928000000.000000      4.161072000000000E-01      2.130762000000000E+01      2.105331000000000E-01      1.586484000000000E+02
4929000000.000000      4.146729000000000E-01      2.119043000000000E+01      2.063828000000000E-01      1.584766000000000E+02
4930000000.000000      4.159546000000000E-01      2.098633000000000E+01      2.027969000000000E-01      1.582969000000000E+02
4931000000.000000      4.139099000000000E-01      2.085059000000000E+01      1.994019000000000E-01      1.582891000000000E+02
4932000000.000000      4.151764000000000E-01      2.068164000000000E+01      1.957092000000000E-01      1.581953000000000E+02
4933000000.000000      4.140167000000000E-01      2.054394000000000E+01      1.903687000000000E-01      1.584453000000000E+02
4934000000.000000      4.141235000000000E-01      2.030273000000000E+01      1.869583000000000E-01      1.581875000000000E+02
4935000000.000000      4.132996000000000E-01      2.017773000000000E+01      1.833954000000000E-01      1.585312000000000E+02
4936000000.000000      4.139862000000000E-01      2.003027000000000E+01      1.789093000000000E-01      1.586406000000000E+02
4937000000.000000      4.137268000000000E-01      1.974512000000000E+01      1.757126000000000E-01      1.585781000000000E+02
4938000000.000000      4.126434000000000E-01      1.979297000000000E+01      1.720200000000000E-01      1.589922000000000E+02
4939000000.000000      4.128876000000000E-01      1.964551000000000E+01      1.679382000000000E-01      1.592422000000000E+02
4940000000.000000      4.124298000000000E-01      1.945215000000000E+01      1.634521000000000E-01      1.593984000000000E+02
4941000000.000000      4.127197000000000E-01      1.924023000000000E+01      1.604538000000000E-01      1.598906000000000E+02
4942000000.000000      4.117737000000000E-01      1.921875000000000E+01      1.570206000000000E-01      1.602266000000000E+02
4943000000.000000      4.116821000000000E-01      1.901855000000000E+01      1.536636000000000E-01      1.606094000000000E+02
4944000000.000000      4.113312000000000E-01      1.874512000000000E+01      1.495972000000000E-01      1.614219000000000E+02
4945000000.000000      4.113007000000000E-01      1.866699000000000E+01      1.459122000000000E-01      1.620937000000000E+02
4946000000.000000      4.121246000000000E-01      1.852539000000000E+01      1.425476000000000E-01      1.626094000000000E+02
4947000000.000000      4.113159000000000E-01      1.826660000000000E+01      1.396484000000000E-01      1.635234000000000E+02
4948000000.000000      4.104614000000000E-01      1.816797000000000E+01      1.360626000000000E-01      1.642969000000000E+02
4949000000.000000      4.100342000000000E-01      1.814746000000000E+01      1.333694000000000E-01      1.652734000000000E+02
4950000000.000000      4.100037000000000E-01      1.799512000000000E+01      1.307983000000000E-01      1.662031000000000E+02
4951000000.000000      4.095459000000000E-01      1.778613000000000E+01      1.273193000000000E-01      1.672031000000000E+02
4952000000.000000      4.090424000000000E-01      1.750488000000000E+01      1.250916000000000E-01      1.685313000000000E+02
4953000000.000000      4.090729000000000E-01      1.731641000000000E+01      1.225128000000000E-01      1.698906000000000E+02
4954000000.000000      4.083252000000000E-01      1.715430000000000E+01      1.201744000000000E-01      1.712422000000000E+02
