! Network Analyzer HP8722D
! Hewlett-Packard
! Data name: Linha & Wilkinson
! Saver's name: Rodrigo Anjos
! Comments: Teste da utilização de aquisição
continua pelo VNA HP8722D
! Time and date: 23/5/2025 11:33
!              Frequency                     S11                                                   S21                                                   S12                                                   S22
# HZ  S  MA R 50
4800000000.000000      3.103333000000000E-01      3.740429000000000E+01      4.719086000000000E-01     -1.279531000000000E+02
4801000000.000000      3.117676000000000E-01      3.777539000000000E+01      4.705658000000000E-01     -1.286719000000000E+02
4802000000.000000      3.129120000000000E-01      3.787500000000000E+01      4.734039000000000E-01     -1.292187000000000E+02
4803000000.000000      3.135681000000000E-01      3.799609000000000E+01      4.768677000000000E-01     -1.299687000000000E+02
4804000000.000000      3.146820000000000E-01      3.828125000000000E+01      4.776306000000000E-01     -1.307109000000000E+02
4805000000.000000      3.161011000000000E-01      3.836328000000000E+01      4.794312000000000E-01     -1.315234000000000E+02
4806000000.000000      3.170776000000000E-01      3.850000000000000E+01      4.804535000000000E-01     -1.322344000000000E+02
4807000000.000000      3.180695000000000E-01      3.867578000000000E+01      4.813538000000000E-01     -1.331640000000000E+02
4808000000.000000      3.184662000000000E-01      3.888672000000000E+01      4.817505000000000E-01     -1.335625000000000E+02
4809000000.000000      3.204041000000000E-01      3.907617000000000E+01      4.829865000000000E-01     -1.347109000000000E+02
4810000000.000000      3.217163000000000E-01      3.923047000000000E+01      4.851227000000000E-01     -1.353516000000000E+02
4811000000.000000      3.236847000000000E-01      3.934179000000000E+01      4.862823000000000E-01     -1.358828000000000E+02
4812000000.000000      3.260651000000000E-01      3.951757000000000E+01      4.873810000000000E-01     -1.367188000000000E+02
4813000000.000000      3.263702000000000E-01      3.961523000000000E+01      4.876099000000000E-01     -1.373984000000000E+02
4814000000.000000      3.271637000000000E-01      3.963672000000000E+01      4.891205000000000E-01     -1.380781000000000E+02
4815000000.000000      3.289948000000000E-01      3.981640000000000E+01      4.888153000000000E-01     -1.388281000000000E+02
4816000000.000000      3.309784000000000E-01      3.991015000000000E+01      4.902191000000000E-01     -1.395391000000000E+02
4817000000.000000      3.321228000000000E-01      4.004296000000000E+01      4.911652000000000E-01     -1.402734000000000E+02
4818000000.000000      3.338165000000000E-01      3.999023000000000E+01      4.913788000000000E-01     -1.408984000000000E+02
4819000000.000000      3.361511000000000E-01      4.007226000000000E+01      4.907990000000000E-01     -1.417422000000000E+02
4820000000.000000      3.365173000000000E-01      4.009961000000000E+01      4.906464000000000E-01     -1.423672000000000E+02
4821000000.000000      3.389282000000000E-01      4.021484000000000E+01      4.911652000000000E-01     -1.432891000000000E+02
4822000000.000000      3.395996000000000E-01      4.013281000000000E+01      4.902039000000000E-01     -1.438203000000000E+02
4823000000.000000      3.415527000000000E-01      4.017968000000000E+01      4.919739000000000E-01     -1.446797000000000E+02
4824000000.000000      3.436584000000000E-01      4.030273000000000E+01      4.916382000000000E-01     -1.455156000000000E+02
4825000000.000000      3.455658000000000E-01      4.020703000000000E+01      4.901428000000000E-01     -1.461953000000000E+02
4826000000.000000      3.471527000000000E-01      4.017383000000000E+01      4.906006000000000E-01     -1.470703000000000E+02
4827000000.000000      3.485413000000000E-01      4.021874000000000E+01      4.908447000000000E-01     -1.475625000000000E+02
4828000000.000000      3.509216000000000E-01      4.013867000000000E+01      4.910431000000000E-01     -1.484688000000000E+02
4829000000.000000      3.516388000000000E-01      4.028125000000000E+01      4.895782000000000E-01     -1.490000000000000E+02
4830000000.000000      3.535614000000000E-01      4.006249000000000E+01      4.899292000000000E-01     -1.497344000000000E+02
4831000000.000000      3.551636000000000E-01      4.002539000000000E+01      4.902802000000000E-01     -1.507031000000000E+02
4832000000.000000      3.569946000000000E-01      4.004102000000000E+01      4.878540000000000E-01     -1.511406000000000E+02
4833000000.000000      3.580322000000000E-01      3.986328000000000E+01      4.890747000000000E-01     -1.517969000000000E+02
4834000000.000000      3.595428000000000E-01      3.990234000000000E+01      4.868927000000000E-01     -1.526016000000000E+02
4835000000.000000      3.619843000000000E-01      3.971094000000000E+01      4.853516000000000E-01     -1.533906000000000E+02
4836000000.000000      3.643188000000000E-01      3.971289000000000E+01      4.847260000000000E-01     -1.540781000000000E+02
4837000000.000000      3.650360000000000E-01      3.969336000000000E+01      4.841003000000000E-01     -1.548672000000000E+02
4838000000.000000      3.663635000000000E-01      3.941015000000000E+01      4.841461000000000E-01     -1.554062000000000E+02
4839000000.000000      3.695374000000000E-01      3.939258000000000E+01      4.836731000000000E-01     -1.559687000000000E+02
4840000000.000000      3.704376000000000E-01      3.909375000000000E+01      4.816589000000000E-01     -1.568984000000000E+02
4841000000.000000      3.723145000000000E-01      3.917969000000000E+01      4.799194000000000E-01     -1.576484000000000E+02
4842000000.000000      3.730316000000000E-01      3.899414000000000E+01      4.783936000000000E-01     -1.585703000000000E+02
4843000000.000000      3.750916000000000E-01      3.872265000000000E+01      4.768066000000000E-01     -1.589922000000000E+02
4844000000.000000      3.759155000000000E-01      3.853906000000000E+01      4.766541000000000E-01     -1.597656000000000E+02
4845000000.000000      3.775330000000000E-01      3.851367000000000E+01      4.738312000000000E-01     -1.604219000000000E+02
4846000000.000000      3.803101000000000E-01      3.833398000000000E+01      4.725952000000000E-01     -1.611094000000000E+02
4847000000.000000      3.815613000000000E-01      3.831445000000000E+01      4.715271000000000E-01     -1.618359000000000E+02
4848000000.000000      3.821411000000000E-01      3.794922000000000E+01      4.697113000000000E-01     -1.626562000000000E+02
4849000000.000000      3.835602000000000E-01      3.785937000000000E+01      4.678497000000000E-01     -1.633281000000000E+02
4850000000.000000      3.852692000000000E-01      3.758789000000000E+01      4.668121000000000E-01     -1.640469000000000E+02
4851000000.000000      3.872986000000000E-01      3.752734000000000E+01      4.650116000000000E-01     -1.648828000000000E+02
4852000000.000000      3.877869000000000E-01      3.735937000000000E+01      4.630432000000000E-01     -1.652578000000000E+02
4853000000.000000      3.898621000000000E-01      3.705469000000000E+01      4.598083000000000E-01     -1.660547000000000E+02
4854000000.000000      3.901825000000000E-01      3.685742000000000E+01      4.580383000000000E-01     -1.669297000000000E+02
4855000000.000000      3.919678000000000E-01      3.672070000000000E+01      4.567871000000000E-01     -1.676406000000000E+02
4856000000.000000      3.927002000000000E-01      3.650195000000000E+01      4.535065000000000E-01     -1.683594000000000E+02
4857000000.000000      3.941956000000000E-01      3.630859000000000E+01      4.516449000000000E-01     -1.688516000000000E+02
4858000000.000000      3.954315000000000E-01      3.600000000000000E+01      4.482727000000000E-01     -1.696640000000000E+02
4859000000.000000      3.962250000000000E-01      3.580469000000000E+01      4.477386000000000E-01     -1.705391000000000E+02
4860000000.000000      3.972321000000000E-01      3.567383000000000E+01      4.453430000000000E-01     -1.710938000000000E+02
4861000000.000000      3.980255000000000E-01      3.547656000000000E+01      4.403687000000000E-01     -1.718125000000000E+02
4862000000.000000      3.991699000000000E-01      3.515039000000000E+01      4.400787000000000E-01     -1.723984000000000E+02
4863000000.000000      4.004517000000000E-01      3.496289000000000E+01      4.361725000000000E-01     -1.732656000000000E+02
4864000000.000000      4.020691000000000E-01      3.462891000000000E+01      4.339600000000000E-01     -1.736953000000000E+02
4865000000.000000      4.020691000000000E-01      3.445898000000000E+01      4.312134000000000E-01     -1.742578000000000E+02
4866000000.000000      4.031067000000000E-01      3.412695000000000E+01      4.268799000000000E-01     -1.751484000000000E+02
4867000000.000000      4.037323000000000E-01      3.411328000000000E+01      4.255981000000000E-01     -1.759219000000000E+02
4868000000.000000      4.041901000000000E-01      3.370312000000000E+01      4.214478000000000E-01     -1.766484000000000E+02
4869000000.000000      4.050598000000000E-01      3.347070000000000E+01      4.188232000000000E-01     -1.771563000000000E+02
4870000000.000000      4.054413000000000E-01      3.342578000000000E+01      4.153442000000000E-01     -1.775547000000000E+02
4871000000.000000      4.062347000000000E-01      3.301367000000000E+01      4.139404000000000E-01     -1.784297000000000E+02
4872000000.000000      4.080505000000000E-01      3.279101000000000E+01      4.073792000000000E-01     -1.787891000000000E+02
4873000000.000000      4.074402000000000E-01      3.263476000000000E+01      4.049988000000000E-01     -1.796172000000000E+02
4874000000.000000      4.080353000000000E-01      3.233007000000000E+01      4.025421000000000E-01      1.797422000000000E+02
4875000000.000000      4.088287000000000E-01      3.203906000000000E+01      3.989563000000000E-01      1.792500000000000E+02
4876000000.000000      4.094086000000000E-01      3.194824000000000E+01      3.962097000000000E-01      1.787031000000000E+02
4877000000.000000      4.110718000000000E-01      3.151758000000000E+01      3.924255000000000E-01      1.779922000000000E+02
4878000000.000000      4.104309000000000E-01      3.130762000000000E+01      3.879242000000000E-01      1.773594000000000E+02
4879000000.000000      4.119415000000000E-01      3.117578000000000E+01      3.852844000000000E-01      1.768203000000000E+02
4880000000.000000      4.118958000000000E-01      3.088769000000000E+01      3.835754000000000E-01      1.762969000000000E+02
4881000000.000000      4.113464000000000E-01      3.068554000000000E+01      3.791656000000000E-01      1.759297000000000E+02
4882000000.000000      4.126740000000000E-01      3.049805000000000E+01      3.749084000000000E-01      1.752187000000000E+02
4883000000.000000      4.124603000000000E-01      3.021973000000000E+01      3.706665000000000E-01      1.748281000000000E+02
4884000000.000000      4.131775000000000E-01      3.004590000000000E+01      3.679199000000000E-01      1.743203000000000E+02
4885000000.000000      4.131775000000000E-01      2.979004000000000E+01      3.637848000000000E-01      1.737734000000000E+02
4886000000.000000      4.130096000000000E-01      2.952637000000000E+01      3.610535000000000E-01      1.731094000000000E+02
4887000000.000000      4.139099000000000E-01      2.936035000000000E+01      3.571472000000000E-01      1.728203000000000E+02
4888000000.000000      4.130402000000000E-01      2.892675000000000E+01      3.556671000000000E-01      1.724453000000000E+02
4889000000.000000      4.137115000000000E-01      2.878906000000000E+01      3.492432000000000E-01      1.716953000000000E+02
4890000000.000000      4.130859000000000E-01      2.859570000000000E+01      3.457489000000000E-01      1.709922000000000E+02
4891000000.000000      4.130707000000000E-01      2.830761000000000E+01      3.431396000000000E-01      1.707969000000000E+02
4892000000.000000      4.124146000000000E-01      2.824512000000000E+01      3.390961000000000E-01      1.705312000000000E+02
4893000000.000000      4.137726000000000E-01      2.793457000000000E+01      3.354645000000000E-01      1.698906000000000E+02
4894000000.000000      4.129028000000000E-01      2.764941000000000E+01      3.326874000000000E-01      1.694219000000000E+02
4895000000.000000      4.142609000000000E-01      2.737890000000000E+01      3.302460000000000E-01      1.691562000000000E+02
4896000000.000000      4.135437000000000E-01      2.725976000000000E+01      3.269806000000000E-01      1.687891000000000E+02
4897000000.000000      4.122772000000000E-01      2.720703000000000E+01      3.224792000000000E-01      1.682266000000000E+02
4898000000.000000      4.139709000000000E-01      2.698633000000000E+01      3.195801000000000E-01      1.679141000000000E+02
4899000000.000000      4.137878000000000E-01      2.659863000000000E+01      3.164520000000000E-01      1.673984000000000E+02
4900000000.000000      4.139252000000000E-01      2.633203000000000E+01      3.130951000000000E-01      1.668672000000000E+02
4901000000.000000      4.130554000000000E-01      2.626074000000000E+01      3.091583000000000E-01      1.666875000000000E+02
4902000000.000000      4.130096000000000E-01      2.595215000000000E+01      3.061371000000000E-01      1.662969000000000E+02
4903000000.000000      4.141846000000000E-01      2.605175000000000E+01      3.022308000000000E-01      1.657969000000000E+02
4904000000.000000      4.128876000000000E-01      2.572168000000000E+01      2.992554000000000E-01      1.654140000000000E+02
4905000000.000000      4.123993000000000E-01      2.550000000000000E+01      2.960205000000000E-01      1.651016000000000E+02
4906000000.000000      4.124756000000000E-01      2.529687000000000E+01      2.925873000000000E-01      1.649375000000000E+02
4907000000.000000      4.124908000000000E-01      2.504395000000000E+01      2.897491000000000E-01      1.643828000000000E+02
4908000000.000000      4.123383000000000E-01      2.477636000000000E+01      2.862701000000000E-01      1.639844000000000E+02
4909000000.000000      4.113922000000000E-01      2.469238000000000E+01      2.822418000000000E-01      1.634766000000000E+02
4910000000.000000      4.111633000000000E-01      2.452929000000000E+01      2.786255000000000E-01      1.632500000000000E+02
4911000000.000000      4.114532000000000E-01      2.445508000000000E+01      2.758179000000000E-01      1.628906000000000E+02
4912000000.000000      4.112091000000000E-01      2.420507000000000E+01      2.720490000000000E-01      1.624375000000000E+02
4913000000.000000      4.105072000000000E-01      2.399609000000000E+01      2.689514000000000E-01      1.622187000000000E+02
4914000000.000000      4.113159000000000E-01      2.366406000000000E+01      2.657471000000000E-01      1.618828000000000E+02
4915000000.000000      4.110565000000000E-01      2.368457000000000E+01      2.612457000000000E-01      1.613125000000000E+02
4916000000.000000      4.107208000000000E-01      2.343066000000000E+01      2.579193000000000E-01      1.610391000000000E+02
4917000000.000000      4.111176000000000E-01      2.335547000000000E+01      2.540741000000000E-01      1.607734000000000E+02
4918000000.000000      4.105988000000000E-01      2.312207000000000E+01      2.496719000000000E-01      1.605547000000000E+02
4919000000.000000      4.087219000000000E-01      2.311328000000000E+01      2.465515000000000E-01      1.603984000000000E+02
4920000000.000000      4.096832000000000E-01      2.277832000000000E+01      2.426987000000000E-01      1.597969000000000E+02
4921000000.000000      4.087219000000000E-01      2.270996000000000E+01      2.393570000000000E-01      1.595625000000000E+02
4922000000.000000      4.089355000000000E-01      2.247070000000000E+01      2.359238000000000E-01      1.594687000000000E+02
4923000000.000000      4.084778000000000E-01      2.242383000000000E+01      2.315674000000000E-01      1.590937000000000E+02
4924000000.000000      4.093628000000000E-01      2.218750000000000E+01      2.274399000000000E-01      1.587422000000000E+02
4925000000.000000      4.085693000000000E-01      2.197949000000000E+01      2.239990000000000E-01      1.587344000000000E+02
4926000000.000000      4.085693000000000E-01      2.184473000000000E+01      2.203903000000000E-01      1.583750000000000E+02
4927000000.000000      4.085693000000000E-01      2.161133000000000E+01      2.157135000000000E-01      1.583750000000000E+02
4928000000.000000      4.075775000000000E-01      2.145898000000000E+01      2.123108000000000E-01      1.582422000000000E+02
4929000000.000000      4.076538000000000E-01      2.144922000000000E+01      2.084122000000000E-01      1.579766000000000E+02
4930000000.000000      4.079437000000000E-01      2.112891000000000E+01      2.044678000000000E-01      1.579687000000000E+02
4931000000.000000      4.074707000000000E-01      2.100293000000000E+01      2.015076000000000E-01      1.579844000000000E+02
4932000000.000000      4.066772000000000E-01      2.076953000000000E+01      1.968231000000000E-01      1.577734000000000E+02
4933000000.000000      4.068909000000000E-01      2.065430000000000E+01      1.921539000000000E-01      1.579531000000000E+02
4934000000.000000      4.072876000000000E-01      2.036133000000000E+01      1.883087000000000E-01      1.577969000000000E+02
4935000000.000000      4.069061000000000E-01      2.035449000000000E+01      1.852875000000000E-01      1.580781000000000E+02
4936000000.000000      4.054565000000000E-01      2.007519000000000E+01      1.810455000000000E-01      1.582109000000000E+02
4937000000.000000      4.054413000000000E-01      1.992090000000000E+01      1.771698000000000E-01      1.582187000000000E+02
4938000000.000000      4.049377000000000E-01      1.983691000000000E+01      1.730576000000000E-01      1.585156000000000E+02
4939000000.000000      4.055176000000000E-01      1.974316000000000E+01      1.694489000000000E-01      1.587969000000000E+02
4940000000.000000      4.062958000000000E-01      1.955273000000000E+01      1.656113000000000E-01      1.587891000000000E+02
4941000000.000000      4.057312000000000E-01      1.931250000000000E+01      1.626892000000000E-01      1.594375000000000E+02
4942000000.000000      4.052429000000000E-01      1.923535000000000E+01      1.581650000000000E-01      1.597812000000000E+02
4943000000.000000      4.054413000000000E-01      1.902539000000000E+01      1.547318000000000E-01      1.603281000000000E+02
4944000000.000000      4.039001000000000E-01      1.894922000000000E+01      1.512527000000000E-01      1.607265000000000E+02
4945000000.000000      4.045868000000000E-01      1.869531000000000E+01      1.472626000000000E-01      1.616016000000000E+02
4946000000.000000      4.040833000000000E-01      1.861035000000000E+01      1.442566000000000E-01      1.621406000000000E+02
4947000000.000000      4.037170000000000E-01      1.841309000000000E+01      1.409531000000000E-01      1.630625000000000E+02
4948000000.000000      4.041443000000000E-01      1.823828000000000E+01      1.376419000000000E-01      1.636875000000000E+02
4949000000.000000      4.024353000000000E-01      1.811719000000000E+01      1.345825000000000E-01      1.649062000000000E+02
4950000000.000000      4.035187000000000E-01      1.808984000000000E+01      1.316452000000000E-01      1.656719000000000E+02
4951000000.000000      4.029694000000000E-01      1.787402000000000E+01      1.289673000000000E-01      1.665859000000000E+02
4952000000.000000      4.028473000000000E-01      1.751074000000000E+01      1.261292000000000E-01      1.678750000000000E+02
4953000000.000000      4.013062000000000E-01      1.736621000000000E+01      1.236038000000000E-01      1.693125000000000E+02
4954000000.000000      4.021454000000000E-01      1.726074000000000E+01      1.214485000000000E-01      1.705391000000000E+02
