! Network Analyzer HP8722D
! Hewlett-Packard
! Data name: Linha & Wilkinson
! Saver's name: Rodrigo Anjos
! Comments: Teste da utilização de aquisição
continua pelo VNA HP8722D
! Time and date: 23/5/2025 13:47
!              Frequency                     S11                                                   S21                                                   S12                                                   S22
# HZ  S  MA R 50
4800000000.000000      2.896576000000000E-01      3.936328000000000E+01      4.822388000000000E-01     -1.292891000000000E+02
4801000000.000000      2.908936000000000E-01      3.966015000000000E+01      4.840546000000000E-01     -1.301250000000000E+02
4802000000.000000      2.917023000000000E-01      3.983203000000000E+01      4.862518000000000E-01     -1.306953000000000E+02
4803000000.000000      2.928009000000000E-01      4.004492000000000E+01      4.888153000000000E-01     -1.313750000000000E+02
4804000000.000000      2.940216000000000E-01      4.034961000000000E+01      4.880676000000000E-01     -1.321797000000000E+02
4805000000.000000      2.959290000000000E-01      4.037890000000000E+01      4.892273000000000E-01     -1.327031000000000E+02
4806000000.000000      2.971649000000000E-01      4.054883000000000E+01      4.915771000000000E-01     -1.333281000000000E+02
4807000000.000000      2.980804000000000E-01      4.074609000000000E+01      4.940948000000000E-01     -1.342656000000000E+02
4808000000.000000      2.991180000000000E-01      4.096680000000000E+01      4.935303000000000E-01     -1.348438000000000E+02
4809000000.000000      3.006287000000000E-01      4.114062000000000E+01      4.954681000000000E-01     -1.357734000000000E+02
4810000000.000000      3.026276000000000E-01      4.129296000000000E+01      4.974670000000000E-01     -1.363203000000000E+02
4811000000.000000      3.041077000000000E-01      4.144531000000000E+01      4.981537000000000E-01     -1.372578000000000E+02
4812000000.000000      3.061371000000000E-01      4.159180000000000E+01      5.003967000000000E-01     -1.378750000000000E+02
4813000000.000000      3.069305000000000E-01      4.174414000000000E+01      5.003052000000000E-01     -1.386172000000000E+02
4814000000.000000      3.082275000000000E-01      4.185547000000000E+01      5.007629000000000E-01     -1.393125000000000E+02
4815000000.000000      3.103333000000000E-01      4.184570000000000E+01      5.018616000000000E-01     -1.402500000000000E+02
4816000000.000000      3.124084000000000E-01      4.200195000000000E+01      5.016174000000000E-01     -1.408672000000000E+02
4817000000.000000      3.135681000000000E-01      4.210351000000000E+01      5.017395000000000E-01     -1.416094000000000E+02
4818000000.000000      3.151855000000000E-01      4.207617000000000E+01      5.030518000000000E-01     -1.423125000000000E+02
4819000000.000000      3.173370000000000E-01      4.204883000000000E+01      5.019836000000000E-01     -1.430078000000000E+02
4820000000.000000      3.181152000000000E-01      4.222070000000000E+01      5.035095000000000E-01     -1.436797000000000E+02
4821000000.000000      3.209534000000000E-01      4.229297000000000E+01      5.038452000000000E-01     -1.446094000000000E+02
4822000000.000000      3.221741000000000E-01      4.213476000000000E+01      5.018616000000000E-01     -1.452969000000000E+02
4823000000.000000      3.237305000000000E-01      4.219531000000000E+01      5.038147000000000E-01     -1.460469000000000E+02
4824000000.000000      3.261261000000000E-01      4.222852000000000E+01      5.037842000000000E-01     -1.467734000000000E+02
4825000000.000000      3.276062000000000E-01      4.219922000000000E+01      5.021667000000000E-01     -1.474062000000000E+02
4826000000.000000      3.292389000000000E-01      4.214453000000000E+01      5.026245000000000E-01     -1.482422000000000E+02
4827000000.000000      3.309326000000000E-01      4.211914000000000E+01      5.023804000000000E-01     -1.488906000000000E+02
4828000000.000000      3.334503000000000E-01      4.205274000000000E+01      5.027771000000000E-01     -1.496953000000000E+02
4829000000.000000      3.351898000000000E-01      4.213476000000000E+01      5.009460000000000E-01     -1.503906000000000E+02
4830000000.000000      3.372192000000000E-01      4.195703000000000E+01      5.009460000000000E-01     -1.511328000000000E+02
4831000000.000000      3.384247000000000E-01      4.193945000000000E+01      5.016174000000000E-01     -1.519219000000000E+02
4832000000.000000      3.401489000000000E-01      4.189258000000000E+01      5.007935000000000E-01     -1.526016000000000E+02
4833000000.000000      3.412933000000000E-01      4.175586000000000E+01      4.983063000000000E-01     -1.533359000000000E+02
4834000000.000000      3.436432000000000E-01      4.154297000000000E+01      4.992523000000000E-01     -1.538750000000000E+02
4835000000.000000      3.456573000000000E-01      4.151563000000000E+01      4.981232000000000E-01     -1.546406000000000E+02
4836000000.000000      3.477478000000000E-01      4.144727000000000E+01      4.947357000000000E-01     -1.554609000000000E+02
4837000000.000000      3.488007000000000E-01      4.138085000000000E+01      4.941559000000000E-01     -1.562187000000000E+02
4838000000.000000      3.500214000000000E-01      4.107226000000000E+01      4.934692000000000E-01     -1.568203000000000E+02
4839000000.000000      3.535919000000000E-01      4.096680000000000E+01      4.929504000000000E-01     -1.575938000000000E+02
4840000000.000000      3.540649000000000E-01      4.076953000000000E+01      4.926758000000000E-01     -1.581875000000000E+02
4841000000.000000      3.555450000000000E-01      4.083984000000000E+01      4.921875000000000E-01     -1.591172000000000E+02
4842000000.000000      3.570862000000000E-01      4.050977000000000E+01      4.907379000000000E-01     -1.595312000000000E+02
4843000000.000000      3.597717000000000E-01      4.024023000000000E+01      4.892578000000000E-01     -1.603906000000000E+02
4844000000.000000      3.605804000000000E-01      4.013867000000000E+01      4.875793000000000E-01     -1.611250000000000E+02
4845000000.000000      3.618469000000000E-01      3.999414000000000E+01      4.847107000000000E-01     -1.618047000000000E+02
4846000000.000000      3.640594000000000E-01      3.984570000000000E+01      4.830627000000000E-01     -1.624687000000000E+02
4847000000.000000      3.657379000000000E-01      3.973437000000000E+01      4.827728000000000E-01     -1.631719000000000E+02
4848000000.000000      3.663788000000000E-01      3.945313000000000E+01      4.802399000000000E-01     -1.639922000000000E+02
4849000000.000000      3.676758000000000E-01      3.921093000000000E+01      4.793091000000000E-01     -1.644922000000000E+02
4850000000.000000      3.690033000000000E-01      3.900000000000000E+01      4.775085000000000E-01     -1.653594000000000E+02
4851000000.000000      3.710480000000000E-01      3.886523000000000E+01      4.758759000000000E-01     -1.661641000000000E+02
4852000000.000000      3.715057000000000E-01      3.859961000000000E+01      4.732666000000000E-01     -1.667031000000000E+02
4853000000.000000      3.733521000000000E-01      3.836133000000000E+01      4.695740000000000E-01     -1.675469000000000E+02
4854000000.000000      3.747559000000000E-01      3.820313000000000E+01      4.691162000000000E-01     -1.681953000000000E+02
4855000000.000000      3.750458000000000E-01      3.797266000000000E+01      4.664307000000000E-01     -1.688672000000000E+02
4856000000.000000      3.767090000000000E-01      3.772265000000000E+01      4.642334000000000E-01     -1.695391000000000E+02
4857000000.000000      3.781433000000000E-01      3.746875000000000E+01      4.637299000000000E-01     -1.701484000000000E+02
4858000000.000000      3.793640000000000E-01      3.718164000000000E+01      4.596710000000000E-01     -1.708984000000000E+02
4859000000.000000      3.805542000000000E-01      3.685742000000000E+01      4.585571000000000E-01     -1.717109000000000E+02
4860000000.000000      3.813171000000000E-01      3.681641000000000E+01      4.530487000000000E-01     -1.723047000000000E+02
4861000000.000000      3.819580000000000E-01      3.653906000000000E+01      4.521027000000000E-01     -1.731172000000000E+02
4862000000.000000      3.823853000000000E-01      3.631640000000000E+01      4.506683000000000E-01     -1.735859000000000E+02
4863000000.000000      3.834839000000000E-01      3.611523000000000E+01      4.457397000000000E-01     -1.744531000000000E+02
4864000000.000000      3.851013000000000E-01      3.572266000000000E+01      4.445953000000000E-01     -1.749141000000000E+02
4865000000.000000      3.854828000000000E-01      3.549609000000000E+01      4.404297000000000E-01     -1.755938000000000E+02
4866000000.000000      3.869629000000000E-01      3.516406000000000E+01      4.374084000000000E-01     -1.763515000000000E+02
4867000000.000000      3.859100000000000E-01      3.499804000000000E+01      4.342346000000000E-01     -1.769766000000000E+02
4868000000.000000      3.872833000000000E-01      3.466211000000000E+01      4.322052000000000E-01     -1.776484000000000E+02
4869000000.000000      3.897705000000000E-01      3.445898000000000E+01      4.286346000000000E-01     -1.783203000000000E+02
4870000000.000000      3.896790000000000E-01      3.420703000000000E+01      4.252167000000000E-01     -1.788203000000000E+02
4871000000.000000      3.898621000000000E-01      3.390234000000000E+01      4.213562000000000E-01     -1.798203000000000E+02
4872000000.000000      3.916473000000000E-01      3.376953000000000E+01      4.186554000000000E-01      1.799219000000000E+02
4873000000.000000      3.916931000000000E-01      3.343359000000000E+01      4.158478000000000E-01      1.791719000000000E+02
4874000000.000000      3.916779000000000E-01      3.317187000000000E+01      4.130249000000000E-01      1.786562000000000E+02
4875000000.000000      3.925476000000000E-01      3.286133000000000E+01      4.080505000000000E-01      1.782031000000000E+02
4876000000.000000      3.935242000000000E-01      3.274414000000000E+01      4.054718000000000E-01      1.774531000000000E+02
4877000000.000000      3.942108000000000E-01      3.234179000000000E+01      4.012299000000000E-01      1.768047000000000E+02
4878000000.000000      3.935394000000000E-01      3.216797000000000E+01      3.988800000000000E-01      1.762422000000000E+02
4879000000.000000      3.940582000000000E-01      3.199707000000000E+01      3.936157000000000E-01      1.758516000000000E+02
4880000000.000000      3.951263000000000E-01      3.164844000000000E+01      3.908539000000000E-01      1.750859000000000E+02
4881000000.000000      3.954468000000000E-01      3.139746000000000E+01      3.873444000000000E-01      1.750000000000000E+02
4882000000.000000      3.956757000000000E-01      3.119531000000000E+01      3.842773000000000E-01      1.740469000000000E+02
4883000000.000000      3.947906000000000E-01      3.073144000000000E+01      3.799133000000000E-01      1.736016000000000E+02
4884000000.000000      3.958130000000000E-01      3.066895000000000E+01      3.770599000000000E-01      1.729297000000000E+02
4885000000.000000      3.969269000000000E-01      3.039453000000000E+01      3.737335000000000E-01      1.727266000000000E+02
4886000000.000000      3.959503000000000E-01      3.015527000000000E+01      3.714294000000000E-01      1.723438000000000E+02
4887000000.000000      3.961334000000000E-01      2.987402000000000E+01      3.664856000000000E-01      1.716563000000000E+02
4888000000.000000      3.960419000000000E-01      2.960742000000000E+01      3.629761000000000E-01      1.712188000000000E+02
4889000000.000000      3.954010000000000E-01      2.941113000000000E+01      3.582764000000000E-01      1.710156000000000E+02
4890000000.000000      3.951416000000000E-01      2.916308000000000E+01      3.551331000000000E-01      1.700859000000000E+02
4891000000.000000      3.961792000000000E-01      2.901464000000000E+01      3.515778000000000E-01      1.698516000000000E+02
4892000000.000000      3.960571000000000E-01      2.867090000000000E+01      3.489838000000000E-01      1.694922000000000E+02
4893000000.000000      3.962555000000000E-01      2.837891000000000E+01      3.457947000000000E-01      1.686172000000000E+02
4894000000.000000      3.953094000000000E-01      2.831250000000000E+01      3.401642000000000E-01      1.683594000000000E+02
4895000000.000000      3.972473000000000E-01      2.798730000000000E+01      3.383789000000000E-01      1.680312000000000E+02
4896000000.000000      3.953400000000000E-01      2.777832000000000E+01      3.343964000000000E-01      1.678203000000000E+02
4897000000.000000      3.949432000000000E-01      2.764843000000000E+01      3.313751000000000E-01      1.671641000000000E+02
4898000000.000000      3.959198000000000E-01      2.741211000000000E+01      3.287659000000000E-01      1.668203000000000E+02
4899000000.000000      3.955994000000000E-01      2.706152000000000E+01      3.260193000000000E-01      1.662500000000000E+02
4900000000.000000      3.959656000000000E-01      2.690136000000000E+01      3.211517000000000E-01      1.659688000000000E+02
4901000000.000000      3.961792000000000E-01      2.673730000000000E+01      3.180695000000000E-01      1.655469000000000E+02
4902000000.000000      3.950806000000000E-01      2.649023000000000E+01      3.149719000000000E-01      1.652578000000000E+02
4903000000.000000      3.945618000000000E-01      2.644922000000000E+01      3.100433000000000E-01      1.647500000000000E+02
4904000000.000000      3.952026000000000E-01      2.596875000000000E+01      3.067627000000000E-01      1.644140000000000E+02
4905000000.000000      3.952637000000000E-01      2.587597000000000E+01      3.046570000000000E-01      1.638594000000000E+02
4906000000.000000      3.942566000000000E-01      2.553906000000000E+01      3.006744000000000E-01      1.639141000000000E+02
4907000000.000000      3.943481000000000E-01      2.542285000000000E+01      2.977295000000000E-01      1.631250000000000E+02
4908000000.000000      3.946838000000000E-01      2.530762000000000E+01      2.941589000000000E-01      1.628828000000000E+02
4909000000.000000      3.936920000000000E-01      2.500293000000000E+01      2.902832000000000E-01      1.623594000000000E+02
4910000000.000000      3.930054000000000E-01      2.487793000000000E+01      2.866821000000000E-01      1.620625000000000E+02
4911000000.000000      3.935089000000000E-01      2.471094000000000E+01      2.836761000000000E-01      1.618125000000000E+02
4912000000.000000      3.930206000000000E-01      2.447949000000000E+01      2.799988000000000E-01      1.612656000000000E+02
4913000000.000000      3.929749000000000E-01      2.430273000000000E+01      2.764282000000000E-01      1.610078000000000E+02
4914000000.000000      3.930206000000000E-01      2.393750000000000E+01      2.729797000000000E-01      1.607812000000000E+02
4915000000.000000      3.923950000000000E-01      2.392871000000000E+01      2.682800000000000E-01      1.600078000000000E+02
4916000000.000000      3.919678000000000E-01      2.371875000000000E+01      2.651672000000000E-01      1.598672000000000E+02
4917000000.000000      3.922729000000000E-01      2.354492000000000E+01      2.618561000000000E-01      1.597578000000000E+02
4918000000.000000      3.917389000000000E-01      2.336328000000000E+01      2.575378000000000E-01      1.591250000000000E+02
4919000000.000000      3.911896000000000E-01      2.313086000000000E+01      2.543945000000000E-01      1.590156000000000E+02
4920000000.000000      3.918457000000000E-01      2.287890000000000E+01      2.498550000000000E-01      1.585312000000000E+02
4921000000.000000      3.910675000000000E-01      2.289649000000000E+01      2.467804000000000E-01      1.585391000000000E+02
4922000000.000000      3.915710000000000E-01      2.266699000000000E+01      2.425613000000000E-01      1.582266000000000E+02
4923000000.000000      3.894348000000000E-01      2.261328000000000E+01      2.383194000000000E-01      1.579609000000000E+02
4924000000.000000      3.896942000000000E-01      2.236523000000000E+01      2.344971000000000E-01      1.576328000000000E+02
4925000000.000000      3.894196000000000E-01      2.213965000000000E+01      2.312393000000000E-01      1.572891000000000E+02
4926000000.000000      3.890686000000000E-01      2.199512000000000E+01      2.266998000000000E-01      1.571563000000000E+02
4927000000.000000      3.885345000000000E-01      2.183789000000000E+01      2.229462000000000E-01      1.570078000000000E+02
4928000000.000000      3.897858000000000E-01      2.147363000000000E+01      2.190170000000000E-01      1.568516000000000E+02
4929000000.000000      3.889771000000000E-01      2.134180000000000E+01      2.145767000000000E-01      1.567422000000000E+02
4930000000.000000      3.880768000000000E-01      2.139941000000000E+01      2.108078000000000E-01      1.565938000000000E+02
4931000000.000000      3.883514000000000E-01      2.097656000000000E+01      2.073059000000000E-01      1.565312000000000E+02
4932000000.000000      3.881989000000000E-01      2.088281000000000E+01      2.030640000000000E-01      1.564375000000000E+02
4933000000.000000      3.882904000000000E-01      2.076758000000000E+01      1.982803000000000E-01      1.567188000000000E+02
4934000000.000000      3.876648000000000E-01      2.044629000000000E+01      1.947861000000000E-01      1.564297000000000E+02
4935000000.000000      3.881683000000000E-01      2.020215000000000E+01      1.909332000000000E-01      1.568203000000000E+02
4936000000.000000      3.851013000000000E-01      2.019141000000000E+01      1.871490000000000E-01      1.566719000000000E+02
4937000000.000000      3.860016000000000E-01      1.997363000000000E+01      1.828308000000000E-01      1.568359000000000E+02
4938000000.000000      3.856964000000000E-01      1.986426000000000E+01      1.789703000000000E-01      1.572266000000000E+02
4939000000.000000      3.852844000000000E-01      1.982812000000000E+01      1.749649000000000E-01      1.573125000000000E+02
4940000000.000000      3.863678000000000E-01      1.953613000000000E+01      1.707153000000000E-01      1.575391000000000E+02
4941000000.000000      3.857422000000000E-01      1.926172000000000E+01      1.670914000000000E-01      1.579375000000000E+02
4942000000.000000      3.846893000000000E-01      1.941211000000000E+01      1.632919000000000E-01      1.583125000000000E+02
4943000000.000000      3.853912000000000E-01      1.908008000000000E+01      1.597366000000000E-01      1.589141000000000E+02
4944000000.000000      3.843231000000000E-01      1.882031000000000E+01      1.557846000000000E-01      1.593672000000000E+02
4945000000.000000      3.840027000000000E-01      1.859082000000000E+01      1.518326000000000E-01      1.601094000000000E+02
4946000000.000000      3.849030000000000E-01      1.853223000000000E+01      1.488495000000000E-01      1.604844000000000E+02
4947000000.000000      3.840637000000000E-01      1.832227000000000E+01      1.450882000000000E-01      1.613828000000000E+02
4948000000.000000      3.831787000000000E-01      1.820508000000000E+01      1.417618000000000E-01      1.621641000000000E+02
4949000000.000000      3.829651000000000E-01      1.803515000000000E+01      1.390839000000000E-01      1.633672000000000E+02
4950000000.000000      3.828278000000000E-01      1.799219000000000E+01      1.356201000000000E-01      1.643437000000000E+02
4951000000.000000      3.835602000000000E-01      1.757617000000000E+01      1.329956000000000E-01      1.650078000000000E+02
4952000000.000000      3.817596000000000E-01      1.751465000000000E+01      1.298752000000000E-01      1.663359000000000E+02
4953000000.000000      3.823242000000000E-01      1.733594000000000E+01      1.278687000000000E-01      1.677266000000000E+02
4954000000.000000      3.814850000000000E-01      1.716992000000000E+01      1.246796000000000E-01      1.690547000000000E+02
