! Network Analyzer HP8722D
! Hewlett-Packard
! Data name: Linha & Wilkinson
! Saver's name: Rodrigo Anjos
! Comments: Teste da utilização de aquisição
continua pelo VNA HP8722D
! Time and date: 23/5/2025 14:52
!              Frequency                     S11                                                   S21                                                   S12                                                   S22
# HZ  S  MA R 50
4800000000.000000      2.857361000000000E-01      3.987109000000000E+01      4.851532000000000E-01     -1.293828000000000E+02
4801000000.000000      2.864227000000000E-01      4.006055000000000E+01      4.859619000000000E-01     -1.300156000000000E+02
4802000000.000000      2.877045000000000E-01      4.024219000000000E+01      4.870300000000000E-01     -1.306015000000000E+02
4803000000.000000      2.884674000000000E-01      4.046484000000000E+01      4.909058000000000E-01     -1.314766000000000E+02
4804000000.000000      2.894287000000000E-01      4.072851000000000E+01      4.912872000000000E-01     -1.321484000000000E+02
4805000000.000000      2.918854000000000E-01      4.079102000000000E+01      4.938660000000000E-01     -1.328438000000000E+02
4806000000.000000      2.926178000000000E-01      4.087695000000000E+01      4.943237000000000E-01     -1.335000000000000E+02
4807000000.000000      2.938232000000000E-01      4.123047000000000E+01      4.954834000000000E-01     -1.344297000000000E+02
4808000000.000000      2.950134000000000E-01      4.133985000000000E+01      4.979401000000000E-01     -1.350937000000000E+02
4809000000.000000      2.965851000000000E-01      4.161328000000000E+01      4.983521000000000E-01     -1.358750000000000E+02
4810000000.000000      2.981415000000000E-01      4.167969000000000E+01      4.997864000000000E-01     -1.365156000000000E+02
4811000000.000000      3.000336000000000E-01      4.188281000000000E+01      5.014038000000000E-01     -1.372187000000000E+02
4812000000.000000      3.024139000000000E-01      4.199804000000000E+01      5.020142000000000E-01     -1.380000000000000E+02
4813000000.000000      3.034210000000000E-01      4.212695000000000E+01      5.026245000000000E-01     -1.388672000000000E+02
4814000000.000000      3.040619000000000E-01      4.211914000000000E+01      5.027466000000000E-01     -1.395000000000000E+02
4815000000.000000      3.060760000000000E-01      4.223437000000000E+01      5.024109000000000E-01     -1.401953000000000E+02
4816000000.000000      3.081055000000000E-01      4.247851000000000E+01      5.058289000000000E-01     -1.408906000000000E+02
4817000000.000000      3.090668000000000E-01      4.258398000000000E+01      5.047607000000000E-01     -1.417109000000000E+02
4818000000.000000      3.114014000000000E-01      4.251953000000000E+01      5.053406000000000E-01     -1.423047000000000E+02
4819000000.000000      3.133850000000000E-01      4.259766000000000E+01      5.039673000000000E-01     -1.431953000000000E+02
4820000000.000000      3.143463000000000E-01      4.263476000000000E+01      5.065002000000000E-01     -1.438281000000000E+02
4821000000.000000      3.168640000000000E-01      4.273828000000000E+01      5.056152000000000E-01     -1.445859000000000E+02
4822000000.000000      3.179474000000000E-01      4.262109000000000E+01      5.049744000000000E-01     -1.454062000000000E+02
4823000000.000000      3.204193000000000E-01      4.260351000000000E+01      5.070801000000000E-01     -1.460781000000000E+02
4824000000.000000      3.217163000000000E-01      4.269921000000000E+01      5.060730000000000E-01     -1.469687000000000E+02
4825000000.000000      3.238068000000000E-01      4.256445000000000E+01      5.053406000000000E-01     -1.474766000000000E+02
4826000000.000000      3.257141000000000E-01      4.252930000000000E+01      5.059509000000000E-01     -1.485000000000000E+02
4827000000.000000      3.278351000000000E-01      4.256640000000000E+01      5.043030000000000E-01     -1.490781000000000E+02
4828000000.000000      3.295593000000000E-01      4.247656000000000E+01      5.050354000000000E-01     -1.496562000000000E+02
4829000000.000000      3.314819000000000E-01      4.256836000000000E+01      5.050049000000000E-01     -1.503125000000000E+02
4830000000.000000      3.333588000000000E-01      4.229297000000000E+01      5.036926000000000E-01     -1.512266000000000E+02
4831000000.000000      3.347626000000000E-01      4.228711000000000E+01      5.035706000000000E-01     -1.522031000000000E+02
4832000000.000000      3.371582000000000E-01      4.229492000000000E+01      5.023804000000000E-01     -1.525625000000000E+02
4833000000.000000      3.382874000000000E-01      4.198828000000000E+01      5.017395000000000E-01     -1.533203000000000E+02
4834000000.000000      3.398285000000000E-01      4.209374000000000E+01      5.009460000000000E-01     -1.540234000000000E+02
4835000000.000000      3.418732000000000E-01      4.184766000000000E+01      5.002747000000000E-01     -1.547812000000000E+02
4836000000.000000      3.438263000000000E-01      4.186719000000000E+01      4.982300000000000E-01     -1.555078000000000E+02
4837000000.000000      3.447571000000000E-01      4.181250000000000E+01      4.976654000000000E-01     -1.563828000000000E+02
4838000000.000000      3.465271000000000E-01      4.148828000000000E+01      4.979401000000000E-01     -1.566719000000000E+02
4839000000.000000      3.498077000000000E-01      4.146093000000000E+01      4.957428000000000E-01     -1.574844000000000E+02
4840000000.000000      3.509216000000000E-01      4.112305000000000E+01      4.955750000000000E-01     -1.583516000000000E+02
4841000000.000000      3.527985000000000E-01      4.111914000000000E+01      4.926758000000000E-01     -1.591094000000000E+02
4842000000.000000      3.538208000000000E-01      4.088281000000000E+01      4.922638000000000E-01     -1.598047000000000E+02
4843000000.000000      3.569946000000000E-01      4.063867000000000E+01      4.910278000000000E-01     -1.605625000000000E+02
4844000000.000000      3.565674000000000E-01      4.049609000000000E+01      4.889069000000000E-01     -1.611172000000000E+02
4845000000.000000      3.585815000000000E-01      4.048437000000000E+01      4.880981000000000E-01     -1.618594000000000E+02
4846000000.000000      3.607330000000000E-01      4.021093000000000E+01      4.869080000000000E-01     -1.626094000000000E+02
4847000000.000000      3.613586000000000E-01      4.008985000000000E+01      4.849091000000000E-01     -1.631562000000000E+02
4848000000.000000      3.626556000000000E-01      3.978516000000000E+01      4.826202000000000E-01     -1.640391000000000E+02
4849000000.000000      3.642731000000000E-01      3.949414000000000E+01      4.819489000000000E-01     -1.647187000000000E+02
4850000000.000000      3.657837000000000E-01      3.935351000000000E+01      4.796600000000000E-01     -1.653750000000000E+02
4851000000.000000      3.679199000000000E-01      3.916797000000000E+01      4.793396000000000E-01     -1.660859000000000E+02
4852000000.000000      3.685455000000000E-01      3.891797000000000E+01      4.753418000000000E-01     -1.669062000000000E+02
4853000000.000000      3.704071000000000E-01      3.878711000000000E+01      4.739380000000000E-01     -1.675625000000000E+02
4854000000.000000      3.710022000000000E-01      3.845703000000000E+01      4.713287000000000E-01     -1.682500000000000E+02
4855000000.000000      3.728180000000000E-01      3.820313000000000E+01      4.693909000000000E-01     -1.689062000000000E+02
4856000000.000000      3.728485000000000E-01      3.798242000000000E+01      4.665222000000000E-01     -1.696719000000000E+02
4857000000.000000      3.751221000000000E-01      3.778125000000000E+01      4.660645000000000E-01     -1.702656000000000E+02
4858000000.000000      3.761749000000000E-01      3.758008000000000E+01      4.615784000000000E-01     -1.709531000000000E+02
4859000000.000000      3.773193000000000E-01      3.719531000000000E+01      4.598999000000000E-01     -1.716094000000000E+02
4860000000.000000      3.779297000000000E-01      3.721875000000000E+01      4.588776000000000E-01     -1.722344000000000E+02
4861000000.000000      3.784485000000000E-01      3.685351000000000E+01      4.541473000000000E-01     -1.731953000000000E+02
4862000000.000000      3.795166000000000E-01      3.647461000000000E+01      4.513702000000000E-01     -1.737266000000000E+02
4863000000.000000      3.806458000000000E-01      3.628515000000000E+01      4.483795000000000E-01     -1.743750000000000E+02
4864000000.000000      3.819427000000000E-01      3.596094000000000E+01      4.468994000000000E-01     -1.750625000000000E+02
4865000000.000000      3.823547000000000E-01      3.575195000000000E+01      4.419861000000000E-01     -1.757187000000000E+02
4866000000.000000      3.838654000000000E-01      3.547852000000000E+01      4.400482000000000E-01     -1.764141000000000E+02
4867000000.000000      3.840942000000000E-01      3.516016000000000E+01      4.377747000000000E-01     -1.771797000000000E+02
4868000000.000000      3.847504000000000E-01      3.495117000000000E+01      4.340515000000000E-01     -1.778047000000000E+02
4869000000.000000      3.856354000000000E-01      3.476367000000000E+01      4.326172000000000E-01     -1.786016000000000E+02
4870000000.000000      3.866425000000000E-01      3.446289000000000E+01      4.285431000000000E-01     -1.788437000000000E+02
4871000000.000000      3.863831000000000E-01      3.418945000000000E+01      4.241943000000000E-01     -1.797734000000000E+02
4872000000.000000      3.884583000000000E-01      3.380273000000000E+01      4.211121000000000E-01      1.799141000000000E+02
4873000000.000000      3.877563000000000E-01      3.371289000000000E+01      4.171143000000000E-01      1.791406000000000E+02
4874000000.000000      3.890533000000000E-01      3.347265000000000E+01      4.127960000000000E-01      1.784297000000000E+02
4875000000.000000      3.881683000000000E-01      3.312891000000000E+01      4.114990000000000E-01      1.779375000000000E+02
4876000000.000000      3.898010000000000E-01      3.300976000000000E+01      4.078522000000000E-01      1.773281000000000E+02
4877000000.000000      3.907471000000000E-01      3.247265000000000E+01      4.041138000000000E-01      1.766875000000000E+02
4878000000.000000      3.901672000000000E-01      3.236328000000000E+01      4.015503000000000E-01      1.763515000000000E+02
4879000000.000000      3.910065000000000E-01      3.208984000000000E+01      3.976593000000000E-01      1.757422000000000E+02
4880000000.000000      3.920898000000000E-01      3.182812000000000E+01      3.939056000000000E-01      1.750391000000000E+02
4881000000.000000      3.920441000000000E-01      3.154980000000000E+01      3.894348000000000E-01      1.745703000000000E+02
4882000000.000000      3.919678000000000E-01      3.143652000000000E+01      3.882294000000000E-01      1.739766000000000E+02
4883000000.000000      3.919067000000000E-01      3.109179000000000E+01      3.839722000000000E-01      1.735078000000000E+02
4884000000.000000      3.929138000000000E-01      3.089844000000000E+01      3.794250000000000E-01      1.730703000000000E+02
4885000000.000000      3.929596000000000E-01      3.060449000000000E+01      3.766174000000000E-01      1.727031000000000E+02
4886000000.000000      3.921814000000000E-01      3.041894000000000E+01      3.724213000000000E-01      1.721953000000000E+02
4887000000.000000      3.932343000000000E-01      3.014453000000000E+01      3.703918000000000E-01      1.716563000000000E+02
4888000000.000000      3.927612000000000E-01      2.976660000000000E+01      3.665466000000000E-01      1.710000000000000E+02
4889000000.000000      3.921661000000000E-01      2.956055000000000E+01      3.623657000000000E-01      1.706640000000000E+02
4890000000.000000      3.925476000000000E-01      2.927832000000000E+01      3.599396000000000E-01      1.697109000000000E+02
4891000000.000000      3.924561000000000E-01      2.907031000000000E+01      3.550720000000000E-01      1.695078000000000E+02
4892000000.000000      3.928070000000000E-01      2.892480000000000E+01      3.512573000000000E-01      1.693672000000000E+02
4893000000.000000      3.930817000000000E-01      2.862890000000000E+01      3.482666000000000E-01      1.688437000000000E+02
4894000000.000000      3.926086000000000E-01      2.842382000000000E+01      3.448792000000000E-01      1.682344000000000E+02
4895000000.000000      3.933563000000000E-01      2.809277000000000E+01      3.414612000000000E-01      1.679766000000000E+02
4896000000.000000      3.931274000000000E-01      2.790918000000000E+01      3.376923000000000E-01      1.675313000000000E+02
4897000000.000000      3.922577000000000E-01      2.765722000000000E+01      3.342743000000000E-01      1.668828000000000E+02
4898000000.000000      3.931122000000000E-01      2.752344000000000E+01      3.305817000000000E-01      1.667969000000000E+02
4899000000.000000      3.922424000000000E-01      2.722754000000000E+01      3.271332000000000E-01      1.661484000000000E+02
4900000000.000000      3.913727000000000E-01      2.698730000000000E+01      3.240814000000000E-01      1.659688000000000E+02
4901000000.000000      3.925476000000000E-01      2.682422000000000E+01      3.204956000000000E-01      1.655625000000000E+02
4902000000.000000      3.920135000000000E-01      2.654101000000000E+01      3.173676000000000E-01      1.652500000000000E+02
4903000000.000000      3.919830000000000E-01      2.636133000000000E+01      3.131409000000000E-01      1.646016000000000E+02
4904000000.000000      3.918304000000000E-01      2.607031000000000E+01      3.102264000000000E-01      1.641875000000000E+02
4905000000.000000      3.910217000000000E-01      2.586914000000000E+01      3.070374000000000E-01      1.637500000000000E+02
4906000000.000000      3.909302000000000E-01      2.572656000000000E+01      3.038788000000000E-01      1.636562000000000E+02
4907000000.000000      3.907013000000000E-01      2.552441000000000E+01      3.006287000000000E-01      1.630000000000000E+02
4908000000.000000      3.909912000000000E-01      2.520801000000000E+01      2.970276000000000E-01      1.625313000000000E+02
4909000000.000000      3.900299000000000E-01      2.511719000000000E+01      2.922363000000000E-01      1.622890000000000E+02
4910000000.000000      3.896637000000000E-01      2.488379000000000E+01      2.893066000000000E-01      1.618906000000000E+02
4911000000.000000      3.887329000000000E-01      2.472851000000000E+01      2.864227000000000E-01      1.615391000000000E+02
4912000000.000000      3.890381000000000E-01      2.452539000000000E+01      2.825928000000000E-01      1.611250000000000E+02
4913000000.000000      3.892517000000000E-01      2.435351000000000E+01      2.791901000000000E-01      1.608984000000000E+02
4914000000.000000      3.886566000000000E-01      2.405176000000000E+01      2.754822000000000E-01      1.604766000000000E+02
4915000000.000000      3.879852000000000E-01      2.395801000000000E+01      2.712097000000000E-01      1.601094000000000E+02
4916000000.000000      3.880310000000000E-01      2.377636000000000E+01      2.675781000000000E-01      1.595859000000000E+02
4917000000.000000      3.880768000000000E-01      2.372559000000000E+01      2.640076000000000E-01      1.593359000000000E+02
4918000000.000000      3.881989000000000E-01      2.343750000000000E+01      2.598419000000000E-01      1.590547000000000E+02
4919000000.000000      3.865051000000000E-01      2.332520000000000E+01      2.571106000000000E-01      1.588906000000000E+02
4920000000.000000      3.877106000000000E-01      2.307617000000000E+01      2.525330000000000E-01      1.585000000000000E+02
4921000000.000000      3.873291000000000E-01      2.293359000000000E+01      2.491455000000000E-01      1.581094000000000E+02
4922000000.000000      3.869324000000000E-01      2.271387000000000E+01      2.446442000000000E-01      1.577969000000000E+02
4923000000.000000      3.867188000000000E-01      2.249512000000000E+01      2.407532000000000E-01      1.577500000000000E+02
4924000000.000000      3.864441000000000E-01      2.248340000000000E+01      2.367096000000000E-01      1.573281000000000E+02
4925000000.000000      3.862457000000000E-01      2.222168000000000E+01      2.330856000000000E-01      1.571797000000000E+02
4926000000.000000      3.851166000000000E-01      2.197266000000000E+01      2.295532000000000E-01      1.568594000000000E+02
4927000000.000000      3.851166000000000E-01      2.188867000000000E+01      2.251205000000000E-01      1.566797000000000E+02
4928000000.000000      3.855743000000000E-01      2.168067000000000E+01      2.215805000000000E-01      1.566641000000000E+02
4929000000.000000      3.854065000000000E-01      2.147070000000000E+01      2.169571000000000E-01      1.565312000000000E+02
4930000000.000000      3.853302000000000E-01      2.140234000000000E+01      2.132492000000000E-01      1.563281000000000E+02
4931000000.000000      3.839264000000000E-01      2.102441000000000E+01      2.097015000000000E-01      1.562813000000000E+02
4932000000.000000      3.841705000000000E-01      2.103516000000000E+01      2.048492000000000E-01      1.562344000000000E+02
4933000000.000000      3.835449000000000E-01      2.069629000000000E+01      2.002258000000000E-01      1.563516000000000E+02
4934000000.000000      3.839111000000000E-01      2.066113000000000E+01      1.970596000000000E-01      1.560625000000000E+02
4935000000.000000      3.836365000000000E-01      2.039844000000000E+01      1.934891000000000E-01      1.563984000000000E+02
4936000000.000000      3.826752000000000E-01      2.013770000000000E+01      1.886139000000000E-01      1.564844000000000E+02
4937000000.000000      3.832550000000000E-01      1.996973000000000E+01      1.849518000000000E-01      1.564922000000000E+02
4938000000.000000      3.809357000000000E-01      1.986035000000000E+01      1.809540000000000E-01      1.567891000000000E+02
4939000000.000000      3.823242000000000E-01      1.978223000000000E+01      1.766891000000000E-01      1.570547000000000E+02
4940000000.000000      3.819275000000000E-01      1.944433000000000E+01      1.723785000000000E-01      1.571250000000000E+02
4941000000.000000      3.823547000000000E-01      1.930273000000000E+01      1.688461000000000E-01      1.575469000000000E+02
4942000000.000000      3.812408000000000E-01      1.934766000000000E+01      1.651001000000000E-01      1.579922000000000E+02
4943000000.000000      3.813171000000000E-01      1.914844000000000E+01      1.612091000000000E-01      1.584375000000000E+02
4944000000.000000      3.809204000000000E-01      1.883984000000000E+01      1.576538000000000E-01      1.588906000000000E+02
4945000000.000000      3.805847000000000E-01      1.869141000000000E+01      1.537018000000000E-01      1.593672000000000E+02
4946000000.000000      3.803253000000000E-01      1.856055000000000E+01      1.507263000000000E-01      1.601953000000000E+02
4947000000.000000      3.807068000000000E-01      1.839062000000000E+01      1.466904000000000E-01      1.608359000000000E+02
4948000000.000000      3.802032000000000E-01      1.830664000000000E+01      1.435776000000000E-01      1.616719000000000E+02
4949000000.000000      3.792419000000000E-01      1.809277000000000E+01      1.407928000000000E-01      1.627734000000000E+02
4950000000.000000      3.796387000000000E-01      1.793066000000000E+01      1.371613000000000E-01      1.636094000000000E+02
4951000000.000000      3.786774000000000E-01      1.783008000000000E+01      1.338577000000000E-01      1.647266000000000E+02
4952000000.000000      3.783722000000000E-01      1.760058000000000E+01      1.312332000000000E-01      1.656016000000000E+02
4953000000.000000      3.775024000000000E-01      1.725390000000000E+01      1.285934000000000E-01      1.670156000000000E+02
4954000000.000000      3.776550000000000E-01      1.724414000000000E+01      1.261368000000000E-01      1.682969000000000E+02
