! Network Analyzer HP8722D
! Hewlett-Packard
! Data name: Linha & Wilkinson
! Saver's name: Rodrigo Anjos
! Comments: Teste da utilização de aquisição
continua pelo VNA HP8722D
! Time and date: 23/5/2025 11:51
!              Frequency                     S11                                                   S21                                                   S12                                                   S22
# HZ  S  MA R 50
4800000000.000000      3.032379000000000E-01      3.815430000000000E+01      4.763031000000000E-01     -1.285469000000000E+02
4801000000.000000      3.039398000000000E-01      3.841992000000000E+01      4.763336000000000E-01     -1.290390000000000E+02
4802000000.000000      3.046112000000000E-01      3.857422000000000E+01      4.776306000000000E-01     -1.297969000000000E+02
4803000000.000000      3.056793000000000E-01      3.878906000000000E+01      4.803925000000000E-01     -1.305703000000000E+02
4804000000.000000      3.069916000000000E-01      3.898633000000000E+01      4.815979000000000E-01     -1.312422000000000E+02
4805000000.000000      3.090057000000000E-01      3.904492000000000E+01      4.821167000000000E-01     -1.318906000000000E+02
4806000000.000000      3.092041000000000E-01      3.925976000000000E+01      4.842377000000000E-01     -1.327188000000000E+02
4807000000.000000      3.106384000000000E-01      3.940234000000000E+01      4.847565000000000E-01     -1.335000000000000E+02
4808000000.000000      3.112488000000000E-01      3.960938000000000E+01      4.869995000000000E-01     -1.340078000000000E+02
4809000000.000000      3.128662000000000E-01      3.990429000000000E+01      4.885101000000000E-01     -1.350391000000000E+02
4810000000.000000      3.144379000000000E-01      3.999804000000000E+01      4.895630000000000E-01     -1.355078000000000E+02
4811000000.000000      3.158722000000000E-01      4.013672000000000E+01      4.899750000000000E-01     -1.363516000000000E+02
4812000000.000000      3.181305000000000E-01      4.031250000000000E+01      4.908142000000000E-01     -1.370000000000000E+02
4813000000.000000      3.188934000000000E-01      4.039258000000000E+01      4.917755000000000E-01     -1.378594000000000E+02
4814000000.000000      3.200684000000000E-01      4.045117000000000E+01      4.925079000000000E-01     -1.384766000000000E+02
4815000000.000000      3.218842000000000E-01      4.057617000000000E+01      4.939270000000000E-01     -1.392344000000000E+02
4816000000.000000      3.235321000000000E-01      4.070313000000000E+01      4.952087000000000E-01     -1.400234000000000E+02
4817000000.000000      3.248596000000000E-01      4.078125000000000E+01      4.949341000000000E-01     -1.406875000000000E+02
4818000000.000000      3.260498000000000E-01      4.074414000000000E+01      4.954071000000000E-01     -1.415781000000000E+02
4819000000.000000      3.280334000000000E-01      4.082812000000000E+01      4.948883000000000E-01     -1.422656000000000E+02
4820000000.000000      3.289795000000000E-01      4.088867000000000E+01      4.963226000000000E-01     -1.428906000000000E+02
4821000000.000000      3.320618000000000E-01      4.093750000000000E+01      4.970703000000000E-01     -1.438750000000000E+02
4822000000.000000      3.327179000000000E-01      4.083008000000000E+01      4.958649000000000E-01     -1.444219000000000E+02
4823000000.000000      3.354034000000000E-01      4.092578000000000E+01      4.971771000000000E-01     -1.449687000000000E+02
4824000000.000000      3.366394000000000E-01      4.103906000000000E+01      4.956055000000000E-01     -1.458906000000000E+02
4825000000.000000      3.381042000000000E-01      4.091406000000000E+01      4.946594000000000E-01     -1.465156000000000E+02
4826000000.000000      3.398285000000000E-01      4.089063000000000E+01      4.957123000000000E-01     -1.473672000000000E+02
4827000000.000000      3.414612000000000E-01      4.087110000000000E+01      4.949646000000000E-01     -1.479766000000000E+02
4828000000.000000      3.439636000000000E-01      4.083203000000000E+01      4.950714000000000E-01     -1.487734000000000E+02
4829000000.000000      3.454285000000000E-01      4.095117000000000E+01      4.940186000000000E-01     -1.494922000000000E+02
4830000000.000000      3.472900000000000E-01      4.074414000000000E+01      4.932709000000000E-01     -1.502344000000000E+02
4831000000.000000      3.488617000000000E-01      4.072070000000000E+01      4.942474000000000E-01     -1.510156000000000E+02
4832000000.000000      3.503723000000000E-01      4.074609000000000E+01      4.926605000000000E-01     -1.515234000000000E+02
4833000000.000000      3.511810000000000E-01      4.053320000000000E+01      4.910431000000000E-01     -1.522031000000000E+02
4834000000.000000      3.534088000000000E-01      4.043750000000000E+01      4.904327000000000E-01     -1.531484000000000E+02
4835000000.000000      3.557587000000000E-01      4.036914000000000E+01      4.898529000000000E-01     -1.537656000000000E+02
4836000000.000000      3.576965000000000E-01      4.039258000000000E+01      4.881439000000000E-01     -1.545547000000000E+02
4837000000.000000      3.586426000000000E-01      4.025976000000000E+01      4.874725000000000E-01     -1.554453000000000E+02
4838000000.000000      3.600769000000000E-01      4.010351000000000E+01      4.879303000000000E-01     -1.557578000000000E+02
4839000000.000000      3.631592000000000E-01      4.002930000000000E+01      4.860992000000000E-01     -1.566172000000000E+02
4840000000.000000      3.639374000000000E-01      3.976171000000000E+01      4.845886000000000E-01     -1.574375000000000E+02
4841000000.000000      3.660126000000000E-01      3.980273000000000E+01      4.846954000000000E-01     -1.580625000000000E+02
4842000000.000000      3.670807000000000E-01      3.950390000000000E+01      4.829712000000000E-01     -1.587109000000000E+02
4843000000.000000      3.697357000000000E-01      3.927343000000000E+01      4.821625000000000E-01     -1.593984000000000E+02
4844000000.000000      3.703613000000000E-01      3.914648000000000E+01      4.802094000000000E-01     -1.601563000000000E+02
4845000000.000000      3.719025000000000E-01      3.912500000000000E+01      4.779968000000000E-01     -1.607969000000000E+02
4846000000.000000      3.738556000000000E-01      3.889257000000000E+01      4.778290000000000E-01     -1.616797000000000E+02
4847000000.000000      3.752289000000000E-01      3.884766000000000E+01      4.755249000000000E-01     -1.622109000000000E+02
4848000000.000000      3.761902000000000E-01      3.846484000000000E+01      4.735870000000000E-01     -1.630234000000000E+02
4849000000.000000      3.772125000000000E-01      3.828125000000000E+01      4.726715000000000E-01     -1.637812000000000E+02
4850000000.000000      3.787537000000000E-01      3.802343000000000E+01      4.692383000000000E-01     -1.644297000000000E+02
4851000000.000000      3.802643000000000E-01      3.810547000000000E+01      4.678650000000000E-01     -1.652422000000000E+02
4852000000.000000      3.816681000000000E-01      3.776172000000000E+01      4.659424000000000E-01     -1.659062000000000E+02
4853000000.000000      3.836365000000000E-01      3.760742000000000E+01      4.628906000000000E-01     -1.666641000000000E+02
4854000000.000000      3.844757000000000E-01      3.724609000000000E+01      4.623413000000000E-01     -1.672344000000000E+02
4855000000.000000      3.855743000000000E-01      3.714062000000000E+01      4.604187000000000E-01     -1.680938000000000E+02
4856000000.000000      3.871765000000000E-01      3.688477000000000E+01      4.586182000000000E-01     -1.687422000000000E+02
4857000000.000000      3.877869000000000E-01      3.668554000000000E+01      4.570007000000000E-01     -1.691719000000000E+02
4858000000.000000      3.885040000000000E-01      3.641211000000000E+01      4.538422000000000E-01     -1.701406000000000E+02
4859000000.000000      3.909454000000000E-01      3.622656000000000E+01      4.519958000000000E-01     -1.708281000000000E+02
4860000000.000000      3.921661000000000E-01      3.614453000000000E+01      4.486389000000000E-01     -1.714766000000000E+02
4861000000.000000      3.927307000000000E-01      3.585938000000000E+01      4.449158000000000E-01     -1.722812000000000E+02
4862000000.000000      3.927917000000000E-01      3.553906000000000E+01      4.441376000000000E-01     -1.729375000000000E+02
4863000000.000000      3.943634000000000E-01      3.538671000000000E+01      4.405518000000000E-01     -1.736250000000000E+02
4864000000.000000      3.958740000000000E-01      3.510351000000000E+01      4.377441000000000E-01     -1.742500000000000E+02
4865000000.000000      3.956909000000000E-01      3.475390000000000E+01      4.352875000000000E-01     -1.749531000000000E+02
4866000000.000000      3.972931000000000E-01      3.456250000000000E+01      4.324951000000000E-01     -1.754922000000000E+02
4867000000.000000      3.976288000000000E-01      3.446094000000000E+01      4.298401000000000E-01     -1.762344000000000E+02
4868000000.000000      3.989258000000000E-01      3.408789000000000E+01      4.255371000000000E-01     -1.769219000000000E+02
4869000000.000000      3.996887000000000E-01      3.378711000000000E+01      4.230652000000000E-01     -1.774765000000000E+02
4870000000.000000      3.991089000000000E-01      3.354297000000000E+01      4.193878000000000E-01     -1.779766000000000E+02
4871000000.000000      4.002991000000000E-01      3.334179000000000E+01      4.151154000000000E-01     -1.788125000000000E+02
4872000000.000000      4.020844000000000E-01      3.317968000000000E+01      4.125824000000000E-01     -1.792344000000000E+02
4873000000.000000      4.013977000000000E-01      3.292578000000000E+01      4.090729000000000E-01     -1.800000000000000E+02
4874000000.000000      4.028473000000000E-01      3.269531000000000E+01      4.059753000000000E-01      1.794062000000000E+02
4875000000.000000      4.032135000000000E-01      3.243164000000000E+01      4.023132000000000E-01      1.787656000000000E+02
4876000000.000000      4.045563000000000E-01      3.222851000000000E+01      3.996124000000000E-01      1.781250000000000E+02
4877000000.000000      4.046936000000000E-01      3.183887000000000E+01      3.959503000000000E-01      1.776484000000000E+02
4878000000.000000      4.034729000000000E-01      3.161523000000000E+01      3.919525000000000E-01      1.769766000000000E+02
4879000000.000000      4.054260000000000E-01      3.139746000000000E+01      3.887024000000000E-01      1.766484000000000E+02
4880000000.000000      4.057617000000000E-01      3.114941000000000E+01      3.852997000000000E-01      1.758594000000000E+02
4881000000.000000      4.063721000000000E-01      3.097656000000000E+01      3.829041000000000E-01      1.753984000000000E+02
4882000000.000000      4.062958000000000E-01      3.075879000000000E+01      3.788147000000000E-01      1.748437000000000E+02
4883000000.000000      4.059753000000000E-01      3.048535000000000E+01      3.747559000000000E-01      1.742500000000000E+02
4884000000.000000      4.068909000000000E-01      3.012500000000000E+01      3.707123000000000E-01      1.738203000000000E+02
4885000000.000000      4.069214000000000E-01      3.004883000000000E+01      3.673706000000000E-01      1.733281000000000E+02
4886000000.000000      4.073944000000000E-01      2.982715000000000E+01      3.642426000000000E-01      1.729375000000000E+02
4887000000.000000      4.066010000000000E-01      2.953906000000000E+01      3.613586000000000E-01      1.723828000000000E+02
4888000000.000000      4.067688000000000E-01      2.907715000000000E+01      3.583374000000000E-01      1.717031000000000E+02
4889000000.000000      4.071503000000000E-01      2.894336000000000E+01      3.540497000000000E-01      1.716094000000000E+02
4890000000.000000      4.076691000000000E-01      2.876562000000000E+01      3.509827000000000E-01      1.706250000000000E+02
4891000000.000000      4.073181000000000E-01      2.856836000000000E+01      3.471680000000000E-01      1.703984000000000E+02
4892000000.000000      4.072266000000000E-01      2.836523000000000E+01      3.427887000000000E-01      1.700547000000000E+02
4893000000.000000      4.074249000000000E-01      2.809668000000000E+01      3.393707000000000E-01      1.694766000000000E+02
4894000000.000000      4.072876000000000E-01      2.791406000000000E+01      3.350067000000000E-01      1.692422000000000E+02
4895000000.000000      4.083710000000000E-01      2.753222000000000E+01      3.338776000000000E-01      1.685625000000000E+02
4896000000.000000      4.070435000000000E-01      2.736914000000000E+01      3.294983000000000E-01      1.680391000000000E+02
4897000000.000000      4.070129000000000E-01      2.726465000000000E+01      3.260651000000000E-01      1.678437000000000E+02
4898000000.000000      4.077911000000000E-01      2.709179000000000E+01      3.227386000000000E-01      1.675234000000000E+02
4899000000.000000      4.068756000000000E-01      2.674805000000000E+01      3.192596000000000E-01      1.669922000000000E+02
4900000000.000000      4.070282000000000E-01      2.652148000000000E+01      3.157349000000000E-01      1.666719000000000E+02
4901000000.000000      4.069824000000000E-01      2.646875000000000E+01      3.126678000000000E-01      1.662812000000000E+02
4902000000.000000      4.071045000000000E-01      2.605664000000000E+01      3.097839000000000E-01      1.660078000000000E+02
4903000000.000000      4.072113000000000E-01      2.607715000000000E+01      3.055725000000000E-01      1.654297000000000E+02
4904000000.000000      4.066925000000000E-01      2.574023000000000E+01      3.019714000000000E-01      1.650859000000000E+02
4905000000.000000      4.063110000000000E-01      2.567968000000000E+01      2.987671000000000E-01      1.645156000000000E+02
4906000000.000000      4.054718000000000E-01      2.534375000000000E+01      2.958832000000000E-01      1.645859000000000E+02
4907000000.000000      4.059143000000000E-01      2.507324000000000E+01      2.923584000000000E-01      1.639375000000000E+02
4908000000.000000      4.055786000000000E-01      2.501953000000000E+01      2.893982000000000E-01      1.634531000000000E+02
4909000000.000000      4.050598000000000E-01      2.489160000000000E+01      2.854919000000000E-01      1.631797000000000E+02
4910000000.000000      4.042206000000000E-01      2.465527000000000E+01      2.823029000000000E-01      1.627109000000000E+02
4911000000.000000      4.048462000000000E-01      2.454883000000000E+01      2.785645000000000E-01      1.625703000000000E+02
4912000000.000000      4.041290000000000E-01      2.423925000000000E+01      2.750092000000000E-01      1.620703000000000E+02
4913000000.000000      4.047394000000000E-01      2.411816000000000E+01      2.713318000000000E-01      1.615391000000000E+02
4914000000.000000      4.043732000000000E-01      2.379687000000000E+01      2.684479000000000E-01      1.613516000000000E+02
4915000000.000000      4.039459000000000E-01      2.383301000000000E+01      2.642059000000000E-01      1.608594000000000E+02
4916000000.000000      4.041443000000000E-01      2.365039000000000E+01      2.609711000000000E-01      1.605391000000000E+02
4917000000.000000      4.042511000000000E-01      2.337988000000000E+01      2.572174000000000E-01      1.602656000000000E+02
4918000000.000000      4.040070000000000E-01      2.318750000000000E+01      2.530060000000000E-01      1.599219000000000E+02
4919000000.000000      4.032135000000000E-01      2.312304000000000E+01      2.498474000000000E-01      1.598359000000000E+02
4920000000.000000      4.034119000000000E-01      2.281543000000000E+01      2.453918000000000E-01      1.592031000000000E+02
4921000000.000000      4.028320000000000E-01      2.280762000000000E+01      2.425461000000000E-01      1.592891000000000E+02
4922000000.000000      4.020996000000000E-01      2.257813000000000E+01      2.390671000000000E-01      1.588984000000000E+02
4923000000.000000      4.029083000000000E-01      2.247168000000000E+01      2.340622000000000E-01      1.588203000000000E+02
4924000000.000000      4.020844000000000E-01      2.219922000000000E+01      2.299423000000000E-01      1.583984000000000E+02
4925000000.000000      4.016571000000000E-01      2.202539000000000E+01      2.266617000000000E-01      1.581640000000000E+02
4926000000.000000      4.011383000000000E-01      2.196094000000000E+01      2.226105000000000E-01      1.579453000000000E+02
4927000000.000000      4.015198000000000E-01      2.165234000000000E+01      2.186356000000000E-01      1.576719000000000E+02
4928000000.000000      4.023132000000000E-01      2.136523000000000E+01      2.154922000000000E-01      1.574766000000000E+02
4929000000.000000      4.007721000000000E-01      2.128320000000000E+01      2.105026000000000E-01      1.576015000000000E+02
4930000000.000000      4.010620000000000E-01      2.124316000000000E+01      2.075729000000000E-01      1.573750000000000E+02
4931000000.000000      4.003906000000000E-01      2.104492000000000E+01      2.035370000000000E-01      1.574062000000000E+02
4932000000.000000      3.998718000000000E-01      2.078808000000000E+01      1.993942000000000E-01      1.574375000000000E+02
4933000000.000000      4.005432000000000E-01      2.068652000000000E+01      1.951981000000000E-01      1.573437000000000E+02
4934000000.000000      4.001312000000000E-01      2.042969000000000E+01      1.911011000000000E-01      1.573672000000000E+02
4935000000.000000      3.999023000000000E-01      2.039453000000000E+01      1.880264000000000E-01      1.574453000000000E+02
4936000000.000000      3.983612000000000E-01      2.013574000000000E+01      1.833115000000000E-01      1.575938000000000E+02
4937000000.000000      3.987274000000000E-01      2.006054000000000E+01      1.796036000000000E-01      1.576719000000000E+02
4938000000.000000      3.984375000000000E-01      1.986523000000000E+01      1.759949000000000E-01      1.580625000000000E+02
4939000000.000000      3.984528000000000E-01      1.977246000000000E+01      1.717606000000000E-01      1.582266000000000E+02
4940000000.000000      3.989868000000000E-01      1.951660000000000E+01      1.678696000000000E-01      1.582734000000000E+02
4941000000.000000      3.988800000000000E-01      1.931641000000000E+01      1.642380000000000E-01      1.589141000000000E+02
4942000000.000000      3.973846000000000E-01      1.921582000000000E+01      1.600494000000000E-01      1.593125000000000E+02
4943000000.000000      3.969727000000000E-01      1.904980000000000E+01      1.560287000000000E-01      1.595937000000000E+02
4944000000.000000      3.969574000000000E-01      1.889160000000000E+01      1.531143000000000E-01      1.603516000000000E+02
4945000000.000000      3.974762000000000E-01      1.866211000000000E+01      1.495895000000000E-01      1.607031000000000E+02
4946000000.000000      3.973694000000000E-01      1.852832000000000E+01      1.462097000000000E-01      1.614609000000000E+02
4947000000.000000      3.961334000000000E-01      1.837402000000000E+01      1.422043000000000E-01      1.623203000000000E+02
4948000000.000000      3.964844000000000E-01      1.830566000000000E+01      1.391678000000000E-01      1.631797000000000E+02
4949000000.000000      3.954163000000000E-01      1.815722000000000E+01      1.362076000000000E-01      1.642422000000000E+02
4950000000.000000      3.961182000000000E-01      1.800293000000000E+01      1.336899000000000E-01      1.650234000000000E+02
4951000000.000000      3.950653000000000E-01      1.771680000000000E+01      1.303635000000000E-01      1.661406000000000E+02
4952000000.000000      3.946991000000000E-01      1.766406000000000E+01      1.272125000000000E-01      1.671719000000000E+02
4953000000.000000      3.939514000000000E-01      1.741113000000000E+01      1.251373000000000E-01      1.685313000000000E+02
4954000000.000000      3.946075000000000E-01      1.723730000000000E+01      1.225662000000000E-01      1.697500000000000E+02
