! Network Analyzer HP8722D
! Hewlett-Packard
! Data name: Linha & Wilkinson
! Saver's name: Rodrigo Anjos
! Comments: Teste da utilização de aquisição
continua pelo VNA HP8722D
! Time and date: 23/5/2025 13:59
!              Frequency                     S11                                                   S21                                                   S12                                                   S22
# HZ  S  MA R 50
4800000000.000000      2.879333000000000E-01      3.947656000000000E+01      4.819794000000000E-01     -1.293437000000000E+02
4801000000.000000      2.897034000000000E-01      3.981250000000000E+01      4.835358000000000E-01     -1.299766000000000E+02
4802000000.000000      2.904816000000000E-01      3.992969000000000E+01      4.863892000000000E-01     -1.303594000000000E+02
4803000000.000000      2.911835000000000E-01      4.010938000000000E+01      4.887390000000000E-01     -1.311797000000000E+02
4804000000.000000      2.928009000000000E-01      4.036328000000000E+01      4.898834000000000E-01     -1.318750000000000E+02
4805000000.000000      2.945099000000000E-01      4.045703000000000E+01      4.916229000000000E-01     -1.327344000000000E+02
4806000000.000000      2.957458000000000E-01      4.068359000000000E+01      4.925079000000000E-01     -1.335469000000000E+02
4807000000.000000      2.966461000000000E-01      4.082031000000000E+01      4.941406000000000E-01     -1.344297000000000E+02
4808000000.000000      2.976532000000000E-01      4.098633000000000E+01      4.945221000000000E-01     -1.349531000000000E+02
4809000000.000000      2.990112000000000E-01      4.129687000000000E+01      4.968872000000000E-01     -1.356875000000000E+02
4810000000.000000      3.010712000000000E-01      4.141406000000000E+01      4.979248000000000E-01     -1.363516000000000E+02
4811000000.000000      3.023682000000000E-01      4.149414000000000E+01      4.986267000000000E-01     -1.370859000000000E+02
4812000000.000000      3.048553000000000E-01      4.172461000000000E+01      4.999695000000000E-01     -1.379531000000000E+02
4813000000.000000      3.055420000000000E-01      4.180078000000000E+01      5.015259000000000E-01     -1.385937000000000E+02
4814000000.000000      3.065643000000000E-01      4.188281000000000E+01      5.021362000000000E-01     -1.393984000000000E+02
4815000000.000000      3.080750000000000E-01      4.202734000000000E+01      5.017395000000000E-01     -1.400781000000000E+02
4816000000.000000      3.109436000000000E-01      4.215039000000000E+01      5.028076000000000E-01     -1.407578000000000E+02
4817000000.000000      3.118744000000000E-01      4.223437000000000E+01      5.035400000000000E-01     -1.416328000000000E+02
4818000000.000000      3.132019000000000E-01      4.226563000000000E+01      5.030518000000000E-01     -1.423203000000000E+02
4819000000.000000      3.157654000000000E-01      4.233398000000000E+01      5.038147000000000E-01     -1.431172000000000E+02
4820000000.000000      3.168488000000000E-01      4.235352000000000E+01      5.038757000000000E-01     -1.435625000000000E+02
4821000000.000000      3.192749000000000E-01      4.242773000000000E+01      5.051575000000000E-01     -1.444766000000000E+02
4822000000.000000      3.207703000000000E-01      4.226563000000000E+01      5.033875000000000E-01     -1.452656000000000E+02
4823000000.000000      3.226318000000000E-01      4.220899000000000E+01      5.044861000000000E-01     -1.459922000000000E+02
4824000000.000000      3.244171000000000E-01      4.238477000000000E+01      5.035095000000000E-01     -1.467734000000000E+02
4825000000.000000      3.258820000000000E-01      4.224609000000000E+01      5.048828000000000E-01     -1.475000000000000E+02
4826000000.000000      3.280487000000000E-01      4.225781000000000E+01      5.039063000000000E-01     -1.482578000000000E+02
4827000000.000000      3.296509000000000E-01      4.222070000000000E+01      5.041809000000000E-01     -1.489766000000000E+02
4828000000.000000      3.324738000000000E-01      4.220508000000000E+01      5.030823000000000E-01     -1.496016000000000E+02
4829000000.000000      3.332825000000000E-01      4.224805000000000E+01      5.019226000000000E-01     -1.503438000000000E+02
4830000000.000000      3.348541000000000E-01      4.200195000000000E+01      5.025940000000000E-01     -1.510703000000000E+02
4831000000.000000      3.367920000000000E-01      4.202344000000000E+01      5.004883000000000E-01     -1.520000000000000E+02
4832000000.000000      3.386536000000000E-01      4.207227000000000E+01      5.009460000000000E-01     -1.524922000000000E+02
4833000000.000000      3.393250000000000E-01      4.178906000000000E+01      5.007935000000000E-01     -1.531797000000000E+02
4834000000.000000      3.418427000000000E-01      4.174805000000000E+01      4.987335000000000E-01     -1.539766000000000E+02
4835000000.000000      3.444061000000000E-01      4.164648000000000E+01      4.975739000000000E-01     -1.547266000000000E+02
4836000000.000000      3.457336000000000E-01      4.160742000000000E+01      4.971924000000000E-01     -1.552109000000000E+02
4837000000.000000      3.469696000000000E-01      4.147265000000000E+01      4.948730000000000E-01     -1.561953000000000E+02
4838000000.000000      3.485260000000000E-01      4.122070000000000E+01      4.944611000000000E-01     -1.567656000000000E+02
4839000000.000000      3.520050000000000E-01      4.111524000000000E+01      4.934998000000000E-01     -1.574687000000000E+02
4840000000.000000      3.521881000000000E-01      4.089844000000000E+01      4.939880000000000E-01     -1.582187000000000E+02
4841000000.000000      3.545074000000000E-01      4.087304000000000E+01      4.930115000000000E-01     -1.588438000000000E+02
4842000000.000000      3.557892000000000E-01      4.070703000000000E+01      4.912567000000000E-01     -1.597109000000000E+02
4843000000.000000      3.583679000000000E-01      4.034570000000000E+01      4.907837000000000E-01     -1.605703000000000E+02
4844000000.000000      3.592224000000000E-01      4.027148000000000E+01      4.883423000000000E-01     -1.611328000000000E+02
4845000000.000000      3.607025000000000E-01      4.015429000000000E+01      4.869537000000000E-01     -1.617656000000000E+02
4846000000.000000      3.630371000000000E-01      4.000781000000000E+01      4.852142000000000E-01     -1.626094000000000E+02
4847000000.000000      3.640900000000000E-01      3.978516000000000E+01      4.828491000000000E-01     -1.631641000000000E+02
4848000000.000000      3.651123000000000E-01      3.954883000000000E+01      4.815674000000000E-01     -1.638594000000000E+02
4849000000.000000      3.669891000000000E-01      3.937304000000000E+01      4.800415000000000E-01     -1.646250000000000E+02
4850000000.000000      3.675537000000000E-01      3.911133000000000E+01      4.773407000000000E-01     -1.652734000000000E+02
4851000000.000000      3.692627000000000E-01      3.899805000000000E+01      4.782562000000000E-01     -1.659844000000000E+02
4852000000.000000      3.707428000000000E-01      3.873047000000000E+01      4.741058000000000E-01     -1.667187000000000E+02
4853000000.000000      3.724976000000000E-01      3.855078000000000E+01      4.714050000000000E-01     -1.675000000000000E+02
4854000000.000000      3.733673000000000E-01      3.824023000000000E+01      4.692993000000000E-01     -1.682500000000000E+02
4855000000.000000      3.747101000000000E-01      3.808984000000000E+01      4.670868000000000E-01     -1.690703000000000E+02
4856000000.000000      3.756409000000000E-01      3.786133000000000E+01      4.653625000000000E-01     -1.695703000000000E+02
4857000000.000000      3.764648000000000E-01      3.764453000000000E+01      4.639435000000000E-01     -1.702188000000000E+02
4858000000.000000      3.779755000000000E-01      3.732422000000000E+01      4.608459000000000E-01     -1.709687000000000E+02
4859000000.000000      3.793793000000000E-01      3.703320000000000E+01      4.581757000000000E-01     -1.717969000000000E+02
4860000000.000000      3.799591000000000E-01      3.695117000000000E+01      4.568176000000000E-01     -1.723047000000000E+02
4861000000.000000      3.806915000000000E-01      3.662695000000000E+01      4.530487000000000E-01     -1.729922000000000E+02
4862000000.000000      3.819122000000000E-01      3.642969000000000E+01      4.510193000000000E-01     -1.736406000000000E+02
4863000000.000000      3.827667000000000E-01      3.614843000000000E+01      4.471436000000000E-01     -1.745156000000000E+02
4864000000.000000      3.845825000000000E-01      3.581640000000000E+01      4.454956000000000E-01     -1.748750000000000E+02
4865000000.000000      3.845367000000000E-01      3.553515000000000E+01      4.411774000000000E-01     -1.755391000000000E+02
4866000000.000000      3.853302000000000E-01      3.527734000000000E+01      4.396515000000000E-01     -1.763125000000000E+02
4867000000.000000      3.849640000000000E-01      3.504492000000000E+01      4.351501000000000E-01     -1.772578000000000E+02
4868000000.000000      3.870850000000000E-01      3.478711000000000E+01      4.325256000000000E-01     -1.776484000000000E+02
4869000000.000000      3.872833000000000E-01      3.456250000000000E+01      4.300995000000000E-01     -1.782812000000000E+02
4870000000.000000      3.876648000000000E-01      3.440430000000000E+01      4.268341000000000E-01     -1.787422000000000E+02
4871000000.000000      3.890839000000000E-01      3.393555000000000E+01      4.220581000000000E-01     -1.796016000000000E+02
4872000000.000000      3.901215000000000E-01      3.373047000000000E+01      4.204559000000000E-01      1.799141000000000E+02
4873000000.000000      3.896484000000000E-01      3.355469000000000E+01      4.167328000000000E-01      1.791094000000000E+02
4874000000.000000      3.908539000000000E-01      3.334375000000000E+01      4.134521000000000E-01      1.786406000000000E+02
4875000000.000000      3.907928000000000E-01      3.292969000000000E+01      4.099426000000000E-01      1.781719000000000E+02
4876000000.000000      3.921509000000000E-01      3.289844000000000E+01      4.054260000000000E-01      1.775156000000000E+02
4877000000.000000      3.929596000000000E-01      3.235156000000000E+01      4.023590000000000E-01      1.766484000000000E+02
4878000000.000000      3.926697000000000E-01      3.219922000000000E+01      3.993530000000000E-01      1.764219000000000E+02
4879000000.000000      3.939209000000000E-01      3.196582000000000E+01      3.961182000000000E-01      1.758359000000000E+02
4880000000.000000      3.940125000000000E-01      3.161718000000000E+01      3.922424000000000E-01      1.753359000000000E+02
4881000000.000000      3.942566000000000E-01      3.149707000000000E+01      3.892670000000000E-01      1.750156000000000E+02
4882000000.000000      3.934631000000000E-01      3.121484000000000E+01      3.864746000000000E-01      1.741328000000000E+02
4883000000.000000      3.936157000000000E-01      3.092968000000000E+01      3.805695000000000E-01      1.737187000000000E+02
4884000000.000000      3.939362000000000E-01      3.072266000000000E+01      3.776703000000000E-01      1.729531000000000E+02
4885000000.000000      3.943634000000000E-01      3.038086000000000E+01      3.745117000000000E-01      1.727187000000000E+02
4886000000.000000      3.946991000000000E-01      3.030078000000000E+01      3.720245000000000E-01      1.720781000000000E+02
4887000000.000000      3.946075000000000E-01      2.991504000000000E+01      3.677063000000000E-01      1.716563000000000E+02
4888000000.000000      3.946228000000000E-01      2.966797000000000E+01      3.644104000000000E-01      1.711406000000000E+02
4889000000.000000      3.953857000000000E-01      2.945898000000000E+01      3.605957000000000E-01      1.707734000000000E+02
4890000000.000000      3.939209000000000E-01      2.914453000000000E+01      3.576813000000000E-01      1.699375000000000E+02
4891000000.000000      3.947906000000000E-01      2.899805000000000E+01      3.520355000000000E-01      1.698203000000000E+02
4892000000.000000      3.944702000000000E-01      2.880273000000000E+01      3.497467000000000E-01      1.696719000000000E+02
4893000000.000000      3.953705000000000E-01      2.845312000000000E+01      3.456421000000000E-01      1.688437000000000E+02
4894000000.000000      3.941650000000000E-01      2.830566000000000E+01      3.420258000000000E-01      1.683125000000000E+02
4895000000.000000      3.964996000000000E-01      2.801074000000000E+01      3.400269000000000E-01      1.681172000000000E+02
4896000000.000000      3.944550000000000E-01      2.788671000000000E+01      3.364868000000000E-01      1.677734000000000E+02
4897000000.000000      3.938446000000000E-01      2.761230000000000E+01      3.325348000000000E-01      1.673047000000000E+02
4898000000.000000      3.944397000000000E-01      2.747265000000000E+01      3.282318000000000E-01      1.668750000000000E+02
4899000000.000000      3.941498000000000E-01      2.712891000000000E+01      3.249817000000000E-01      1.663906000000000E+02
4900000000.000000      3.943024000000000E-01      2.691699000000000E+01      3.213654000000000E-01      1.658594000000000E+02
4901000000.000000      3.936310000000000E-01      2.665527000000000E+01      3.189240000000000E-01      1.655469000000000E+02
4902000000.000000      3.943634000000000E-01      2.635937000000000E+01      3.165283000000000E-01      1.654219000000000E+02
4903000000.000000      3.933563000000000E-01      2.638281000000000E+01      3.121796000000000E-01      1.647422000000000E+02
4904000000.000000      3.942108000000000E-01      2.614746000000000E+01      3.078308000000000E-01      1.642500000000000E+02
4905000000.000000      3.937378000000000E-01      2.586133000000000E+01      3.053741000000000E-01      1.638828000000000E+02
4906000000.000000      3.928070000000000E-01      2.564062000000000E+01      3.021088000000000E-01      1.637656000000000E+02
4907000000.000000      3.936615000000000E-01      2.541601000000000E+01      2.995758000000000E-01      1.630781000000000E+02
4908000000.000000      3.935699000000000E-01      2.514843000000000E+01      2.954254000000000E-01      1.626484000000000E+02
4909000000.000000      3.925934000000000E-01      2.491699000000000E+01      2.919312000000000E-01      1.623437000000000E+02
4910000000.000000      3.911743000000000E-01      2.489453000000000E+01      2.882690000000000E-01      1.619531000000000E+02
4911000000.000000      3.919678000000000E-01      2.468750000000000E+01      2.846527000000000E-01      1.616797000000000E+02
4912000000.000000      3.913422000000000E-01      2.439160000000000E+01      2.809906000000000E-01      1.611953000000000E+02
4913000000.000000      3.919373000000000E-01      2.427832000000000E+01      2.775421000000000E-01      1.608438000000000E+02
4914000000.000000      3.923187000000000E-01      2.408691000000000E+01      2.735901000000000E-01      1.605547000000000E+02
4915000000.000000      3.909149000000000E-01      2.391406000000000E+01      2.695007000000000E-01      1.602422000000000E+02
4916000000.000000      3.908539000000000E-01      2.371387000000000E+01      2.656555000000000E-01      1.598047000000000E+02
4917000000.000000      3.905792000000000E-01      2.363379000000000E+01      2.624359000000000E-01      1.594609000000000E+02
4918000000.000000      3.901825000000000E-01      2.341992000000000E+01      2.586212000000000E-01      1.592266000000000E+02
4919000000.000000      3.891449000000000E-01      2.320508000000000E+01      2.557373000000000E-01      1.591094000000000E+02
4920000000.000000      3.903046000000000E-01      2.291602000000000E+01      2.511597000000000E-01      1.584531000000000E+02
4921000000.000000      3.900452000000000E-01      2.288281000000000E+01      2.472153000000000E-01      1.583672000000000E+02
4922000000.000000      3.896179000000000E-01      2.269824000000000E+01      2.436218000000000E-01      1.580391000000000E+02
4923000000.000000      3.885651000000000E-01      2.243262000000000E+01      2.395401000000000E-01      1.579375000000000E+02
4924000000.000000      3.884888000000000E-01      2.230175000000000E+01      2.362747000000000E-01      1.574609000000000E+02
4925000000.000000      3.887482000000000E-01      2.207226000000000E+01      2.317734000000000E-01      1.573047000000000E+02
4926000000.000000      3.878632000000000E-01      2.196972000000000E+01      2.279282000000000E-01      1.572266000000000E+02
4927000000.000000      3.879852000000000E-01      2.184082000000000E+01      2.238007000000000E-01      1.568438000000000E+02
4928000000.000000      3.883820000000000E-01      2.151172000000000E+01      2.202682000000000E-01      1.566719000000000E+02
4929000000.000000      3.871460000000000E-01      2.139355000000000E+01      2.157440000000000E-01      1.567891000000000E+02
4930000000.000000      3.880005000000000E-01      2.127148000000000E+01      2.120056000000000E-01      1.564375000000000E+02
4931000000.000000      3.868408000000000E-01      2.102832000000000E+01      2.084503000000000E-01      1.565234000000000E+02
4932000000.000000      3.870087000000000E-01      2.093164000000000E+01      2.035141000000000E-01      1.563750000000000E+02
4933000000.000000      3.866882000000000E-01      2.069336000000000E+01      1.993484000000000E-01      1.564453000000000E+02
4934000000.000000      3.862457000000000E-01      2.050586000000000E+01      1.955109000000000E-01      1.562187000000000E+02
4935000000.000000      3.875427000000000E-01      2.039551000000000E+01      1.921387000000000E-01      1.566562000000000E+02
4936000000.000000      3.856964000000000E-01      2.022168000000000E+01      1.873398000000000E-01      1.566562000000000E+02
4937000000.000000      3.862915000000000E-01      1.997266000000000E+01      1.835327000000000E-01      1.565547000000000E+02
4938000000.000000      3.844299000000000E-01      1.992871000000000E+01      1.797333000000000E-01      1.567891000000000E+02
4939000000.000000      3.845825000000000E-01      1.984766000000000E+01      1.757355000000000E-01      1.573437000000000E+02
4940000000.000000      3.845367000000000E-01      1.959961000000000E+01      1.716080000000000E-01      1.573437000000000E+02
4941000000.000000      3.837280000000000E-01      1.927344000000000E+01      1.678925000000000E-01      1.577891000000000E+02
4942000000.000000      3.836823000000000E-01      1.919238000000000E+01      1.639252000000000E-01      1.582187000000000E+02
4943000000.000000      3.840790000000000E-01      1.910840000000000E+01      1.603241000000000E-01      1.585938000000000E+02
4944000000.000000      3.831940000000000E-01      1.883008000000000E+01      1.569977000000000E-01      1.591640000000000E+02
4945000000.000000      3.826752000000000E-01      1.863965000000000E+01      1.528244000000000E-01      1.596641000000000E+02
4946000000.000000      3.830872000000000E-01      1.851953000000000E+01      1.494980000000000E-01      1.604922000000000E+02
4947000000.000000      3.837585000000000E-01      1.842090000000000E+01      1.459045000000000E-01      1.610078000000000E+02
4948000000.000000      3.831024000000000E-01      1.813379000000000E+01      1.430130000000000E-01      1.617656000000000E+02
4949000000.000000      3.819275000000000E-01      1.807031000000000E+01      1.395187000000000E-01      1.630000000000000E+02
4950000000.000000      3.821869000000000E-01      1.792676000000000E+01      1.362000000000000E-01      1.638047000000000E+02
4951000000.000000      3.819275000000000E-01      1.771484000000000E+01      1.338272000000000E-01      1.646328000000000E+02
4952000000.000000      3.802948000000000E-01      1.753418000000000E+01      1.303482000000000E-01      1.660938000000000E+02
4953000000.000000      3.808441000000000E-01      1.721777000000000E+01      1.278305000000000E-01      1.673125000000000E+02
4954000000.000000      3.814850000000000E-01      1.719336000000000E+01      1.257401000000000E-01      1.686484000000000E+02
