! Network Analyzer HP8722D
! Hewlett-Packard
! Data name: Linha & Wilkinson
! Saver's name: Rodrigo Anjos
! Comments: Teste da utilização de aquisição
continua pelo VNA HP8722D
! Time and date: 23/5/2025 12:19
!              Frequency                     S11                                                   S21                                                   S12                                                   S22
# HZ  S  MA R 50
4800000000.000000      2.970886000000000E-01      3.879687000000000E+01      4.784088000000000E-01     -1.290234000000000E+02
4801000000.000000      2.981262000000000E-01      3.905859000000000E+01      4.799805000000000E-01     -1.293828000000000E+02
4802000000.000000      2.992706000000000E-01      3.911718000000000E+01      4.812317000000000E-01     -1.300937000000000E+02
4803000000.000000      3.005066000000000E-01      3.931250000000000E+01      4.837189000000000E-01     -1.308672000000000E+02
4804000000.000000      3.011627000000000E-01      3.960156000000000E+01      4.837952000000000E-01     -1.316250000000000E+02
4805000000.000000      3.028107000000000E-01      3.968164000000000E+01      4.855804000000000E-01     -1.324687000000000E+02
4806000000.000000      3.036499000000000E-01      3.987500000000000E+01      4.879456000000000E-01     -1.330625000000000E+02
4807000000.000000      3.050079000000000E-01      4.007617000000000E+01      4.900513000000000E-01     -1.339453000000000E+02
4808000000.000000      3.056183000000000E-01      4.018945000000000E+01      4.907837000000000E-01     -1.347109000000000E+02
4809000000.000000      3.074646000000000E-01      4.043750000000000E+01      4.925842000000000E-01     -1.356016000000000E+02
4810000000.000000      3.084717000000000E-01      4.051758000000000E+01      4.926300000000000E-01     -1.360078000000000E+02
4811000000.000000      3.108521000000000E-01      4.070117000000000E+01      4.947205000000000E-01     -1.370000000000000E+02
4812000000.000000      3.130646000000000E-01      4.077148000000000E+01      4.943237000000000E-01     -1.375625000000000E+02
4813000000.000000      3.139191000000000E-01      4.098633000000000E+01      4.959564000000000E-01     -1.382656000000000E+02
4814000000.000000      3.147125000000000E-01      4.091406000000000E+01      4.971771000000000E-01     -1.390234000000000E+02
4815000000.000000      3.163605000000000E-01      4.111914000000000E+01      4.964294000000000E-01     -1.396563000000000E+02
4816000000.000000      3.196106000000000E-01      4.128906000000000E+01      4.973907000000000E-01     -1.404375000000000E+02
4817000000.000000      3.200226000000000E-01      4.134961000000000E+01      4.986877000000000E-01     -1.412656000000000E+02
4818000000.000000      3.216248000000000E-01      4.135156000000000E+01      4.980011000000000E-01     -1.419609000000000E+02
4819000000.000000      3.238831000000000E-01      4.136914000000000E+01      4.985504000000000E-01     -1.425781000000000E+02
4820000000.000000      3.246460000000000E-01      4.147851000000000E+01      4.987488000000000E-01     -1.433672000000000E+02
4821000000.000000      3.271790000000000E-01      4.150976000000000E+01      4.998169000000000E-01     -1.442578000000000E+02
4822000000.000000      3.279114000000000E-01      4.141406000000000E+01      4.981689000000000E-01     -1.449063000000000E+02
4823000000.000000      3.300629000000000E-01      4.146484000000000E+01      4.975739000000000E-01     -1.455078000000000E+02
4824000000.000000      3.317413000000000E-01      4.147461000000000E+01      4.986267000000000E-01     -1.464609000000000E+02
4825000000.000000      3.335419000000000E-01      4.142578000000000E+01      4.996185000000000E-01     -1.469687000000000E+02
4826000000.000000      3.358307000000000E-01      4.149219000000000E+01      4.995728000000000E-01     -1.478516000000000E+02
4827000000.000000      3.373566000000000E-01      4.140821000000000E+01      4.977875000000000E-01     -1.484922000000000E+02
4828000000.000000      3.393402000000000E-01      4.142187000000000E+01      4.980469000000000E-01     -1.492344000000000E+02
4829000000.000000      3.411407000000000E-01      4.140821000000000E+01      4.972382000000000E-01     -1.498750000000000E+02
4830000000.000000      3.430786000000000E-01      4.119726000000000E+01      4.967346000000000E-01     -1.508359000000000E+02
4831000000.000000      3.444214000000000E-01      4.108398000000000E+01      4.963837000000000E-01     -1.516406000000000E+02
4832000000.000000      3.456726000000000E-01      4.119141000000000E+01      4.956055000000000E-01     -1.521250000000000E+02
4833000000.000000      3.471680000000000E-01      4.104882000000000E+01      4.935150000000000E-01     -1.528906000000000E+02
4834000000.000000      3.492737000000000E-01      4.095312000000000E+01      4.935150000000000E-01     -1.536016000000000E+02
4835000000.000000      3.512878000000000E-01      4.081250000000000E+01      4.936218000000000E-01     -1.542578000000000E+02
4836000000.000000      3.530731000000000E-01      4.083203000000000E+01      4.913177000000000E-01     -1.550781000000000E+02
4837000000.000000      3.544159000000000E-01      4.075976000000000E+01      4.904022000000000E-01     -1.560469000000000E+02
4838000000.000000      3.555908000000000E-01      4.050781000000000E+01      4.911346000000000E-01     -1.563750000000000E+02
4839000000.000000      3.589935000000000E-01      4.037695000000000E+01      4.893951000000000E-01     -1.571406000000000E+02
4840000000.000000      3.597870000000000E-01      4.016211000000000E+01      4.889069000000000E-01     -1.578438000000000E+02
4841000000.000000      3.617401000000000E-01      4.023046000000000E+01      4.875183000000000E-01     -1.586953000000000E+02
4842000000.000000      3.628540000000000E-01      3.992969000000000E+01      4.857483000000000E-01     -1.593516000000000E+02
4843000000.000000      3.654785000000000E-01      3.974804000000000E+01      4.848633000000000E-01     -1.599141000000000E+02
4844000000.000000      3.661957000000000E-01      3.950781000000000E+01      4.841003000000000E-01     -1.607188000000000E+02
4845000000.000000      3.680725000000000E-01      3.953516000000000E+01      4.825745000000000E-01     -1.613047000000000E+02
4846000000.000000      3.697968000000000E-01      3.931445000000000E+01      4.799194000000000E-01     -1.621484000000000E+02
4847000000.000000      3.710327000000000E-01      3.914648000000000E+01      4.777222000000000E-01     -1.628125000000000E+02
4848000000.000000      3.717651000000000E-01      3.884375000000000E+01      4.755402000000000E-01     -1.635937000000000E+02
4849000000.000000      3.734894000000000E-01      3.871679000000000E+01      4.746399000000000E-01     -1.641562000000000E+02
4850000000.000000      3.749390000000000E-01      3.850195000000000E+01      4.723969000000000E-01     -1.648828000000000E+02
4851000000.000000      3.764343000000000E-01      3.831055000000000E+01      4.718628000000000E-01     -1.657500000000000E+02
4852000000.000000      3.771057000000000E-01      3.817578000000000E+01      4.685669000000000E-01     -1.664375000000000E+02
4853000000.000000      3.790283000000000E-01      3.794140000000000E+01      4.664307000000000E-01     -1.670625000000000E+02
4854000000.000000      3.792877000000000E-01      3.766016000000000E+01      4.649353000000000E-01     -1.678750000000000E+02
4855000000.000000      3.809357000000000E-01      3.744141000000000E+01      4.621887000000000E-01     -1.685156000000000E+02
4856000000.000000      3.829346000000000E-01      3.725195000000000E+01      4.607391000000000E-01     -1.691875000000000E+02
4857000000.000000      3.831482000000000E-01      3.714258000000000E+01      4.600525000000000E-01     -1.698437000000000E+02
4858000000.000000      3.846893000000000E-01      3.670507000000000E+01      4.574127000000000E-01     -1.707109000000000E+02
4859000000.000000      3.860626000000000E-01      3.648046000000000E+01      4.539185000000000E-01     -1.711875000000000E+02
4860000000.000000      3.868256000000000E-01      3.640429000000000E+01      4.505768000000000E-01     -1.718359000000000E+02
4861000000.000000      3.881226000000000E-01      3.605469000000000E+01      4.497223000000000E-01     -1.727578000000000E+02
4862000000.000000      3.878326000000000E-01      3.578711000000000E+01      4.462891000000000E-01     -1.731953000000000E+02
4863000000.000000      3.898773000000000E-01      3.562695000000000E+01      4.425507000000000E-01     -1.740703000000000E+02
4864000000.000000      3.902893000000000E-01      3.541797000000000E+01      4.404297000000000E-01     -1.746250000000000E+02
4865000000.000000      3.908844000000000E-01      3.497656000000000E+01      4.358673000000000E-01     -1.752891000000000E+02
4866000000.000000      3.920441000000000E-01      3.476758000000000E+01      4.343719000000000E-01     -1.758906000000000E+02
4867000000.000000      3.924713000000000E-01      3.470117000000000E+01      4.299927000000000E-01     -1.765859000000000E+02
4868000000.000000      3.945160000000000E-01      3.430273000000000E+01      4.287262000000000E-01     -1.773672000000000E+02
4869000000.000000      3.949280000000000E-01      3.412304000000000E+01      4.250946000000000E-01     -1.778828000000000E+02
4870000000.000000      3.949127000000000E-01      3.383594000000000E+01      4.222412000000000E-01     -1.785547000000000E+02
4871000000.000000      3.955841000000000E-01      3.347070000000000E+01      4.181366000000000E-01     -1.794062000000000E+02
4872000000.000000      3.966522000000000E-01      3.339258000000000E+01      4.153595000000000E-01     -1.797344000000000E+02
4873000000.000000      3.969116000000000E-01      3.311914000000000E+01      4.107208000000000E-01      1.795234000000000E+02
4874000000.000000      3.972473000000000E-01      3.287890000000000E+01      4.081879000000000E-01      1.787969000000000E+02
4875000000.000000      3.980103000000000E-01      3.257813000000000E+01      4.045868000000000E-01      1.784609000000000E+02
4876000000.000000      3.984375000000000E-01      3.244531000000000E+01      4.017029000000000E-01      1.777109000000000E+02
4877000000.000000      3.998566000000000E-01      3.200781000000000E+01      3.977356000000000E-01      1.771719000000000E+02
4878000000.000000      3.993378000000000E-01      3.180469000000000E+01      3.950195000000000E-01      1.765234000000000E+02
4879000000.000000      4.000702000000000E-01      3.158203000000000E+01      3.904724000000000E-01      1.760469000000000E+02
4880000000.000000      4.012146000000000E-01      3.137500000000000E+01      3.884277000000000E-01      1.753594000000000E+02
4881000000.000000      4.011078000000000E-01      3.112207000000000E+01      3.848877000000000E-01      1.751016000000000E+02
4882000000.000000      4.009705000000000E-01      3.091113000000000E+01      3.810425000000000E-01      1.745469000000000E+02
4883000000.000000      4.013672000000000E-01      3.054296000000000E+01      3.766937000000000E-01      1.740234000000000E+02
4884000000.000000      4.015198000000000E-01      3.032324000000000E+01      3.735657000000000E-01      1.732422000000000E+02
4885000000.000000      4.019775000000000E-01      3.015039000000000E+01      3.690948000000000E-01      1.729531000000000E+02
4886000000.000000      4.017639000000000E-01      2.999609000000000E+01      3.657837000000000E-01      1.725937000000000E+02
4887000000.000000      4.020691000000000E-01      2.961426000000000E+01      3.638916000000000E-01      1.718906000000000E+02
4888000000.000000      4.015961000000000E-01      2.927441000000000E+01      3.598480000000000E-01      1.713984000000000E+02
4889000000.000000      4.018707000000000E-01      2.923730000000000E+01      3.568420000000000E-01      1.712109000000000E+02
4890000000.000000      4.015503000000000E-01      2.880468000000000E+01      3.515167000000000E-01      1.702188000000000E+02
4891000000.000000      4.021454000000000E-01      2.863281000000000E+01      3.482208000000000E-01      1.701172000000000E+02
4892000000.000000      4.018097000000000E-01      2.848047000000000E+01      3.453979000000000E-01      1.697734000000000E+02
4893000000.000000      4.017487000000000E-01      2.821777000000000E+01      3.416748000000000E-01      1.690547000000000E+02
4894000000.000000      4.020996000000000E-01      2.802539000000000E+01      3.363495000000000E-01      1.687578000000000E+02
4895000000.000000      4.024811000000000E-01      2.777441000000000E+01      3.350372000000000E-01      1.683984000000000E+02
4896000000.000000      4.026184000000000E-01      2.757813000000000E+01      3.314362000000000E-01      1.676797000000000E+02
4897000000.000000      4.016113000000000E-01      2.743652000000000E+01      3.281403000000000E-01      1.675000000000000E+02
4898000000.000000      4.016876000000000E-01      2.704785000000000E+01      3.247528000000000E-01      1.669375000000000E+02
4899000000.000000      4.016876000000000E-01      2.690234000000000E+01      3.209991000000000E-01      1.665469000000000E+02
4900000000.000000      4.017792000000000E-01      2.663867000000000E+01      3.175964000000000E-01      1.663281000000000E+02
4901000000.000000      4.021759000000000E-01      2.657715000000000E+01      3.141327000000000E-01      1.658594000000000E+02
4902000000.000000      4.014740000000000E-01      2.620019000000000E+01      3.117981000000000E-01      1.656250000000000E+02
4903000000.000000      4.020996000000000E-01      2.613281000000000E+01      3.078461000000000E-01      1.652344000000000E+02
4904000000.000000      4.014130000000000E-01      2.594336000000000E+01      3.039246000000000E-01      1.647266000000000E+02
4905000000.000000      4.011536000000000E-01      2.565625000000000E+01      3.012848000000000E-01      1.642891000000000E+02
4906000000.000000      4.005737000000000E-01      2.548340000000000E+01      2.970581000000000E-01      1.640547000000000E+02
4907000000.000000      4.014740000000000E-01      2.535058000000000E+01      2.941589000000000E-01      1.635156000000000E+02
4908000000.000000      4.011841000000000E-01      2.501367000000000E+01      2.911072000000000E-01      1.630156000000000E+02
4909000000.000000      3.992920000000000E-01      2.488867000000000E+01      2.870941000000000E-01      1.625859000000000E+02
4910000000.000000      3.993530000000000E-01      2.471094000000000E+01      2.837067000000000E-01      1.624609000000000E+02
4911000000.000000      3.997345000000000E-01      2.450293000000000E+01      2.801056000000000E-01      1.621406000000000E+02
4912000000.000000      3.979187000000000E-01      2.441504000000000E+01      2.768250000000000E-01      1.616328000000000E+02
4913000000.000000      4.003601000000000E-01      2.416016000000000E+01      2.734222000000000E-01      1.611719000000000E+02
4914000000.000000      3.994293000000000E-01      2.396582000000000E+01      2.696686000000000E-01      1.609609000000000E+02
4915000000.000000      3.992310000000000E-01      2.369727000000000E+01      2.659912000000000E-01      1.606406000000000E+02
4916000000.000000      3.981323000000000E-01      2.365625000000000E+01      2.622528000000000E-01      1.601016000000000E+02
4917000000.000000      3.989105000000000E-01      2.344824000000000E+01      2.586823000000000E-01      1.598438000000000E+02
4918000000.000000      3.980560000000000E-01      2.310937000000000E+01      2.548523000000000E-01      1.595625000000000E+02
4919000000.000000      3.972321000000000E-01      2.321387000000000E+01      2.512665000000000E-01      1.594453000000000E+02
4920000000.000000      3.977203000000000E-01      2.284570000000000E+01      2.465363000000000E-01      1.588516000000000E+02
4921000000.000000      3.976746000000000E-01      2.282324000000000E+01      2.439575000000000E-01      1.587891000000000E+02
4922000000.000000      3.975220000000000E-01      2.248437000000000E+01      2.394791000000000E-01      1.586172000000000E+02
4923000000.000000      3.966827000000000E-01      2.229199000000000E+01      2.351608000000000E-01      1.582891000000000E+02
4924000000.000000      3.971405000000000E-01      2.227051000000000E+01      2.314987000000000E-01      1.579844000000000E+02
4925000000.000000      3.962555000000000E-01      2.213281000000000E+01      2.276993000000000E-01      1.577422000000000E+02
4926000000.000000      3.963928000000000E-01      2.181445000000000E+01      2.240677000000000E-01      1.575859000000000E+02
4927000000.000000      3.956146000000000E-01      2.160645000000000E+01      2.200089000000000E-01      1.573672000000000E+02
4928000000.000000      3.958435000000000E-01      2.142871000000000E+01      2.166595000000000E-01      1.571797000000000E+02
4929000000.000000      3.952942000000000E-01      2.118262000000000E+01      2.123032000000000E-01      1.572422000000000E+02
4930000000.000000      3.949585000000000E-01      2.125488000000000E+01      2.084808000000000E-01      1.570078000000000E+02
4931000000.000000      3.944397000000000E-01      2.097363000000000E+01      2.048264000000000E-01      1.570859000000000E+02
4932000000.000000      3.938446000000000E-01      2.091797000000000E+01      2.004242000000000E-01      1.569687000000000E+02
4933000000.000000      3.950500000000000E-01      2.067969000000000E+01      1.958389000000000E-01      1.570313000000000E+02
4934000000.000000      3.944550000000000E-01      2.061426000000000E+01      1.927032000000000E-01      1.568125000000000E+02
4935000000.000000      3.948517000000000E-01      2.032715000000000E+01      1.887360000000000E-01      1.571563000000000E+02
4936000000.000000      3.939819000000000E-01      2.011230000000000E+01      1.842499000000000E-01      1.571875000000000E+02
4937000000.000000      3.942413000000000E-01      1.995898000000000E+01      1.801758000000000E-01      1.572266000000000E+02
4938000000.000000      3.936005000000000E-01      1.982715000000000E+01      1.768112000000000E-01      1.575703000000000E+02
4939000000.000000      3.930054000000000E-01      1.976953000000000E+01      1.726608000000000E-01      1.577578000000000E+02
4940000000.000000      3.929901000000000E-01      1.955273000000000E+01      1.688690000000000E-01      1.579922000000000E+02
4941000000.000000      3.927307000000000E-01      1.933789000000000E+01      1.648178000000000E-01      1.583750000000000E+02
4942000000.000000      3.909302000000000E-01      1.918945000000000E+01      1.613770000000000E-01      1.587422000000000E+02
4943000000.000000      3.921967000000000E-01      1.897949000000000E+01      1.575165000000000E-01      1.593828000000000E+02
4944000000.000000      3.918762000000000E-01      1.883008000000000E+01      1.541367000000000E-01      1.597578000000000E+02
4945000000.000000      3.909302000000000E-01      1.869433000000000E+01      1.503296000000000E-01      1.603906000000000E+02
4946000000.000000      3.913116000000000E-01      1.851465000000000E+01      1.468811000000000E-01      1.612187000000000E+02
4947000000.000000      3.907776000000000E-01      1.840430000000000E+01      1.435547000000000E-01      1.618750000000000E+02
4948000000.000000      3.906403000000000E-01      1.828809000000000E+01      1.399918000000000E-01      1.626406000000000E+02
4949000000.000000      3.897400000000000E-01      1.798730000000000E+01      1.372681000000000E-01      1.638125000000000E+02
4950000000.000000      3.901367000000000E-01      1.800195000000000E+01      1.342163000000000E-01      1.648516000000000E+02
4951000000.000000      3.901520000000000E-01      1.773730000000000E+01      1.314240000000000E-01      1.657891000000000E+02
4952000000.000000      3.894196000000000E-01      1.742773000000000E+01      1.280670000000000E-01      1.668906000000000E+02
4953000000.000000      3.890076000000000E-01      1.734277000000000E+01      1.256638000000000E-01      1.682422000000000E+02
4954000000.000000      3.882141000000000E-01      1.724121000000000E+01      1.234474000000000E-01      1.697422000000000E+02
