! Network Analyzer HP8722D
! Hewlett-Packard
! Data name: Linha & Wilkinson
! Saver's name: Rodrigo Anjos
! Comments: Teste da utilização de aquisição
continua pelo VNA HP8722D
! Time and date: 23/5/2025 07:35
!              Frequency                     S11                                                   S21                                                   S12                                                   S22
# HZ  S  MA R 50
4800000000.000000      6.425171000000000E-01      1.080322000000000E+01      4.699402000000000E-01     -9.372265000000000E+01
4801000000.000000      6.398926000000000E-01      1.079102000000000E+01      4.715424000000000E-01     -9.423046000000000E+01
4802000000.000000      6.386108000000000E-01      1.081152000000000E+01      4.731445000000000E-01     -9.498047000000000E+01
4803000000.000000      6.380005000000000E-01      1.092139000000000E+01      4.763031000000000E-01     -9.575781000000000E+01
4804000000.000000      6.354370000000000E-01      1.079639000000000E+01      4.785309000000000E-01     -9.649609000000000E+01
4805000000.000000      6.373901000000000E-01      1.073340000000000E+01      4.797974000000000E-01     -9.717577000000000E+01
4806000000.000000      6.327209000000000E-01      1.085840000000000E+01      4.826050000000000E-01     -9.812109000000000E+01
4807000000.000000      6.307983000000000E-01      1.068799000000000E+01      4.829102000000000E-01     -9.906639000000000E+01
4808000000.000000      6.283569000000000E-01      1.085840000000000E+01      4.823761000000000E-01     -9.945313000000000E+01
4809000000.000000      6.274414000000000E-01      1.097119000000000E+01      4.854584000000000E-01     -1.004140000000000E+02
4810000000.000000      6.274414000000000E-01      1.091602000000000E+01      4.874115000000000E-01     -1.010625000000000E+02
4811000000.000000      6.259766000000000E-01      1.092578000000000E+01      4.873962000000000E-01     -1.021445000000000E+02
4812000000.000000      6.267700000000000E-01      1.117822000000000E+01      4.877930000000000E-01     -1.026094000000000E+02
4813000000.000000      6.220398000000000E-01      1.124854000000000E+01      4.893036000000000E-01     -1.034805000000000E+02
4814000000.000000      6.220703000000000E-01      1.111816000000000E+01      4.925232000000000E-01     -1.040742000000000E+02
4815000000.000000      6.182251000000000E-01      1.124268000000000E+01      4.911499000000000E-01     -1.049141000000000E+02
4816000000.000000      6.201782000000000E-01      1.137451000000000E+01      4.927521000000000E-01     -1.056836000000000E+02
4817000000.000000      6.177063000000000E-01      1.155322000000000E+01      4.933929000000000E-01     -1.063008000000000E+02
4818000000.000000      6.163940000000000E-01      1.143945000000000E+01      4.923859000000000E-01     -1.072422000000000E+02
4819000000.000000      6.158752000000000E-01      1.147754000000000E+01      4.938965000000000E-01     -1.080469000000000E+02
4820000000.000000      6.135864000000000E-01      1.180615000000000E+01      4.949188000000000E-01     -1.085625000000000E+02
4821000000.000000      6.135254000000000E-01      1.171387000000000E+01      4.953461000000000E-01     -1.094844000000000E+02
4822000000.000000      6.122131000000000E-01      1.181836000000000E+01      4.927979000000000E-01     -1.101992000000000E+02
4823000000.000000      6.119995000000000E-01      1.180469000000000E+01      4.940338000000000E-01     -1.107656000000000E+02
4824000000.000000      6.119690000000000E-01      1.214648000000000E+01      4.946594000000000E-01     -1.116680000000000E+02
4825000000.000000      6.100769000000000E-01      1.210254000000000E+01      4.952393000000000E-01     -1.123438000000000E+02
4826000000.000000      6.094055000000000E-01      1.219043000000000E+01      4.963226000000000E-01     -1.133476000000000E+02
4827000000.000000      6.089172000000000E-01      1.234961000000000E+01      4.949188000000000E-01     -1.138320000000000E+02
4828000000.000000      6.085815000000000E-01      1.238672000000000E+01      4.969940000000000E-01     -1.147422000000000E+02
4829000000.000000      6.091614000000000E-01      1.281787000000000E+01      4.972229000000000E-01     -1.153711000000000E+02
4830000000.000000      6.071167000000000E-01      1.257617000000000E+01      4.969177000000000E-01     -1.162344000000000E+02
4831000000.000000      6.075134000000000E-01      1.290869000000000E+01      4.954681000000000E-01     -1.170078000000000E+02
4832000000.000000      6.067505000000000E-01      1.305420000000000E+01      4.958344000000000E-01     -1.176992000000000E+02
4833000000.000000      6.065979000000000E-01      1.303369000000000E+01      4.953766000000000E-01     -1.184219000000000E+02
4834000000.000000      6.067505000000000E-01      1.295557000000000E+01      4.956818000000000E-01     -1.191328000000000E+02
4835000000.000000      6.104126000000000E-01      1.317383000000000E+01      4.945984000000000E-01     -1.200195000000000E+02
4836000000.000000      6.082458000000000E-01      1.338135000000000E+01      4.940796000000000E-01     -1.208672000000000E+02
4837000000.000000      6.091919000000000E-01      1.350488000000000E+01      4.939728000000000E-01     -1.216992000000000E+02
4838000000.000000      6.061707000000000E-01      1.364063000000000E+01      4.943848000000000E-01     -1.222031000000000E+02
4839000000.000000      6.105957000000000E-01      1.385059000000000E+01      4.925690000000000E-01     -1.231641000000000E+02
4840000000.000000      6.098938000000000E-01      1.377393000000000E+01      4.938354000000000E-01     -1.239414000000000E+02
4841000000.000000      6.092529000000000E-01      1.392920000000000E+01      4.923401000000000E-01     -1.251289000000000E+02
4842000000.000000      6.112976000000000E-01      1.401416000000000E+01      4.913788000000000E-01     -1.255547000000000E+02
4843000000.000000      6.134338000000000E-01      1.396484000000000E+01      4.917603000000000E-01     -1.263594000000000E+02
4844000000.000000      6.113586000000000E-01      1.402100000000000E+01      4.907684000000000E-01     -1.273594000000000E+02
4845000000.000000      6.121521000000000E-01      1.439990000000000E+01      4.902496000000000E-01     -1.279922000000000E+02
4846000000.000000      6.145325000000000E-01      1.422559000000000E+01      4.870300000000000E-01     -1.287578000000000E+02
4847000000.000000      6.145935000000000E-01      1.466650000000000E+01      4.858551000000000E-01     -1.297500000000000E+02
4848000000.000000      6.148376000000000E-01      1.441797000000000E+01      4.834442000000000E-01     -1.304453000000000E+02
4849000000.000000      6.157837000000000E-01      1.438623000000000E+01      4.822693000000000E-01     -1.313125000000000E+02
4850000000.000000      6.152649000000000E-01      1.457715000000000E+01      4.806213000000000E-01     -1.323125000000000E+02
4851000000.000000      6.171570000000000E-01      1.476953000000000E+01      4.796600000000000E-01     -1.331719000000000E+02
4852000000.000000      6.192322000000000E-01      1.475977000000000E+01      4.779663000000000E-01     -1.337969000000000E+02
4853000000.000000      6.188049000000000E-01      1.473242000000000E+01      4.735870000000000E-01     -1.346953000000000E+02
4854000000.000000      6.210632000000000E-01      1.468311000000000E+01      4.723663000000000E-01     -1.356797000000000E+02
4855000000.000000      6.225281000000000E-01      1.490430000000000E+01      4.701843000000000E-01     -1.364141000000000E+02
4856000000.000000      6.245422000000000E-01      1.492188000000000E+01      4.661865000000000E-01     -1.373359000000000E+02
4857000000.000000      6.249084000000000E-01      1.493555000000000E+01      4.651489000000000E-01     -1.380625000000000E+02
4858000000.000000      6.242065000000000E-01      1.491211000000000E+01      4.617615000000000E-01     -1.390703000000000E+02
4859000000.000000      6.264343000000000E-01      1.488477000000000E+01      4.605255000000000E-01     -1.398984000000000E+02
4860000000.000000      6.264648000000000E-01      1.499072000000000E+01      4.571228000000000E-01     -1.408125000000000E+02
4861000000.000000      6.280212000000000E-01      1.503613000000000E+01      4.533386000000000E-01     -1.416719000000000E+02
4862000000.000000      6.275635000000000E-01      1.514844000000000E+01      4.506989000000000E-01     -1.423594000000000E+02
4863000000.000000      6.310120000000000E-01      1.504541000000000E+01      4.453735000000000E-01     -1.432266000000000E+02
4864000000.000000      6.322937000000000E-01      1.505518000000000E+01      4.431915000000000E-01     -1.440078000000000E+02
4865000000.000000      6.339722000000000E-01      1.497119000000000E+01      4.394073000000000E-01     -1.446016000000000E+02
4866000000.000000      6.344299000000000E-01      1.491797000000000E+01      4.350128000000000E-01     -1.453906000000000E+02
4867000000.000000      6.348572000000000E-01      1.507031000000000E+01      4.306030000000000E-01     -1.461641000000000E+02
4868000000.000000      6.378174000000000E-01      1.475977000000000E+01      4.274902000000000E-01     -1.471094000000000E+02
4869000000.000000      6.380310000000000E-01      1.492725000000000E+01      4.230957000000000E-01     -1.480000000000000E+02
4870000000.000000      6.391296000000000E-01      1.494141000000000E+01      4.189148000000000E-01     -1.483359000000000E+02
4871000000.000000      6.399536000000000E-01      1.477490000000000E+01      4.158020000000000E-01     -1.492109000000000E+02
4872000000.000000      6.432800000000000E-01      1.479688000000000E+01      4.108887000000000E-01     -1.498125000000000E+02
4873000000.000000      6.427307000000000E-01      1.482715000000000E+01      4.068146000000000E-01     -1.507266000000000E+02
4874000000.000000      6.459656000000000E-01      1.486572000000000E+01      4.022217000000000E-01     -1.514609000000000E+02
4875000000.000000      6.466980000000000E-01      1.465576000000000E+01      3.969269000000000E-01     -1.519687000000000E+02
4876000000.000000      6.481628000000000E-01      1.474756000000000E+01      3.939972000000000E-01     -1.527344000000000E+02
4877000000.000000      6.498718000000000E-01      1.438477000000000E+01      3.889160000000000E-01     -1.532812000000000E+02
4878000000.000000      6.503296000000000E-01      1.454150000000000E+01      3.839264000000000E-01     -1.539922000000000E+02
4879000000.000000      6.509705000000000E-01      1.452637000000000E+01      3.805084000000000E-01     -1.544062000000000E+02
4880000000.000000      6.539917000000000E-01      1.436182000000000E+01      3.760681000000000E-01     -1.549844000000000E+02
4881000000.000000      6.533203000000000E-01      1.427783000000000E+01      3.715515000000000E-01     -1.554141000000000E+02
4882000000.000000      6.539917000000000E-01      1.409229000000000E+01      3.681641000000000E-01     -1.560859000000000E+02
4883000000.000000      6.558533000000000E-01      1.411719000000000E+01      3.626862000000000E-01     -1.566953000000000E+02
4884000000.000000      6.578064000000000E-01      1.429297000000000E+01      3.584290000000000E-01     -1.572109000000000E+02
4885000000.000000      6.578369000000000E-01      1.416650000000000E+01      3.540192000000000E-01     -1.575156000000000E+02
4886000000.000000      6.606140000000000E-01      1.400195000000000E+01      3.501434000000000E-01     -1.579375000000000E+02
4887000000.000000      6.595154000000000E-01      1.387012000000000E+01      3.472443000000000E-01     -1.587031000000000E+02
4888000000.000000      6.611023000000000E-01      1.368750000000000E+01      3.418274000000000E-01     -1.591953000000000E+02
4889000000.000000      6.631775000000000E-01      1.372559000000000E+01      3.367462000000000E-01     -1.595312000000000E+02
4890000000.000000      6.616821000000000E-01      1.375879000000000E+01      3.329620000000000E-01     -1.601719000000000E+02
4891000000.000000      6.635132000000000E-01      1.378467000000000E+01      3.296204000000000E-01     -1.604453000000000E+02
4892000000.000000      6.639709000000000E-01      1.351318000000000E+01      3.234711000000000E-01     -1.606094000000000E+02
4893000000.000000      6.667175000000000E-01      1.325879000000000E+01      3.213959000000000E-01     -1.613359000000000E+02
4894000000.000000      6.673584000000000E-01      1.327002000000000E+01      3.177643000000000E-01     -1.613750000000000E+02
4895000000.000000      6.682739000000000E-01      1.328516000000000E+01      3.144989000000000E-01     -1.620469000000000E+02
4896000000.000000      6.687012000000000E-01      1.319287000000000E+01      3.104706000000000E-01     -1.621719000000000E+02
4897000000.000000      6.687622000000000E-01      1.317383000000000E+01      3.059845000000000E-01     -1.627344000000000E+02
4898000000.000000      6.708679000000000E-01      1.308447000000000E+01      3.030853000000000E-01     -1.629531000000000E+02
4899000000.000000      6.716003000000000E-01      1.287988000000000E+01      2.988739000000000E-01     -1.632734000000000E+02
4900000000.000000      6.723328000000000E-01      1.264893000000000E+01      2.954254000000000E-01     -1.636016000000000E+02
4901000000.000000      6.715088000000000E-01      1.268750000000000E+01      2.917938000000000E-01     -1.638594000000000E+02
4902000000.000000      6.742249000000000E-01      1.262451000000000E+01      2.883453000000000E-01     -1.641875000000000E+02
4903000000.000000      6.751099000000000E-01      1.250635000000000E+01      2.845154000000000E-01     -1.646172000000000E+02
4904000000.000000      6.752625000000000E-01      1.243066000000000E+01      2.805939000000000E-01     -1.650078000000000E+02
4905000000.000000      6.770325000000000E-01      1.223877000000000E+01      2.777252000000000E-01     -1.652578000000000E+02
4906000000.000000      6.770325000000000E-01      1.218506000000000E+01      2.737427000000000E-01     -1.654453000000000E+02
4907000000.000000      6.769409000000000E-01      1.205469000000000E+01      2.714386000000000E-01     -1.659688000000000E+02
4908000000.000000      6.792908000000000E-01      1.205469000000000E+01      2.673187000000000E-01     -1.662500000000000E+02
4909000000.000000      6.782227000000000E-01      1.193359000000000E+01      2.631378000000000E-01     -1.665156000000000E+02
4910000000.000000      6.784668000000000E-01      1.180859000000000E+01      2.604675000000000E-01     -1.667266000000000E+02
4911000000.000000      6.797180000000000E-01      1.177295000000000E+01      2.563934000000000E-01     -1.669765000000000E+02
4912000000.000000      6.790771000000000E-01      1.150928000000000E+01      2.539215000000000E-01     -1.672422000000000E+02
4913000000.000000      6.824646000000000E-01      1.140625000000000E+01      2.500153000000000E-01     -1.676094000000000E+02
4914000000.000000      6.813049000000000E-01      1.130322000000000E+01      2.465210000000000E-01     -1.677813000000000E+02
4915000000.000000      6.818237000000000E-01      1.120459000000000E+01      2.429810000000000E-01     -1.682812000000000E+02
4916000000.000000      6.815491000000000E-01      1.122656000000000E+01      2.390976000000000E-01     -1.686094000000000E+02
4917000000.000000      6.836853000000000E-01      1.099316000000000E+01      2.356796000000000E-01     -1.687891000000000E+02
4918000000.000000      6.850586000000000E-01      1.112598000000000E+01      2.319565000000000E-01     -1.689375000000000E+02
4919000000.000000      6.821594000000000E-01      1.110303000000000E+01      2.287140000000000E-01     -1.690156000000000E+02
4920000000.000000      6.860352000000000E-01      1.060449000000000E+01      2.241745000000000E-01     -1.695000000000000E+02
4921000000.000000      6.858521000000000E-01      1.079248000000000E+01      2.213593000000000E-01     -1.695469000000000E+02
4922000000.000000      6.882629000000000E-01      1.065234000000000E+01      2.176666000000000E-01     -1.697422000000000E+02
4923000000.000000      6.871338000000000E-01      1.082275000000000E+01      2.137756000000000E-01     -1.699219000000000E+02
4924000000.000000      6.881714000000000E-01      1.046143000000000E+01      2.099457000000000E-01     -1.703047000000000E+02
4925000000.000000      6.881714000000000E-01      1.032422000000000E+01      2.065887000000000E-01     -1.701953000000000E+02
4926000000.000000      6.873474000000000E-01      1.032422000000000E+01      2.029419000000000E-01     -1.704297000000000E+02
4927000000.000000      6.885986000000000E-01      1.016357000000000E+01      1.992569000000000E-01     -1.704375000000000E+02
4928000000.000000      6.907959000000000E-01      9.793945000000000E+00      1.961746000000000E-01     -1.704766000000000E+02
4929000000.000000      6.894226000000000E-01      9.850586000000000E+00      1.913910000000000E-01     -1.705234000000000E+02
4930000000.000000      6.884155000000000E-01      9.814453000000000E+00      1.880112000000000E-01     -1.707109000000000E+02
4931000000.000000      6.893921000000000E-01      9.559082000000000E+00      1.850510000000000E-01     -1.707031000000000E+02
4932000000.000000      6.909790000000000E-01      9.634766000000000E+00      1.804810000000000E-01     -1.705312000000000E+02
4933000000.000000      6.905823000000000E-01      9.549805000000000E+00      1.763992000000000E-01     -1.703516000000000E+02
4934000000.000000      6.936646000000000E-01      9.540039000000000E+00      1.729507000000000E-01     -1.703281000000000E+02
4935000000.000000      6.924438000000000E-01      9.330078000000000E+00      1.700211000000000E-01     -1.699766000000000E+02
4936000000.000000      6.914368000000000E-01      9.007324000000000E+00      1.654053000000000E-01     -1.697500000000000E+02
4937000000.000000      6.933899000000000E-01      9.059570000000000E+00      1.622849000000000E-01     -1.697422000000000E+02
4938000000.000000      6.933899000000000E-01      9.187012000000000E+00      1.584473000000000E-01     -1.691015000000000E+02
4939000000.000000      6.945190000000000E-01      9.108887000000000E+00      1.551590000000000E-01     -1.686953000000000E+02
4940000000.000000      6.957703000000000E-01      8.865723000000000E+00      1.511993000000000E-01     -1.685078000000000E+02
4941000000.000000      6.980591000000000E-01      8.564941000000000E+00      1.484375000000000E-01     -1.677578000000000E+02
4942000000.000000      6.939087000000000E-01      8.604980000000000E+00      1.446457000000000E-01     -1.673281000000000E+02
4943000000.000000      6.963501000000000E-01      8.730957000000000E+00      1.416092000000000E-01     -1.667109000000000E+02
4944000000.000000      6.972961000000000E-01      8.250488000000000E+00      1.386719000000000E-01     -1.658125000000000E+02
4945000000.000000      6.966248000000000E-01      8.407227000000000E+00      1.347733000000000E-01     -1.653672000000000E+02
4946000000.000000      6.959839000000000E-01      8.382324000000000E+00      1.319962000000000E-01     -1.644297000000000E+02
4947000000.000000      6.985168000000000E-01      8.208008000000000E+00      1.289978000000000E-01     -1.635781000000000E+02
4948000000.000000      6.985168000000000E-01      8.084473000000000E+00      1.259079000000000E-01     -1.625703000000000E+02
4949000000.000000      6.963501000000000E-01      7.993896000000000E+00      1.238365000000000E-01     -1.613281000000000E+02
4950000000.000000      7.005310000000000E-01      8.033691000000000E+00      1.209984000000000E-01     -1.604609000000000E+02
4951000000.000000      6.997986000000000E-01      7.748047000000000E+00      1.183777000000000E-01     -1.590703000000000E+02
4952000000.000000      7.005615000000000E-01      7.739746000000000E+00      1.161156000000000E-01     -1.577734000000000E+02
4953000000.000000      7.001953000000000E-01      7.511719000000000E+00      1.142006000000000E-01     -1.564922000000000E+02
4954000000.000000      7.013855000000000E-01      7.610596000000000E+00      1.119766000000000E-01     -1.547969000000000E+02
