! Network Analyzer HP8722D
! Hewlett-Packard
! Data name: Linha & Wilkinson
! Saver's name: Rodrigo Anjos
! Comments: Teste da utilização de aquisição
continua pelo VNA HP8722D
! Time and date: 23/5/2025 15:57
!              Frequency                     S11                                                   S21                                                   S12                                                   S22
# HZ  S  MA R 50
4800000000.000000      2.792664000000000E-01      4.046679000000000E+01      4.890442000000000E-01     -1.301016000000000E+02
4801000000.000000      2.803040000000000E-01      4.078711000000000E+01      4.895020000000000E-01     -1.307344000000000E+02
4802000000.000000      2.817535000000000E-01      4.094727000000000E+01      4.925842000000000E-01     -1.313516000000000E+02
4803000000.000000      2.828827000000000E-01      4.112695000000000E+01      4.935760000000000E-01     -1.319766000000000E+02
4804000000.000000      2.842560000000000E-01      4.134375000000000E+01      4.954834000000000E-01     -1.327734000000000E+02
4805000000.000000      2.864227000000000E-01      4.148438000000000E+01      4.962769000000000E-01     -1.333594000000000E+02
4806000000.000000      2.874298000000000E-01      4.171875000000000E+01      4.973145000000000E-01     -1.343906000000000E+02
4807000000.000000      2.885284000000000E-01      4.190430000000000E+01      4.999390000000000E-01     -1.351172000000000E+02
4808000000.000000      2.893677000000000E-01      4.212891000000000E+01      5.016174000000000E-01     -1.356328000000000E+02
4809000000.000000      2.913055000000000E-01      4.227735000000000E+01      5.022888000000000E-01     -1.366250000000000E+02
4810000000.000000      2.926636000000000E-01      4.245313000000000E+01      5.041809000000000E-01     -1.371875000000000E+02
4811000000.000000      2.946320000000000E-01      4.263085000000000E+01      5.049438000000000E-01     -1.379766000000000E+02
4812000000.000000      2.969360000000000E-01      4.268555000000000E+01      5.056763000000000E-01     -1.386875000000000E+02
4813000000.000000      2.980042000000000E-01      4.280078000000000E+01      5.057983000000000E-01     -1.395391000000000E+02
4814000000.000000      2.990112000000000E-01      4.282422000000000E+01      5.063477000000000E-01     -1.400547000000000E+02
4815000000.000000      3.007965000000000E-01      4.290820000000000E+01      5.062256000000000E-01     -1.409375000000000E+02
4816000000.000000      3.037415000000000E-01      4.309179000000000E+01      5.077209000000000E-01     -1.415703000000000E+02
4817000000.000000      3.046112000000000E-01      4.320508000000000E+01      5.088501000000000E-01     -1.424766000000000E+02
4818000000.000000      3.064728000000000E-01      4.318555000000000E+01      5.076904000000000E-01     -1.431328000000000E+02
4819000000.000000      3.087463000000000E-01      4.316796000000000E+01      5.085144000000000E-01     -1.438125000000000E+02
4820000000.000000      3.095398000000000E-01      4.327538000000000E+01      5.097351000000000E-01     -1.443438000000000E+02
4821000000.000000      3.123779000000000E-01      4.327344000000000E+01      5.101013000000000E-01     -1.453203000000000E+02
4822000000.000000      3.134460000000000E-01      4.327148000000000E+01      5.074463000000000E-01     -1.459609000000000E+02
4823000000.000000      3.154907000000000E-01      4.323242000000000E+01      5.101624000000000E-01     -1.467891000000000E+02
4824000000.000000      3.175964000000000E-01      4.325976000000000E+01      5.093689000000000E-01     -1.475234000000000E+02
4825000000.000000      3.194427000000000E-01      4.310742000000000E+01      5.088196000000000E-01     -1.480703000000000E+02
4826000000.000000      3.210602000000000E-01      4.310742000000000E+01      5.091553000000000E-01     -1.490156000000000E+02
4827000000.000000      3.230743000000000E-01      4.306054000000000E+01      5.083618000000000E-01     -1.496016000000000E+02
4828000000.000000      3.250275000000000E-01      4.305469000000000E+01      5.094299000000000E-01     -1.502891000000000E+02
4829000000.000000      3.268127000000000E-01      4.316602000000000E+01      5.072021000000000E-01     -1.511016000000000E+02
4830000000.000000      3.286591000000000E-01      4.281054000000000E+01      5.071716000000000E-01     -1.517969000000000E+02
4831000000.000000      3.296967000000000E-01      4.272070000000000E+01      5.063477000000000E-01     -1.524453000000000E+02
4832000000.000000      3.322601000000000E-01      4.281054000000000E+01      5.065613000000000E-01     -1.532500000000000E+02
4833000000.000000      3.334656000000000E-01      4.254687000000000E+01      5.049133000000000E-01     -1.540390000000000E+02
4834000000.000000      3.355560000000000E-01      4.251562000000000E+01      5.044250000000000E-01     -1.546328000000000E+02
4835000000.000000      3.379059000000000E-01      4.226563000000000E+01      5.027771000000000E-01     -1.555391000000000E+02
4836000000.000000      3.397675000000000E-01      4.221484000000000E+01      5.015564000000000E-01     -1.560390000000000E+02
4837000000.000000      3.406372000000000E-01      4.218554000000000E+01      5.008850000000000E-01     -1.569922000000000E+02
4838000000.000000      3.423767000000000E-01      4.198438000000000E+01      5.009460000000000E-01     -1.575625000000000E+02
4839000000.000000      3.454742000000000E-01      4.187696000000000E+01      4.986420000000000E-01     -1.583281000000000E+02
4840000000.000000      3.459015000000000E-01      4.156836000000000E+01      4.971619000000000E-01     -1.588203000000000E+02
4841000000.000000      3.477173000000000E-01      4.152539000000000E+01      4.957581000000000E-01     -1.597734000000000E+02
4842000000.000000      3.489838000000000E-01      4.131445000000000E+01      4.945374000000000E-01     -1.603359000000000E+02
4843000000.000000      3.520050000000000E-01      4.102929000000000E+01      4.943848000000000E-01     -1.612266000000000E+02
4844000000.000000      3.527374000000000E-01      4.091210000000000E+01      4.910126000000000E-01     -1.619766000000000E+02
4845000000.000000      3.542175000000000E-01      4.087304000000000E+01      4.911194000000000E-01     -1.623437000000000E+02
4846000000.000000      3.562469000000000E-01      4.052734000000000E+01      4.894409000000000E-01     -1.632969000000000E+02
4847000000.000000      3.572388000000000E-01      4.035352000000000E+01      4.881744000000000E-01     -1.637656000000000E+02
4848000000.000000      3.583221000000000E-01      4.010938000000000E+01      4.848480000000000E-01     -1.646406000000000E+02
4849000000.000000      3.597565000000000E-01      3.983593000000000E+01      4.828491000000000E-01     -1.653047000000000E+02
4850000000.000000      3.608398000000000E-01      3.962891000000000E+01      4.822388000000000E-01     -1.659922000000000E+02
4851000000.000000      3.628845000000000E-01      3.956250000000000E+01      4.802246000000000E-01     -1.667500000000000E+02
4852000000.000000      3.640137000000000E-01      3.924805000000000E+01      4.769745000000000E-01     -1.674297000000000E+02
4853000000.000000      3.655090000000000E-01      3.899609000000000E+01      4.736023000000000E-01     -1.682344000000000E+02
4854000000.000000      3.668060000000000E-01      3.873242000000000E+01      4.717865000000000E-01     -1.688125000000000E+02
4855000000.000000      3.676605000000000E-01      3.851758000000000E+01      4.711151000000000E-01     -1.695781000000000E+02
4856000000.000000      3.687744000000000E-01      3.835546000000000E+01      4.683838000000000E-01     -1.703281000000000E+02
4857000000.000000      3.702393000000000E-01      3.818554000000000E+01      4.667969000000000E-01     -1.709375000000000E+02
4858000000.000000      3.705902000000000E-01      3.775000000000000E+01      4.653320000000000E-01     -1.716640000000000E+02
4859000000.000000      3.720093000000000E-01      3.749218000000000E+01      4.619293000000000E-01     -1.722969000000000E+02
4860000000.000000      3.736420000000000E-01      3.731836000000000E+01      4.580536000000000E-01     -1.728828000000000E+02
4861000000.000000      3.743439000000000E-01      3.700195000000000E+01      4.570160000000000E-01     -1.738047000000000E+02
4862000000.000000      3.742828000000000E-01      3.683398000000000E+01      4.549103000000000E-01     -1.741797000000000E+02
4863000000.000000      3.753510000000000E-01      3.653906000000000E+01      4.505615000000000E-01     -1.750625000000000E+02
4864000000.000000      3.773804000000000E-01      3.615820000000000E+01      4.482880000000000E-01     -1.756172000000000E+02
4865000000.000000      3.774567000000000E-01      3.593945000000000E+01      4.434509000000000E-01     -1.763672000000000E+02
4866000000.000000      3.788910000000000E-01      3.569726000000000E+01      4.424438000000000E-01     -1.769922000000000E+02
4867000000.000000      3.784332000000000E-01      3.546289000000000E+01      4.384155000000000E-01     -1.779687000000000E+02
4868000000.000000      3.800964000000000E-01      3.509570000000000E+01      4.359436000000000E-01     -1.782266000000000E+02
4869000000.000000      3.804932000000000E-01      3.483203000000000E+01      4.329376000000000E-01     -1.790078000000000E+02
4870000000.000000      3.814545000000000E-01      3.463281000000000E+01      4.306183000000000E-01     -1.793281000000000E+02
4871000000.000000      3.805847000000000E-01      3.425976000000000E+01      4.261322000000000E-01      1.797188000000000E+02
4872000000.000000      3.829803000000000E-01      3.402148000000000E+01      4.243774000000000E-01      1.793125000000000E+02
4873000000.000000      3.825684000000000E-01      3.389257000000000E+01      4.201050000000000E-01      1.785234000000000E+02
4874000000.000000      3.840637000000000E-01      3.356054000000000E+01      4.156952000000000E-01      1.780469000000000E+02
4875000000.000000      3.843536000000000E-01      3.318945000000000E+01      4.123230000000000E-01      1.774219000000000E+02
4876000000.000000      3.841858000000000E-01      3.315234000000000E+01      4.096222000000000E-01      1.769375000000000E+02
4877000000.000000      3.848877000000000E-01      3.261914000000000E+01      4.064636000000000E-01      1.761797000000000E+02
4878000000.000000      3.852692000000000E-01      3.246875000000000E+01      4.025116000000000E-01      1.758047000000000E+02
4879000000.000000      3.861847000000000E-01      3.228711000000000E+01      3.981628000000000E-01      1.752891000000000E+02
4880000000.000000      3.861084000000000E-01      3.197363000000000E+01      3.943329000000000E-01      1.744922000000000E+02
4881000000.000000      3.860931000000000E-01      3.164453000000000E+01      3.930664000000000E-01      1.741250000000000E+02
4882000000.000000      3.872375000000000E-01      3.147851000000000E+01      3.899536000000000E-01      1.736484000000000E+02
4883000000.000000      3.859253000000000E-01      3.108105000000000E+01      3.839722000000000E-01      1.729844000000000E+02
4884000000.000000      3.875427000000000E-01      3.092187000000000E+01      3.799896000000000E-01      1.727656000000000E+02
4885000000.000000      3.865967000000000E-01      3.068066000000000E+01      3.759918000000000E-01      1.723047000000000E+02
4886000000.000000      3.873901000000000E-01      3.043554000000000E+01      3.741455000000000E-01      1.716484000000000E+02
4887000000.000000      3.869476000000000E-01      3.018164000000000E+01      3.705750000000000E-01      1.713516000000000E+02
4888000000.000000      3.873291000000000E-01      2.991504000000000E+01      3.674316000000000E-01      1.704062000000000E+02
4889000000.000000      3.869171000000000E-01      2.950195000000000E+01      3.619690000000000E-01      1.701719000000000E+02
4890000000.000000      3.859711000000000E-01      2.932714000000000E+01      3.594208000000000E-01      1.693906000000000E+02
4891000000.000000      3.867340000000000E-01      2.916504000000000E+01      3.556061000000000E-01      1.692578000000000E+02
4892000000.000000      3.870697000000000E-01      2.889355000000000E+01      3.522491000000000E-01      1.686719000000000E+02
4893000000.000000      3.873291000000000E-01      2.867285000000000E+01      3.467407000000000E-01      1.681641000000000E+02
4894000000.000000      3.872681000000000E-01      2.828516000000000E+01      3.451996000000000E-01      1.677813000000000E+02
4895000000.000000      3.878021000000000E-01      2.808105000000000E+01      3.423920000000000E-01      1.673594000000000E+02
4896000000.000000      3.864136000000000E-01      2.796484000000000E+01      3.377991000000000E-01      1.670859000000000E+02
4897000000.000000      3.868408000000000E-01      2.767578000000000E+01      3.342896000000000E-01      1.664531000000000E+02
4898000000.000000      3.868713000000000E-01      2.747949000000000E+01      3.315887000000000E-01      1.663047000000000E+02
4899000000.000000      3.867340000000000E-01      2.722461000000000E+01      3.271332000000000E-01      1.657500000000000E+02
4900000000.000000      3.862305000000000E-01      2.697754000000000E+01      3.241119000000000E-01      1.654140000000000E+02
4901000000.000000      3.860321000000000E-01      2.686132000000000E+01      3.208618000000000E-01      1.650234000000000E+02
4902000000.000000      3.852386000000000E-01      2.669726000000000E+01      3.180084000000000E-01      1.646719000000000E+02
4903000000.000000      3.860016000000000E-01      2.639648000000000E+01      3.130035000000000E-01      1.642578000000000E+02
4904000000.000000      3.849640000000000E-01      2.604394000000000E+01      3.105316000000000E-01      1.637500000000000E+02
4905000000.000000      3.851013000000000E-01      2.584765000000000E+01      3.082428000000000E-01      1.633594000000000E+02
4906000000.000000      3.847961000000000E-01      2.581445000000000E+01      3.034210000000000E-01      1.632734000000000E+02
4907000000.000000      3.848724000000000E-01      2.558496000000000E+01      3.009033000000000E-01      1.626484000000000E+02
4908000000.000000      3.853455000000000E-01      2.520605000000000E+01      2.975464000000000E-01      1.621484000000000E+02
4909000000.000000      3.838043000000000E-01      2.513476000000000E+01      2.934570000000000E-01      1.617656000000000E+02
4910000000.000000      3.836823000000000E-01      2.500683000000000E+01      2.896729000000000E-01      1.615156000000000E+02
4911000000.000000      3.835754000000000E-01      2.469141000000000E+01      2.868347000000000E-01      1.614063000000000E+02
4912000000.000000      3.825989000000000E-01      2.447851000000000E+01      2.828217000000000E-01      1.606172000000000E+02
4913000000.000000      3.834076000000000E-01      2.421777000000000E+01      2.792206000000000E-01      1.602813000000000E+02
4914000000.000000      3.832092000000000E-01      2.386035000000000E+01      2.757874000000000E-01      1.602031000000000E+02
4915000000.000000      3.824615000000000E-01      2.391016000000000E+01      2.713165000000000E-01      1.595703000000000E+02
4916000000.000000      3.829803000000000E-01      2.377148000000000E+01      2.685242000000000E-01      1.592500000000000E+02
4917000000.000000      3.820953000000000E-01      2.354980000000000E+01      2.645111000000000E-01      1.590625000000000E+02
4918000000.000000      3.827057000000000E-01      2.342480000000000E+01      2.601318000000000E-01      1.585859000000000E+02
4919000000.000000      3.811340000000000E-01      2.311914000000000E+01      2.567596000000000E-01      1.584609000000000E+02
4920000000.000000      3.820801000000000E-01      2.313672000000000E+01      2.525482000000000E-01      1.580078000000000E+02
4921000000.000000      3.814392000000000E-01      2.296875000000000E+01      2.490768000000000E-01      1.578359000000000E+02
4922000000.000000      3.815460000000000E-01      2.262988000000000E+01      2.451248000000000E-01      1.576484000000000E+02
4923000000.000000      3.817444000000000E-01      2.261719000000000E+01      2.407837000000000E-01      1.574141000000000E+02
4924000000.000000      3.803406000000000E-01      2.232226000000000E+01      2.370605000000000E-01      1.571094000000000E+02
4925000000.000000      3.802338000000000E-01      2.211621000000000E+01      2.330704000000000E-01      1.569062000000000E+02
4926000000.000000      3.802643000000000E-01      2.196484000000000E+01      2.293777000000000E-01      1.565312000000000E+02
4927000000.000000      3.795013000000000E-01      2.163476000000000E+01      2.251434000000000E-01      1.565234000000000E+02
4928000000.000000      3.802948000000000E-01      2.169434000000000E+01      2.210770000000000E-01      1.563828000000000E+02
4929000000.000000      3.794861000000000E-01      2.125683000000000E+01      2.164612000000000E-01      1.563984000000000E+02
4930000000.000000      3.790436000000000E-01      2.132226000000000E+01      2.132797000000000E-01      1.559531000000000E+02
4931000000.000000      3.782654000000000E-01      2.104199000000000E+01      2.093430000000000E-01      1.560937000000000E+02
4932000000.000000      3.787384000000000E-01      2.084863000000000E+01      2.049408000000000E-01      1.558750000000000E+02
4933000000.000000      3.784943000000000E-01      2.062598000000000E+01      2.002029000000000E-01      1.561563000000000E+02
4934000000.000000      3.782501000000000E-01      2.041308000000000E+01      1.961823000000000E-01      1.558984000000000E+02
4935000000.000000      3.782654000000000E-01      2.038769000000000E+01      1.931305000000000E-01      1.562656000000000E+02
4936000000.000000      3.766022000000000E-01      2.007031000000000E+01      1.885910000000000E-01      1.562734000000000E+02
4937000000.000000      3.774109000000000E-01      1.998242000000000E+01      1.846924000000000E-01      1.563984000000000E+02
4938000000.000000      3.758087000000000E-01      1.985352000000000E+01      1.806717000000000E-01      1.566484000000000E+02
4939000000.000000      3.762512000000000E-01      1.970898000000000E+01      1.767502000000000E-01      1.569219000000000E+02
4940000000.000000      3.759613000000000E-01      1.944629000000000E+01      1.724930000000000E-01      1.568438000000000E+02
4941000000.000000      3.759003000000000E-01      1.931250000000000E+01      1.685257000000000E-01      1.576172000000000E+02
4942000000.000000      3.741608000000000E-01      1.917578000000000E+01      1.649551000000000E-01      1.578828000000000E+02
4943000000.000000      3.755341000000000E-01      1.890723000000000E+01      1.611786000000000E-01      1.584453000000000E+02
4944000000.000000      3.749390000000000E-01      1.865723000000000E+01      1.578369000000000E-01      1.588281000000000E+02
4945000000.000000      3.740387000000000E-01      1.856641000000000E+01      1.537018000000000E-01      1.595625000000000E+02
4946000000.000000      3.740540000000000E-01      1.856348000000000E+01      1.500473000000000E-01      1.600703000000000E+02
4947000000.000000      3.739777000000000E-01      1.822851000000000E+01      1.468277000000000E-01      1.607656000000000E+02
4948000000.000000      3.739777000000000E-01      1.809961000000000E+01      1.433563000000000E-01      1.617188000000000E+02
4949000000.000000      3.725586000000000E-01      1.785352000000000E+01      1.403503000000000E-01      1.628125000000000E+02
4950000000.000000      3.724365000000000E-01      1.787109000000000E+01      1.371613000000000E-01      1.636719000000000E+02
4951000000.000000      3.721161000000000E-01      1.765820000000000E+01      1.342545000000000E-01      1.646797000000000E+02
4952000000.000000      3.716125000000000E-01      1.735840000000000E+01      1.311188000000000E-01      1.659844000000000E+02
4953000000.000000      3.710480000000000E-01      1.724121000000000E+01      1.289673000000000E-01      1.673281000000000E+02
4954000000.000000      3.708496000000000E-01      1.722070000000000E+01      1.256790000000000E-01      1.686484000000000E+02
