! Network Analyzer HP8722D
! Hewlett-Packard
! Data name: Linha & Wilkinson
! Saver's name: Rodrigo Anjos
! Comments: Teste da utilização de aquisição
continua pelo VNA HP8722D
! Time and date: 23/5/2025 14:10
!              Frequency                     S11                                                   S21                                                   S12                                                   S22
# HZ  S  MA R 50
4800000000.000000      2.968750000000000E-01      3.908398000000000E+01      4.799957000000000E-01     -1.295703000000000E+02
4801000000.000000      2.971344000000000E-01      3.942187000000000E+01      4.804993000000000E-01     -1.302734000000000E+02
4802000000.000000      2.987671000000000E-01      3.958789000000000E+01      4.823608000000000E-01     -1.309531000000000E+02
4803000000.000000      2.992249000000000E-01      3.978516000000000E+01      4.853973000000000E-01     -1.316484000000000E+02
4804000000.000000      3.005066000000000E-01      3.994726000000000E+01      4.858551000000000E-01     -1.323281000000000E+02
4805000000.000000      3.025360000000000E-01      4.005273000000000E+01      4.882355000000000E-01     -1.330937000000000E+02
4806000000.000000      3.032074000000000E-01      4.028320000000000E+01      4.895172000000000E-01     -1.336953000000000E+02
4807000000.000000      3.044586000000000E-01      4.038476000000000E+01      4.906921000000000E-01     -1.347422000000000E+02
4808000000.000000      3.054199000000000E-01      4.053906000000000E+01      4.915771000000000E-01     -1.351641000000000E+02
4809000000.000000      3.068542000000000E-01      4.078125000000000E+01      4.927673000000000E-01     -1.359844000000000E+02
4810000000.000000      3.088531000000000E-01      4.089844000000000E+01      4.936981000000000E-01     -1.367734000000000E+02
4811000000.000000      3.104401000000000E-01      4.109961000000000E+01      4.948273000000000E-01     -1.376250000000000E+02
4812000000.000000      3.131104000000000E-01      4.127149000000000E+01      4.969482000000000E-01     -1.381641000000000E+02
4813000000.000000      3.135986000000000E-01      4.129883000000000E+01      4.961243000000000E-01     -1.388672000000000E+02
4814000000.000000      3.149414000000000E-01      4.129687000000000E+01      4.971771000000000E-01     -1.395703000000000E+02
4815000000.000000      3.163147000000000E-01      4.141211000000000E+01      4.970398000000000E-01     -1.404922000000000E+02
4816000000.000000      3.187408000000000E-01      4.159961000000000E+01      4.985504000000000E-01     -1.411172000000000E+02
4817000000.000000      3.195343000000000E-01      4.168945000000000E+01      4.983215000000000E-01     -1.419844000000000E+02
4818000000.000000      3.217468000000000E-01      4.158203000000000E+01      4.989929000000000E-01     -1.425469000000000E+02
4819000000.000000      3.238983000000000E-01      4.166992000000000E+01      4.995270000000000E-01     -1.434297000000000E+02
4820000000.000000      3.246002000000000E-01      4.174218000000000E+01      4.987640000000000E-01     -1.441015000000000E+02
4821000000.000000      3.273926000000000E-01      4.173633000000000E+01      5.001221000000000E-01     -1.449375000000000E+02
4822000000.000000      3.280792000000000E-01      4.165039000000000E+01      4.985657000000000E-01     -1.455703000000000E+02
4823000000.000000      3.299103000000000E-01      4.170117000000000E+01      5.000305000000000E-01     -1.461797000000000E+02
4824000000.000000      3.324280000000000E-01      4.178320000000000E+01      4.974518000000000E-01     -1.470625000000000E+02
4825000000.000000      3.339539000000000E-01      4.160742000000000E+01      4.986572000000000E-01     -1.476719000000000E+02
4826000000.000000      3.353119000000000E-01      4.161328000000000E+01      4.988708000000000E-01     -1.485937000000000E+02
4827000000.000000      3.368530000000000E-01      4.166406000000000E+01      4.986877000000000E-01     -1.491719000000000E+02
4828000000.000000      3.395538000000000E-01      4.159570000000000E+01      4.974976000000000E-01     -1.499063000000000E+02
4829000000.000000      3.406067000000000E-01      4.166406000000000E+01      4.965668000000000E-01     -1.506406000000000E+02
4830000000.000000      3.423615000000000E-01      4.139844000000000E+01      4.965057000000000E-01     -1.514922000000000E+02
4831000000.000000      3.436584000000000E-01      4.132226000000000E+01      4.965057000000000E-01     -1.522187000000000E+02
4832000000.000000      3.457336000000000E-01      4.136328000000000E+01      4.953156000000000E-01     -1.528828000000000E+02
4833000000.000000      3.465576000000000E-01      4.115039000000000E+01      4.946594000000000E-01     -1.535156000000000E+02
4834000000.000000      3.489685000000000E-01      4.110937000000000E+01      4.941559000000000E-01     -1.541797000000000E+02
4835000000.000000      3.507538000000000E-01      4.094140000000000E+01      4.925385000000000E-01     -1.550000000000000E+02
4836000000.000000      3.524323000000000E-01      4.098242000000000E+01      4.907074000000000E-01     -1.557344000000000E+02
4837000000.000000      3.537292000000000E-01      4.089648000000000E+01      4.886169000000000E-01     -1.567891000000000E+02
4838000000.000000      3.550262000000000E-01      4.058594000000000E+01      4.891205000000000E-01     -1.570547000000000E+02
4839000000.000000      3.586121000000000E-01      4.057813000000000E+01      4.898071000000000E-01     -1.577031000000000E+02
4840000000.000000      3.595581000000000E-01      4.028906000000000E+01      4.888306000000000E-01     -1.585078000000000E+02
4841000000.000000      3.606567000000000E-01      4.033203000000000E+01      4.867401000000000E-01     -1.593359000000000E+02
4842000000.000000      3.615570000000000E-01      4.005859000000000E+01      4.851990000000000E-01     -1.599141000000000E+02
4843000000.000000      3.648682000000000E-01      3.972851000000000E+01      4.842529000000000E-01     -1.607188000000000E+02
4844000000.000000      3.658447000000000E-01      3.965820000000000E+01      4.821930000000000E-01     -1.613281000000000E+02
4845000000.000000      3.663177000000000E-01      3.959179000000000E+01      4.790497000000000E-01     -1.620937000000000E+02
4846000000.000000      3.683777000000000E-01      3.935937000000000E+01      4.787903000000000E-01     -1.628438000000000E+02
4847000000.000000      3.704376000000000E-01      3.928711000000000E+01      4.770508000000000E-01     -1.633672000000000E+02
4848000000.000000      3.705444000000000E-01      3.891602000000000E+01      4.728546000000000E-01     -1.642344000000000E+02
4849000000.000000      3.721771000000000E-01      3.860156000000000E+01      4.731140000000000E-01     -1.649062000000000E+02
4850000000.000000      3.738861000000000E-01      3.847070000000000E+01      4.723053000000000E-01     -1.656250000000000E+02
4851000000.000000      3.754730000000000E-01      3.845508000000000E+01      4.702759000000000E-01     -1.664531000000000E+02
4852000000.000000      3.757019000000000E-01      3.821289000000000E+01      4.678955000000000E-01     -1.669531000000000E+02
4853000000.000000      3.774414000000000E-01      3.791797000000000E+01      4.647522000000000E-01     -1.676250000000000E+02
4854000000.000000      3.794556000000000E-01      3.777344000000000E+01      4.641724000000000E-01     -1.685469000000000E+02
4855000000.000000      3.802032000000000E-01      3.747851000000000E+01      4.603119000000000E-01     -1.691484000000000E+02
4856000000.000000      3.811035000000000E-01      3.725976000000000E+01      4.583282000000000E-01     -1.698750000000000E+02
4857000000.000000      3.826294000000000E-01      3.702343000000000E+01      4.564056000000000E-01     -1.704687000000000E+02
4858000000.000000      3.830261000000000E-01      3.676758000000000E+01      4.537659000000000E-01     -1.711406000000000E+02
4859000000.000000      3.847961000000000E-01      3.643945000000000E+01      4.519348000000000E-01     -1.719375000000000E+02
4860000000.000000      3.853607000000000E-01      3.640429000000000E+01      4.490662000000000E-01     -1.724609000000000E+02
4861000000.000000      3.860168000000000E-01      3.613086000000000E+01      4.449158000000000E-01     -1.732891000000000E+02
4862000000.000000      3.871307000000000E-01      3.586133000000000E+01      4.428253000000000E-01     -1.737031000000000E+02
4863000000.000000      3.885956000000000E-01      3.572851000000000E+01      4.390869000000000E-01     -1.747266000000000E+02
4864000000.000000      3.891449000000000E-01      3.527734000000000E+01      4.377289000000000E-01     -1.753125000000000E+02
4865000000.000000      3.897400000000000E-01      3.505859000000000E+01      4.342194000000000E-01     -1.758281000000000E+02
4866000000.000000      3.907318000000000E-01      3.471680000000000E+01      4.323120000000000E-01     -1.765312000000000E+02
4867000000.000000      3.907623000000000E-01      3.452734000000000E+01      4.273529000000000E-01     -1.772812000000000E+02
4868000000.000000      3.923340000000000E-01      3.425390000000000E+01      4.251556000000000E-01     -1.780156000000000E+02
4869000000.000000      3.918610000000000E-01      3.397851000000000E+01      4.219971000000000E-01     -1.785469000000000E+02
4870000000.000000      3.935394000000000E-01      3.387304000000000E+01      4.201050000000000E-01     -1.791641000000000E+02
4871000000.000000      3.935699000000000E-01      3.353320000000000E+01      4.160614000000000E-01     -1.797734000000000E+02
4872000000.000000      3.953400000000000E-01      3.329102000000000E+01      4.115295000000000E-01      1.798281000000000E+02
4873000000.000000      3.952026000000000E-01      3.312891000000000E+01      4.094696000000000E-01      1.788906000000000E+02
4874000000.000000      3.952637000000000E-01      3.290625000000000E+01      4.065704000000000E-01      1.783281000000000E+02
4875000000.000000      3.958130000000000E-01      3.248242000000000E+01      4.015350000000000E-01      1.778828000000000E+02
4876000000.000000      3.965912000000000E-01      3.236328000000000E+01      3.981018000000000E-01      1.771797000000000E+02
4877000000.000000      3.975220000000000E-01      3.190625000000000E+01      3.954620000000000E-01      1.764922000000000E+02
4878000000.000000      3.968506000000000E-01      3.175000000000000E+01      3.919983000000000E-01      1.760937000000000E+02
4879000000.000000      3.981171000000000E-01      3.152734000000000E+01      3.872223000000000E-01      1.757734000000000E+02
4880000000.000000      3.983307000000000E-01      3.128320000000000E+01      3.840485000000000E-01      1.751250000000000E+02
4881000000.000000      3.982849000000000E-01      3.109179000000000E+01      3.814087000000000E-01      1.744766000000000E+02
4882000000.000000      3.985901000000000E-01      3.092090000000000E+01      3.775787000000000E-01      1.738984000000000E+02
4883000000.000000      3.985291000000000E-01      3.056055000000000E+01      3.727417000000000E-01      1.733438000000000E+02
4884000000.000000      3.996277000000000E-01      3.033984000000000E+01      3.710327000000000E-01      1.729375000000000E+02
4885000000.000000      3.993988000000000E-01      3.011719000000000E+01      3.668365000000000E-01      1.726953000000000E+02
4886000000.000000      3.990784000000000E-01      2.986035000000000E+01      3.623810000000000E-01      1.721953000000000E+02
4887000000.000000      3.999939000000000E-01      2.960742000000000E+01      3.609009000000000E-01      1.715625000000000E+02
4888000000.000000      3.997650000000000E-01      2.923535000000000E+01      3.566284000000000E-01      1.710078000000000E+02
4889000000.000000      3.988953000000000E-01      2.918359000000000E+01      3.522644000000000E-01      1.705625000000000E+02
4890000000.000000      3.985138000000000E-01      2.887890000000000E+01      3.490143000000000E-01      1.699687000000000E+02
4891000000.000000      3.994141000000000E-01      2.855664000000000E+01      3.455200000000000E-01      1.696875000000000E+02
4892000000.000000      3.985901000000000E-01      2.838086000000000E+01      3.421631000000000E-01      1.694297000000000E+02
4893000000.000000      3.995819000000000E-01      2.823047000000000E+01      3.373566000000000E-01      1.686719000000000E+02
4894000000.000000      3.992310000000000E-01      2.788671000000000E+01      3.328400000000000E-01      1.684141000000000E+02
4895000000.000000      4.009399000000000E-01      2.767675000000000E+01      3.311310000000000E-01      1.679609000000000E+02
4896000000.000000      3.990479000000000E-01      2.751367000000000E+01      3.277588000000000E-01      1.676094000000000E+02
4897000000.000000      3.993683000000000E-01      2.745996000000000E+01      3.243866000000000E-01      1.671328000000000E+02
4898000000.000000      3.990173000000000E-01      2.706738000000000E+01      3.214569000000000E-01      1.667031000000000E+02
4899000000.000000      3.981323000000000E-01      2.695019000000000E+01      3.182678000000000E-01      1.663359000000000E+02
4900000000.000000      3.989258000000000E-01      2.661230000000000E+01      3.149261000000000E-01      1.660156000000000E+02
4901000000.000000      3.989563000000000E-01      2.648730000000000E+01      3.118896000000000E-01      1.656406000000000E+02
4902000000.000000      3.993683000000000E-01      2.620898000000000E+01      3.079376000000000E-01      1.653125000000000E+02
4903000000.000000      3.992157000000000E-01      2.609766000000000E+01      3.039093000000000E-01      1.647109000000000E+02
4904000000.000000      3.987427000000000E-01      2.575586000000000E+01      3.000031000000000E-01      1.643984000000000E+02
4905000000.000000      3.984375000000000E-01      2.554296000000000E+01      2.974548000000000E-01      1.641641000000000E+02
4906000000.000000      3.980560000000000E-01      2.539453000000000E+01      2.940216000000000E-01      1.637891000000000E+02
4907000000.000000      3.975525000000000E-01      2.520996000000000E+01      2.907410000000000E-01      1.632422000000000E+02
4908000000.000000      3.987427000000000E-01      2.497949000000000E+01      2.869415000000000E-01      1.628125000000000E+02
4909000000.000000      3.975372000000000E-01      2.483301000000000E+01      2.836304000000000E-01      1.626250000000000E+02
4910000000.000000      3.971558000000000E-01      2.478906000000000E+01      2.802277000000000E-01      1.621719000000000E+02
4911000000.000000      3.980560000000000E-01      2.448828000000000E+01      2.774658000000000E-01      1.619219000000000E+02
4912000000.000000      3.961945000000000E-01      2.430566000000000E+01      2.734070000000000E-01      1.615000000000000E+02
4913000000.000000      3.975220000000000E-01      2.399609000000000E+01      2.703247000000000E-01      1.610625000000000E+02
4914000000.000000      3.957214000000000E-01      2.388086000000000E+01      2.658997000000000E-01      1.609531000000000E+02
4915000000.000000      3.956299000000000E-01      2.363476000000000E+01      2.628479000000000E-01      1.603281000000000E+02
4916000000.000000      3.946838000000000E-01      2.351758000000000E+01      2.587891000000000E-01      1.599609000000000E+02
4917000000.000000      3.948212000000000E-01      2.333887000000000E+01      2.554474000000000E-01      1.599766000000000E+02
4918000000.000000      3.951569000000000E-01      2.320703000000000E+01      2.516632000000000E-01      1.595703000000000E+02
4919000000.000000      3.938446000000000E-01      2.312402000000000E+01      2.482605000000000E-01      1.594375000000000E+02
4920000000.000000      3.943939000000000E-01      2.280176000000000E+01      2.442017000000000E-01      1.588594000000000E+02
4921000000.000000      3.943634000000000E-01      2.277930000000000E+01      2.405319000000000E-01      1.587500000000000E+02
4922000000.000000      3.952179000000000E-01      2.247461000000000E+01      2.364197000000000E-01      1.585391000000000E+02
4923000000.000000      3.942719000000000E-01      2.234277000000000E+01      2.323532000000000E-01      1.584063000000000E+02
4924000000.000000      3.927460000000000E-01      2.226758000000000E+01      2.286453000000000E-01      1.580156000000000E+02
4925000000.000000      3.932953000000000E-01      2.195703000000000E+01      2.251587000000000E-01      1.578984000000000E+02
4926000000.000000      3.934784000000000E-01      2.180762000000000E+01      2.208862000000000E-01      1.575859000000000E+02
4927000000.000000      3.924561000000000E-01      2.155468000000000E+01      2.165604000000000E-01      1.575938000000000E+02
4928000000.000000      3.923645000000000E-01      2.132129000000000E+01      2.131500000000000E-01      1.574453000000000E+02
4929000000.000000      3.917847000000000E-01      2.115234000000000E+01      2.087555000000000E-01      1.574297000000000E+02
4930000000.000000      3.925781000000000E-01      2.112207000000000E+01      2.051086000000000E-01      1.571328000000000E+02
4931000000.000000      3.918457000000000E-01      2.083789000000000E+01      2.015305000000000E-01      1.570469000000000E+02
4932000000.000000      3.921204000000000E-01      2.077051000000000E+01      1.971893000000000E-01      1.571094000000000E+02
4933000000.000000      3.912201000000000E-01      2.055859000000000E+01      1.924438000000000E-01      1.573984000000000E+02
4934000000.000000      3.906708000000000E-01      2.043164000000000E+01      1.891937000000000E-01      1.571640000000000E+02
4935000000.000000      3.921814000000000E-01      2.028613000000000E+01      1.860504000000000E-01      1.576328000000000E+02
4936000000.000000      3.912506000000000E-01      2.009863000000000E+01      1.814270000000000E-01      1.576328000000000E+02
4937000000.000000      3.899231000000000E-01      1.979785000000000E+01      1.773300000000000E-01      1.577031000000000E+02
4938000000.000000      3.904114000000000E-01      1.979297000000000E+01      1.732635000000000E-01      1.580391000000000E+02
4939000000.000000      3.890533000000000E-01      1.961133000000000E+01      1.702881000000000E-01      1.583984000000000E+02
4940000000.000000      3.898163000000000E-01      1.946973000000000E+01      1.659622000000000E-01      1.585859000000000E+02
4941000000.000000      3.893127000000000E-01      1.920605000000000E+01      1.624069000000000E-01      1.591640000000000E+02
4942000000.000000      3.883667000000000E-01      1.903613000000000E+01      1.588211000000000E-01      1.595781000000000E+02
4943000000.000000      3.882294000000000E-01      1.891406000000000E+01      1.550903000000000E-01      1.602344000000000E+02
4944000000.000000      3.878937000000000E-01      1.873535000000000E+01      1.517334000000000E-01      1.607344000000000E+02
4945000000.000000      3.883820000000000E-01      1.850195000000000E+01      1.479034000000000E-01      1.613437000000000E+02
4946000000.000000      3.889313000000000E-01      1.837109000000000E+01      1.444397000000000E-01      1.621094000000000E+02
4947000000.000000      3.877563000000000E-01      1.823437000000000E+01      1.412354000000000E-01      1.629766000000000E+02
4948000000.000000      3.882141000000000E-01      1.810254000000000E+01      1.385117000000000E-01      1.639062000000000E+02
4949000000.000000      3.871460000000000E-01      1.800293000000000E+01      1.352081000000000E-01      1.651484000000000E+02
4950000000.000000      3.869476000000000E-01      1.787402000000000E+01      1.318130000000000E-01      1.660078000000000E+02
4951000000.000000      3.873901000000000E-01      1.761035000000000E+01      1.296234000000000E-01      1.669922000000000E+02
4952000000.000000      3.867493000000000E-01      1.751855000000000E+01      1.265793000000000E-01      1.682031000000000E+02
4953000000.000000      3.853607000000000E-01      1.727246000000000E+01      1.248741000000000E-01      1.695391000000000E+02
4954000000.000000      3.860779000000000E-01      1.713965000000000E+01      1.220474000000000E-01      1.711094000000000E+02
