! Network Analyzer HP8722D
! Hewlett-Packard
! Data name: Linha & Wilkinson
! Saver's name: Rodrigo Anjos
! Comments: Teste da utilização de aquisição
continua pelo VNA HP8722D
! Time and date: 23/5/2025 15:19
!              Frequency                     S11                                                   S21                                                   S12                                                   S22
# HZ  S  MA R 50
4800000000.000000      2.819519000000000E-01      4.014257000000000E+01      4.864807000000000E-01     -1.295391000000000E+02
4801000000.000000      2.830048000000000E-01      4.037305000000000E+01      4.880981000000000E-01     -1.303437000000000E+02
4802000000.000000      2.844696000000000E-01      4.062500000000000E+01      4.885864000000000E-01     -1.309531000000000E+02
4803000000.000000      2.852020000000000E-01      4.080274000000000E+01      4.919128000000000E-01     -1.315312000000000E+02
4804000000.000000      2.861328000000000E-01      4.099218000000000E+01      4.932098000000000E-01     -1.324297000000000E+02
4805000000.000000      2.883453000000000E-01      4.114062000000000E+01      4.953461000000000E-01     -1.331406000000000E+02
4806000000.000000      2.890625000000000E-01      4.131249000000000E+01      4.954529000000000E-01     -1.339688000000000E+02
4807000000.000000      2.905731000000000E-01      4.161328000000000E+01      4.964905000000000E-01     -1.348516000000000E+02
4808000000.000000      2.915802000000000E-01      4.171875000000000E+01      4.999390000000000E-01     -1.352969000000000E+02
4809000000.000000      2.935333000000000E-01      4.202929000000000E+01      4.996643000000000E-01     -1.360625000000000E+02
4810000000.000000      2.949371000000000E-01      4.214844000000000E+01      5.014954000000000E-01     -1.366797000000000E+02
4811000000.000000      2.967072000000000E-01      4.221680000000000E+01      5.033875000000000E-01     -1.375625000000000E+02
4812000000.000000      2.988129000000000E-01      4.244141000000000E+01      5.033264000000000E-01     -1.382266000000000E+02
4813000000.000000      2.998505000000000E-01      4.255664000000000E+01      5.054321000000000E-01     -1.390000000000000E+02
4814000000.000000      3.015900000000000E-01      4.256640000000000E+01      5.053406000000000E-01     -1.397031000000000E+02
4815000000.000000      3.027191000000000E-01      4.271289000000000E+01      5.056152000000000E-01     -1.403984000000000E+02
4816000000.000000      3.049622000000000E-01      4.283008000000000E+01      5.073242000000000E-01     -1.412031000000000E+02
4817000000.000000      3.067017000000000E-01      4.292188000000000E+01      5.060730000000000E-01     -1.420625000000000E+02
4818000000.000000      3.082733000000000E-01      4.289258000000000E+01      5.072632000000000E-01     -1.426953000000000E+02
4819000000.000000      3.102417000000000E-01      4.290625000000000E+01      5.070496000000000E-01     -1.434062000000000E+02
4820000000.000000      3.113098000000000E-01      4.300000000000000E+01      5.069275000000000E-01     -1.440625000000000E+02
4821000000.000000      3.144836000000000E-01      4.297071000000000E+01      5.070801000000000E-01     -1.449297000000000E+02
4822000000.000000      3.151703000000000E-01      4.295507000000000E+01      5.081787000000000E-01     -1.455625000000000E+02
4823000000.000000      3.175201000000000E-01      4.292188000000000E+01      5.080872000000000E-01     -1.462969000000000E+02
4824000000.000000      3.191833000000000E-01      4.303711000000000E+01      5.067749000000000E-01     -1.470156000000000E+02
4825000000.000000      3.213501000000000E-01      4.295898000000000E+01      5.071411000000000E-01     -1.478047000000000E+02
4826000000.000000      3.227844000000000E-01      4.281640000000000E+01      5.067444000000000E-01     -1.485781000000000E+02
4827000000.000000      3.244934000000000E-01      4.296094000000000E+01      5.064697000000000E-01     -1.492109000000000E+02
4828000000.000000      3.272705000000000E-01      4.281446000000000E+01      5.076599000000000E-01     -1.499844000000000E+02
4829000000.000000      3.283997000000000E-01      4.283399000000000E+01      5.052795000000000E-01     -1.507422000000000E+02
4830000000.000000      3.303680000000000E-01      4.269921000000000E+01      5.054932000000000E-01     -1.515000000000000E+02
4831000000.000000      3.323669000000000E-01      4.254296000000000E+01      5.044556000000000E-01     -1.523438000000000E+02
4832000000.000000      3.339386000000000E-01      4.259766000000000E+01      5.037537000000000E-01     -1.528437000000000E+02
4833000000.000000      3.347931000000000E-01      4.240039000000000E+01      5.021362000000000E-01     -1.536016000000000E+02
4834000000.000000      3.369293000000000E-01      4.226758000000000E+01      5.026855000000000E-01     -1.542500000000000E+02
4835000000.000000      3.394470000000000E-01      4.219336000000000E+01      5.022278000000000E-01     -1.550625000000000E+02
4836000000.000000      3.409729000000000E-01      4.214063000000000E+01      5.003357000000000E-01     -1.558516000000000E+02
4837000000.000000      3.420715000000000E-01      4.202344000000000E+01      4.984283000000000E-01     -1.566015000000000E+02
4838000000.000000      3.436737000000000E-01      4.174805000000000E+01      4.990387000000000E-01     -1.571640000000000E+02
4839000000.000000      3.473816000000000E-01      4.167578000000000E+01      4.969635000000000E-01     -1.579609000000000E+02
4840000000.000000      3.479919000000000E-01      4.143945000000000E+01      4.962006000000000E-01     -1.586172000000000E+02
4841000000.000000      3.491974000000000E-01      4.136328000000000E+01      4.944305000000000E-01     -1.594766000000000E+02
4842000000.000000      3.512115000000000E-01      4.113477000000000E+01      4.946899000000000E-01     -1.600937000000000E+02
4843000000.000000      3.536530000000000E-01      4.088672000000000E+01      4.941711000000000E-01     -1.608125000000000E+02
4844000000.000000      3.543701000000000E-01      4.073438000000000E+01      4.916840000000000E-01     -1.615078000000000E+02
4845000000.000000      3.560638000000000E-01      4.068945000000000E+01      4.894714000000000E-01     -1.621094000000000E+02
4846000000.000000      3.581085000000000E-01      4.038671000000000E+01      4.883423000000000E-01     -1.628594000000000E+02
4847000000.000000      3.593292000000000E-01      4.022461000000000E+01      4.871368000000000E-01     -1.634844000000000E+02
4848000000.000000      3.605194000000000E-01      3.989843000000000E+01      4.836884000000000E-01     -1.642266000000000E+02
4849000000.000000      3.612976000000000E-01      3.973047000000000E+01      4.824677000000000E-01     -1.650703000000000E+02
4850000000.000000      3.624725000000000E-01      3.951562000000000E+01      4.795074000000000E-01     -1.655703000000000E+02
4851000000.000000      3.646851000000000E-01      3.950390000000000E+01      4.804535000000000E-01     -1.663594000000000E+02
4852000000.000000      3.660583000000000E-01      3.920898000000000E+01      4.770355000000000E-01     -1.672109000000000E+02
4853000000.000000      3.675079000000000E-01      3.890625000000000E+01      4.739227000000000E-01     -1.677344000000000E+02
4854000000.000000      3.682709000000000E-01      3.868555000000000E+01      4.725952000000000E-01     -1.684922000000000E+02
4855000000.000000      3.694916000000000E-01      3.844336000000000E+01      4.698029000000000E-01     -1.692656000000000E+02
4856000000.000000      3.704987000000000E-01      3.819921000000000E+01      4.674072000000000E-01     -1.700391000000000E+02
4857000000.000000      3.720398000000000E-01      3.799023000000000E+01      4.661407000000000E-01     -1.704297000000000E+02
4858000000.000000      3.725739000000000E-01      3.772656000000000E+01      4.646912000000000E-01     -1.712578000000000E+02
4859000000.000000      3.741455000000000E-01      3.746679000000000E+01      4.617462000000000E-01     -1.719531000000000E+02
4860000000.000000      3.750305000000000E-01      3.736719000000000E+01      4.593201000000000E-01     -1.726094000000000E+02
4861000000.000000      3.759460000000000E-01      3.695898000000000E+01      4.562988000000000E-01     -1.732969000000000E+02
4862000000.000000      3.760834000000000E-01      3.662695000000000E+01      4.540100000000000E-01     -1.737969000000000E+02
4863000000.000000      3.775330000000000E-01      3.648828000000000E+01      4.499359000000000E-01     -1.747656000000000E+02
4864000000.000000      3.788910000000000E-01      3.621484000000000E+01      4.483643000000000E-01     -1.751484000000000E+02
4865000000.000000      3.790741000000000E-01      3.586914000000000E+01      4.448395000000000E-01     -1.759453000000000E+02
4866000000.000000      3.804626000000000E-01      3.552929000000000E+01      4.405212000000000E-01     -1.766016000000000E+02
4867000000.000000      3.809357000000000E-01      3.533594000000000E+01      4.381409000000000E-01     -1.775156000000000E+02
4868000000.000000      3.817902000000000E-01      3.504883000000000E+01      4.354858000000000E-01     -1.778750000000000E+02
4869000000.000000      3.826447000000000E-01      3.479883000000000E+01      4.328308000000000E-01     -1.787109000000000E+02
4870000000.000000      3.829346000000000E-01      3.455859000000000E+01      4.287415000000000E-01     -1.791172000000000E+02
4871000000.000000      3.832397000000000E-01      3.425390000000000E+01      4.273376000000000E-01     -1.798594000000000E+02
4872000000.000000      3.847809000000000E-01      3.401562000000000E+01      4.208679000000000E-01      1.796484000000000E+02
4873000000.000000      3.848877000000000E-01      3.376953000000000E+01      4.181671000000000E-01      1.790313000000000E+02
4874000000.000000      3.856506000000000E-01      3.355664000000000E+01      4.147797000000000E-01      1.782891000000000E+02
4875000000.000000      3.860016000000000E-01      3.325195000000000E+01      4.116974000000000E-01      1.777891000000000E+02
4876000000.000000      3.867035000000000E-01      3.316211000000000E+01      4.088440000000000E-01      1.771406000000000E+02
4877000000.000000      3.870239000000000E-01      3.253515000000000E+01      4.046478000000000E-01      1.765156000000000E+02
4878000000.000000      3.870392000000000E-01      3.240429000000000E+01      4.009857000000000E-01      1.760234000000000E+02
4879000000.000000      3.889465000000000E-01      3.221484000000000E+01      3.976440000000000E-01      1.753750000000000E+02
4880000000.000000      3.888245000000000E-01      3.191601000000000E+01      3.943787000000000E-01      1.750547000000000E+02
4881000000.000000      3.884125000000000E-01      3.164063000000000E+01      3.908844000000000E-01      1.744531000000000E+02
4882000000.000000      3.885803000000000E-01      3.130957000000000E+01      3.887024000000000E-01      1.738125000000000E+02
4883000000.000000      3.884125000000000E-01      3.109179000000000E+01      3.833466000000000E-01      1.733672000000000E+02
4884000000.000000      3.892059000000000E-01      3.083398000000000E+01      3.799286000000000E-01      1.726172000000000E+02
4885000000.000000      3.896179000000000E-01      3.062500000000000E+01      3.748016000000000E-01      1.721953000000000E+02
4886000000.000000      3.897858000000000E-01      3.044824000000000E+01      3.737946000000000E-01      1.721016000000000E+02
4887000000.000000      3.894958000000000E-01      3.011719000000000E+01      3.703766000000000E-01      1.714531000000000E+02
4888000000.000000      3.894653000000000E-01      2.979687000000000E+01      3.650970000000000E-01      1.707422000000000E+02
4889000000.000000      3.898621000000000E-01      2.968066000000000E+01      3.619080000000000E-01      1.704297000000000E+02
4890000000.000000      3.890228000000000E-01      2.931836000000000E+01      3.591003000000000E-01      1.695781000000000E+02
4891000000.000000      3.894043000000000E-01      2.912012000000000E+01      3.551331000000000E-01      1.694375000000000E+02
4892000000.000000      3.897400000000000E-01      2.886719000000000E+01      3.513031000000000E-01      1.689766000000000E+02
4893000000.000000      3.898621000000000E-01      2.863770000000000E+01      3.479919000000000E-01      1.684531000000000E+02
4894000000.000000      3.891907000000000E-01      2.838964000000000E+01      3.437195000000000E-01      1.679766000000000E+02
4895000000.000000      3.894958000000000E-01      2.819140000000000E+01      3.414001000000000E-01      1.677109000000000E+02
4896000000.000000      3.888245000000000E-01      2.791016000000000E+01      3.377075000000000E-01      1.673750000000000E+02
4897000000.000000      3.888855000000000E-01      2.764941000000000E+01      3.330536000000000E-01      1.667578000000000E+02
4898000000.000000      3.893127000000000E-01      2.744922000000000E+01      3.304138000000000E-01      1.663906000000000E+02
4899000000.000000      3.892822000000000E-01      2.715332000000000E+01      3.274689000000000E-01      1.658906000000000E+02
4900000000.000000      3.882141000000000E-01      2.698633000000000E+01      3.247681000000000E-01      1.655547000000000E+02
4901000000.000000      3.881836000000000E-01      2.670703000000000E+01      3.208923000000000E-01      1.652578000000000E+02
4902000000.000000      3.885498000000000E-01      2.656445000000000E+01      3.171844000000000E-01      1.649688000000000E+02
4903000000.000000      3.881378000000000E-01      2.636133000000000E+01      3.133850000000000E-01      1.645547000000000E+02
4904000000.000000      3.877869000000000E-01      2.611133000000000E+01      3.111877000000000E-01      1.640547000000000E+02
4905000000.000000      3.875122000000000E-01      2.600000000000000E+01      3.080597000000000E-01      1.634844000000000E+02
4906000000.000000      3.868256000000000E-01      2.575976000000000E+01      3.040924000000000E-01      1.634375000000000E+02
4907000000.000000      3.872375000000000E-01      2.541797000000000E+01      3.011475000000000E-01      1.630078000000000E+02
4908000000.000000      3.875885000000000E-01      2.526367000000000E+01      2.977600000000000E-01      1.623750000000000E+02
4909000000.000000      3.848419000000000E-01      2.506640000000000E+01      2.939606000000000E-01      1.621172000000000E+02
4910000000.000000      3.858032000000000E-01      2.479297000000000E+01      2.896423000000000E-01      1.616484000000000E+02
4911000000.000000      3.866730000000000E-01      2.486816000000000E+01      2.867432000000000E-01      1.611719000000000E+02
4912000000.000000      3.856506000000000E-01      2.462402000000000E+01      2.831726000000000E-01      1.608281000000000E+02
4913000000.000000      3.865967000000000E-01      2.428711000000000E+01      2.793274000000000E-01      1.606562000000000E+02
4914000000.000000      3.852997000000000E-01      2.402539000000000E+01      2.752075000000000E-01      1.603906000000000E+02
4915000000.000000      3.851929000000000E-01      2.389843000000000E+01      2.718201000000000E-01      1.599766000000000E+02
4916000000.000000      3.855438000000000E-01      2.374804000000000E+01      2.679901000000000E-01      1.593594000000000E+02
4917000000.000000      3.849030000000000E-01      2.365625000000000E+01      2.646484000000000E-01      1.593359000000000E+02
4918000000.000000      3.843994000000000E-01      2.337988000000000E+01      2.598724000000000E-01      1.587344000000000E+02
4919000000.000000      3.841400000000000E-01      2.332324000000000E+01      2.574005000000000E-01      1.587969000000000E+02
4920000000.000000      3.835602000000000E-01      2.300391000000000E+01      2.530365000000000E-01      1.581875000000000E+02
4921000000.000000      3.840485000000000E-01      2.294434000000000E+01      2.491837000000000E-01      1.579609000000000E+02
4922000000.000000      3.846893000000000E-01      2.260644000000000E+01      2.452164000000000E-01      1.577578000000000E+02
4923000000.000000      3.834381000000000E-01      2.245312000000000E+01      2.415390000000000E-01      1.575547000000000E+02
4924000000.000000      3.833923000000000E-01      2.234179000000000E+01      2.370758000000000E-01      1.571094000000000E+02
4925000000.000000      3.823395000000000E-01      2.213672000000000E+01      2.332687000000000E-01      1.570547000000000E+02
4926000000.000000      3.818817000000000E-01      2.206543000000000E+01      2.296371000000000E-01      1.567578000000000E+02
4927000000.000000      3.825226000000000E-01      2.178906000000000E+01      2.252426000000000E-01      1.565547000000000E+02
4928000000.000000      3.831329000000000E-01      2.145312000000000E+01      2.218781000000000E-01      1.565234000000000E+02
4929000000.000000      3.815918000000000E-01      2.140137000000000E+01      2.172775000000000E-01      1.563516000000000E+02
4930000000.000000      3.810577000000000E-01      2.125977000000000E+01      2.133255000000000E-01      1.562109000000000E+02
4931000000.000000      3.800049000000000E-01      2.101074000000000E+01      2.092896000000000E-01      1.560703000000000E+02
4932000000.000000      3.811188000000000E-01      2.095313000000000E+01      2.050323000000000E-01      1.560781000000000E+02
4933000000.000000      3.804321000000000E-01      2.066601000000000E+01      2.001495000000000E-01      1.563594000000000E+02
4934000000.000000      3.798676000000000E-01      2.054980000000000E+01      1.970367000000000E-01      1.560078000000000E+02
4935000000.000000      3.811340000000000E-01      2.036231000000000E+01      1.933746000000000E-01      1.562813000000000E+02
4936000000.000000      3.794556000000000E-01      2.014062000000000E+01      1.889038000000000E-01      1.563750000000000E+02
4937000000.000000      3.798676000000000E-01      1.993262000000000E+01      1.848450000000000E-01      1.565859000000000E+02
4938000000.000000      3.791962000000000E-01      1.988867000000000E+01      1.807632000000000E-01      1.566094000000000E+02
4939000000.000000      3.784027000000000E-01      1.969922000000000E+01      1.769867000000000E-01      1.570156000000000E+02
4940000000.000000      3.793182000000000E-01      1.948340000000000E+01      1.725464000000000E-01      1.570703000000000E+02
4941000000.000000      3.781738000000000E-01      1.937793000000000E+01      1.692505000000000E-01      1.575078000000000E+02
4942000000.000000      3.779144000000000E-01      1.925488000000000E+01      1.653214000000000E-01      1.579531000000000E+02
4943000000.000000      3.780060000000000E-01      1.896289000000000E+01      1.616135000000000E-01      1.582578000000000E+02
4944000000.000000      3.771667000000000E-01      1.881933000000000E+01      1.576080000000000E-01      1.588203000000000E+02
4945000000.000000      3.770447000000000E-01      1.878613000000000E+01      1.538467000000000E-01      1.594063000000000E+02
4946000000.000000      3.768005000000000E-01      1.846094000000000E+01      1.506729000000000E-01      1.600469000000000E+02
4947000000.000000      3.772888000000000E-01      1.825488000000000E+01      1.466827000000000E-01      1.607656000000000E+02
4948000000.000000      3.764801000000000E-01      1.811719000000000E+01      1.437836000000000E-01      1.615000000000000E+02
4949000000.000000      3.756409000000000E-01      1.787598000000000E+01      1.404953000000000E-01      1.627891000000000E+02
4950000000.000000      3.750763000000000E-01      1.785352000000000E+01      1.374817000000000E-01      1.636484000000000E+02
4951000000.000000      3.757782000000000E-01      1.768359000000000E+01      1.344147000000000E-01      1.644922000000000E+02
4952000000.000000      3.746185000000000E-01      1.751465000000000E+01      1.312180000000000E-01      1.655156000000000E+02
4953000000.000000      3.743896000000000E-01      1.723145000000000E+01      1.288986000000000E-01      1.671094000000000E+02
4954000000.000000      3.752899000000000E-01      1.714941000000000E+01      1.263123000000000E-01      1.683828000000000E+02
