! Network Analyzer HP8722D
! Hewlett-Packard
! Data name: Linha & Wilkinson
! Saver's name: Rodrigo Anjos
! Comments: Teste da utilização de aquisição
continua pelo VNA HP8722D
! Time and date: 23/5/2025 12:47
!              Frequency                     S11                                                   S21                                                   S12                                                   S22
# HZ  S  MA R 50
4800000000.000000      2.888794000000000E-01      3.957226000000000E+01      4.822693000000000E-01     -1.296328000000000E+02
4801000000.000000      2.903290000000000E-01      3.985547000000000E+01      4.832764000000000E-01     -1.301563000000000E+02
4802000000.000000      2.911682000000000E-01      4.002539000000000E+01      4.848785000000000E-01     -1.310078000000000E+02
4803000000.000000      2.922668000000000E-01      4.016602000000000E+01      4.873352000000000E-01     -1.316406000000000E+02
4804000000.000000      2.933044000000000E-01      4.043945000000000E+01      4.904480000000000E-01     -1.324219000000000E+02
4805000000.000000      2.954102000000000E-01      4.052930000000000E+01      4.917603000000000E-01     -1.331016000000000E+02
4806000000.000000      2.962036000000000E-01      4.074023000000000E+01      4.930420000000000E-01     -1.337500000000000E+02
4807000000.000000      2.969818000000000E-01      4.090625000000000E+01      4.934540000000000E-01     -1.348672000000000E+02
4808000000.000000      2.981720000000000E-01      4.111133000000000E+01      4.960785000000000E-01     -1.353359000000000E+02
4809000000.000000      3.000031000000000E-01      4.136719000000000E+01      4.971466000000000E-01     -1.361250000000000E+02
4810000000.000000      3.012390000000000E-01      4.139062000000000E+01      4.979553000000000E-01     -1.367578000000000E+02
4811000000.000000      3.033905000000000E-01      4.158593000000000E+01      4.995270000000000E-01     -1.376094000000000E+02
4812000000.000000      3.059692000000000E-01      4.169531000000000E+01      4.998016000000000E-01     -1.384531000000000E+02
4813000000.000000      3.065491000000000E-01      4.183007000000000E+01      5.007324000000000E-01     -1.390312000000000E+02
4814000000.000000      3.077393000000000E-01      4.190430000000000E+01      5.020752000000000E-01     -1.395313000000000E+02
4815000000.000000      3.094635000000000E-01      4.193749000000000E+01      5.019531000000000E-01     -1.402969000000000E+02
4816000000.000000      3.119202000000000E-01      4.207031000000000E+01      5.029297000000000E-01     -1.409765000000000E+02
4817000000.000000      3.127594000000000E-01      4.221875000000000E+01      5.026550000000000E-01     -1.420234000000000E+02
4818000000.000000      3.143768000000000E-01      4.216601000000000E+01      5.034790000000000E-01     -1.425390000000000E+02
4819000000.000000      3.171539000000000E-01      4.225195000000000E+01      5.037537000000000E-01     -1.433828000000000E+02
4820000000.000000      3.175354000000000E-01      4.225586000000000E+01      5.036926000000000E-01     -1.439844000000000E+02
4821000000.000000      3.202820000000000E-01      4.230664000000000E+01      5.046082000000000E-01     -1.448984000000000E+02
4822000000.000000      3.216705000000000E-01      4.220117000000000E+01      5.024719000000000E-01     -1.456563000000000E+02
4823000000.000000      3.233185000000000E-01      4.222852000000000E+01      5.039063000000000E-01     -1.464375000000000E+02
4824000000.000000      3.253632000000000E-01      4.239648000000000E+01      5.027161000000000E-01     -1.470469000000000E+02
4825000000.000000      3.273773000000000E-01      4.226758000000000E+01      5.031738000000000E-01     -1.477109000000000E+02
4826000000.000000      3.287811000000000E-01      4.213867000000000E+01      5.034180000000000E-01     -1.486641000000000E+02
4827000000.000000      3.309326000000000E-01      4.213476000000000E+01      5.022583000000000E-01     -1.490937000000000E+02
4828000000.000000      3.326874000000000E-01      4.213476000000000E+01      5.022278000000000E-01     -1.500234000000000E+02
4829000000.000000      3.342590000000000E-01      4.214648000000000E+01      5.022888000000000E-01     -1.506875000000000E+02
4830000000.000000      3.362274000000000E-01      4.194921000000000E+01      5.003357000000000E-01     -1.514062000000000E+02
4831000000.000000      3.381500000000000E-01      4.188477000000000E+01      5.005188000000000E-01     -1.523281000000000E+02
4832000000.000000      3.395691000000000E-01      4.193749000000000E+01      4.995575000000000E-01     -1.528594000000000E+02
4833000000.000000      3.403778000000000E-01      4.169922000000000E+01      4.985962000000000E-01     -1.533359000000000E+02
4834000000.000000      3.424072000000000E-01      4.166406000000000E+01      4.987793000000000E-01     -1.542734000000000E+02
4835000000.000000      3.448029000000000E-01      4.143164000000000E+01      4.968414000000000E-01     -1.549766000000000E+02
4836000000.000000      3.469543000000000E-01      4.143945000000000E+01      4.954376000000000E-01     -1.556484000000000E+02
4837000000.000000      3.483276000000000E-01      4.123828000000000E+01      4.939423000000000E-01     -1.566641000000000E+02
4838000000.000000      3.497314000000000E-01      4.115430000000000E+01      4.942474000000000E-01     -1.569219000000000E+02
4839000000.000000      3.532867000000000E-01      4.102929000000000E+01      4.937897000000000E-01     -1.577734000000000E+02
4840000000.000000      3.534241000000000E-01      4.081445000000000E+01      4.924164000000000E-01     -1.584766000000000E+02
4841000000.000000      3.550568000000000E-01      4.074414000000000E+01      4.912720000000000E-01     -1.591953000000000E+02
4842000000.000000      3.565369000000000E-01      4.048828000000000E+01      4.892731000000000E-01     -1.600156000000000E+02
4843000000.000000      3.591919000000000E-01      4.026757000000000E+01      4.882355000000000E-01     -1.607656000000000E+02
4844000000.000000      3.602295000000000E-01      4.014062000000000E+01      4.865417000000000E-01     -1.615000000000000E+02
4845000000.000000      3.615417000000000E-01      3.997070000000000E+01      4.840088000000000E-01     -1.620937000000000E+02
4846000000.000000      3.635559000000000E-01      3.981836000000000E+01      4.835815000000000E-01     -1.628281000000000E+02
4847000000.000000      3.646240000000000E-01      3.963672000000000E+01      4.824829000000000E-01     -1.633359000000000E+02
4848000000.000000      3.658142000000000E-01      3.938867000000000E+01      4.792328000000000E-01     -1.641719000000000E+02
4849000000.000000      3.675079000000000E-01      3.904297000000000E+01      4.793549000000000E-01     -1.649765000000000E+02
4850000000.000000      3.683777000000000E-01      3.900000000000000E+01      4.763947000000000E-01     -1.657578000000000E+02
4851000000.000000      3.703461000000000E-01      3.882031000000000E+01      4.751892000000000E-01     -1.663984000000000E+02
4852000000.000000      3.712311000000000E-01      3.861523000000000E+01      4.714508000000000E-01     -1.669375000000000E+02
4853000000.000000      3.727112000000000E-01      3.840234000000000E+01      4.699554000000000E-01     -1.677656000000000E+02
4854000000.000000      3.736115000000000E-01      3.807812000000000E+01      4.671631000000000E-01     -1.685234000000000E+02
4855000000.000000      3.749695000000000E-01      3.794140000000000E+01      4.653320000000000E-01     -1.691641000000000E+02
4856000000.000000      3.757935000000000E-01      3.763086000000000E+01      4.625854000000000E-01     -1.699844000000000E+02
4857000000.000000      3.774109000000000E-01      3.753515000000000E+01      4.613647000000000E-01     -1.705000000000000E+02
4858000000.000000      3.780823000000000E-01      3.700976000000000E+01      4.590912000000000E-01     -1.712344000000000E+02
4859000000.000000      3.797607000000000E-01      3.684765000000000E+01      4.563141000000000E-01     -1.720234000000000E+02
4860000000.000000      3.801270000000000E-01      3.666211000000000E+01      4.521332000000000E-01     -1.725625000000000E+02
4861000000.000000      3.811798000000000E-01      3.644922000000000E+01      4.504242000000000E-01     -1.733047000000000E+02
4862000000.000000      3.811493000000000E-01      3.615429000000000E+01      4.494324000000000E-01     -1.738047000000000E+02
4863000000.000000      3.834534000000000E-01      3.604883000000000E+01      4.460297000000000E-01     -1.747734000000000E+02
4864000000.000000      3.839264000000000E-01      3.565625000000000E+01      4.418488000000000E-01     -1.751641000000000E+02
4865000000.000000      3.847656000000000E-01      3.533203000000000E+01      4.402008000000000E-01     -1.757813000000000E+02
4866000000.000000      3.862610000000000E-01      3.507226000000000E+01      4.360962000000000E-01     -1.767578000000000E+02
4867000000.000000      3.857880000000000E-01      3.497070000000000E+01      4.328766000000000E-01     -1.774609000000000E+02
4868000000.000000      3.871613000000000E-01      3.458203000000000E+01      4.302216000000000E-01     -1.779531000000000E+02
4869000000.000000      3.877411000000000E-01      3.442968000000000E+01      4.269867000000000E-01     -1.787109000000000E+02
4870000000.000000      3.886261000000000E-01      3.420898000000000E+01      4.241638000000000E-01     -1.791641000000000E+02
4871000000.000000      3.890381000000000E-01      3.374023000000000E+01      4.212952000000000E-01     -1.799219000000000E+02
4872000000.000000      3.901978000000000E-01      3.362695000000000E+01      4.179230000000000E-01      1.797266000000000E+02
4873000000.000000      3.902740000000000E-01      3.343554000000000E+01      4.131775000000000E-01      1.789766000000000E+02
4874000000.000000      3.908234000000000E-01      3.314258000000000E+01      4.103851000000000E-01      1.782656000000000E+02
4875000000.000000      3.906860000000000E-01      3.284765000000000E+01      4.065857000000000E-01      1.777344000000000E+02
4876000000.000000      3.916016000000000E-01      3.278515000000000E+01      4.054718000000000E-01      1.771719000000000E+02
4877000000.000000      3.924561000000000E-01      3.214062000000000E+01      4.010925000000000E-01      1.763984000000000E+02
4878000000.000000      3.917236000000000E-01      3.195703000000000E+01      3.976898000000000E-01      1.760547000000000E+02
4879000000.000000      3.935699000000000E-01      3.178320000000000E+01      3.928680000000000E-01      1.755312000000000E+02
4880000000.000000      3.936615000000000E-01      3.137402000000000E+01      3.898621000000000E-01      1.750078000000000E+02
4881000000.000000      3.929291000000000E-01      3.127246000000000E+01      3.872070000000000E-01      1.745703000000000E+02
4882000000.000000      3.939667000000000E-01      3.106640000000000E+01      3.829346000000000E-01      1.741094000000000E+02
4883000000.000000      3.937378000000000E-01      3.069238000000000E+01      3.786774000000000E-01      1.732578000000000E+02
4884000000.000000      3.951263000000000E-01      3.057324000000000E+01      3.759003000000000E-01      1.729141000000000E+02
4885000000.000000      3.945313000000000E-01      3.029394000000000E+01      3.728638000000000E-01      1.725234000000000E+02
4886000000.000000      3.954468000000000E-01      3.014160000000000E+01      3.683472000000000E-01      1.720000000000000E+02
4887000000.000000      3.949890000000000E-01      2.975488000000000E+01      3.664551000000000E-01      1.713359000000000E+02
4888000000.000000      3.947601000000000E-01      2.939941000000000E+01      3.619843000000000E-01      1.709375000000000E+02
4889000000.000000      3.952942000000000E-01      2.934961000000000E+01      3.571014000000000E-01      1.704766000000000E+02
4890000000.000000      3.943176000000000E-01      2.909277000000000E+01      3.540955000000000E-01      1.697422000000000E+02
4891000000.000000      3.944092000000000E-01      2.872168000000000E+01      3.504181000000000E-01      1.692422000000000E+02
4892000000.000000      3.944702000000000E-01      2.849804000000000E+01      3.470154000000000E-01      1.691328000000000E+02
4893000000.000000      3.953094000000000E-01      2.840723000000000E+01      3.439941000000000E-01      1.685469000000000E+02
4894000000.000000      3.937683000000000E-01      2.821680000000000E+01      3.393250000000000E-01      1.682734000000000E+02
4895000000.000000      3.955078000000000E-01      2.780566000000000E+01      3.381042000000000E-01      1.678047000000000E+02
4896000000.000000      3.953552000000000E-01      2.770703000000000E+01      3.342743000000000E-01      1.674375000000000E+02
4897000000.000000      3.937836000000000E-01      2.754590000000000E+01      3.301086000000000E-01      1.669688000000000E+02
4898000000.000000      3.951874000000000E-01      2.724707000000000E+01      3.261261000000000E-01      1.666875000000000E+02
4899000000.000000      3.946533000000000E-01      2.702734000000000E+01      3.235321000000000E-01      1.660859000000000E+02
4900000000.000000      3.940582000000000E-01      2.666894000000000E+01      3.200378000000000E-01      1.658437000000000E+02
4901000000.000000      3.939819000000000E-01      2.663086000000000E+01      3.163605000000000E-01      1.653828000000000E+02
4902000000.000000      3.932343000000000E-01      2.643652000000000E+01      3.136292000000000E-01      1.650078000000000E+02
4903000000.000000      3.943024000000000E-01      2.624414000000000E+01      3.092499000000000E-01      1.646406000000000E+02
4904000000.000000      3.931732000000000E-01      2.595508000000000E+01      3.059692000000000E-01      1.640625000000000E+02
4905000000.000000      3.935089000000000E-01      2.560840000000000E+01      3.032379000000000E-01      1.636797000000000E+02
4906000000.000000      3.935242000000000E-01      2.546972000000000E+01      2.995300000000000E-01      1.636641000000000E+02
4907000000.000000      3.936768000000000E-01      2.520508000000000E+01      2.955780000000000E-01      1.630859000000000E+02
4908000000.000000      3.923035000000000E-01      2.505957000000000E+01      2.931061000000000E-01      1.625156000000000E+02
4909000000.000000      3.917084000000000E-01      2.494629000000000E+01      2.890167000000000E-01      1.622813000000000E+02
4910000000.000000      3.911438000000000E-01      2.479687000000000E+01      2.857513000000000E-01      1.619297000000000E+02
4911000000.000000      3.920441000000000E-01      2.468164000000000E+01      2.829895000000000E-01      1.616875000000000E+02
4912000000.000000      3.916473000000000E-01      2.443457000000000E+01      2.789307000000000E-01      1.611328000000000E+02
4913000000.000000      3.915253000000000E-01      2.401562000000000E+01      2.758636000000000E-01      1.606797000000000E+02
4914000000.000000      3.914795000000000E-01      2.392188000000000E+01      2.714081000000000E-01      1.605000000000000E+02
4915000000.000000      3.911285000000000E-01      2.367090000000000E+01      2.670898000000000E-01      1.599219000000000E+02
4916000000.000000      3.905334000000000E-01      2.359668000000000E+01      2.637787000000000E-01      1.597109000000000E+02
4917000000.000000      3.899231000000000E-01      2.329883000000000E+01      2.602234000000000E-01      1.595234000000000E+02
4918000000.000000      3.887482000000000E-01      2.326465000000000E+01      2.559814000000000E-01      1.591250000000000E+02
4919000000.000000      3.892365000000000E-01      2.317676000000000E+01      2.528381000000000E-01      1.589766000000000E+02
4920000000.000000      3.893280000000000E-01      2.287890000000000E+01      2.491379000000000E-01      1.585234000000000E+02
4921000000.000000      3.890686000000000E-01      2.266016000000000E+01      2.455826000000000E-01      1.581875000000000E+02
4922000000.000000      3.890686000000000E-01      2.252832000000000E+01      2.403793000000000E-01      1.581953000000000E+02
4923000000.000000      3.895721000000000E-01      2.240625000000000E+01      2.369919000000000E-01      1.579062000000000E+02
4924000000.000000      3.882904000000000E-01      2.225488000000000E+01      2.325516000000000E-01      1.573984000000000E+02
4925000000.000000      3.878937000000000E-01      2.203711000000000E+01      2.293549000000000E-01      1.573672000000000E+02
4926000000.000000      3.883362000000000E-01      2.199414000000000E+01      2.260132000000000E-01      1.570156000000000E+02
4927000000.000000      3.872375000000000E-01      2.161231000000000E+01      2.216034000000000E-01      1.569687000000000E+02
4928000000.000000      3.884277000000000E-01      2.146973000000000E+01      2.182388000000000E-01      1.568438000000000E+02
4929000000.000000      3.872833000000000E-01      2.119727000000000E+01      2.133331000000000E-01      1.567500000000000E+02
4930000000.000000      3.863373000000000E-01      2.117871000000000E+01      2.098389000000000E-01      1.566875000000000E+02
4931000000.000000      3.862610000000000E-01      2.084179000000000E+01      2.055817000000000E-01      1.564219000000000E+02
4932000000.000000      3.864594000000000E-01      2.079297000000000E+01      2.016373000000000E-01      1.565000000000000E+02
4933000000.000000      3.869019000000000E-01      2.058105000000000E+01      1.968155000000000E-01      1.568828000000000E+02
4934000000.000000      3.871307000000000E-01      2.040430000000000E+01      1.931686000000000E-01      1.565469000000000E+02
4935000000.000000      3.873444000000000E-01      2.023730000000000E+01      1.897812000000000E-01      1.567031000000000E+02
4936000000.000000      3.854065000000000E-01      2.004981000000000E+01      1.853943000000000E-01      1.569141000000000E+02
4937000000.000000      3.853912000000000E-01      1.978027000000000E+01      1.816864000000000E-01      1.569687000000000E+02
4938000000.000000      3.842621000000000E-01      1.979297000000000E+01      1.775665000000000E-01      1.572578000000000E+02
4939000000.000000      3.845367000000000E-01      1.960644000000000E+01      1.736984000000000E-01      1.573672000000000E+02
4940000000.000000      3.847504000000000E-01      1.947168000000000E+01      1.695251000000000E-01      1.577109000000000E+02
4941000000.000000      3.850861000000000E-01      1.921191000000000E+01      1.663513000000000E-01      1.582266000000000E+02
4942000000.000000      3.838196000000000E-01      1.913769000000000E+01      1.622849000000000E-01      1.586016000000000E+02
4943000000.000000      3.838043000000000E-01      1.894140000000000E+01      1.581421000000000E-01      1.590859000000000E+02
4944000000.000000      3.824768000000000E-01      1.877246000000000E+01      1.550140000000000E-01      1.595469000000000E+02
4945000000.000000      3.833466000000000E-01      1.859277000000000E+01      1.509933000000000E-01      1.601875000000000E+02
4946000000.000000      3.829193000000000E-01      1.833008000000000E+01      1.478653000000000E-01      1.608828000000000E+02
4947000000.000000      3.825531000000000E-01      1.820019000000000E+01      1.442184000000000E-01      1.616797000000000E+02
4948000000.000000      3.829803000000000E-01      1.804883000000000E+01      1.413193000000000E-01      1.624922000000000E+02
4949000000.000000      3.813934000000000E-01      1.783984000000000E+01      1.380920000000000E-01      1.635859000000000E+02
4950000000.000000      3.815002000000000E-01      1.781543000000000E+01      1.350708000000000E-01      1.646719000000000E+02
4951000000.000000      3.807220000000000E-01      1.753222000000000E+01      1.320114000000000E-01      1.654687000000000E+02
4952000000.000000      3.810730000000000E-01      1.746387000000000E+01      1.291885000000000E-01      1.667344000000000E+02
4953000000.000000      3.794861000000000E-01      1.723145000000000E+01      1.269150000000000E-01      1.682969000000000E+02
4954000000.000000      3.803864000000000E-01      1.719434000000000E+01      1.241226000000000E-01      1.695234000000000E+02
