! Network Analyzer HP8722D
! Hewlett-Packard
! Data name: Linha & Wilkinson
! Saver's name: Rodrigo Anjos
! Comments: Teste da utilização de aquisição
continua pelo VNA HP8722D
! Time and date: 23/5/2025 07:56
!              Frequency                     S11                                                   S21                                                   S12                                                   S22
# HZ  S  MA R 50
4800000000.000000      4.938965000000000E-01      2.275781000000000E+01      4.221954000000000E-01     -1.104140000000000E+02
4801000000.000000      4.927063000000000E-01      2.275097000000000E+01      4.251404000000000E-01     -1.113320000000000E+02
4802000000.000000      4.921417000000000E-01      2.295996000000000E+01      4.249268000000000E-01     -1.122578000000000E+02
4803000000.000000      4.919128000000000E-01      2.291699000000000E+01      4.284821000000000E-01     -1.125234000000000E+02
4804000000.000000      4.911346000000000E-01      2.320313000000000E+01      4.300232000000000E-01     -1.134258000000000E+02
4805000000.000000      4.912567000000000E-01      2.311914000000000E+01      4.295502000000000E-01     -1.143164000000000E+02
4806000000.000000      4.905853000000000E-01      2.323242000000000E+01      4.310913000000000E-01     -1.150078000000000E+02
4807000000.000000      4.895325000000000E-01      2.324414000000000E+01      4.323273000000000E-01     -1.158906000000000E+02
4808000000.000000      4.892273000000000E-01      2.340332000000000E+01      4.336853000000000E-01     -1.164766000000000E+02
4809000000.000000      4.896393000000000E-01      2.371094000000000E+01      4.347687000000000E-01     -1.175039000000000E+02
4810000000.000000      4.881439000000000E-01      2.369336000000000E+01      4.354706000000000E-01     -1.180976000000000E+02
4811000000.000000      4.893341000000000E-01      2.378808000000000E+01      4.373169000000000E-01     -1.188984000000000E+02
4812000000.000000      4.894714000000000E-01      2.387793000000000E+01      4.395447000000000E-01     -1.195313000000000E+02
4813000000.000000      4.892120000000000E-01      2.394141000000000E+01      4.385986000000000E-01     -1.202617000000000E+02
4814000000.000000      4.883728000000000E-01      2.421387000000000E+01      4.386292000000000E-01     -1.208398000000000E+02
4815000000.000000      4.894867000000000E-01      2.405664000000000E+01      4.388733000000000E-01     -1.217305000000000E+02
4816000000.000000      4.902496000000000E-01      2.414648000000000E+01      4.405518000000000E-01     -1.225352000000000E+02
4817000000.000000      4.888763000000000E-01      2.440722000000000E+01      4.398651000000000E-01     -1.232305000000000E+02
4818000000.000000      4.903412000000000E-01      2.454004000000000E+01      4.405823000000000E-01     -1.238320000000000E+02
4819000000.000000      4.904938000000000E-01      2.441504000000000E+01      4.407959000000000E-01     -1.246055000000000E+02
4820000000.000000      4.916382000000000E-01      2.477636000000000E+01      4.401855000000000E-01     -1.252812000000000E+02
4821000000.000000      4.925232000000000E-01      2.460058000000000E+01      4.406281000000000E-01     -1.262187000000000E+02
4822000000.000000      4.916687000000000E-01      2.463769000000000E+01      4.410858000000000E-01     -1.268633000000000E+02
4823000000.000000      4.944458000000000E-01      2.488379000000000E+01      4.411469000000000E-01     -1.275508000000000E+02
4824000000.000000      4.927368000000000E-01      2.490918000000000E+01      4.401855000000000E-01     -1.282344000000000E+02
4825000000.000000      4.935455000000000E-01      2.504687000000000E+01      4.410858000000000E-01     -1.289063000000000E+02
4826000000.000000      4.942017000000000E-01      2.509766000000000E+01      4.408112000000000E-01     -1.298672000000000E+02
4827000000.000000      4.955444000000000E-01      2.523828000000000E+01      4.413452000000000E-01     -1.304766000000000E+02
4828000000.000000      4.967194000000000E-01      2.520508000000000E+01      4.416504000000000E-01     -1.311172000000000E+02
4829000000.000000      4.981689000000000E-01      2.541406000000000E+01      4.409027000000000E-01     -1.319922000000000E+02
4830000000.000000      4.980164000000000E-01      2.547656000000000E+01      4.400177000000000E-01     -1.326719000000000E+02
4831000000.000000      4.971771000000000E-01      2.546484000000000E+01      4.407501000000000E-01     -1.336953000000000E+02
4832000000.000000      4.994812000000000E-01      2.544629000000000E+01      4.393311000000000E-01     -1.340078000000000E+02
4833000000.000000      4.983215000000000E-01      2.561523000000000E+01      4.402008000000000E-01     -1.346328000000000E+02
4834000000.000000      5.015259000000000E-01      2.557129000000000E+01      4.387970000000000E-01     -1.357109000000000E+02
4835000000.000000      5.029297000000000E-01      2.550586000000000E+01      4.383850000000000E-01     -1.364531000000000E+02
4836000000.000000      5.037842000000000E-01      2.562891000000000E+01      4.380951000000000E-01     -1.371250000000000E+02
4837000000.000000      5.043640000000000E-01      2.573730000000000E+01      4.359589000000000E-01     -1.379844000000000E+02
4838000000.000000      5.040588000000000E-01      2.571875000000000E+01      4.365082000000000E-01     -1.386016000000000E+02
4839000000.000000      5.074463000000000E-01      2.574316000000000E+01      4.353790000000000E-01     -1.391797000000000E+02
4840000000.000000      5.075378000000000E-01      2.565136000000000E+01      4.346161000000000E-01     -1.401094000000000E+02
4841000000.000000      5.086060000000000E-01      2.581055000000000E+01      4.350128000000000E-01     -1.408125000000000E+02
4842000000.000000      5.095520000000000E-01      2.582129000000000E+01      4.333801000000000E-01     -1.414219000000000E+02
4843000000.000000      5.107727000000000E-01      2.580371000000000E+01      4.329529000000000E-01     -1.423047000000000E+02
4844000000.000000      5.134888000000000E-01      2.587207000000000E+01      4.327087000000000E-01     -1.431641000000000E+02
4845000000.000000      5.139160000000000E-01      2.587402000000000E+01      4.315948000000000E-01     -1.440234000000000E+02
4846000000.000000      5.169067000000000E-01      2.593652000000000E+01      4.303436000000000E-01     -1.446328000000000E+02
4847000000.000000      5.179749000000000E-01      2.588086000000000E+01      4.284515000000000E-01     -1.451562000000000E+02
4848000000.000000      5.167236000000000E-01      2.568262000000000E+01      4.263153000000000E-01     -1.462031000000000E+02
4849000000.000000      5.180664000000000E-01      2.563379000000000E+01      4.255219000000000E-01     -1.468281000000000E+02
4850000000.000000      5.202332000000000E-01      2.557617000000000E+01      4.241638000000000E-01     -1.477969000000000E+02
4851000000.000000      5.223694000000000E-01      2.586719000000000E+01      4.243774000000000E-01     -1.485391000000000E+02
4852000000.000000      5.229492000000000E-01      2.563769000000000E+01      4.209137000000000E-01     -1.491797000000000E+02
4853000000.000000      5.258789000000000E-01      2.556152000000000E+01      4.176636000000000E-01     -1.498750000000000E+02
4854000000.000000      5.247498000000000E-01      2.552929000000000E+01      4.171295000000000E-01     -1.507031000000000E+02
4855000000.000000      5.274658000000000E-01      2.546679000000000E+01      4.162140000000000E-01     -1.515391000000000E+02
4856000000.000000      5.279541000000000E-01      2.548340000000000E+01      4.136353000000000E-01     -1.522969000000000E+02
4857000000.000000      5.292969000000000E-01      2.522558000000000E+01      4.111786000000000E-01     -1.531328000000000E+02
4858000000.000000      5.305481000000000E-01      2.522656000000000E+01      4.088440000000000E-01     -1.538828000000000E+02
4859000000.000000      5.317078000000000E-01      2.516113000000000E+01      4.069214000000000E-01     -1.547656000000000E+02
4860000000.000000      5.327759000000000E-01      2.517578000000000E+01      4.043121000000000E-01     -1.553047000000000E+02
4861000000.000000      5.335999000000000E-01      2.520215000000000E+01      4.022522000000000E-01     -1.561406000000000E+02
4862000000.000000      5.334473000000000E-01      2.484766000000000E+01      3.998260000000000E-01     -1.567266000000000E+02
4863000000.000000      5.345154000000000E-01      2.494922000000000E+01      3.955994000000000E-01     -1.577031000000000E+02
4864000000.000000      5.368652000000000E-01      2.470508000000000E+01      3.928223000000000E-01     -1.581640000000000E+02
4865000000.000000      5.382385000000000E-01      2.464062000000000E+01      3.903656000000000E-01     -1.588828000000000E+02
4866000000.000000      5.404053000000000E-01      2.476953000000000E+01      3.873138000000000E-01     -1.600000000000000E+02
4867000000.000000      5.395203000000000E-01      2.446777000000000E+01      3.850403000000000E-01     -1.606953000000000E+02
4868000000.000000      5.408325000000000E-01      2.429688000000000E+01      3.823395000000000E-01     -1.611797000000000E+02
4869000000.000000      5.426025000000000E-01      2.426660000000000E+01      3.778534000000000E-01     -1.620234000000000E+02
4870000000.000000      5.420532000000000E-01      2.420117000000000E+01      3.740234000000000E-01     -1.628828000000000E+02
4871000000.000000      5.437927000000000E-01      2.401953000000000E+01      3.720856000000000E-01     -1.635703000000000E+02
4872000000.000000      5.475464000000000E-01      2.404004000000000E+01      3.676300000000000E-01     -1.638281000000000E+02
4873000000.000000      5.475159000000000E-01      2.375195000000000E+01      3.642578000000000E-01     -1.650234000000000E+02
4874000000.000000      5.473328000000000E-01      2.383008000000000E+01      3.614502000000000E-01     -1.654844000000000E+02
4875000000.000000      5.480652000000000E-01      2.367480000000000E+01      3.572998000000000E-01     -1.660000000000000E+02
4876000000.000000      5.493164000000000E-01      2.354004000000000E+01      3.554993000000000E-01     -1.666484000000000E+02
4877000000.000000      5.513000000000000E-01      2.323925000000000E+01      3.503571000000000E-01     -1.672031000000000E+02
4878000000.000000      5.491333000000000E-01      2.337109000000000E+01      3.471985000000000E-01     -1.677656000000000E+02
4879000000.000000      5.518799000000000E-01      2.314258000000000E+01      3.425751000000000E-01     -1.684141000000000E+02
4880000000.000000      5.543518000000000E-01      2.279785000000000E+01      3.403473000000000E-01     -1.689844000000000E+02
4881000000.000000      5.538940000000000E-01      2.290722000000000E+01      3.367767000000000E-01     -1.696797000000000E+02
4882000000.000000      5.545044000000000E-01      2.294824000000000E+01      3.338318000000000E-01     -1.700469000000000E+02
4883000000.000000      5.534058000000000E-01      2.241992000000000E+01      3.286591000000000E-01     -1.705625000000000E+02
4884000000.000000      5.559082000000000E-01      2.253613000000000E+01      3.254395000000000E-01     -1.712734000000000E+02
4885000000.000000      5.583496000000000E-01      2.238867000000000E+01      3.221130000000000E-01     -1.715078000000000E+02
4886000000.000000      5.585938000000000E-01      2.221972000000000E+01      3.195801000000000E-01     -1.721172000000000E+02
4887000000.000000      5.585632000000000E-01      2.221386000000000E+01      3.164368000000000E-01     -1.726406000000000E+02
4888000000.000000      5.586243000000000E-01      2.198437000000000E+01      3.131104000000000E-01     -1.731172000000000E+02
4889000000.000000      5.577087000000000E-01      2.181933000000000E+01      3.085938000000000E-01     -1.735703000000000E+02
4890000000.000000      5.591736000000000E-01      2.165527000000000E+01      3.050385000000000E-01     -1.741797000000000E+02
4891000000.000000      5.615845000000000E-01      2.173144000000000E+01      3.021240000000000E-01     -1.746875000000000E+02
4892000000.000000      5.600586000000000E-01      2.156836000000000E+01      2.983398000000000E-01     -1.747969000000000E+02
4893000000.000000      5.618286000000000E-01      2.126660000000000E+01      2.942200000000000E-01     -1.754453000000000E+02
4894000000.000000      5.615845000000000E-01      2.109375000000000E+01      2.904663000000000E-01     -1.757813000000000E+02
4895000000.000000      5.634766000000000E-01      2.079004000000000E+01      2.886810000000000E-01     -1.761172000000000E+02
4896000000.000000      5.618286000000000E-01      2.098633000000000E+01      2.842255000000000E-01     -1.765625000000000E+02
4897000000.000000      5.631714000000000E-01      2.083106000000000E+01      2.805328000000000E-01     -1.769766000000000E+02
4898000000.000000      5.634766000000000E-01      2.055664000000000E+01      2.784729000000000E-01     -1.772266000000000E+02
4899000000.000000      5.641479000000000E-01      2.044824000000000E+01      2.746277000000000E-01     -1.777109000000000E+02
4900000000.000000      5.644226000000000E-01      2.033789000000000E+01      2.718506000000000E-01     -1.778594000000000E+02
4901000000.000000      5.629883000000000E-01      2.022363000000000E+01      2.682190000000000E-01     -1.782734000000000E+02
4902000000.000000      5.660706000000000E-01      1.990234000000000E+01      2.658081000000000E-01     -1.786719000000000E+02
4903000000.000000      5.658569000000000E-01      1.991113000000000E+01      2.616272000000000E-01     -1.789687000000000E+02
4904000000.000000      5.668030000000000E-01      1.998340000000000E+01      2.583008000000000E-01     -1.794141000000000E+02
4905000000.000000      5.663147000000000E-01      1.969922000000000E+01      2.560883000000000E-01     -1.799062000000000E+02
4906000000.000000      5.661316000000000E-01      1.960742000000000E+01      2.523041000000000E-01     -1.797812000000000E+02
4907000000.000000      5.659485000000000E-01      1.923340000000000E+01      2.502136000000000E-01      1.795703000000000E+02
4908000000.000000      5.665894000000000E-01      1.909472000000000E+01      2.473526000000000E-01      1.791094000000000E+02
4909000000.000000      5.666199000000000E-01      1.929980000000000E+01      2.434158000000000E-01      1.789219000000000E+02
4910000000.000000      5.677795000000000E-01      1.906348000000000E+01      2.407608000000000E-01      1.788047000000000E+02
4911000000.000000      5.684509000000000E-01      1.883594000000000E+01      2.378540000000000E-01      1.781250000000000E+02
4912000000.000000      5.667419000000000E-01      1.877930000000000E+01      2.344131000000000E-01      1.779531000000000E+02
4913000000.000000      5.678406000000000E-01      1.857617000000000E+01      2.308578000000000E-01      1.775078000000000E+02
4914000000.000000      5.696411000000000E-01      1.860449000000000E+01      2.273026000000000E-01      1.772734000000000E+02
4915000000.000000      5.686035000000000E-01      1.848535000000000E+01      2.242203000000000E-01      1.769219000000000E+02
4916000000.000000      5.684814000000000E-01      1.840137000000000E+01      2.214050000000000E-01      1.766250000000000E+02
4917000000.000000      5.691528000000000E-01      1.811719000000000E+01      2.180176000000000E-01      1.765156000000000E+02
4918000000.000000      5.677185000000000E-01      1.797070000000000E+01      2.140579000000000E-01      1.760781000000000E+02
4919000000.000000      5.691833000000000E-01      1.809961000000000E+01      2.113724000000000E-01      1.760078000000000E+02
4920000000.000000      5.692139000000000E-01      1.790137000000000E+01      2.076950000000000E-01      1.756250000000000E+02
4921000000.000000      5.696411000000000E-01      1.777832000000000E+01      2.050934000000000E-01      1.755781000000000E+02
4922000000.000000      5.708313000000000E-01      1.754980000000000E+01      2.013931000000000E-01      1.754297000000000E+02
4923000000.000000      5.683899000000000E-01      1.754492000000000E+01      1.974869000000000E-01      1.751094000000000E+02
4924000000.000000      5.698853000000000E-01      1.729492000000000E+01      1.945267000000000E-01      1.748125000000000E+02
4925000000.000000      5.701599000000000E-01      1.721191000000000E+01      1.913834000000000E-01      1.746562000000000E+02
4926000000.000000      5.710144000000000E-01      1.692578000000000E+01      1.878967000000000E-01      1.745547000000000E+02
4927000000.000000      5.706787000000000E-01      1.701562000000000E+01      1.841736000000000E-01      1.745391000000000E+02
4928000000.000000      5.719604000000000E-01      1.688965000000000E+01      1.808929000000000E-01      1.744688000000000E+02
4929000000.000000      5.712280000000000E-01      1.659277000000000E+01      1.778412000000000E-01      1.745078000000000E+02
4930000000.000000      5.702209000000000E-01      1.645410000000000E+01      1.740646000000000E-01      1.743594000000000E+02
4931000000.000000      5.701904000000000E-01      1.640625000000000E+01      1.704407000000000E-01      1.741875000000000E+02
4932000000.000000      5.714722000000000E-01      1.631445000000000E+01      1.673355000000000E-01      1.744219000000000E+02
4933000000.000000      5.718384000000000E-01      1.610449000000000E+01      1.632690000000000E-01      1.746562000000000E+02
4934000000.000000      5.723572000000000E-01      1.597803000000000E+01      1.602173000000000E-01      1.744375000000000E+02
4935000000.000000      5.731506000000000E-01      1.582813000000000E+01      1.569443000000000E-01      1.749453000000000E+02
4936000000.000000      5.709229000000000E-01      1.575293000000000E+01      1.537476000000000E-01      1.751094000000000E+02
4937000000.000000      5.719299000000000E-01      1.571729000000000E+01      1.502380000000000E-01      1.751328000000000E+02
4938000000.000000      5.723877000000000E-01      1.563477000000000E+01      1.466904000000000E-01      1.757266000000000E+02
4939000000.000000      5.717468000000000E-01      1.571973000000000E+01      1.436539000000000E-01      1.760313000000000E+02
4940000000.000000      5.711060000000000E-01      1.555371000000000E+01      1.401672000000000E-01      1.763125000000000E+02
4941000000.000000      5.723267000000000E-01      1.520508000000000E+01      1.373062000000000E-01      1.768281000000000E+02
4942000000.000000      5.715027000000000E-01      1.538867000000000E+01      1.341476000000000E-01      1.773594000000000E+02
4943000000.000000      5.726318000000000E-01      1.514600000000000E+01      1.312561000000000E-01      1.779531000000000E+02
4944000000.000000      5.724487000000000E-01      1.478760000000000E+01      1.283798000000000E-01      1.787500000000000E+02
4945000000.000000      5.733948000000000E-01      1.458252000000000E+01      1.251373000000000E-01      1.794297000000000E+02
4946000000.000000      5.732422000000000E-01      1.477637000000000E+01      1.222076000000000E-01     -1.797422000000000E+02
4947000000.000000      5.722351000000000E-01      1.471582000000000E+01      1.194725000000000E-01     -1.787578000000000E+02
4948000000.000000      5.751038000000000E-01      1.454688000000000E+01      1.172409000000000E-01     -1.778906000000000E+02
4949000000.000000      5.733337000000000E-01      1.439893000000000E+01      1.143799000000000E-01     -1.765547000000000E+02
4950000000.000000      5.733032000000000E-01      1.428467000000000E+01      1.118240000000000E-01     -1.753828000000000E+02
4951000000.000000      5.737915000000000E-01      1.411328000000000E+01      1.097450000000000E-01     -1.745703000000000E+02
4952000000.000000      5.741272000000000E-01      1.397314000000000E+01      1.077156000000000E-01     -1.731250000000000E+02
4953000000.000000      5.734558000000000E-01      1.377246000000000E+01      1.060486000000000E-01     -1.716172000000000E+02
4954000000.000000      5.732727000000000E-01      1.374902000000000E+01      1.040878000000000E-01     -1.702188000000000E+02
