! Network Analyzer HP8722D
! Hewlett-Packard
! Data name: Linha & Wilkinson
! Saver's name: Rodrigo Anjos
! Comments: Teste da utilização de aquisição
continua pelo VNA HP8722D
! Time and date: 23/5/2025 07:47
!              Frequency                     S11                                                   S21                                                   S12                                                   S22
# HZ  S  MA R 50
4800000000.000000      6.432190000000000E-01      1.034180000000000E+01      4.757843000000000E-01     -9.377344000000000E+01
4801000000.000000      6.420288000000000E-01      1.065527000000000E+01      4.767761000000000E-01     -9.441406000000000E+01
4802000000.000000      6.397095000000000E-01      1.041895000000000E+01      4.768524000000000E-01     -9.517969000000000E+01
4803000000.000000      6.364746000000000E-01      1.056738000000000E+01      4.801788000000000E-01     -9.580469000000000E+01
4804000000.000000      6.386719000000000E-01      1.053857000000000E+01      4.823608000000000E-01     -9.678123000000000E+01
4805000000.000000      6.369629000000000E-01      1.043945000000000E+01      4.827271000000000E-01     -9.766405000000000E+01
4806000000.000000      6.344604000000000E-01      1.054248000000000E+01      4.839783000000000E-01     -9.803514000000000E+01
4807000000.000000      6.316223000000000E-01      1.054541000000000E+01      4.850311000000000E-01     -9.909765000000000E+01
4808000000.000000      6.297913000000000E-01      1.050537000000000E+01      4.880524000000000E-01     -9.970312000000000E+01
4809000000.000000      6.286011000000000E-01      1.064404000000000E+01      4.868774000000000E-01     -1.005625000000000E+02
4810000000.000000      6.271667000000000E-01      1.077441000000000E+01      4.896240000000000E-01     -1.011172000000000E+02
4811000000.000000      6.252136000000000E-01      1.075684000000000E+01      4.918213000000000E-01     -1.020351000000000E+02
4812000000.000000      6.266174000000000E-01      1.090527000000000E+01      4.910583000000000E-01     -1.027539000000000E+02
4813000000.000000      6.231079000000000E-01      1.093799000000000E+01      4.937897000000000E-01     -1.036289000000000E+02
4814000000.000000      6.194763000000000E-01      1.088574000000000E+01      4.957123000000000E-01     -1.041914000000000E+02
4815000000.000000      6.212463000000000E-01      1.102588000000000E+01      4.948730000000000E-01     -1.050273000000000E+02
4816000000.000000      6.192017000000000E-01      1.102881000000000E+01      4.951019000000000E-01     -1.058125000000000E+02
4817000000.000000      6.177979000000000E-01      1.119336000000000E+01      4.962616000000000E-01     -1.066758000000000E+02
4818000000.000000      6.172791000000000E-01      1.118506000000000E+01      4.970245000000000E-01     -1.072305000000000E+02
4819000000.000000      6.164246000000000E-01      1.133350000000000E+01      4.963531000000000E-01     -1.080312000000000E+02
4820000000.000000      6.149292000000000E-01      1.130859000000000E+01      4.981689000000000E-01     -1.085976000000000E+02
4821000000.000000      6.149902000000000E-01      1.150928000000000E+01      4.985046000000000E-01     -1.096094000000000E+02
4822000000.000000      6.130371000000000E-01      1.152832000000000E+01      4.968109000000000E-01     -1.103047000000000E+02
4823000000.000000      6.138306000000000E-01      1.153662000000000E+01      4.990540000000000E-01     -1.112148000000000E+02
4824000000.000000      6.105042000000000E-01      1.164941000000000E+01      4.990692000000000E-01     -1.118125000000000E+02
4825000000.000000      6.108704000000000E-01      1.176318000000000E+01      4.988556000000000E-01     -1.124141000000000E+02
4826000000.000000      6.106262000000000E-01      1.172900000000000E+01      4.986725000000000E-01     -1.133711000000000E+02
4827000000.000000      6.106873000000000E-01      1.204492000000000E+01      4.990845000000000E-01     -1.141055000000000E+02
4828000000.000000      6.088562000000000E-01      1.222217000000000E+01      4.999237000000000E-01     -1.148320000000000E+02
4829000000.000000      6.103516000000000E-01      1.233740000000000E+01      4.993896000000000E-01     -1.156094000000000E+02
4830000000.000000      6.116333000000000E-01      1.232910000000000E+01      4.999237000000000E-01     -1.163750000000000E+02
4831000000.000000      6.091003000000000E-01      1.244580000000000E+01      5.008240000000000E-01     -1.172422000000000E+02
4832000000.000000      6.089783000000000E-01      1.284570000000000E+01      4.995728000000000E-01     -1.178594000000000E+02
4833000000.000000      6.067505000000000E-01      1.278076000000000E+01      4.981689000000000E-01     -1.185000000000000E+02
4834000000.000000      6.089478000000000E-01      1.280713000000000E+01      4.984894000000000E-01     -1.193750000000000E+02
4835000000.000000      6.094360000000000E-01      1.296777000000000E+01      4.984436000000000E-01     -1.203086000000000E+02
4836000000.000000      6.083984000000000E-01      1.314746000000000E+01      4.971771000000000E-01     -1.209766000000000E+02
4837000000.000000      6.072693000000000E-01      1.319971000000000E+01      4.976654000000000E-01     -1.217461000000000E+02
4838000000.000000      6.076355000000000E-01      1.337402000000000E+01      4.967194000000000E-01     -1.224180000000000E+02
4839000000.000000      6.129150000000000E-01      1.352930000000000E+01      4.969482000000000E-01     -1.232305000000000E+02
4840000000.000000      6.105042000000000E-01      1.346094000000000E+01      4.953308000000000E-01     -1.238750000000000E+02
4841000000.000000      6.095581000000000E-01      1.373389000000000E+01      4.949493000000000E-01     -1.248633000000000E+02
4842000000.000000      6.094055000000000E-01      1.361182000000000E+01      4.952698000000000E-01     -1.257539000000000E+02
4843000000.000000      6.137085000000000E-01      1.370264000000000E+01      4.938507000000000E-01     -1.266875000000000E+02
4844000000.000000      6.130066000000000E-01      1.376709000000000E+01      4.922028000000000E-01     -1.273476000000000E+02
4845000000.000000      6.136475000000000E-01      1.390039000000000E+01      4.920807000000000E-01     -1.282031000000000E+02
4846000000.000000      6.159973000000000E-01      1.403076000000000E+01      4.908752000000000E-01     -1.290000000000000E+02
4847000000.000000      6.167603000000000E-01      1.410059000000000E+01      4.891052000000000E-01     -1.298750000000000E+02
4848000000.000000      6.145935000000000E-01      1.408154000000000E+01      4.860992000000000E-01     -1.306953000000000E+02
4849000000.000000      6.163330000000000E-01      1.404980000000000E+01      4.854736000000000E-01     -1.315547000000000E+02
4850000000.000000      6.168518000000000E-01      1.420898000000000E+01      4.837799000000000E-01     -1.324375000000000E+02
4851000000.000000      6.181641000000000E-01      1.430127000000000E+01      4.827728000000000E-01     -1.332578000000000E+02
4852000000.000000      6.195984000000000E-01      1.438916000000000E+01      4.799805000000000E-01     -1.340156000000000E+02
4853000000.000000      6.217346000000000E-01      1.440576000000000E+01      4.764557000000000E-01     -1.348359000000000E+02
4854000000.000000      6.220093000000000E-01      1.452930000000000E+01      4.755707000000000E-01     -1.358203000000000E+02
4855000000.000000      6.234741000000000E-01      1.439063000000000E+01      4.729614000000000E-01     -1.366250000000000E+02
4856000000.000000      6.247559000000000E-01      1.456885000000000E+01      4.704895000000000E-01     -1.375469000000000E+02
4857000000.000000      6.266785000000000E-01      1.474219000000000E+01      4.684296000000000E-01     -1.382031000000000E+02
4858000000.000000      6.240540000000000E-01      1.468311000000000E+01      4.643097000000000E-01     -1.391797000000000E+02
4859000000.000000      6.277466000000000E-01      1.452930000000000E+01      4.631958000000000E-01     -1.401719000000000E+02
4860000000.000000      6.275330000000000E-01      1.464307000000000E+01      4.586334000000000E-01     -1.407266000000000E+02
4861000000.000000      6.297913000000000E-01      1.467334000000000E+01      4.561615000000000E-01     -1.417344000000000E+02
4862000000.000000      6.309509000000000E-01      1.475977000000000E+01      4.530792000000000E-01     -1.423437000000000E+02
4863000000.000000      6.323547000000000E-01      1.463232000000000E+01      4.483490000000000E-01     -1.432266000000000E+02
4864000000.000000      6.342773000000000E-01      1.459229000000000E+01      4.459686000000000E-01     -1.439453000000000E+02
4865000000.000000      6.343994000000000E-01      1.463916000000000E+01      4.417419000000000E-01     -1.448203000000000E+02
4866000000.000000      6.370544000000000E-01      1.462256000000000E+01      4.375916000000000E-01     -1.457969000000000E+02
4867000000.000000      6.357117000000000E-01      1.461865000000000E+01      4.343872000000000E-01     -1.465391000000000E+02
4868000000.000000      6.387939000000000E-01      1.453613000000000E+01      4.312134000000000E-01     -1.472812000000000E+02
4869000000.000000      6.398926000000000E-01      1.454150000000000E+01      4.259644000000000E-01     -1.480781000000000E+02
4870000000.000000      6.394958000000000E-01      1.457568000000000E+01      4.224854000000000E-01     -1.485312000000000E+02
4871000000.000000      6.422119000000000E-01      1.451563000000000E+01      4.169006000000000E-01     -1.495391000000000E+02
4872000000.000000      6.441345000000000E-01      1.443604000000000E+01      4.131622000000000E-01     -1.499844000000000E+02
4873000000.000000      6.446533000000000E-01      1.452637000000000E+01      4.090118000000000E-01     -1.508203000000000E+02
4874000000.000000      6.464844000000000E-01      1.473096000000000E+01      4.040222000000000E-01     -1.515859000000000E+02
4875000000.000000      6.489258000000000E-01      1.434229000000000E+01      3.991089000000000E-01     -1.521016000000000E+02
4876000000.000000      6.497803000000000E-01      1.436719000000000E+01      3.956299000000000E-01     -1.527578000000000E+02
4877000000.000000      6.490784000000000E-01      1.419971000000000E+01      3.918610000000000E-01     -1.534531000000000E+02
4878000000.000000      6.496887000000000E-01      1.410645000000000E+01      3.862915000000000E-01     -1.540313000000000E+02
4879000000.000000      6.533813000000000E-01      1.425195000000000E+01      3.816223000000000E-01     -1.544062000000000E+02
4880000000.000000      6.546936000000000E-01      1.412695000000000E+01      3.783264000000000E-01     -1.551016000000000E+02
4881000000.000000      6.573486000000000E-01      1.412256000000000E+01      3.737335000000000E-01     -1.556250000000000E+02
4882000000.000000      6.568298000000000E-01      1.410645000000000E+01      3.691711000000000E-01     -1.562422000000000E+02
4883000000.000000      6.577759000000000E-01      1.379053000000000E+01      3.641357000000000E-01     -1.567109000000000E+02
4884000000.000000      6.585693000000000E-01      1.388525000000000E+01      3.603668000000000E-01     -1.573047000000000E+02
4885000000.000000      6.600342000000000E-01      1.383984000000000E+01      3.554840000000000E-01     -1.575078000000000E+02
4886000000.000000      6.628723000000000E-01      1.382324000000000E+01      3.524170000000000E-01     -1.580312000000000E+02
4887000000.000000      6.628418000000000E-01      1.374219000000000E+01      3.491516000000000E-01     -1.586562000000000E+02
4888000000.000000      6.642456000000000E-01      1.358008000000000E+01      3.446350000000000E-01     -1.593594000000000E+02
4889000000.000000      6.647339000000000E-01      1.335107000000000E+01      3.394012000000000E-01     -1.594844000000000E+02
4890000000.000000      6.641541000000000E-01      1.328516000000000E+01      3.351288000000000E-01     -1.603281000000000E+02
4891000000.000000      6.646729000000000E-01      1.343750000000000E+01      3.306580000000000E-01     -1.605469000000000E+02
4892000000.000000      6.665649000000000E-01      1.329199000000000E+01      3.275452000000000E-01     -1.608750000000000E+02
4893000000.000000      6.660767000000000E-01      1.309424000000000E+01      3.224335000000000E-01     -1.615781000000000E+02
4894000000.000000      6.682434000000000E-01      1.323682000000000E+01      3.184052000000000E-01     -1.616406000000000E+02
4895000000.000000      6.683044000000000E-01      1.298291000000000E+01      3.163910000000000E-01     -1.620078000000000E+02
4896000000.000000      6.702271000000000E-01      1.284277000000000E+01      3.114471000000000E-01     -1.624141000000000E+02
4897000000.000000      6.722717000000000E-01      1.286865000000000E+01      3.083954000000000E-01     -1.626562000000000E+02
4898000000.000000      6.729431000000000E-01      1.278223000000000E+01      3.039703000000000E-01     -1.629609000000000E+02
4899000000.000000      6.734314000000000E-01      1.264795000000000E+01      3.008423000000000E-01     -1.634531000000000E+02
4900000000.000000      6.752319000000000E-01      1.255029000000000E+01      2.970428000000000E-01     -1.637344000000000E+02
4901000000.000000      6.749573000000000E-01      1.243652000000000E+01      2.936249000000000E-01     -1.641094000000000E+02
4902000000.000000      6.726990000000000E-01      1.230322000000000E+01      2.904968000000000E-01     -1.643594000000000E+02
4903000000.000000      6.759949000000000E-01      1.228125000000000E+01      2.858429000000000E-01     -1.645625000000000E+02
4904000000.000000      6.773987000000000E-01      1.211768000000000E+01      2.826385000000000E-01     -1.651016000000000E+02
4905000000.000000      6.775818000000000E-01      1.200928000000000E+01      2.790222000000000E-01     -1.653281000000000E+02
4906000000.000000      6.770935000000000E-01      1.187207000000000E+01      2.758484000000000E-01     -1.654844000000000E+02
4907000000.000000      6.811829000000000E-01      1.182910000000000E+01      2.724152000000000E-01     -1.660625000000000E+02
4908000000.000000      6.820374000000000E-01      1.176318000000000E+01      2.688446000000000E-01     -1.665234000000000E+02
4909000000.000000      6.806335000000000E-01      1.168115000000000E+01      2.653503000000000E-01     -1.665234000000000E+02
4910000000.000000      6.791382000000000E-01      1.150781000000000E+01      2.614746000000000E-01     -1.668516000000000E+02
4911000000.000000      6.825867000000000E-01      1.146826000000000E+01      2.586670000000000E-01     -1.671328000000000E+02
4912000000.000000      6.822815000000000E-01      1.139111000000000E+01      2.548370000000000E-01     -1.674922000000000E+02
4913000000.000000      6.847229000000000E-01      1.130859000000000E+01      2.509766000000000E-01     -1.677656000000000E+02
4914000000.000000      6.855164000000000E-01      1.105322000000000E+01      2.472534000000000E-01     -1.680547000000000E+02
4915000000.000000      6.861572000000000E-01      1.108887000000000E+01      2.436829000000000E-01     -1.683672000000000E+02
4916000000.000000      6.854553000000000E-01      1.090625000000000E+01      2.403717000000000E-01     -1.686719000000000E+02
4917000000.000000      6.848450000000000E-01      1.085156000000000E+01      2.372894000000000E-01     -1.688203000000000E+02
4918000000.000000      6.856995000000000E-01      1.078564000000000E+01      2.340240000000000E-01     -1.691484000000000E+02
4919000000.000000      6.856079000000000E-01      1.073340000000000E+01      2.297592000000000E-01     -1.691797000000000E+02
4920000000.000000      6.872559000000000E-01      1.067041000000000E+01      2.261505000000000E-01     -1.697344000000000E+02
4921000000.000000      6.853027000000000E-01      1.049023000000000E+01      2.230072000000000E-01     -1.698203000000000E+02
4922000000.000000      6.878662000000000E-01      1.052881000000000E+01      2.189789000000000E-01     -1.700000000000000E+02
4923000000.000000      6.892090000000000E-01      1.032129000000000E+01      2.150192000000000E-01     -1.699219000000000E+02
4924000000.000000      6.886597000000000E-01      1.017041000000000E+01      2.113266000000000E-01     -1.703750000000000E+02
4925000000.000000      6.901550000000000E-01      9.978027000000000E+00      2.075806000000000E-01     -1.704062000000000E+02
4926000000.000000      6.901550000000000E-01      9.925781000000000E+00      2.039261000000000E-01     -1.703594000000000E+02
4927000000.000000      6.894836000000000E-01      9.778809000000000E+00      1.999664000000000E-01     -1.708281000000000E+02
4928000000.000000      6.928101000000000E-01      9.795410000000000E+00      1.966553000000000E-01     -1.707500000000000E+02
4929000000.000000      6.929626000000000E-01      9.711914000000000E+00      1.924820000000000E-01     -1.706563000000000E+02
4930000000.000000      6.916504000000000E-01      9.538574000000000E+00      1.889038000000000E-01     -1.708281000000000E+02
4931000000.000000      6.905518000000000E-01      9.430176000000000E+00      1.855240000000000E-01     -1.705859000000000E+02
4932000000.000000      6.939697000000000E-01      9.556641000000000E+00      1.818237000000000E-01     -1.705859000000000E+02
4933000000.000000      6.941528000000000E-01      9.250488000000000E+00      1.769638000000000E-01     -1.703984000000000E+02
4934000000.000000      6.937866000000000E-01      9.053711000000000E+00      1.739655000000000E-01     -1.706406000000000E+02
4935000000.000000      6.943665000000000E-01      8.963379000000000E+00      1.706238000000000E-01     -1.700938000000000E+02
4936000000.000000      6.924133000000000E-01      8.855957000000000E+00      1.666718000000000E-01     -1.697656000000000E+02
4937000000.000000      6.959534000000000E-01      8.742188000000000E+00      1.632919000000000E-01     -1.697266000000000E+02
4938000000.000000      6.945190000000000E-01      8.820313000000000E+00      1.593323000000000E-01     -1.694766000000000E+02
4939000000.000000      6.950684000000000E-01      8.836914000000000E+00      1.560135000000000E-01     -1.688047000000000E+02
4940000000.000000      6.978760000000000E-01      8.576172000000000E+00      1.525269000000000E-01     -1.687578000000000E+02
4941000000.000000      6.979370000000000E-01      8.520996000000000E+00      1.490097000000000E-01     -1.680312000000000E+02
4942000000.000000      6.973572000000000E-01      8.398926000000000E+00      1.455917000000000E-01     -1.676641000000000E+02
4943000000.000000      6.975403000000000E-01      8.186035000000000E+00      1.419525000000000E-01     -1.669531000000000E+02
4944000000.000000      6.973877000000000E-01      7.973145000000000E+00      1.390305000000000E-01     -1.662188000000000E+02
4945000000.000000      6.988525000000000E-01      8.228516000000000E+00      1.356964000000000E-01     -1.656797000000000E+02
4946000000.000000      6.998901000000000E-01      7.937500000000000E+00      1.323395000000000E-01     -1.647500000000000E+02
4947000000.000000      6.983948000000000E-01      7.873047000000000E+00      1.295547000000000E-01     -1.637656000000000E+02
4948000000.000000      7.026062000000000E-01      7.918213000000000E+00      1.272125000000000E-01     -1.627266000000000E+02
4949000000.000000      6.996155000000000E-01      7.521484000000000E+00      1.243973000000000E-01     -1.615078000000000E+02
4950000000.000000      7.008667000000000E-01      7.649170000000000E+00      1.215401000000000E-01     -1.604375000000000E+02
4951000000.000000      7.004395000000000E-01      7.517334000000000E+00      1.189423000000000E-01     -1.592422000000000E+02
4952000000.000000      7.011108000000000E-01      7.640869000000000E+00      1.163673000000000E-01     -1.578672000000000E+02
4953000000.000000      7.014160000000000E-01      7.355225000000000E+00      1.148872000000000E-01     -1.563437000000000E+02
4954000000.000000      7.040405000000000E-01      7.201416000000000E+00      1.128273000000000E-01     -1.548359000000000E+02
