! Network Analyzer HP8722D
! Hewlett-Packard
! Data name: Linha & Wilkinson
! Saver's name: Rodrigo Anjos
! Comments: Teste da utilização de aquisição
continua pelo VNA HP8722D
! Time and date: 23/5/2025 13:30
!              Frequency                     S11                                                   S21                                                   S12                                                   S22
# HZ  S  MA R 50
4800000000.000000      2.904510000000000E-01      3.954102000000000E+01      4.842682000000000E-01     -1.297188000000000E+02
4801000000.000000      2.918243000000000E-01      3.976953000000000E+01      4.842529000000000E-01     -1.303984000000000E+02
4802000000.000000      2.930756000000000E-01      3.991992000000000E+01      4.860687000000000E-01     -1.309687000000000E+02
4803000000.000000      2.937775000000000E-01      4.014648000000000E+01      4.895172000000000E-01     -1.315938000000000E+02
4804000000.000000      2.948151000000000E-01      4.045117000000000E+01      4.899292000000000E-01     -1.323672000000000E+02
4805000000.000000      2.970734000000000E-01      4.042969000000000E+01      4.919281000000000E-01     -1.333437000000000E+02
4806000000.000000      2.978363000000000E-01      4.058789000000000E+01      4.923248000000000E-01     -1.340391000000000E+02
4807000000.000000      2.992554000000000E-01      4.082812000000000E+01      4.934540000000000E-01     -1.347422000000000E+02
4808000000.000000      3.002167000000000E-01      4.097265000000000E+01      4.951019000000000E-01     -1.353672000000000E+02
4809000000.000000      3.017426000000000E-01      4.121094000000000E+01      4.953918000000000E-01     -1.362187000000000E+02
4810000000.000000      3.034515000000000E-01      4.134961000000000E+01      4.971313000000000E-01     -1.368984000000000E+02
4811000000.000000      3.052063000000000E-01      4.143555000000000E+01      4.982758000000000E-01     -1.378125000000000E+02
4812000000.000000      3.071899000000000E-01      4.167773000000000E+01      4.983978000000000E-01     -1.384687000000000E+02
4813000000.000000      3.082886000000000E-01      4.172852000000000E+01      4.992676000000000E-01     -1.392578000000000E+02
4814000000.000000      3.095856000000000E-01      4.178906000000000E+01      5.001831000000000E-01     -1.397344000000000E+02
4815000000.000000      3.115082000000000E-01      4.187890000000000E+01      5.007629000000000E-01     -1.406094000000000E+02
4816000000.000000      3.136597000000000E-01      4.202929000000000E+01      5.022278000000000E-01     -1.412422000000000E+02
4817000000.000000      3.146973000000000E-01      4.207812000000000E+01      5.016174000000000E-01     -1.420703000000000E+02
4818000000.000000      3.167114000000000E-01      4.208398000000000E+01      5.021667000000000E-01     -1.427656000000000E+02
4819000000.000000      3.185883000000000E-01      4.208398000000000E+01      5.027161000000000E-01     -1.434531000000000E+02
4820000000.000000      3.197479000000000E-01      4.211719000000000E+01      5.024719000000000E-01     -1.440859000000000E+02
4821000000.000000      3.221436000000000E-01      4.225781000000000E+01      5.026550000000000E-01     -1.449687000000000E+02
4822000000.000000      3.225403000000000E-01      4.209180000000000E+01      5.021362000000000E-01     -1.457734000000000E+02
4823000000.000000      3.255157000000000E-01      4.209570000000000E+01      5.025940000000000E-01     -1.466406000000000E+02
4824000000.000000      3.275146000000000E-01      4.222461000000000E+01      5.014038000000000E-01     -1.472188000000000E+02
4825000000.000000      3.287506000000000E-01      4.204687000000000E+01      5.026245000000000E-01     -1.479063000000000E+02
4826000000.000000      3.308411000000000E-01      4.206640000000000E+01      5.025330000000000E-01     -1.486328000000000E+02
4827000000.000000      3.328247000000000E-01      4.209961000000000E+01      5.014648000000000E-01     -1.492656000000000E+02
4828000000.000000      3.349915000000000E-01      4.198828000000000E+01      5.018616000000000E-01     -1.502031000000000E+02
4829000000.000000      3.361053000000000E-01      4.206640000000000E+01      5.011292000000000E-01     -1.508203000000000E+02
4830000000.000000      3.381195000000000E-01      4.177930000000000E+01      5.011292000000000E-01     -1.514922000000000E+02
4831000000.000000      3.391876000000000E-01      4.178906000000000E+01      5.007629000000000E-01     -1.521953000000000E+02
4832000000.000000      3.414001000000000E-01      4.182813000000000E+01      4.988098000000000E-01     -1.529531000000000E+02
4833000000.000000      3.425140000000000E-01      4.160742000000000E+01      4.980316000000000E-01     -1.536250000000000E+02
4834000000.000000      3.443909000000000E-01      4.144531000000000E+01      4.987183000000000E-01     -1.544297000000000E+02
4835000000.000000      3.465424000000000E-01      4.135351000000000E+01      4.961853000000000E-01     -1.551250000000000E+02
4836000000.000000      3.487091000000000E-01      4.133985000000000E+01      4.962616000000000E-01     -1.558047000000000E+02
4837000000.000000      3.498077000000000E-01      4.122070000000000E+01      4.933624000000000E-01     -1.567891000000000E+02
4838000000.000000      3.508453000000000E-01      4.098828000000000E+01      4.937744000000000E-01     -1.571250000000000E+02
4839000000.000000      3.542786000000000E-01      4.089844000000000E+01      4.919128000000000E-01     -1.578750000000000E+02
4840000000.000000      3.550873000000000E-01      4.068749000000000E+01      4.911957000000000E-01     -1.585938000000000E+02
4841000000.000000      3.570099000000000E-01      4.060351000000000E+01      4.892273000000000E-01     -1.593516000000000E+02
4842000000.000000      3.577423000000000E-01      4.040625000000000E+01      4.878998000000000E-01     -1.600937000000000E+02
4843000000.000000      3.606415000000000E-01      4.011132000000000E+01      4.867249000000000E-01     -1.607891000000000E+02
4844000000.000000      3.616333000000000E-01      3.992188000000000E+01      4.853821000000000E-01     -1.615469000000000E+02
4845000000.000000      3.629608000000000E-01      3.985937000000000E+01      4.838562000000000E-01     -1.621641000000000E+02
4846000000.000000      3.651886000000000E-01      3.965625000000000E+01      4.825134000000000E-01     -1.628515000000000E+02
4847000000.000000      3.665924000000000E-01      3.956055000000000E+01      4.813843000000000E-01     -1.636641000000000E+02
4848000000.000000      3.673096000000000E-01      3.929101000000000E+01      4.771881000000000E-01     -1.643516000000000E+02
4849000000.000000      3.686523000000000E-01      3.891016000000000E+01      4.768982000000000E-01     -1.649765000000000E+02
4850000000.000000      3.700104000000000E-01      3.887500000000000E+01      4.738464000000000E-01     -1.656719000000000E+02
4851000000.000000      3.713684000000000E-01      3.873632000000000E+01      4.744263000000000E-01     -1.665859000000000E+02
4852000000.000000      3.722839000000000E-01      3.846875000000000E+01      4.706726000000000E-01     -1.671016000000000E+02
4853000000.000000      3.740234000000000E-01      3.825586000000000E+01      4.682770000000000E-01     -1.676563000000000E+02
4854000000.000000      3.754730000000000E-01      3.796289000000000E+01      4.666748000000000E-01     -1.686172000000000E+02
4855000000.000000      3.762817000000000E-01      3.782031000000000E+01      4.648743000000000E-01     -1.693203000000000E+02
4856000000.000000      3.776398000000000E-01      3.750195000000000E+01      4.610138000000000E-01     -1.698437000000000E+02
4857000000.000000      3.788605000000000E-01      3.737305000000000E+01      4.602509000000000E-01     -1.706406000000000E+02
4858000000.000000      3.791504000000000E-01      3.715429000000000E+01      4.572601000000000E-01     -1.713984000000000E+02
4859000000.000000      3.809204000000000E-01      3.666601000000000E+01      4.557953000000000E-01     -1.719844000000000E+02
4860000000.000000      3.821564000000000E-01      3.670898000000000E+01      4.521942000000000E-01     -1.725937000000000E+02
4861000000.000000      3.825531000000000E-01      3.639843000000000E+01      4.496918000000000E-01     -1.736484000000000E+02
4862000000.000000      3.830414000000000E-01      3.603320000000000E+01      4.471130000000000E-01     -1.740781000000000E+02
4863000000.000000      3.844147000000000E-01      3.582812000000000E+01      4.435730000000000E-01     -1.748437000000000E+02
4864000000.000000      3.855896000000000E-01      3.560742000000000E+01      4.421082000000000E-01     -1.753047000000000E+02
4865000000.000000      3.860779000000000E-01      3.528515000000000E+01      4.376526000000000E-01     -1.759297000000000E+02
4866000000.000000      3.863983000000000E-01      3.504492000000000E+01      4.348450000000000E-01     -1.766094000000000E+02
4867000000.000000      3.866577000000000E-01      3.480078000000000E+01      4.328613000000000E-01     -1.774844000000000E+02
4868000000.000000      3.883057000000000E-01      3.450976000000000E+01      4.303131000000000E-01     -1.779844000000000E+02
4869000000.000000      3.896332000000000E-01      3.421093000000000E+01      4.262695000000000E-01     -1.788516000000000E+02
4870000000.000000      3.897552000000000E-01      3.403125000000000E+01      4.223480000000000E-01     -1.791875000000000E+02
4871000000.000000      3.901978000000000E-01      3.369141000000000E+01      4.196320000000000E-01      1.799531000000000E+02
4872000000.000000      3.915100000000000E-01      3.353125000000000E+01      4.151611000000000E-01      1.797109000000000E+02
4873000000.000000      3.919678000000000E-01      3.326172000000000E+01      4.130096000000000E-01      1.787344000000000E+02
4874000000.000000      3.919373000000000E-01      3.308203000000000E+01      4.088135000000000E-01      1.782969000000000E+02
4875000000.000000      3.923035000000000E-01      3.270312000000000E+01      4.054871000000000E-01      1.778672000000000E+02
4876000000.000000      3.932190000000000E-01      3.260156000000000E+01      4.019623000000000E-01      1.771328000000000E+02
4877000000.000000      3.944550000000000E-01      3.208008000000000E+01      3.983765000000000E-01      1.765156000000000E+02
4878000000.000000      3.935089000000000E-01      3.189258000000000E+01      3.965149000000000E-01      1.758437000000000E+02
4879000000.000000      3.946381000000000E-01      3.173730000000000E+01      3.915253000000000E-01      1.755000000000000E+02
4880000000.000000      3.950043000000000E-01      3.142578000000000E+01      3.887024000000000E-01      1.746484000000000E+02
4881000000.000000      3.947449000000000E-01      3.120508000000000E+01      3.850098000000000E-01      1.744297000000000E+02
4882000000.000000      3.955383000000000E-01      3.102636000000000E+01      3.813171000000000E-01      1.737422000000000E+02
4883000000.000000      3.948364000000000E-01      3.066504000000000E+01      3.785400000000000E-01      1.731797000000000E+02
4884000000.000000      3.954163000000000E-01      3.053906000000000E+01      3.738098000000000E-01      1.726641000000000E+02
4885000000.000000      3.954315000000000E-01      3.032227000000000E+01      3.701935000000000E-01      1.725234000000000E+02
4886000000.000000      3.958435000000000E-01      3.002246000000000E+01      3.670654000000000E-01      1.718984000000000E+02
4887000000.000000      3.963623000000000E-01      2.978906000000000E+01      3.634796000000000E-01      1.713516000000000E+02
4888000000.000000      3.962860000000000E-01      2.945703000000000E+01      3.601074000000000E-01      1.708672000000000E+02
4889000000.000000      3.957825000000000E-01      2.937597000000000E+01      3.551636000000000E-01      1.705156000000000E+02
4890000000.000000      3.952637000000000E-01      2.899121000000000E+01      3.534393000000000E-01      1.697891000000000E+02
4891000000.000000      3.962555000000000E-01      2.883203000000000E+01      3.494263000000000E-01      1.694219000000000E+02
4892000000.000000      3.954620000000000E-01      2.850195000000000E+01      3.456726000000000E-01      1.691172000000000E+02
4893000000.000000      3.960876000000000E-01      2.826172000000000E+01      3.424988000000000E-01      1.686563000000000E+02
4894000000.000000      3.957672000000000E-01      2.812012000000000E+01      3.377380000000000E-01      1.683047000000000E+02
4895000000.000000      3.965454000000000E-01      2.783203000000000E+01      3.356018000000000E-01      1.677266000000000E+02
4896000000.000000      3.968658000000000E-01      2.758789000000000E+01      3.322601000000000E-01      1.674375000000000E+02
4897000000.000000      3.959045000000000E-01      2.749512000000000E+01      3.280945000000000E-01      1.668437000000000E+02
4898000000.000000      3.959351000000000E-01      2.726465000000000E+01      3.248749000000000E-01      1.666719000000000E+02
4899000000.000000      3.964386000000000E-01      2.692968000000000E+01      3.221130000000000E-01      1.660156000000000E+02
4900000000.000000      3.953400000000000E-01      2.668554000000000E+01      3.180237000000000E-01      1.658047000000000E+02
4901000000.000000      3.953094000000000E-01      2.658789000000000E+01      3.146820000000000E-01      1.654063000000000E+02
4902000000.000000      3.949585000000000E-01      2.625586000000000E+01      3.110504000000000E-01      1.651719000000000E+02
4903000000.000000      3.943024000000000E-01      2.615137000000000E+01      3.074799000000000E-01      1.646484000000000E+02
4904000000.000000      3.945007000000000E-01      2.581640000000000E+01      3.043976000000000E-01      1.642266000000000E+02
4905000000.000000      3.942261000000000E-01      2.559863000000000E+01      3.018951000000000E-01      1.638047000000000E+02
4906000000.000000      3.934174000000000E-01      2.541406000000000E+01      2.982635000000000E-01      1.636562000000000E+02
4907000000.000000      3.948517000000000E-01      2.526660000000000E+01      2.949066000000000E-01      1.629688000000000E+02
4908000000.000000      3.938751000000000E-01      2.496582000000000E+01      2.912292000000000E-01      1.627109000000000E+02
4909000000.000000      3.930054000000000E-01      2.490234000000000E+01      2.875824000000000E-01      1.623594000000000E+02
4910000000.000000      3.932037000000000E-01      2.471777000000000E+01      2.835693000000000E-01      1.620312000000000E+02
4911000000.000000      3.939819000000000E-01      2.448828000000000E+01      2.804718000000000E-01      1.616328000000000E+02
4912000000.000000      3.924713000000000E-01      2.442871000000000E+01      2.764740000000000E-01      1.610859000000000E+02
4913000000.000000      3.931122000000000E-01      2.403320000000000E+01      2.734222000000000E-01      1.608125000000000E+02
4914000000.000000      3.927460000000000E-01      2.379981000000000E+01      2.696075000000000E-01      1.606094000000000E+02
4915000000.000000      3.918610000000000E-01      2.371582000000000E+01      2.660828000000000E-01      1.601016000000000E+02
4916000000.000000      3.922882000000000E-01      2.358301000000000E+01      2.623138000000000E-01      1.596719000000000E+02
4917000000.000000      3.923798000000000E-01      2.341113000000000E+01      2.583313000000000E-01      1.595000000000000E+02
4918000000.000000      3.923187000000000E-01      2.324512000000000E+01      2.539215000000000E-01      1.591875000000000E+02
4919000000.000000      3.901062000000000E-01      2.316601000000000E+01      2.509460000000000E-01      1.591094000000000E+02
4920000000.000000      3.916779000000000E-01      2.283008000000000E+01      2.467194000000000E-01      1.585547000000000E+02
4921000000.000000      3.911438000000000E-01      2.290039000000000E+01      2.441025000000000E-01      1.584297000000000E+02
4922000000.000000      3.908691000000000E-01      2.244336000000000E+01      2.396774000000000E-01      1.582500000000000E+02
4923000000.000000      3.911133000000000E-01      2.236621000000000E+01      2.359467000000000E-01      1.580547000000000E+02
4924000000.000000      3.902435000000000E-01      2.221680000000000E+01      2.319717000000000E-01      1.575469000000000E+02
4925000000.000000      3.891602000000000E-01      2.193652000000000E+01      2.277298000000000E-01      1.574375000000000E+02
4926000000.000000      3.885956000000000E-01      2.189648000000000E+01      2.240829000000000E-01      1.572109000000000E+02
4927000000.000000      3.888702000000000E-01      2.162304000000000E+01      2.198105000000000E-01      1.569687000000000E+02
4928000000.000000      3.900146000000000E-01      2.138867000000000E+01      2.158737000000000E-01      1.569766000000000E+02
4929000000.000000      3.883057000000000E-01      2.118847000000000E+01      2.114182000000000E-01      1.568438000000000E+02
4930000000.000000      3.885040000000000E-01      2.117578000000000E+01      2.080460000000000E-01      1.567109000000000E+02
4931000000.000000      3.872528000000000E-01      2.092285000000000E+01      2.041397000000000E-01      1.568047000000000E+02
4932000000.000000      3.879242000000000E-01      2.066308000000000E+01      1.997757000000000E-01      1.566406000000000E+02
4933000000.000000      3.876495000000000E-01      2.047656000000000E+01      1.951904000000000E-01      1.568516000000000E+02
4934000000.000000      3.867340000000000E-01      2.023242000000000E+01      1.920166000000000E-01      1.567578000000000E+02
4935000000.000000      3.871155000000000E-01      2.033105000000000E+01      1.880417000000000E-01      1.569922000000000E+02
4936000000.000000      3.861389000000000E-01      2.017285000000000E+01      1.837769000000000E-01      1.571797000000000E+02
4937000000.000000      3.872375000000000E-01      1.986523000000000E+01      1.801453000000000E-01      1.572109000000000E+02
4938000000.000000      3.854523000000000E-01      1.983984000000000E+01      1.761703000000000E-01      1.576094000000000E+02
4939000000.000000      3.862457000000000E-01      1.963379000000000E+01      1.723099000000000E-01      1.578047000000000E+02
4940000000.000000      3.867340000000000E-01      1.952637000000000E+01      1.679916000000000E-01      1.578516000000000E+02
4941000000.000000      3.864899000000000E-01      1.930371000000000E+01      1.648712000000000E-01      1.586484000000000E+02
4942000000.000000      3.847656000000000E-01      1.913672000000000E+01      1.611786000000000E-01      1.588750000000000E+02
4943000000.000000      3.854980000000000E-01      1.903711000000000E+01      1.571579000000000E-01      1.593516000000000E+02
4944000000.000000      3.848114000000000E-01      1.875000000000000E+01      1.536713000000000E-01      1.601875000000000E+02
4945000000.000000      3.838959000000000E-01      1.862793000000000E+01      1.500549000000000E-01      1.606797000000000E+02
4946000000.000000      3.841705000000000E-01      1.833594000000000E+01      1.469727000000000E-01      1.613672000000000E+02
4947000000.000000      3.837128000000000E-01      1.828320000000000E+01      1.432571000000000E-01      1.620547000000000E+02
4948000000.000000      3.825226000000000E-01      1.809277000000000E+01      1.400070000000000E-01      1.629609000000000E+02
4949000000.000000      3.824005000000000E-01      1.778613000000000E+01      1.372375000000000E-01      1.641641000000000E+02
4950000000.000000      3.832245000000000E-01      1.784570000000000E+01      1.342392000000000E-01      1.650156000000000E+02
4951000000.000000      3.825378000000000E-01      1.759180000000000E+01      1.308517000000000E-01      1.660391000000000E+02
4952000000.000000      3.822479000000000E-01      1.749707000000000E+01      1.285858000000000E-01      1.673203000000000E+02
4953000000.000000      3.817139000000000E-01      1.729590000000000E+01      1.260529000000000E-01      1.687578000000000E+02
4954000000.000000      3.814545000000000E-01      1.703906000000000E+01      1.235657000000000E-01      1.699297000000000E+02
