! Network Analyzer HP8722D
! Hewlett-Packard
! Data name: Linha & Wilkinson
! Saver's name: Rodrigo Anjos
! Comments: Teste da utilização de aquisição
continua pelo VNA HP8722D
! Time and date: 23/5/2025 14:13
!              Frequency                     S11                                                   S21                                                   S12                                                   S22
# HZ  S  MA R 50
4800000000.000000      2.953949000000000E-01      3.924414000000000E+01      4.818115000000000E-01     -1.296406000000000E+02
4801000000.000000      2.965546000000000E-01      3.950781000000000E+01      4.817047000000000E-01     -1.302813000000000E+02
4802000000.000000      2.976074000000000E-01      3.972070000000000E+01      4.821472000000000E-01     -1.311016000000000E+02
4803000000.000000      2.978973000000000E-01      3.987109000000000E+01      4.866486000000000E-01     -1.317031000000000E+02
4804000000.000000      2.994537000000000E-01      4.010547000000000E+01      4.875336000000000E-01     -1.323125000000000E+02
4805000000.000000      3.014984000000000E-01      4.019140000000000E+01      4.890747000000000E-01     -1.331172000000000E+02
4806000000.000000      3.024445000000000E-01      4.031250000000000E+01      4.892883000000000E-01     -1.338984000000000E+02
4807000000.000000      3.036499000000000E-01      4.050977000000000E+01      4.916077000000000E-01     -1.348438000000000E+02
4808000000.000000      3.045502000000000E-01      4.065039000000000E+01      4.925842000000000E-01     -1.352578000000000E+02
4809000000.000000      3.065186000000000E-01      4.088086000000000E+01      4.935455000000000E-01     -1.364141000000000E+02
4810000000.000000      3.080292000000000E-01      4.104688000000000E+01      4.950409000000000E-01     -1.367188000000000E+02
4811000000.000000      3.094788000000000E-01      4.121679000000000E+01      4.962311000000000E-01     -1.377812000000000E+02
4812000000.000000      3.120117000000000E-01      4.135938000000000E+01      4.974518000000000E-01     -1.383516000000000E+02
4813000000.000000      3.129425000000000E-01      4.147265000000000E+01      4.980927000000000E-01     -1.391094000000000E+02
4814000000.000000      3.138580000000000E-01      4.148828000000000E+01      4.982910000000000E-01     -1.396719000000000E+02
4815000000.000000      3.157501000000000E-01      4.155078000000000E+01      4.987335000000000E-01     -1.406172000000000E+02
4816000000.000000      3.183746000000000E-01      4.167773000000000E+01      4.986420000000000E-01     -1.412266000000000E+02
4817000000.000000      3.190308000000000E-01      4.172852000000000E+01      4.975281000000000E-01     -1.422344000000000E+02
4818000000.000000      3.204956000000000E-01      4.171484000000000E+01      5.001526000000000E-01     -1.427500000000000E+02
4819000000.000000      3.231354000000000E-01      4.184766000000000E+01      5.003662000000000E-01     -1.435937000000000E+02
4820000000.000000      3.235626000000000E-01      4.184179000000000E+01      5.007019000000000E-01     -1.443047000000000E+02
4821000000.000000      3.263397000000000E-01      4.181641000000000E+01      4.998016000000000E-01     -1.449844000000000E+02
4822000000.000000      3.268738000000000E-01      4.176562000000000E+01      4.985504000000000E-01     -1.457031000000000E+02
4823000000.000000      3.298645000000000E-01      4.175586000000000E+01      5.000305000000000E-01     -1.463516000000000E+02
4824000000.000000      3.310242000000000E-01      4.183398000000000E+01      4.999237000000000E-01     -1.472891000000000E+02
4825000000.000000      3.335571000000000E-01      4.172852000000000E+01      5.001221000000000E-01     -1.478203000000000E+02
4826000000.000000      3.348389000000000E-01      4.166992000000000E+01      4.993744000000000E-01     -1.486250000000000E+02
4827000000.000000      3.364105000000000E-01      4.164844000000000E+01      4.989166000000000E-01     -1.494375000000000E+02
4828000000.000000      3.396149000000000E-01      4.162890000000000E+01      4.988403000000000E-01     -1.499687000000000E+02
4829000000.000000      3.399506000000000E-01      4.171679000000000E+01      4.986267000000000E-01     -1.507187000000000E+02
4830000000.000000      3.421478000000000E-01      4.149023000000000E+01      4.984283000000000E-01     -1.516328000000000E+02
4831000000.000000      3.430786000000000E-01      4.148242000000000E+01      4.974670000000000E-01     -1.524531000000000E+02
4832000000.000000      3.450775000000000E-01      4.141406000000000E+01      4.970093000000000E-01     -1.529297000000000E+02
4833000000.000000      3.463440000000000E-01      4.124804000000000E+01      4.971161000000000E-01     -1.535234000000000E+02
4834000000.000000      3.485107000000000E-01      4.115039000000000E+01      4.942322000000000E-01     -1.543828000000000E+02
4835000000.000000      3.505402000000000E-01      4.105859000000000E+01      4.930725000000000E-01     -1.552266000000000E+02
4836000000.000000      3.524475000000000E-01      4.094727000000000E+01      4.922028000000000E-01     -1.557891000000000E+02
4837000000.000000      3.540192000000000E-01      4.082227000000000E+01      4.908752000000000E-01     -1.568516000000000E+02
4838000000.000000      3.548431000000000E-01      4.069726000000000E+01      4.909363000000000E-01     -1.571328000000000E+02
4839000000.000000      3.583069000000000E-01      4.056836000000000E+01      4.895325000000000E-01     -1.577891000000000E+02
4840000000.000000      3.587036000000000E-01      4.030273000000000E+01      4.877777000000000E-01     -1.585391000000000E+02
4841000000.000000      3.610382000000000E-01      4.030469000000000E+01      4.879913000000000E-01     -1.593203000000000E+02
4842000000.000000      3.614502000000000E-01      4.001562000000000E+01      4.855042000000000E-01     -1.600469000000000E+02
4843000000.000000      3.640747000000000E-01      3.967578000000000E+01      4.854736000000000E-01     -1.608594000000000E+02
4844000000.000000      3.649597000000000E-01      3.971680000000000E+01      4.830780000000000E-01     -1.614531000000000E+02
4845000000.000000      3.666992000000000E-01      3.959570000000000E+01      4.816284000000000E-01     -1.623047000000000E+02
4846000000.000000      3.685455000000000E-01      3.946680000000000E+01      4.797211000000000E-01     -1.630781000000000E+02
4847000000.000000      3.692932000000000E-01      3.931055000000000E+01      4.778748000000000E-01     -1.635703000000000E+02
4848000000.000000      3.707275000000000E-01      3.892383000000000E+01      4.762268000000000E-01     -1.644375000000000E+02
4849000000.000000      3.722076000000000E-01      3.879492000000000E+01      4.743958000000000E-01     -1.651484000000000E+02
4850000000.000000      3.732758000000000E-01      3.853320000000000E+01      4.730225000000000E-01     -1.657969000000000E+02
4851000000.000000      3.752594000000000E-01      3.850390000000000E+01      4.712067000000000E-01     -1.666328000000000E+02
4852000000.000000      3.764648000000000E-01      3.824023000000000E+01      4.685059000000000E-01     -1.672812000000000E+02
4853000000.000000      3.768768000000000E-01      3.794531000000000E+01      4.651947000000000E-01     -1.678750000000000E+02
4854000000.000000      3.784790000000000E-01      3.763867000000000E+01      4.647827000000000E-01     -1.685937000000000E+02
4855000000.000000      3.796692000000000E-01      3.742578000000000E+01      4.605103000000000E-01     -1.692969000000000E+02
4856000000.000000      3.807068000000000E-01      3.730469000000000E+01      4.593201000000000E-01     -1.700156000000000E+02
4857000000.000000      3.818970000000000E-01      3.710742000000000E+01      4.572296000000000E-01     -1.705937000000000E+02
4858000000.000000      3.834686000000000E-01      3.675195000000000E+01      4.554596000000000E-01     -1.714219000000000E+02
4859000000.000000      3.842621000000000E-01      3.644531000000000E+01      4.521332000000000E-01     -1.721562000000000E+02
4860000000.000000      3.853302000000000E-01      3.640820000000000E+01      4.494019000000000E-01     -1.725625000000000E+02
4861000000.000000      3.860168000000000E-01      3.604883000000000E+01      4.462891000000000E-01     -1.735000000000000E+02
4862000000.000000      3.865051000000000E-01      3.580078000000000E+01      4.441223000000000E-01     -1.740703000000000E+02
4863000000.000000      3.880920000000000E-01      3.561523000000000E+01      4.403992000000000E-01     -1.748437000000000E+02
4864000000.000000      3.886108000000000E-01      3.531250000000000E+01      4.393311000000000E-01     -1.753515000000000E+02
4865000000.000000      3.887482000000000E-01      3.508398000000000E+01      4.335632000000000E-01     -1.757656000000000E+02
4866000000.000000      3.896027000000000E-01      3.475195000000000E+01      4.317017000000000E-01     -1.767656000000000E+02
4867000000.000000      3.908691000000000E-01      3.456640000000000E+01      4.279785000000000E-01     -1.774688000000000E+02
4868000000.000000      3.917999000000000E-01      3.433008000000000E+01      4.255829000000000E-01     -1.782344000000000E+02
4869000000.000000      3.923035000000000E-01      3.411328000000000E+01      4.225616000000000E-01     -1.786875000000000E+02
4870000000.000000      3.933563000000000E-01      3.378515000000000E+01      4.191132000000000E-01     -1.790547000000000E+02
4871000000.000000      3.932495000000000E-01      3.355859000000000E+01      4.163055000000000E-01     -1.798750000000000E+02
4872000000.000000      3.947906000000000E-01      3.328906000000000E+01      4.123230000000000E-01      1.795391000000000E+02
4873000000.000000      3.942261000000000E-01      3.322266000000000E+01      4.079285000000000E-01      1.788750000000000E+02
4874000000.000000      3.950043000000000E-01      3.282422000000000E+01      4.048462000000000E-01      1.781797000000000E+02
4875000000.000000      3.954163000000000E-01      3.243555000000000E+01      4.020996000000000E-01      1.777656000000000E+02
4876000000.000000      3.960876000000000E-01      3.234766000000000E+01      3.994598000000000E-01      1.771719000000000E+02
4877000000.000000      3.965759000000000E-01      3.193945000000000E+01      3.952179000000000E-01      1.765000000000000E+02
4878000000.000000      3.973389000000000E-01      3.166308000000000E+01      3.923035000000000E-01      1.760078000000000E+02
4879000000.000000      3.983612000000000E-01      3.163476000000000E+01      3.871002000000000E-01      1.755781000000000E+02
4880000000.000000      3.980865000000000E-01      3.127441000000000E+01      3.841858000000000E-01      1.750469000000000E+02
4881000000.000000      3.976593000000000E-01      3.111523000000000E+01      3.822632000000000E-01      1.746094000000000E+02
4882000000.000000      3.984833000000000E-01      3.087500000000000E+01      3.786011000000000E-01      1.738437000000000E+02
4883000000.000000      3.982239000000000E-01      3.040722000000000E+01      3.738708000000000E-01      1.735391000000000E+02
4884000000.000000      3.993530000000000E-01      3.038183000000000E+01      3.714905000000000E-01      1.727969000000000E+02
4885000000.000000      3.994598000000000E-01      3.025293000000000E+01      3.667908000000000E-01      1.724219000000000E+02
4886000000.000000      3.997345000000000E-01      2.982422000000000E+01      3.636627000000000E-01      1.719453000000000E+02
4887000000.000000      3.995056000000000E-01      2.967773000000000E+01      3.585510000000000E-01      1.715000000000000E+02
4888000000.000000      3.994141000000000E-01      2.928906000000000E+01      3.582611000000000E-01      1.711250000000000E+02
4889000000.000000      3.992004000000000E-01      2.907324000000000E+01      3.519745000000000E-01      1.707031000000000E+02
4890000000.000000      3.985443000000000E-01      2.884668000000000E+01      3.485260000000000E-01      1.697109000000000E+02
4891000000.000000      3.996735000000000E-01      2.867773000000000E+01      3.447876000000000E-01      1.696016000000000E+02
4892000000.000000      3.988190000000000E-01      2.849023000000000E+01      3.421326000000000E-01      1.692266000000000E+02
4893000000.000000      3.998413000000000E-01      2.810644000000000E+01      3.382416000000000E-01      1.688359000000000E+02
4894000000.000000      3.993988000000000E-01      2.787890000000000E+01      3.339691000000000E-01      1.684297000000000E+02
4895000000.000000      4.001160000000000E-01      2.765625000000000E+01      3.336792000000000E-01      1.680312000000000E+02
4896000000.000000      3.997040000000000E-01      2.741406000000000E+01      3.277588000000000E-01      1.676563000000000E+02
4897000000.000000      3.976746000000000E-01      2.736328000000000E+01      3.227692000000000E-01      1.671953000000000E+02
4898000000.000000      3.988953000000000E-01      2.710156000000000E+01      3.224335000000000E-01      1.669062000000000E+02
4899000000.000000      3.981781000000000E-01      2.701465000000000E+01      3.179321000000000E-01      1.662031000000000E+02
4900000000.000000      3.981171000000000E-01      2.660742000000000E+01      3.153839000000000E-01      1.659922000000000E+02
4901000000.000000      3.984375000000000E-01      2.639257000000000E+01      3.111725000000000E-01      1.655234000000000E+02
4902000000.000000      3.979645000000000E-01      2.618555000000000E+01      3.087006000000000E-01      1.652734000000000E+02
4903000000.000000      3.992615000000000E-01      2.614746000000000E+01      3.041077000000000E-01      1.647500000000000E+02
4904000000.000000      3.978271000000000E-01      2.586816000000000E+01      3.014069000000000E-01      1.642969000000000E+02
4905000000.000000      3.978729000000000E-01      2.554688000000000E+01      2.981567000000000E-01      1.638125000000000E+02
4906000000.000000      3.979340000000000E-01      2.533008000000000E+01      2.945557000000000E-01      1.637891000000000E+02
4907000000.000000      3.959656000000000E-01      2.521484000000000E+01      2.913971000000000E-01      1.632891000000000E+02
4908000000.000000      3.985138000000000E-01      2.483398000000000E+01      2.879028000000000E-01      1.629609000000000E+02
4909000000.000000      3.969421000000000E-01      2.482715000000000E+01      2.842865000000000E-01      1.625078000000000E+02
4910000000.000000      3.966675000000000E-01      2.466699000000000E+01      2.806702000000000E-01      1.621406000000000E+02
4911000000.000000      3.978271000000000E-01      2.445117000000000E+01      2.773743000000000E-01      1.618359000000000E+02
4912000000.000000      3.965912000000000E-01      2.426953000000000E+01      2.734070000000000E-01      1.614297000000000E+02
4913000000.000000      3.956451000000000E-01      2.400976000000000E+01      2.702332000000000E-01      1.609609000000000E+02
4914000000.000000      3.959961000000000E-01      2.380566000000000E+01      2.663574000000000E-01      1.609688000000000E+02
4915000000.000000      3.958282000000000E-01      2.377246000000000E+01      2.622375000000000E-01      1.602890000000000E+02
4916000000.000000      3.946991000000000E-01      2.352539000000000E+01      2.588043000000000E-01      1.599922000000000E+02
4917000000.000000      3.948517000000000E-01      2.329297000000000E+01      2.555389000000000E-01      1.597969000000000E+02
4918000000.000000      3.946533000000000E-01      2.318457000000000E+01      2.511444000000000E-01      1.593594000000000E+02
4919000000.000000      3.936615000000000E-01      2.302539000000000E+01      2.481613000000000E-01      1.594766000000000E+02
4920000000.000000      3.948975000000000E-01      2.286914000000000E+01      2.435760000000000E-01      1.588828000000000E+02
4921000000.000000      3.940735000000000E-01      2.266797000000000E+01      2.404480000000000E-01      1.586250000000000E+02
4922000000.000000      3.935547000000000E-01      2.233105000000000E+01      2.376175000000000E-01      1.585703000000000E+02
4923000000.000000      3.932190000000000E-01      2.236523000000000E+01      2.323914000000000E-01      1.583516000000000E+02
4924000000.000000      3.936920000000000E-01      2.212500000000000E+01      2.286148000000000E-01      1.579687000000000E+02
4925000000.000000      3.939209000000000E-01      2.191016000000000E+01      2.249451000000000E-01      1.577734000000000E+02
4926000000.000000      3.919220000000000E-01      2.176367000000000E+01      2.215500000000000E-01      1.575703000000000E+02
4927000000.000000      3.914642000000000E-01      2.162207000000000E+01      2.169647000000000E-01      1.574687000000000E+02
4928000000.000000      3.920593000000000E-01      2.146777000000000E+01      2.133026000000000E-01      1.573437000000000E+02
4929000000.000000      3.920135000000000E-01      2.123047000000000E+01      2.089920000000000E-01      1.572578000000000E+02
4930000000.000000      3.913422000000000E-01      2.113476000000000E+01      2.050629000000000E-01      1.572187000000000E+02
4931000000.000000      3.913574000000000E-01      2.095605000000000E+01      2.017365000000000E-01      1.573672000000000E+02
4932000000.000000      3.908691000000000E-01      2.075000000000000E+01      1.977234000000000E-01      1.571484000000000E+02
4933000000.000000      3.908386000000000E-01      2.048340000000000E+01      1.927338000000000E-01      1.573672000000000E+02
4934000000.000000      3.911591000000000E-01      2.031738000000000E+01      1.893463000000000E-01      1.572969000000000E+02
4935000000.000000      3.910217000000000E-01      2.031641000000000E+01      1.860733000000000E-01      1.575547000000000E+02
4936000000.000000      3.899689000000000E-01      2.000977000000000E+01      1.815948000000000E-01      1.575938000000000E+02
4937000000.000000      3.899078000000000E-01      1.981445000000000E+01      1.774063000000000E-01      1.577344000000000E+02
4938000000.000000      3.885651000000000E-01      1.987500000000000E+01      1.738815000000000E-01      1.580000000000000E+02
4939000000.000000      3.895721000000000E-01      1.965137000000000E+01      1.703720000000000E-01      1.584453000000000E+02
4940000000.000000      3.889618000000000E-01      1.938672000000000E+01      1.658325000000000E-01      1.586172000000000E+02
4941000000.000000      3.894958000000000E-01      1.925488000000000E+01      1.624756000000000E-01      1.592891000000000E+02
4942000000.000000      3.885498000000000E-01      1.901855000000000E+01      1.584473000000000E-01      1.596719000000000E+02
4943000000.000000      3.887787000000000E-01      1.895410000000000E+01      1.548767000000000E-01      1.599922000000000E+02
4944000000.000000      3.884583000000000E-01      1.873144000000000E+01      1.516800000000000E-01      1.605625000000000E+02
4945000000.000000      3.872223000000000E-01      1.854199000000000E+01      1.481094000000000E-01      1.613828000000000E+02
4946000000.000000      3.880463000000000E-01      1.843359000000000E+01      1.447983000000000E-01      1.622500000000000E+02
4947000000.000000      3.865662000000000E-01      1.825488000000000E+01      1.413116000000000E-01      1.629531000000000E+02
4948000000.000000      3.868561000000000E-01      1.807324000000000E+01      1.384811000000000E-01      1.638281000000000E+02
4949000000.000000      3.868408000000000E-01      1.790039000000000E+01      1.349106000000000E-01      1.651875000000000E+02
4950000000.000000      3.863220000000000E-01      1.787988000000000E+01      1.321182000000000E-01      1.659219000000000E+02
4951000000.000000      3.863373000000000E-01      1.752539000000000E+01      1.295013000000000E-01      1.670234000000000E+02
4952000000.000000      3.857422000000000E-01      1.743457000000000E+01      1.269913000000000E-01      1.684141000000000E+02
4953000000.000000      3.843536000000000E-01      1.727441000000000E+01      1.247025000000000E-01      1.698750000000000E+02
4954000000.000000      3.856659000000000E-01      1.716699000000000E+01      1.226234000000000E-01      1.711484000000000E+02
