! Network Analyzer HP8722D
! Hewlett-Packard
! Data name: Linha & Wilkinson
! Saver's name: Rodrigo Anjos
! Comments: Teste da utilização de aquisição
continua pelo VNA HP8722D
! Time and date: 23/5/2025 08:19
!              Frequency                     S11                                                   S21                                                   S12                                                   S22
# HZ  S  MA R 50
4800000000.000000      4.127350000000000E-01      2.885742000000000E+01      4.313049000000000E-01     -1.189258000000000E+02
4801000000.000000      4.134827000000000E-01      2.891699000000000E+01      4.316711000000000E-01     -1.194805000000000E+02
4802000000.000000      4.124908000000000E-01      2.897363000000000E+01      4.339294000000000E-01     -1.203672000000000E+02
4803000000.000000      4.132538000000000E-01      2.931250000000000E+01      4.365234000000000E-01     -1.208867000000000E+02
4804000000.000000      4.133759000000000E-01      2.943554000000000E+01      4.368744000000000E-01     -1.216953000000000E+02
4805000000.000000      4.161377000000000E-01      2.939062000000000E+01      4.390259000000000E-01     -1.223242000000000E+02
4806000000.000000      4.158936000000000E-01      2.951953000000000E+01      4.408112000000000E-01     -1.233789000000000E+02
4807000000.000000      4.141388000000000E-01      2.934668000000000E+01      4.406738000000000E-01     -1.241250000000000E+02
4808000000.000000      4.149017000000000E-01      2.974609000000000E+01      4.430695000000000E-01     -1.246719000000000E+02
4809000000.000000      4.158173000000000E-01      2.988379000000000E+01      4.432373000000000E-01     -1.254258000000000E+02
4810000000.000000      4.160309000000000E-01      3.015332000000000E+01      4.457550000000000E-01     -1.260742000000000E+02
4811000000.000000      4.162140000000000E-01      3.016211000000000E+01      4.461823000000000E-01     -1.269297000000000E+02
4812000000.000000      4.194946000000000E-01      3.031054000000000E+01      4.454956000000000E-01     -1.276406000000000E+02
4813000000.000000      4.198151000000000E-01      3.060059000000000E+01      4.465637000000000E-01     -1.284375000000000E+02
4814000000.000000      4.196930000000000E-01      3.052246000000000E+01      4.487457000000000E-01     -1.291406000000000E+02
4815000000.000000      4.188080000000000E-01      3.063769000000000E+01      4.479065000000000E-01     -1.298750000000000E+02
4816000000.000000      4.208069000000000E-01      3.080078000000000E+01      4.484100000000000E-01     -1.305391000000000E+02
4817000000.000000      4.214325000000000E-01      3.095215000000000E+01      4.491272000000000E-01     -1.314687000000000E+02
4818000000.000000      4.219513000000000E-01      3.099218000000000E+01      4.499359000000000E-01     -1.322187000000000E+02
4819000000.000000      4.210358000000000E-01      3.115429000000000E+01      4.492035000000000E-01     -1.329062000000000E+02
4820000000.000000      4.226532000000000E-01      3.122949000000000E+01      4.503632000000000E-01     -1.334844000000000E+02
4821000000.000000      4.260559000000000E-01      3.127050000000000E+01      4.502258000000000E-01     -1.342266000000000E+02
4822000000.000000      4.261475000000000E-01      3.123340000000000E+01      4.503784000000000E-01     -1.350234000000000E+02
4823000000.000000      4.276886000000000E-01      3.143945000000000E+01      4.518585000000000E-01     -1.359688000000000E+02
4824000000.000000      4.277954000000000E-01      3.146289000000000E+01      4.502869000000000E-01     -1.367109000000000E+02
4825000000.000000      4.286957000000000E-01      3.127636000000000E+01      4.509277000000000E-01     -1.372969000000000E+02
4826000000.000000      4.311371000000000E-01      3.128711000000000E+01      4.501190000000000E-01     -1.380938000000000E+02
4827000000.000000      4.315186000000000E-01      3.148730000000000E+01      4.491577000000000E-01     -1.386875000000000E+02
4828000000.000000      4.334717000000000E-01      3.160840000000000E+01      4.508514000000000E-01     -1.395000000000000E+02
4829000000.000000      4.333496000000000E-01      3.182812000000000E+01      4.503021000000000E-01     -1.401016000000000E+02
4830000000.000000      4.351959000000000E-01      3.160156000000000E+01      4.486084000000000E-01     -1.410156000000000E+02
4831000000.000000      4.375458000000000E-01      3.176465000000000E+01      4.495087000000000E-01     -1.416484000000000E+02
4832000000.000000      4.381561000000000E-01      3.185547000000000E+01      4.482727000000000E-01     -1.424297000000000E+02
4833000000.000000      4.364624000000000E-01      3.172558000000000E+01      4.481506000000000E-01     -1.428047000000000E+02
4834000000.000000      4.385834000000000E-01      3.186426000000000E+01      4.469910000000000E-01     -1.438516000000000E+02
4835000000.000000      4.401093000000000E-01      3.166992000000000E+01      4.481354000000000E-01     -1.445859000000000E+02
4836000000.000000      4.436646000000000E-01      3.183691000000000E+01      4.453888000000000E-01     -1.453359000000000E+02
4837000000.000000      4.452515000000000E-01      3.198730000000000E+01      4.446106000000000E-01     -1.461484000000000E+02
4838000000.000000      4.442139000000000E-01      3.165820000000000E+01      4.447632000000000E-01     -1.465937000000000E+02
4839000000.000000      4.485931000000000E-01      3.189941000000000E+01      4.449921000000000E-01     -1.472812000000000E+02
4840000000.000000      4.483185000000000E-01      3.184375000000000E+01      4.430389000000000E-01     -1.482031000000000E+02
4841000000.000000      4.508667000000000E-01      3.195703000000000E+01      4.426575000000000E-01     -1.489609000000000E+02
4842000000.000000      4.504089000000000E-01      3.147949000000000E+01      4.409943000000000E-01     -1.495000000000000E+02
4843000000.000000      4.545746000000000E-01      3.134668000000000E+01      4.406738000000000E-01     -1.504766000000000E+02
4844000000.000000      4.526672000000000E-01      3.125879000000000E+01      4.390259000000000E-01     -1.511406000000000E+02
4845000000.000000      4.557648000000000E-01      3.150683000000000E+01      4.382324000000000E-01     -1.516328000000000E+02
4846000000.000000      4.574738000000000E-01      3.120214000000000E+01      4.374847000000000E-01     -1.525625000000000E+02
4847000000.000000      4.581757000000000E-01      3.144336000000000E+01      4.357452000000000E-01     -1.531641000000000E+02
4848000000.000000      4.584808000000000E-01      3.121875000000000E+01      4.329834000000000E-01     -1.540313000000000E+02
4849000000.000000      4.595032000000000E-01      3.117578000000000E+01      4.328156000000000E-01     -1.547031000000000E+02
4850000000.000000      4.626312000000000E-01      3.095898000000000E+01      4.305725000000000E-01     -1.555078000000000E+02
4851000000.000000      4.634247000000000E-01      3.114258000000000E+01      4.306488000000000E-01     -1.561172000000000E+02
4852000000.000000      4.653320000000000E-01      3.090527000000000E+01      4.276428000000000E-01     -1.568047000000000E+02
4853000000.000000      4.668274000000000E-01      3.073144000000000E+01      4.261627000000000E-01     -1.575391000000000E+02
4854000000.000000      4.673920000000000E-01      3.062793000000000E+01      4.231567000000000E-01     -1.584844000000000E+02
4855000000.000000      4.690704000000000E-01      3.055761000000000E+01      4.205780000000000E-01     -1.591719000000000E+02
4856000000.000000      4.704285000000000E-01      3.044238000000000E+01      4.217529000000000E-01     -1.599922000000000E+02
4857000000.000000      4.709167000000000E-01      3.024902000000000E+01      4.184113000000000E-01     -1.606484000000000E+02
4858000000.000000      4.724579000000000E-01      3.007715000000000E+01      4.156799000000000E-01     -1.613672000000000E+02
4859000000.000000      4.739075000000000E-01      2.999218000000000E+01      4.146271000000000E-01     -1.622813000000000E+02
4860000000.000000      4.743042000000000E-01      2.994824000000000E+01      4.124146000000000E-01     -1.627891000000000E+02
4861000000.000000      4.755096000000000E-01      2.994922000000000E+01      4.092102000000000E-01     -1.637031000000000E+02
4862000000.000000      4.747162000000000E-01      2.965039000000000E+01      4.076691000000000E-01     -1.642344000000000E+02
4863000000.000000      4.794312000000000E-01      2.960742000000000E+01      4.034271000000000E-01     -1.651172000000000E+02
4864000000.000000      4.800110000000000E-01      2.943457000000000E+01      4.001617000000000E-01     -1.656094000000000E+02
4865000000.000000      4.785461000000000E-01      2.942090000000000E+01      3.982697000000000E-01     -1.663906000000000E+02
4866000000.000000      4.833374000000000E-01      2.915820000000000E+01      3.954163000000000E-01     -1.671094000000000E+02
4867000000.000000      4.806366000000000E-01      2.902148000000000E+01      3.923340000000000E-01     -1.679766000000000E+02
4868000000.000000      4.831848000000000E-01      2.881250000000000E+01      3.901520000000000E-01     -1.685313000000000E+02
4869000000.000000      4.835358000000000E-01      2.846777000000000E+01      3.869171000000000E-01     -1.691719000000000E+02
4870000000.000000      4.849396000000000E-01      2.857519000000000E+01      3.849335000000000E-01     -1.700078000000000E+02
4871000000.000000      4.854431000000000E-01      2.824707000000000E+01      3.802643000000000E-01     -1.706406000000000E+02
4872000000.000000      4.891815000000000E-01      2.819824000000000E+01      3.774261000000000E-01     -1.711172000000000E+02
4873000000.000000      4.869690000000000E-01      2.814648000000000E+01      3.745117000000000E-01     -1.719063000000000E+02
4874000000.000000      4.880219000000000E-01      2.793652000000000E+01      3.717499000000000E-01     -1.725859000000000E+02
4875000000.000000      4.885712000000000E-01      2.771973000000000E+01      3.674469000000000E-01     -1.728672000000000E+02
4876000000.000000      4.912720000000000E-01      2.762988000000000E+01      3.640442000000000E-01     -1.738594000000000E+02
4877000000.000000      4.907684000000000E-01      2.741211000000000E+01      3.602753000000000E-01     -1.745078000000000E+02
4878000000.000000      4.892273000000000E-01      2.712305000000000E+01      3.594055000000000E-01     -1.750469000000000E+02
4879000000.000000      4.917755000000000E-01      2.711133000000000E+01      3.537750000000000E-01     -1.755859000000000E+02
4880000000.000000      4.927673000000000E-01      2.690820000000000E+01      3.500214000000000E-01     -1.761875000000000E+02
4881000000.000000      4.928741000000000E-01      2.671093000000000E+01      3.473663000000000E-01     -1.766562000000000E+02
4882000000.000000      4.959106000000000E-01      2.660156000000000E+01      3.448486000000000E-01     -1.771797000000000E+02
4883000000.000000      4.942780000000000E-01      2.636133000000000E+01      3.407440000000000E-01     -1.779140000000000E+02
4884000000.000000      4.960785000000000E-01      2.622559000000000E+01      3.379059000000000E-01     -1.784922000000000E+02
4885000000.000000      4.972229000000000E-01      2.624707000000000E+01      3.332214000000000E-01     -1.785781000000000E+02
4886000000.000000      4.976501000000000E-01      2.591113000000000E+01      3.304291000000000E-01     -1.791875000000000E+02
4887000000.000000      4.960632000000000E-01      2.580761000000000E+01      3.285065000000000E-01     -1.797891000000000E+02
4888000000.000000      4.964600000000000E-01      2.531347000000000E+01      3.241882000000000E-01      1.797031000000000E+02
4889000000.000000      4.970398000000000E-01      2.526562000000000E+01      3.207550000000000E-01      1.793047000000000E+02
4890000000.000000      4.966431000000000E-01      2.520898000000000E+01      3.162231000000000E-01      1.785234000000000E+02
4891000000.000000      4.981079000000000E-01      2.516211000000000E+01      3.140106000000000E-01      1.782344000000000E+02
4892000000.000000      4.980316000000000E-01      2.477734000000000E+01      3.093109000000000E-01      1.779219000000000E+02
4893000000.000000      4.994812000000000E-01      2.474804000000000E+01      3.067780000000000E-01      1.773438000000000E+02
4894000000.000000      4.990082000000000E-01      2.444433000000000E+01      3.030396000000000E-01      1.770547000000000E+02
4895000000.000000      5.004578000000000E-01      2.435059000000000E+01      3.008881000000000E-01      1.766250000000000E+02
4896000000.000000      4.996033000000000E-01      2.416016000000000E+01      2.969360000000000E-01      1.761875000000000E+02
4897000000.000000      5.012512000000000E-01      2.421582000000000E+01      2.931671000000000E-01      1.758516000000000E+02
4898000000.000000      5.002136000000000E-01      2.398242000000000E+01      2.911682000000000E-01      1.753281000000000E+02
4899000000.000000      4.995728000000000E-01      2.386719000000000E+01      2.879333000000000E-01      1.748125000000000E+02
4900000000.000000      5.005798000000000E-01      2.362109000000000E+01      2.838135000000000E-01      1.745391000000000E+02
4901000000.000000      5.012512000000000E-01      2.349609000000000E+01      2.810669000000000E-01      1.741797000000000E+02
4902000000.000000      5.007019000000000E-01      2.301758000000000E+01      2.785034000000000E-01      1.741016000000000E+02
4903000000.000000      5.019226000000000E-01      2.326465000000000E+01      2.733154000000000E-01      1.735000000000000E+02
4904000000.000000      5.016174000000000E-01      2.312402000000000E+01      2.711487000000000E-01      1.730859000000000E+02
4905000000.000000      5.001526000000000E-01      2.276855000000000E+01      2.686005000000000E-01      1.725234000000000E+02
4906000000.000000      5.003357000000000E-01      2.280176000000000E+01      2.647858000000000E-01      1.724688000000000E+02
4907000000.000000      5.022278000000000E-01      2.249218000000000E+01      2.624512000000000E-01      1.718203000000000E+02
4908000000.000000      5.025024000000000E-01      2.241406000000000E+01      2.588196000000000E-01      1.714766000000000E+02
4909000000.000000      5.009155000000000E-01      2.229199000000000E+01      2.554321000000000E-01      1.712109000000000E+02
4910000000.000000      5.018311000000000E-01      2.200684000000000E+01      2.524872000000000E-01      1.708594000000000E+02
4911000000.000000      5.027161000000000E-01      2.196680000000000E+01      2.495422000000000E-01      1.706484000000000E+02
4912000000.000000      5.028381000000000E-01      2.180176000000000E+01      2.459412000000000E-01      1.700938000000000E+02
4913000000.000000      5.029297000000000E-01      2.157715000000000E+01      2.429123000000000E-01      1.697969000000000E+02
4914000000.000000      5.010071000000000E-01      2.130469000000000E+01      2.388000000000000E-01      1.695781000000000E+02
4915000000.000000      5.025024000000000E-01      2.143652000000000E+01      2.358017000000000E-01      1.691015000000000E+02
4916000000.000000      5.022888000000000E-01      2.107520000000000E+01      2.322159000000000E-01      1.687031000000000E+02
4917000000.000000      5.008240000000000E-01      2.118164000000000E+01      2.293472000000000E-01      1.686797000000000E+02
4918000000.000000      5.004272000000000E-01      2.086524000000000E+01      2.259293000000000E-01      1.681719000000000E+02
4919000000.000000      5.016785000000000E-01      2.076270000000000E+01      2.229385000000000E-01      1.682266000000000E+02
4920000000.000000      5.029907000000000E-01      2.043555000000000E+01      2.186584000000000E-01      1.675234000000000E+02
4921000000.000000      5.032043000000000E-01      2.046679000000000E+01      2.154694000000000E-01      1.674141000000000E+02
4922000000.000000      5.016785000000000E-01      2.039063000000000E+01      2.122574000000000E-01      1.672891000000000E+02
4923000000.000000      5.030518000000000E-01      2.031641000000000E+01      2.085495000000000E-01      1.671484000000000E+02
4924000000.000000      5.022888000000000E-01      2.009668000000000E+01      2.054062000000000E-01      1.667422000000000E+02
4925000000.000000      5.018921000000000E-01      2.005371000000000E+01      2.014084000000000E-01      1.665937000000000E+02
4926000000.000000      5.013123000000000E-01      1.982031000000000E+01      1.986694000000000E-01      1.663281000000000E+02
4927000000.000000      5.020447000000000E-01      1.966406000000000E+01      1.945801000000000E-01      1.662344000000000E+02
4928000000.000000      5.033569000000000E-01      1.956250000000000E+01      1.915512000000000E-01      1.661094000000000E+02
4929000000.000000      5.009155000000000E-01      1.948340000000000E+01      1.872406000000000E-01      1.660625000000000E+02
4930000000.000000      5.020142000000000E-01      1.919141000000000E+01      1.844940000000000E-01      1.660938000000000E+02
4931000000.000000      5.018921000000000E-01      1.910840000000000E+01      1.808777000000000E-01      1.660781000000000E+02
4932000000.000000      5.036926000000000E-01      1.908301000000000E+01      1.764221000000000E-01      1.658906000000000E+02
4933000000.000000      5.007629000000000E-01      1.871582000000000E+01      1.725082000000000E-01      1.661328000000000E+02
4934000000.000000      5.024719000000000E-01      1.868457000000000E+01      1.693039000000000E-01      1.660234000000000E+02
4935000000.000000      5.028687000000000E-01      1.847461000000000E+01      1.665115000000000E-01      1.662812000000000E+02
4936000000.000000      5.020142000000000E-01      1.838965000000000E+01      1.625824000000000E-01      1.663047000000000E+02
4937000000.000000      5.010071000000000E-01      1.820019000000000E+01      1.591644000000000E-01      1.663984000000000E+02
4938000000.000000      5.012817000000000E-01      1.830664000000000E+01      1.554108000000000E-01      1.666719000000000E+02
4939000000.000000      5.014954000000000E-01      1.813379000000000E+01      1.522369000000000E-01      1.669765000000000E+02
4940000000.000000      5.028687000000000E-01      1.784863000000000E+01      1.484146000000000E-01      1.673672000000000E+02
4941000000.000000      5.016174000000000E-01      1.764453000000000E+01      1.454239000000000E-01      1.677109000000000E+02
4942000000.000000      5.019836000000000E-01      1.761035000000000E+01      1.421432000000000E-01      1.682969000000000E+02
4943000000.000000      5.019531000000000E-01      1.747559000000000E+01      1.388702000000000E-01      1.688281000000000E+02
4944000000.000000      5.005798000000000E-01      1.729980000000000E+01      1.358566000000000E-01      1.691797000000000E+02
4945000000.000000      5.008850000000000E-01      1.730664000000000E+01      1.322403000000000E-01      1.699766000000000E+02
4946000000.000000      5.010986000000000E-01      1.717090000000000E+01      1.292496000000000E-01      1.706406000000000E+02
4947000000.000000      5.011597000000000E-01      1.708008000000000E+01      1.263809000000000E-01      1.715156000000000E+02
4948000000.000000      5.013123000000000E-01      1.682324000000000E+01      1.236649000000000E-01      1.722188000000000E+02
4949000000.000000      5.008240000000000E-01      1.683105000000000E+01      1.208496000000000E-01      1.735234000000000E+02
4950000000.000000      5.008545000000000E-01      1.680273000000000E+01      1.183624000000000E-01      1.744531000000000E+02
4951000000.000000      5.006409000000000E-01      1.639551000000000E+01      1.156273000000000E-01      1.756250000000000E+02
4952000000.000000      4.991760000000000E-01      1.629492000000000E+01      1.128693000000000E-01      1.769140000000000E+02
4953000000.000000      5.001221000000000E-01      1.614648000000000E+01      1.111641000000000E-01      1.781563000000000E+02
4954000000.000000      5.017090000000000E-01      1.592871000000000E+01      1.089211000000000E-01      1.795781000000000E+02
