! Network Analyzer HP8722D
! Hewlett-Packard
! Data name: Linha & Wilkinson
! Saver's name: Rodrigo Anjos
! Comments: Teste da utilização de aquisição
continua pelo VNA HP8722D
! Time and date: 23/5/2025 11:13
!              Frequency                     S11                                                   S21                                                   S12                                                   S22
# HZ  S  MA R 50
4800000000.000000      3.140259000000000E-01      3.746875000000000E+01      4.721222000000000E-01     -1.287656000000000E+02
4801000000.000000      3.148651000000000E-01      3.775781000000000E+01      4.738617000000000E-01     -1.293672000000000E+02
4802000000.000000      3.156738000000000E-01      3.788281000000000E+01      4.754944000000000E-01     -1.299453000000000E+02
4803000000.000000      3.165283000000000E-01      3.801953000000000E+01      4.770355000000000E-01     -1.307422000000000E+02
4804000000.000000      3.176575000000000E-01      3.824609000000000E+01      4.773865000000000E-01     -1.314922000000000E+02
4805000000.000000      3.196869000000000E-01      3.837109000000000E+01      4.800720000000000E-01     -1.323281000000000E+02
4806000000.000000      3.199005000000000E-01      3.847851000000000E+01      4.798737000000000E-01     -1.329375000000000E+02
4807000000.000000      3.210449000000000E-01      3.871094000000000E+01      4.819489000000000E-01     -1.338594000000000E+02
4808000000.000000      3.217468000000000E-01      3.881836000000000E+01      4.829407000000000E-01     -1.343359000000000E+02
4809000000.000000      3.237152000000000E-01      3.914648000000000E+01      4.848480000000000E-01     -1.353125000000000E+02
4810000000.000000      3.248444000000000E-01      3.918164000000000E+01      4.858856000000000E-01     -1.359688000000000E+02
4811000000.000000      3.266296000000000E-01      3.925781000000000E+01      4.868164000000000E-01     -1.367031000000000E+02
4812000000.000000      3.287506000000000E-01      3.943945000000000E+01      4.872284000000000E-01     -1.374219000000000E+02
4813000000.000000      3.293762000000000E-01      3.960156000000000E+01      4.889069000000000E-01     -1.383437000000000E+02
4814000000.000000      3.305817000000000E-01      3.960156000000000E+01      4.887390000000000E-01     -1.389609000000000E+02
4815000000.000000      3.321686000000000E-01      3.978125000000000E+01      4.881592000000000E-01     -1.397109000000000E+02
4816000000.000000      3.341217000000000E-01      3.983007000000000E+01      4.909210000000000E-01     -1.402734000000000E+02
4817000000.000000      3.353729000000000E-01      3.988867000000000E+01      4.913635000000000E-01     -1.410938000000000E+02
4818000000.000000      3.368073000000000E-01      3.997070000000000E+01      4.901428000000000E-01     -1.418047000000000E+02
4819000000.000000      3.387756000000000E-01      3.994141000000000E+01      4.892426000000000E-01     -1.424922000000000E+02
4820000000.000000      3.394928000000000E-01      4.004102000000000E+01      4.912109000000000E-01     -1.433438000000000E+02
4821000000.000000      3.421173000000000E-01      4.004492000000000E+01      4.911957000000000E-01     -1.440625000000000E+02
4822000000.000000      3.431854000000000E-01      3.989453000000000E+01      4.897308000000000E-01     -1.446172000000000E+02
4823000000.000000      3.453827000000000E-01      4.000586000000000E+01      4.901581000000000E-01     -1.454375000000000E+02
4824000000.000000      3.465881000000000E-01      4.004883000000000E+01      4.913940000000000E-01     -1.463594000000000E+02
4825000000.000000      3.487854000000000E-01      3.996094000000000E+01      4.892731000000000E-01     -1.469141000000000E+02
4826000000.000000      3.501587000000000E-01      3.994336000000000E+01      4.908142000000000E-01     -1.478125000000000E+02
4827000000.000000      3.517609000000000E-01      3.999023000000000E+01      4.892578000000000E-01     -1.483203000000000E+02
4828000000.000000      3.544922000000000E-01      3.988867000000000E+01      4.897919000000000E-01     -1.490391000000000E+02
4829000000.000000      3.557892000000000E-01      3.990820000000000E+01      4.900665000000000E-01     -1.496875000000000E+02
4830000000.000000      3.573303000000000E-01      3.976758000000000E+01      4.885101000000000E-01     -1.505781000000000E+02
4831000000.000000      3.587799000000000E-01      3.973242000000000E+01      4.884033000000000E-01     -1.513672000000000E+02
4832000000.000000      3.605652000000000E-01      3.971094000000000E+01      4.866333000000000E-01     -1.519063000000000E+02
4833000000.000000      3.614349000000000E-01      3.952148000000000E+01      4.857330000000000E-01     -1.524844000000000E+02
4834000000.000000      3.632965000000000E-01      3.943945000000000E+01      4.846344000000000E-01     -1.535391000000000E+02
4835000000.000000      3.658905000000000E-01      3.936523000000000E+01      4.841156000000000E-01     -1.541328000000000E+02
4836000000.000000      3.675079000000000E-01      3.942578000000000E+01      4.829407000000000E-01     -1.546797000000000E+02
4837000000.000000      3.684692000000000E-01      3.932422000000000E+01      4.811859000000000E-01     -1.558281000000000E+02
4838000000.000000      3.695984000000000E-01      3.915625000000000E+01      4.807281000000000E-01     -1.562187000000000E+02
4839000000.000000      3.734589000000000E-01      3.905468000000000E+01      4.805450000000000E-01     -1.568984000000000E+02
4840000000.000000      3.733215000000000E-01      3.882617000000000E+01      4.783630000000000E-01     -1.576641000000000E+02
4841000000.000000      3.757019000000000E-01      3.882617000000000E+01      4.787292000000000E-01     -1.585234000000000E+02
4842000000.000000      3.768768000000000E-01      3.850000000000000E+01      4.767914000000000E-01     -1.590234000000000E+02
4843000000.000000      3.793182000000000E-01      3.829492000000000E+01      4.758453000000000E-01     -1.600234000000000E+02
4844000000.000000      3.799286000000000E-01      3.822656000000000E+01      4.737549000000000E-01     -1.607031000000000E+02
4845000000.000000      3.813171000000000E-01      3.818554000000000E+01      4.717407000000000E-01     -1.613750000000000E+02
4846000000.000000      3.830414000000000E-01      3.796875000000000E+01      4.706726000000000E-01     -1.618438000000000E+02
4847000000.000000      3.852386000000000E-01      3.790039000000000E+01      4.682007000000000E-01     -1.627266000000000E+02
4848000000.000000      3.853912000000000E-01      3.761133000000000E+01      4.655151000000000E-01     -1.633594000000000E+02
4849000000.000000      3.868866000000000E-01      3.735742000000000E+01      4.660950000000000E-01     -1.641328000000000E+02
4850000000.000000      3.878326000000000E-01      3.722851000000000E+01      4.629059000000000E-01     -1.650469000000000E+02
4851000000.000000      3.902435000000000E-01      3.722461000000000E+01      4.612427000000000E-01     -1.656250000000000E+02
4852000000.000000      3.908997000000000E-01      3.696680000000000E+01      4.587402000000000E-01     -1.661328000000000E+02
4853000000.000000      3.918915000000000E-01      3.663281000000000E+01      4.562073000000000E-01     -1.668984000000000E+02
4854000000.000000      3.933868000000000E-01      3.643164000000000E+01      4.546204000000000E-01     -1.677109000000000E+02
4855000000.000000      3.943176000000000E-01      3.624414000000000E+01      4.521942000000000E-01     -1.686328000000000E+02
4856000000.000000      3.961792000000000E-01      3.608007000000000E+01      4.497833000000000E-01     -1.689922000000000E+02
4857000000.000000      3.974762000000000E-01      3.592382000000000E+01      4.495087000000000E-01     -1.698281000000000E+02
4858000000.000000      3.977051000000000E-01      3.557031000000000E+01      4.456024000000000E-01     -1.705391000000000E+02
4859000000.000000      3.986359000000000E-01      3.546289000000000E+01      4.444122000000000E-01     -1.711484000000000E+02
4860000000.000000      4.005432000000000E-01      3.524805000000000E+01      4.414368000000000E-01     -1.718750000000000E+02
4861000000.000000      4.009247000000000E-01      3.505859000000000E+01      4.365082000000000E-01     -1.727109000000000E+02
4862000000.000000      4.013214000000000E-01      3.476367000000000E+01      4.359131000000000E-01     -1.732812000000000E+02
4863000000.000000      4.036713000000000E-01      3.451757000000000E+01      4.317017000000000E-01     -1.738906000000000E+02
4864000000.000000      4.043579000000000E-01      3.433008000000000E+01      4.300079000000000E-01     -1.745703000000000E+02
4865000000.000000      4.043579000000000E-01      3.406836000000000E+01      4.269104000000000E-01     -1.750781000000000E+02
4866000000.000000      4.056091000000000E-01      3.378906000000000E+01      4.221344000000000E-01     -1.759219000000000E+02
4867000000.000000      4.049683000000000E-01      3.354297000000000E+01      4.205017000000000E-01     -1.766406000000000E+02
4868000000.000000      4.066620000000000E-01      3.338086000000000E+01      4.183807000000000E-01     -1.773203000000000E+02
4869000000.000000      4.074707000000000E-01      3.314844000000000E+01      4.133759000000000E-01     -1.779297000000000E+02
4870000000.000000      4.079285000000000E-01      3.292578000000000E+01      4.108887000000000E-01     -1.782812000000000E+02
4871000000.000000      4.088287000000000E-01      3.257421000000000E+01      4.084930000000000E-01     -1.790234000000000E+02
4872000000.000000      4.104614000000000E-01      3.252930000000000E+01      4.043274000000000E-01     -1.796562000000000E+02
4873000000.000000      4.105988000000000E-01      3.226367000000000E+01      4.010010000000000E-01      1.795547000000000E+02
4874000000.000000      4.108276000000000E-01      3.202929000000000E+01      3.976440000000000E-01      1.789844000000000E+02
4875000000.000000      4.122009000000000E-01      3.166601000000000E+01      3.933868000000000E-01      1.784453000000000E+02
4876000000.000000      4.112396000000000E-01      3.160351000000000E+01      3.901062000000000E-01      1.779453000000000E+02
4877000000.000000      4.121094000000000E-01      3.109179000000000E+01      3.877563000000000E-01      1.775391000000000E+02
4878000000.000000      4.122162000000000E-01      3.095898000000000E+01      3.830261000000000E-01      1.767812000000000E+02
4879000000.000000      4.127808000000000E-01      3.078906000000000E+01      3.801880000000000E-01      1.762500000000000E+02
4880000000.000000      4.137421000000000E-01      3.047852000000000E+01      3.768616000000000E-01      1.758047000000000E+02
4881000000.000000      4.125061000000000E-01      3.042187000000000E+01      3.737488000000000E-01      1.753359000000000E+02
4882000000.000000      4.145966000000000E-01      3.007910000000000E+01      3.708496000000000E-01      1.746641000000000E+02
4883000000.000000      4.139099000000000E-01      2.985449000000000E+01      3.639832000000000E-01      1.740078000000000E+02
4884000000.000000      4.139862000000000E-01      2.973145000000000E+01      3.635406000000000E-01      1.736797000000000E+02
4885000000.000000      4.154205000000000E-01      2.944043000000000E+01      3.582001000000000E-01      1.732344000000000E+02
4886000000.000000      4.148560000000000E-01      2.918848000000000E+01      3.558044000000000E-01      1.728359000000000E+02
4887000000.000000      4.140015000000000E-01      2.910547000000000E+01      3.527069000000000E-01      1.720469000000000E+02
4888000000.000000      4.158173000000000E-01      2.870703000000000E+01      3.491364000000000E-01      1.715937000000000E+02
4889000000.000000      4.152985000000000E-01      2.851074000000000E+01      3.460846000000000E-01      1.713672000000000E+02
4890000000.000000      4.154510000000000E-01      2.823144000000000E+01      3.408051000000000E-01      1.706484000000000E+02
4891000000.000000      4.161530000000000E-01      2.805566000000000E+01      3.379822000000000E-01      1.703984000000000E+02
4892000000.000000      4.153442000000000E-01      2.784863000000000E+01      3.353577000000000E-01      1.700703000000000E+02
4893000000.000000      4.159698000000000E-01      2.757519000000000E+01      3.307953000000000E-01      1.695313000000000E+02
4894000000.000000      4.157562000000000E-01      2.742969000000000E+01      3.271332000000000E-01      1.691953000000000E+02
4895000000.000000      4.161682000000000E-01      2.717285000000000E+01      3.253479000000000E-01      1.687891000000000E+02
4896000000.000000      4.154053000000000E-01      2.698437000000000E+01      3.211060000000000E-01      1.682969000000000E+02
4897000000.000000      4.155426000000000E-01      2.682519000000000E+01      3.168945000000000E-01      1.678828000000000E+02
4898000000.000000      4.152069000000000E-01      2.671582000000000E+01      3.143463000000000E-01      1.676484000000000E+02
4899000000.000000      4.153900000000000E-01      2.637402000000000E+01      3.107758000000000E-01      1.670156000000000E+02
4900000000.000000      4.140930000000000E-01      2.609472000000000E+01      3.077087000000000E-01      1.668281000000000E+02
4901000000.000000      4.144135000000000E-01      2.602246000000000E+01      3.040161000000000E-01      1.664219000000000E+02
4902000000.000000      4.143066000000000E-01      2.572949000000000E+01      3.011322000000000E-01      1.660703000000000E+02
4903000000.000000      4.146118000000000E-01      2.570898000000000E+01      2.969666000000000E-01      1.655937000000000E+02
4904000000.000000      4.136810000000000E-01      2.534375000000000E+01      2.940369000000000E-01      1.651641000000000E+02
4905000000.000000      4.136810000000000E-01      2.521484000000000E+01      2.914429000000000E-01      1.647656000000000E+02
4906000000.000000      4.134674000000000E-01      2.514062000000000E+01      2.871552000000000E-01      1.647109000000000E+02
4907000000.000000      4.149323000000000E-01      2.486719000000000E+01      2.842560000000000E-01      1.639688000000000E+02
4908000000.000000      4.139709000000000E-01      2.457617000000000E+01      2.809143000000000E-01      1.635781000000000E+02
4909000000.000000      4.133606000000000E-01      2.451562000000000E+01      2.770081000000000E-01      1.632578000000000E+02
4910000000.000000      4.134064000000000E-01      2.428613000000000E+01      2.731018000000000E-01      1.630547000000000E+02
4911000000.000000      4.133606000000000E-01      2.418554000000000E+01      2.706909000000000E-01      1.625781000000000E+02
4912000000.000000      4.137421000000000E-01      2.403809000000000E+01      2.671814000000000E-01      1.621953000000000E+02
4913000000.000000      4.142303000000000E-01      2.380371000000000E+01      2.632446000000000E-01      1.618203000000000E+02
4914000000.000000      4.129944000000000E-01      2.356152000000000E+01      2.597351000000000E-01      1.617422000000000E+02
4915000000.000000      4.123688000000000E-01      2.344531000000000E+01      2.563171000000000E-01      1.611719000000000E+02
4916000000.000000      4.119568000000000E-01      2.328223000000000E+01      2.527161000000000E-01      1.608438000000000E+02
4917000000.000000      4.125366000000000E-01      2.313672000000000E+01      2.485046000000000E-01      1.606484000000000E+02
4918000000.000000      4.114380000000000E-01      2.283301000000000E+01      2.453842000000000E-01      1.602422000000000E+02
4919000000.000000      4.112244000000000E-01      2.283594000000000E+01      2.419128000000000E-01      1.602344000000000E+02
4920000000.000000      4.115753000000000E-01      2.253418000000000E+01      2.374725000000000E-01      1.597188000000000E+02
4921000000.000000      4.110107000000000E-01      2.248828000000000E+01      2.343903000000000E-01      1.596953000000000E+02
4922000000.000000      4.111023000000000E-01      2.227246000000000E+01      2.309494000000000E-01      1.594375000000000E+02
4923000000.000000      4.107666000000000E-01      2.215918000000000E+01      2.267227000000000E-01      1.591797000000000E+02
4924000000.000000      4.102173000000000E-01      2.197363000000000E+01      2.222977000000000E-01      1.588516000000000E+02
4925000000.000000      4.108276000000000E-01      2.175976000000000E+01      2.194595000000000E-01      1.588359000000000E+02
4926000000.000000      4.104462000000000E-01      2.164844000000000E+01      2.155609000000000E-01      1.586250000000000E+02
4927000000.000000      4.118805000000000E-01      2.145996000000000E+01      2.110825000000000E-01      1.583594000000000E+02
4928000000.000000      4.103546000000000E-01      2.124609000000000E+01      2.073822000000000E-01      1.584297000000000E+02
4929000000.000000      4.095001000000000E-01      2.109082000000000E+01      2.031479000000000E-01      1.581250000000000E+02
4930000000.000000      4.091797000000000E-01      2.103027000000000E+01      1.993942000000000E-01      1.582969000000000E+02
4931000000.000000      4.079285000000000E-01      2.078613000000000E+01      1.963959000000000E-01      1.582422000000000E+02
4932000000.000000      4.087982000000000E-01      2.071191000000000E+01      1.918488000000000E-01      1.582266000000000E+02
4933000000.000000      4.084930000000000E-01      2.029004000000000E+01      1.872559000000000E-01      1.583906000000000E+02
4934000000.000000      4.086914000000000E-01      2.021973000000000E+01      1.838608000000000E-01      1.583047000000000E+02
4935000000.000000      4.091644000000000E-01      2.022265000000000E+01      1.805344000000000E-01      1.586328000000000E+02
4936000000.000000      4.079590000000000E-01      1.993457000000000E+01      1.763992000000000E-01      1.588516000000000E+02
4937000000.000000      4.078827000000000E-01      1.975683000000000E+01      1.727676000000000E-01      1.588203000000000E+02
4938000000.000000      4.077606000000000E-01      1.983105000000000E+01      1.692963000000000E-01      1.593437000000000E+02
4939000000.000000      4.069672000000000E-01      1.951953000000000E+01      1.655960000000000E-01      1.594922000000000E+02
4940000000.000000      4.068909000000000E-01      1.934961000000000E+01      1.613541000000000E-01      1.597891000000000E+02
4941000000.000000      4.063721000000000E-01      1.915527000000000E+01      1.583710000000000E-01      1.604531000000000E+02
4942000000.000000      4.059143000000000E-01      1.899219000000000E+01      1.541977000000000E-01      1.608047000000000E+02
4943000000.000000      4.053650000000000E-01      1.884668000000000E+01      1.508026000000000E-01      1.613828000000000E+02
4944000000.000000      4.053345000000000E-01      1.866113000000000E+01      1.478271000000000E-01      1.618594000000000E+02
4945000000.000000      4.051971000000000E-01      1.845215000000000E+01      1.442032000000000E-01      1.626953000000000E+02
4946000000.000000      4.049530000000000E-01      1.839160000000000E+01      1.410828000000000E-01      1.635156000000000E+02
4947000000.000000      4.048920000000000E-01      1.830859000000000E+01      1.381073000000000E-01      1.644219000000000E+02
4948000000.000000      4.054871000000000E-01      1.818066000000000E+01      1.345978000000000E-01      1.652969000000000E+02
4949000000.000000      4.043579000000000E-01      1.786914000000000E+01      1.317062000000000E-01      1.666641000000000E+02
4950000000.000000      4.042969000000000E-01      1.781641000000000E+01      1.289749000000000E-01      1.675234000000000E+02
4951000000.000000      4.044189000000000E-01      1.754492000000000E+01      1.264114000000000E-01      1.686094000000000E+02
4952000000.000000      4.035034000000000E-01      1.747559000000000E+01      1.238098000000000E-01      1.698594000000000E+02
4953000000.000000      4.022369000000000E-01      1.736035000000000E+01      1.218071000000000E-01      1.714375000000000E+02
4954000000.000000      4.024658000000000E-01      1.701367000000000E+01      1.194115000000000E-01      1.727109000000000E+02
