! Network Analyzer HP8722D
! Hewlett-Packard
! Data name: Linha & Wilkinson
! Saver's name: Rodrigo Anjos
! Comments: Teste da utilização de aquisição
continua pelo VNA HP8722D
! Time and date: 23/5/2025 09:51
!              Frequency                     S11                                                   S21                                                   S12                                                   S22
# HZ  S  MA R 50
4800000000.000000      3.119049000000000E-01      3.736133000000000E+01      4.711914000000000E-01     -1.283281000000000E+02
4801000000.000000      3.126831000000000E-01      3.765820000000000E+01      4.730988000000000E-01     -1.289922000000000E+02
4802000000.000000      3.138275000000000E-01      3.781054000000000E+01      4.753723000000000E-01     -1.296016000000000E+02
4803000000.000000      3.143005000000000E-01      3.798242000000000E+01      4.778595000000000E-01     -1.303359000000000E+02
4804000000.000000      3.155060000000000E-01      3.821484000000000E+01      4.787598000000000E-01     -1.312031000000000E+02
4805000000.000000      3.173523000000000E-01      3.823242000000000E+01      4.791565000000000E-01     -1.319141000000000E+02
4806000000.000000      3.176727000000000E-01      3.844141000000000E+01      4.803925000000000E-01     -1.324063000000000E+02
4807000000.000000      3.190460000000000E-01      3.856445000000000E+01      4.817810000000000E-01     -1.334453000000000E+02
4808000000.000000      3.196106000000000E-01      3.877344000000000E+01      4.831390000000000E-01     -1.340781000000000E+02
4809000000.000000      3.208618000000000E-01      3.893164000000000E+01      4.836578000000000E-01     -1.349766000000000E+02
4810000000.000000      3.228760000000000E-01      3.917969000000000E+01      4.858093000000000E-01     -1.356016000000000E+02
4811000000.000000      3.242188000000000E-01      3.924023000000000E+01      4.871216000000000E-01     -1.363516000000000E+02
4812000000.000000      3.268433000000000E-01      3.940039000000000E+01      4.875488000000000E-01     -1.370938000000000E+02
4813000000.000000      3.271484000000000E-01      3.964648000000000E+01      4.880676000000000E-01     -1.377500000000000E+02
4814000000.000000      3.282471000000000E-01      3.954883000000000E+01      4.891357000000000E-01     -1.384297000000000E+02
4815000000.000000      3.296051000000000E-01      3.969336000000000E+01      4.896240000000000E-01     -1.392969000000000E+02
4816000000.000000      3.319092000000000E-01      3.980859000000000E+01      4.915009000000000E-01     -1.398906000000000E+02
4817000000.000000      3.328705000000000E-01      3.992773000000000E+01      4.904175000000000E-01     -1.407031000000000E+02
4818000000.000000      3.344879000000000E-01      3.994726000000000E+01      4.907379000000000E-01     -1.413281000000000E+02
4819000000.000000      3.364258000000000E-01      4.000586000000000E+01      4.913330000000000E-01     -1.422500000000000E+02
4820000000.000000      3.371735000000000E-01      4.001172000000000E+01      4.912415000000000E-01     -1.428594000000000E+02
4821000000.000000      3.399200000000000E-01      4.005468000000000E+01      4.909668000000000E-01     -1.436328000000000E+02
4822000000.000000      3.406372000000000E-01      4.004492000000000E+01      4.903412000000000E-01     -1.442812000000000E+02
4823000000.000000      3.428802000000000E-01      3.999023000000000E+01      4.910431000000000E-01     -1.450859000000000E+02
4824000000.000000      3.440552000000000E-01      4.009179000000000E+01      4.902954000000000E-01     -1.457734000000000E+02
4825000000.000000      3.461609000000000E-01      4.008203000000000E+01      4.910889000000000E-01     -1.463672000000000E+02
4826000000.000000      3.474731000000000E-01      3.998437000000000E+01      4.904327000000000E-01     -1.473672000000000E+02
4827000000.000000      3.497925000000000E-01      3.996679000000000E+01      4.900665000000000E-01     -1.480313000000000E+02
4828000000.000000      3.514252000000000E-01      4.002539000000000E+01      4.912109000000000E-01     -1.488281000000000E+02
4829000000.000000      3.529510000000000E-01      4.009961000000000E+01      4.901123000000000E-01     -1.494141000000000E+02
4830000000.000000      3.545227000000000E-01      3.991015000000000E+01      4.897919000000000E-01     -1.501953000000000E+02
4831000000.000000      3.558502000000000E-01      3.982812000000000E+01      4.890442000000000E-01     -1.510234000000000E+02
4832000000.000000      3.578186000000000E-01      3.989258000000000E+01      4.885864000000000E-01     -1.515938000000000E+02
4833000000.000000      3.588715000000000E-01      3.971289000000000E+01      4.867401000000000E-01     -1.524453000000000E+02
4834000000.000000      3.605652000000000E-01      3.958984000000000E+01      4.862671000000000E-01     -1.529922000000000E+02
4835000000.000000      3.632660000000000E-01      3.943164000000000E+01      4.849548000000000E-01     -1.538672000000000E+02
4836000000.000000      3.648987000000000E-01      3.940234000000000E+01      4.848633000000000E-01     -1.545234000000000E+02
4837000000.000000      3.658752000000000E-01      3.946094000000000E+01      4.821320000000000E-01     -1.555859000000000E+02
4838000000.000000      3.671112000000000E-01      3.913086000000000E+01      4.826508000000000E-01     -1.558906000000000E+02
4839000000.000000      3.708038000000000E-01      3.913281000000000E+01      4.815216000000000E-01     -1.566406000000000E+02
4840000000.000000      3.716431000000000E-01      3.885156000000000E+01      4.799652000000000E-01     -1.572891000000000E+02
4841000000.000000      3.729553000000000E-01      3.894336000000000E+01      4.806366000000000E-01     -1.582500000000000E+02
4842000000.000000      3.740997000000000E-01      3.873632000000000E+01      4.788818000000000E-01     -1.590156000000000E+02
4843000000.000000      3.765106000000000E-01      3.847265000000000E+01      4.753265000000000E-01     -1.595312000000000E+02
4844000000.000000      3.773956000000000E-01      3.833593000000000E+01      4.752655000000000E-01     -1.602578000000000E+02
4845000000.000000      3.787842000000000E-01      3.830469000000000E+01      4.736938000000000E-01     -1.610469000000000E+02
4846000000.000000      3.806000000000000E-01      3.805078000000000E+01      4.714050000000000E-01     -1.615547000000000E+02
4847000000.000000      3.825989000000000E-01      3.800195000000000E+01      4.700470000000000E-01     -1.620859000000000E+02
4848000000.000000      3.828583000000000E-01      3.766992000000000E+01      4.680328000000000E-01     -1.630547000000000E+02
4849000000.000000      3.842316000000000E-01      3.747070000000000E+01      4.673615000000000E-01     -1.636953000000000E+02
4850000000.000000      3.859253000000000E-01      3.730664000000000E+01      4.653931000000000E-01     -1.643437000000000E+02
4851000000.000000      3.875122000000000E-01      3.722461000000000E+01      4.642029000000000E-01     -1.652891000000000E+02
4852000000.000000      3.886871000000000E-01      3.701953000000000E+01      4.598999000000000E-01     -1.658516000000000E+02
4853000000.000000      3.906097000000000E-01      3.683008000000000E+01      4.579315000000000E-01     -1.667109000000000E+02
4854000000.000000      3.916779000000000E-01      3.659570000000000E+01      4.563446000000000E-01     -1.675156000000000E+02
4855000000.000000      3.922424000000000E-01      3.639453000000000E+01      4.548340000000000E-01     -1.680234000000000E+02
4856000000.000000      3.936615000000000E-01      3.618750000000000E+01      4.527435000000000E-01     -1.687969000000000E+02
4857000000.000000      3.950348000000000E-01      3.600390000000000E+01      4.516907000000000E-01     -1.692969000000000E+02
4858000000.000000      3.961029000000000E-01      3.573437000000000E+01      4.484100000000000E-01     -1.702891000000000E+02
4859000000.000000      3.970947000000000E-01      3.544140000000000E+01      4.453125000000000E-01     -1.707969000000000E+02
4860000000.000000      3.979645000000000E-01      3.536523000000000E+01      4.437866000000000E-01     -1.713359000000000E+02
4861000000.000000      3.990784000000000E-01      3.506836000000000E+01      4.401855000000000E-01     -1.722109000000000E+02
4862000000.000000      4.000854000000000E-01      3.491015000000000E+01      4.391937000000000E-01     -1.728906000000000E+02
4863000000.000000      4.012909000000000E-01      3.471484000000000E+01      4.338226000000000E-01     -1.735625000000000E+02
4864000000.000000      4.024658000000000E-01      3.440430000000000E+01      4.325714000000000E-01     -1.743594000000000E+02
4865000000.000000      4.024658000000000E-01      3.421875000000000E+01      4.300995000000000E-01     -1.746875000000000E+02
4866000000.000000      4.040680000000000E-01      3.386719000000000E+01      4.262085000000000E-01     -1.754141000000000E+02
4867000000.000000      4.038391000000000E-01      3.370117000000000E+01      4.238586000000000E-01     -1.762422000000000E+02
4868000000.000000      4.052429000000000E-01      3.348633000000000E+01      4.199524000000000E-01     -1.769531000000000E+02
4869000000.000000      4.054260000000000E-01      3.323633000000000E+01      4.167328000000000E-01     -1.774453000000000E+02
4870000000.000000      4.064789000000000E-01      3.301172000000000E+01      4.144745000000000E-01     -1.777734000000000E+02
4871000000.000000      4.068604000000000E-01      3.273046000000000E+01      4.099579000000000E-01     -1.786719000000000E+02
4872000000.000000      4.088440000000000E-01      3.250781000000000E+01      4.072876000000000E-01     -1.791250000000000E+02
4873000000.000000      4.079590000000000E-01      3.227148000000000E+01      4.040527000000000E-01      1.799062000000000E+02
4874000000.000000      4.095001000000000E-01      3.213476000000000E+01      4.005737000000000E-01      1.793906000000000E+02
4875000000.000000      4.097595000000000E-01      3.183691000000000E+01      3.966522000000000E-01      1.787812000000000E+02
4876000000.000000      4.105530000000000E-01      3.170215000000000E+01      3.936310000000000E-01      1.781641000000000E+02
4877000000.000000      4.117126000000000E-01      3.124902000000000E+01      3.910065000000000E-01      1.775078000000000E+02
4878000000.000000      4.105682000000000E-01      3.110156000000000E+01      3.873138000000000E-01      1.770937000000000E+02
4879000000.000000      4.121552000000000E-01      3.086523000000000E+01      3.831024000000000E-01      1.767500000000000E+02
4880000000.000000      4.120789000000000E-01      3.059668000000000E+01      3.789215000000000E-01      1.758984000000000E+02
4881000000.000000      4.123993000000000E-01      3.045507000000000E+01      3.769836000000000E-01      1.754062000000000E+02
4882000000.000000      4.123383000000000E-01      3.023144000000000E+01      3.728485000000000E-01      1.748594000000000E+02
4883000000.000000      4.124146000000000E-01      2.995508000000000E+01      3.680573000000000E-01      1.744062000000000E+02
4884000000.000000      4.136810000000000E-01      2.975586000000000E+01      3.655396000000000E-01      1.738281000000000E+02
4885000000.000000      4.137268000000000E-01      2.954687000000000E+01      3.612213000000000E-01      1.735937000000000E+02
4886000000.000000      4.133148000000000E-01      2.936230000000000E+01      3.594360000000000E-01      1.732891000000000E+02
4887000000.000000      4.143219000000000E-01      2.895996000000000E+01      3.560181000000000E-01      1.724922000000000E+02
4888000000.000000      4.136047000000000E-01      2.873437000000000E+01      3.519897000000000E-01      1.719687000000000E+02
4889000000.000000      4.140320000000000E-01      2.851855000000000E+01      3.485413000000000E-01      1.715625000000000E+02
4890000000.000000      4.135895000000000E-01      2.829785000000000E+01      3.448486000000000E-01      1.708906000000000E+02
4891000000.000000      4.143372000000000E-01      2.820410000000000E+01      3.411102000000000E-01      1.705469000000000E+02
4892000000.000000      4.129639000000000E-01      2.792773000000000E+01      3.377686000000000E-01      1.703203000000000E+02
4893000000.000000      4.149628000000000E-01      2.764648000000000E+01      3.337708000000000E-01      1.694531000000000E+02
4894000000.000000      4.141693000000000E-01      2.732519000000000E+01      3.314972000000000E-01      1.691641000000000E+02
4895000000.000000      4.144592000000000E-01      2.714648000000000E+01      3.277588000000000E-01      1.689219000000000E+02
4896000000.000000      4.140625000000000E-01      2.710449000000000E+01      3.234253000000000E-01      1.685234000000000E+02
4897000000.000000      4.145203000000000E-01      2.682031000000000E+01      3.200684000000000E-01      1.679922000000000E+02
4898000000.000000      4.144440000000000E-01      2.666601000000000E+01      3.175964000000000E-01      1.674844000000000E+02
4899000000.000000      4.146881000000000E-01      2.647949000000000E+01      3.142395000000000E-01      1.671562000000000E+02
4900000000.000000      4.140625000000000E-01      2.610352000000000E+01      3.102417000000000E-01      1.668828000000000E+02
4901000000.000000      4.140015000000000E-01      2.600781000000000E+01      3.074493000000000E-01      1.664766000000000E+02
4902000000.000000      4.139099000000000E-01      2.586816000000000E+01      3.045349000000000E-01      1.660234000000000E+02
4903000000.000000      4.138336000000000E-01      2.568164000000000E+01      2.995605000000000E-01      1.656016000000000E+02
4904000000.000000      4.131317000000000E-01      2.536133000000000E+01      2.967987000000000E-01      1.651953000000000E+02
4905000000.000000      4.140320000000000E-01      2.522851000000000E+01      2.941132000000000E-01      1.648125000000000E+02
4906000000.000000      4.120178000000000E-01      2.518261000000000E+01      2.899475000000000E-01      1.646484000000000E+02
4907000000.000000      4.136200000000000E-01      2.471289000000000E+01      2.871704000000000E-01      1.640781000000000E+02
4908000000.000000      4.126434000000000E-01      2.463672000000000E+01      2.849731000000000E-01      1.637266000000000E+02
4909000000.000000      4.109802000000000E-01      2.455566000000000E+01      2.803345000000000E-01      1.633828000000000E+02
4910000000.000000      4.121552000000000E-01      2.430957000000000E+01      2.767181000000000E-01      1.630703000000000E+02
4911000000.000000      4.123840000000000E-01      2.412304000000000E+01      2.741699000000000E-01      1.627109000000000E+02
4912000000.000000      4.118042000000000E-01      2.403809000000000E+01      2.701111000000000E-01      1.622109000000000E+02
4913000000.000000      4.122314000000000E-01      2.375977000000000E+01      2.669983000000000E-01      1.619297000000000E+02
4914000000.000000      4.113770000000000E-01      2.350195000000000E+01      2.629242000000000E-01      1.617266000000000E+02
4915000000.000000      4.114380000000000E-01      2.346680000000000E+01      2.594147000000000E-01      1.611250000000000E+02
4916000000.000000      4.112244000000000E-01      2.324707000000000E+01      2.552032000000000E-01      1.608750000000000E+02
4917000000.000000      4.108582000000000E-01      2.303418000000000E+01      2.523956000000000E-01      1.606094000000000E+02
4918000000.000000      4.107361000000000E-01      2.296093000000000E+01      2.480469000000000E-01      1.602031000000000E+02
4919000000.000000      4.093170000000000E-01      2.276367000000000E+01      2.449493000000000E-01      1.602344000000000E+02
4920000000.000000      4.099731000000000E-01      2.268359000000000E+01      2.407761000000000E-01      1.595859000000000E+02
4921000000.000000      4.093018000000000E-01      2.250488000000000E+01      2.375107000000000E-01      1.595312000000000E+02
4922000000.000000      4.082336000000000E-01      2.204492000000000E+01      2.335968000000000E-01      1.593672000000000E+02
4923000000.000000      4.100800000000000E-01      2.211524000000000E+01      2.290344000000000E-01      1.591094000000000E+02
4924000000.000000      4.101410000000000E-01      2.193262000000000E+01      2.254944000000000E-01      1.587344000000000E+02
4925000000.000000      4.079895000000000E-01      2.180859000000000E+01      2.218857000000000E-01      1.585938000000000E+02
4926000000.000000      4.089813000000000E-01      2.162890000000000E+01      2.179489000000000E-01      1.583359000000000E+02
4927000000.000000      4.091492000000000E-01      2.138965000000000E+01      2.135086000000000E-01      1.582344000000000E+02
4928000000.000000      4.084167000000000E-01      2.133789000000000E+01      2.104187000000000E-01      1.580703000000000E+02
4929000000.000000      4.084167000000000E-01      2.104980000000000E+01      2.065201000000000E-01      1.580156000000000E+02
4930000000.000000      4.087372000000000E-01      2.114160000000000E+01      2.030792000000000E-01      1.578750000000000E+02
4931000000.000000      4.081573000000000E-01      2.066797000000000E+01      1.991348000000000E-01      1.578828000000000E+02
4932000000.000000      4.075623000000000E-01      2.073242000000000E+01      1.945267000000000E-01      1.579062000000000E+02
4933000000.000000      4.083252000000000E-01      2.041211000000000E+01      1.901474000000000E-01      1.581094000000000E+02
4934000000.000000      4.073944000000000E-01      2.020508000000000E+01      1.866913000000000E-01      1.580156000000000E+02
4935000000.000000      4.075623000000000E-01      2.011817000000000E+01      1.832504000000000E-01      1.581953000000000E+02
4936000000.000000      4.059906000000000E-01      1.995215000000000E+01      1.793137000000000E-01      1.582187000000000E+02
4937000000.000000      4.067841000000000E-01      1.969238000000000E+01      1.755066000000000E-01      1.583516000000000E+02
4938000000.000000      4.053040000000000E-01      1.972656000000000E+01      1.710815000000000E-01      1.586328000000000E+02
4939000000.000000      4.058533000000000E-01      1.951562000000000E+01      1.681061000000000E-01      1.589844000000000E+02
4940000000.000000      4.057770000000000E-01      1.924023000000000E+01      1.638641000000000E-01      1.591406000000000E+02
4941000000.000000      4.058533000000000E-01      1.915430000000000E+01      1.605911000000000E-01      1.598359000000000E+02
4942000000.000000      4.047852000000000E-01      1.916699000000000E+01      1.567917000000000E-01      1.601641000000000E+02
4943000000.000000      4.053955000000000E-01      1.891211000000000E+01      1.531143000000000E-01      1.605156000000000E+02
4944000000.000000      4.050751000000000E-01      1.856348000000000E+01      1.494522000000000E-01      1.612422000000000E+02
4945000000.000000      4.048767000000000E-01      1.840039000000000E+01      1.461639000000000E-01      1.618438000000000E+02
4946000000.000000      4.051056000000000E-01      1.827929000000000E+01      1.428375000000000E-01      1.624922000000000E+02
4947000000.000000      4.043427000000000E-01      1.810254000000000E+01      1.395187000000000E-01      1.633125000000000E+02
4948000000.000000      4.043579000000000E-01      1.810644000000000E+01      1.365128000000000E-01      1.640703000000000E+02
4949000000.000000      4.031982000000000E-01      1.790820000000000E+01      1.338730000000000E-01      1.654922000000000E+02
4950000000.000000      4.038239000000000E-01      1.776172000000000E+01      1.302567000000000E-01      1.663516000000000E+02
4951000000.000000      4.040070000000000E-01      1.752637000000000E+01      1.279144000000000E-01      1.672891000000000E+02
4952000000.000000      4.024048000000000E-01      1.726172000000000E+01      1.247139000000000E-01      1.685390000000000E+02
4953000000.000000      4.012909000000000E-01      1.727051000000000E+01      1.228142000000000E-01      1.699844000000000E+02
4954000000.000000      4.028168000000000E-01      1.720703000000000E+01      1.204109000000000E-01      1.713203000000000E+02
