! Network Analyzer HP8722D
! Hewlett-Packard
! Data name: Linha & Wilkinson
! Saver's name: Rodrigo Anjos
! Comments: Teste da utilização de aquisição
continua pelo VNA HP8722D
! Time and date: 23/5/2025 11:53
!              Frequency                     S11                                                   S21                                                   S12                                                   S22
# HZ  S  MA R 50
4800000000.000000      3.016205000000000E-01      3.828906000000000E+01      4.754944000000000E-01     -1.287734000000000E+02
4801000000.000000      3.025665000000000E-01      3.851758000000000E+01      4.794312000000000E-01     -1.291563000000000E+02
4802000000.000000      3.037109000000000E-01      3.871094000000000E+01      4.807129000000000E-01     -1.298750000000000E+02
4803000000.000000      3.047028000000000E-01      3.884180000000000E+01      4.821320000000000E-01     -1.306328000000000E+02
4804000000.000000      3.057251000000000E-01      3.909570000000000E+01      4.835205000000000E-01     -1.313203000000000E+02
4805000000.000000      3.075256000000000E-01      3.918945000000000E+01      4.844208000000000E-01     -1.319453000000000E+02
4806000000.000000      3.083954000000000E-01      3.937500000000000E+01      4.860687000000000E-01     -1.328672000000000E+02
4807000000.000000      3.097839000000000E-01      3.954883000000000E+01      4.865570000000000E-01     -1.336875000000000E+02
4808000000.000000      3.105774000000000E-01      3.968359000000000E+01      4.884338000000000E-01     -1.342578000000000E+02
4809000000.000000      3.118896000000000E-01      3.995312000000000E+01      4.907990000000000E-01     -1.351641000000000E+02
4810000000.000000      3.126678000000000E-01      4.011328000000000E+01      4.913483000000000E-01     -1.356953000000000E+02
4811000000.000000      3.144379000000000E-01      4.025586000000000E+01      4.933167000000000E-01     -1.365859000000000E+02
4812000000.000000      3.168488000000000E-01      4.042969000000000E+01      4.937134000000000E-01     -1.371094000000000E+02
4813000000.000000      3.173065000000000E-01      4.060351000000000E+01      4.926758000000000E-01     -1.380000000000000E+02
4814000000.000000      3.185425000000000E-01      4.052734000000000E+01      4.944458000000000E-01     -1.387969000000000E+02
4815000000.000000      3.202667000000000E-01      4.073828000000000E+01      4.952545000000000E-01     -1.394844000000000E+02
4816000000.000000      3.223724000000000E-01      4.089648000000000E+01      4.968872000000000E-01     -1.402344000000000E+02
4817000000.000000      3.235626000000000E-01      4.098046000000000E+01      4.959869000000000E-01     -1.409375000000000E+02
4818000000.000000      3.248901000000000E-01      4.092773000000000E+01      4.955292000000000E-01     -1.415234000000000E+02
4819000000.000000      3.270264000000000E-01      4.095703000000000E+01      4.971008000000000E-01     -1.423906000000000E+02
4820000000.000000      3.282013000000000E-01      4.104882000000000E+01      4.979706000000000E-01     -1.430000000000000E+02
4821000000.000000      3.306427000000000E-01      4.106250000000000E+01      4.973602000000000E-01     -1.438281000000000E+02
4822000000.000000      3.314056000000000E-01      4.103320000000000E+01      4.958801000000000E-01     -1.446172000000000E+02
4823000000.000000      3.335114000000000E-01      4.105859000000000E+01      4.980469000000000E-01     -1.453594000000000E+02
4824000000.000000      3.353271000000000E-01      4.121289000000000E+01      4.969635000000000E-01     -1.462500000000000E+02
4825000000.000000      3.371277000000000E-01      4.102344000000000E+01      4.964447000000000E-01     -1.468047000000000E+02
4826000000.000000      3.383942000000000E-01      4.102148000000000E+01      4.977875000000000E-01     -1.476172000000000E+02
4827000000.000000      3.408356000000000E-01      4.109179000000000E+01      4.957428000000000E-01     -1.482656000000000E+02
4828000000.000000      3.428192000000000E-01      4.099218000000000E+01      4.957581000000000E-01     -1.490313000000000E+02
4829000000.000000      3.445740000000000E-01      4.094140000000000E+01      4.964905000000000E-01     -1.496172000000000E+02
4830000000.000000      3.459015000000000E-01      4.080859000000000E+01      4.943390000000000E-01     -1.504219000000000E+02
4831000000.000000      3.474426000000000E-01      4.079687000000000E+01      4.951019000000000E-01     -1.510937000000000E+02
4832000000.000000      3.492584000000000E-01      4.090234000000000E+01      4.934082000000000E-01     -1.517734000000000E+02
4833000000.000000      3.504944000000000E-01      4.063281000000000E+01      4.930725000000000E-01     -1.525000000000000E+02
4834000000.000000      3.522797000000000E-01      4.055078000000000E+01      4.924316000000000E-01     -1.532187000000000E+02
4835000000.000000      3.547363000000000E-01      4.050781000000000E+01      4.916687000000000E-01     -1.539687000000000E+02
4836000000.000000      3.562927000000000E-01      4.049609000000000E+01      4.901428000000000E-01     -1.547266000000000E+02
4837000000.000000      3.572845000000000E-01      4.044335000000000E+01      4.892731000000000E-01     -1.556250000000000E+02
4838000000.000000      3.586121000000000E-01      4.019336000000000E+01      4.883575000000000E-01     -1.563359000000000E+02
4839000000.000000      3.615875000000000E-01      4.015625000000000E+01      4.884338000000000E-01     -1.567891000000000E+02
4840000000.000000      3.625336000000000E-01      3.985937000000000E+01      4.859619000000000E-01     -1.574766000000000E+02
4841000000.000000      3.645782000000000E-01      3.990429000000000E+01      4.855042000000000E-01     -1.582813000000000E+02
4842000000.000000      3.661804000000000E-01      3.966406000000000E+01      4.844360000000000E-01     -1.590156000000000E+02
4843000000.000000      3.682709000000000E-01      3.939258000000000E+01      4.822235000000000E-01     -1.596953000000000E+02
4844000000.000000      3.693542000000000E-01      3.932812000000000E+01      4.811401000000000E-01     -1.604063000000000E+02
4845000000.000000      3.705597000000000E-01      3.925000000000000E+01      4.799957000000000E-01     -1.610078000000000E+02
4846000000.000000      3.725891000000000E-01      3.897070000000000E+01      4.788971000000000E-01     -1.618984000000000E+02
4847000000.000000      3.741760000000000E-01      3.884766000000000E+01      4.758301000000000E-01     -1.626797000000000E+02
4848000000.000000      3.748169000000000E-01      3.872656000000000E+01      4.745026000000000E-01     -1.633437000000000E+02
4849000000.000000      3.766479000000000E-01      3.838867000000000E+01      4.735565000000000E-01     -1.640156000000000E+02
4850000000.000000      3.779297000000000E-01      3.825390000000000E+01      4.720001000000000E-01     -1.646406000000000E+02
4851000000.000000      3.797760000000000E-01      3.812304000000000E+01      4.703827000000000E-01     -1.653437000000000E+02
4852000000.000000      3.808136000000000E-01      3.784375000000000E+01      4.675293000000000E-01     -1.658594000000000E+02
4853000000.000000      3.821564000000000E-01      3.762500000000000E+01      4.638977000000000E-01     -1.667969000000000E+02
4854000000.000000      3.834076000000000E-01      3.740429000000000E+01      4.639130000000000E-01     -1.676406000000000E+02
4855000000.000000      3.851013000000000E-01      3.721875000000000E+01      4.597778000000000E-01     -1.682031000000000E+02
4856000000.000000      3.858795000000000E-01      3.700390000000000E+01      4.585876000000000E-01     -1.688359000000000E+02
4857000000.000000      3.872986000000000E-01      3.680273000000000E+01      4.579315000000000E-01     -1.696250000000000E+02
4858000000.000000      3.880768000000000E-01      3.652539000000000E+01      4.547577000000000E-01     -1.702891000000000E+02
4859000000.000000      3.895569000000000E-01      3.623632000000000E+01      4.528809000000000E-01     -1.711562000000000E+02
4860000000.000000      3.892365000000000E-01      3.616992000000000E+01      4.502258000000000E-01     -1.715234000000000E+02
4861000000.000000      3.904266000000000E-01      3.601563000000000E+01      4.463806000000000E-01     -1.722578000000000E+02
4862000000.000000      3.918457000000000E-01      3.561718000000000E+01      4.451752000000000E-01     -1.730000000000000E+02
4863000000.000000      3.926239000000000E-01      3.548633000000000E+01      4.406738000000000E-01     -1.739609000000000E+02
4864000000.000000      3.938599000000000E-01      3.516406000000000E+01      4.381866000000000E-01     -1.743203000000000E+02
4865000000.000000      3.944550000000000E-01      3.493750000000000E+01      4.363098000000000E-01     -1.749844000000000E+02
4866000000.000000      3.954926000000000E-01      3.461914000000000E+01      4.324493000000000E-01     -1.757656000000000E+02
4867000000.000000      3.957672000000000E-01      3.439648000000000E+01      4.310608000000000E-01     -1.765234000000000E+02
4868000000.000000      3.969116000000000E-01      3.416016000000000E+01      4.269562000000000E-01     -1.771250000000000E+02
4869000000.000000      3.972473000000000E-01      3.391797000000000E+01      4.237518000000000E-01     -1.776094000000000E+02
4870000000.000000      3.985291000000000E-01      3.363086000000000E+01      4.200745000000000E-01     -1.780234000000000E+02
4871000000.000000      3.989258000000000E-01      3.339258000000000E+01      4.184113000000000E-01     -1.789063000000000E+02
4872000000.000000      3.997192000000000E-01      3.320703000000000E+01      4.135132000000000E-01     -1.793359000000000E+02
4873000000.000000      4.004974000000000E-01      3.298828000000000E+01      4.097900000000000E-01      1.799062000000000E+02
4874000000.000000      4.013214000000000E-01      3.275781000000000E+01      4.057007000000000E-01      1.790390000000000E+02
4875000000.000000      4.020233000000000E-01      3.241406000000000E+01      4.045868000000000E-01      1.788984000000000E+02
4876000000.000000      4.023438000000000E-01      3.228906000000000E+01      4.008942000000000E-01      1.780313000000000E+02
4877000000.000000      4.033356000000000E-01      3.189844000000000E+01      3.969574000000000E-01      1.773047000000000E+02
4878000000.000000      4.026947000000000E-01      3.173047000000000E+01      3.932190000000000E-01      1.768437000000000E+02
4879000000.000000      4.043121000000000E-01      3.137109000000000E+01      3.897247000000000E-01      1.764531000000000E+02
4880000000.000000      4.038391000000000E-01      3.120312000000000E+01      3.878174000000000E-01      1.758437000000000E+02
4881000000.000000      4.041443000000000E-01      3.095508000000000E+01      3.832092000000000E-01      1.752109000000000E+02
4882000000.000000      4.056244000000000E-01      3.076562000000000E+01      3.806305000000000E-01      1.748281000000000E+02
4883000000.000000      4.044495000000000E-01      3.046582000000000E+01      3.758698000000000E-01      1.741328000000000E+02
4884000000.000000      4.053040000000000E-01      3.031445000000000E+01      3.733215000000000E-01      1.734844000000000E+02
4885000000.000000      4.053497000000000E-01      3.002832000000000E+01      3.690338000000000E-01      1.732031000000000E+02
4886000000.000000      4.063110000000000E-01      2.984961000000000E+01      3.664246000000000E-01      1.728281000000000E+02
4887000000.000000      4.053192000000000E-01      2.948828000000000E+01      3.625488000000000E-01      1.722578000000000E+02
4888000000.000000      4.061890000000000E-01      2.919726000000000E+01      3.602905000000000E-01      1.716797000000000E+02
4889000000.000000      4.060211000000000E-01      2.917383000000000E+01      3.554688000000000E-01      1.712500000000000E+02
4890000000.000000      4.052887000000000E-01      2.879883000000000E+01      3.499603000000000E-01      1.704844000000000E+02
4891000000.000000      4.061737000000000E-01      2.866699000000000E+01      3.474731000000000E-01      1.701797000000000E+02
4892000000.000000      4.061127000000000E-01      2.835254000000000E+01      3.445129000000000E-01      1.699453000000000E+02
4893000000.000000      4.057770000000000E-01      2.815722000000000E+01      3.412781000000000E-01      1.693906000000000E+02
4894000000.000000      4.056549000000000E-01      2.795312000000000E+01      3.371887000000000E-01      1.688594000000000E+02
4895000000.000000      4.072418000000000E-01      2.769336000000000E+01      3.367767000000000E-01      1.686641000000000E+02
4896000000.000000      4.060211000000000E-01      2.758789000000000E+01      3.313141000000000E-01      1.679844000000000E+02
4897000000.000000      4.062347000000000E-01      2.730762000000000E+01      3.260040000000000E-01      1.675078000000000E+02
4898000000.000000      4.049988000000000E-01      2.714844000000000E+01      3.237457000000000E-01      1.674687000000000E+02
4899000000.000000      4.053955000000000E-01      2.680078000000000E+01      3.203430000000000E-01      1.667344000000000E+02
4900000000.000000      4.055176000000000E-01      2.662793000000000E+01      3.172913000000000E-01      1.665547000000000E+02
4901000000.000000      4.054565000000000E-01      2.638574000000000E+01      3.138428000000000E-01      1.661562000000000E+02
4902000000.000000      4.056244000000000E-01      2.620019000000000E+01      3.107605000000000E-01      1.657891000000000E+02
4903000000.000000      4.055481000000000E-01      2.610058000000000E+01      3.064270000000000E-01      1.654063000000000E+02
4904000000.000000      4.048920000000000E-01      2.575293000000000E+01      3.031006000000000E-01      1.649219000000000E+02
4905000000.000000      4.049988000000000E-01      2.559179000000000E+01      3.001099000000000E-01      1.642969000000000E+02
4906000000.000000      4.049072000000000E-01      2.547363000000000E+01      2.965240000000000E-01      1.642500000000000E+02
4907000000.000000      4.047852000000000E-01      2.512890000000000E+01      2.941437000000000E-01      1.637500000000000E+02
4908000000.000000      4.049225000000000E-01      2.490039000000000E+01      2.907104000000000E-01      1.633750000000000E+02
4909000000.000000      4.042206000000000E-01      2.484082000000000E+01      2.863159000000000E-01      1.630625000000000E+02
4910000000.000000      4.040375000000000E-01      2.460058000000000E+01      2.829437000000000E-01      1.626484000000000E+02
4911000000.000000      4.036865000000000E-01      2.452343000000000E+01      2.798462000000000E-01      1.623203000000000E+02
4912000000.000000      4.033356000000000E-01      2.427539000000000E+01      2.753143000000000E-01      1.617656000000000E+02
4913000000.000000      4.034271000000000E-01      2.420801000000000E+01      2.724915000000000E-01      1.615000000000000E+02
4914000000.000000      4.035339000000000E-01      2.380664000000000E+01      2.688141000000000E-01      1.612500000000000E+02
4915000000.000000      4.026947000000000E-01      2.381250000000000E+01      2.647858000000000E-01      1.606719000000000E+02
4916000000.000000      4.028931000000000E-01      2.359668000000000E+01      2.616577000000000E-01      1.605078000000000E+02
4917000000.000000      4.019012000000000E-01      2.329590000000000E+01      2.585449000000000E-01      1.602422000000000E+02
4918000000.000000      4.016266000000000E-01      2.316308000000000E+01      2.543488000000000E-01      1.598594000000000E+02
4919000000.000000      3.996735000000000E-01      2.298340000000000E+01      2.510529000000000E-01      1.597109000000000E+02
4920000000.000000      4.012146000000000E-01      2.288965000000000E+01      2.465897000000000E-01      1.592187000000000E+02
4921000000.000000      4.012146000000000E-01      2.268652000000000E+01      2.436142000000000E-01      1.589687000000000E+02
4922000000.000000      4.002991000000000E-01      2.243750000000000E+01      2.395935000000000E-01      1.588594000000000E+02
4923000000.000000      4.011688000000000E-01      2.240625000000000E+01      2.351227000000000E-01      1.584219000000000E+02
4924000000.000000      4.006500000000000E-01      2.219727000000000E+01      2.305679000000000E-01      1.581406000000000E+02
4925000000.000000      4.001923000000000E-01      2.203516000000000E+01      2.275009000000000E-01      1.582109000000000E+02
4926000000.000000      3.996582000000000E-01      2.180566000000000E+01      2.240906000000000E-01      1.576328000000000E+02
4927000000.000000      3.992310000000000E-01      2.170312000000000E+01      2.194824000000000E-01      1.575547000000000E+02
4928000000.000000      3.998718000000000E-01      2.148340000000000E+01      2.156906000000000E-01      1.573437000000000E+02
4929000000.000000      3.987579000000000E-01      2.131152000000000E+01      2.114334000000000E-01      1.575625000000000E+02
4930000000.000000      3.999023000000000E-01      2.110547000000000E+01      2.080307000000000E-01      1.572344000000000E+02
4931000000.000000      3.979187000000000E-01      2.096191000000000E+01      2.044296000000000E-01      1.571640000000000E+02
4932000000.000000      3.987732000000000E-01      2.079297000000000E+01      1.999435000000000E-01      1.571797000000000E+02
4933000000.000000      3.990784000000000E-01      2.063574000000000E+01      1.955109000000000E-01      1.572109000000000E+02
4934000000.000000      3.985291000000000E-01      2.052441000000000E+01      1.918411000000000E-01      1.571172000000000E+02
4935000000.000000      3.989868000000000E-01      2.027637000000000E+01      1.884384000000000E-01      1.573828000000000E+02
4936000000.000000      3.961945000000000E-01      2.008984000000000E+01      1.839676000000000E-01      1.575078000000000E+02
4937000000.000000      3.974152000000000E-01      1.983496000000000E+01      1.799088000000000E-01      1.575078000000000E+02
4938000000.000000      3.968353000000000E-01      1.999219000000000E+01      1.762848000000000E-01      1.576484000000000E+02
4939000000.000000      3.969574000000000E-01      1.981152000000000E+01      1.724777000000000E-01      1.581172000000000E+02
4940000000.000000      3.967438000000000E-01      1.951367000000000E+01      1.681519000000000E-01      1.581484000000000E+02
4941000000.000000      3.961945000000000E-01      1.931348000000000E+01      1.647110000000000E-01      1.587812000000000E+02
4942000000.000000      3.962402000000000E-01      1.919922000000000E+01      1.609650000000000E-01      1.589062000000000E+02
4943000000.000000      3.965149000000000E-01      1.913769000000000E+01      1.571655000000000E-01      1.594687000000000E+02
4944000000.000000      3.952332000000000E-01      1.896875000000000E+01      1.541290000000000E-01      1.600312000000000E+02
4945000000.000000      3.963013000000000E-01      1.861328000000000E+01      1.499100000000000E-01      1.605781000000000E+02
4946000000.000000      3.957214000000000E-01      1.861328000000000E+01      1.467209000000000E-01      1.612969000000000E+02
4947000000.000000      3.949585000000000E-01      1.833691000000000E+01      1.427689000000000E-01      1.622266000000000E+02
4948000000.000000      3.947449000000000E-01      1.820215000000000E+01      1.399994000000000E-01      1.629453000000000E+02
4949000000.000000      3.937683000000000E-01      1.806836000000000E+01      1.367874000000000E-01      1.639609000000000E+02
4950000000.000000      3.939209000000000E-01      1.797559000000000E+01      1.336517000000000E-01      1.648750000000000E+02
4951000000.000000      3.942871000000000E-01      1.782715000000000E+01      1.307526000000000E-01      1.658125000000000E+02
4952000000.000000      3.926544000000000E-01      1.751758000000000E+01      1.278076000000000E-01      1.668750000000000E+02
4953000000.000000      3.925476000000000E-01      1.736523000000000E+01      1.254807000000000E-01      1.684141000000000E+02
4954000000.000000      3.927307000000000E-01      1.725390000000000E+01      1.231728000000000E-01      1.698281000000000E+02
