! Network Analyzer HP8722D
! Hewlett-Packard
! Data name: Linha & Wilkinson
! Saver's name: Rodrigo Anjos
! Comments: Teste da utilização de aquisição
continua pelo VNA HP8722D
! Time and date: 23/5/2025 11:07
!              Frequency                     S11                                                   S21                                                   S12                                                   S22
# HZ  S  MA R 50
4800000000.000000      3.152008000000000E-01      3.733984000000000E+01      4.701996000000000E-01     -1.285234000000000E+02
4801000000.000000      3.161163000000000E-01      3.764062000000000E+01      4.714813000000000E-01     -1.291094000000000E+02
4802000000.000000      3.169403000000000E-01      3.770117000000000E+01      4.736328000000000E-01     -1.298125000000000E+02
4803000000.000000      3.178558000000000E-01      3.792773000000000E+01      4.773865000000000E-01     -1.305703000000000E+02
4804000000.000000      3.183136000000000E-01      3.815234000000000E+01      4.787903000000000E-01     -1.313750000000000E+02
4805000000.000000      3.203888000000000E-01      3.824414000000000E+01      4.789276000000000E-01     -1.322187000000000E+02
4806000000.000000      3.212280000000000E-01      3.831055000000000E+01      4.805145000000000E-01     -1.327734000000000E+02
4807000000.000000      3.220367000000000E-01      3.856836000000000E+01      4.813385000000000E-01     -1.337656000000000E+02
4808000000.000000      3.227539000000000E-01      3.871679000000000E+01      4.828491000000000E-01     -1.342266000000000E+02
4809000000.000000      3.246002000000000E-01      3.893555000000000E+01      4.846954000000000E-01     -1.351172000000000E+02
4810000000.000000      3.257599000000000E-01      3.907617000000000E+01      4.845276000000000E-01     -1.356406000000000E+02
4811000000.000000      3.273621000000000E-01      3.918164000000000E+01      4.856415000000000E-01     -1.366094000000000E+02
4812000000.000000      3.295441000000000E-01      3.931445000000000E+01      4.868774000000000E-01     -1.373672000000000E+02
4813000000.000000      3.306274000000000E-01      3.945117000000000E+01      4.869995000000000E-01     -1.380703000000000E+02
4814000000.000000      3.315277000000000E-01      3.946094000000000E+01      4.887695000000000E-01     -1.387891000000000E+02
4815000000.000000      3.327026000000000E-01      3.958984000000000E+01      4.883575000000000E-01     -1.395313000000000E+02
4816000000.000000      3.353271000000000E-01      3.964453000000000E+01      4.900665000000000E-01     -1.401406000000000E+02
4817000000.000000      3.363342000000000E-01      3.972070000000000E+01      4.898224000000000E-01     -1.409531000000000E+02
4818000000.000000      3.376465000000000E-01      3.976953000000000E+01      4.884796000000000E-01     -1.415547000000000E+02
4819000000.000000      3.396759000000000E-01      3.986719000000000E+01      4.894257000000000E-01     -1.422266000000000E+02
4820000000.000000      3.403778000000000E-01      3.995312000000000E+01      4.897003000000000E-01     -1.430469000000000E+02
4821000000.000000      3.433838000000000E-01      3.996679000000000E+01      4.908295000000000E-01     -1.439844000000000E+02
4822000000.000000      3.438721000000000E-01      3.984570000000000E+01      4.889221000000000E-01     -1.445000000000000E+02
4823000000.000000      3.460541000000000E-01      3.983203000000000E+01      4.900818000000000E-01     -1.451328000000000E+02
4824000000.000000      3.473816000000000E-01      3.999218000000000E+01      4.897919000000000E-01     -1.459922000000000E+02
4825000000.000000      3.493805000000000E-01      3.984570000000000E+01      4.886322000000000E-01     -1.466953000000000E+02
4826000000.000000      3.507385000000000E-01      3.985156000000000E+01      4.903870000000000E-01     -1.474688000000000E+02
4827000000.000000      3.528900000000000E-01      3.993359000000000E+01      4.880829000000000E-01     -1.481484000000000E+02
4828000000.000000      3.550415000000000E-01      3.977734000000000E+01      4.896088000000000E-01     -1.489844000000000E+02
4829000000.000000      3.559875000000000E-01      3.989258000000000E+01      4.882660000000000E-01     -1.495625000000000E+02
4830000000.000000      3.582001000000000E-01      3.971289000000000E+01      4.877167000000000E-01     -1.503984000000000E+02
4831000000.000000      3.588715000000000E-01      3.966797000000000E+01      4.866333000000000E-01     -1.511094000000000E+02
4832000000.000000      3.609467000000000E-01      3.977734000000000E+01      4.861298000000000E-01     -1.516484000000000E+02
4833000000.000000      3.616180000000000E-01      3.948047000000000E+01      4.847870000000000E-01     -1.526016000000000E+02
4834000000.000000      3.635864000000000E-01      3.934179000000000E+01      4.848328000000000E-01     -1.531953000000000E+02
4835000000.000000      3.659210000000000E-01      3.930469000000000E+01      4.828491000000000E-01     -1.541641000000000E+02
4836000000.000000      3.681488000000000E-01      3.939062000000000E+01      4.820251000000000E-01     -1.545469000000000E+02
4837000000.000000      3.691864000000000E-01      3.922070000000000E+01      4.808960000000000E-01     -1.556328000000000E+02
4838000000.000000      3.704224000000000E-01      3.902344000000000E+01      4.794312000000000E-01     -1.561172000000000E+02
4839000000.000000      3.736572000000000E-01      3.901758000000000E+01      4.800415000000000E-01     -1.567734000000000E+02
4840000000.000000      3.738708000000000E-01      3.874414000000000E+01      4.787750000000000E-01     -1.575547000000000E+02
4841000000.000000      3.762360000000000E-01      3.872656000000000E+01      4.781647000000000E-01     -1.584453000000000E+02
4842000000.000000      3.771210000000000E-01      3.858398000000000E+01      4.762726000000000E-01     -1.588594000000000E+02
4843000000.000000      3.794250000000000E-01      3.825781000000000E+01      4.757538000000000E-01     -1.596797000000000E+02
4844000000.000000      3.804321000000000E-01      3.822656000000000E+01      4.727478000000000E-01     -1.604766000000000E+02
4845000000.000000      3.817902000000000E-01      3.821094000000000E+01      4.713898000000000E-01     -1.610703000000000E+02
4846000000.000000      3.840942000000000E-01      3.778515000000000E+01      4.708862000000000E-01     -1.618047000000000E+02
4847000000.000000      3.853302000000000E-01      3.782031000000000E+01      4.678040000000000E-01     -1.624609000000000E+02
4848000000.000000      3.857880000000000E-01      3.759180000000000E+01      4.652252000000000E-01     -1.631797000000000E+02
4849000000.000000      3.876190000000000E-01      3.729101000000000E+01      4.659424000000000E-01     -1.639844000000000E+02
4850000000.000000      3.885193000000000E-01      3.717382000000000E+01      4.620056000000000E-01     -1.646484000000000E+02
4851000000.000000      3.906555000000000E-01      3.705469000000000E+01      4.622345000000000E-01     -1.654687000000000E+02
4852000000.000000      3.912201000000000E-01      3.689844000000000E+01      4.577484000000000E-01     -1.660781000000000E+02
4853000000.000000      3.930817000000000E-01      3.670898000000000E+01      4.556885000000000E-01     -1.668516000000000E+02
4854000000.000000      3.937988000000000E-01      3.637109000000000E+01      4.542847000000000E-01     -1.675078000000000E+02
4855000000.000000      3.949432000000000E-01      3.624023000000000E+01      4.533691000000000E-01     -1.683516000000000E+02
4856000000.000000      3.966980000000000E-01      3.604101000000000E+01      4.492035000000000E-01     -1.688359000000000E+02
4857000000.000000      3.977814000000000E-01      3.594141000000000E+01      4.493561000000000E-01     -1.695391000000000E+02
4858000000.000000      3.991394000000000E-01      3.556641000000000E+01      4.458466000000000E-01     -1.703281000000000E+02
4859000000.000000      3.996124000000000E-01      3.526172000000000E+01      4.429169000000000E-01     -1.709766000000000E+02
4860000000.000000      4.004059000000000E-01      3.527148000000000E+01      4.407806000000000E-01     -1.715000000000000E+02
4861000000.000000      4.016571000000000E-01      3.497070000000000E+01      4.371643000000000E-01     -1.723359000000000E+02
4862000000.000000      4.026947000000000E-01      3.470312000000000E+01      4.351959000000000E-01     -1.729922000000000E+02
4863000000.000000      4.028778000000000E-01      3.464844000000000E+01      4.315033000000000E-01     -1.737656000000000E+02
4864000000.000000      4.046631000000000E-01      3.429883000000000E+01      4.304504000000000E-01     -1.743125000000000E+02
4865000000.000000      4.053802000000000E-01      3.407422000000000E+01      4.253693000000000E-01     -1.749375000000000E+02
4866000000.000000      4.057465000000000E-01      3.380078000000000E+01      4.229889000000000E-01     -1.758984000000000E+02
4867000000.000000      4.058228000000000E-01      3.363281000000000E+01      4.192047000000000E-01     -1.764453000000000E+02
4868000000.000000      4.075012000000000E-01      3.324023000000000E+01      4.183502000000000E-01     -1.771250000000000E+02
4869000000.000000      4.080200000000000E-01      3.322851000000000E+01      4.143066000000000E-01     -1.778281000000000E+02
4870000000.000000      4.091339000000000E-01      3.285547000000000E+01      4.113312000000000E-01     -1.782422000000000E+02
4871000000.000000      4.085388000000000E-01      3.268555000000000E+01      4.078217000000000E-01     -1.788906000000000E+02
4872000000.000000      4.109802000000000E-01      3.238086000000000E+01      4.048920000000000E-01     -1.795703000000000E+02
4873000000.000000      4.107513000000000E-01      3.222656000000000E+01      4.006805000000000E-01      1.797188000000000E+02
4874000000.000000      4.114990000000000E-01      3.200195000000000E+01      3.981171000000000E-01      1.791641000000000E+02
4875000000.000000      4.116516000000000E-01      3.162402000000000E+01      3.944092000000000E-01      1.787656000000000E+02
4876000000.000000      4.118805000000000E-01      3.157324000000000E+01      3.913422000000000E-01      1.782031000000000E+02
4877000000.000000      4.135742000000000E-01      3.111816000000000E+01      3.870544000000000E-01      1.775469000000000E+02
4878000000.000000      4.120941000000000E-01      3.093945000000000E+01      3.829498000000000E-01      1.768125000000000E+02
4879000000.000000      4.139252000000000E-01      3.081347000000000E+01      3.790588000000000E-01      1.764844000000000E+02
4880000000.000000      4.144745000000000E-01      3.064453000000000E+01      3.765869000000000E-01      1.759687000000000E+02
4881000000.000000      4.142609000000000E-01      3.034375000000000E+01      3.733215000000000E-01      1.755938000000000E+02
4882000000.000000      4.152374000000000E-01      3.010644000000000E+01      3.709869000000000E-01      1.746562000000000E+02
4883000000.000000      4.155121000000000E-01      2.979199000000000E+01      3.651276000000000E-01      1.741484000000000E+02
4884000000.000000      4.156342000000000E-01      2.971191000000000E+01      3.627014000000000E-01      1.739219000000000E+02
4885000000.000000      4.157410000000000E-01      2.942090000000000E+01      3.585663000000000E-01      1.733906000000000E+02
4886000000.000000      4.156342000000000E-01      2.923437000000000E+01      3.550873000000000E-01      1.731250000000000E+02
4887000000.000000      4.159241000000000E-01      2.897558000000000E+01      3.524628000000000E-01      1.724062000000000E+02
4888000000.000000      4.159851000000000E-01      2.854492000000000E+01      3.498230000000000E-01      1.717891000000000E+02
4889000000.000000      4.155579000000000E-01      2.854297000000000E+01      3.461456000000000E-01      1.716328000000000E+02
4890000000.000000      4.163818000000000E-01      2.823828000000000E+01      3.410187000000000E-01      1.707187000000000E+02
4891000000.000000      4.163513000000000E-01      2.815039000000000E+01      3.384857000000000E-01      1.705078000000000E+02
4892000000.000000      4.145508000000000E-01      2.798340000000000E+01      3.352966000000000E-01      1.702188000000000E+02
4893000000.000000      4.168701000000000E-01      2.769433000000000E+01      3.312531000000000E-01      1.695625000000000E+02
4894000000.000000      4.158325000000000E-01      2.743750000000000E+01      3.267517000000000E-01      1.690781000000000E+02
4895000000.000000      4.168854000000000E-01      2.730175000000000E+01      3.255157000000000E-01      1.689766000000000E+02
4896000000.000000      4.172668000000000E-01      2.692187000000000E+01      3.216400000000000E-01      1.683672000000000E+02
4897000000.000000      4.154053000000000E-01      2.681543000000000E+01      3.164368000000000E-01      1.680781000000000E+02
4898000000.000000      4.154968000000000E-01      2.664551000000000E+01      3.153839000000000E-01      1.675078000000000E+02
4899000000.000000      4.156952000000000E-01      2.652344000000000E+01      3.116608000000000E-01      1.672656000000000E+02
4900000000.000000      4.152985000000000E-01      2.611719000000000E+01      3.072357000000000E-01      1.667734000000000E+02
4901000000.000000      4.159088000000000E-01      2.588476000000000E+01      3.042450000000000E-01      1.664766000000000E+02
4902000000.000000      4.154358000000000E-01      2.585058000000000E+01      3.006744000000000E-01      1.661719000000000E+02
4903000000.000000      4.159393000000000E-01      2.568164000000000E+01      2.976379000000000E-01      1.657891000000000E+02
4904000000.000000      4.158783000000000E-01      2.543262000000000E+01      2.931061000000000E-01      1.652578000000000E+02
4905000000.000000      4.147491000000000E-01      2.519140000000000E+01      2.916565000000000E-01      1.649062000000000E+02
4906000000.000000      4.144440000000000E-01      2.508105000000000E+01      2.873383000000000E-01      1.649609000000000E+02
4907000000.000000      4.157104000000000E-01      2.483691000000000E+01      2.848053000000000E-01      1.642344000000000E+02
4908000000.000000      4.144897000000000E-01      2.460156000000000E+01      2.810822000000000E-01      1.636406000000000E+02
4909000000.000000      4.144745000000000E-01      2.462695000000000E+01      2.776489000000000E-01      1.634844000000000E+02
4910000000.000000      4.124451000000000E-01      2.440136000000000E+01      2.736664000000000E-01      1.630859000000000E+02
4911000000.000000      4.145508000000000E-01      2.416016000000000E+01      2.705078000000000E-01      1.629844000000000E+02
4912000000.000000      4.135590000000000E-01      2.404980000000000E+01      2.671967000000000E-01      1.623281000000000E+02
4913000000.000000      4.148102000000000E-01      2.381640000000000E+01      2.632446000000000E-01      1.619844000000000E+02
4914000000.000000      4.134674000000000E-01      2.349609000000000E+01      2.598724000000000E-01      1.617422000000000E+02
4915000000.000000      4.137878000000000E-01      2.344043000000000E+01      2.561951000000000E-01      1.613672000000000E+02
4916000000.000000      4.127808000000000E-01      2.331152000000000E+01      2.532501000000000E-01      1.608828000000000E+02
4917000000.000000      4.129791000000000E-01      2.310645000000000E+01      2.493591000000000E-01      1.608359000000000E+02
4918000000.000000      4.124146000000000E-01      2.299707000000000E+01      2.457275000000000E-01      1.604687000000000E+02
4919000000.000000      4.109650000000000E-01      2.293945000000000E+01      2.422943000000000E-01      1.603437000000000E+02
4920000000.000000      4.128265000000000E-01      2.256640000000000E+01      2.379227000000000E-01      1.598984000000000E+02
4921000000.000000      4.123993000000000E-01      2.257519000000000E+01      2.347946000000000E-01      1.596641000000000E+02
4922000000.000000      4.118042000000000E-01      2.231152000000000E+01      2.307816000000000E-01      1.595859000000000E+02
4923000000.000000      4.118042000000000E-01      2.199414000000000E+01      2.266159000000000E-01      1.592578000000000E+02
4924000000.000000      4.115143000000000E-01      2.202051000000000E+01      2.233047000000000E-01      1.589687000000000E+02
4925000000.000000      4.111786000000000E-01      2.172266000000000E+01      2.196503000000000E-01      1.587734000000000E+02
4926000000.000000      4.118805000000000E-01      2.158789000000000E+01      2.159805000000000E-01      1.586172000000000E+02
4927000000.000000      4.101868000000000E-01      2.146582000000000E+01      2.113876000000000E-01      1.585078000000000E+02
4928000000.000000      4.119720000000000E-01      2.130469000000000E+01      2.075577000000000E-01      1.584453000000000E+02
4929000000.000000      4.107513000000000E-01      2.117383000000000E+01      2.034378000000000E-01      1.583516000000000E+02
4930000000.000000      4.101563000000000E-01      2.093554000000000E+01      1.997070000000000E-01      1.581484000000000E+02
4931000000.000000      4.092865000000000E-01      2.078613000000000E+01      1.965561000000000E-01      1.582266000000000E+02
4932000000.000000      4.096069000000000E-01      2.055078000000000E+01      1.918869000000000E-01      1.583125000000000E+02
4933000000.000000      4.095306000000000E-01      2.042285000000000E+01      1.879578000000000E-01      1.583203000000000E+02
4934000000.000000      4.100342000000000E-01      2.023242000000000E+01      1.844406000000000E-01      1.583203000000000E+02
4935000000.000000      4.109344000000000E-01      2.005957000000000E+01      1.808319000000000E-01      1.586719000000000E+02
4936000000.000000      4.089203000000000E-01      1.998047000000000E+01      1.764984000000000E-01      1.586719000000000E+02
4937000000.000000      4.094849000000000E-01      1.972558000000000E+01      1.727829000000000E-01      1.590156000000000E+02
4938000000.000000      4.080048000000000E-01      1.979101000000000E+01      1.693039000000000E-01      1.593281000000000E+02
4939000000.000000      4.082031000000000E-01      1.954785000000000E+01      1.660995000000000E-01      1.596641000000000E+02
4940000000.000000      4.082184000000000E-01      1.931250000000000E+01      1.617279000000000E-01      1.597422000000000E+02
4941000000.000000      4.088135000000000E-01      1.914746000000000E+01      1.583481000000000E-01      1.602890000000000E+02
4942000000.000000      4.069977000000000E-01      1.904004000000000E+01      1.546326000000000E-01      1.607265000000000E+02
4943000000.000000      4.077301000000000E-01      1.891797000000000E+01      1.512680000000000E-01      1.613281000000000E+02
4944000000.000000      4.069672000000000E-01      1.875977000000000E+01      1.476364000000000E-01      1.619375000000000E+02
4945000000.000000      4.071045000000000E-01      1.845410000000000E+01      1.439362000000000E-01      1.626094000000000E+02
4946000000.000000      4.063263000000000E-01      1.842773000000000E+01      1.410751000000000E-01      1.633359000000000E+02
4947000000.000000      4.065552000000000E-01      1.811328000000000E+01      1.375732000000000E-01      1.643281000000000E+02
4948000000.000000      4.063263000000000E-01      1.816406000000000E+01      1.347351000000000E-01      1.652578000000000E+02
4949000000.000000      4.060974000000000E-01      1.794043000000000E+01      1.316910000000000E-01      1.665937000000000E+02
4950000000.000000      4.059753000000000E-01      1.793066000000000E+01      1.287613000000000E-01      1.673906000000000E+02
4951000000.000000      4.052429000000000E-01      1.763769000000000E+01      1.265030000000000E-01      1.684844000000000E+02
4952000000.000000      4.047852000000000E-01      1.740234000000000E+01      1.235619000000000E-01      1.697422000000000E+02
4953000000.000000      4.055176000000000E-01      1.718359000000000E+01      1.217613000000000E-01      1.710078000000000E+02
4954000000.000000      4.041595000000000E-01      1.719336000000000E+01      1.193390000000000E-01      1.724219000000000E+02
