! Network Analyzer HP8722D
! Hewlett-Packard
! Data name: Linha & Wilkinson
! Saver's name: Rodrigo Anjos
! Comments: Teste da utilização de aquisição
continua pelo VNA HP8722D
! Time and date: 23/5/2025 15:26
!              Frequency                     S11                                                   S21                                                   S12                                                   S22
# HZ  S  MA R 50
4800000000.000000      2.819672000000000E-01      4.003711000000000E+01      4.868317000000000E-01     -1.295625000000000E+02
4801000000.000000      2.837372000000000E-01      4.033984000000000E+01      4.871063000000000E-01     -1.301953000000000E+02
4802000000.000000      2.846832000000000E-01      4.055078000000000E+01      4.880829000000000E-01     -1.308750000000000E+02
4803000000.000000      2.858124000000000E-01      4.063086000000000E+01      4.921875000000000E-01     -1.315781000000000E+02
4804000000.000000      2.867889000000000E-01      4.093750000000000E+01      4.921417000000000E-01     -1.322813000000000E+02
4805000000.000000      2.888031000000000E-01      4.103320000000000E+01      4.944916000000000E-01     -1.331250000000000E+02
4806000000.000000      2.897339000000000E-01      4.131249000000000E+01      4.962158000000000E-01     -1.337656000000000E+02
4807000000.000000      2.908783000000000E-01      4.154492000000000E+01      4.958038000000000E-01     -1.345859000000000E+02
4808000000.000000      2.918854000000000E-01      4.164258000000000E+01      4.991608000000000E-01     -1.352109000000000E+02
4809000000.000000      2.938995000000000E-01      4.187696000000000E+01      5.005798000000000E-01     -1.360000000000000E+02
4810000000.000000      2.953186000000000E-01      4.200000000000000E+01      4.997559000000000E-01     -1.366406000000000E+02
4811000000.000000      2.971191000000000E-01      4.220508000000000E+01      5.025330000000000E-01     -1.375156000000000E+02
4812000000.000000      2.994385000000000E-01      4.232031000000000E+01      5.035400000000000E-01     -1.380859000000000E+02
4813000000.000000      3.001709000000000E-01      4.244726000000000E+01      5.048828000000000E-01     -1.389609000000000E+02
4814000000.000000      3.014984000000000E-01      4.248828000000000E+01      5.036011000000000E-01     -1.395859000000000E+02
4815000000.000000      3.032227000000000E-01      4.264453000000000E+01      5.057068000000000E-01     -1.403047000000000E+02
4816000000.000000      3.063049000000000E-01      4.266992000000000E+01      5.054626000000000E-01     -1.411328000000000E+02
4817000000.000000      3.065033000000000E-01      4.285937000000000E+01      5.058289000000000E-01     -1.419219000000000E+02
4818000000.000000      3.087921000000000E-01      4.287109000000000E+01      5.064392000000000E-01     -1.426641000000000E+02
4819000000.000000      3.106842000000000E-01      4.288867000000000E+01      5.081787000000000E-01     -1.434531000000000E+02
4820000000.000000      3.120117000000000E-01      4.298242000000000E+01      5.074463000000000E-01     -1.439609000000000E+02
4821000000.000000      3.145905000000000E-01      4.298633000000000E+01      5.090637000000000E-01     -1.449375000000000E+02
4822000000.000000      3.154755000000000E-01      4.288086000000000E+01      5.069580000000000E-01     -1.453594000000000E+02
4823000000.000000      3.174896000000000E-01      4.290820000000000E+01      5.068359000000000E-01     -1.463125000000000E+02
4824000000.000000      3.193665000000000E-01      4.299218000000000E+01      5.064697000000000E-01     -1.468437000000000E+02
4825000000.000000      3.211517000000000E-01      4.280273000000000E+01      5.070190000000000E-01     -1.476172000000000E+02
4826000000.000000      3.232422000000000E-01      4.289258000000000E+01      5.077820000000000E-01     -1.486250000000000E+02
4827000000.000000      3.247986000000000E-01      4.281836000000000E+01      5.076599000000000E-01     -1.489297000000000E+02
4828000000.000000      3.270569000000000E-01      4.276757000000000E+01      5.075684000000000E-01     -1.498906000000000E+02
4829000000.000000      3.289032000000000E-01      4.281054000000000E+01      5.070496000000000E-01     -1.505781000000000E+02
4830000000.000000      3.303986000000000E-01      4.263867000000000E+01      5.050049000000000E-01     -1.512812000000000E+02
4831000000.000000      3.319550000000000E-01      4.252930000000000E+01      5.048523000000000E-01     -1.521406000000000E+02
4832000000.000000      3.342743000000000E-01      4.254492000000000E+01      5.036316000000000E-01     -1.528203000000000E+02
4833000000.000000      3.351746000000000E-01      4.239648000000000E+01      5.034180000000000E-01     -1.534531000000000E+02
4834000000.000000      3.372650000000000E-01      4.225195000000000E+01      5.027466000000000E-01     -1.541094000000000E+02
4835000000.000000      3.395996000000000E-01      4.212891000000000E+01      5.015259000000000E-01     -1.550078000000000E+02
4836000000.000000      3.417969000000000E-01      4.207812000000000E+01      4.999695000000000E-01     -1.557422000000000E+02
4837000000.000000      3.424988000000000E-01      4.200781000000000E+01      4.992828000000000E-01     -1.565000000000000E+02
4838000000.000000      3.440552000000000E-01      4.182031000000000E+01      4.990692000000000E-01     -1.569375000000000E+02
4839000000.000000      3.479156000000000E-01      4.169141000000000E+01      4.980011000000000E-01     -1.576953000000000E+02
4840000000.000000      3.486328000000000E-01      4.137109000000000E+01      4.970551000000000E-01     -1.584687000000000E+02
4841000000.000000      3.497772000000000E-01      4.141797000000000E+01      4.958649000000000E-01     -1.591563000000000E+02
4842000000.000000      3.509827000000000E-01      4.122656000000000E+01      4.934540000000000E-01     -1.597344000000000E+02
4843000000.000000      3.539581000000000E-01      4.083789000000000E+01      4.941406000000000E-01     -1.607422000000000E+02
4844000000.000000      3.543396000000000E-01      4.075195000000000E+01      4.906616000000000E-01     -1.612578000000000E+02
4845000000.000000      3.559113000000000E-01      4.064649000000000E+01      4.897766000000000E-01     -1.620000000000000E+02
4846000000.000000      3.581696000000000E-01      4.049609000000000E+01      4.894867000000000E-01     -1.626484000000000E+02
4847000000.000000      3.599091000000000E-01      4.027344000000000E+01      4.863434000000000E-01     -1.633672000000000E+02
4848000000.000000      3.608551000000000E-01      4.000000000000000E+01      4.845886000000000E-01     -1.641719000000000E+02
4849000000.000000      3.625031000000000E-01      3.967382000000000E+01      4.832153000000000E-01     -1.649609000000000E+02
4850000000.000000      3.633423000000000E-01      3.955273000000000E+01      4.822998000000000E-01     -1.653750000000000E+02
4851000000.000000      3.649139000000000E-01      3.950390000000000E+01      4.805145000000000E-01     -1.663047000000000E+02
4852000000.000000      3.666534000000000E-01      3.920312000000000E+01      4.785004000000000E-01     -1.669219000000000E+02
4853000000.000000      3.677368000000000E-01      3.889062000000000E+01      4.747620000000000E-01     -1.676172000000000E+02
4854000000.000000      3.693390000000000E-01      3.865625000000000E+01      4.732819000000000E-01     -1.684609000000000E+02
4855000000.000000      3.704071000000000E-01      3.850000000000000E+01      4.709473000000000E-01     -1.690859000000000E+02
4856000000.000000      3.712616000000000E-01      3.820313000000000E+01      4.681396000000000E-01     -1.697656000000000E+02
4857000000.000000      3.725739000000000E-01      3.802734000000000E+01      4.684753000000000E-01     -1.705156000000000E+02
4858000000.000000      3.729248000000000E-01      3.768164000000000E+01      4.646149000000000E-01     -1.712500000000000E+02
4859000000.000000      3.746185000000000E-01      3.742969000000000E+01      4.616241000000000E-01     -1.717969000000000E+02
4860000000.000000      3.752594000000000E-01      3.730664000000000E+01      4.593353000000000E-01     -1.725937000000000E+02
4861000000.000000      3.765717000000000E-01      3.694531000000000E+01      4.558716000000000E-01     -1.732578000000000E+02
4862000000.000000      3.768768000000000E-01      3.672852000000000E+01      4.543152000000000E-01     -1.737890000000000E+02
4863000000.000000      3.780060000000000E-01      3.652148000000000E+01      4.504395000000000E-01     -1.745312000000000E+02
4864000000.000000      3.795624000000000E-01      3.624414000000000E+01      4.483032000000000E-01     -1.752031000000000E+02
4865000000.000000      3.793793000000000E-01      3.593945000000000E+01      4.442291000000000E-01     -1.757891000000000E+02
4866000000.000000      3.813629000000000E-01      3.558398000000000E+01      4.419861000000000E-01     -1.766328000000000E+02
4867000000.000000      3.811188000000000E-01      3.549219000000000E+01      4.388428000000000E-01     -1.773047000000000E+02
4868000000.000000      3.829651000000000E-01      3.513867000000000E+01      4.365387000000000E-01     -1.777969000000000E+02
4869000000.000000      3.835449000000000E-01      3.485937000000000E+01      4.328918000000000E-01     -1.784922000000000E+02
4870000000.000000      3.845978000000000E-01      3.452539000000000E+01      4.291229000000000E-01     -1.790156000000000E+02
4871000000.000000      3.842316000000000E-01      3.430078000000000E+01      4.258270000000000E-01     -1.798203000000000E+02
4872000000.000000      3.856354000000000E-01      3.401172000000000E+01      4.225769000000000E-01      1.799375000000000E+02
4873000000.000000      3.860779000000000E-01      3.381445000000000E+01      4.193573000000000E-01      1.788047000000000E+02
4874000000.000000      3.854218000000000E-01      3.361133000000000E+01      4.160919000000000E-01      1.781875000000000E+02
4875000000.000000      3.869476000000000E-01      3.313867000000000E+01      4.120789000000000E-01      1.780000000000000E+02
4876000000.000000      3.872070000000000E-01      3.314062000000000E+01      4.095917000000000E-01      1.774688000000000E+02
4877000000.000000      3.884125000000000E-01      3.257031000000000E+01      4.054108000000000E-01      1.766641000000000E+02
4878000000.000000      3.874512000000000E-01      3.244726000000000E+01      4.029846000000000E-01      1.761953000000000E+02
4879000000.000000      3.888855000000000E-01      3.222656000000000E+01      3.986816000000000E-01      1.757578000000000E+02
4880000000.000000      3.894653000000000E-01      3.189844000000000E+01      3.960114000000000E-01      1.749922000000000E+02
4881000000.000000      3.885345000000000E-01      3.164941000000000E+01      3.924866000000000E-01      1.745625000000000E+02
4882000000.000000      3.900146000000000E-01      3.148046000000000E+01      3.888855000000000E-01      1.740000000000000E+02
4883000000.000000      3.895874000000000E-01      3.112500000000000E+01      3.851471000000000E-01      1.733828000000000E+02
4884000000.000000      3.898010000000000E-01      3.098633000000000E+01      3.812866000000000E-01      1.729687000000000E+02
4885000000.000000      3.906708000000000E-01      3.063379000000000E+01      3.765106000000000E-01      1.727031000000000E+02
4886000000.000000      3.898315000000000E-01      3.042480000000000E+01      3.749237000000000E-01      1.722188000000000E+02
4887000000.000000      3.913727000000000E-01      3.010254000000000E+01      3.727570000000000E-01      1.716016000000000E+02
4888000000.000000      3.904572000000000E-01      2.984277000000000E+01      3.678131000000000E-01      1.709766000000000E+02
4889000000.000000      3.906097000000000E-01      2.959765000000000E+01      3.632355000000000E-01      1.707422000000000E+02
4890000000.000000      3.896942000000000E-01      2.932910000000000E+01      3.600769000000000E-01      1.697578000000000E+02
4891000000.000000      3.900909000000000E-01      2.921875000000000E+01      3.554535000000000E-01      1.693672000000000E+02
4892000000.000000      3.901062000000000E-01      2.893652000000000E+01      3.531189000000000E-01      1.693672000000000E+02
4893000000.000000      3.905792000000000E-01      2.862597000000000E+01      3.481140000000000E-01      1.683828000000000E+02
4894000000.000000      3.898315000000000E-01      2.849121000000000E+01      3.449860000000000E-01      1.682734000000000E+02
4895000000.000000      3.905334000000000E-01      2.813183000000000E+01      3.434448000000000E-01      1.677578000000000E+02
4896000000.000000      3.906097000000000E-01      2.794434000000000E+01      3.382721000000000E-01      1.671094000000000E+02
4897000000.000000      3.897095000000000E-01      2.777050000000000E+01      3.348541000000000E-01      1.670938000000000E+02
4898000000.000000      3.900452000000000E-01      2.760547000000000E+01      3.313293000000000E-01      1.665781000000000E+02
4899000000.000000      3.903503000000000E-01      2.736133000000000E+01      3.286438000000000E-01      1.661016000000000E+02
4900000000.000000      3.897705000000000E-01      2.697656000000000E+01      3.238068000000000E-01      1.658906000000000E+02
4901000000.000000      3.891754000000000E-01      2.686914000000000E+01      3.218689000000000E-01      1.654297000000000E+02
4902000000.000000      3.889923000000000E-01      2.668262000000000E+01      3.185425000000000E-01      1.649375000000000E+02
4903000000.000000      3.890991000000000E-01      2.658496000000000E+01      3.144836000000000E-01      1.644297000000000E+02
4904000000.000000      3.894958000000000E-01      2.607422000000000E+01      3.107758000000000E-01      1.641172000000000E+02
4905000000.000000      3.888092000000000E-01      2.592871000000000E+01      3.088531000000000E-01      1.635859000000000E+02
4906000000.000000      3.876801000000000E-01      2.575293000000000E+01      3.048096000000000E-01      1.636016000000000E+02
4907000000.000000      3.888397000000000E-01      2.555664000000000E+01      3.007660000000000E-01      1.630703000000000E+02
4908000000.000000      3.882599000000000E-01      2.538769000000000E+01      2.977448000000000E-01      1.627266000000000E+02
4909000000.000000      3.871307000000000E-01      2.521679000000000E+01      2.935791000000000E-01      1.622890000000000E+02
4910000000.000000      3.868561000000000E-01      2.504590000000000E+01      2.903900000000000E-01      1.618125000000000E+02
4911000000.000000      3.863068000000000E-01      2.479394000000000E+01      2.871857000000000E-01      1.615391000000000E+02
4912000000.000000      3.862915000000000E-01      2.461621000000000E+01      2.841492000000000E-01      1.610312000000000E+02
4913000000.000000      3.868866000000000E-01      2.428320000000000E+01      2.803192000000000E-01      1.606875000000000E+02
4914000000.000000      3.863525000000000E-01      2.421875000000000E+01      2.769775000000000E-01      1.603750000000000E+02
4915000000.000000      3.874054000000000E-01      2.393555000000000E+01      2.722778000000000E-01      1.599453000000000E+02
4916000000.000000      3.856812000000000E-01      2.384082000000000E+01      2.690277000000000E-01      1.593672000000000E+02
4917000000.000000      3.859558000000000E-01      2.360644000000000E+01      2.653961000000000E-01      1.591953000000000E+02
4918000000.000000      3.847198000000000E-01      2.343359000000000E+01      2.608490000000000E-01      1.588828000000000E+02
4919000000.000000      3.849945000000000E-01      2.334668000000000E+01      2.580872000000000E-01      1.587188000000000E+02
4920000000.000000      3.848572000000000E-01      2.305469000000000E+01      2.533722000000000E-01      1.583125000000000E+02
4921000000.000000      3.846588000000000E-01      2.292969000000000E+01      2.503357000000000E-01      1.581250000000000E+02
4922000000.000000      3.850098000000000E-01      2.266602000000000E+01      2.462463000000000E-01      1.579766000000000E+02
4923000000.000000      3.841553000000000E-01      2.266797000000000E+01      2.421875000000000E-01      1.576797000000000E+02
4924000000.000000      3.839722000000000E-01      2.236035000000000E+01      2.379303000000000E-01      1.571640000000000E+02
4925000000.000000      3.831635000000000E-01      2.218457000000000E+01      2.342072000000000E-01      1.570078000000000E+02
4926000000.000000      3.828278000000000E-01      2.209668000000000E+01      2.309341000000000E-01      1.568203000000000E+02
4927000000.000000      3.829041000000000E-01      2.179688000000000E+01      2.262726000000000E-01      1.565938000000000E+02
4928000000.000000      3.833771000000000E-01      2.149316000000000E+01      2.224579000000000E-01      1.564062000000000E+02
4929000000.000000      3.830566000000000E-01      2.132129000000000E+01      2.175903000000000E-01      1.562813000000000E+02
4930000000.000000      3.821411000000000E-01      2.129687000000000E+01      2.140732000000000E-01      1.561797000000000E+02
4931000000.000000      3.813629000000000E-01      2.106055000000000E+01      2.106400000000000E-01      1.560937000000000E+02
4932000000.000000      3.814392000000000E-01      2.098731000000000E+01      2.054596000000000E-01      1.559687000000000E+02
4933000000.000000      3.811188000000000E-01      2.076660000000000E+01      2.013016000000000E-01      1.561953000000000E+02
4934000000.000000      3.810120000000000E-01      2.052051000000000E+01      1.976471000000000E-01      1.559297000000000E+02
4935000000.000000      3.819122000000000E-01      2.042871000000000E+01      1.941528000000000E-01      1.562734000000000E+02
4936000000.000000      3.793640000000000E-01      2.027246000000000E+01      1.893082000000000E-01      1.563828000000000E+02
4937000000.000000      3.794861000000000E-01      2.009668000000000E+01      1.859436000000000E-01      1.564062000000000E+02
4938000000.000000      3.794708000000000E-01      1.999316000000000E+01      1.816177000000000E-01      1.565625000000000E+02
4939000000.000000      3.796387000000000E-01      1.987012000000000E+01      1.779556000000000E-01      1.568828000000000E+02
4940000000.000000      3.795929000000000E-01      1.961523000000000E+01      1.734085000000000E-01      1.571250000000000E+02
4941000000.000000      3.791504000000000E-01      1.929199000000000E+01      1.697922000000000E-01      1.573672000000000E+02
4942000000.000000      3.782806000000000E-01      1.923535000000000E+01      1.659546000000000E-01      1.576328000000000E+02
4943000000.000000      3.785553000000000E-01      1.905273000000000E+01      1.621552000000000E-01      1.581797000000000E+02
4944000000.000000      3.782959000000000E-01      1.885742000000000E+01      1.590118000000000E-01      1.587891000000000E+02
4945000000.000000      3.772736000000000E-01      1.865820000000000E+01      1.549072000000000E-01      1.592109000000000E+02
4946000000.000000      3.777466000000000E-01      1.857324000000000E+01      1.510010000000000E-01      1.600625000000000E+02
4947000000.000000      3.772583000000000E-01      1.825879000000000E+01      1.474457000000000E-01      1.606562000000000E+02
4948000000.000000      3.770447000000000E-01      1.822168000000000E+01      1.441269000000000E-01      1.614453000000000E+02
4949000000.000000      3.765259000000000E-01      1.801758000000000E+01      1.409225000000000E-01      1.625937000000000E+02
4950000000.000000      3.771057000000000E-01      1.801953000000000E+01      1.380157000000000E-01      1.633750000000000E+02
4951000000.000000      3.759613000000000E-01      1.776074000000000E+01      1.348572000000000E-01      1.643750000000000E+02
4952000000.000000      3.754120000000000E-01      1.759180000000000E+01      1.315918000000000E-01      1.653203000000000E+02
4953000000.000000      3.754730000000000E-01      1.737890000000000E+01      1.294022000000000E-01      1.667578000000000E+02
4954000000.000000      3.746185000000000E-01      1.716992000000000E+01      1.266937000000000E-01      1.681172000000000E+02
