! Network Analyzer HP8722D
! Hewlett-Packard
! Data name: Linha & Wilkinson
! Saver's name: Rodrigo Anjos
! Comments: Teste da utilização de aquisição
continua pelo VNA HP8722D
! Time and date: 23/5/2025 10:12
!              Frequency                     S11                                                   S21                                                   S12                                                   S22
# HZ  S  MA R 50
4800000000.000000      3.185272000000000E-01      3.667969000000000E+01      4.670715000000000E-01     -1.275391000000000E+02
4801000000.000000      3.190765000000000E-01      3.696094000000000E+01      4.678650000000000E-01     -1.280625000000000E+02
4802000000.000000      3.200378000000000E-01      3.707031000000000E+01      4.686279000000000E-01     -1.286094000000000E+02
4803000000.000000      3.204498000000000E-01      3.729687000000000E+01      4.722900000000000E-01     -1.294766000000000E+02
4804000000.000000      3.212128000000000E-01      3.751953000000000E+01      4.734344000000000E-01     -1.302500000000000E+02
4805000000.000000      3.228455000000000E-01      3.758398000000000E+01      4.758759000000000E-01     -1.308906000000000E+02
4806000000.000000      3.234100000000000E-01      3.777344000000000E+01      4.771423000000000E-01     -1.313828000000000E+02
4807000000.000000      3.245697000000000E-01      3.793164000000000E+01      4.778442000000000E-01     -1.324219000000000E+02
4808000000.000000      3.253937000000000E-01      3.813672000000000E+01      4.791412000000000E-01     -1.330234000000000E+02
4809000000.000000      3.271484000000000E-01      3.833789000000000E+01      4.811401000000000E-01     -1.338359000000000E+02
4810000000.000000      3.283844000000000E-01      3.835351000000000E+01      4.814911000000000E-01     -1.346484000000000E+02
4811000000.000000      3.304596000000000E-01      3.856445000000000E+01      4.830322000000000E-01     -1.354687000000000E+02
4812000000.000000      3.323669000000000E-01      3.870703000000000E+01      4.832001000000000E-01     -1.360078000000000E+02
4813000000.000000      3.327637000000000E-01      3.887695000000000E+01      4.834442000000000E-01     -1.367578000000000E+02
4814000000.000000      3.332977000000000E-01      3.885547000000000E+01      4.850159000000000E-01     -1.374844000000000E+02
4815000000.000000      3.349609000000000E-01      3.900781000000000E+01      4.852753000000000E-01     -1.381797000000000E+02
4816000000.000000      3.371277000000000E-01      3.913086000000000E+01      4.873047000000000E-01     -1.390234000000000E+02
4817000000.000000      3.379974000000000E-01      3.929688000000000E+01      4.857788000000000E-01     -1.397266000000000E+02
4818000000.000000      3.397827000000000E-01      3.931641000000000E+01      4.875641000000000E-01     -1.404297000000000E+02
4819000000.000000      3.419342000000000E-01      3.932617000000000E+01      4.874725000000000E-01     -1.412344000000000E+02
4820000000.000000      3.427429000000000E-01      3.940625000000000E+01      4.868317000000000E-01     -1.419062000000000E+02
4821000000.000000      3.449554000000000E-01      3.938672000000000E+01      4.885101000000000E-01     -1.424922000000000E+02
4822000000.000000      3.458252000000000E-01      3.931836000000000E+01      4.853210000000000E-01     -1.435078000000000E+02
4823000000.000000      3.484955000000000E-01      3.944726000000000E+01      4.876709000000000E-01     -1.441719000000000E+02
4824000000.000000      3.494873000000000E-01      3.952148000000000E+01      4.873657000000000E-01     -1.449375000000000E+02
4825000000.000000      3.513031000000000E-01      3.949609000000000E+01      4.880371000000000E-01     -1.456328000000000E+02
4826000000.000000      3.526917000000000E-01      3.941211000000000E+01      4.869537000000000E-01     -1.463594000000000E+02
4827000000.000000      3.543243000000000E-01      3.944336000000000E+01      4.864349000000000E-01     -1.470000000000000E+02
4828000000.000000      3.569336000000000E-01      3.949804000000000E+01      4.867554000000000E-01     -1.478516000000000E+02
4829000000.000000      3.583069000000000E-01      3.948242000000000E+01      4.860382000000000E-01     -1.484766000000000E+02
4830000000.000000      3.594971000000000E-01      3.932812000000000E+01      4.849548000000000E-01     -1.492109000000000E+02
4831000000.000000      3.615265000000000E-01      3.928125000000000E+01      4.855347000000000E-01     -1.499531000000000E+02
4832000000.000000      3.629913000000000E-01      3.938672000000000E+01      4.850311000000000E-01     -1.505703000000000E+02
4833000000.000000      3.644562000000000E-01      3.916601000000000E+01      4.840393000000000E-01     -1.511016000000000E+02
4834000000.000000      3.658295000000000E-01      3.909570000000000E+01      4.823914000000000E-01     -1.519922000000000E+02
4835000000.000000      3.682404000000000E-01      3.904101000000000E+01      4.823761000000000E-01     -1.529453000000000E+02
4836000000.000000      3.699646000000000E-01      3.898828000000000E+01      4.810638000000000E-01     -1.533594000000000E+02
4837000000.000000      3.709564000000000E-01      3.899805000000000E+01      4.800568000000000E-01     -1.544062000000000E+02
4838000000.000000      3.720398000000000E-01      3.885156000000000E+01      4.792938000000000E-01     -1.548594000000000E+02
4839000000.000000      3.751373000000000E-01      3.883594000000000E+01      4.785309000000000E-01     -1.556719000000000E+02
4840000000.000000      3.761139000000000E-01      3.849609000000000E+01      4.769287000000000E-01     -1.562891000000000E+02
4841000000.000000      3.774567000000000E-01      3.847656000000000E+01      4.751129000000000E-01     -1.571094000000000E+02
4842000000.000000      3.792114000000000E-01      3.833593000000000E+01      4.741821000000000E-01     -1.577578000000000E+02
4843000000.000000      3.818359000000000E-01      3.810742000000000E+01      4.748383000000000E-01     -1.584375000000000E+02
4844000000.000000      3.823090000000000E-01      3.796093000000000E+01      4.732819000000000E-01     -1.592891000000000E+02
4845000000.000000      3.840942000000000E-01      3.797656000000000E+01      4.707794000000000E-01     -1.599453000000000E+02
4846000000.000000      3.858643000000000E-01      3.779297000000000E+01      4.693298000000000E-01     -1.605469000000000E+02
4847000000.000000      3.871765000000000E-01      3.768750000000000E+01      4.677429000000000E-01     -1.613047000000000E+02
4848000000.000000      3.881989000000000E-01      3.735156000000000E+01      4.638062000000000E-01     -1.619766000000000E+02
4849000000.000000      3.901672000000000E-01      3.730078000000000E+01      4.642944000000000E-01     -1.627187000000000E+02
4850000000.000000      3.911896000000000E-01      3.706836000000000E+01      4.623260000000000E-01     -1.634766000000000E+02
4851000000.000000      3.921509000000000E-01      3.701757000000000E+01      4.619904000000000E-01     -1.641406000000000E+02
4852000000.000000      3.940735000000000E-01      3.671093000000000E+01      4.587708000000000E-01     -1.649765000000000E+02
4853000000.000000      3.954773000000000E-01      3.656250000000000E+01      4.563446000000000E-01     -1.655859000000000E+02
4854000000.000000      3.973999000000000E-01      3.629883000000000E+01      4.537964000000000E-01     -1.662812000000000E+02
4855000000.000000      3.978882000000000E-01      3.616406000000000E+01      4.543457000000000E-01     -1.670781000000000E+02
4856000000.000000      3.993530000000000E-01      3.599804000000000E+01      4.496460000000000E-01     -1.677578000000000E+02
4857000000.000000      3.996887000000000E-01      3.591015000000000E+01      4.487610000000000E-01     -1.685156000000000E+02
4858000000.000000      4.008789000000000E-01      3.554492000000000E+01      4.457550000000000E-01     -1.691406000000000E+02
4859000000.000000      4.025269000000000E-01      3.524609000000000E+01      4.442749000000000E-01     -1.699219000000000E+02
4860000000.000000      4.032898000000000E-01      3.528515000000000E+01      4.405670000000000E-01     -1.704922000000000E+02
4861000000.000000      4.041748000000000E-01      3.497461000000000E+01      4.383392000000000E-01     -1.714297000000000E+02
4862000000.000000      4.046783000000000E-01      3.469336000000000E+01      4.366150000000000E-01     -1.717500000000000E+02
4863000000.000000      4.060669000000000E-01      3.457226000000000E+01      4.330139000000000E-01     -1.727344000000000E+02
4864000000.000000      4.075012000000000E-01      3.416797000000000E+01      4.318848000000000E-01     -1.734219000000000E+02
4865000000.000000      4.076385000000000E-01      3.395898000000000E+01      4.285431000000000E-01     -1.736328000000000E+02
4866000000.000000      4.087677000000000E-01      3.379101000000000E+01      4.250793000000000E-01     -1.744922000000000E+02
4867000000.000000      4.098816000000000E-01      3.349023000000000E+01      4.230194000000000E-01     -1.753594000000000E+02
4868000000.000000      4.104004000000000E-01      3.332226000000000E+01      4.201813000000000E-01     -1.759609000000000E+02
4869000000.000000      4.113617000000000E-01      3.317773000000000E+01      4.160309000000000E-01     -1.767031000000000E+02
4870000000.000000      4.115906000000000E-01      3.296289000000000E+01      4.129944000000000E-01     -1.771875000000000E+02
4871000000.000000      4.122314000000000E-01      3.262890000000000E+01      4.107819000000000E-01     -1.778203000000000E+02
4872000000.000000      4.141083000000000E-01      3.243359000000000E+01      4.066925000000000E-01     -1.786328000000000E+02
4873000000.000000      4.137115000000000E-01      3.220312000000000E+01      4.028473000000000E-01     -1.791172000000000E+02
4874000000.000000      4.146729000000000E-01      3.208008000000000E+01      3.993073000000000E-01     -1.796562000000000E+02
4875000000.000000      4.142914000000000E-01      3.162109000000000E+01      3.954773000000000E-01      1.796953000000000E+02
4876000000.000000      4.149475000000000E-01      3.161523000000000E+01      3.948822000000000E-01      1.790859000000000E+02
4877000000.000000      4.174042000000000E-01      3.119238000000000E+01      3.905182000000000E-01      1.783672000000000E+02
4878000000.000000      4.163971000000000E-01      3.105469000000000E+01      3.852997000000000E-01      1.779844000000000E+02
4879000000.000000      4.169464000000000E-01      3.086816000000000E+01      3.812714000000000E-01      1.773438000000000E+02
4880000000.000000      4.178925000000000E-01      3.059668000000000E+01      3.784027000000000E-01      1.769453000000000E+02
4881000000.000000      4.180450000000000E-01      3.040820000000000E+01      3.749237000000000E-01      1.761719000000000E+02
4882000000.000000      4.187317000000000E-01      3.028027000000000E+01      3.733063000000000E-01      1.757656000000000E+02
4883000000.000000      4.186859000000000E-01      2.989453000000000E+01      3.676147000000000E-01      1.753281000000000E+02
4884000000.000000      4.189453000000000E-01      2.969531000000000E+01      3.648682000000000E-01      1.747187000000000E+02
4885000000.000000      4.198608000000000E-01      2.940430000000000E+01      3.619843000000000E-01      1.742109000000000E+02
4886000000.000000      4.195251000000000E-01      2.932031000000000E+01      3.582611000000000E-01      1.736172000000000E+02
4887000000.000000      4.196167000000000E-01      2.915430000000000E+01      3.553925000000000E-01      1.734141000000000E+02
4888000000.000000      4.197083000000000E-01      2.873828000000000E+01      3.511810000000000E-01      1.727890000000000E+02
4889000000.000000      4.197235000000000E-01      2.857617000000000E+01      3.470764000000000E-01      1.724062000000000E+02
4890000000.000000      4.192657000000000E-01      2.824902000000000E+01      3.441925000000000E-01      1.715391000000000E+02
4891000000.000000      4.195557000000000E-01      2.813867000000000E+01      3.396454000000000E-01      1.711797000000000E+02
4892000000.000000      4.195557000000000E-01      2.797363000000000E+01      3.376312000000000E-01      1.709531000000000E+02
4893000000.000000      4.208679000000000E-01      2.773144000000000E+01      3.346252000000000E-01      1.703984000000000E+02
4894000000.000000      4.203339000000000E-01      2.743261000000000E+01      3.294983000000000E-01      1.700000000000000E+02
4895000000.000000      4.212952000000000E-01      2.725781000000000E+01      3.273468000000000E-01      1.696797000000000E+02
4896000000.000000      4.207153000000000E-01      2.700390000000000E+01      3.238831000000000E-01      1.690547000000000E+02
4897000000.000000      4.211884000000000E-01      2.691015000000000E+01      3.199310000000000E-01      1.687109000000000E+02
4898000000.000000      4.201813000000000E-01      2.663183000000000E+01      3.171082000000000E-01      1.682578000000000E+02
4899000000.000000      4.204254000000000E-01      2.647363000000000E+01      3.134918000000000E-01      1.678594000000000E+02
4900000000.000000      4.188538000000000E-01      2.618945000000000E+01      3.101654000000000E-01      1.676172000000000E+02
4901000000.000000      4.197998000000000E-01      2.601953000000000E+01      3.070068000000000E-01      1.671250000000000E+02
4902000000.000000      4.195099000000000E-01      2.570605000000000E+01      3.045044000000000E-01      1.668203000000000E+02
4903000000.000000      4.194489000000000E-01      2.569629000000000E+01      2.992859000000000E-01      1.663828000000000E+02
4904000000.000000      4.201202000000000E-01      2.545801000000000E+01      2.966919000000000E-01      1.658906000000000E+02
4905000000.000000      4.197998000000000E-01      2.521679000000000E+01      2.938690000000000E-01      1.656719000000000E+02
4906000000.000000      4.197540000000000E-01      2.505957000000000E+01      2.902069000000000E-01      1.653281000000000E+02
4907000000.000000      4.200439000000000E-01      2.481934000000000E+01      2.872925000000000E-01      1.649688000000000E+02
4908000000.000000      4.199066000000000E-01      2.471777000000000E+01      2.842712000000000E-01      1.642187000000000E+02
4909000000.000000      4.186249000000000E-01      2.446289000000000E+01      2.800293000000000E-01      1.640469000000000E+02
4910000000.000000      4.193268000000000E-01      2.443457000000000E+01      2.763977000000000E-01      1.636797000000000E+02
4911000000.000000      4.190521000000000E-01      2.418457000000000E+01      2.732849000000000E-01      1.632734000000000E+02
4912000000.000000      4.183807000000000E-01      2.410254000000000E+01      2.700500000000000E-01      1.628515000000000E+02
4913000000.000000      4.197693000000000E-01      2.370800000000000E+01      2.666168000000000E-01      1.624922000000000E+02
4914000000.000000      4.189148000000000E-01      2.359082000000000E+01      2.630920000000000E-01      1.623516000000000E+02
4915000000.000000      4.176788000000000E-01      2.346386000000000E+01      2.593231000000000E-01      1.616719000000000E+02
4916000000.000000      4.182587000000000E-01      2.335254000000000E+01      2.561035000000000E-01      1.616250000000000E+02
4917000000.000000      4.177551000000000E-01      2.296387000000000E+01      2.524109000000000E-01      1.611094000000000E+02
4918000000.000000      4.181671000000000E-01      2.289941000000000E+01      2.480545000000000E-01      1.608203000000000E+02
4919000000.000000      4.163666000000000E-01      2.294434000000000E+01      2.450027000000000E-01      1.607422000000000E+02
4920000000.000000      4.169617000000000E-01      2.256445000000000E+01      2.406921000000000E-01      1.603359000000000E+02
4921000000.000000      4.157867000000000E-01      2.251563000000000E+01      2.375793000000000E-01      1.599844000000000E+02
4922000000.000000      4.168243000000000E-01      2.231250000000000E+01      2.333679000000000E-01      1.597969000000000E+02
4923000000.000000      4.164734000000000E-01      2.230567000000000E+01      2.299347000000000E-01      1.596406000000000E+02
4924000000.000000      4.159851000000000E-01      2.207520000000000E+01      2.257996000000000E-01      1.593437000000000E+02
4925000000.000000      4.159088000000000E-01      2.188867000000000E+01      2.223511000000000E-01      1.592187000000000E+02
4926000000.000000      4.156189000000000E-01      2.163281000000000E+01      2.187500000000000E-01      1.589609000000000E+02
4927000000.000000      4.153748000000000E-01      2.147754000000000E+01      2.142181000000000E-01      1.586562000000000E+02
4928000000.000000      4.161682000000000E-01      2.122754000000000E+01      2.107468000000000E-01      1.585312000000000E+02
4929000000.000000      4.147339000000000E-01      2.128711000000000E+01      2.066803000000000E-01      1.584609000000000E+02
4930000000.000000      4.146576000000000E-01      2.112793000000000E+01      2.029877000000000E-01      1.584922000000000E+02
4931000000.000000      4.143372000000000E-01      2.085059000000000E+01      1.993561000000000E-01      1.582422000000000E+02
4932000000.000000      4.147339000000000E-01      2.070899000000000E+01      1.951675000000000E-01      1.583203000000000E+02
4933000000.000000      4.148712000000000E-01      2.049414000000000E+01      1.907959000000000E-01      1.583203000000000E+02
4934000000.000000      4.150085000000000E-01      2.041113000000000E+01      1.870575000000000E-01      1.582422000000000E+02
4935000000.000000      4.159088000000000E-01      2.027930000000000E+01      1.836319000000000E-01      1.585469000000000E+02
4936000000.000000      4.136200000000000E-01      2.013867000000000E+01      1.790161000000000E-01      1.585703000000000E+02
4937000000.000000      4.141998000000000E-01      1.989062000000000E+01      1.761475000000000E-01      1.586484000000000E+02
4938000000.000000      4.127808000000000E-01      1.979590000000000E+01      1.720123000000000E-01      1.590000000000000E+02
4939000000.000000      4.134827000000000E-01      1.972363000000000E+01      1.677475000000000E-01      1.592578000000000E+02
4940000000.000000      4.129639000000000E-01      1.942187000000000E+01      1.641464000000000E-01      1.593906000000000E+02
4941000000.000000      4.122009000000000E-01      1.931055000000000E+01      1.601639000000000E-01      1.598906000000000E+02
4942000000.000000      4.115753000000000E-01      1.909375000000000E+01      1.567383000000000E-01      1.602813000000000E+02
4943000000.000000      4.120636000000000E-01      1.896289000000000E+01      1.531296000000000E-01      1.608281000000000E+02
4944000000.000000      4.114532000000000E-01      1.885742000000000E+01      1.496735000000000E-01      1.613125000000000E+02
4945000000.000000      4.119568000000000E-01      1.866797000000000E+01      1.461563000000000E-01      1.618828000000000E+02
4946000000.000000      4.116669000000000E-01      1.855957000000000E+01      1.430130000000000E-01      1.626094000000000E+02
4947000000.000000      4.113464000000000E-01      1.826953000000000E+01      1.393433000000000E-01      1.633359000000000E+02
4948000000.000000      4.119873000000000E-01      1.831640000000000E+01      1.366882000000000E-01      1.640391000000000E+02
4949000000.000000      4.102173000000000E-01      1.789258000000000E+01      1.338196000000000E-01      1.651797000000000E+02
4950000000.000000      4.103394000000000E-01      1.794824000000000E+01      1.302719000000000E-01      1.661719000000000E+02
4951000000.000000      4.108582000000000E-01      1.772851000000000E+01      1.279068000000000E-01      1.670625000000000E+02
4952000000.000000      4.103394000000000E-01      1.755859000000000E+01      1.246681000000000E-01      1.681015000000000E+02
4953000000.000000      4.100342000000000E-01      1.732324000000000E+01      1.226921000000000E-01      1.698437000000000E+02
4954000000.000000      4.100342000000000E-01      1.725098000000000E+01      1.200638000000000E-01      1.709922000000000E+02
