! Network Analyzer HP8722D
! Hewlett-Packard
! Data name: Linha & Wilkinson
! Saver's name: Rodrigo Anjos
! Comments: Teste da utilização de aquisição
continua pelo VNA HP8722D
! Time and date: 23/5/2025 09:24
!              Frequency                     S11                                                   S21                                                   S12                                                   S22
# HZ  S  MA R 50
4800000000.000000      3.291016000000000E-01      3.569140000000000E+01      4.619293000000000E-01     -1.266719000000000E+02
4801000000.000000      3.297424000000000E-01      3.601953000000000E+01      4.635773000000000E-01     -1.273359000000000E+02
4802000000.000000      3.309021000000000E-01      3.611328000000000E+01      4.662476000000000E-01     -1.279531000000000E+02
4803000000.000000      3.314667000000000E-01      3.632031000000000E+01      4.686432000000000E-01     -1.286875000000000E+02
4804000000.000000      3.320465000000000E-01      3.654492000000000E+01      4.686584000000000E-01     -1.294844000000000E+02
4805000000.000000      3.338776000000000E-01      3.655273000000000E+01      4.700470000000000E-01     -1.302500000000000E+02
4806000000.000000      3.341064000000000E-01      3.677734000000000E+01      4.716339000000000E-01     -1.309219000000000E+02
4807000000.000000      3.347168000000000E-01      3.690039000000000E+01      4.734497000000000E-01     -1.316406000000000E+02
4808000000.000000      3.354645000000000E-01      3.708593000000000E+01      4.748383000000000E-01     -1.322656000000000E+02
4809000000.000000      3.368225000000000E-01      3.729687000000000E+01      4.749451000000000E-01     -1.333359000000000E+02
4810000000.000000      3.385620000000000E-01      3.732422000000000E+01      4.770203000000000E-01     -1.338672000000000E+02
4811000000.000000      3.400421000000000E-01      3.752344000000000E+01      4.779968000000000E-01     -1.346641000000000E+02
4812000000.000000      3.418732000000000E-01      3.759766000000000E+01      4.801178000000000E-01     -1.354766000000000E+02
4813000000.000000      3.426666000000000E-01      3.784961000000000E+01      4.799042000000000E-01     -1.360078000000000E+02
4814000000.000000      3.427887000000000E-01      3.790234000000000E+01      4.798431000000000E-01     -1.367812000000000E+02
4815000000.000000      3.445129000000000E-01      3.805664000000000E+01      4.803619000000000E-01     -1.376016000000000E+02
4816000000.000000      3.470306000000000E-01      3.810742000000000E+01      4.808350000000000E-01     -1.381875000000000E+02
4817000000.000000      3.472443000000000E-01      3.819921000000000E+01      4.811096000000000E-01     -1.391797000000000E+02
4818000000.000000      3.489685000000000E-01      3.821289000000000E+01      4.811859000000000E-01     -1.398047000000000E+02
4819000000.000000      3.508301000000000E-01      3.835546000000000E+01      4.820709000000000E-01     -1.405547000000000E+02
4820000000.000000      3.511200000000000E-01      3.842187000000000E+01      4.824219000000000E-01     -1.410781000000000E+02
4821000000.000000      3.541107000000000E-01      3.844336000000000E+01      4.841003000000000E-01     -1.420547000000000E+02
4822000000.000000      3.547058000000000E-01      3.838672000000000E+01      4.821777000000000E-01     -1.427031000000000E+02
4823000000.000000      3.565369000000000E-01      3.839844000000000E+01      4.824219000000000E-01     -1.434531000000000E+02
4824000000.000000      3.578796000000000E-01      3.860742000000000E+01      4.819031000000000E-01     -1.442344000000000E+02
4825000000.000000      3.599854000000000E-01      3.849804000000000E+01      4.822845000000000E-01     -1.448125000000000E+02
4826000000.000000      3.615265000000000E-01      3.848047000000000E+01      4.820557000000000E-01     -1.455625000000000E+02
4827000000.000000      3.635864000000000E-01      3.856250000000000E+01      4.825134000000000E-01     -1.462422000000000E+02
4828000000.000000      3.649750000000000E-01      3.851171000000000E+01      4.819946000000000E-01     -1.471016000000000E+02
4829000000.000000      3.665314000000000E-01      3.860352000000000E+01      4.816895000000000E-01     -1.477422000000000E+02
4830000000.000000      3.685303000000000E-01      3.848242000000000E+01      4.795074000000000E-01     -1.484922000000000E+02
4831000000.000000      3.693085000000000E-01      3.839258000000000E+01      4.802246000000000E-01     -1.494531000000000E+02
4832000000.000000      3.715820000000000E-01      3.844727000000000E+01      4.799805000000000E-01     -1.499453000000000E+02
4833000000.000000      3.723907000000000E-01      3.829297000000000E+01      4.787903000000000E-01     -1.507031000000000E+02
4834000000.000000      3.742065000000000E-01      3.829102000000000E+01      4.771576000000000E-01     -1.514141000000000E+02
4835000000.000000      3.761902000000000E-01      3.817968000000000E+01      4.772491000000000E-01     -1.520625000000000E+02
4836000000.000000      3.782501000000000E-01      3.815820000000000E+01      4.762421000000000E-01     -1.527344000000000E+02
4837000000.000000      3.789825000000000E-01      3.810547000000000E+01      4.750824000000000E-01     -1.538281000000000E+02
4838000000.000000      3.802490000000000E-01      3.793945000000000E+01      4.751587000000000E-01     -1.541953000000000E+02
4839000000.000000      3.839264000000000E-01      3.795507000000000E+01      4.740143000000000E-01     -1.548359000000000E+02
4840000000.000000      3.841553000000000E-01      3.761719000000000E+01      4.732056000000000E-01     -1.557109000000000E+02
4841000000.000000      3.861389000000000E-01      3.774023000000000E+01      4.716644000000000E-01     -1.564297000000000E+02
4842000000.000000      3.866425000000000E-01      3.750586000000000E+01      4.710541000000000E-01     -1.572187000000000E+02
4843000000.000000      3.897552000000000E-01      3.725000000000000E+01      4.700470000000000E-01     -1.579219000000000E+02
4844000000.000000      3.906403000000000E-01      3.721289000000000E+01      4.670410000000000E-01     -1.586797000000000E+02
4845000000.000000      3.920135000000000E-01      3.713867000000000E+01      4.662170000000000E-01     -1.591797000000000E+02
4846000000.000000      3.942566000000000E-01      3.693164000000000E+01      4.656067000000000E-01     -1.600703000000000E+02
4847000000.000000      3.954010000000000E-01      3.690234000000000E+01      4.640198000000000E-01     -1.605625000000000E+02
4848000000.000000      3.962708000000000E-01      3.660351000000000E+01      4.613495000000000E-01     -1.613984000000000E+02
4849000000.000000      3.976746000000000E-01      3.641797000000000E+01      4.613342000000000E-01     -1.622422000000000E+02
4850000000.000000      3.992920000000000E-01      3.633398000000000E+01      4.578400000000000E-01     -1.627266000000000E+02
4851000000.000000      4.005737000000000E-01      3.625391000000000E+01      4.568939000000000E-01     -1.635703000000000E+02
4852000000.000000      4.021759000000000E-01      3.607617000000000E+01      4.543915000000000E-01     -1.641484000000000E+02
4853000000.000000      4.030457000000000E-01      3.586328000000000E+01      4.515839000000000E-01     -1.648828000000000E+02
4854000000.000000      4.047546000000000E-01      3.558789000000000E+01      4.498749000000000E-01     -1.657344000000000E+02
4855000000.000000      4.054260000000000E-01      3.554101000000000E+01      4.485931000000000E-01     -1.663047000000000E+02
4856000000.000000      4.066162000000000E-01      3.541211000000000E+01      4.465485000000000E-01     -1.672578000000000E+02
4857000000.000000      4.086304000000000E-01      3.520703000000000E+01      4.451294000000000E-01     -1.677266000000000E+02
4858000000.000000      4.087830000000000E-01      3.478711000000000E+01      4.423981000000000E-01     -1.684297000000000E+02
4859000000.000000      4.104919000000000E-01      3.454883000000000E+01      4.402924000000000E-01     -1.693672000000000E+02
4860000000.000000      4.118042000000000E-01      3.460546000000000E+01      4.376373000000000E-01     -1.699141000000000E+02
4861000000.000000      4.118347000000000E-01      3.430273000000000E+01      4.332275000000000E-01     -1.706640000000000E+02
4862000000.000000      4.123993000000000E-01      3.415820000000000E+01      4.329376000000000E-01     -1.712734000000000E+02
4863000000.000000      4.145355000000000E-01      3.399805000000000E+01      4.283752000000000E-01     -1.720547000000000E+02
4864000000.000000      4.149933000000000E-01      3.373242000000000E+01      4.274139000000000E-01     -1.725312000000000E+02
4865000000.000000      4.158630000000000E-01      3.338086000000000E+01      4.230042000000000E-01     -1.732031000000000E+02
4866000000.000000      4.169006000000000E-01      3.321680000000000E+01      4.209442000000000E-01     -1.740234000000000E+02
4867000000.000000      4.170837000000000E-01      3.305469000000000E+01      4.177551000000000E-01     -1.748203000000000E+02
4868000000.000000      4.187164000000000E-01      3.283984000000000E+01      4.161682000000000E-01     -1.753359000000000E+02
4869000000.000000      4.178772000000000E-01      3.257617000000000E+01      4.122925000000000E-01     -1.760391000000000E+02
4870000000.000000      4.206085000000000E-01      3.242188000000000E+01      4.089050000000000E-01     -1.766094000000000E+02
4871000000.000000      4.207764000000000E-01      3.211719000000000E+01      4.048615000000000E-01     -1.774141000000000E+02
4872000000.000000      4.224854000000000E-01      3.191895000000000E+01      4.022827000000000E-01     -1.778203000000000E+02
4873000000.000000      4.221954000000000E-01      3.185547000000000E+01      3.994751000000000E-01     -1.785781000000000E+02
4874000000.000000      4.231262000000000E-01      3.154980000000000E+01      3.961182000000000E-01     -1.794219000000000E+02
4875000000.000000      4.227600000000000E-01      3.129395000000000E+01      3.917847000000000E-01     -1.796484000000000E+02
4876000000.000000      4.232635000000000E-01      3.113574000000000E+01      3.894501000000000E-01      1.796875000000000E+02
4877000000.000000      4.253693000000000E-01      3.070215000000000E+01      3.857269000000000E-01      1.789531000000000E+02
4878000000.000000      4.249420000000000E-01      3.061328000000000E+01      3.818665000000000E-01      1.784922000000000E+02
4879000000.000000      4.261169000000000E-01      3.048535000000000E+01      3.779907000000000E-01      1.780469000000000E+02
4880000000.000000      4.265442000000000E-01      3.010449000000000E+01      3.752289000000000E-01      1.773438000000000E+02
4881000000.000000      4.266052000000000E-01      2.983984000000000E+01      3.717194000000000E-01      1.769766000000000E+02
4882000000.000000      4.275208000000000E-01      2.984570000000000E+01      3.678284000000000E-01      1.763125000000000E+02
4883000000.000000      4.268951000000000E-01      2.945898000000000E+01      3.650513000000000E-01      1.756797000000000E+02
4884000000.000000      4.281464000000000E-01      2.938086000000000E+01      3.617706000000000E-01      1.752109000000000E+02
4885000000.000000      4.277191000000000E-01      2.913574000000000E+01      3.592682000000000E-01      1.747969000000000E+02
4886000000.000000      4.282227000000000E-01      2.892969000000000E+01      3.540192000000000E-01      1.745234000000000E+02
4887000000.000000      4.284363000000000E-01      2.873730000000000E+01      3.516388000000000E-01      1.737109000000000E+02
4888000000.000000      4.283905000000000E-01      2.833008000000000E+01      3.475342000000000E-01      1.731562000000000E+02
4889000000.000000      4.292297000000000E-01      2.822851000000000E+01      3.432007000000000E-01      1.727969000000000E+02
4890000000.000000      4.281158000000000E-01      2.796289000000000E+01      3.392487000000000E-01      1.720703000000000E+02
4891000000.000000      4.288330000000000E-01      2.780957000000000E+01      3.369293000000000E-01      1.717656000000000E+02
4892000000.000000      4.288483000000000E-01      2.767383000000000E+01      3.329163000000000E-01      1.715625000000000E+02
4893000000.000000      4.294128000000000E-01      2.730078000000000E+01      3.293610000000000E-01      1.710000000000000E+02
4894000000.000000      4.280396000000000E-01      2.721972000000000E+01      3.268127000000000E-01      1.705156000000000E+02
4895000000.000000      4.293671000000000E-01      2.702734000000000E+01      3.230438000000000E-01      1.702188000000000E+02
4896000000.000000      4.300690000000000E-01      2.671679000000000E+01      3.207703000000000E-01      1.696797000000000E+02
4897000000.000000      4.289856000000000E-01      2.664844000000000E+01      3.168488000000000E-01      1.692891000000000E+02
4898000000.000000      4.290771000000000E-01      2.647754000000000E+01      3.134613000000000E-01      1.688125000000000E+02
4899000000.000000      4.295197000000000E-01      2.626660000000000E+01      3.101959000000000E-01      1.684297000000000E+02
4900000000.000000      4.288177000000000E-01      2.597656000000000E+01      3.068695000000000E-01      1.680078000000000E+02
4901000000.000000      4.293671000000000E-01      2.578125000000000E+01      3.035889000000000E-01      1.676953000000000E+02
4902000000.000000      4.290924000000000E-01      2.551562000000000E+01      3.005219000000000E-01      1.673516000000000E+02
4903000000.000000      4.298553000000000E-01      2.548535000000000E+01      2.967987000000000E-01      1.668047000000000E+02
4904000000.000000      4.295197000000000E-01      2.517285000000000E+01      2.930908000000000E-01      1.665156000000000E+02
4905000000.000000      4.277496000000000E-01      2.499512000000000E+01      2.911835000000000E-01      1.659375000000000E+02
4906000000.000000      4.284668000000000E-01      2.483789000000000E+01      2.865601000000000E-01      1.659297000000000E+02
4907000000.000000      4.286194000000000E-01      2.469824000000000E+01      2.839966000000000E-01      1.654766000000000E+02
4908000000.000000      4.286804000000000E-01      2.457910000000000E+01      2.803345000000000E-01      1.649922000000000E+02
4909000000.000000      4.272308000000000E-01      2.426270000000000E+01      2.769470000000000E-01      1.645937000000000E+02
4910000000.000000      4.271393000000000E-01      2.416406000000000E+01      2.734070000000000E-01      1.641797000000000E+02
4911000000.000000      4.280548000000000E-01      2.393847000000000E+01      2.700806000000000E-01      1.639453000000000E+02
4912000000.000000      4.277191000000000E-01      2.375879000000000E+01      2.662048000000000E-01      1.634766000000000E+02
4913000000.000000      4.284058000000000E-01      2.360742000000000E+01      2.632751000000000E-01      1.631016000000000E+02
4914000000.000000      4.271698000000000E-01      2.340137000000000E+01      2.596588000000000E-01      1.628125000000000E+02
4915000000.000000      4.274750000000000E-01      2.336230000000000E+01      2.561188000000000E-01      1.623281000000000E+02
4916000000.000000      4.278870000000000E-01      2.315039000000000E+01      2.521820000000000E-01      1.619219000000000E+02
4917000000.000000      4.261322000000000E-01      2.294434000000000E+01      2.494354000000000E-01      1.618750000000000E+02
4918000000.000000      4.270935000000000E-01      2.280762000000000E+01      2.444229000000000E-01      1.614453000000000E+02
4919000000.000000      4.258423000000000E-01      2.274414000000000E+01      2.417526000000000E-01      1.614453000000000E+02
4920000000.000000      4.268646000000000E-01      2.233593000000000E+01      2.376785000000000E-01      1.607265000000000E+02
4921000000.000000      4.260559000000000E-01      2.233203000000000E+01      2.344589000000000E-01      1.605469000000000E+02
4922000000.000000      4.255371000000000E-01      2.220996000000000E+01      2.308273000000000E-01      1.604766000000000E+02
4923000000.000000      4.258728000000000E-01      2.203516000000000E+01      2.264786000000000E-01      1.602813000000000E+02
4924000000.000000      4.254913000000000E-01      2.183105000000000E+01      2.229996000000000E-01      1.598516000000000E+02
4925000000.000000      4.250946000000000E-01      2.171777000000000E+01      2.195969000000000E-01      1.597031000000000E+02
4926000000.000000      4.247894000000000E-01      2.152734000000000E+01      2.158356000000000E-01      1.595234000000000E+02
4927000000.000000      4.246979000000000E-01      2.134961000000000E+01      2.115936000000000E-01      1.593516000000000E+02
4928000000.000000      4.255981000000000E-01      2.114844000000000E+01      2.076569000000000E-01      1.593359000000000E+02
4929000000.000000      4.244080000000000E-01      2.098047000000000E+01      2.037201000000000E-01      1.591250000000000E+02
4930000000.000000      4.241180000000000E-01      2.091601000000000E+01      2.005692000000000E-01      1.591094000000000E+02
4931000000.000000      4.253082000000000E-01      2.067578000000000E+01      1.968079000000000E-01      1.590469000000000E+02
4932000000.000000      4.242401000000000E-01      2.066797000000000E+01      1.926956000000000E-01      1.587891000000000E+02
4933000000.000000      4.237518000000000E-01      2.047070000000000E+01      1.880951000000000E-01      1.590391000000000E+02
4934000000.000000      4.239807000000000E-01      2.013574000000000E+01      1.845093000000000E-01      1.590234000000000E+02
4935000000.000000      4.248047000000000E-01      2.006836000000000E+01      1.816788000000000E-01      1.592344000000000E+02
4936000000.000000      4.225922000000000E-01      1.984766000000000E+01      1.769791000000000E-01      1.592266000000000E+02
4937000000.000000      4.238129000000000E-01      1.960058000000000E+01      1.733551000000000E-01      1.594297000000000E+02
4938000000.000000      4.221497000000000E-01      1.970801000000000E+01      1.698914000000000E-01      1.596719000000000E+02
4939000000.000000      4.220428000000000E-01      1.949609000000000E+01      1.662827000000000E-01      1.600000000000000E+02
4940000000.000000      4.222717000000000E-01      1.933105000000000E+01      1.623611000000000E-01      1.602422000000000E+02
4941000000.000000      4.228516000000000E-01      1.916797000000000E+01      1.582642000000000E-01      1.605078000000000E+02
4942000000.000000      4.221649000000000E-01      1.910449000000000E+01      1.547318000000000E-01      1.610625000000000E+02
4943000000.000000      4.215546000000000E-01      1.883594000000000E+01      1.513062000000000E-01      1.615625000000000E+02
4944000000.000000      4.209900000000000E-01      1.864648000000000E+01      1.479416000000000E-01      1.620000000000000E+02
4945000000.000000      4.208679000000000E-01      1.857226000000000E+01      1.441116000000000E-01      1.627344000000000E+02
4946000000.000000      4.223633000000000E-01      1.846094000000000E+01      1.412735000000000E-01      1.632109000000000E+02
4947000000.000000      4.206543000000000E-01      1.829883000000000E+01      1.376419000000000E-01      1.640156000000000E+02
4948000000.000000      4.215546000000000E-01      1.813086000000000E+01      1.342926000000000E-01      1.647812000000000E+02
4949000000.000000      4.206696000000000E-01      1.801270000000000E+01      1.315918000000000E-01      1.660156000000000E+02
4950000000.000000      4.209290000000000E-01      1.778809000000000E+01      1.288223000000000E-01      1.670156000000000E+02
4951000000.000000      4.205780000000000E-01      1.771680000000000E+01      1.261063000000000E-01      1.679766000000000E+02
4952000000.000000      4.199829000000000E-01      1.745801000000000E+01      1.230850000000000E-01      1.691484000000000E+02
4953000000.000000      4.190369000000000E-01      1.731543000000000E+01      1.207619000000000E-01      1.705078000000000E+02
4954000000.000000      4.190369000000000E-01      1.727246000000000E+01      1.187935000000000E-01      1.719141000000000E+02
