! Network Analyzer HP8722D
! Hewlett-Packard
! Data name: Linha & Wilkinson
! Saver's name: Rodrigo Anjos
! Comments: Teste da utilização de aquisição
continua pelo VNA HP8722D
! Time and date: 23/5/2025 14:31
!              Frequency                     S11                                                   S21                                                   S12                                                   S22
# HZ  S  MA R 50
4800000000.000000      2.932587000000000E-01      3.905859000000000E+01      4.812164000000000E-01     -1.289297000000000E+02
4801000000.000000      2.944489000000000E-01      3.933789000000000E+01      4.816437000000000E-01     -1.297031000000000E+02
4802000000.000000      2.951813000000000E-01      3.958203000000000E+01      4.816895000000000E-01     -1.302656000000000E+02
4803000000.000000      2.965088000000000E-01      3.973047000000000E+01      4.863434000000000E-01     -1.310313000000000E+02
4804000000.000000      2.975311000000000E-01      4.002149000000000E+01      4.872437000000000E-01     -1.317344000000000E+02
4805000000.000000      2.993622000000000E-01      4.000781000000000E+01      4.885101000000000E-01     -1.325156000000000E+02
4806000000.000000      2.997742000000000E-01      4.026172000000000E+01      4.909210000000000E-01     -1.333203000000000E+02
4807000000.000000      3.010254000000000E-01      4.050195000000000E+01      4.912567000000000E-01     -1.338750000000000E+02
4808000000.000000      3.024902000000000E-01      4.062696000000000E+01      4.931488000000000E-01     -1.347031000000000E+02
4809000000.000000      3.040009000000000E-01      4.087500000000000E+01      4.940796000000000E-01     -1.356250000000000E+02
4810000000.000000      3.057098000000000E-01      4.091601000000000E+01      4.946442000000000E-01     -1.360156000000000E+02
4811000000.000000      3.075714000000000E-01      4.111718000000000E+01      4.961243000000000E-01     -1.371016000000000E+02
4812000000.000000      3.097382000000000E-01      4.123828000000000E+01      4.977112000000000E-01     -1.376641000000000E+02
4813000000.000000      3.102570000000000E-01      4.139062000000000E+01      4.979706000000000E-01     -1.382578000000000E+02
4814000000.000000      3.117676000000000E-01      4.141406000000000E+01      4.980774000000000E-01     -1.391172000000000E+02
4815000000.000000      3.136749000000000E-01      4.152148000000000E+01      5.006409000000000E-01     -1.399219000000000E+02
4816000000.000000      3.156738000000000E-01      4.168945000000000E+01      4.996796000000000E-01     -1.405156000000000E+02
4817000000.000000      3.167877000000000E-01      4.176367000000000E+01      5.010986000000000E-01     -1.412656000000000E+02
4818000000.000000      3.180542000000000E-01      4.176562000000000E+01      5.002747000000000E-01     -1.420547000000000E+02
4819000000.000000      3.205109000000000E-01      4.179883000000000E+01      5.009155000000000E-01     -1.427891000000000E+02
4820000000.000000      3.214417000000000E-01      4.189649000000000E+01      5.004272000000000E-01     -1.434687000000000E+02
4821000000.000000      3.239899000000000E-01      4.194140000000000E+01      5.017700000000000E-01     -1.443281000000000E+02
4822000000.000000      3.249969000000000E-01      4.181641000000000E+01      4.989929000000000E-01     -1.449453000000000E+02
4823000000.000000      3.269043000000000E-01      4.181054000000000E+01      5.015259000000000E-01     -1.457187000000000E+02
4824000000.000000      3.285065000000000E-01      4.200000000000000E+01      4.997864000000000E-01     -1.464219000000000E+02
4825000000.000000      3.304138000000000E-01      4.184960000000000E+01      5.004578000000000E-01     -1.471016000000000E+02
4826000000.000000      3.321381000000000E-01      4.183398000000000E+01      5.020142000000000E-01     -1.480234000000000E+02
4827000000.000000      3.337555000000000E-01      4.187109000000000E+01      5.000305000000000E-01     -1.486484000000000E+02
4828000000.000000      3.364105000000000E-01      4.183594000000000E+01      5.002441000000000E-01     -1.492734000000000E+02
4829000000.000000      3.377533000000000E-01      4.189649000000000E+01      4.998779000000000E-01     -1.501016000000000E+02
4830000000.000000      3.394012000000000E-01      4.168945000000000E+01      4.996796000000000E-01     -1.508281000000000E+02
4831000000.000000      3.411407000000000E-01      4.162695000000000E+01      4.966278000000000E-01     -1.517578000000000E+02
4832000000.000000      3.425903000000000E-01      4.158203000000000E+01      4.972992000000000E-01     -1.521094000000000E+02
4833000000.000000      3.437042000000000E-01      4.136328000000000E+01      4.971619000000000E-01     -1.528750000000000E+02
4834000000.000000      3.464966000000000E-01      4.134570000000000E+01      4.963531000000000E-01     -1.539141000000000E+02
4835000000.000000      3.477936000000000E-01      4.116796000000000E+01      4.968719000000000E-01     -1.544219000000000E+02
4836000000.000000      3.496399000000000E-01      4.122070000000000E+01      4.944000000000000E-01     -1.550703000000000E+02
4837000000.000000      3.512878000000000E-01      4.117773000000000E+01      4.930420000000000E-01     -1.560625000000000E+02
4838000000.000000      3.526764000000000E-01      4.090039000000000E+01      4.931488000000000E-01     -1.564141000000000E+02
4839000000.000000      3.554688000000000E-01      4.084961000000000E+01      4.906158000000000E-01     -1.570625000000000E+02
4840000000.000000      3.562469000000000E-01      4.058007000000000E+01      4.909363000000000E-01     -1.579297000000000E+02
4841000000.000000      3.586578000000000E-01      4.056445000000000E+01      4.888306000000000E-01     -1.586719000000000E+02
4842000000.000000      3.598633000000000E-01      4.029687000000000E+01      4.873352000000000E-01     -1.592969000000000E+02
4843000000.000000      3.621674000000000E-01      4.003125000000000E+01      4.868164000000000E-01     -1.602109000000000E+02
4844000000.000000      3.632507000000000E-01      4.002343000000000E+01      4.849854000000000E-01     -1.608203000000000E+02
4845000000.000000      3.646393000000000E-01      3.986523000000000E+01      4.824066000000000E-01     -1.614063000000000E+02
4846000000.000000      3.667755000000000E-01      3.966797000000000E+01      4.816132000000000E-01     -1.622656000000000E+02
4847000000.000000      3.679962000000000E-01      3.957031000000000E+01      4.793091000000000E-01     -1.628438000000000E+02
4848000000.000000      3.687134000000000E-01      3.911718000000000E+01      4.782104000000000E-01     -1.637109000000000E+02
4849000000.000000      3.705139000000000E-01      3.895117000000000E+01      4.779663000000000E-01     -1.643281000000000E+02
4850000000.000000      3.718262000000000E-01      3.885547000000000E+01      4.753876000000000E-01     -1.651016000000000E+02
4851000000.000000      3.733826000000000E-01      3.877734000000000E+01      4.736633000000000E-01     -1.657734000000000E+02
4852000000.000000      3.744049000000000E-01      3.849609000000000E+01      4.712524000000000E-01     -1.663984000000000E+02
4853000000.000000      3.762054000000000E-01      3.821875000000000E+01      4.686890000000000E-01     -1.670781000000000E+02
4854000000.000000      3.775482000000000E-01      3.792383000000000E+01      4.663086000000000E-01     -1.678750000000000E+02
4855000000.000000      3.785095000000000E-01      3.781641000000000E+01      4.653625000000000E-01     -1.686797000000000E+02
4856000000.000000      3.791809000000000E-01      3.758008000000000E+01      4.622803000000000E-01     -1.691797000000000E+02
4857000000.000000      3.815155000000000E-01      3.735742000000000E+01      4.620514000000000E-01     -1.698984000000000E+02
4858000000.000000      3.819122000000000E-01      3.713281000000000E+01      4.570923000000000E-01     -1.706953000000000E+02
4859000000.000000      3.824463000000000E-01      3.688477000000000E+01      4.555817000000000E-01     -1.713984000000000E+02
4860000000.000000      3.834534000000000E-01      3.667187000000000E+01      4.531250000000000E-01     -1.721172000000000E+02
4861000000.000000      3.844910000000000E-01      3.640039000000000E+01      4.504547000000000E-01     -1.728516000000000E+02
4862000000.000000      3.851166000000000E-01      3.619531000000000E+01      4.474487000000000E-01     -1.733672000000000E+02
4863000000.000000      3.865356000000000E-01      3.602930000000000E+01      4.439087000000000E-01     -1.740937000000000E+02
4864000000.000000      3.875122000000000E-01      3.569336000000000E+01      4.429779000000000E-01     -1.745859000000000E+02
4865000000.000000      3.883209000000000E-01      3.537500000000000E+01      4.389801000000000E-01     -1.755000000000000E+02
4866000000.000000      3.896332000000000E-01      3.508984000000000E+01      4.367981000000000E-01     -1.761562000000000E+02
4867000000.000000      3.890228000000000E-01      3.482812000000000E+01      4.330139000000000E-01     -1.769219000000000E+02
4868000000.000000      3.907166000000000E-01      3.460351000000000E+01      4.294891000000000E-01     -1.774765000000000E+02
4869000000.000000      3.908691000000000E-01      3.438281000000000E+01      4.268799000000000E-01     -1.781328000000000E+02
4870000000.000000      3.922424000000000E-01      3.416211000000000E+01      4.246216000000000E-01     -1.787422000000000E+02
4871000000.000000      3.924408000000000E-01      3.388867000000000E+01      4.205780000000000E-01     -1.795156000000000E+02
4872000000.000000      3.941650000000000E-01      3.362500000000000E+01      4.168549000000000E-01     -1.799766000000000E+02
4873000000.000000      3.936920000000000E-01      3.349609000000000E+01      4.139404000000000E-01      1.792734000000000E+02
4874000000.000000      3.945007000000000E-01      3.312695000000000E+01      4.102783000000000E-01      1.788359000000000E+02
4875000000.000000      3.950806000000000E-01      3.279101000000000E+01      4.064636000000000E-01      1.782031000000000E+02
4876000000.000000      3.957367000000000E-01      3.267383000000000E+01      4.042358000000000E-01      1.776641000000000E+02
4877000000.000000      3.965759000000000E-01      3.221875000000000E+01      3.997955000000000E-01      1.772344000000000E+02
4878000000.000000      3.960724000000000E-01      3.196386000000000E+01      3.965759000000000E-01      1.765234000000000E+02
4879000000.000000      3.973846000000000E-01      3.183105000000000E+01      3.928223000000000E-01      1.760156000000000E+02
4880000000.000000      3.980408000000000E-01      3.154101000000000E+01      3.896332000000000E-01      1.754609000000000E+02
4881000000.000000      3.970795000000000E-01      3.129980000000000E+01      3.865967000000000E-01      1.749844000000000E+02
4882000000.000000      3.981323000000000E-01      3.120214000000000E+01      3.830414000000000E-01      1.744375000000000E+02
4883000000.000000      3.981323000000000E-01      3.071582000000000E+01      3.798065000000000E-01      1.737500000000000E+02
4884000000.000000      3.986206000000000E-01      3.062793000000000E+01      3.764343000000000E-01      1.733516000000000E+02
4885000000.000000      3.983459000000000E-01      3.038671000000000E+01      3.727875000000000E-01      1.728437000000000E+02
4886000000.000000      3.989716000000000E-01      3.011621000000000E+01      3.688812000000000E-01      1.724297000000000E+02
4887000000.000000      3.990784000000000E-01      2.991504000000000E+01      3.649445000000000E-01      1.720000000000000E+02
4888000000.000000      3.990326000000000E-01      2.949512000000000E+01      3.621063000000000E-01      1.714141000000000E+02
4889000000.000000      3.986359000000000E-01      2.948242000000000E+01      3.576660000000000E-01      1.710859000000000E+02
4890000000.000000      3.985901000000000E-01      2.909375000000000E+01      3.537445000000000E-01      1.702422000000000E+02
4891000000.000000      3.988342000000000E-01      2.890332000000000E+01      3.513947000000000E-01      1.697656000000000E+02
4892000000.000000      3.985596000000000E-01      2.861523000000000E+01      3.471985000000000E-01      1.698125000000000E+02
4893000000.000000      3.989716000000000E-01      2.837305000000000E+01      3.440704000000000E-01      1.690938000000000E+02
4894000000.000000      3.988800000000000E-01      2.835938000000000E+01      3.400879000000000E-01      1.685390000000000E+02
4895000000.000000      4.001923000000000E-01      2.798730000000000E+01      3.370514000000000E-01      1.683594000000000E+02
4896000000.000000      3.986816000000000E-01      2.760547000000000E+01      3.331604000000000E-01      1.678750000000000E+02
4897000000.000000      3.991547000000000E-01      2.760937000000000E+01      3.292389000000000E-01      1.672422000000000E+02
4898000000.000000      3.992310000000000E-01      2.737793000000000E+01      3.264313000000000E-01      1.669531000000000E+02
4899000000.000000      3.975830000000000E-01      2.711426000000000E+01      3.234100000000000E-01      1.664609000000000E+02
4900000000.000000      3.983307000000000E-01      2.680761000000000E+01      3.195190000000000E-01      1.660938000000000E+02
4901000000.000000      3.983154000000000E-01      2.664648000000000E+01      3.168640000000000E-01      1.657656000000000E+02
4902000000.000000      3.980408000000000E-01      2.649609000000000E+01      3.134308000000000E-01      1.653516000000000E+02
4903000000.000000      3.983002000000000E-01      2.619629000000000E+01      3.089905000000000E-01      1.650469000000000E+02
4904000000.000000      3.984375000000000E-01      2.601660000000000E+01      3.063660000000000E-01      1.645469000000000E+02
4905000000.000000      3.968658000000000E-01      2.586719000000000E+01      3.035736000000000E-01      1.641719000000000E+02
4906000000.000000      3.968506000000000E-01      2.563769000000000E+01      2.998962000000000E-01      1.639844000000000E+02
4907000000.000000      3.973541000000000E-01      2.540820000000000E+01      2.961426000000000E-01      1.633672000000000E+02
4908000000.000000      3.973694000000000E-01      2.516894000000000E+01      2.936707000000000E-01      1.629375000000000E+02
4909000000.000000      3.974762000000000E-01      2.503418000000000E+01      2.893982000000000E-01      1.625703000000000E+02
4910000000.000000      3.963776000000000E-01      2.490429000000000E+01      2.859039000000000E-01      1.624609000000000E+02
4911000000.000000      3.964539000000000E-01      2.465527000000000E+01      2.824402000000000E-01      1.619062000000000E+02
4912000000.000000      3.962097000000000E-01      2.453222000000000E+01      2.787781000000000E-01      1.615937000000000E+02
4913000000.000000      3.962097000000000E-01      2.422558000000000E+01      2.749481000000000E-01      1.611484000000000E+02
4914000000.000000      3.972168000000000E-01      2.397265000000000E+01      2.712402000000000E-01      1.608906000000000E+02
4915000000.000000      3.952789000000000E-01      2.396777000000000E+01      2.676544000000000E-01      1.603906000000000E+02
4916000000.000000      3.951416000000000E-01      2.371484000000000E+01      2.646179000000000E-01      1.600469000000000E+02
4917000000.000000      3.945313000000000E-01      2.361328000000000E+01      2.606049000000000E-01      1.598828000000000E+02
4918000000.000000      3.940582000000000E-01      2.340625000000000E+01      2.567749000000000E-01      1.593750000000000E+02
4919000000.000000      3.938446000000000E-01      2.321191000000000E+01      2.534027000000000E-01      1.594141000000000E+02
4920000000.000000      3.940125000000000E-01      2.299902000000000E+01      2.487030000000000E-01      1.587656000000000E+02
4921000000.000000      3.938751000000000E-01      2.300781000000000E+01      2.456436000000000E-01      1.585469000000000E+02
4922000000.000000      3.944702000000000E-01      2.273535000000000E+01      2.413559000000000E-01      1.584766000000000E+02
4923000000.000000      3.935699000000000E-01      2.254492000000000E+01      2.375031000000000E-01      1.580391000000000E+02
4924000000.000000      3.932190000000000E-01      2.251758000000000E+01      2.335052000000000E-01      1.578438000000000E+02
4925000000.000000      3.919983000000000E-01      2.212988000000000E+01      2.298431000000000E-01      1.575391000000000E+02
4926000000.000000      3.921967000000000E-01      2.212891000000000E+01      2.262878000000000E-01      1.575000000000000E+02
4927000000.000000      3.919983000000000E-01      2.181738000000000E+01      2.217178000000000E-01      1.571172000000000E+02
4928000000.000000      3.927612000000000E-01      2.144629000000000E+01      2.184372000000000E-01      1.571719000000000E+02
4929000000.000000      3.921356000000000E-01      2.138281000000000E+01      2.135849000000000E-01      1.569219000000000E+02
4930000000.000000      3.912811000000000E-01      2.130762000000000E+01      2.100296000000000E-01      1.567031000000000E+02
4931000000.000000      3.921967000000000E-01      2.100976000000000E+01      2.064743000000000E-01      1.567812000000000E+02
4932000000.000000      3.916626000000000E-01      2.099609000000000E+01      2.019806000000000E-01      1.567344000000000E+02
4933000000.000000      3.913879000000000E-01      2.070215000000000E+01      1.976776000000000E-01      1.568984000000000E+02
4934000000.000000      3.917847000000000E-01      2.049902000000000E+01      1.937714000000000E-01      1.566328000000000E+02
4935000000.000000      3.922577000000000E-01      2.038184000000000E+01      1.901779000000000E-01      1.569922000000000E+02
4936000000.000000      3.905945000000000E-01      2.024902000000000E+01      1.858826000000000E-01      1.569844000000000E+02
4937000000.000000      3.900452000000000E-01      2.000195000000000E+01      1.820297000000000E-01      1.570469000000000E+02
4938000000.000000      3.895721000000000E-01      1.995508000000000E+01      1.779785000000000E-01      1.572891000000000E+02
4939000000.000000      3.887177000000000E-01      1.980957000000000E+01      1.743011000000000E-01      1.575938000000000E+02
4940000000.000000      3.894653000000000E-01      1.968848000000000E+01      1.697617000000000E-01      1.576484000000000E+02
4941000000.000000      3.893433000000000E-01      1.943750000000000E+01      1.666260000000000E-01      1.582500000000000E+02
4942000000.000000      3.884277000000000E-01      1.941895000000000E+01      1.623306000000000E-01      1.585156000000000E+02
4943000000.000000      3.888245000000000E-01      1.921777000000000E+01      1.592560000000000E-01      1.590859000000000E+02
4944000000.000000      3.891296000000000E-01      1.891211000000000E+01      1.560364000000000E-01      1.595703000000000E+02
4945000000.000000      3.883362000000000E-01      1.860937000000000E+01      1.513062000000000E-01      1.600156000000000E+02
4946000000.000000      3.881683000000000E-01      1.858887000000000E+01      1.484833000000000E-01      1.606484000000000E+02
4947000000.000000      3.878632000000000E-01      1.833887000000000E+01      1.447372000000000E-01      1.614922000000000E+02
4948000000.000000      3.880157000000000E-01      1.833594000000000E+01      1.417465000000000E-01      1.623672000000000E+02
4949000000.000000      3.870544000000000E-01      1.818359000000000E+01      1.384430000000000E-01      1.634375000000000E+02
4950000000.000000      3.868866000000000E-01      1.801953000000000E+01      1.352768000000000E-01      1.643125000000000E+02
4951000000.000000      3.861847000000000E-01      1.784180000000000E+01      1.317902000000000E-01      1.652266000000000E+02
4952000000.000000      3.856812000000000E-01      1.760351000000000E+01      1.291428000000000E-01      1.664297000000000E+02
4953000000.000000      3.868713000000000E-01      1.742773000000000E+01      1.270447000000000E-01      1.677813000000000E+02
4954000000.000000      3.863983000000000E-01      1.730957000000000E+01      1.244278000000000E-01      1.692500000000000E+02
