! Network Analyzer HP8722D
! Hewlett-Packard
! Data name: Linha & Wilkinson
! Saver's name: Rodrigo Anjos
! Comments: Teste da utilização de aquisição
continua pelo VNA HP8722D
! Time and date: 23/5/2025 08:42
!              Frequency                     S11                                                   S21                                                   S12                                                   S22
# HZ  S  MA R 50
4800000000.000000      3.627625000000000E-01      3.288086000000000E+01      4.467163000000000E-01     -1.236914000000000E+02
4801000000.000000      3.629150000000000E-01      3.316406000000000E+01      4.472198000000000E-01     -1.243008000000000E+02
4802000000.000000      3.632965000000000E-01      3.326367000000000E+01      4.491882000000000E-01     -1.250937000000000E+02
4803000000.000000      3.635559000000000E-01      3.336914000000000E+01      4.527740000000000E-01     -1.258047000000000E+02
4804000000.000000      3.641052000000000E-01      3.357812000000000E+01      4.534149000000000E-01     -1.264922000000000E+02
4805000000.000000      3.655396000000000E-01      3.369141000000000E+01      4.552612000000000E-01     -1.273789000000000E+02
4806000000.000000      3.656158000000000E-01      3.379492000000000E+01      4.555817000000000E-01     -1.281406000000000E+02
4807000000.000000      3.665924000000000E-01      3.399609000000000E+01      4.566345000000000E-01     -1.288437000000000E+02
4808000000.000000      3.666840000000000E-01      3.404882000000000E+01      4.584045000000000E-01     -1.293516000000000E+02
4809000000.000000      3.680420000000000E-01      3.438281000000000E+01      4.591827000000000E-01     -1.302500000000000E+02
4810000000.000000      3.690796000000000E-01      3.446680000000000E+01      4.601288000000000E-01     -1.307891000000000E+02
4811000000.000000      3.703766000000000E-01      3.455859000000000E+01      4.636536000000000E-01     -1.315859000000000E+02
4812000000.000000      3.719635000000000E-01      3.476171000000000E+01      4.627380000000000E-01     -1.325078000000000E+02
4813000000.000000      3.720551000000000E-01      3.479883000000000E+01      4.646759000000000E-01     -1.332656000000000E+02
4814000000.000000      3.731995000000000E-01      3.487109000000000E+01      4.649506000000000E-01     -1.339453000000000E+02
4815000000.000000      3.737793000000000E-01      3.506640000000000E+01      4.647675000000000E-01     -1.347578000000000E+02
4816000000.000000      3.759003000000000E-01      3.513867000000000E+01      4.664612000000000E-01     -1.351875000000000E+02
4817000000.000000      3.765259000000000E-01      3.524805000000000E+01      4.663391000000000E-01     -1.361797000000000E+02
4818000000.000000      3.781128000000000E-01      3.527539000000000E+01      4.653015000000000E-01     -1.368828000000000E+02
4819000000.000000      3.792419000000000E-01      3.535937000000000E+01      4.669495000000000E-01     -1.376953000000000E+02
4820000000.000000      3.793640000000000E-01      3.549219000000000E+01      4.666748000000000E-01     -1.381016000000000E+02
4821000000.000000      3.819580000000000E-01      3.553515000000000E+01      4.668579000000000E-01     -1.390859000000000E+02
4822000000.000000      3.828430000000000E-01      3.555469000000000E+01      4.653625000000000E-01     -1.395937000000000E+02
4823000000.000000      3.843231000000000E-01      3.569336000000000E+01      4.674835000000000E-01     -1.403984000000000E+02
4824000000.000000      3.853302000000000E-01      3.572461000000000E+01      4.667664000000000E-01     -1.414922000000000E+02
4825000000.000000      3.873596000000000E-01      3.566015000000000E+01      4.670258000000000E-01     -1.419375000000000E+02
4826000000.000000      3.879242000000000E-01      3.572851000000000E+01      4.668427000000000E-01     -1.428359000000000E+02
4827000000.000000      3.904877000000000E-01      3.573828000000000E+01      4.660950000000000E-01     -1.434609000000000E+02
4828000000.000000      3.924408000000000E-01      3.575195000000000E+01      4.677277000000000E-01     -1.440234000000000E+02
4829000000.000000      3.936005000000000E-01      3.586523000000000E+01      4.658356000000000E-01     -1.447500000000000E+02
4830000000.000000      3.955994000000000E-01      3.567383000000000E+01      4.654846000000000E-01     -1.457422000000000E+02
4831000000.000000      3.961487000000000E-01      3.571484000000000E+01      4.650574000000000E-01     -1.464844000000000E+02
4832000000.000000      3.975372000000000E-01      3.580273000000000E+01      4.632568000000000E-01     -1.470937000000000E+02
4833000000.000000      3.986206000000000E-01      3.562695000000000E+01      4.628601000000000E-01     -1.476797000000000E+02
4834000000.000000      4.001617000000000E-01      3.564648000000000E+01      4.635773000000000E-01     -1.485078000000000E+02
4835000000.000000      4.027557000000000E-01      3.559961000000000E+01      4.634094000000000E-01     -1.491797000000000E+02
4836000000.000000      4.040680000000000E-01      3.563672000000000E+01      4.614105000000000E-01     -1.498828000000000E+02
4837000000.000000      4.045868000000000E-01      3.565039000000000E+01      4.586182000000000E-01     -1.508437000000000E+02
4838000000.000000      4.060974000000000E-01      3.551758000000000E+01      4.610596000000000E-01     -1.513047000000000E+02
4839000000.000000      4.098358000000000E-01      3.543554000000000E+01      4.591217000000000E-01     -1.520937000000000E+02
4840000000.000000      4.098511000000000E-01      3.526758000000000E+01      4.582672000000000E-01     -1.529063000000000E+02
4841000000.000000      4.116211000000000E-01      3.538086000000000E+01      4.578400000000000E-01     -1.535781000000000E+02
4842000000.000000      4.124908000000000E-01      3.520117000000000E+01      4.557343000000000E-01     -1.543281000000000E+02
4843000000.000000      4.155884000000000E-01      3.503906000000000E+01      4.560242000000000E-01     -1.549609000000000E+02
4844000000.000000      4.160461000000000E-01      3.492773000000000E+01      4.542084000000000E-01     -1.557734000000000E+02
4845000000.000000      4.179382000000000E-01      3.485547000000000E+01      4.526672000000000E-01     -1.563594000000000E+02
4846000000.000000      4.205170000000000E-01      3.472461000000000E+01      4.519958000000000E-01     -1.571328000000000E+02
4847000000.000000      4.210205000000000E-01      3.476758000000000E+01      4.486389000000000E-01     -1.577109000000000E+02
4848000000.000000      4.216461000000000E-01      3.458398000000000E+01      4.479828000000000E-01     -1.586172000000000E+02
4849000000.000000      4.229584000000000E-01      3.441992000000000E+01      4.475861000000000E-01     -1.591484000000000E+02
4850000000.000000      4.243011000000000E-01      3.431250000000000E+01      4.445343000000000E-01     -1.601172000000000E+02
4851000000.000000      4.257050000000000E-01      3.429688000000000E+01      4.443817000000000E-01     -1.609922000000000E+02
4852000000.000000      4.270172000000000E-01      3.402344000000000E+01      4.406281000000000E-01     -1.616328000000000E+02
4853000000.000000      4.289093000000000E-01      3.386523000000000E+01      4.394684000000000E-01     -1.621562000000000E+02
4854000000.000000      4.299011000000000E-01      3.372656000000000E+01      4.371185000000000E-01     -1.630156000000000E+02
4855000000.000000      4.303741000000000E-01      3.357812000000000E+01      4.367828000000000E-01     -1.636250000000000E+02
4856000000.000000      4.321899000000000E-01      3.345117000000000E+01      4.334717000000000E-01     -1.643281000000000E+02
4857000000.000000      4.335175000000000E-01      3.331640000000000E+01      4.320679000000000E-01     -1.651016000000000E+02
4858000000.000000      4.348602000000000E-01      3.303711000000000E+01      4.291077000000000E-01     -1.658281000000000E+02
4859000000.000000      4.360657000000000E-01      3.286523000000000E+01      4.270935000000000E-01     -1.665313000000000E+02
4860000000.000000      4.366150000000000E-01      3.277344000000000E+01      4.250031000000000E-01     -1.672891000000000E+02
4861000000.000000      4.377594000000000E-01      3.260547000000000E+01      4.237518000000000E-01     -1.679922000000000E+02
4862000000.000000      4.387054000000000E-01      3.247070000000000E+01      4.202118000000000E-01     -1.685547000000000E+02
4863000000.000000      4.405975000000000E-01      3.231250000000000E+01      4.172821000000000E-01     -1.695625000000000E+02
4864000000.000000      4.409027000000000E-01      3.200390000000000E+01      4.152832000000000E-01     -1.698906000000000E+02
4865000000.000000      4.418640000000000E-01      3.182714000000000E+01      4.120941000000000E-01     -1.706406000000000E+02
4866000000.000000      4.430695000000000E-01      3.164258000000000E+01      4.091034000000000E-01     -1.712812000000000E+02
4867000000.000000      4.433136000000000E-01      3.142480000000000E+01      4.060974000000000E-01     -1.722265000000000E+02
4868000000.000000      4.451294000000000E-01      3.120312000000000E+01      4.019775000000000E-01     -1.729141000000000E+02
4869000000.000000      4.457550000000000E-01      3.107129000000000E+01      4.009094000000000E-01     -1.735078000000000E+02
4870000000.000000      4.458771000000000E-01      3.098340000000000E+01      3.976135000000000E-01     -1.740391000000000E+02
4871000000.000000      4.471588000000000E-01      3.065039000000000E+01      3.943329000000000E-01     -1.747344000000000E+02
4872000000.000000      4.486084000000000E-01      3.053027000000000E+01      3.900909000000000E-01     -1.752891000000000E+02
4873000000.000000      4.490967000000000E-01      3.034472000000000E+01      3.877716000000000E-01     -1.759297000000000E+02
4874000000.000000      4.493103000000000E-01      3.022949000000000E+01      3.849030000000000E-01     -1.768125000000000E+02
4875000000.000000      4.510956000000000E-01      2.987988000000000E+01      3.801270000000000E-01     -1.772812000000000E+02
4876000000.000000      4.512177000000000E-01      2.985742000000000E+01      3.770142000000000E-01     -1.778984000000000E+02
4877000000.000000      4.521027000000000E-01      2.933398000000000E+01      3.733826000000000E-01     -1.785234000000000E+02
4878000000.000000      4.517517000000000E-01      2.943848000000000E+01      3.700714000000000E-01     -1.789922000000000E+02
4879000000.000000      4.528198000000000E-01      2.936328000000000E+01      3.673401000000000E-01     -1.796875000000000E+02
4880000000.000000      4.542389000000000E-01      2.897070000000000E+01      3.636780000000000E-01      1.796484000000000E+02
4881000000.000000      4.538269000000000E-01      2.879199000000000E+01      3.604889000000000E-01      1.793594000000000E+02
4882000000.000000      4.558563000000000E-01      2.856152000000000E+01      3.567963000000000E-01      1.785703000000000E+02
4883000000.000000      4.546814000000000E-01      2.839258000000000E+01      3.524780000000000E-01      1.779531000000000E+02
4884000000.000000      4.561920000000000E-01      2.825879000000000E+01      3.496399000000000E-01      1.776094000000000E+02
4885000000.000000      4.546356000000000E-01      2.804199000000000E+01      3.459930000000000E-01      1.771797000000000E+02
4886000000.000000      4.556274000000000E-01      2.784180000000000E+01      3.438110000000000E-01      1.766250000000000E+02
4887000000.000000      4.557648000000000E-01      2.753711000000000E+01      3.404541000000000E-01      1.761562000000000E+02
4888000000.000000      4.570618000000000E-01      2.727148000000000E+01      3.361053000000000E-01      1.755938000000000E+02
4889000000.000000      4.572906000000000E-01      2.717187000000000E+01      3.319855000000000E-01      1.752344000000000E+02
4890000000.000000      4.569702000000000E-01      2.680469000000000E+01      3.297577000000000E-01      1.744453000000000E+02
4891000000.000000      4.578857000000000E-01      2.670019000000000E+01      3.248291000000000E-01      1.740781000000000E+02
4892000000.000000      4.572754000000000E-01      2.652441000000000E+01      3.222961000000000E-01      1.737500000000000E+02
4893000000.000000      4.584656000000000E-01      2.642969000000000E+01      3.198395000000000E-01      1.732734000000000E+02
4894000000.000000      4.559937000000000E-01      2.623242000000000E+01      3.153229000000000E-01      1.728984000000000E+02
4895000000.000000      4.588470000000000E-01      2.593847000000000E+01      3.130493000000000E-01      1.726094000000000E+02
4896000000.000000      4.575653000000000E-01      2.584179000000000E+01      3.097076000000000E-01      1.721562000000000E+02
4897000000.000000      4.591217000000000E-01      2.588769000000000E+01      3.053589000000000E-01      1.716250000000000E+02
4898000000.000000      4.574432000000000E-01      2.577734000000000E+01      3.023071000000000E-01      1.713828000000000E+02
4899000000.000000      4.586487000000000E-01      2.530762000000000E+01      2.998505000000000E-01      1.707109000000000E+02
4900000000.000000      4.582825000000000E-01      2.522656000000000E+01      2.961731000000000E-01      1.705469000000000E+02
4901000000.000000      4.596710000000000E-01      2.507617000000000E+01      2.924042000000000E-01      1.700547000000000E+02
4902000000.000000      4.572601000000000E-01      2.476855000000000E+01      2.898254000000000E-01      1.696953000000000E+02
4903000000.000000      4.583435000000000E-01      2.455078000000000E+01      2.857666000000000E-01      1.692188000000000E+02
4904000000.000000      4.592285000000000E-01      2.448437000000000E+01      2.822418000000000E-01      1.689297000000000E+02
4905000000.000000      4.590454000000000E-01      2.423925000000000E+01      2.799377000000000E-01      1.685078000000000E+02
4906000000.000000      4.592896000000000E-01      2.412988000000000E+01      2.766418000000000E-01      1.682656000000000E+02
4907000000.000000      4.574738000000000E-01      2.412695000000000E+01      2.731323000000000E-01      1.676875000000000E+02
4908000000.000000      4.589691000000000E-01      2.375977000000000E+01      2.705688000000000E-01      1.672422000000000E+02
4909000000.000000      4.567108000000000E-01      2.351269000000000E+01      2.663116000000000E-01      1.670469000000000E+02
4910000000.000000      4.574127000000000E-01      2.342480000000000E+01      2.636261000000000E-01      1.667109000000000E+02
4911000000.000000      4.577637000000000E-01      2.353808000000000E+01      2.606201000000000E-01      1.664844000000000E+02
4912000000.000000      4.579773000000000E-01      2.327246000000000E+01      2.568512000000000E-01      1.659844000000000E+02
4913000000.000000      4.580994000000000E-01      2.296777000000000E+01      2.546082000000000E-01      1.654687000000000E+02
4914000000.000000      4.592896000000000E-01      2.273535000000000E+01      2.500610000000000E-01      1.654844000000000E+02
4915000000.000000      4.579926000000000E-01      2.276367000000000E+01      2.466888000000000E-01      1.648125000000000E+02
4916000000.000000      4.582367000000000E-01      2.268750000000000E+01      2.434540000000000E-01      1.645078000000000E+02
4917000000.000000      4.586792000000000E-01      2.261035000000000E+01      2.395706000000000E-01      1.642734000000000E+02
4918000000.000000      4.579926000000000E-01      2.223047000000000E+01      2.362518000000000E-01      1.638672000000000E+02
4919000000.000000      4.568787000000000E-01      2.215039000000000E+01      2.329025000000000E-01      1.638750000000000E+02
4920000000.000000      4.575195000000000E-01      2.206543000000000E+01      2.288895000000000E-01      1.633281000000000E+02
4921000000.000000      4.551544000000000E-01      2.181152000000000E+01      2.260590000000000E-01      1.631172000000000E+02
4922000000.000000      4.559784000000000E-01      2.169922000000000E+01      2.222672000000000E-01      1.629297000000000E+02
4923000000.000000      4.561005000000000E-01      2.166504000000000E+01      2.178116000000000E-01      1.627656000000000E+02
4924000000.000000      4.568024000000000E-01      2.147754000000000E+01      2.148056000000000E-01      1.623516000000000E+02
4925000000.000000      4.551544000000000E-01      2.105664000000000E+01      2.113571000000000E-01      1.623750000000000E+02
4926000000.000000      4.543457000000000E-01      2.125293000000000E+01      2.071915000000000E-01      1.620937000000000E+02
4927000000.000000      4.560547000000000E-01      2.090918000000000E+01      2.037888000000000E-01      1.617812000000000E+02
4928000000.000000      4.575653000000000E-01      2.057715000000000E+01      2.001648000000000E-01      1.617734000000000E+02
4929000000.000000      4.534760000000000E-01      2.079102000000000E+01      1.960831000000000E-01      1.617188000000000E+02
4930000000.000000      4.564819000000000E-01      2.065234000000000E+01      1.929245000000000E-01      1.614687000000000E+02
4931000000.000000      4.550323000000000E-01      2.007324000000000E+01      1.893692000000000E-01      1.616328000000000E+02
4932000000.000000      4.548035000000000E-01      2.009472000000000E+01      1.854248000000000E-01      1.615313000000000E+02
4933000000.000000      4.553680000000000E-01      2.007715000000000E+01      1.813965000000000E-01      1.614844000000000E+02
4934000000.000000      4.567566000000000E-01      1.963183000000000E+01      1.780090000000000E-01      1.615234000000000E+02
4935000000.000000      4.551849000000000E-01      1.981348000000000E+01      1.747055000000000E-01      1.616875000000000E+02
4936000000.000000      4.555969000000000E-01      1.932617000000000E+01      1.707306000000000E-01      1.620391000000000E+02
4937000000.000000      4.552917000000000E-01      1.929883000000000E+01      1.665268000000000E-01      1.619375000000000E+02
4938000000.000000      4.553070000000000E-01      1.910352000000000E+01      1.627960000000000E-01      1.622422000000000E+02
4939000000.000000      4.538269000000000E-01      1.923633000000000E+01      1.594315000000000E-01      1.626641000000000E+02
4940000000.000000      4.540405000000000E-01      1.886816000000000E+01      1.556625000000000E-01      1.628047000000000E+02
4941000000.000000      4.548035000000000E-01      1.855176000000000E+01      1.521835000000000E-01      1.632422000000000E+02
4942000000.000000      4.546356000000000E-01      1.863281000000000E+01      1.487350000000000E-01      1.636797000000000E+02
4943000000.000000      4.545288000000000E-01      1.877148000000000E+01      1.454315000000000E-01      1.642891000000000E+02
4944000000.000000      4.554443000000000E-01      1.820898000000000E+01      1.420898000000000E-01      1.647500000000000E+02
4945000000.000000      4.546509000000000E-01      1.822266000000000E+01      1.390305000000000E-01      1.653984000000000E+02
4946000000.000000      4.535522000000000E-01      1.802441000000000E+01      1.358795000000000E-01      1.660156000000000E+02
4947000000.000000      4.530334000000000E-01      1.783008000000000E+01      1.325302000000000E-01      1.668437000000000E+02
4948000000.000000      4.528656000000000E-01      1.800293000000000E+01      1.290894000000000E-01      1.676094000000000E+02
4949000000.000000      4.536438000000000E-01      1.754297000000000E+01      1.270218000000000E-01      1.688750000000000E+02
4950000000.000000      4.540253000000000E-01      1.760351000000000E+01      1.239243000000000E-01      1.697656000000000E+02
4951000000.000000      4.521942000000000E-01      1.733301000000000E+01      1.214752000000000E-01      1.707031000000000E+02
4952000000.000000      4.515228000000000E-01      1.722656000000000E+01      1.182671000000000E-01      1.719219000000000E+02
4953000000.000000      4.524536000000000E-01      1.712402000000000E+01      1.167755000000000E-01      1.734062000000000E+02
4954000000.000000      4.538269000000000E-01      1.688672000000000E+01      1.143227000000000E-01      1.746562000000000E+02
