! Network Analyzer HP8722D
! Hewlett-Packard
! Data name: Linha & Wilkinson
! Saver's name: Rodrigo Anjos
! Comments: Teste da utilização de aquisição
continua pelo VNA HP8722D
! Time and date: 23/5/2025 09:01
!              Frequency                     S11                                                   S21                                                   S12                                                   S22
# HZ  S  MA R 50
4800000000.000000      3.407440000000000E-01      3.475781000000000E+01      4.560699000000000E-01     -1.256797000000000E+02
4801000000.000000      3.414001000000000E-01      3.500781000000000E+01      4.592285000000000E-01     -1.265039000000000E+02
4802000000.000000      3.420715000000000E-01      3.511523000000000E+01      4.585876000000000E-01     -1.271797000000000E+02
4803000000.000000      3.429565000000000E-01      3.526172000000000E+01      4.618073000000000E-01     -1.278164000000000E+02
4804000000.000000      3.436890000000000E-01      3.546093000000000E+01      4.635620000000000E-01     -1.286406000000000E+02
4805000000.000000      3.451996000000000E-01      3.556836000000000E+01      4.634857000000000E-01     -1.293359000000000E+02
4806000000.000000      3.452606000000000E-01      3.564258000000000E+01      4.670868000000000E-01     -1.300313000000000E+02
4807000000.000000      3.457489000000000E-01      3.588672000000000E+01      4.683075000000000E-01     -1.309609000000000E+02
4808000000.000000      3.464966000000000E-01      3.602344000000000E+01      4.672852000000000E-01     -1.314219000000000E+02
4809000000.000000      3.474579000000000E-01      3.621484000000000E+01      4.694824000000000E-01     -1.322578000000000E+02
4810000000.000000      3.488464000000000E-01      3.635742000000000E+01      4.696808000000000E-01     -1.330234000000000E+02
4811000000.000000      3.503876000000000E-01      3.646289000000000E+01      4.726563000000000E-01     -1.339141000000000E+02
4812000000.000000      3.523254000000000E-01      3.673047000000000E+01      4.728851000000000E-01     -1.343750000000000E+02
4813000000.000000      3.525391000000000E-01      3.681055000000000E+01      4.735565000000000E-01     -1.353437000000000E+02
4814000000.000000      3.537292000000000E-01      3.684570000000000E+01      4.744263000000000E-01     -1.358281000000000E+02
4815000000.000000      3.549500000000000E-01      3.696094000000000E+01      4.753113000000000E-01     -1.367422000000000E+02
4816000000.000000      3.570251000000000E-01      3.704883000000000E+01      4.772491000000000E-01     -1.373203000000000E+02
4817000000.000000      3.579102000000000E-01      3.715625000000000E+01      4.763947000000000E-01     -1.383750000000000E+02
4818000000.000000      3.591461000000000E-01      3.723242000000000E+01      4.763489000000000E-01     -1.389922000000000E+02
4819000000.000000      3.608398000000000E-01      3.731445000000000E+01      4.755707000000000E-01     -1.394609000000000E+02
4820000000.000000      3.615875000000000E-01      3.738867000000000E+01      4.763794000000000E-01     -1.402734000000000E+02
4821000000.000000      3.640442000000000E-01      3.746875000000000E+01      4.779510000000000E-01     -1.411953000000000E+02
4822000000.000000      3.641510000000000E-01      3.740234000000000E+01      4.757843000000000E-01     -1.419219000000000E+02
4823000000.000000      3.664093000000000E-01      3.744922000000000E+01      4.787445000000000E-01     -1.426094000000000E+02
4824000000.000000      3.674011000000000E-01      3.755273000000000E+01      4.761963000000000E-01     -1.432422000000000E+02
4825000000.000000      3.692017000000000E-01      3.750000000000000E+01      4.757996000000000E-01     -1.440000000000000E+02
4826000000.000000      3.704529000000000E-01      3.751172000000000E+01      4.762421000000000E-01     -1.450078000000000E+02
4827000000.000000      3.726501000000000E-01      3.757226000000000E+01      4.747772000000000E-01     -1.453906000000000E+02
4828000000.000000      3.747101000000000E-01      3.756445000000000E+01      4.761963000000000E-01     -1.463047000000000E+02
4829000000.000000      3.758850000000000E-01      3.766016000000000E+01      4.755554000000000E-01     -1.468281000000000E+02
4830000000.000000      3.772583000000000E-01      3.751953000000000E+01      4.752350000000000E-01     -1.476641000000000E+02
4831000000.000000      3.791046000000000E-01      3.744336000000000E+01      4.749298000000000E-01     -1.483281000000000E+02
4832000000.000000      3.799438000000000E-01      3.748632000000000E+01      4.721527000000000E-01     -1.490391000000000E+02
4833000000.000000      3.817139000000000E-01      3.734375000000000E+01      4.731903000000000E-01     -1.497734000000000E+02
4834000000.000000      3.833008000000000E-01      3.727344000000000E+01      4.717255000000000E-01     -1.505469000000000E+02
4835000000.000000      3.848114000000000E-01      3.728906000000000E+01      4.727631000000000E-01     -1.512969000000000E+02
4836000000.000000      3.866272000000000E-01      3.723828000000000E+01      4.694824000000000E-01     -1.519375000000000E+02
4837000000.000000      3.879089000000000E-01      3.731640000000000E+01      4.690704000000000E-01     -1.529140000000000E+02
4838000000.000000      3.891449000000000E-01      3.701953000000000E+01      4.701691000000000E-01     -1.532031000000000E+02
4839000000.000000      3.929443000000000E-01      3.707422000000000E+01      4.683533000000000E-01     -1.540469000000000E+02
4840000000.000000      3.935852000000000E-01      3.682226000000000E+01      4.665985000000000E-01     -1.548828000000000E+02
4841000000.000000      3.943176000000000E-01      3.689258000000000E+01      4.658356000000000E-01     -1.555000000000000E+02
4842000000.000000      3.957214000000000E-01      3.670507000000000E+01      4.647827000000000E-01     -1.562500000000000E+02
4843000000.000000      3.987732000000000E-01      3.646093000000000E+01      4.641266000000000E-01     -1.570313000000000E+02
4844000000.000000      3.996582000000000E-01      3.645117000000000E+01      4.630432000000000E-01     -1.577500000000000E+02
4845000000.000000      4.011536000000000E-01      3.638867000000000E+01      4.607544000000000E-01     -1.583750000000000E+02
4846000000.000000      4.026794000000000E-01      3.627148000000000E+01      4.599915000000000E-01     -1.590859000000000E+02
4847000000.000000      4.042664000000000E-01      3.616015000000000E+01      4.593964000000000E-01     -1.597500000000000E+02
4848000000.000000      4.047394000000000E-01      3.591406000000000E+01      4.554291000000000E-01     -1.605859000000000E+02
4849000000.000000      4.066772000000000E-01      3.571289000000000E+01      4.557953000000000E-01     -1.614219000000000E+02
4850000000.000000      4.084015000000000E-01      3.561718000000000E+01      4.520721000000000E-01     -1.619688000000000E+02
4851000000.000000      4.092865000000000E-01      3.553906000000000E+01      4.519348000000000E-01     -1.627266000000000E+02
4852000000.000000      4.111481000000000E-01      3.530273000000000E+01      4.504852000000000E-01     -1.634063000000000E+02
4853000000.000000      4.122009000000000E-01      3.517383000000000E+01      4.466553000000000E-01     -1.640625000000000E+02
4854000000.000000      4.142303000000000E-01      3.497461000000000E+01      4.455566000000000E-01     -1.649922000000000E+02
4855000000.000000      4.145050000000000E-01      3.488281000000000E+01      4.435120000000000E-01     -1.657031000000000E+02
4856000000.000000      4.154510000000000E-01      3.465625000000000E+01      4.409637000000000E-01     -1.662422000000000E+02
4857000000.000000      4.162445000000000E-01      3.454102000000000E+01      4.404755000000000E-01     -1.668672000000000E+02
4858000000.000000      4.170837000000000E-01      3.432226000000000E+01      4.382477000000000E-01     -1.676641000000000E+02
4859000000.000000      4.183655000000000E-01      3.411914000000000E+01      4.347076000000000E-01     -1.684609000000000E+02
4860000000.000000      4.191132000000000E-01      3.402539000000000E+01      4.344177000000000E-01     -1.691484000000000E+02
4861000000.000000      4.202271000000000E-01      3.382031000000000E+01      4.296417000000000E-01     -1.698906000000000E+02
4862000000.000000      4.204865000000000E-01      3.347265000000000E+01      4.292755000000000E-01     -1.704609000000000E+02
4863000000.000000      4.222717000000000E-01      3.336719000000000E+01      4.241791000000000E-01     -1.714609000000000E+02
4864000000.000000      4.239044000000000E-01      3.317968000000000E+01      4.236145000000000E-01     -1.720234000000000E+02
4865000000.000000      4.235077000000000E-01      3.291601000000000E+01      4.194183000000000E-01     -1.724219000000000E+02
4866000000.000000      4.253693000000000E-01      3.268164000000000E+01      4.155426000000000E-01     -1.732734000000000E+02
4867000000.000000      4.256287000000000E-01      3.260742000000000E+01      4.129028000000000E-01     -1.738906000000000E+02
4868000000.000000      4.274750000000000E-01      3.239843000000000E+01      4.103699000000000E-01     -1.744922000000000E+02
4869000000.000000      4.272614000000000E-01      3.212305000000000E+01      4.072571000000000E-01     -1.752656000000000E+02
4870000000.000000      4.281158000000000E-01      3.186035000000000E+01      4.058685000000000E-01     -1.756250000000000E+02
4871000000.000000      4.292297000000000E-01      3.166601000000000E+01      4.004822000000000E-01     -1.768594000000000E+02
4872000000.000000      4.309082000000000E-01      3.153418000000000E+01      3.966980000000000E-01     -1.769766000000000E+02
4873000000.000000      4.300385000000000E-01      3.126660000000000E+01      3.937073000000000E-01     -1.780156000000000E+02
4874000000.000000      4.313202000000000E-01      3.119629000000000E+01      3.905945000000000E-01     -1.784141000000000E+02
4875000000.000000      4.316254000000000E-01      3.079785000000000E+01      3.864594000000000E-01     -1.790547000000000E+02
4876000000.000000      4.333038000000000E-01      3.072266000000000E+01      3.850861000000000E-01     -1.795625000000000E+02
4877000000.000000      4.335022000000000E-01      3.026660000000000E+01      3.807526000000000E-01      1.798437000000000E+02
4878000000.000000      4.335938000000000E-01      3.024511000000000E+01      3.773804000000000E-01      1.792500000000000E+02
4879000000.000000      4.346619000000000E-01      3.000000000000000E+01      3.728638000000000E-01      1.787891000000000E+02
4880000000.000000      4.356537000000000E-01      2.970215000000000E+01      3.717194000000000E-01      1.779219000000000E+02
4881000000.000000      4.354553000000000E-01      2.956933000000000E+01      3.665619000000000E-01      1.775625000000000E+02
4882000000.000000      4.364624000000000E-01      2.939453000000000E+01      3.647156000000000E-01      1.770000000000000E+02
4883000000.000000      4.359894000000000E-01      2.914355000000000E+01      3.597870000000000E-01      1.764219000000000E+02
4884000000.000000      4.372253000000000E-01      2.898046000000000E+01      3.576202000000000E-01      1.757656000000000E+02
4885000000.000000      4.365234000000000E-01      2.875586000000000E+01      3.514862000000000E-01      1.755938000000000E+02
4886000000.000000      4.372101000000000E-01      2.861230000000000E+01      3.509827000000000E-01      1.750703000000000E+02
4887000000.000000      4.371338000000000E-01      2.834277000000000E+01      3.456116000000000E-01      1.744219000000000E+02
4888000000.000000      4.367371000000000E-01      2.804101000000000E+01      3.423157000000000E-01      1.739219000000000E+02
4889000000.000000      4.376526000000000E-01      2.793652000000000E+01      3.391724000000000E-01      1.735234000000000E+02
4890000000.000000      4.369049000000000E-01      2.771679000000000E+01      3.352661000000000E-01      1.726719000000000E+02
4891000000.000000      4.384308000000000E-01      2.744043000000000E+01      3.314209000000000E-01      1.724688000000000E+02
4892000000.000000      4.378357000000000E-01      2.733789000000000E+01      3.292847000000000E-01      1.722188000000000E+02
4893000000.000000      4.381866000000000E-01      2.706738000000000E+01      3.257446000000000E-01      1.715234000000000E+02
4894000000.000000      4.378815000000000E-01      2.680469000000000E+01      3.209229000000000E-01      1.711719000000000E+02
4895000000.000000      4.396515000000000E-01      2.654297000000000E+01      3.200531000000000E-01      1.708672000000000E+02
4896000000.000000      4.386749000000000E-01      2.660937000000000E+01      3.161011000000000E-01      1.704219000000000E+02
4897000000.000000      4.385223000000000E-01      2.623730000000000E+01      3.114777000000000E-01      1.699609000000000E+02
4898000000.000000      4.379730000000000E-01      2.629980000000000E+01      3.088531000000000E-01      1.696953000000000E+02
4899000000.000000      4.385834000000000E-01      2.581152000000000E+01      3.058014000000000E-01      1.690859000000000E+02
4900000000.000000      4.378662000000000E-01      2.571582000000000E+01      3.022003000000000E-01      1.687578000000000E+02
4901000000.000000      4.380951000000000E-01      2.545605000000000E+01      2.987671000000000E-01      1.684687000000000E+02
4902000000.000000      4.386292000000000E-01      2.518261000000000E+01      2.958832000000000E-01      1.682891000000000E+02
4903000000.000000      4.375153000000000E-01      2.523828000000000E+01      2.914581000000000E-01      1.675703000000000E+02
4904000000.000000      4.375000000000000E-01      2.489355000000000E+01      2.890778000000000E-01      1.671875000000000E+02
4905000000.000000      4.376984000000000E-01      2.468262000000000E+01      2.865753000000000E-01      1.668437000000000E+02
4906000000.000000      4.381561000000000E-01      2.469141000000000E+01      2.829895000000000E-01      1.665781000000000E+02
4907000000.000000      4.380035000000000E-01      2.450293000000000E+01      2.801361000000000E-01      1.660625000000000E+02
4908000000.000000      4.378510000000000E-01      2.416992000000000E+01      2.765656000000000E-01      1.658281000000000E+02
4909000000.000000      4.367218000000000E-01      2.400293000000000E+01      2.730255000000000E-01      1.653828000000000E+02
4910000000.000000      4.369965000000000E-01      2.395703000000000E+01      2.692871000000000E-01      1.649297000000000E+02
4911000000.000000      4.380035000000000E-01      2.381054000000000E+01      2.661285000000000E-01      1.648047000000000E+02
4912000000.000000      4.372253000000000E-01      2.353808000000000E+01      2.624207000000000E-01      1.642891000000000E+02
4913000000.000000      4.370270000000000E-01      2.333887000000000E+01      2.594299000000000E-01      1.638203000000000E+02
4914000000.000000      4.372406000000000E-01      2.323925000000000E+01      2.554626000000000E-01      1.637266000000000E+02
4915000000.000000      4.353790000000000E-01      2.307910000000000E+01      2.522278000000000E-01      1.631562000000000E+02
4916000000.000000      4.364319000000000E-01      2.292090000000000E+01      2.486725000000000E-01      1.627344000000000E+02
4917000000.000000      4.359436000000000E-01      2.272656000000000E+01      2.455292000000000E-01      1.625625000000000E+02
4918000000.000000      4.362946000000000E-01      2.263281000000000E+01      2.414780000000000E-01      1.623906000000000E+02
4919000000.000000      4.354095000000000E-01      2.244141000000000E+01      2.382126000000000E-01      1.621562000000000E+02
4920000000.000000      4.361725000000000E-01      2.226758000000000E+01      2.343903000000000E-01      1.614063000000000E+02
4921000000.000000      4.351349000000000E-01      2.211524000000000E+01      2.310257000000000E-01      1.616172000000000E+02
4922000000.000000      4.360046000000000E-01      2.194629000000000E+01      2.274399000000000E-01      1.612656000000000E+02
4923000000.000000      4.361267000000000E-01      2.190039000000000E+01      2.233124000000000E-01      1.610469000000000E+02
4924000000.000000      4.349213000000000E-01      2.166602000000000E+01      2.195892000000000E-01      1.607422000000000E+02
4925000000.000000      4.347076000000000E-01      2.145312000000000E+01      2.155304000000000E-01      1.605937000000000E+02
4926000000.000000      4.336395000000000E-01      2.143359000000000E+01      2.125702000000000E-01      1.603984000000000E+02
4927000000.000000      4.347229000000000E-01      2.120215000000000E+01      2.083359000000000E-01      1.600312000000000E+02
4928000000.000000      4.350128000000000E-01      2.098731000000000E+01      2.049637000000000E-01      1.602109000000000E+02
4929000000.000000      4.341583000000000E-01      2.088281000000000E+01      2.007904000000000E-01      1.600547000000000E+02
4930000000.000000      4.349365000000000E-01      2.085840000000000E+01      1.972504000000000E-01      1.599297000000000E+02
4931000000.000000      4.349365000000000E-01      2.037207000000000E+01      1.935730000000000E-01      1.598203000000000E+02
4932000000.000000      4.330902000000000E-01      2.045508000000000E+01      1.898346000000000E-01      1.598125000000000E+02
4933000000.000000      4.339752000000000E-01      2.017871000000000E+01      1.853790000000000E-01      1.599844000000000E+02
4934000000.000000      4.344788000000000E-01      2.009082000000000E+01      1.817551000000000E-01      1.598672000000000E+02
4935000000.000000      4.352722000000000E-01      2.007031000000000E+01      1.782913000000000E-01      1.600547000000000E+02
4936000000.000000      4.324341000000000E-01      1.974512000000000E+01      1.743927000000000E-01      1.600547000000000E+02
4937000000.000000      4.339752000000000E-01      1.957617000000000E+01      1.707382000000000E-01      1.601250000000000E+02
4938000000.000000      4.319763000000000E-01      1.956347000000000E+01      1.673355000000000E-01      1.605547000000000E+02
4939000000.000000      4.318695000000000E-01      1.947266000000000E+01      1.634827000000000E-01      1.606328000000000E+02
4940000000.000000      4.325867000000000E-01      1.920801000000000E+01      1.592941000000000E-01      1.610625000000000E+02
4941000000.000000      4.333038000000000E-01      1.902637000000000E+01      1.557693000000000E-01      1.613984000000000E+02
4942000000.000000      4.316864000000000E-01      1.899805000000000E+01      1.522369000000000E-01      1.618984000000000E+02
4943000000.000000      4.319763000000000E-01      1.881348000000000E+01      1.491623000000000E-01      1.624453000000000E+02
4944000000.000000      4.318237000000000E-01      1.867480000000000E+01      1.453094000000000E-01      1.630000000000000E+02
4945000000.000000      4.315338000000000E-01      1.849512000000000E+01      1.420670000000000E-01      1.637500000000000E+02
4946000000.000000      4.318390000000000E-01      1.840039000000000E+01      1.387100000000000E-01      1.640859000000000E+02
4947000000.000000      4.311829000000000E-01      1.817773000000000E+01      1.357956000000000E-01      1.650312000000000E+02
4948000000.000000      4.311066000000000E-01      1.813379000000000E+01      1.326523000000000E-01      1.660156000000000E+02
4949000000.000000      4.295349000000000E-01      1.800488000000000E+01      1.296616000000000E-01      1.670703000000000E+02
4950000000.000000      4.298859000000000E-01      1.769531000000000E+01      1.268616000000000E-01      1.680547000000000E+02
4951000000.000000      4.313812000000000E-01      1.763672000000000E+01      1.241417000000000E-01      1.687422000000000E+02
4952000000.000000      4.307251000000000E-01      1.734961000000000E+01      1.212044000000000E-01      1.701015000000000E+02
4953000000.000000      4.289398000000000E-01      1.724023000000000E+01      1.192856000000000E-01      1.716484000000000E+02
4954000000.000000      4.299927000000000E-01      1.705957000000000E+01      1.166153000000000E-01      1.729297000000000E+02
