! Network Analyzer HP8722D
! Hewlett-Packard
! Data name: Linha & Wilkinson
! Saver's name: Rodrigo Anjos
! Comments: Teste da utilização de aquisição
continua pelo VNA HP8722D
! Time and date: 23/5/2025 13:00
!              Frequency                     S11                                                   S21                                                   S12                                                   S22
# HZ  S  MA R 50
4800000000.000000      2.870941000000000E-01      3.966797000000000E+01      4.852600000000000E-01     -1.296719000000000E+02
4801000000.000000      2.878876000000000E-01      3.996094000000000E+01      4.847565000000000E-01     -1.303906000000000E+02
4802000000.000000      2.891083000000000E-01      4.017187000000000E+01      4.869080000000000E-01     -1.310234000000000E+02
4803000000.000000      2.903442000000000E-01      4.031640000000000E+01      4.892426000000000E-01     -1.316406000000000E+02
4804000000.000000      2.915344000000000E-01      4.062304000000000E+01      4.920197000000000E-01     -1.325391000000000E+02
4805000000.000000      2.933655000000000E-01      4.065039000000000E+01      4.934845000000000E-01     -1.332500000000000E+02
4806000000.000000      2.943726000000000E-01      4.080859000000000E+01      4.940338000000000E-01     -1.339609000000000E+02
4807000000.000000      2.958527000000000E-01      4.105469000000000E+01      4.941101000000000E-01     -1.348984000000000E+02
4808000000.000000      2.963867000000000E-01      4.120117000000000E+01      4.972229000000000E-01     -1.352813000000000E+02
4809000000.000000      2.984161000000000E-01      4.142774000000000E+01      4.974976000000000E-01     -1.364141000000000E+02
4810000000.000000      2.995911000000000E-01      4.158008000000000E+01      4.986877000000000E-01     -1.369062000000000E+02
4811000000.000000      3.014984000000000E-01      4.174024000000000E+01      5.005188000000000E-01     -1.377109000000000E+02
4812000000.000000      3.038483000000000E-01      4.191406000000000E+01      4.998169000000000E-01     -1.383828000000000E+02
4813000000.000000      3.046875000000000E-01      4.195703000000000E+01      5.022888000000000E-01     -1.389141000000000E+02
4814000000.000000      3.059692000000000E-01      4.201367000000000E+01      5.042725000000000E-01     -1.397187000000000E+02
4815000000.000000      3.075256000000000E-01      4.214453000000000E+01      5.036621000000000E-01     -1.406328000000000E+02
4816000000.000000      3.099823000000000E-01      4.228516000000000E+01      5.041199000000000E-01     -1.411719000000000E+02
4817000000.000000      3.105621000000000E-01      4.233398000000000E+01      5.037537000000000E-01     -1.418828000000000E+02
4818000000.000000      3.130646000000000E-01      4.237890000000000E+01      5.057678000000000E-01     -1.428906000000000E+02
4819000000.000000      3.147888000000000E-01      4.237890000000000E+01      5.045471000000000E-01     -1.435234000000000E+02
4820000000.000000      3.159332000000000E-01      4.245117000000000E+01      5.038147000000000E-01     -1.441094000000000E+02
4821000000.000000      3.193817000000000E-01      4.242969000000000E+01      5.063477000000000E-01     -1.449141000000000E+02
4822000000.000000      3.197021000000000E-01      4.233007000000000E+01      5.035706000000000E-01     -1.457891000000000E+02
4823000000.000000      3.221130000000000E-01      4.238671000000000E+01      5.053711000000000E-01     -1.465391000000000E+02
4824000000.000000      3.237610000000000E-01      4.252734000000000E+01      5.047913000000000E-01     -1.472578000000000E+02
4825000000.000000      3.251190000000000E-01      4.230664000000000E+01      5.049133000000000E-01     -1.477266000000000E+02
4826000000.000000      3.269043000000000E-01      4.233984000000000E+01      5.049133000000000E-01     -1.487813000000000E+02
4827000000.000000      3.294373000000000E-01      4.225586000000000E+01      5.049133000000000E-01     -1.492031000000000E+02
4828000000.000000      3.314362000000000E-01      4.225976000000000E+01      5.043335000000000E-01     -1.500625000000000E+02
4829000000.000000      3.330231000000000E-01      4.225390000000000E+01      5.032043000000000E-01     -1.506328000000000E+02
4830000000.000000      3.345642000000000E-01      4.204687000000000E+01      5.034790000000000E-01     -1.515000000000000E+02
4831000000.000000      3.361359000000000E-01      4.202538000000000E+01      5.018005000000000E-01     -1.522031000000000E+02
4832000000.000000      3.380432000000000E-01      4.210351000000000E+01      5.007629000000000E-01     -1.529766000000000E+02
4833000000.000000      3.389435000000000E-01      4.183398000000000E+01      5.008240000000000E-01     -1.536328000000000E+02
4834000000.000000      3.411560000000000E-01      4.177539000000000E+01      4.994507000000000E-01     -1.542422000000000E+02
4835000000.000000      3.432312000000000E-01      4.160352000000000E+01      4.989777000000000E-01     -1.551172000000000E+02
4836000000.000000      3.449402000000000E-01      4.152539000000000E+01      4.969177000000000E-01     -1.556562000000000E+02
4837000000.000000      3.462830000000000E-01      4.149804000000000E+01      4.950562000000000E-01     -1.567422000000000E+02
4838000000.000000      3.478546000000000E-01      4.121875000000000E+01      4.963226000000000E-01     -1.571875000000000E+02
4839000000.000000      3.513336000000000E-01      4.122460000000000E+01      4.953766000000000E-01     -1.578438000000000E+02
4840000000.000000      3.523407000000000E-01      4.089063000000000E+01      4.937439000000000E-01     -1.585000000000000E+02
4841000000.000000      3.529663000000000E-01      4.097852000000000E+01      4.928436000000000E-01     -1.593750000000000E+02
4842000000.000000      3.549957000000000E-01      4.070117000000000E+01      4.909363000000000E-01     -1.599844000000000E+02
4843000000.000000      3.577271000000000E-01      4.039648000000000E+01      4.906921000000000E-01     -1.609062000000000E+02
4844000000.000000      3.581085000000000E-01      4.018359000000000E+01      4.893188000000000E-01     -1.614844000000000E+02
4845000000.000000      3.599091000000000E-01      4.015429000000000E+01      4.873962000000000E-01     -1.622187000000000E+02
4846000000.000000      3.616638000000000E-01      3.990429000000000E+01      4.864349000000000E-01     -1.630000000000000E+02
4847000000.000000      3.633270000000000E-01      3.975390000000000E+01      4.842682000000000E-01     -1.634766000000000E+02
4848000000.000000      3.640900000000000E-01      3.950586000000000E+01      4.802399000000000E-01     -1.642734000000000E+02
4849000000.000000      3.661499000000000E-01      3.917383000000000E+01      4.797211000000000E-01     -1.650703000000000E+02
4850000000.000000      3.665009000000000E-01      3.911523000000000E+01      4.777832000000000E-01     -1.656953000000000E+02
4851000000.000000      3.688049000000000E-01      3.900000000000000E+01      4.765778000000000E-01     -1.665469000000000E+02
4852000000.000000      3.699188000000000E-01      3.869336000000000E+01      4.748840000000000E-01     -1.671797000000000E+02
4853000000.000000      3.715363000000000E-01      3.850000000000000E+01      4.699554000000000E-01     -1.678594000000000E+02
4854000000.000000      3.726349000000000E-01      3.812109000000000E+01      4.690094000000000E-01     -1.686094000000000E+02
4855000000.000000      3.731537000000000E-01      3.798047000000000E+01      4.683075000000000E-01     -1.692266000000000E+02
4856000000.000000      3.738403000000000E-01      3.775000000000000E+01      4.642639000000000E-01     -1.700000000000000E+02
4857000000.000000      3.768768000000000E-01      3.759766000000000E+01      4.631195000000000E-01     -1.706094000000000E+02
4858000000.000000      3.766937000000000E-01      3.720898000000000E+01      4.603271000000000E-01     -1.712500000000000E+02
4859000000.000000      3.778229000000000E-01      3.692968000000000E+01      4.577179000000000E-01     -1.720078000000000E+02
4860000000.000000      3.785858000000000E-01      3.685937000000000E+01      4.558105000000000E-01     -1.725859000000000E+02
4861000000.000000      3.795166000000000E-01      3.653515000000000E+01      4.529724000000000E-01     -1.733047000000000E+02
4862000000.000000      3.802490000000000E-01      3.621484000000000E+01      4.513702000000000E-01     -1.739844000000000E+02
4863000000.000000      3.816833000000000E-01      3.605664000000000E+01      4.455414000000000E-01     -1.746094000000000E+02
4864000000.000000      3.825073000000000E-01      3.577539000000000E+01      4.459839000000000E-01     -1.752969000000000E+02
4865000000.000000      3.825684000000000E-01      3.547266000000000E+01      4.419861000000000E-01     -1.758984000000000E+02
4866000000.000000      3.842163000000000E-01      3.525781000000000E+01      4.382782000000000E-01     -1.766016000000000E+02
4867000000.000000      3.839569000000000E-01      3.497070000000000E+01      4.361267000000000E-01     -1.774922000000000E+02
4868000000.000000      3.852844000000000E-01      3.464258000000000E+01      4.331055000000000E-01     -1.779922000000000E+02
4869000000.000000      3.860168000000000E-01      3.456055000000000E+01      4.293671000000000E-01     -1.787109000000000E+02
4870000000.000000      3.867798000000000E-01      3.421875000000000E+01      4.255829000000000E-01     -1.791328000000000E+02
4871000000.000000      3.872070000000000E-01      3.382226000000000E+01      4.226227000000000E-01      1.799844000000000E+02
4872000000.000000      3.891754000000000E-01      3.358984000000000E+01      4.196167000000000E-01      1.795625000000000E+02
4873000000.000000      3.891449000000000E-01      3.341992000000000E+01      4.162445000000000E-01      1.788437000000000E+02
4874000000.000000      3.897858000000000E-01      3.323633000000000E+01      4.121399000000000E-01      1.782734000000000E+02
4875000000.000000      3.900604000000000E-01      3.277734000000000E+01      4.085083000000000E-01      1.780547000000000E+02
4876000000.000000      3.915253000000000E-01      3.276758000000000E+01      4.060059000000000E-01      1.772266000000000E+02
4877000000.000000      3.917694000000000E-01      3.222461000000000E+01      4.022064000000000E-01      1.765234000000000E+02
4878000000.000000      3.908234000000000E-01      3.205469000000000E+01      3.987579000000000E-01      1.760469000000000E+02
4879000000.000000      3.919067000000000E-01      3.182812000000000E+01      3.957062000000000E-01      1.756953000000000E+02
4880000000.000000      3.922882000000000E-01      3.158886000000000E+01      3.909302000000000E-01      1.748672000000000E+02
4881000000.000000      3.917999000000000E-01      3.132715000000000E+01      3.886871000000000E-01      1.744922000000000E+02
4882000000.000000      3.933258000000000E-01      3.104980000000000E+01      3.848267000000000E-01      1.738203000000000E+02
4883000000.000000      3.927765000000000E-01      3.074023000000000E+01      3.800964000000000E-01      1.733984000000000E+02
4884000000.000000      3.939056000000000E-01      3.067383000000000E+01      3.774567000000000E-01      1.726484000000000E+02
4885000000.000000      3.938293000000000E-01      3.028320000000000E+01      3.731689000000000E-01      1.724375000000000E+02
4886000000.000000      3.938446000000000E-01      3.023535000000000E+01      3.709412000000000E-01      1.718828000000000E+02
4887000000.000000      3.941956000000000E-01      2.979199000000000E+01      3.673401000000000E-01      1.713672000000000E+02
4888000000.000000      3.932495000000000E-01      2.954199000000000E+01      3.652344000000000E-01      1.706484000000000E+02
4889000000.000000      3.937225000000000E-01      2.936621000000000E+01      3.590393000000000E-01      1.703203000000000E+02
4890000000.000000      3.927155000000000E-01      2.904492000000000E+01      3.550262000000000E-01      1.697813000000000E+02
4891000000.000000      3.943939000000000E-01      2.889355000000000E+01      3.516998000000000E-01      1.694141000000000E+02
4892000000.000000      3.926697000000000E-01      2.856543000000000E+01      3.504181000000000E-01      1.691484000000000E+02
4893000000.000000      3.941193000000000E-01      2.838574000000000E+01      3.435669000000000E-01      1.683047000000000E+02
4894000000.000000      3.930664000000000E-01      2.813574000000000E+01      3.419952000000000E-01      1.680938000000000E+02
4895000000.000000      3.936157000000000E-01      2.781543000000000E+01      3.391724000000000E-01      1.677266000000000E+02
4896000000.000000      3.938293000000000E-01      2.757813000000000E+01      3.347321000000000E-01      1.673906000000000E+02
4897000000.000000      3.927917000000000E-01      2.757617000000000E+01      3.299561000000000E-01      1.667891000000000E+02
4898000000.000000      3.937531000000000E-01      2.725976000000000E+01      3.288879000000000E-01      1.665078000000000E+02
4899000000.000000      3.933258000000000E-01      2.697656000000000E+01      3.249817000000000E-01      1.660938000000000E+02
4900000000.000000      3.924103000000000E-01      2.669531000000000E+01      3.217621000000000E-01      1.658594000000000E+02
4901000000.000000      3.927612000000000E-01      2.664941000000000E+01      3.184967000000000E-01      1.653516000000000E+02
4902000000.000000      3.928833000000000E-01      2.640625000000000E+01      3.151245000000000E-01      1.649219000000000E+02
4903000000.000000      3.930969000000000E-01      2.620703000000000E+01      3.107910000000000E-01      1.646719000000000E+02
4904000000.000000      3.927917000000000E-01      2.584375000000000E+01      3.078613000000000E-01      1.639531000000000E+02
4905000000.000000      3.916473000000000E-01      2.593554000000000E+01      3.046722000000000E-01      1.636172000000000E+02
4906000000.000000      3.906250000000000E-01      2.545996000000000E+01      3.008118000000000E-01      1.636172000000000E+02
4907000000.000000      3.924408000000000E-01      2.532422000000000E+01      2.978516000000000E-01      1.630156000000000E+02
4908000000.000000      3.918304000000000E-01      2.501660000000000E+01      2.944031000000000E-01      1.623984000000000E+02
4909000000.000000      3.903809000000000E-01      2.497265000000000E+01      2.901154000000000E-01      1.621484000000000E+02
4910000000.000000      3.910522000000000E-01      2.483398000000000E+01      2.870483000000000E-01      1.618594000000000E+02
4911000000.000000      3.906708000000000E-01      2.462695000000000E+01      2.840271000000000E-01      1.615469000000000E+02
4912000000.000000      3.905334000000000E-01      2.443066000000000E+01      2.802277000000000E-01      1.610469000000000E+02
4913000000.000000      3.896942000000000E-01      2.419140000000000E+01      2.768707000000000E-01      1.606250000000000E+02
4914000000.000000      3.898621000000000E-01      2.386035000000000E+01      2.735443000000000E-01      1.604844000000000E+02
4915000000.000000      3.896637000000000E-01      2.392773000000000E+01      2.686615000000000E-01      1.599609000000000E+02
4916000000.000000      3.897705000000000E-01      2.365625000000000E+01      2.654724000000000E-01      1.596797000000000E+02
4917000000.000000      3.887787000000000E-01      2.347851000000000E+01      2.610931000000000E-01      1.593750000000000E+02
4918000000.000000      3.887329000000000E-01      2.320313000000000E+01      2.578888000000000E-01      1.590078000000000E+02
4919000000.000000      3.878937000000000E-01      2.311718000000000E+01      2.543945000000000E-01      1.588750000000000E+02
4920000000.000000      3.880310000000000E-01      2.293457000000000E+01      2.492294000000000E-01      1.583125000000000E+02
4921000000.000000      3.881683000000000E-01      2.276465000000000E+01      2.467422000000000E-01      1.581953000000000E+02
4922000000.000000      3.879547000000000E-01      2.255762000000000E+01      2.427673000000000E-01      1.580078000000000E+02
4923000000.000000      3.878632000000000E-01      2.236328000000000E+01      2.384109000000000E-01      1.577109000000000E+02
4924000000.000000      3.869629000000000E-01      2.219336000000000E+01      2.343369000000000E-01      1.573047000000000E+02
4925000000.000000      3.864441000000000E-01      2.199121000000000E+01      2.309036000000000E-01      1.571797000000000E+02
4926000000.000000      3.860474000000000E-01      2.185645000000000E+01      2.270737000000000E-01      1.569531000000000E+02
4927000000.000000      3.866882000000000E-01      2.170312000000000E+01      2.232742000000000E-01      1.567344000000000E+02
4928000000.000000      3.868103000000000E-01      2.134570000000000E+01      2.197800000000000E-01      1.566641000000000E+02
4929000000.000000      3.856812000000000E-01      2.123633000000000E+01      2.150497000000000E-01      1.567031000000000E+02
4930000000.000000      3.858795000000000E-01      2.121582000000000E+01      2.110977000000000E-01      1.564687000000000E+02
4931000000.000000      3.849487000000000E-01      2.101953000000000E+01      2.073364000000000E-01      1.564297000000000E+02
4932000000.000000      3.849640000000000E-01      2.077051000000000E+01      2.032776000000000E-01      1.564062000000000E+02
4933000000.000000      3.843536000000000E-01      2.058105000000000E+01      1.977921000000000E-01      1.564453000000000E+02
4934000000.000000      3.851013000000000E-01      2.040918000000000E+01      1.944656000000000E-01      1.563047000000000E+02
4935000000.000000      3.849030000000000E-01      2.030371000000000E+01      1.910095000000000E-01      1.566015000000000E+02
4936000000.000000      3.827820000000000E-01      2.003418000000000E+01      1.863632000000000E-01      1.566094000000000E+02
4937000000.000000      3.845520000000000E-01      1.992578000000000E+01      1.829147000000000E-01      1.568984000000000E+02
4938000000.000000      3.825073000000000E-01      1.985840000000000E+01      1.786194000000000E-01      1.570313000000000E+02
4939000000.000000      3.838348000000000E-01      1.967773000000000E+01      1.746521000000000E-01      1.572656000000000E+02
4940000000.000000      3.832397000000000E-01      1.940039000000000E+01      1.708221000000000E-01      1.573516000000000E+02
4941000000.000000      3.826599000000000E-01      1.924609000000000E+01      1.670151000000000E-01      1.579375000000000E+02
4942000000.000000      3.815155000000000E-01      1.921875000000000E+01      1.630249000000000E-01      1.581250000000000E+02
4943000000.000000      3.822784000000000E-01      1.887500000000000E+01      1.594849000000000E-01      1.589141000000000E+02
4944000000.000000      3.820343000000000E-01      1.873437000000000E+01      1.561279000000000E-01      1.594375000000000E+02
4945000000.000000      3.814087000000000E-01      1.862305000000000E+01      1.518402000000000E-01      1.601250000000000E+02
4946000000.000000      3.812866000000000E-01      1.852539000000000E+01      1.488037000000000E-01      1.605781000000000E+02
4947000000.000000      3.806152000000000E-01      1.828223000000000E+01      1.451111000000000E-01      1.614375000000000E+02
4948000000.000000      3.813019000000000E-01      1.814160000000000E+01      1.419678000000000E-01      1.622969000000000E+02
4949000000.000000      3.802948000000000E-01      1.786621000000000E+01      1.388779000000000E-01      1.633750000000000E+02
4950000000.000000      3.801422000000000E-01      1.782519000000000E+01      1.357040000000000E-01      1.644375000000000E+02
4951000000.000000      3.806763000000000E-01      1.762891000000000E+01      1.329041000000000E-01      1.651641000000000E+02
4952000000.000000      3.791504000000000E-01      1.742383000000000E+01      1.300201000000000E-01      1.664609000000000E+02
4953000000.000000      3.795471000000000E-01      1.716699000000000E+01      1.274872000000000E-01      1.678047000000000E+02
4954000000.000000      3.781433000000000E-01      1.710351000000000E+01      1.253738000000000E-01      1.690156000000000E+02
