! Network Analyzer HP8722D
! Hewlett-Packard
! Data name: Linha & Wilkinson
! Saver's name: Rodrigo Anjos
! Comments: Teste da utilização de aquisição
continua pelo VNA HP8722D
! Time and date: 23/5/2025 09:25
!              Frequency                     S11                                                   S21                                                   S12                                                   S22
# HZ  S  MA R 50
4800000000.000000      3.271484000000000E-01      3.582812000000000E+01      4.633026000000000E-01     -1.268242000000000E+02
4801000000.000000      3.276520000000000E-01      3.616211000000000E+01      4.637146000000000E-01     -1.273476000000000E+02
4802000000.000000      3.286896000000000E-01      3.624804000000000E+01      4.655762000000000E-01     -1.281641000000000E+02
4803000000.000000      3.289337000000000E-01      3.645898000000000E+01      4.685211000000000E-01     -1.288359000000000E+02
4804000000.000000      3.296814000000000E-01      3.665625000000000E+01      4.693756000000000E-01     -1.295078000000000E+02
4805000000.000000      3.317719000000000E-01      3.675586000000000E+01      4.707336000000000E-01     -1.303125000000000E+02
4806000000.000000      3.320618000000000E-01      3.685156000000000E+01      4.721985000000000E-01     -1.310547000000000E+02
4807000000.000000      3.329620000000000E-01      3.710546000000000E+01      4.737244000000000E-01     -1.318906000000000E+02
4808000000.000000      3.338013000000000E-01      3.724609000000000E+01      4.747162000000000E-01     -1.323437000000000E+02
4809000000.000000      3.348541000000000E-01      3.752734000000000E+01      4.746246000000000E-01     -1.333359000000000E+02
4810000000.000000      3.366547000000000E-01      3.759180000000000E+01      4.770813000000000E-01     -1.338828000000000E+02
4811000000.000000      3.375397000000000E-01      3.769336000000000E+01      4.781342000000000E-01     -1.348281000000000E+02
4812000000.000000      3.396149000000000E-01      3.796289000000000E+01      4.790039000000000E-01     -1.355547000000000E+02
4813000000.000000      3.398132000000000E-01      3.801367000000000E+01      4.789276000000000E-01     -1.363203000000000E+02
4814000000.000000      3.410034000000000E-01      3.808594000000000E+01      4.796143000000000E-01     -1.368828000000000E+02
4815000000.000000      3.427734000000000E-01      3.822266000000000E+01      4.815674000000000E-01     -1.377031000000000E+02
4816000000.000000      3.451233000000000E-01      3.831640000000000E+01      4.829559000000000E-01     -1.382031000000000E+02
4817000000.000000      3.456573000000000E-01      3.845312000000000E+01      4.802399000000000E-01     -1.392422000000000E+02
4818000000.000000      3.474121000000000E-01      3.842187000000000E+01      4.814148000000000E-01     -1.399922000000000E+02
4819000000.000000      3.485413000000000E-01      3.846875000000000E+01      4.829254000000000E-01     -1.405156000000000E+02
4820000000.000000      3.496094000000000E-01      3.852148000000000E+01      4.823303000000000E-01     -1.413516000000000E+02
4821000000.000000      3.522797000000000E-01      3.862695000000000E+01      4.843597000000000E-01     -1.421719000000000E+02
4822000000.000000      3.531342000000000E-01      3.856445000000000E+01      4.817505000000000E-01     -1.426797000000000E+02
4823000000.000000      3.555450000000000E-01      3.860156000000000E+01      4.831543000000000E-01     -1.434922000000000E+02
4824000000.000000      3.563538000000000E-01      3.874804000000000E+01      4.819489000000000E-01     -1.443828000000000E+02
4825000000.000000      3.579559000000000E-01      3.868555000000000E+01      4.833832000000000E-01     -1.451953000000000E+02
4826000000.000000      3.594971000000000E-01      3.864062000000000E+01      4.830170000000000E-01     -1.458359000000000E+02
4827000000.000000      3.613739000000000E-01      3.867969000000000E+01      4.824982000000000E-01     -1.464297000000000E+02
4828000000.000000      3.634033000000000E-01      3.865625000000000E+01      4.827881000000000E-01     -1.471484000000000E+02
4829000000.000000      3.648529000000000E-01      3.873437000000000E+01      4.816589000000000E-01     -1.478516000000000E+02
4830000000.000000      3.665924000000000E-01      3.858398000000000E+01      4.815674000000000E-01     -1.487031000000000E+02
4831000000.000000      3.675232000000000E-01      3.850586000000000E+01      4.821777000000000E-01     -1.493906000000000E+02
4832000000.000000      3.700256000000000E-01      3.860742000000000E+01      4.795837000000000E-01     -1.499687000000000E+02
4833000000.000000      3.701172000000000E-01      3.835156000000000E+01      4.786530000000000E-01     -1.506094000000000E+02
4834000000.000000      3.723907000000000E-01      3.848437000000000E+01      4.788208000000000E-01     -1.513984000000000E+02
4835000000.000000      3.749695000000000E-01      3.832031000000000E+01      4.776611000000000E-01     -1.522422000000000E+02
4836000000.000000      3.760834000000000E-01      3.829297000000000E+01      4.761505000000000E-01     -1.528984000000000E+02
4837000000.000000      3.767242000000000E-01      3.829687000000000E+01      4.756927000000000E-01     -1.538047000000000E+02
4838000000.000000      3.786621000000000E-01      3.809570000000000E+01      4.750214000000000E-01     -1.542969000000000E+02
4839000000.000000      3.820343000000000E-01      3.810742000000000E+01      4.754944000000000E-01     -1.549141000000000E+02
4840000000.000000      3.827667000000000E-01      3.780078000000000E+01      4.724426000000000E-01     -1.556641000000000E+02
4841000000.000000      3.837891000000000E-01      3.784375000000000E+01      4.727020000000000E-01     -1.564844000000000E+02
4842000000.000000      3.851166000000000E-01      3.767773000000000E+01      4.707947000000000E-01     -1.572734000000000E+02
4843000000.000000      3.880157000000000E-01      3.748632000000000E+01      4.693146000000000E-01     -1.579766000000000E+02
4844000000.000000      3.889923000000000E-01      3.731836000000000E+01      4.679260000000000E-01     -1.586172000000000E+02
4845000000.000000      3.907166000000000E-01      3.727344000000000E+01      4.672546000000000E-01     -1.593672000000000E+02
4846000000.000000      3.923492000000000E-01      3.713476000000000E+01      4.662018000000000E-01     -1.600469000000000E+02
4847000000.000000      3.938293000000000E-01      3.701757000000000E+01      4.636536000000000E-01     -1.606562000000000E+02
4848000000.000000      3.947601000000000E-01      3.682031000000000E+01      4.624786000000000E-01     -1.614844000000000E+02
4849000000.000000      3.960266000000000E-01      3.660156000000000E+01      4.617310000000000E-01     -1.623047000000000E+02
4850000000.000000      3.976135000000000E-01      3.644922000000000E+01      4.582062000000000E-01     -1.627578000000000E+02
4851000000.000000      3.990936000000000E-01      3.641602000000000E+01      4.573517000000000E-01     -1.637812000000000E+02
4852000000.000000      4.000244000000000E-01      3.609375000000000E+01      4.554443000000000E-01     -1.642969000000000E+02
4853000000.000000      4.018250000000000E-01      3.605273000000000E+01      4.517670000000000E-01     -1.650547000000000E+02
4854000000.000000      4.028168000000000E-01      3.572266000000000E+01      4.515381000000000E-01     -1.658437000000000E+02
4855000000.000000      4.042358000000000E-01      3.560351000000000E+01      4.491425000000000E-01     -1.664531000000000E+02
4856000000.000000      4.055634000000000E-01      3.539648000000000E+01      4.463348000000000E-01     -1.672500000000000E+02
4857000000.000000      4.066315000000000E-01      3.518359000000000E+01      4.469299000000000E-01     -1.677969000000000E+02
4858000000.000000      4.074860000000000E-01      3.500586000000000E+01      4.434357000000000E-01     -1.685078000000000E+02
4859000000.000000      4.089661000000000E-01      3.478125000000000E+01      4.405518000000000E-01     -1.691875000000000E+02
4860000000.000000      4.096985000000000E-01      3.465820000000000E+01      4.378052000000000E-01     -1.699687000000000E+02
4861000000.000000      4.105988000000000E-01      3.449414000000000E+01      4.345093000000000E-01     -1.708281000000000E+02
4862000000.000000      4.114227000000000E-01      3.414063000000000E+01      4.344635000000000E-01     -1.713281000000000E+02
4863000000.000000      4.129028000000000E-01      3.410547000000000E+01      4.297485000000000E-01     -1.722344000000000E+02
4864000000.000000      4.142761000000000E-01      3.380468000000000E+01      4.278412000000000E-01     -1.726094000000000E+02
4865000000.000000      4.150085000000000E-01      3.355859000000000E+01      4.238892000000000E-01     -1.733828000000000E+02
4866000000.000000      4.160461000000000E-01      3.325781000000000E+01      4.198303000000000E-01     -1.741953000000000E+02
4867000000.000000      4.153595000000000E-01      3.311914000000000E+01      4.189911000000000E-01     -1.747969000000000E+02
4868000000.000000      4.178009000000000E-01      3.282031000000000E+01      4.164124000000000E-01     -1.755391000000000E+02
4869000000.000000      4.178467000000000E-01      3.276367000000000E+01      4.135284000000000E-01     -1.760547000000000E+02
4870000000.000000      4.184875000000000E-01      3.240820000000000E+01      4.089355000000000E-01     -1.766719000000000E+02
4871000000.000000      4.187469000000000E-01      3.212109000000000E+01      4.067535000000000E-01     -1.771875000000000E+02
4872000000.000000      4.210205000000000E-01      3.200586000000000E+01      4.035034000000000E-01     -1.779687000000000E+02
4873000000.000000      4.206390000000000E-01      3.174902000000000E+01      3.991089000000000E-01     -1.786328000000000E+02
4874000000.000000      4.212036000000000E-01      3.154004000000000E+01      3.946533000000000E-01     -1.791641000000000E+02
4875000000.000000      4.226227000000000E-01      3.127050000000000E+01      3.928680000000000E-01     -1.797812000000000E+02
4876000000.000000      4.226379000000000E-01      3.127441000000000E+01      3.893890000000000E-01      1.794531000000000E+02
4877000000.000000      4.245605000000000E-01      3.075293000000000E+01      3.848267000000000E-01      1.790234000000000E+02
4878000000.000000      4.232483000000000E-01      3.063183000000000E+01      3.836517000000000E-01      1.784297000000000E+02
4879000000.000000      4.247894000000000E-01      3.044140000000000E+01      3.782501000000000E-01      1.777812000000000E+02
4880000000.000000      4.249878000000000E-01      3.026562000000000E+01      3.767548000000000E-01      1.772734000000000E+02
4881000000.000000      4.247894000000000E-01      3.002344000000000E+01      3.738861000000000E-01      1.769531000000000E+02
4882000000.000000      4.260712000000000E-01      2.979589000000000E+01      3.697510000000000E-01      1.760859000000000E+02
4883000000.000000      4.255066000000000E-01      2.953808000000000E+01      3.657227000000000E-01      1.757422000000000E+02
4884000000.000000      4.263458000000000E-01      2.935644000000000E+01      3.616943000000000E-01      1.752734000000000E+02
4885000000.000000      4.266510000000000E-01      2.907324000000000E+01      3.577118000000000E-01      1.748047000000000E+02
4886000000.000000      4.267273000000000E-01      2.893164000000000E+01      3.550568000000000E-01      1.743125000000000E+02
4887000000.000000      4.271851000000000E-01      2.868750000000000E+01      3.517456000000000E-01      1.737187000000000E+02
4888000000.000000      4.283752000000000E-01      2.840625000000000E+01      3.477020000000000E-01      1.732656000000000E+02
4889000000.000000      4.280548000000000E-01      2.826562000000000E+01      3.434906000000000E-01      1.727813000000000E+02
4890000000.000000      4.273376000000000E-01      2.791406000000000E+01      3.403625000000000E-01      1.717109000000000E+02
4891000000.000000      4.272766000000000E-01      2.782617000000000E+01      3.374329000000000E-01      1.718984000000000E+02
4892000000.000000      4.268646000000000E-01      2.756445000000000E+01      3.333130000000000E-01      1.713906000000000E+02
4893000000.000000      4.275055000000000E-01      2.739160000000000E+01      3.303833000000000E-01      1.708750000000000E+02
4894000000.000000      4.274750000000000E-01      2.719433000000000E+01      3.257904000000000E-01      1.705781000000000E+02
4895000000.000000      4.277496000000000E-01      2.696777000000000E+01      3.251038000000000E-01      1.703203000000000E+02
4896000000.000000      4.286194000000000E-01      2.681347000000000E+01      3.207703000000000E-01      1.695391000000000E+02
4897000000.000000      4.274139000000000E-01      2.663086000000000E+01      3.170319000000000E-01      1.693281000000000E+02
4898000000.000000      4.285736000000000E-01      2.645605000000000E+01      3.139191000000000E-01      1.688594000000000E+02
4899000000.000000      4.278870000000000E-01      2.624218000000000E+01      3.098907000000000E-01      1.683516000000000E+02
4900000000.000000      4.273529000000000E-01      2.589062000000000E+01      3.070068000000000E-01      1.680469000000000E+02
4901000000.000000      4.279938000000000E-01      2.581640000000000E+01      3.035126000000000E-01      1.674766000000000E+02
4902000000.000000      4.288788000000000E-01      2.557812000000000E+01      3.005981000000000E-01      1.673516000000000E+02
4903000000.000000      4.274139000000000E-01      2.556738000000000E+01      2.959442000000000E-01      1.669609000000000E+02
4904000000.000000      4.277496000000000E-01      2.514843000000000E+01      2.934113000000000E-01      1.663281000000000E+02
4905000000.000000      4.263306000000000E-01      2.508008000000000E+01      2.909546000000000E-01      1.660469000000000E+02
4906000000.000000      4.275360000000000E-01      2.485449000000000E+01      2.870331000000000E-01      1.658516000000000E+02
4907000000.000000      4.275970000000000E-01      2.445117000000000E+01      2.841797000000000E-01      1.652812000000000E+02
4908000000.000000      4.275513000000000E-01      2.438672000000000E+01      2.809143000000000E-01      1.648438000000000E+02
4909000000.000000      4.265747000000000E-01      2.431543000000000E+01      2.773743000000000E-01      1.643906000000000E+02
4910000000.000000      4.254150000000000E-01      2.415039000000000E+01      2.736816000000000E-01      1.642578000000000E+02
4911000000.000000      4.267426000000000E-01      2.384668000000000E+01      2.711029000000000E-01      1.639219000000000E+02
4912000000.000000      4.257355000000000E-01      2.381250000000000E+01      2.669830000000000E-01      1.632734000000000E+02
4913000000.000000      4.269257000000000E-01      2.354199000000000E+01      2.632141000000000E-01      1.630859000000000E+02
4914000000.000000      4.258118000000000E-01      2.340430000000000E+01      2.598572000000000E-01      1.628515000000000E+02
4915000000.000000      4.250641000000000E-01      2.339062000000000E+01      2.560120000000000E-01      1.623359000000000E+02
4916000000.000000      4.259338000000000E-01      2.309863000000000E+01      2.524719000000000E-01      1.619062000000000E+02
4917000000.000000      4.252319000000000E-01      2.289941000000000E+01      2.493286000000000E-01      1.616719000000000E+02
4918000000.000000      4.257050000000000E-01      2.275488000000000E+01      2.449493000000000E-01      1.612656000000000E+02
4919000000.000000      4.249115000000000E-01      2.259472000000000E+01      2.423325000000000E-01      1.611875000000000E+02
4920000000.000000      4.247284000000000E-01      2.247070000000000E+01      2.381821000000000E-01      1.606094000000000E+02
4921000000.000000      4.249420000000000E-01      2.238867000000000E+01      2.347946000000000E-01      1.605312000000000E+02
4922000000.000000      4.246826000000000E-01      2.213281000000000E+01      2.311783000000000E-01      1.603672000000000E+02
4923000000.000000      4.245758000000000E-01      2.200000000000000E+01      2.271576000000000E-01      1.602890000000000E+02
4924000000.000000      4.240265000000000E-01      2.180176000000000E+01      2.231522000000000E-01      1.598359000000000E+02
4925000000.000000      4.243469000000000E-01      2.175488000000000E+01      2.199478000000000E-01      1.596172000000000E+02
4926000000.000000      4.235229000000000E-01      2.157227000000000E+01      2.162018000000000E-01      1.593203000000000E+02
4927000000.000000      4.222870000000000E-01      2.134082000000000E+01      2.122879000000000E-01      1.593672000000000E+02
4928000000.000000      4.238129000000000E-01      2.116601000000000E+01      2.081757000000000E-01      1.592656000000000E+02
4929000000.000000      4.225922000000000E-01      2.110156000000000E+01      2.044678000000000E-01      1.591484000000000E+02
4930000000.000000      4.231873000000000E-01      2.094629000000000E+01      2.006454000000000E-01      1.590078000000000E+02
4931000000.000000      4.225769000000000E-01      2.063281000000000E+01      1.973114000000000E-01      1.587656000000000E+02
4932000000.000000      4.226379000000000E-01      2.060840000000000E+01      1.925812000000000E-01      1.589687000000000E+02
4933000000.000000      4.232330000000000E-01      2.036523000000000E+01      1.882172000000000E-01      1.589922000000000E+02
4934000000.000000      4.225464000000000E-01      2.010058000000000E+01      1.849747000000000E-01      1.590859000000000E+02
4935000000.000000      4.226685000000000E-01      2.005957000000000E+01      1.812592000000000E-01      1.591250000000000E+02
4936000000.000000      4.207611000000000E-01      1.992871000000000E+01      1.776886000000000E-01      1.593047000000000E+02
4937000000.000000      4.223022000000000E-01      1.972656000000000E+01      1.737671000000000E-01      1.591953000000000E+02
4938000000.000000      4.212646000000000E-01      1.968848000000000E+01      1.697845000000000E-01      1.595547000000000E+02
4939000000.000000      4.212952000000000E-01      1.956347000000000E+01      1.660461000000000E-01      1.598516000000000E+02
4940000000.000000      4.214783000000000E-01      1.937500000000000E+01      1.623688000000000E-01      1.599531000000000E+02
4941000000.000000      4.211273000000000E-01      1.922461000000000E+01      1.587296000000000E-01      1.604219000000000E+02
4942000000.000000      4.206085000000000E-01      1.913476000000000E+01      1.550674000000000E-01      1.608828000000000E+02
4943000000.000000      4.196930000000000E-01      1.897949000000000E+01      1.512680000000000E-01      1.613516000000000E+02
4944000000.000000      4.196320000000000E-01      1.860742000000000E+01      1.485367000000000E-01      1.618672000000000E+02
4945000000.000000      4.197083000000000E-01      1.850781000000000E+01      1.444473000000000E-01      1.624375000000000E+02
4946000000.000000      4.200287000000000E-01      1.836035000000000E+01      1.412811000000000E-01      1.632891000000000E+02
4947000000.000000      4.193420000000000E-01      1.808984000000000E+01      1.377640000000000E-01      1.640703000000000E+02
4948000000.000000      4.198608000000000E-01      1.814160000000000E+01      1.347198000000000E-01      1.649062000000000E+02
4949000000.000000      4.177399000000000E-01      1.793750000000000E+01      1.320267000000000E-01      1.660781000000000E+02
4950000000.000000      4.188080000000000E-01      1.794336000000000E+01      1.288986000000000E-01      1.669141000000000E+02
4951000000.000000      4.189148000000000E-01      1.757910000000000E+01      1.263199000000000E-01      1.676875000000000E+02
4952000000.000000      4.190521000000000E-01      1.735937000000000E+01      1.231842000000000E-01      1.690469000000000E+02
4953000000.000000      4.179230000000000E-01      1.735547000000000E+01      1.210403000000000E-01      1.705781000000000E+02
4954000000.000000      4.181213000000000E-01      1.727539000000000E+01      1.188126000000000E-01      1.717266000000000E+02
