! Network Analyzer HP8722D
! Hewlett-Packard
! Data name: Linha & Wilkinson
! Saver's name: Rodrigo Anjos
! Comments: Teste da utilização de aquisição
continua pelo VNA HP8722D
! Time and date: 23/5/2025 09:16
!              Frequency                     S11                                                   S21                                                   S12                                                   S22
# HZ  S  MA R 50
4800000000.000000      3.311310000000000E-01      3.557226000000000E+01      4.608307000000000E-01     -1.266211000000000E+02
4801000000.000000      3.321533000000000E-01      3.583008000000000E+01      4.614258000000000E-01     -1.271875000000000E+02
4802000000.000000      3.324280000000000E-01      3.602539000000000E+01      4.636078000000000E-01     -1.279297000000000E+02
4803000000.000000      3.334503000000000E-01      3.609375000000000E+01      4.669037000000000E-01     -1.283906000000000E+02
4804000000.000000      3.339996000000000E-01      3.636328000000000E+01      4.667511000000000E-01     -1.294062000000000E+02
4805000000.000000      3.359070000000000E-01      3.641211000000000E+01      4.696808000000000E-01     -1.302109000000000E+02
4806000000.000000      3.361206000000000E-01      3.658398000000000E+01      4.705505000000000E-01     -1.309141000000000E+02
4807000000.000000      3.370514000000000E-01      3.677929000000000E+01      4.719238000000000E-01     -1.316406000000000E+02
4808000000.000000      3.375702000000000E-01      3.688867000000000E+01      4.740448000000000E-01     -1.323437000000000E+02
4809000000.000000      3.391266000000000E-01      3.708984000000000E+01      4.740906000000000E-01     -1.332266000000000E+02
4810000000.000000      3.406067000000000E-01      3.723633000000000E+01      4.759064000000000E-01     -1.337578000000000E+02
4811000000.000000      3.418427000000000E-01      3.739453000000000E+01      4.766846000000000E-01     -1.346172000000000E+02
4812000000.000000      3.443298000000000E-01      3.749414000000000E+01      4.772186000000000E-01     -1.352969000000000E+02
4813000000.000000      3.445282000000000E-01      3.754492000000000E+01      4.787598000000000E-01     -1.360078000000000E+02
4814000000.000000      3.452148000000000E-01      3.760351000000000E+01      4.789734000000000E-01     -1.367188000000000E+02
4815000000.000000      3.466492000000000E-01      3.782812000000000E+01      4.791870000000000E-01     -1.376406000000000E+02
4816000000.000000      3.487701000000000E-01      3.790039000000000E+01      4.799957000000000E-01     -1.382578000000000E+02
4817000000.000000      3.495941000000000E-01      3.808203000000000E+01      4.798431000000000E-01     -1.390391000000000E+02
4818000000.000000      3.512268000000000E-01      3.800000000000000E+01      4.807434000000000E-01     -1.396641000000000E+02
4819000000.000000      3.526764000000000E-01      3.807812000000000E+01      4.819031000000000E-01     -1.403437000000000E+02
4820000000.000000      3.535309000000000E-01      3.820898000000000E+01      4.810486000000000E-01     -1.410625000000000E+02
4821000000.000000      3.565826000000000E-01      3.830469000000000E+01      4.808807000000000E-01     -1.420938000000000E+02
4822000000.000000      3.566895000000000E-01      3.819921000000000E+01      4.794159000000000E-01     -1.426641000000000E+02
4823000000.000000      3.587036000000000E-01      3.825390000000000E+01      4.813080000000000E-01     -1.434766000000000E+02
4824000000.000000      3.598785000000000E-01      3.836719000000000E+01      4.804688000000000E-01     -1.441250000000000E+02
4825000000.000000      3.614960000000000E-01      3.840429000000000E+01      4.809723000000000E-01     -1.448906000000000E+02
4826000000.000000      3.635254000000000E-01      3.827929000000000E+01      4.811249000000000E-01     -1.455859000000000E+02
4827000000.000000      3.648376000000000E-01      3.832031000000000E+01      4.810638000000000E-01     -1.462188000000000E+02
4828000000.000000      3.674469000000000E-01      3.830078000000000E+01      4.799805000000000E-01     -1.470703000000000E+02
4829000000.000000      3.690948000000000E-01      3.841992000000000E+01      4.795685000000000E-01     -1.475781000000000E+02
4830000000.000000      3.706512000000000E-01      3.820313000000000E+01      4.795837000000000E-01     -1.484844000000000E+02
4831000000.000000      3.712921000000000E-01      3.817968000000000E+01      4.779358000000000E-01     -1.490703000000000E+02
4832000000.000000      3.731842000000000E-01      3.826757000000000E+01      4.781647000000000E-01     -1.499297000000000E+02
4833000000.000000      3.738403000000000E-01      3.812304000000000E+01      4.782867000000000E-01     -1.506328000000000E+02
4834000000.000000      3.759308000000000E-01      3.806250000000000E+01      4.756470000000000E-01     -1.512891000000000E+02
4835000000.000000      3.785095000000000E-01      3.796289000000000E+01      4.762268000000000E-01     -1.520234000000000E+02
4836000000.000000      3.796387000000000E-01      3.802734000000000E+01      4.743805000000000E-01     -1.527266000000000E+02
4837000000.000000      3.810120000000000E-01      3.801953000000000E+01      4.722748000000000E-01     -1.536484000000000E+02
4838000000.000000      3.818970000000000E-01      3.776953000000000E+01      4.724426000000000E-01     -1.542500000000000E+02
4839000000.000000      3.862610000000000E-01      3.778711000000000E+01      4.724731000000000E-01     -1.549531000000000E+02
4840000000.000000      3.860474000000000E-01      3.752148000000000E+01      4.717865000000000E-01     -1.555625000000000E+02
4841000000.000000      3.879852000000000E-01      3.747851000000000E+01      4.699707000000000E-01     -1.563125000000000E+02
4842000000.000000      3.891449000000000E-01      3.731836000000000E+01      4.686432000000000E-01     -1.570703000000000E+02
4843000000.000000      3.913574000000000E-01      3.716211000000000E+01      4.682465000000000E-01     -1.579141000000000E+02
4844000000.000000      3.914642000000000E-01      3.702539000000000E+01      4.676056000000000E-01     -1.584766000000000E+02
4845000000.000000      3.936920000000000E-01      3.708008000000000E+01      4.665070000000000E-01     -1.591797000000000E+02
4846000000.000000      3.955383000000000E-01      3.688477000000000E+01      4.643707000000000E-01     -1.599531000000000E+02
4847000000.000000      3.968811000000000E-01      3.670703000000000E+01      4.625092000000000E-01     -1.605234000000000E+02
4848000000.000000      3.981171000000000E-01      3.649609000000000E+01      4.588165000000000E-01     -1.612890000000000E+02
4849000000.000000      3.994141000000000E-01      3.633008000000000E+01      4.593201000000000E-01     -1.620078000000000E+02
4850000000.000000      4.010925000000000E-01      3.622265000000000E+01      4.569702000000000E-01     -1.627266000000000E+02
4851000000.000000      4.019775000000000E-01      3.608203000000000E+01      4.564209000000000E-01     -1.635000000000000E+02
4852000000.000000      4.038849000000000E-01      3.588086000000000E+01      4.526520000000000E-01     -1.641094000000000E+02
4853000000.000000      4.048920000000000E-01      3.571875000000000E+01      4.497833000000000E-01     -1.648125000000000E+02
4854000000.000000      4.062500000000000E-01      3.559179000000000E+01      4.494019000000000E-01     -1.657812000000000E+02
4855000000.000000      4.074554000000000E-01      3.536328000000000E+01      4.468994000000000E-01     -1.663984000000000E+02
4856000000.000000      4.088593000000000E-01      3.511719000000000E+01      4.437256000000000E-01     -1.669297000000000E+02
4857000000.000000      4.099274000000000E-01      3.502539000000000E+01      4.431763000000000E-01     -1.678203000000000E+02
4858000000.000000      4.106903000000000E-01      3.470117000000000E+01      4.412994000000000E-01     -1.683516000000000E+02
4859000000.000000      4.110107000000000E-01      3.460938000000000E+01      4.381561000000000E-01     -1.692969000000000E+02
4860000000.000000      4.127197000000000E-01      3.436914000000000E+01      4.362335000000000E-01     -1.696875000000000E+02
4861000000.000000      4.143677000000000E-01      3.415625000000000E+01      4.322052000000000E-01     -1.705859000000000E+02
4862000000.000000      4.148712000000000E-01      3.400781000000000E+01      4.313354000000000E-01     -1.712344000000000E+02
4863000000.000000      4.157257000000000E-01      3.391406000000000E+01      4.271851000000000E-01     -1.719063000000000E+02
4864000000.000000      4.174957000000000E-01      3.359766000000000E+01      4.240112000000000E-01     -1.725547000000000E+02
4865000000.000000      4.178009000000000E-01      3.339648000000000E+01      4.209442000000000E-01     -1.731250000000000E+02
4866000000.000000      4.186249000000000E-01      3.316211000000000E+01      4.185791000000000E-01     -1.739453000000000E+02
4867000000.000000      4.191895000000000E-01      3.293750000000000E+01      4.161377000000000E-01     -1.747422000000000E+02
4868000000.000000      4.199219000000000E-01      3.266992000000000E+01      4.127502000000000E-01     -1.754219000000000E+02
4869000000.000000      4.207764000000000E-01      3.256640000000000E+01      4.107056000000000E-01     -1.757813000000000E+02
4870000000.000000      4.216766000000000E-01      3.234961000000000E+01      4.070587000000000E-01     -1.765312000000000E+02
4871000000.000000      4.221954000000000E-01      3.194336000000000E+01      4.052429000000000E-01     -1.773594000000000E+02
4872000000.000000      4.234314000000000E-01      3.184375000000000E+01      4.003143000000000E-01     -1.778359000000000E+02
4873000000.000000      4.239960000000000E-01      3.166992000000000E+01      3.973236000000000E-01     -1.785547000000000E+02
4874000000.000000      4.247437000000000E-01      3.145508000000000E+01      3.948517000000000E-01     -1.790781000000000E+02
4875000000.000000      4.253082000000000E-01      3.118555000000000E+01      3.903961000000000E-01     -1.795391000000000E+02
4876000000.000000      4.250641000000000E-01      3.095996000000000E+01      3.879700000000000E-01      1.798516000000000E+02
4877000000.000000      4.269257000000000E-01      3.058789000000000E+01      3.833771000000000E-01      1.791094000000000E+02
4878000000.000000      4.268036000000000E-01      3.052637000000000E+01      3.798218000000000E-01      1.784844000000000E+02
4879000000.000000      4.269562000000000E-01      3.033789000000000E+01      3.767700000000000E-01      1.782266000000000E+02
4880000000.000000      4.286804000000000E-01      3.007324000000000E+01      3.740387000000000E-01      1.774453000000000E+02
4881000000.000000      4.278259000000000E-01      2.982715000000000E+01      3.694000000000000E-01      1.770391000000000E+02
4882000000.000000      4.292603000000000E-01      2.976855000000000E+01      3.675079000000000E-01      1.764531000000000E+02
4883000000.000000      4.285126000000000E-01      2.943554000000000E+01      3.626862000000000E-01      1.759531000000000E+02
4884000000.000000      4.295654000000000E-01      2.921191000000000E+01      3.601532000000000E-01      1.753906000000000E+02
4885000000.000000      4.299164000000000E-01      2.904980000000000E+01      3.564453000000000E-01      1.749687000000000E+02
4886000000.000000      4.299927000000000E-01      2.883594000000000E+01      3.532257000000000E-01      1.743750000000000E+02
4887000000.000000      4.303894000000000E-01      2.856640000000000E+01      3.501129000000000E-01      1.738750000000000E+02
4888000000.000000      4.301453000000000E-01      2.822363000000000E+01      3.451233000000000E-01      1.733125000000000E+02
4889000000.000000      4.299774000000000E-01      2.816601000000000E+01      3.422852000000000E-01      1.728047000000000E+02
4890000000.000000      4.292297000000000E-01      2.790234000000000E+01      3.381042000000000E-01      1.723984000000000E+02
4891000000.000000      4.302368000000000E-01      2.763281000000000E+01      3.346405000000000E-01      1.719844000000000E+02
4892000000.000000      4.300842000000000E-01      2.746973000000000E+01      3.316040000000000E-01      1.717266000000000E+02
4893000000.000000      4.320526000000000E-01      2.710156000000000E+01      3.283539000000000E-01      1.708203000000000E+02
4894000000.000000      4.303436000000000E-01      2.708496000000000E+01      3.238678000000000E-01      1.704219000000000E+02
4895000000.000000      4.318390000000000E-01      2.685156000000000E+01      3.226471000000000E-01      1.701484000000000E+02
4896000000.000000      4.312897000000000E-01      2.660742000000000E+01      3.188019000000000E-01      1.698359000000000E+02
4897000000.000000      4.308929000000000E-01      2.650781000000000E+01      3.142853000000000E-01      1.692969000000000E+02
4898000000.000000      4.305267000000000E-01      2.639160000000000E+01      3.119202000000000E-01      1.690000000000000E+02
4899000000.000000      4.312439000000000E-01      2.617480000000000E+01      3.081665000000000E-01      1.685313000000000E+02
4900000000.000000      4.311371000000000E-01      2.590429000000000E+01      3.049164000000000E-01      1.683281000000000E+02
4901000000.000000      4.308167000000000E-01      2.561816000000000E+01      3.014679000000000E-01      1.678828000000000E+02
4902000000.000000      4.306488000000000E-01      2.553320000000000E+01      2.984314000000000E-01      1.675234000000000E+02
4903000000.000000      4.300537000000000E-01      2.541797000000000E+01      2.949371000000000E-01      1.669688000000000E+02
4904000000.000000      4.308472000000000E-01      2.506933000000000E+01      2.908783000000000E-01      1.665937000000000E+02
4905000000.000000      4.306946000000000E-01      2.495605000000000E+01      2.886200000000000E-01      1.662969000000000E+02
4906000000.000000      4.307404000000000E-01      2.468066000000000E+01      2.845917000000000E-01      1.659765000000000E+02
4907000000.000000      4.303436000000000E-01      2.456640000000000E+01      2.828979000000000E-01      1.656250000000000E+02
4908000000.000000      4.303589000000000E-01      2.429688000000000E+01      2.787781000000000E-01      1.651875000000000E+02
4909000000.000000      4.297943000000000E-01      2.426855000000000E+01      2.748566000000000E-01      1.649219000000000E+02
4910000000.000000      4.297333000000000E-01      2.411133000000000E+01      2.708588000000000E-01      1.644375000000000E+02
4911000000.000000      4.304504000000000E-01      2.402344000000000E+01      2.691650000000000E-01      1.641641000000000E+02
4912000000.000000      4.301758000000000E-01      2.379199000000000E+01      2.650299000000000E-01      1.635625000000000E+02
4913000000.000000      4.300995000000000E-01      2.359668000000000E+01      2.616425000000000E-01      1.633125000000000E+02
4914000000.000000      4.303284000000000E-01      2.333008000000000E+01      2.574768000000000E-01      1.630938000000000E+02
4915000000.000000      4.290009000000000E-01      2.324805000000000E+01      2.545929000000000E-01      1.626562000000000E+02
4916000000.000000      4.293976000000000E-01      2.323828000000000E+01      2.507172000000000E-01      1.621641000000000E+02
4917000000.000000      4.289703000000000E-01      2.286523000000000E+01      2.481155000000000E-01      1.620234000000000E+02
4918000000.000000      4.286957000000000E-01      2.272461000000000E+01      2.433167000000000E-01      1.618359000000000E+02
4919000000.000000      4.283905000000000E-01      2.259570000000000E+01      2.404785000000000E-01      1.616250000000000E+02
4920000000.000000      4.286804000000000E-01      2.240332000000000E+01      2.367401000000000E-01      1.609297000000000E+02
4921000000.000000      4.279327000000000E-01      2.238281000000000E+01      2.328873000000000E-01      1.608594000000000E+02
4922000000.000000      4.271240000000000E-01      2.210156000000000E+01      2.294388000000000E-01      1.605937000000000E+02
4923000000.000000      4.282684000000000E-01      2.200781000000000E+01      2.253647000000000E-01      1.605234000000000E+02
4924000000.000000      4.284058000000000E-01      2.180176000000000E+01      2.211914000000000E-01      1.601328000000000E+02
4925000000.000000      4.276886000000000E-01      2.157227000000000E+01      2.182159000000000E-01      1.599375000000000E+02
4926000000.000000      4.263916000000000E-01      2.148633000000000E+01      2.145004000000000E-01      1.597344000000000E+02
4927000000.000000      4.269409000000000E-01      2.124707000000000E+01      2.100067000000000E-01      1.594766000000000E+02
4928000000.000000      4.275970000000000E-01      2.100098000000000E+01      2.068329000000000E-01      1.594922000000000E+02
4929000000.000000      4.261627000000000E-01      2.097754000000000E+01      2.027740000000000E-01      1.594453000000000E+02
4930000000.000000      4.267120000000000E-01      2.090625000000000E+01      1.993942000000000E-01      1.592891000000000E+02
4931000000.000000      4.265289000000000E-01      2.067969000000000E+01      1.950912000000000E-01      1.591328000000000E+02
4932000000.000000      4.266815000000000E-01      2.042187000000000E+01      1.913681000000000E-01      1.591328000000000E+02
4933000000.000000      4.259033000000000E-01      2.029004000000000E+01      1.867065000000000E-01      1.593672000000000E+02
4934000000.000000      4.267273000000000E-01      2.017480000000000E+01      1.832657000000000E-01      1.592344000000000E+02
4935000000.000000      4.265442000000000E-01      2.010058000000000E+01      1.803055000000000E-01      1.595625000000000E+02
4936000000.000000      4.262390000000000E-01      1.975879000000000E+01      1.758957000000000E-01      1.594766000000000E+02
4937000000.000000      4.255371000000000E-01      1.966211000000000E+01      1.724777000000000E-01      1.597265000000000E+02
4938000000.000000      4.250183000000000E-01      1.960351000000000E+01      1.679382000000000E-01      1.599453000000000E+02
4939000000.000000      4.253998000000000E-01      1.955078000000000E+01      1.648331000000000E-01      1.603281000000000E+02
4940000000.000000      4.253845000000000E-01      1.934961000000000E+01      1.606827000000000E-01      1.603906000000000E+02
4941000000.000000      4.246063000000000E-01      1.913476000000000E+01      1.570740000000000E-01      1.610703000000000E+02
4942000000.000000      4.242554000000000E-01      1.902539000000000E+01      1.536484000000000E-01      1.613359000000000E+02
4943000000.000000      4.239502000000000E-01      1.881640000000000E+01      1.502686000000000E-01      1.619453000000000E+02
4944000000.000000      4.237671000000000E-01      1.869433000000000E+01      1.472855000000000E-01      1.624375000000000E+02
4945000000.000000      4.239197000000000E-01      1.848242000000000E+01      1.427765000000000E-01      1.629609000000000E+02
4946000000.000000      4.244537000000000E-01      1.842383000000000E+01      1.403351000000000E-01      1.637187000000000E+02
4947000000.000000      4.226074000000000E-01      1.814062000000000E+01      1.362839000000000E-01      1.645078000000000E+02
4948000000.000000      4.235992000000000E-01      1.807031000000000E+01      1.340942000000000E-01      1.654375000000000E+02
4949000000.000000      4.234009000000000E-01      1.785742000000000E+01      1.311874000000000E-01      1.665859000000000E+02
4950000000.000000      4.231415000000000E-01      1.788281000000000E+01      1.282806000000000E-01      1.673437000000000E+02
4951000000.000000      4.230499000000000E-01      1.766602000000000E+01      1.251526000000000E-01      1.684062000000000E+02
4952000000.000000      4.217072000000000E-01      1.748828000000000E+01      1.223145000000000E-01      1.696875000000000E+02
4953000000.000000      4.218597000000000E-01      1.727441000000000E+01      1.200790000000000E-01      1.710859000000000E+02
4954000000.000000      4.216919000000000E-01      1.724707000000000E+01      1.178093000000000E-01      1.724219000000000E+02
