! Network Analyzer HP8722D
! Hewlett-Packard
! Data name: Linha & Wilkinson
! Saver's name: Rodrigo Anjos
! Comments: Teste da utilização de aquisição
continua pelo VNA HP8722D
! Time and date: 23/5/2025 13:50
!              Frequency                     S11                                                   S21                                                   S12                                                   S22
# HZ  S  MA R 50
4800000000.000000      2.892609000000000E-01      3.944140000000000E+01      4.824524000000000E-01     -1.291406000000000E+02
4801000000.000000      2.903900000000000E-01      3.967773000000000E+01      4.847870000000000E-01     -1.300156000000000E+02
4802000000.000000      2.909546000000000E-01      3.988281000000000E+01      4.855194000000000E-01     -1.306406000000000E+02
4803000000.000000      2.923431000000000E-01      4.006249000000000E+01      4.887085000000000E-01     -1.312187000000000E+02
4804000000.000000      2.931213000000000E-01      4.040235000000000E+01      4.881439000000000E-01     -1.320000000000000E+02
4805000000.000000      2.958527000000000E-01      4.045312000000000E+01      4.902344000000000E-01     -1.328047000000000E+02
4806000000.000000      2.961273000000000E-01      4.061913000000000E+01      4.931030000000000E-01     -1.333281000000000E+02
4807000000.000000      2.974854000000000E-01      4.080664000000000E+01      4.945831000000000E-01     -1.343125000000000E+02
4808000000.000000      2.981720000000000E-01      4.097852000000000E+01      4.947052000000000E-01     -1.349531000000000E+02
4809000000.000000      3.001099000000000E-01      4.123828000000000E+01      4.971313000000000E-01     -1.359453000000000E+02
4810000000.000000      3.016205000000000E-01      4.126758000000000E+01      4.977570000000000E-01     -1.365625000000000E+02
4811000000.000000      3.035583000000000E-01      4.146484000000000E+01      4.993896000000000E-01     -1.373672000000000E+02
4812000000.000000      3.056030000000000E-01      4.166601000000000E+01      4.982452000000000E-01     -1.379531000000000E+02
4813000000.000000      3.062897000000000E-01      4.179492000000000E+01      5.002747000000000E-01     -1.387500000000000E+02
4814000000.000000      3.079834000000000E-01      4.178320000000000E+01      5.005188000000000E-01     -1.392266000000000E+02
4815000000.000000      3.089600000000000E-01      4.196679000000000E+01      5.001831000000000E-01     -1.400938000000000E+02
4816000000.000000      3.114471000000000E-01      4.207812000000000E+01      5.031128000000000E-01     -1.407891000000000E+02
4817000000.000000      3.126221000000000E-01      4.214063000000000E+01      5.023499000000000E-01     -1.416719000000000E+02
4818000000.000000      3.147278000000000E-01      4.209570000000000E+01      5.038452000000000E-01     -1.423047000000000E+02
4819000000.000000      3.162231000000000E-01      4.222852000000000E+01      5.029297000000000E-01     -1.430625000000000E+02
4820000000.000000      3.175049000000000E-01      4.224218000000000E+01      5.036316000000000E-01     -1.437109000000000E+02
4821000000.000000      3.201599000000000E-01      4.233007000000000E+01      5.060730000000000E-01     -1.445000000000000E+02
4822000000.000000      3.213501000000000E-01      4.215429000000000E+01      5.025940000000000E-01     -1.452344000000000E+02
4823000000.000000      3.233643000000000E-01      4.225195000000000E+01      5.049744000000000E-01     -1.459687000000000E+02
4824000000.000000      3.252258000000000E-01      4.237695000000000E+01      5.032043000000000E-01     -1.468281000000000E+02
4825000000.000000      3.267212000000000E-01      4.215625000000000E+01      5.035095000000000E-01     -1.473594000000000E+02
4826000000.000000      3.288879000000000E-01      4.219727000000000E+01      5.039063000000000E-01     -1.483438000000000E+02
4827000000.000000      3.309784000000000E-01      4.222656000000000E+01      5.024414000000000E-01     -1.488359000000000E+02
4828000000.000000      3.329773000000000E-01      4.209765000000000E+01      5.024109000000000E-01     -1.496250000000000E+02
4829000000.000000      3.345947000000000E-01      4.215625000000000E+01      5.025330000000000E-01     -1.504531000000000E+02
4830000000.000000      3.365021000000000E-01      4.190039000000000E+01      5.016479000000000E-01     -1.511484000000000E+02
4831000000.000000      3.378601000000000E-01      4.189258000000000E+01      5.004272000000000E-01     -1.518906000000000E+02
4832000000.000000      3.396759000000000E-01      4.199804000000000E+01      4.993744000000000E-01     -1.525938000000000E+02
4833000000.000000      3.410187000000000E-01      4.175586000000000E+01      4.997253000000000E-01     -1.532187000000000E+02
4834000000.000000      3.426514000000000E-01      4.166406000000000E+01      4.976349000000000E-01     -1.540234000000000E+02
4835000000.000000      3.451385000000000E-01      4.153906000000000E+01      4.998474000000000E-01     -1.547969000000000E+02
4836000000.000000      3.468170000000000E-01      4.147461000000000E+01      4.966125000000000E-01     -1.555312000000000E+02
4837000000.000000      3.481445000000000E-01      4.132421000000000E+01      4.944153000000000E-01     -1.563516000000000E+02
4838000000.000000      3.494873000000000E-01      4.116796000000000E+01      4.945221000000000E-01     -1.567656000000000E+02
4839000000.000000      3.528595000000000E-01      4.108594000000000E+01      4.927673000000000E-01     -1.575078000000000E+02
4840000000.000000      3.535919000000000E-01      4.088281000000000E+01      4.927216000000000E-01     -1.581640000000000E+02
4841000000.000000      3.550568000000000E-01      4.083398000000000E+01      4.922943000000000E-01     -1.590703000000000E+02
4842000000.000000      3.562317000000000E-01      4.059960000000000E+01      4.894104000000000E-01     -1.595000000000000E+02
4843000000.000000      3.590698000000000E-01      4.034180000000000E+01      4.893799000000000E-01     -1.606719000000000E+02
4844000000.000000      3.591003000000000E-01      4.016015000000000E+01      4.877930000000000E-01     -1.612187000000000E+02
4845000000.000000      3.612976000000000E-01      4.017383000000000E+01      4.858704000000000E-01     -1.618828000000000E+02
4846000000.000000      3.636322000000000E-01      3.987109000000000E+01      4.846954000000000E-01     -1.625156000000000E+02
4847000000.000000      3.648529000000000E-01      3.977930000000000E+01      4.827881000000000E-01     -1.631172000000000E+02
4848000000.000000      3.654633000000000E-01      3.939648000000000E+01      4.797211000000000E-01     -1.639688000000000E+02
4849000000.000000      3.671112000000000E-01      3.916797000000000E+01      4.803162000000000E-01     -1.647266000000000E+02
4850000000.000000      3.684082000000000E-01      3.902148000000000E+01      4.772034000000000E-01     -1.651406000000000E+02
4851000000.000000      3.700714000000000E-01      3.889648000000000E+01      4.763794000000000E-01     -1.660938000000000E+02
4852000000.000000      3.713531000000000E-01      3.866601000000000E+01      4.736938000000000E-01     -1.666875000000000E+02
4853000000.000000      3.726196000000000E-01      3.845117000000000E+01      4.703522000000000E-01     -1.674609000000000E+02
4854000000.000000      3.740082000000000E-01      3.826757000000000E+01      4.677734000000000E-01     -1.682031000000000E+02
4855000000.000000      3.747711000000000E-01      3.800000000000000E+01      4.674377000000000E-01     -1.688906000000000E+02
4856000000.000000      3.762360000000000E-01      3.782031000000000E+01      4.641113000000000E-01     -1.695156000000000E+02
4857000000.000000      3.771057000000000E-01      3.756445000000000E+01      4.624786000000000E-01     -1.702500000000000E+02
4858000000.000000      3.784485000000000E-01      3.729297000000000E+01      4.608612000000000E-01     -1.708359000000000E+02
4859000000.000000      3.793793000000000E-01      3.699414000000000E+01      4.589996000000000E-01     -1.716953000000000E+02
4860000000.000000      3.807831000000000E-01      3.684179000000000E+01      4.553986000000000E-01     -1.723516000000000E+02
4861000000.000000      3.817596000000000E-01      3.660547000000000E+01      4.515533000000000E-01     -1.731875000000000E+02
4862000000.000000      3.814545000000000E-01      3.625195000000000E+01      4.492798000000000E-01     -1.737890000000000E+02
4863000000.000000      3.836365000000000E-01      3.610352000000000E+01      4.455261000000000E-01     -1.743438000000000E+02
4864000000.000000      3.844147000000000E-01      3.582226000000000E+01      4.434357000000000E-01     -1.751641000000000E+02
4865000000.000000      3.848724000000000E-01      3.555664000000000E+01      4.409637000000000E-01     -1.755859000000000E+02
4866000000.000000      3.856964000000000E-01      3.532227000000000E+01      4.363251000000000E-01     -1.763359000000000E+02
4867000000.000000      3.855286000000000E-01      3.501953000000000E+01      4.350433000000000E-01     -1.770469000000000E+02
4868000000.000000      3.879852000000000E-01      3.467968000000000E+01      4.320984000000000E-01     -1.778047000000000E+02
4869000000.000000      3.880920000000000E-01      3.453516000000000E+01      4.293060000000000E-01     -1.782266000000000E+02
4870000000.000000      3.890533000000000E-01      3.426367000000000E+01      4.257660000000000E-01     -1.788281000000000E+02
4871000000.000000      3.894806000000000E-01      3.387500000000000E+01      4.228821000000000E-01     -1.797109000000000E+02
4872000000.000000      3.902893000000000E-01      3.372070000000000E+01      4.193420000000000E-01      1.798047000000000E+02
4873000000.000000      3.908386000000000E-01      3.354297000000000E+01      4.153290000000000E-01      1.792734000000000E+02
4874000000.000000      3.917389000000000E-01      3.330078000000000E+01      4.119415000000000E-01      1.786016000000000E+02
4875000000.000000      3.916931000000000E-01      3.291016000000000E+01      4.080505000000000E-01      1.781641000000000E+02
4876000000.000000      3.922882000000000E-01      3.280078000000000E+01      4.053192000000000E-01      1.773203000000000E+02
4877000000.000000      3.929291000000000E-01      3.230078000000000E+01      4.019165000000000E-01      1.767734000000000E+02
4878000000.000000      3.931122000000000E-01      3.215429000000000E+01      3.984985000000000E-01      1.762344000000000E+02
4879000000.000000      3.939972000000000E-01      3.194238000000000E+01      3.941040000000000E-01      1.757109000000000E+02
4880000000.000000      3.941498000000000E-01      3.165625000000000E+01      3.908234000000000E-01      1.752031000000000E+02
4881000000.000000      3.939362000000000E-01      3.138574000000000E+01      3.886414000000000E-01      1.749609000000000E+02
4882000000.000000      3.953857000000000E-01      3.112793000000000E+01      3.847504000000000E-01      1.739297000000000E+02
4883000000.000000      3.943787000000000E-01      3.090918000000000E+01      3.796997000000000E-01      1.733516000000000E+02
4884000000.000000      3.949585000000000E-01      3.071191000000000E+01      3.770599000000000E-01      1.730469000000000E+02
4885000000.000000      3.954620000000000E-01      3.047168000000000E+01      3.744812000000000E-01      1.727578000000000E+02
4886000000.000000      3.955231000000000E-01      3.023144000000000E+01      3.711700000000000E-01      1.722422000000000E+02
4887000000.000000      3.956451000000000E-01      2.988379000000000E+01      3.664398000000000E-01      1.717109000000000E+02
4888000000.000000      3.954926000000000E-01      2.956640000000000E+01      3.645172000000000E-01      1.713203000000000E+02
4889000000.000000      3.955841000000000E-01      2.945801000000000E+01      3.589020000000000E-01      1.705547000000000E+02
4890000000.000000      3.948059000000000E-01      2.913965000000000E+01      3.561249000000000E-01      1.699062000000000E+02
4891000000.000000      3.956146000000000E-01      2.902246000000000E+01      3.520813000000000E-01      1.695703000000000E+02
4892000000.000000      3.956146000000000E-01      2.879199000000000E+01      3.489990000000000E-01      1.692969000000000E+02
4893000000.000000      3.965302000000000E-01      2.843652000000000E+01      3.440399000000000E-01      1.685234000000000E+02
4894000000.000000      3.956909000000000E-01      2.835254000000000E+01      3.410797000000000E-01      1.682578000000000E+02
4895000000.000000      3.960876000000000E-01      2.796289000000000E+01      3.393250000000000E-01      1.681406000000000E+02
4896000000.000000      3.956909000000000E-01      2.768261000000000E+01      3.357391000000000E-01      1.675234000000000E+02
4897000000.000000      3.941193000000000E-01      2.763672000000000E+01      3.308868000000000E-01      1.668828000000000E+02
4898000000.000000      3.959503000000000E-01      2.743945000000000E+01      3.280334000000000E-01      1.667109000000000E+02
4899000000.000000      3.947906000000000E-01      2.701660000000000E+01      3.258820000000000E-01      1.662344000000000E+02
4900000000.000000      3.945313000000000E-01      2.686621000000000E+01      3.217926000000000E-01      1.659141000000000E+02
4901000000.000000      3.950653000000000E-01      2.669531000000000E+01      3.181152000000000E-01      1.655703000000000E+02
4902000000.000000      3.946533000000000E-01      2.637793000000000E+01      3.146820000000000E-01      1.651406000000000E+02
4903000000.000000      3.940887000000000E-01      2.643847000000000E+01      3.105621000000000E-01      1.648594000000000E+02
4904000000.000000      3.954010000000000E-01      2.605664000000000E+01      3.080139000000000E-01      1.643516000000000E+02
4905000000.000000      3.933563000000000E-01      2.577929000000000E+01      3.048553000000000E-01      1.639844000000000E+02
4906000000.000000      3.932495000000000E-01      2.554004000000000E+01      3.011017000000000E-01      1.637891000000000E+02
4907000000.000000      3.938293000000000E-01      2.534668000000000E+01      2.982941000000000E-01      1.632031000000000E+02
4908000000.000000      3.938751000000000E-01      2.516211000000000E+01      2.950897000000000E-01      1.627187000000000E+02
4909000000.000000      3.924408000000000E-01      2.501953000000000E+01      2.905579000000000E-01      1.622031000000000E+02
4910000000.000000      3.929443000000000E-01      2.484766000000000E+01      2.870636000000000E-01      1.621172000000000E+02
4911000000.000000      3.931274000000000E-01      2.464355000000000E+01      2.837982000000000E-01      1.616406000000000E+02
4912000000.000000      3.924561000000000E-01      2.446875000000000E+01      2.802582000000000E-01      1.612344000000000E+02
4913000000.000000      3.923187000000000E-01      2.413086000000000E+01      2.768555000000000E-01      1.608672000000000E+02
4914000000.000000      3.923340000000000E-01      2.403809000000000E+01      2.730408000000000E-01      1.606406000000000E+02
4915000000.000000      3.919525000000000E-01      2.394824000000000E+01      2.689819000000000E-01      1.601094000000000E+02
4916000000.000000      3.914185000000000E-01      2.376953000000000E+01      2.659302000000000E-01      1.597812000000000E+02
4917000000.000000      3.913269000000000E-01      2.352637000000000E+01      2.620087000000000E-01      1.595937000000000E+02
4918000000.000000      3.911285000000000E-01      2.338281000000000E+01      2.572784000000000E-01      1.591484000000000E+02
4919000000.000000      3.903046000000000E-01      2.324512000000000E+01      2.551117000000000E-01      1.589844000000000E+02
4920000000.000000      3.904877000000000E-01      2.300488000000000E+01      2.499924000000000E-01      1.585547000000000E+02
4921000000.000000      3.897247000000000E-01      2.288769000000000E+01      2.472076000000000E-01      1.584766000000000E+02
4922000000.000000      3.903198000000000E-01      2.266699000000000E+01      2.437592000000000E-01      1.580781000000000E+02
4923000000.000000      3.894806000000000E-01      2.254785000000000E+01      2.393112000000000E-01      1.580703000000000E+02
4924000000.000000      3.889160000000000E-01      2.234863000000000E+01      2.350464000000000E-01      1.575000000000000E+02
4925000000.000000      3.896027000000000E-01      2.194922000000000E+01      2.318649000000000E-01      1.571875000000000E+02
4926000000.000000      3.884430000000000E-01      2.206152000000000E+01      2.279358000000000E-01      1.571016000000000E+02
4927000000.000000      3.887177000000000E-01      2.173438000000000E+01      2.226257000000000E-01      1.569375000000000E+02
4928000000.000000      3.885193000000000E-01      2.145606000000000E+01      2.195816000000000E-01      1.568672000000000E+02
4929000000.000000      3.884583000000000E-01      2.141992000000000E+01      2.153244000000000E-01      1.566719000000000E+02
4930000000.000000      3.886566000000000E-01      2.133594000000000E+01      2.114716000000000E-01      1.565469000000000E+02
4931000000.000000      3.877411000000000E-01      2.105859000000000E+01      2.074738000000000E-01      1.565547000000000E+02
4932000000.000000      3.874512000000000E-01      2.074707000000000E+01      2.032852000000000E-01      1.565703000000000E+02
4933000000.000000      3.869324000000000E-01      2.066992000000000E+01      1.982880000000000E-01      1.565078000000000E+02
4934000000.000000      3.878326000000000E-01      2.050976000000000E+01      1.950607000000000E-01      1.563203000000000E+02
4935000000.000000      3.874664000000000E-01      2.045703000000000E+01      1.917877000000000E-01      1.566172000000000E+02
4936000000.000000      3.864288000000000E-01      2.016211000000000E+01      1.869583000000000E-01      1.567031000000000E+02
4937000000.000000      3.863373000000000E-01      1.999316000000000E+01      1.829376000000000E-01      1.566875000000000E+02
4938000000.000000      3.863068000000000E-01      1.986133000000000E+01      1.791077000000000E-01      1.570859000000000E+02
4939000000.000000      3.851471000000000E-01      1.985156000000000E+01      1.755676000000000E-01      1.573516000000000E+02
4940000000.000000      3.861847000000000E-01      1.963574000000000E+01      1.712646000000000E-01      1.575391000000000E+02
4941000000.000000      3.859558000000000E-01      1.932129000000000E+01      1.674805000000000E-01      1.578047000000000E+02
4942000000.000000      3.839417000000000E-01      1.921289000000000E+01      1.637497000000000E-01      1.583125000000000E+02
4943000000.000000      3.853455000000000E-01      1.906054000000000E+01      1.604538000000000E-01      1.588516000000000E+02
4944000000.000000      3.841858000000000E-01      1.882422000000000E+01      1.562958000000000E-01      1.592109000000000E+02
4945000000.000000      3.840637000000000E-01      1.875195000000000E+01      1.527176000000000E-01      1.598359000000000E+02
4946000000.000000      3.841400000000000E-01      1.850781000000000E+01      1.490250000000000E-01      1.605547000000000E+02
4947000000.000000      3.835907000000000E-01      1.837988000000000E+01      1.454697000000000E-01      1.612969000000000E+02
4948000000.000000      3.832092000000000E-01      1.828613000000000E+01      1.420670000000000E-01      1.621250000000000E+02
4949000000.000000      3.818970000000000E-01      1.801953000000000E+01      1.390762000000000E-01      1.632578000000000E+02
4950000000.000000      3.830872000000000E-01      1.799414000000000E+01      1.359482000000000E-01      1.639297000000000E+02
4951000000.000000      3.823547000000000E-01      1.768066000000000E+01      1.333694000000000E-01      1.650078000000000E+02
4952000000.000000      3.823547000000000E-01      1.757813000000000E+01      1.300049000000000E-01      1.661250000000000E+02
4953000000.000000      3.816986000000000E-01      1.747559000000000E+01      1.276474000000000E-01      1.676250000000000E+02
4954000000.000000      3.812408000000000E-01      1.725781000000000E+01      1.252136000000000E-01      1.687969000000000E+02
