! Network Analyzer HP8722D
! Hewlett-Packard
! Data name: Linha & Wilkinson
! Saver's name: Rodrigo Anjos
! Comments: Teste da utilização de aquisição
continua pelo VNA HP8722D
! Time and date: 23/5/2025 14:43
!              Frequency                     S11                                                   S21                                                   S12                                                   S22
# HZ  S  MA R 50
4800000000.000000      2.884979000000000E-01      3.952734000000000E+01      4.827576000000000E-01     -1.292656000000000E+02
4801000000.000000      2.895050000000000E-01      3.977148000000000E+01      4.835968000000000E-01     -1.299219000000000E+02
4802000000.000000      2.908020000000000E-01      3.999804000000000E+01      4.847870000000000E-01     -1.305000000000000E+02
4803000000.000000      2.915497000000000E-01      4.020703000000000E+01      4.891510000000000E-01     -1.312344000000000E+02
4804000000.000000      2.926178000000000E-01      4.039648000000000E+01      4.893341000000000E-01     -1.319844000000000E+02
4805000000.000000      2.945557000000000E-01      4.046288000000000E+01      4.912720000000000E-01     -1.328281000000000E+02
4806000000.000000      2.953491000000000E-01      4.074023000000000E+01      4.932251000000000E-01     -1.334297000000000E+02
4807000000.000000      2.967224000000000E-01      4.096484000000000E+01      4.934692000000000E-01     -1.342891000000000E+02
4808000000.000000      2.973633000000000E-01      4.105273000000000E+01      4.950256000000000E-01     -1.348359000000000E+02
4809000000.000000      2.993469000000000E-01      4.134375000000000E+01      4.960785000000000E-01     -1.357891000000000E+02
4810000000.000000      3.009033000000000E-01      4.144336000000000E+01      4.970703000000000E-01     -1.363281000000000E+02
4811000000.000000      3.021393000000000E-01      4.158008000000000E+01      5.000000000000000E-01     -1.371016000000000E+02
4812000000.000000      3.046112000000000E-01      4.176171000000000E+01      5.006104000000000E-01     -1.376641000000000E+02
4813000000.000000      3.055725000000000E-01      4.197656000000000E+01      4.996948000000000E-01     -1.385625000000000E+02
4814000000.000000      3.072510000000000E-01      4.190820000000000E+01      5.013123000000000E-01     -1.390859000000000E+02
4815000000.000000      3.083191000000000E-01      4.206445000000000E+01      5.019836000000000E-01     -1.400000000000000E+02
4816000000.000000      3.106079000000000E-01      4.214063000000000E+01      5.040283000000000E-01     -1.407344000000000E+02
4817000000.000000      3.120422000000000E-01      4.229882000000000E+01      5.028992000000000E-01     -1.414141000000000E+02
4818000000.000000      3.139191000000000E-01      4.222070000000000E+01      5.023193000000000E-01     -1.422578000000000E+02
4819000000.000000      3.160858000000000E-01      4.222070000000000E+01      5.030518000000000E-01     -1.430391000000000E+02
4820000000.000000      3.170319000000000E-01      4.235156000000000E+01      5.025330000000000E-01     -1.436953000000000E+02
4821000000.000000      3.199310000000000E-01      4.238671000000000E+01      5.042725000000000E-01     -1.442891000000000E+02
4822000000.000000      3.207092000000000E-01      4.236718000000000E+01      5.025024000000000E-01     -1.451250000000000E+02
4823000000.000000      3.228760000000000E-01      4.232617000000000E+01      5.041199000000000E-01     -1.459687000000000E+02
4824000000.000000      3.244476000000000E-01      4.245507000000000E+01      5.034485000000000E-01     -1.466875000000000E+02
4825000000.000000      3.266449000000000E-01      4.231641000000000E+01      5.021973000000000E-01     -1.475078000000000E+02
4826000000.000000      3.279572000000000E-01      4.234571000000000E+01      5.039673000000000E-01     -1.483516000000000E+02
4827000000.000000      3.298340000000000E-01      4.222265000000000E+01      5.036011000000000E-01     -1.488516000000000E+02
4828000000.000000      3.319855000000000E-01      4.224414000000000E+01      5.031433000000000E-01     -1.495000000000000E+02
4829000000.000000      3.335419000000000E-01      4.223633000000000E+01      5.023804000000000E-01     -1.502656000000000E+02
4830000000.000000      3.355713000000000E-01      4.206055000000000E+01      5.015564000000000E-01     -1.510859000000000E+02
4831000000.000000      3.377686000000000E-01      4.206250000000000E+01      5.014648000000000E-01     -1.517891000000000E+02
4832000000.000000      3.388977000000000E-01      4.209765000000000E+01      5.012512000000000E-01     -1.523594000000000E+02
4833000000.000000      3.401794000000000E-01      4.180664000000000E+01      4.995117000000000E-01     -1.530625000000000E+02
4834000000.000000      3.422546000000000E-01      4.174218000000000E+01      4.979553000000000E-01     -1.540000000000000E+02
4835000000.000000      3.445282000000000E-01      4.153320000000000E+01      4.989319000000000E-01     -1.546250000000000E+02
4836000000.000000      3.460846000000000E-01      4.158008000000000E+01      4.963837000000000E-01     -1.552344000000000E+02
4837000000.000000      3.475647000000000E-01      4.150586000000000E+01      4.953156000000000E-01     -1.564141000000000E+02
4838000000.000000      3.485870000000000E-01      4.131249000000000E+01      4.943237000000000E-01     -1.566641000000000E+02
4839000000.000000      3.519745000000000E-01      4.123047000000000E+01      4.941254000000000E-01     -1.572656000000000E+02
4840000000.000000      3.529510000000000E-01      4.104492000000000E+01      4.937897000000000E-01     -1.581016000000000E+02
4841000000.000000      3.546600000000000E-01      4.096093000000000E+01      4.922485000000000E-01     -1.589453000000000E+02
4842000000.000000      3.561707000000000E-01      4.065625000000000E+01      4.905243000000000E-01     -1.596719000000000E+02
4843000000.000000      3.589630000000000E-01      4.043359000000000E+01      4.892578000000000E-01     -1.603672000000000E+02
4844000000.000000      3.591766000000000E-01      4.021093000000000E+01      4.871826000000000E-01     -1.609453000000000E+02
4845000000.000000      3.610077000000000E-01      4.017383000000000E+01      4.867401000000000E-01     -1.617109000000000E+02
4846000000.000000      3.628082000000000E-01      3.994726000000000E+01      4.838867000000000E-01     -1.623047000000000E+02
4847000000.000000      3.643341000000000E-01      3.979883000000000E+01      4.822083000000000E-01     -1.629844000000000E+02
4848000000.000000      3.648682000000000E-01      3.965429000000000E+01      4.798584000000000E-01     -1.639219000000000E+02
4849000000.000000      3.666992000000000E-01      3.932422000000000E+01      4.792938000000000E-01     -1.645937000000000E+02
4850000000.000000      3.680573000000000E-01      3.907227000000000E+01      4.769745000000000E-01     -1.651562000000000E+02
4851000000.000000      3.699646000000000E-01      3.906836000000000E+01      4.762421000000000E-01     -1.659219000000000E+02
4852000000.000000      3.706970000000000E-01      3.868555000000000E+01      4.733429000000000E-01     -1.666875000000000E+02
4853000000.000000      3.727112000000000E-01      3.850781000000000E+01      4.718170000000000E-01     -1.673750000000000E+02
4854000000.000000      3.735046000000000E-01      3.828320000000000E+01      4.698334000000000E-01     -1.681953000000000E+02
4855000000.000000      3.742981000000000E-01      3.807422000000000E+01      4.672241000000000E-01     -1.687422000000000E+02
4856000000.000000      3.763275000000000E-01      3.787500000000000E+01      4.655304000000000E-01     -1.694453000000000E+02
4857000000.000000      3.774414000000000E-01      3.770703000000000E+01      4.638977000000000E-01     -1.699375000000000E+02
4858000000.000000      3.780975000000000E-01      3.735156000000000E+01      4.603729000000000E-01     -1.707578000000000E+02
4859000000.000000      3.786774000000000E-01      3.705273000000000E+01      4.581451000000000E-01     -1.715547000000000E+02
4860000000.000000      3.798676000000000E-01      3.685351000000000E+01      4.559326000000000E-01     -1.723125000000000E+02
4861000000.000000      3.815308000000000E-01      3.668164000000000E+01      4.539032000000000E-01     -1.731250000000000E+02
4862000000.000000      3.819885000000000E-01      3.642187000000000E+01      4.514160000000000E-01     -1.735000000000000E+02
4863000000.000000      3.831329000000000E-01      3.619922000000000E+01      4.473419000000000E-01     -1.744062000000000E+02
4864000000.000000      3.841553000000000E-01      3.574414000000000E+01      4.448090000000000E-01     -1.748125000000000E+02
4865000000.000000      3.840790000000000E-01      3.553906000000000E+01      4.411774000000000E-01     -1.756250000000000E+02
4866000000.000000      3.859253000000000E-01      3.530859000000000E+01      4.379120000000000E-01     -1.763750000000000E+02
4867000000.000000      3.856659000000000E-01      3.507226000000000E+01      4.361572000000000E-01     -1.770469000000000E+02
4868000000.000000      3.872986000000000E-01      3.486328000000000E+01      4.322662000000000E-01     -1.774531000000000E+02
4869000000.000000      3.883362000000000E-01      3.463672000000000E+01      4.288483000000000E-01     -1.783594000000000E+02
4870000000.000000      3.878937000000000E-01      3.441406000000000E+01      4.261322000000000E-01     -1.787969000000000E+02
4871000000.000000      3.886719000000000E-01      3.403515000000000E+01      4.226990000000000E-01     -1.796328000000000E+02
4872000000.000000      3.904419000000000E-01      3.388281000000000E+01      4.200745000000000E-01      1.799453000000000E+02
4873000000.000000      3.904572000000000E-01      3.356445000000000E+01      4.152527000000000E-01      1.792266000000000E+02
4874000000.000000      3.912048000000000E-01      3.326757000000000E+01      4.137878000000000E-01      1.786484000000000E+02
4875000000.000000      3.907166000000000E-01      3.300390000000000E+01      4.098053000000000E-01      1.781016000000000E+02
4876000000.000000      3.923645000000000E-01      3.288867000000000E+01      4.060822000000000E-01      1.774688000000000E+02
4877000000.000000      3.936920000000000E-01      3.237890000000000E+01      4.023438000000000E-01      1.769219000000000E+02
4878000000.000000      3.921051000000000E-01      3.219531000000000E+01      3.984528000000000E-01      1.763828000000000E+02
4879000000.000000      3.934174000000000E-01      3.201757000000000E+01      3.935242000000000E-01      1.757813000000000E+02
4880000000.000000      3.936310000000000E-01      3.167871000000000E+01      3.925934000000000E-01      1.751094000000000E+02
4881000000.000000      3.942413000000000E-01      3.151953000000000E+01      3.896027000000000E-01      1.748125000000000E+02
4882000000.000000      3.944702000000000E-01      3.125000000000000E+01      3.856354000000000E-01      1.742344000000000E+02
4883000000.000000      3.942719000000000E-01      3.088867000000000E+01      3.821716000000000E-01      1.736172000000000E+02
4884000000.000000      3.950806000000000E-01      3.084473000000000E+01      3.783417000000000E-01      1.731719000000000E+02
4885000000.000000      3.948822000000000E-01      3.047558000000000E+01      3.739929000000000E-01      1.728984000000000E+02
4886000000.000000      3.947906000000000E-01      3.035449000000000E+01      3.712006000000000E-01      1.723125000000000E+02
4887000000.000000      3.949280000000000E-01      3.012012000000000E+01      3.685455000000000E-01      1.716953000000000E+02
4888000000.000000      3.944397000000000E-01      2.969433000000000E+01      3.634338000000000E-01      1.711484000000000E+02
4889000000.000000      3.948669000000000E-01      2.945508000000000E+01      3.602295000000000E-01      1.708750000000000E+02
4890000000.000000      3.945313000000000E-01      2.930566000000000E+01      3.566437000000000E-01      1.701562000000000E+02
4891000000.000000      3.953552000000000E-01      2.915625000000000E+01      3.531494000000000E-01      1.696172000000000E+02
4892000000.000000      3.949890000000000E-01      2.873047000000000E+01      3.486633000000000E-01      1.694375000000000E+02
4893000000.000000      3.958588000000000E-01      2.849902000000000E+01      3.469238000000000E-01      1.687891000000000E+02
4894000000.000000      3.946533000000000E-01      2.836328000000000E+01      3.424377000000000E-01      1.684609000000000E+02
4895000000.000000      3.955231000000000E-01      2.799511000000000E+01      3.399353000000000E-01      1.677969000000000E+02
4896000000.000000      3.949432000000000E-01      2.778418000000000E+01      3.358154000000000E-01      1.674375000000000E+02
4897000000.000000      3.949127000000000E-01      2.759180000000000E+01      3.327637000000000E-01      1.673047000000000E+02
4898000000.000000      3.945618000000000E-01      2.752344000000000E+01      3.292847000000000E-01      1.668516000000000E+02
4899000000.000000      3.946075000000000E-01      2.723047000000000E+01      3.251801000000000E-01      1.664297000000000E+02
4900000000.000000      3.946381000000000E-01      2.694336000000000E+01      3.219757000000000E-01      1.659765000000000E+02
4901000000.000000      3.944855000000000E-01      2.672266000000000E+01      3.193970000000000E-01      1.656797000000000E+02
4902000000.000000      3.935547000000000E-01      2.638281000000000E+01      3.160248000000000E-01      1.653984000000000E+02
4903000000.000000      3.936768000000000E-01      2.621973000000000E+01      3.109131000000000E-01      1.646719000000000E+02
4904000000.000000      3.932648000000000E-01      2.612597000000000E+01      3.086243000000000E-01      1.643359000000000E+02
4905000000.000000      3.942108000000000E-01      2.592480000000000E+01      3.053131000000000E-01      1.638672000000000E+02
4906000000.000000      3.932037000000000E-01      2.569140000000000E+01      3.016205000000000E-01      1.638438000000000E+02
4907000000.000000      3.928986000000000E-01      2.540136000000000E+01      2.986908000000000E-01      1.631719000000000E+02
4908000000.000000      3.931122000000000E-01      2.517578000000000E+01      2.955475000000000E-01      1.626797000000000E+02
4909000000.000000      3.917694000000000E-01      2.512500000000000E+01      2.915497000000000E-01      1.624766000000000E+02
4910000000.000000      3.919525000000000E-01      2.497949000000000E+01      2.877655000000000E-01      1.620078000000000E+02
4911000000.000000      3.923187000000000E-01      2.478613000000000E+01      2.838440000000000E-01      1.617422000000000E+02
4912000000.000000      3.916016000000000E-01      2.461426000000000E+01      2.808380000000000E-01      1.613828000000000E+02
4913000000.000000      3.914185000000000E-01      2.434277000000000E+01      2.775879000000000E-01      1.610937000000000E+02
4914000000.000000      3.920898000000000E-01      2.393555000000000E+01      2.733765000000000E-01      1.605937000000000E+02
4915000000.000000      3.914490000000000E-01      2.404492000000000E+01      2.697906000000000E-01      1.601484000000000E+02
4916000000.000000      3.902435000000000E-01      2.370898000000000E+01      2.662964000000000E-01      1.598125000000000E+02
4917000000.000000      3.909912000000000E-01      2.357226000000000E+01      2.627106000000000E-01      1.596016000000000E+02
4918000000.000000      3.909760000000000E-01      2.337305000000000E+01      2.587280000000000E-01      1.591172000000000E+02
4919000000.000000      3.892670000000000E-01      2.320313000000000E+01      2.556305000000000E-01      1.591406000000000E+02
4920000000.000000      3.904266000000000E-01      2.303809000000000E+01      2.509308000000000E-01      1.585469000000000E+02
4921000000.000000      3.897247000000000E-01      2.293652000000000E+01      2.475510000000000E-01      1.583984000000000E+02
4922000000.000000      3.896637000000000E-01      2.270508000000000E+01      2.438583000000000E-01      1.581953000000000E+02
4923000000.000000      3.895874000000000E-01      2.251563000000000E+01      2.390442000000000E-01      1.579141000000000E+02
4924000000.000000      3.885193000000000E-01      2.241992000000000E+01      2.351990000000000E-01      1.574531000000000E+02
4925000000.000000      3.893890000000000E-01      2.210254000000000E+01      2.311554000000000E-01      1.573437000000000E+02
4926000000.000000      3.887482000000000E-01      2.194043000000000E+01      2.282410000000000E-01      1.571172000000000E+02
4927000000.000000      3.885193000000000E-01      2.178418000000000E+01      2.240372000000000E-01      1.568750000000000E+02
4928000000.000000      3.883820000000000E-01      2.146289000000000E+01      2.198105000000000E-01      1.567891000000000E+02
4929000000.000000      3.878937000000000E-01      2.134180000000000E+01      2.157516000000000E-01      1.567422000000000E+02
4930000000.000000      3.872223000000000E-01      2.129785000000000E+01      2.114410000000000E-01      1.565312000000000E+02
4931000000.000000      3.868408000000000E-01      2.113965000000000E+01      2.082748000000000E-01      1.565078000000000E+02
4932000000.000000      3.867493000000000E-01      2.087891000000000E+01      2.041702000000000E-01      1.563125000000000E+02
4933000000.000000      3.867950000000000E-01      2.080761000000000E+01      1.991730000000000E-01      1.565781000000000E+02
4934000000.000000      3.869324000000000E-01      2.060742000000000E+01      1.957016000000000E-01      1.564219000000000E+02
4935000000.000000      3.861389000000000E-01      2.049707000000000E+01      1.918869000000000E-01      1.566015000000000E+02
4936000000.000000      3.856659000000000E-01      2.032422000000000E+01      1.876602000000000E-01      1.566328000000000E+02
4937000000.000000      3.856812000000000E-01      2.005371000000000E+01      1.834412000000000E-01      1.566250000000000E+02
4938000000.000000      3.850250000000000E-01      1.987793000000000E+01      1.800842000000000E-01      1.570313000000000E+02
4939000000.000000      3.847046000000000E-01      1.986523000000000E+01      1.754456000000000E-01      1.572187000000000E+02
4940000000.000000      3.843231000000000E-01      1.952051000000000E+01      1.713409000000000E-01      1.571094000000000E+02
4941000000.000000      3.846130000000000E-01      1.938769000000000E+01      1.677246000000000E-01      1.577891000000000E+02
4942000000.000000      3.839264000000000E-01      1.925977000000000E+01      1.643600000000000E-01      1.582578000000000E+02
4943000000.000000      3.837128000000000E-01      1.905371000000000E+01      1.602020000000000E-01      1.586094000000000E+02
4944000000.000000      3.828888000000000E-01      1.896777000000000E+01      1.570969000000000E-01      1.592266000000000E+02
4945000000.000000      3.834686000000000E-01      1.876953000000000E+01      1.529160000000000E-01      1.598516000000000E+02
4946000000.000000      3.829346000000000E-01      1.860937000000000E+01      1.494675000000000E-01      1.603281000000000E+02
4947000000.000000      3.821106000000000E-01      1.832031000000000E+01      1.456680000000000E-01      1.611875000000000E+02
4948000000.000000      3.832245000000000E-01      1.819531000000000E+01      1.428986000000000E-01      1.619609000000000E+02
4949000000.000000      3.814392000000000E-01      1.797754000000000E+01      1.394730000000000E-01      1.631250000000000E+02
4950000000.000000      3.822937000000000E-01      1.799414000000000E+01      1.363068000000000E-01      1.638984000000000E+02
4951000000.000000      3.817749000000000E-01      1.788672000000000E+01      1.333771000000000E-01      1.647266000000000E+02
4952000000.000000      3.813324000000000E-01      1.759277000000000E+01      1.302795000000000E-01      1.658516000000000E+02
4953000000.000000      3.802032000000000E-01      1.731934000000000E+01      1.279602000000000E-01      1.673750000000000E+02
4954000000.000000      3.805237000000000E-01      1.719629000000000E+01      1.254349000000000E-01      1.687422000000000E+02
