! Network Analyzer HP8722D
! Hewlett-Packard
! Data name: Linha & Wilkinson
! Saver's name: Rodrigo Anjos
! Comments: Teste da utilização de aquisição
continua pelo VNA HP8722D
! Time and date: 23/5/2025 11:16
!              Frequency                     S11                                                   S21                                                   S12                                                   S22
# HZ  S  MA R 50
4800000000.000000      3.117065000000000E-01      3.768555000000000E+01      4.728546000000000E-01     -1.288516000000000E+02
4801000000.000000      3.129730000000000E-01      3.797266000000000E+01      4.731598000000000E-01     -1.295703000000000E+02
4802000000.000000      3.142700000000000E-01      3.805859000000000E+01      4.743805000000000E-01     -1.301172000000000E+02
4803000000.000000      3.148499000000000E-01      3.823242000000000E+01      4.774170000000000E-01     -1.308750000000000E+02
4804000000.000000      3.158417000000000E-01      3.842187000000000E+01      4.771881000000000E-01     -1.316562000000000E+02
4805000000.000000      3.182068000000000E-01      3.856445000000000E+01      4.810486000000000E-01     -1.322969000000000E+02
4806000000.000000      3.182068000000000E-01      3.866015000000000E+01      4.820251000000000E-01     -1.330391000000000E+02
4807000000.000000      3.195496000000000E-01      3.884180000000000E+01      4.832153000000000E-01     -1.339219000000000E+02
4808000000.000000      3.202209000000000E-01      3.904492000000000E+01      4.837646000000000E-01     -1.345781000000000E+02
4809000000.000000      3.219910000000000E-01      3.924414000000000E+01      4.837646000000000E-01     -1.354219000000000E+02
4810000000.000000      3.235626000000000E-01      3.930078000000000E+01      4.868469000000000E-01     -1.359922000000000E+02
4811000000.000000      3.252411000000000E-01      3.941211000000000E+01      4.872589000000000E-01     -1.368828000000000E+02
4812000000.000000      3.275452000000000E-01      3.969336000000000E+01      4.880981000000000E-01     -1.375234000000000E+02
4813000000.000000      3.278656000000000E-01      3.974023000000000E+01      4.889832000000000E-01     -1.382344000000000E+02
4814000000.000000      3.288879000000000E-01      3.975976000000000E+01      4.891052000000000E-01     -1.389297000000000E+02
4815000000.000000      3.308868000000000E-01      3.988672000000000E+01      4.886322000000000E-01     -1.397266000000000E+02
4816000000.000000      3.327332000000000E-01      4.000196000000000E+01      4.898834000000000E-01     -1.403750000000000E+02
4817000000.000000      3.340912000000000E-01      4.003320000000000E+01      4.905243000000000E-01     -1.412344000000000E+02
4818000000.000000      3.357849000000000E-01      4.005468000000000E+01      4.901886000000000E-01     -1.420391000000000E+02
4819000000.000000      3.374786000000000E-01      4.010547000000000E+01      4.909058000000000E-01     -1.426953000000000E+02
4820000000.000000      3.382568000000000E-01      4.022265000000000E+01      4.899597000000000E-01     -1.431719000000000E+02
4821000000.000000      3.413696000000000E-01      4.027148000000000E+01      4.924774000000000E-01     -1.440547000000000E+02
4822000000.000000      3.421173000000000E-01      4.007813000000000E+01      4.897156000000000E-01     -1.447891000000000E+02
4823000000.000000      3.442383000000000E-01      4.016015000000000E+01      4.905243000000000E-01     -1.455547000000000E+02
4824000000.000000      3.455963000000000E-01      4.021484000000000E+01      4.898682000000000E-01     -1.461953000000000E+02
4825000000.000000      3.471985000000000E-01      4.012304000000000E+01      4.897003000000000E-01     -1.469922000000000E+02
4826000000.000000      3.485870000000000E-01      4.020703000000000E+01      4.904938000000000E-01     -1.478750000000000E+02
4827000000.000000      3.504028000000000E-01      4.009179000000000E+01      4.894562000000000E-01     -1.483828000000000E+02
4828000000.000000      3.527832000000000E-01      3.998828000000000E+01      4.896088000000000E-01     -1.492500000000000E+02
4829000000.000000      3.538971000000000E-01      4.014453000000000E+01      4.890594000000000E-01     -1.499844000000000E+02
4830000000.000000      3.559113000000000E-01      3.995508000000000E+01      4.884491000000000E-01     -1.506406000000000E+02
4831000000.000000      3.570557000000000E-01      3.989843000000000E+01      4.891205000000000E-01     -1.515625000000000E+02
4832000000.000000      3.588409000000000E-01      3.991211000000000E+01      4.879303000000000E-01     -1.520937000000000E+02
4833000000.000000      3.602142000000000E-01      3.970508000000000E+01      4.860992000000000E-01     -1.526641000000000E+02
4834000000.000000      3.618927000000000E-01      3.966015000000000E+01      4.853668000000000E-01     -1.535625000000000E+02
4835000000.000000      3.642731000000000E-01      3.953125000000000E+01      4.846954000000000E-01     -1.542656000000000E+02
4836000000.000000      3.655090000000000E-01      3.952734000000000E+01      4.827881000000000E-01     -1.550078000000000E+02
4837000000.000000      3.670197000000000E-01      3.948047000000000E+01      4.828949000000000E-01     -1.558750000000000E+02
4838000000.000000      3.682861000000000E-01      3.925000000000000E+01      4.814911000000000E-01     -1.562969000000000E+02
4839000000.000000      3.718567000000000E-01      3.916016000000000E+01      4.800873000000000E-01     -1.571719000000000E+02
4840000000.000000      3.723602000000000E-01      3.902344000000000E+01      4.790344000000000E-01     -1.576641000000000E+02
4841000000.000000      3.739929000000000E-01      3.893945000000000E+01      4.772949000000000E-01     -1.585391000000000E+02
4842000000.000000      3.751221000000000E-01      3.872461000000000E+01      4.759521000000000E-01     -1.592187000000000E+02
4843000000.000000      3.776398000000000E-01      3.855469000000000E+01      4.754791000000000E-01     -1.599922000000000E+02
4844000000.000000      3.785706000000000E-01      3.825000000000000E+01      4.734650000000000E-01     -1.606719000000000E+02
4845000000.000000      3.801117000000000E-01      3.827734000000000E+01      4.714508000000000E-01     -1.613125000000000E+02
4846000000.000000      3.816528000000000E-01      3.808789000000000E+01      4.717102000000000E-01     -1.620547000000000E+02
4847000000.000000      3.828888000000000E-01      3.800781000000000E+01      4.689636000000000E-01     -1.627656000000000E+02
4848000000.000000      3.835449000000000E-01      3.761719000000000E+01      4.657898000000000E-01     -1.634922000000000E+02
4849000000.000000      3.851013000000000E-01      3.742969000000000E+01      4.653625000000000E-01     -1.641797000000000E+02
4850000000.000000      3.863525000000000E-01      3.738867000000000E+01      4.630585000000000E-01     -1.648906000000000E+02
4851000000.000000      3.881683000000000E-01      3.728711000000000E+01      4.617767000000000E-01     -1.655937000000000E+02
4852000000.000000      3.892059000000000E-01      3.697266000000000E+01      4.588623000000000E-01     -1.663594000000000E+02
4853000000.000000      3.905334000000000E-01      3.676758000000000E+01      4.562225000000000E-01     -1.671719000000000E+02
4854000000.000000      3.917236000000000E-01      3.646289000000000E+01      4.548492000000000E-01     -1.677813000000000E+02
4855000000.000000      3.924713000000000E-01      3.634375000000000E+01      4.523468000000000E-01     -1.684062000000000E+02
4856000000.000000      3.944092000000000E-01      3.614062000000000E+01      4.502258000000000E-01     -1.693125000000000E+02
4857000000.000000      3.954926000000000E-01      3.598828000000000E+01      4.485016000000000E-01     -1.698359000000000E+02
4858000000.000000      3.964844000000000E-01      3.565234000000000E+01      4.453735000000000E-01     -1.703672000000000E+02
4859000000.000000      3.974609000000000E-01      3.541601000000000E+01      4.430695000000000E-01     -1.712578000000000E+02
4860000000.000000      3.983154000000000E-01      3.533984000000000E+01      4.406281000000000E-01     -1.719766000000000E+02
4861000000.000000      3.988037000000000E-01      3.503711000000000E+01      4.381104000000000E-01     -1.726719000000000E+02
4862000000.000000      3.998566000000000E-01      3.488476000000000E+01      4.349670000000000E-01     -1.732734000000000E+02
4863000000.000000      4.009552000000000E-01      3.468359000000000E+01      4.314270000000000E-01     -1.740000000000000E+02
4864000000.000000      4.023895000000000E-01      3.440039000000000E+01      4.306335000000000E-01     -1.745781000000000E+02
4865000000.000000      4.025879000000000E-01      3.413476000000000E+01      4.263763000000000E-01     -1.752500000000000E+02
4866000000.000000      4.038391000000000E-01      3.384180000000000E+01      4.239960000000000E-01     -1.758594000000000E+02
4867000000.000000      4.040985000000000E-01      3.372461000000000E+01      4.214630000000000E-01     -1.767187000000000E+02
4868000000.000000      4.049530000000000E-01      3.342968000000000E+01      4.181061000000000E-01     -1.774922000000000E+02
4869000000.000000      4.053192000000000E-01      3.318945000000000E+01      4.141083000000000E-01     -1.778906000000000E+02
4870000000.000000      4.069824000000000E-01      3.296484000000000E+01      4.121094000000000E-01     -1.784453000000000E+02
4871000000.000000      4.067688000000000E-01      3.265820000000000E+01      4.084625000000000E-01     -1.792109000000000E+02
4872000000.000000      4.080811000000000E-01      3.257031000000000E+01      4.053345000000000E-01     -1.797578000000000E+02
4873000000.000000      4.081726000000000E-01      3.231836000000000E+01      4.009247000000000E-01      1.794609000000000E+02
4874000000.000000      4.089966000000000E-01      3.213476000000000E+01      3.977509000000000E-01      1.792266000000000E+02
4875000000.000000      4.093628000000000E-01      3.181445000000000E+01      3.934784000000000E-01      1.782891000000000E+02
4876000000.000000      4.096527000000000E-01      3.161914000000000E+01      3.908386000000000E-01      1.777344000000000E+02
4877000000.000000      4.109039000000000E-01      3.129395000000000E+01      3.880005000000000E-01      1.773516000000000E+02
4878000000.000000      4.103546000000000E-01      3.109082000000000E+01      3.844757000000000E-01      1.768672000000000E+02
4879000000.000000      4.116821000000000E-01      3.095312000000000E+01      3.793030000000000E-01      1.763203000000000E+02
4880000000.000000      4.124298000000000E-01      3.058691000000000E+01      3.776550000000000E-01      1.757031000000000E+02
4881000000.000000      4.121857000000000E-01      3.036426000000000E+01      3.731689000000000E-01      1.752266000000000E+02
4882000000.000000      4.126892000000000E-01      3.021582000000000E+01      3.690796000000000E-01      1.746328000000000E+02
4883000000.000000      4.123230000000000E-01      2.984570000000000E+01      3.660889000000000E-01      1.739297000000000E+02
4884000000.000000      4.128571000000000E-01      2.976269000000000E+01      3.622131000000000E-01      1.735859000000000E+02
4885000000.000000      4.133301000000000E-01      2.946777000000000E+01      3.582916000000000E-01      1.733672000000000E+02
4886000000.000000      4.126282000000000E-01      2.923535000000000E+01      3.548889000000000E-01      1.727031000000000E+02
4887000000.000000      4.131470000000000E-01      2.904004000000000E+01      3.527222000000000E-01      1.721250000000000E+02
4888000000.000000      4.129486000000000E-01      2.861523000000000E+01      3.491364000000000E-01      1.716719000000000E+02
4889000000.000000      4.132080000000000E-01      2.862011000000000E+01      3.445282000000000E-01      1.713281000000000E+02
4890000000.000000      4.128571000000000E-01      2.817968000000000E+01      3.411713000000000E-01      1.706484000000000E+02
4891000000.000000      4.130249000000000E-01      2.807129000000000E+01      3.381653000000000E-01      1.703984000000000E+02
4892000000.000000      4.131317000000000E-01      2.796387000000000E+01      3.345490000000000E-01      1.701328000000000E+02
4893000000.000000      4.135132000000000E-01      2.770020000000000E+01      3.317871000000000E-01      1.693828000000000E+02
4894000000.000000      4.127960000000000E-01      2.747461000000000E+01      3.279266000000000E-01      1.689766000000000E+02
4895000000.000000      4.149170000000000E-01      2.725293000000000E+01      3.249512000000000E-01      1.686406000000000E+02
4896000000.000000      4.134216000000000E-01      2.705859000000000E+01      3.213654000000000E-01      1.682500000000000E+02
4897000000.000000      4.127350000000000E-01      2.688281000000000E+01      3.170013000000000E-01      1.677422000000000E+02
4898000000.000000      4.132690000000000E-01      2.675683000000000E+01      3.148193000000000E-01      1.675781000000000E+02
4899000000.000000      4.129181000000000E-01      2.643555000000000E+01      3.108978000000000E-01      1.667344000000000E+02
4900000000.000000      4.128876000000000E-01      2.620605000000000E+01      3.075256000000000E-01      1.666094000000000E+02
4901000000.000000      4.128876000000000E-01      2.605957000000000E+01      3.036346000000000E-01      1.661797000000000E+02
4902000000.000000      4.131165000000000E-01      2.572949000000000E+01      3.009949000000000E-01      1.661250000000000E+02
4903000000.000000      4.123840000000000E-01      2.567480000000000E+01      2.966919000000000E-01      1.655703000000000E+02
4904000000.000000      4.131775000000000E-01      2.531641000000000E+01      2.936859000000000E-01      1.652109000000000E+02
4905000000.000000      4.126434000000000E-01      2.527637000000000E+01      2.915955000000000E-01      1.646563000000000E+02
4906000000.000000      4.120941000000000E-01      2.515429000000000E+01      2.876434000000000E-01      1.645313000000000E+02
4907000000.000000      4.113312000000000E-01      2.482715000000000E+01      2.847290000000000E-01      1.641328000000000E+02
4908000000.000000      4.115906000000000E-01      2.462793000000000E+01      2.810364000000000E-01      1.636094000000000E+02
4909000000.000000      4.107971000000000E-01      2.451172000000000E+01      2.770538000000000E-01      1.633750000000000E+02
4910000000.000000      4.105988000000000E-01      2.420117000000000E+01      2.730255000000000E-01      1.629453000000000E+02
4911000000.000000      4.114685000000000E-01      2.422558000000000E+01      2.709503000000000E-01      1.626250000000000E+02
4912000000.000000      4.106293000000000E-01      2.386719000000000E+01      2.670135000000000E-01      1.621094000000000E+02
4913000000.000000      4.109802000000000E-01      2.377636000000000E+01      2.634125000000000E-01      1.617969000000000E+02
4914000000.000000      4.109802000000000E-01      2.362988000000000E+01      2.599792000000000E-01      1.617500000000000E+02
4915000000.000000      4.106750000000000E-01      2.346094000000000E+01      2.563324000000000E-01      1.612031000000000E+02
4916000000.000000      4.098816000000000E-01      2.314648000000000E+01      2.530823000000000E-01      1.607188000000000E+02
4917000000.000000      4.099274000000000E-01      2.312988000000000E+01      2.493439000000000E-01      1.606641000000000E+02
4918000000.000000      4.095917000000000E-01      2.297461000000000E+01      2.451096000000000E-01      1.603203000000000E+02
4919000000.000000      4.089203000000000E-01      2.286621000000000E+01      2.419586000000000E-01      1.601953000000000E+02
4920000000.000000      4.088593000000000E-01      2.260937000000000E+01      2.375107000000000E-01      1.596875000000000E+02
4921000000.000000      4.093170000000000E-01      2.254101000000000E+01      2.349167000000000E-01      1.595703000000000E+02
4922000000.000000      4.092712000000000E-01      2.234570000000000E+01      2.309799000000000E-01      1.594219000000000E+02
4923000000.000000      4.088135000000000E-01      2.215625000000000E+01      2.265625000000000E-01      1.592734000000000E+02
4924000000.000000      4.088898000000000E-01      2.194238000000000E+01      2.229385000000000E-01      1.588047000000000E+02
4925000000.000000      4.081116000000000E-01      2.184277000000000E+01      2.190399000000000E-01      1.588438000000000E+02
4926000000.000000      4.075775000000000E-01      2.165234000000000E+01      2.153931000000000E-01      1.586172000000000E+02
4927000000.000000      4.081116000000000E-01      2.133203000000000E+01      2.112656000000000E-01      1.584922000000000E+02
4928000000.000000      4.074402000000000E-01      2.116992000000000E+01      2.077866000000000E-01      1.585234000000000E+02
4929000000.000000      4.075928000000000E-01      2.114258000000000E+01      2.035599000000000E-01      1.581172000000000E+02
4930000000.000000      4.072723000000000E-01      2.099023000000000E+01      1.995926000000000E-01      1.581328000000000E+02
4931000000.000000      4.069824000000000E-01      2.084570000000000E+01      1.961441000000000E-01      1.582031000000000E+02
4932000000.000000      4.067535000000000E-01      2.054492000000000E+01      1.919327000000000E-01      1.581953000000000E+02
4933000000.000000      4.052887000000000E-01      2.034668000000000E+01      1.873016000000000E-01      1.585469000000000E+02
4934000000.000000      4.072266000000000E-01      2.016602000000000E+01      1.841965000000000E-01      1.583203000000000E+02
4935000000.000000      4.070892000000000E-01      2.012500000000000E+01      1.810303000000000E-01      1.586719000000000E+02
4936000000.000000      4.056702000000000E-01      1.987793000000000E+01      1.765137000000000E-01      1.588750000000000E+02
4937000000.000000      4.056549000000000E-01      1.964453000000000E+01      1.729431000000000E-01      1.588047000000000E+02
4938000000.000000      4.049988000000000E-01      1.967773000000000E+01      1.691589000000000E-01      1.592891000000000E+02
4939000000.000000      4.049530000000000E-01      1.949609000000000E+01      1.655045000000000E-01      1.597344000000000E+02
4940000000.000000      4.039917000000000E-01      1.923633000000000E+01      1.613007000000000E-01      1.597265000000000E+02
4941000000.000000      4.045258000000000E-01      1.915137000000000E+01      1.578674000000000E-01      1.604766000000000E+02
4942000000.000000      4.040680000000000E-01      1.909668000000000E+01      1.545639000000000E-01      1.607188000000000E+02
4943000000.000000      4.042053000000000E-01      1.899805000000000E+01      1.508026000000000E-01      1.614453000000000E+02
4944000000.000000      4.036713000000000E-01      1.864844000000000E+01      1.478043000000000E-01      1.621172000000000E+02
4945000000.000000      4.035034000000000E-01      1.844141000000000E+01      1.441040000000000E-01      1.628203000000000E+02
4946000000.000000      4.034576000000000E-01      1.842480000000000E+01      1.408844000000000E-01      1.635156000000000E+02
4947000000.000000      4.033051000000000E-01      1.818164000000000E+01      1.375351000000000E-01      1.643906000000000E+02
4948000000.000000      4.034729000000000E-01      1.806933000000000E+01      1.347885000000000E-01      1.653906000000000E+02
4949000000.000000      4.018097000000000E-01      1.781836000000000E+01      1.322632000000000E-01      1.664766000000000E+02
4950000000.000000      4.026489000000000E-01      1.793359000000000E+01      1.291885000000000E-01      1.674531000000000E+02
4951000000.000000      4.023285000000000E-01      1.769336000000000E+01      1.263809000000000E-01      1.684297000000000E+02
4952000000.000000      4.009552000000000E-01      1.736328000000000E+01      1.235046000000000E-01      1.698750000000000E+02
4953000000.000000      4.015350000000000E-01      1.724512000000000E+01      1.220779000000000E-01      1.714375000000000E+02
4954000000.000000      4.016571000000000E-01      1.707129000000000E+01      1.194878000000000E-01      1.729375000000000E+02
