! Network Analyzer HP8722D
! Hewlett-Packard
! Data name: Linha & Wilkinson
! Saver's name: Rodrigo Anjos
! Comments: Teste da utilização de aquisição
continua pelo VNA HP8722D
! Time and date: 23/5/2025 09:46
!              Frequency                     S11                                                   S21                                                   S12                                                   S22
# HZ  S  MA R 50
4800000000.000000      3.115692000000000E-01      3.735547000000000E+01      4.718170000000000E-01     -1.282891000000000E+02
4801000000.000000      3.123779000000000E-01      3.766406000000000E+01      4.714508000000000E-01     -1.288281000000000E+02
4802000000.000000      3.137665000000000E-01      3.772656000000000E+01      4.745026000000000E-01     -1.294688000000000E+02
4803000000.000000      3.143005000000000E-01      3.791601000000000E+01      4.767151000000000E-01     -1.302813000000000E+02
4804000000.000000      3.154755000000000E-01      3.818554000000000E+01      4.777222000000000E-01     -1.310313000000000E+02
4805000000.000000      3.174286000000000E-01      3.818359000000000E+01      4.786530000000000E-01     -1.318828000000000E+02
4806000000.000000      3.175354000000000E-01      3.843359000000000E+01      4.801941000000000E-01     -1.324531000000000E+02
4807000000.000000      3.193054000000000E-01      3.860742000000000E+01      4.810486000000000E-01     -1.333281000000000E+02
4808000000.000000      3.197327000000000E-01      3.872656000000000E+01      4.831543000000000E-01     -1.339062000000000E+02
4809000000.000000      3.210449000000000E-01      3.898438000000000E+01      4.833679000000000E-01     -1.347031000000000E+02
4810000000.000000      3.229675000000000E-01      3.906836000000000E+01      4.853210000000000E-01     -1.352031000000000E+02
4811000000.000000      3.241119000000000E-01      3.919336000000000E+01      4.861298000000000E-01     -1.364531000000000E+02
4812000000.000000      3.262939000000000E-01      3.948437000000000E+01      4.877319000000000E-01     -1.370234000000000E+02
4813000000.000000      3.270569000000000E-01      3.956250000000000E+01      4.886169000000000E-01     -1.377266000000000E+02
4814000000.000000      3.278656000000000E-01      3.959765000000000E+01      4.883423000000000E-01     -1.382422000000000E+02
4815000000.000000      3.295441000000000E-01      3.973437000000000E+01      4.894867000000000E-01     -1.390391000000000E+02
4816000000.000000      3.317108000000000E-01      3.980469000000000E+01      4.896240000000000E-01     -1.399375000000000E+02
4817000000.000000      3.327789000000000E-01      3.984961000000000E+01      4.901581000000000E-01     -1.407109000000000E+02
4818000000.000000      3.346405000000000E-01      3.984570000000000E+01      4.902191000000000E-01     -1.412891000000000E+02
4819000000.000000      3.364410000000000E-01      3.999414000000000E+01      4.912109000000000E-01     -1.420781000000000E+02
4820000000.000000      3.369904000000000E-01      4.004687000000000E+01      4.898682000000000E-01     -1.426484000000000E+02
4821000000.000000      3.395996000000000E-01      4.005273000000000E+01      4.912262000000000E-01     -1.436563000000000E+02
4822000000.000000      3.402863000000000E-01      4.001562000000000E+01      4.915771000000000E-01     -1.443203000000000E+02
4823000000.000000      3.425140000000000E-01      4.007617000000000E+01      4.904022000000000E-01     -1.451406000000000E+02
4824000000.000000      3.442993000000000E-01      4.016992000000000E+01      4.900513000000000E-01     -1.458828000000000E+02
4825000000.000000      3.456116000000000E-01      4.005273000000000E+01      4.914551000000000E-01     -1.464766000000000E+02
4826000000.000000      3.475800000000000E-01      3.998437000000000E+01      4.919128000000000E-01     -1.472578000000000E+02
4827000000.000000      3.494110000000000E-01      3.996679000000000E+01      4.903259000000000E-01     -1.476875000000000E+02
4828000000.000000      3.514252000000000E-01      3.997851000000000E+01      4.890900000000000E-01     -1.487266000000000E+02
4829000000.000000      3.527985000000000E-01      3.999023000000000E+01      4.892426000000000E-01     -1.493515000000000E+02
4830000000.000000      3.544464000000000E-01      3.981836000000000E+01      4.877319000000000E-01     -1.500859000000000E+02
4831000000.000000      3.564911000000000E-01      3.978906000000000E+01      4.884644000000000E-01     -1.508594000000000E+02
4832000000.000000      3.578033000000000E-01      3.988086000000000E+01      4.864655000000000E-01     -1.514766000000000E+02
4833000000.000000      3.596344000000000E-01      3.966211000000000E+01      4.863434000000000E-01     -1.521484000000000E+02
4834000000.000000      3.603973000000000E-01      3.957226000000000E+01      4.860229000000000E-01     -1.529609000000000E+02
4835000000.000000      3.632813000000000E-01      3.953516000000000E+01      4.854431000000000E-01     -1.537500000000000E+02
4836000000.000000      3.649139000000000E-01      3.946680000000000E+01      4.833069000000000E-01     -1.544062000000000E+02
4837000000.000000      3.666840000000000E-01      3.944336000000000E+01      4.821472000000000E-01     -1.553203000000000E+02
4838000000.000000      3.673401000000000E-01      3.920703000000000E+01      4.820251000000000E-01     -1.557500000000000E+02
4839000000.000000      3.709564000000000E-01      3.924219000000000E+01      4.817200000000000E-01     -1.564453000000000E+02
4840000000.000000      3.715363000000000E-01      3.891406000000000E+01      4.795837000000000E-01     -1.571094000000000E+02
4841000000.000000      3.730621000000000E-01      3.888086000000000E+01      4.799042000000000E-01     -1.580937000000000E+02
4842000000.000000      3.746643000000000E-01      3.861328000000000E+01      4.766693000000000E-01     -1.587578000000000E+02
4843000000.000000      3.767395000000000E-01      3.845703000000000E+01      4.772339000000000E-01     -1.594219000000000E+02
4844000000.000000      3.773651000000000E-01      3.837500000000000E+01      4.752808000000000E-01     -1.601406000000000E+02
4845000000.000000      3.785400000000000E-01      3.830469000000000E+01      4.732513000000000E-01     -1.607891000000000E+02
4846000000.000000      3.810883000000000E-01      3.808398000000000E+01      4.726715000000000E-01     -1.616484000000000E+02
4847000000.000000      3.824005000000000E-01      3.789063000000000E+01      4.711914000000000E-01     -1.622344000000000E+02
4848000000.000000      3.833313000000000E-01      3.774805000000000E+01      4.684296000000000E-01     -1.628359000000000E+02
4849000000.000000      3.852844000000000E-01      3.744922000000000E+01      4.668427000000000E-01     -1.636641000000000E+02
4850000000.000000      3.862915000000000E-01      3.731054000000000E+01      4.657440000000000E-01     -1.644687000000000E+02
4851000000.000000      3.875275000000000E-01      3.725781000000000E+01      4.646606000000000E-01     -1.651172000000000E+02
4852000000.000000      3.892822000000000E-01      3.699414000000000E+01      4.604645000000000E-01     -1.658047000000000E+02
4853000000.000000      3.906097000000000E-01      3.677539000000000E+01      4.579010000000000E-01     -1.664375000000000E+02
4854000000.000000      3.913269000000000E-01      3.650586000000000E+01      4.570160000000000E-01     -1.673203000000000E+02
4855000000.000000      3.926697000000000E-01      3.645508000000000E+01      4.553070000000000E-01     -1.678828000000000E+02
4856000000.000000      3.939819000000000E-01      3.619141000000000E+01      4.540710000000000E-01     -1.686406000000000E+02
4857000000.000000      3.953400000000000E-01      3.604297000000000E+01      4.502411000000000E-01     -1.692188000000000E+02
4858000000.000000      3.955078000000000E-01      3.569921000000000E+01      4.492340000000000E-01     -1.699844000000000E+02
4859000000.000000      3.966980000000000E-01      3.556641000000000E+01      4.475403000000000E-01     -1.708125000000000E+02
4860000000.000000      3.979034000000000E-01      3.531641000000000E+01      4.437256000000000E-01     -1.713906000000000E+02
4861000000.000000      3.993073000000000E-01      3.509961000000000E+01      4.403534000000000E-01     -1.722265000000000E+02
4862000000.000000      3.993530000000000E-01      3.490234000000000E+01      4.368591000000000E-01     -1.728828000000000E+02
4863000000.000000      4.010468000000000E-01      3.466406000000000E+01      4.342194000000000E-01     -1.734922000000000E+02
4864000000.000000      4.029541000000000E-01      3.442968000000000E+01      4.336243000000000E-01     -1.740781000000000E+02
4865000000.000000      4.027710000000000E-01      3.417383000000000E+01      4.286194000000000E-01     -1.747266000000000E+02
4866000000.000000      4.030151000000000E-01      3.384766000000000E+01      4.248047000000000E-01     -1.754297000000000E+02
4867000000.000000      4.035797000000000E-01      3.366796000000000E+01      4.232941000000000E-01     -1.762891000000000E+02
4868000000.000000      4.048767000000000E-01      3.345312000000000E+01      4.188690000000000E-01     -1.766797000000000E+02
4869000000.000000      4.045868000000000E-01      3.330469000000000E+01      4.166412000000000E-01     -1.773438000000000E+02
4870000000.000000      4.074554000000000E-01      3.302539000000000E+01      4.134064000000000E-01     -1.778281000000000E+02
4871000000.000000      4.076233000000000E-01      3.269922000000000E+01      4.104767000000000E-01     -1.787422000000000E+02
4872000000.000000      4.081726000000000E-01      3.260742000000000E+01      4.060364000000000E-01     -1.793437000000000E+02
4873000000.000000      4.089355000000000E-01      3.236133000000000E+01      4.036102000000000E-01     -1.798906000000000E+02
4874000000.000000      4.086456000000000E-01      3.216015000000000E+01      4.006958000000000E-01      1.793594000000000E+02
4875000000.000000      4.100037000000000E-01      3.175390000000000E+01      3.965302000000000E-01      1.789219000000000E+02
4876000000.000000      4.105835000000000E-01      3.164941000000000E+01      3.941040000000000E-01      1.782266000000000E+02
4877000000.000000      4.125214000000000E-01      3.133691000000000E+01      3.905945000000000E-01      1.777500000000000E+02
4878000000.000000      4.104919000000000E-01      3.107422000000000E+01      3.861084000000000E-01      1.772656000000000E+02
4879000000.000000      4.124298000000000E-01      3.087109000000000E+01      3.840027000000000E-01      1.767734000000000E+02
4880000000.000000      4.129028000000000E-01      3.060059000000000E+01      3.795624000000000E-01      1.760313000000000E+02
4881000000.000000      4.118195000000000E-01      3.041016000000000E+01      3.765106000000000E-01      1.758359000000000E+02
4882000000.000000      4.129944000000000E-01      3.032910000000000E+01      3.744507000000000E-01      1.749922000000000E+02
4883000000.000000      4.134521000000000E-01      2.987305000000000E+01      3.676910000000000E-01      1.743828000000000E+02
4884000000.000000      4.147491000000000E-01      2.980273000000000E+01      3.675842000000000E-01      1.738359000000000E+02
4885000000.000000      4.139709000000000E-01      2.960644000000000E+01      3.616333000000000E-01      1.736562000000000E+02
4886000000.000000      4.146423000000000E-01      2.933203000000000E+01      3.584747000000000E-01      1.731328000000000E+02
4887000000.000000      4.143829000000000E-01      2.908008000000000E+01      3.563080000000000E-01      1.723984000000000E+02
4888000000.000000      4.141388000000000E-01      2.868457000000000E+01      3.518677000000000E-01      1.719063000000000E+02
4889000000.000000      4.141998000000000E-01      2.866601000000000E+01      3.466949000000000E-01      1.717734000000000E+02
4890000000.000000      4.134674000000000E-01      2.831152000000000E+01      3.447266000000000E-01      1.708203000000000E+02
4891000000.000000      4.148254000000000E-01      2.813379000000000E+01      3.410034000000000E-01      1.703359000000000E+02
4892000000.000000      4.134369000000000E-01      2.790722000000000E+01      3.378143000000000E-01      1.702734000000000E+02
4893000000.000000      4.150543000000000E-01      2.770703000000000E+01      3.334045000000000E-01      1.695625000000000E+02
4894000000.000000      4.142456000000000E-01      2.741308000000000E+01      3.289795000000000E-01      1.696797000000000E+02
4895000000.000000      4.154968000000000E-01      2.725781000000000E+01      3.270874000000000E-01      1.690312000000000E+02
4896000000.000000      4.144135000000000E-01      2.696582000000000E+01      3.249817000000000E-01      1.684766000000000E+02
4897000000.000000      4.142914000000000E-01      2.686914000000000E+01      3.204651000000000E-01      1.680547000000000E+02
4898000000.000000      4.144745000000000E-01      2.675781000000000E+01      3.172302000000000E-01      1.678516000000000E+02
4899000000.000000      4.138184000000000E-01      2.644531000000000E+01      3.138428000000000E-01      1.671562000000000E+02
4900000000.000000      4.136963000000000E-01      2.619238000000000E+01      3.103333000000000E-01      1.667109000000000E+02
4901000000.000000      4.144287000000000E-01      2.618945000000000E+01      3.069153000000000E-01      1.664922000000000E+02
4902000000.000000      4.148712000000000E-01      2.585156000000000E+01      3.038788000000000E-01      1.662266000000000E+02
4903000000.000000      4.138336000000000E-01      2.569140000000000E+01      2.994843000000000E-01      1.656641000000000E+02
4904000000.000000      4.132080000000000E-01      2.536133000000000E+01      2.968903000000000E-01      1.653281000000000E+02
4905000000.000000      4.132538000000000E-01      2.518066000000000E+01      2.942352000000000E-01      1.649531000000000E+02
4906000000.000000      4.127045000000000E-01      2.499609000000000E+01      2.906189000000000E-01      1.647969000000000E+02
4907000000.000000      4.127197000000000E-01      2.491113000000000E+01      2.877350000000000E-01      1.642969000000000E+02
4908000000.000000      4.133301000000000E-01      2.475000000000000E+01      2.848358000000000E-01      1.637109000000000E+02
4909000000.000000      4.133453000000000E-01      2.441113000000000E+01      2.800751000000000E-01      1.635703000000000E+02
4910000000.000000      4.119568000000000E-01      2.430273000000000E+01      2.765045000000000E-01      1.631562000000000E+02
4911000000.000000      4.127350000000000E-01      2.417871000000000E+01      2.731323000000000E-01      1.628594000000000E+02
4912000000.000000      4.115601000000000E-01      2.393066000000000E+01      2.698059000000000E-01      1.623750000000000E+02
4913000000.000000      4.129944000000000E-01      2.382519000000000E+01      2.663574000000000E-01      1.620859000000000E+02
4914000000.000000      4.119110000000000E-01      2.349219000000000E+01      2.625427000000000E-01      1.617656000000000E+02
4915000000.000000      4.113770000000000E-01      2.352441000000000E+01      2.590485000000000E-01      1.612500000000000E+02
4916000000.000000      4.114227000000000E-01      2.334570000000000E+01      2.561493000000000E-01      1.608359000000000E+02
4917000000.000000      4.116516000000000E-01      2.311621000000000E+01      2.520905000000000E-01      1.607500000000000E+02
4918000000.000000      4.103546000000000E-01      2.288769000000000E+01      2.478409000000000E-01      1.602734000000000E+02
4919000000.000000      4.103241000000000E-01      2.279199000000000E+01      2.451096000000000E-01      1.602890000000000E+02
4920000000.000000      4.103546000000000E-01      2.251367000000000E+01      2.405930000000000E-01      1.597109000000000E+02
4921000000.000000      4.095612000000000E-01      2.264648000000000E+01      2.369690000000000E-01      1.595937000000000E+02
4922000000.000000      4.099731000000000E-01      2.210449000000000E+01      2.338257000000000E-01      1.594141000000000E+02
4923000000.000000      4.101868000000000E-01      2.224707000000000E+01      2.289276000000000E-01      1.591719000000000E+02
4924000000.000000      4.097443000000000E-01      2.195410000000000E+01      2.253113000000000E-01      1.587344000000000E+02
4925000000.000000      4.091797000000000E-01      2.177832000000000E+01      2.220306000000000E-01      1.586562000000000E+02
4926000000.000000      4.084473000000000E-01      2.166308000000000E+01      2.182083000000000E-01      1.583672000000000E+02
4927000000.000000      4.096832000000000E-01      2.142383000000000E+01      2.140732000000000E-01      1.582969000000000E+02
4928000000.000000      4.086304000000000E-01      2.120215000000000E+01      2.105255000000000E-01      1.581094000000000E+02
4929000000.000000      4.078064000000000E-01      2.106738000000000E+01      2.062912000000000E-01      1.582813000000000E+02
4930000000.000000      4.087067000000000E-01      2.096386000000000E+01      2.027817000000000E-01      1.579375000000000E+02
4931000000.000000      4.078522000000000E-01      2.073437000000000E+01      1.991272000000000E-01      1.580000000000000E+02
4932000000.000000      4.084015000000000E-01      2.061035000000000E+01      1.954269000000000E-01      1.579297000000000E+02
4933000000.000000      4.077759000000000E-01      2.043652000000000E+01      1.903534000000000E-01      1.580937000000000E+02
4934000000.000000      4.083557000000000E-01      2.026367000000000E+01      1.869049000000000E-01      1.579531000000000E+02
4935000000.000000      4.078827000000000E-01      2.008301000000000E+01      1.837082000000000E-01      1.584375000000000E+02
4936000000.000000      4.068756000000000E-01      1.994336000000000E+01      1.789856000000000E-01      1.583437000000000E+02
4937000000.000000      4.073181000000000E-01      1.963476000000000E+01      1.756897000000000E-01      1.583828000000000E+02
4938000000.000000      4.066772000000000E-01      1.958398000000000E+01      1.714783000000000E-01      1.586953000000000E+02
4939000000.000000      4.064636000000000E-01      1.960742000000000E+01      1.679459000000000E-01      1.591172000000000E+02
4940000000.000000      4.071045000000000E-01      1.930273000000000E+01      1.639709000000000E-01      1.592266000000000E+02
4941000000.000000      4.066010000000000E-01      1.920508000000000E+01      1.604309000000000E-01      1.596641000000000E+02
4942000000.000000      4.062500000000000E-01      1.914453000000000E+01      1.565018000000000E-01      1.601719000000000E+02
4943000000.000000      4.057617000000000E-01      1.882617000000000E+01      1.528549000000000E-01      1.607422000000000E+02
4944000000.000000      4.041748000000000E-01      1.871582000000000E+01      1.499557000000000E-01      1.611953000000000E+02
4945000000.000000      4.047699000000000E-01      1.844922000000000E+01      1.457977000000000E-01      1.618203000000000E+02
4946000000.000000      4.050446000000000E-01      1.851465000000000E+01      1.426544000000000E-01      1.625313000000000E+02
4947000000.000000      4.045258000000000E-01      1.808398000000000E+01      1.390305000000000E-01      1.635156000000000E+02
4948000000.000000      4.046631000000000E-01      1.803223000000000E+01      1.362228000000000E-01      1.644453000000000E+02
4949000000.000000      4.037018000000000E-01      1.795801000000000E+01      1.329269000000000E-01      1.653359000000000E+02
4950000000.000000      4.040222000000000E-01      1.783398000000000E+01      1.306229000000000E-01      1.663281000000000E+02
4951000000.000000      4.039764000000000E-01      1.754590000000000E+01      1.278687000000000E-01      1.673516000000000E+02
4952000000.000000      4.032288000000000E-01      1.743457000000000E+01      1.247482000000000E-01      1.688047000000000E+02
4953000000.000000      4.028320000000000E-01      1.719727000000000E+01      1.229744000000000E-01      1.698906000000000E+02
4954000000.000000      4.019470000000000E-01      1.715430000000000E+01      1.204224000000000E-01      1.712891000000000E+02
