! Network Analyzer HP8722D
! Hewlett-Packard
! Data name: Linha & Wilkinson
! Saver's name: Rodrigo Anjos
! Comments: Teste da utilização de aquisição
continua pelo VNA HP8722D
! Time and date: 23/5/2025 08:20
!              Frequency                     S11                                                   S21                                                   S12                                                   S22
# HZ  S  MA R 50
4800000000.000000      4.133453000000000E-01      2.855566000000000E+01      4.307404000000000E-01     -1.186406000000000E+02
4801000000.000000      4.132233000000000E-01      2.892773000000000E+01      4.293213000000000E-01     -1.192266000000000E+02
4802000000.000000      4.151459000000000E-01      2.884277000000000E+01      4.331818000000000E-01     -1.200352000000000E+02
4803000000.000000      4.136047000000000E-01      2.906836000000000E+01      4.363251000000000E-01     -1.205312000000000E+02
4804000000.000000      4.145203000000000E-01      2.918066000000000E+01      4.362640000000000E-01     -1.216406000000000E+02
4805000000.000000      4.162445000000000E-01      2.924609000000000E+01      4.383392000000000E-01     -1.223359000000000E+02
4806000000.000000      4.156342000000000E-01      2.933691000000000E+01      4.397583000000000E-01     -1.228437000000000E+02
4807000000.000000      4.132385000000000E-01      2.963476000000000E+01      4.407349000000000E-01     -1.238633000000000E+02
4808000000.000000      4.150391000000000E-01      2.989160000000000E+01      4.419556000000000E-01     -1.244180000000000E+02
4809000000.000000      4.159241000000000E-01      2.977246000000000E+01      4.419250000000000E-01     -1.254375000000000E+02
4810000000.000000      4.162903000000000E-01      3.012304000000000E+01      4.438934000000000E-01     -1.259062000000000E+02
4811000000.000000      4.164581000000000E-01      3.012988000000000E+01      4.452972000000000E-01     -1.265859000000000E+02
4812000000.000000      4.183197000000000E-01      3.040039000000000E+01      4.461517000000000E-01     -1.275977000000000E+02
4813000000.000000      4.170685000000000E-01      3.028906000000000E+01      4.472961000000000E-01     -1.282109000000000E+02
4814000000.000000      4.199524000000000E-01      3.036718000000000E+01      4.473572000000000E-01     -1.287891000000000E+02
4815000000.000000      4.196014000000000E-01      3.055957000000000E+01      4.476624000000000E-01     -1.297344000000000E+02
4816000000.000000      4.208374000000000E-01      3.067871000000000E+01      4.484558000000000E-01     -1.302891000000000E+02
4817000000.000000      4.211426000000000E-01      3.092773000000000E+01      4.480591000000000E-01     -1.311016000000000E+02
4818000000.000000      4.215698000000000E-01      3.118457000000000E+01      4.488525000000000E-01     -1.317188000000000E+02
4819000000.000000      4.230194000000000E-01      3.088574000000000E+01      4.498444000000000E-01     -1.325859000000000E+02
4820000000.000000      4.224396000000000E-01      3.109179000000000E+01      4.499207000000000E-01     -1.330703000000000E+02
4821000000.000000      4.255066000000000E-01      3.108398000000000E+01      4.501038000000000E-01     -1.341172000000000E+02
4822000000.000000      4.258118000000000E-01      3.099218000000000E+01      4.499207000000000E-01     -1.347031000000000E+02
4823000000.000000      4.273071000000000E-01      3.116796000000000E+01      4.505157000000000E-01     -1.355234000000000E+02
4824000000.000000      4.299622000000000E-01      3.140625000000000E+01      4.497986000000000E-01     -1.362031000000000E+02
4825000000.000000      4.296570000000000E-01      3.134668000000000E+01      4.496460000000000E-01     -1.367891000000000E+02
4826000000.000000      4.323120000000000E-01      3.127734000000000E+01      4.488831000000000E-01     -1.376562000000000E+02
4827000000.000000      4.319153000000000E-01      3.145215000000000E+01      4.484100000000000E-01     -1.384453000000000E+02
4828000000.000000      4.338989000000000E-01      3.131640000000000E+01      4.499512000000000E-01     -1.391094000000000E+02
4829000000.000000      4.336853000000000E-01      3.172949000000000E+01      4.498138000000000E-01     -1.398672000000000E+02
4830000000.000000      4.360046000000000E-01      3.160742000000000E+01      4.488678000000000E-01     -1.405469000000000E+02
4831000000.000000      4.367523000000000E-01      3.164941000000000E+01      4.488373000000000E-01     -1.415625000000000E+02
4832000000.000000      4.378662000000000E-01      3.160742000000000E+01      4.477386000000000E-01     -1.421094000000000E+02
4833000000.000000      4.377899000000000E-01      3.158105000000000E+01      4.470825000000000E-01     -1.428125000000000E+02
4834000000.000000      4.417267000000000E-01      3.164160000000000E+01      4.480438000000000E-01     -1.435078000000000E+02
4835000000.000000      4.432678000000000E-01      3.160840000000000E+01      4.469452000000000E-01     -1.442891000000000E+02
4836000000.000000      4.428406000000000E-01      3.182324000000000E+01      4.458160000000000E-01     -1.448984000000000E+02
4837000000.000000      4.455261000000000E-01      3.170996000000000E+01      4.441681000000000E-01     -1.459609000000000E+02
4838000000.000000      4.442902000000000E-01      3.166601000000000E+01      4.436340000000000E-01     -1.464453000000000E+02
4839000000.000000      4.480591000000000E-01      3.180371000000000E+01      4.430389000000000E-01     -1.470000000000000E+02
4840000000.000000      4.489746000000000E-01      3.143555000000000E+01      4.438782000000000E-01     -1.478203000000000E+02
4841000000.000000      4.504395000000000E-01      3.167187000000000E+01      4.423828000000000E-01     -1.485937000000000E+02
4842000000.000000      4.516754000000000E-01      3.162402000000000E+01      4.408569000000000E-01     -1.493125000000000E+02
4843000000.000000      4.551086000000000E-01      3.138184000000000E+01      4.402771000000000E-01     -1.500156000000000E+02
4844000000.000000      4.543610000000000E-01      3.141602000000000E+01      4.386749000000000E-01     -1.507422000000000E+02
4845000000.000000      4.551086000000000E-01      3.132813000000000E+01      4.373779000000000E-01     -1.514219000000000E+02
4846000000.000000      4.581299000000000E-01      3.138867000000000E+01      4.360657000000000E-01     -1.521719000000000E+02
4847000000.000000      4.582977000000000E-01      3.124023000000000E+01      4.358673000000000E-01     -1.529453000000000E+02
4848000000.000000      4.596863000000000E-01      3.114453000000000E+01      4.336395000000000E-01     -1.535938000000000E+02
4849000000.000000      4.609070000000000E-01      3.100879000000000E+01      4.325409000000000E-01     -1.543750000000000E+02
4850000000.000000      4.624939000000000E-01      3.103222000000000E+01      4.296417000000000E-01     -1.551250000000000E+02
4851000000.000000      4.639587000000000E-01      3.091504000000000E+01      4.302979000000000E-01     -1.559531000000000E+02
4852000000.000000      4.669647000000000E-01      3.076562000000000E+01      4.274902000000000E-01     -1.567109000000000E+02
4853000000.000000      4.679260000000000E-01      3.078027000000000E+01      4.243774000000000E-01     -1.572734000000000E+02
4854000000.000000      4.689636000000000E-01      3.043945000000000E+01      4.244232000000000E-01     -1.583203000000000E+02
4855000000.000000      4.681244000000000E-01      3.042773000000000E+01      4.209442000000000E-01     -1.591953000000000E+02
4856000000.000000      4.705048000000000E-01      3.044238000000000E+01      4.196167000000000E-01     -1.598125000000000E+02
4857000000.000000      4.725800000000000E-01      3.030273000000000E+01      4.189148000000000E-01     -1.604297000000000E+02
4858000000.000000      4.744568000000000E-01      3.009961000000000E+01      4.161987000000000E-01     -1.611172000000000E+02
4859000000.000000      4.759674000000000E-01      2.995117000000000E+01      4.150238000000000E-01     -1.619922000000000E+02
4860000000.000000      4.753876000000000E-01      3.009375000000000E+01      4.113770000000000E-01     -1.626719000000000E+02
4861000000.000000      4.773102000000000E-01      2.984082000000000E+01      4.093628000000000E-01     -1.634297000000000E+02
4862000000.000000      4.781342000000000E-01      2.965820000000000E+01      4.069061000000000E-01     -1.640469000000000E+02
4863000000.000000      4.796143000000000E-01      2.957031000000000E+01      4.030762000000000E-01     -1.650078000000000E+02
4864000000.000000      4.802856000000000E-01      2.913281000000000E+01      4.015808000000000E-01     -1.653672000000000E+02
4865000000.000000      4.813232000000000E-01      2.923828000000000E+01      3.994751000000000E-01     -1.662109000000000E+02
4866000000.000000      4.822083000000000E-01      2.910351000000000E+01      3.959808000000000E-01     -1.670547000000000E+02
4867000000.000000      4.807892000000000E-01      2.892773000000000E+01      3.926849000000000E-01     -1.678203000000000E+02
4868000000.000000      4.839020000000000E-01      2.876562000000000E+01      3.889618000000000E-01     -1.685703000000000E+02
4869000000.000000      4.849091000000000E-01      2.870410000000000E+01      3.859253000000000E-01     -1.691094000000000E+02
4870000000.000000      4.877167000000000E-01      2.842285000000000E+01      3.839111000000000E-01     -1.694766000000000E+02
4871000000.000000      4.857025000000000E-01      2.830469000000000E+01      3.803864000000000E-01     -1.705000000000000E+02
4872000000.000000      4.904022000000000E-01      2.801855000000000E+01      3.775024000000000E-01     -1.711250000000000E+02
4873000000.000000      4.881287000000000E-01      2.792089000000000E+01      3.738556000000000E-01     -1.717187000000000E+02
4874000000.000000      4.879303000000000E-01      2.782422000000000E+01      3.710022000000000E-01     -1.726250000000000E+02
4875000000.000000      4.906616000000000E-01      2.759472000000000E+01      3.672028000000000E-01     -1.728125000000000E+02
4876000000.000000      4.921570000000000E-01      2.748340000000000E+01      3.645020000000000E-01     -1.737266000000000E+02
4877000000.000000      4.924927000000000E-01      2.720312000000000E+01      3.609772000000000E-01     -1.743203000000000E+02
4878000000.000000      4.914246000000000E-01      2.707520000000000E+01      3.571625000000000E-01     -1.746875000000000E+02
4879000000.000000      4.945526000000000E-01      2.706445000000000E+01      3.527832000000000E-01     -1.754297000000000E+02
4880000000.000000      4.944305000000000E-01      2.689453000000000E+01      3.515930000000000E-01     -1.760547000000000E+02
4881000000.000000      4.949799000000000E-01      2.649414000000000E+01      3.470001000000000E-01     -1.764688000000000E+02
4882000000.000000      4.943237000000000E-01      2.649316000000000E+01      3.455353000000000E-01     -1.771250000000000E+02
4883000000.000000      4.959412000000000E-01      2.630762000000000E+01      3.410950000000000E-01     -1.777344000000000E+02
4884000000.000000      4.962921000000000E-01      2.631543000000000E+01      3.370209000000000E-01     -1.784141000000000E+02
4885000000.000000      4.972687000000000E-01      2.610742000000000E+01      3.340607000000000E-01     -1.783672000000000E+02
4886000000.000000      4.978485000000000E-01      2.603613000000000E+01      3.302460000000000E-01     -1.790547000000000E+02
4887000000.000000      4.976501000000000E-01      2.574609000000000E+01      3.283234000000000E-01     -1.794765000000000E+02
4888000000.000000      4.964752000000000E-01      2.533496000000000E+01      3.251190000000000E-01      1.795703000000000E+02
4889000000.000000      4.979401000000000E-01      2.536035000000000E+01      3.194580000000000E-01      1.794453000000000E+02
4890000000.000000      4.972382000000000E-01      2.504101000000000E+01      3.170776000000000E-01      1.786641000000000E+02
4891000000.000000      5.003967000000000E-01      2.493066000000000E+01      3.128510000000000E-01      1.784844000000000E+02
4892000000.000000      4.998779000000000E-01      2.483007000000000E+01      3.091736000000000E-01      1.780313000000000E+02
4893000000.000000      5.004578000000000E-01      2.483007000000000E+01      3.055725000000000E-01      1.774688000000000E+02
4894000000.000000      4.988251000000000E-01      2.449609000000000E+01      3.022919000000000E-01      1.770469000000000E+02
4895000000.000000      5.009155000000000E-01      2.421777000000000E+01      3.004456000000000E-01      1.767109000000000E+02
4896000000.000000      5.009155000000000E-01      2.405371000000000E+01      2.964783000000000E-01      1.764922000000000E+02
4897000000.000000      5.019836000000000E-01      2.428320000000000E+01      2.928314000000000E-01      1.759297000000000E+02
4898000000.000000      4.995117000000000E-01      2.398144000000000E+01      2.905426000000000E-01      1.756172000000000E+02
4899000000.000000      5.006409000000000E-01      2.355273000000000E+01      2.867279000000000E-01      1.750937000000000E+02
4900000000.000000      5.008545000000000E-01      2.370215000000000E+01      2.835236000000000E-01      1.749141000000000E+02
4901000000.000000      5.011292000000000E-01      2.349414000000000E+01      2.805634000000000E-01      1.745078000000000E+02
4902000000.000000      5.008240000000000E-01      2.326270000000000E+01      2.774048000000000E-01      1.741484000000000E+02
4903000000.000000      5.023193000000000E-01      2.319726000000000E+01      2.731781000000000E-01      1.737500000000000E+02
4904000000.000000      5.022278000000000E-01      2.276758000000000E+01      2.703705000000000E-01      1.733516000000000E+02
4905000000.000000      5.020447000000000E-01      2.268457000000000E+01      2.675171000000000E-01      1.730312000000000E+02
4906000000.000000      5.037842000000000E-01      2.269726000000000E+01      2.645111000000000E-01      1.727656000000000E+02
4907000000.000000      5.025024000000000E-01      2.225781000000000E+01      2.612152000000000E-01      1.720469000000000E+02
4908000000.000000      5.022278000000000E-01      2.206738000000000E+01      2.590332000000000E-01      1.717500000000000E+02
4909000000.000000      5.023804000000000E-01      2.205273000000000E+01      2.548981000000000E-01      1.712109000000000E+02
4910000000.000000      5.022888000000000E-01      2.217383000000000E+01      2.522583000000000E-01      1.712578000000000E+02
4911000000.000000      5.025940000000000E-01      2.195313000000000E+01      2.489624000000000E-01      1.709219000000000E+02
4912000000.000000      5.029602000000000E-01      2.169922000000000E+01      2.455521000000000E-01      1.702031000000000E+02
4913000000.000000      5.038757000000000E-01      2.161328000000000E+01      2.420044000000000E-01      1.700156000000000E+02
4914000000.000000      5.021667000000000E-01      2.131348000000000E+01      2.388153000000000E-01      1.698906000000000E+02
4915000000.000000      5.021973000000000E-01      2.128418000000000E+01      2.351685000000000E-01      1.692344000000000E+02
4916000000.000000      5.025940000000000E-01      2.110156000000000E+01      2.321777000000000E-01      1.690234000000000E+02
4917000000.000000      5.021057000000000E-01      2.100098000000000E+01      2.296371000000000E-01      1.687656000000000E+02
4918000000.000000      5.025024000000000E-01      2.102832000000000E+01      2.252197000000000E-01      1.684531000000000E+02
4919000000.000000      5.001831000000000E-01      2.089453000000000E+01      2.227402000000000E-01      1.684375000000000E+02
4920000000.000000      5.020447000000000E-01      2.062598000000000E+01      2.186050000000000E-01      1.677656000000000E+02
4921000000.000000      5.002136000000000E-01      2.067285000000000E+01      2.154922000000000E-01      1.676875000000000E+02
4922000000.000000      5.025635000000000E-01      2.034863000000000E+01      2.116318000000000E-01      1.675937000000000E+02
4923000000.000000      5.022888000000000E-01      2.036035000000000E+01      2.080154000000000E-01      1.673906000000000E+02
4924000000.000000      5.023193000000000E-01      2.000683000000000E+01      2.050781000000000E-01      1.669141000000000E+02
4925000000.000000      5.010681000000000E-01      1.978223000000000E+01      2.010880000000000E-01      1.668359000000000E+02
4926000000.000000      5.019226000000000E-01      1.997168000000000E+01      1.981430000000000E-01      1.667109000000000E+02
4927000000.000000      5.018921000000000E-01      1.954297000000000E+01      1.943207000000000E-01      1.664609000000000E+02
4928000000.000000      5.044250000000000E-01      1.943750000000000E+01      1.910095000000000E-01      1.663750000000000E+02
4929000000.000000      5.035706000000000E-01      1.937012000000000E+01      1.875992000000000E-01      1.663828000000000E+02
4930000000.000000      5.035400000000000E-01      1.937012000000000E+01      1.837463000000000E-01      1.662266000000000E+02
4931000000.000000      5.026245000000000E-01      1.924902000000000E+01      1.805725000000000E-01      1.661562000000000E+02
4932000000.000000      5.022888000000000E-01      1.908398000000000E+01      1.766052000000000E-01      1.661562000000000E+02
4933000000.000000      5.015869000000000E-01      1.881055000000000E+01      1.722870000000000E-01      1.662812000000000E+02
4934000000.000000      5.018616000000000E-01      1.854883000000000E+01      1.695633000000000E-01      1.661094000000000E+02
4935000000.000000      5.042419000000000E-01      1.860937000000000E+01      1.666489000000000E-01      1.665469000000000E+02
4936000000.000000      5.013733000000000E-01      1.828223000000000E+01      1.623230000000000E-01      1.666797000000000E+02
4937000000.000000      5.017090000000000E-01      1.827929000000000E+01      1.587067000000000E-01      1.665937000000000E+02
4938000000.000000      5.007019000000000E-01      1.828223000000000E+01      1.556854000000000E-01      1.670703000000000E+02
4939000000.000000      5.004272000000000E-01      1.839453000000000E+01      1.519241000000000E-01      1.674062000000000E+02
4940000000.000000      5.014648000000000E-01      1.812402000000000E+01      1.479263000000000E-01      1.676563000000000E+02
4941000000.000000      5.024719000000000E-01      1.773144000000000E+01      1.451874000000000E-01      1.681250000000000E+02
4942000000.000000      5.021667000000000E-01      1.772168000000000E+01      1.418381000000000E-01      1.683437000000000E+02
4943000000.000000      5.015259000000000E-01      1.760547000000000E+01      1.379700000000000E-01      1.689766000000000E+02
4944000000.000000      5.008545000000000E-01      1.761914000000000E+01      1.356049000000000E-01      1.695469000000000E+02
4945000000.000000      5.017090000000000E-01      1.742676000000000E+01      1.320190000000000E-01      1.703125000000000E+02
4946000000.000000      5.010376000000000E-01      1.725390000000000E+01      1.291656000000000E-01      1.709375000000000E+02
4947000000.000000      5.011292000000000E-01      1.702051000000000E+01      1.260681000000000E-01      1.718672000000000E+02
4948000000.000000      5.014038000000000E-01      1.714258000000000E+01      1.237411000000000E-01      1.727656000000000E+02
4949000000.000000      5.002136000000000E-01      1.681445000000000E+01      1.204872000000000E-01      1.736172000000000E+02
4950000000.000000      4.999695000000000E-01      1.672754000000000E+01      1.178551000000000E-01      1.745625000000000E+02
4951000000.000000      5.010376000000000E-01      1.648828000000000E+01      1.156654000000000E-01      1.759531000000000E+02
4952000000.000000      5.012817000000000E-01      1.645801000000000E+01      1.128044000000000E-01      1.769453000000000E+02
4953000000.000000      5.001831000000000E-01      1.624023000000000E+01      1.110725000000000E-01      1.783984000000000E+02
4954000000.000000      5.012817000000000E-01      1.611230000000000E+01      1.086960000000000E-01     -1.800000000000000E+02
