! Network Analyzer HP8722D
! Hewlett-Packard
! Data name: Linha & Wilkinson
! Saver's name: Rodrigo Anjos
! Comments: Teste da utilização de aquisição
continua pelo VNA HP8722D
! Time and date: 23/5/2025 11:04
!              Frequency                     S11                                                   S21                                                   S12                                                   S22
# HZ  S  MA R 50
4800000000.000000      3.138580000000000E-01      3.735352000000000E+01      4.707184000000000E-01     -1.283437000000000E+02
4801000000.000000      3.146973000000000E-01      3.768359000000000E+01      4.721832000000000E-01     -1.290859000000000E+02
4802000000.000000      3.158722000000000E-01      3.782227000000000E+01      4.741974000000000E-01     -1.298906000000000E+02
4803000000.000000      3.168030000000000E-01      3.794531000000000E+01      4.759064000000000E-01     -1.303906000000000E+02
4804000000.000000      3.176727000000000E-01      3.825586000000000E+01      4.776001000000000E-01     -1.311484000000000E+02
4805000000.000000      3.195038000000000E-01      3.825390000000000E+01      4.778137000000000E-01     -1.320391000000000E+02
4806000000.000000      3.204803000000000E-01      3.850000000000000E+01      4.799500000000000E-01     -1.324687000000000E+02
4807000000.000000      3.211975000000000E-01      3.864453000000000E+01      4.809113000000000E-01     -1.335078000000000E+02
4808000000.000000      3.219757000000000E-01      3.877148000000000E+01      4.819641000000000E-01     -1.340234000000000E+02
4809000000.000000      3.233337000000000E-01      3.904101000000000E+01      4.831085000000000E-01     -1.348125000000000E+02
4810000000.000000      3.250885000000000E-01      3.915039000000000E+01      4.857483000000000E-01     -1.355000000000000E+02
4811000000.000000      3.266144000000000E-01      3.922656000000000E+01      4.842529000000000E-01     -1.363516000000000E+02
4812000000.000000      3.287659000000000E-01      3.940039000000000E+01      4.856567000000000E-01     -1.369062000000000E+02
4813000000.000000      3.292236000000000E-01      3.950781000000000E+01      4.863129000000000E-01     -1.378047000000000E+02
4814000000.000000      3.306274000000000E-01      3.949414000000000E+01      4.871216000000000E-01     -1.384766000000000E+02
4815000000.000000      3.322144000000000E-01      3.967382000000000E+01      4.871216000000000E-01     -1.391562000000000E+02
4816000000.000000      3.342133000000000E-01      3.979101000000000E+01      4.895630000000000E-01     -1.399453000000000E+02
4817000000.000000      3.354797000000000E-01      3.984570000000000E+01      4.891357000000000E-01     -1.407578000000000E+02
4818000000.000000      3.366394000000000E-01      3.987109000000000E+01      4.892578000000000E-01     -1.414375000000000E+02
4819000000.000000      3.386841000000000E-01      3.993945000000000E+01      4.888306000000000E-01     -1.422344000000000E+02
4820000000.000000      3.396606000000000E-01      4.001758000000000E+01      4.902649000000000E-01     -1.428281000000000E+02
4821000000.000000      3.420105000000000E-01      3.998437000000000E+01      4.901276000000000E-01     -1.437578000000000E+02
4822000000.000000      3.430176000000000E-01      3.994531000000000E+01      4.885712000000000E-01     -1.443906000000000E+02
4823000000.000000      3.453369000000000E-01      3.995703000000000E+01      4.901733000000000E-01     -1.450781000000000E+02
4824000000.000000      3.467865000000000E-01      4.008789000000000E+01      4.894257000000000E-01     -1.458594000000000E+02
4825000000.000000      3.483124000000000E-01      3.985156000000000E+01      4.886017000000000E-01     -1.465312000000000E+02
4826000000.000000      3.498688000000000E-01      3.991015000000000E+01      4.895020000000000E-01     -1.473203000000000E+02
4827000000.000000      3.523560000000000E-01      3.993555000000000E+01      4.882355000000000E-01     -1.480000000000000E+02
4828000000.000000      3.542938000000000E-01      3.987305000000000E+01      4.892273000000000E-01     -1.486328000000000E+02
4829000000.000000      3.552704000000000E-01      3.998437000000000E+01      4.866791000000000E-01     -1.495078000000000E+02
4830000000.000000      3.579407000000000E-01      3.975390000000000E+01      4.879608000000000E-01     -1.503203000000000E+02
4831000000.000000      3.583069000000000E-01      3.970508000000000E+01      4.882965000000000E-01     -1.509453000000000E+02
4832000000.000000      3.606415000000000E-01      3.970508000000000E+01      4.853363000000000E-01     -1.517266000000000E+02
4833000000.000000      3.613739000000000E-01      3.954102000000000E+01      4.845276000000000E-01     -1.521719000000000E+02
4834000000.000000      3.631287000000000E-01      3.944921000000000E+01      4.836121000000000E-01     -1.531328000000000E+02
4835000000.000000      3.654175000000000E-01      3.935156000000000E+01      4.833679000000000E-01     -1.539141000000000E+02
4836000000.000000      3.671570000000000E-01      3.941211000000000E+01      4.813385000000000E-01     -1.545469000000000E+02
4837000000.000000      3.682556000000000E-01      3.932031000000000E+01      4.805908000000000E-01     -1.554922000000000E+02
4838000000.000000      3.695831000000000E-01      3.910351000000000E+01      4.798126000000000E-01     -1.557969000000000E+02
4839000000.000000      3.730927000000000E-01      3.905859000000000E+01      4.790039000000000E-01     -1.564844000000000E+02
4840000000.000000      3.732452000000000E-01      3.883594000000000E+01      4.769287000000000E-01     -1.571172000000000E+02
4841000000.000000      3.745575000000000E-01      3.876953000000000E+01      4.758606000000000E-01     -1.581016000000000E+02
4842000000.000000      3.765869000000000E-01      3.862305000000000E+01      4.761200000000000E-01     -1.587265000000000E+02
4843000000.000000      3.785400000000000E-01      3.837695000000000E+01      4.741821000000000E-01     -1.596484000000000E+02
4844000000.000000      3.794708000000000E-01      3.821289000000000E+01      4.722595000000000E-01     -1.601641000000000E+02
4845000000.000000      3.813629000000000E-01      3.817383000000000E+01      4.703674000000000E-01     -1.608828000000000E+02
4846000000.000000      3.830719000000000E-01      3.800976000000000E+01      4.699097000000000E-01     -1.615313000000000E+02
4847000000.000000      3.845520000000000E-01      3.794726000000000E+01      4.680634000000000E-01     -1.621328000000000E+02
4848000000.000000      3.855286000000000E-01      3.770508000000000E+01      4.653931000000000E-01     -1.629297000000000E+02
4849000000.000000      3.867340000000000E-01      3.742578000000000E+01      4.647827000000000E-01     -1.637891000000000E+02
4850000000.000000      3.877258000000000E-01      3.722851000000000E+01      4.630737000000000E-01     -1.644531000000000E+02
4851000000.000000      3.894501000000000E-01      3.725000000000000E+01      4.609680000000000E-01     -1.650859000000000E+02
4852000000.000000      3.902893000000000E-01      3.690039000000000E+01      4.594421000000000E-01     -1.658594000000000E+02
4853000000.000000      3.919220000000000E-01      3.669140000000000E+01      4.549866000000000E-01     -1.665625000000000E+02
4854000000.000000      3.932037000000000E-01      3.652539000000000E+01      4.548492000000000E-01     -1.674609000000000E+02
4855000000.000000      3.946533000000000E-01      3.636914000000000E+01      4.534912000000000E-01     -1.681172000000000E+02
4856000000.000000      3.955994000000000E-01      3.614648000000000E+01      4.503784000000000E-01     -1.687422000000000E+02
4857000000.000000      3.965607000000000E-01      3.593750000000000E+01      4.485474000000000E-01     -1.693672000000000E+02
4858000000.000000      3.977814000000000E-01      3.566992000000000E+01      4.459534000000000E-01     -1.701328000000000E+02
4859000000.000000      3.988800000000000E-01      3.540039000000000E+01      4.432526000000000E-01     -1.709141000000000E+02
4860000000.000000      4.005280000000000E-01      3.535547000000000E+01      4.414673000000000E-01     -1.715391000000000E+02
4861000000.000000      4.010773000000000E-01      3.494336000000000E+01      4.382172000000000E-01     -1.723203000000000E+02
4862000000.000000      4.012909000000000E-01      3.478320000000000E+01      4.355774000000000E-01     -1.730000000000000E+02
4863000000.000000      4.024506000000000E-01      3.456836000000000E+01      4.317322000000000E-01     -1.734531000000000E+02
4864000000.000000      4.033966000000000E-01      3.434961000000000E+01      4.304199000000000E-01     -1.741953000000000E+02
4865000000.000000      4.043884000000000E-01      3.405859000000000E+01      4.265442000000000E-01     -1.748281000000000E+02
4866000000.000000      4.051056000000000E-01      3.376758000000000E+01      4.231262000000000E-01     -1.754297000000000E+02
4867000000.000000      4.050140000000000E-01      3.370312000000000E+01      4.209137000000000E-01     -1.762031000000000E+02
4868000000.000000      4.062958000000000E-01      3.332812000000000E+01      4.167633000000000E-01     -1.769766000000000E+02
4869000000.000000      4.072266000000000E-01      3.319921000000000E+01      4.152527000000000E-01     -1.775781000000000E+02
4870000000.000000      4.082184000000000E-01      3.284765000000000E+01      4.105225000000000E-01     -1.781563000000000E+02
4871000000.000000      4.079742000000000E-01      3.262500000000000E+01      4.082031000000000E-01     -1.789141000000000E+02
4872000000.000000      4.104004000000000E-01      3.246875000000000E+01      4.045563000000000E-01     -1.790625000000000E+02
4873000000.000000      4.098969000000000E-01      3.235742000000000E+01      4.015350000000000E-01      1.799219000000000E+02
4874000000.000000      4.103241000000000E-01      3.213476000000000E+01      3.977509000000000E-01      1.792812000000000E+02
4875000000.000000      4.111481000000000E-01      3.173047000000000E+01      3.932037000000000E-01      1.789922000000000E+02
4876000000.000000      4.110107000000000E-01      3.163281000000000E+01      3.894806000000000E-01      1.782031000000000E+02
4877000000.000000      4.125519000000000E-01      3.126758000000000E+01      3.875580000000000E-01      1.774609000000000E+02
4878000000.000000      4.119263000000000E-01      3.096875000000000E+01      3.836517000000000E-01      1.771641000000000E+02
4879000000.000000      4.130249000000000E-01      3.089160000000000E+01      3.800354000000000E-01      1.766484000000000E+02
4880000000.000000      4.134216000000000E-01      3.054394000000000E+01      3.764343000000000E-01      1.759140000000000E+02
4881000000.000000      4.134827000000000E-01      3.041113000000000E+01      3.733521000000000E-01      1.756719000000000E+02
4882000000.000000      4.141235000000000E-01      3.026172000000000E+01      3.700104000000000E-01      1.749844000000000E+02
4883000000.000000      4.145660000000000E-01      2.985254000000000E+01      3.660583000000000E-01      1.744922000000000E+02
4884000000.000000      4.147339000000000E-01      2.977539000000000E+01      3.620605000000000E-01      1.737109000000000E+02
4885000000.000000      4.150085000000000E-01      2.950098000000000E+01      3.599854000000000E-01      1.735000000000000E+02
4886000000.000000      4.150696000000000E-01      2.941992000000000E+01      3.562012000000000E-01      1.729297000000000E+02
4887000000.000000      4.151611000000000E-01      2.898730000000000E+01      3.523407000000000E-01      1.723828000000000E+02
4888000000.000000      4.150696000000000E-01      2.872070000000000E+01      3.492584000000000E-01      1.718984000000000E+02
4889000000.000000      4.163513000000000E-01      2.867285000000000E+01      3.466034000000000E-01      1.716875000000000E+02
4890000000.000000      4.142761000000000E-01      2.836621000000000E+01      3.415527000000000E-01      1.706875000000000E+02
4891000000.000000      4.155731000000000E-01      2.817578000000000E+01      3.371735000000000E-01      1.705156000000000E+02
4892000000.000000      4.156952000000000E-01      2.798437000000000E+01      3.347168000000000E-01      1.703125000000000E+02
4893000000.000000      4.153290000000000E-01      2.764355000000000E+01      3.306732000000000E-01      1.696719000000000E+02
4894000000.000000      4.154358000000000E-01      2.756152000000000E+01      3.280029000000000E-01      1.693438000000000E+02
4895000000.000000      4.160309000000000E-01      2.715332000000000E+01      3.234711000000000E-01      1.690625000000000E+02
4896000000.000000      4.161987000000000E-01      2.698633000000000E+01      3.216858000000000E-01      1.686719000000000E+02
4897000000.000000      4.153595000000000E-01      2.695410000000000E+01      3.177185000000000E-01      1.680469000000000E+02
4898000000.000000      4.154358000000000E-01      2.668652000000000E+01      3.147278000000000E-01      1.678437000000000E+02
4899000000.000000      4.147034000000000E-01      2.644531000000000E+01      3.106689000000000E-01      1.671719000000000E+02
4900000000.000000      4.151001000000000E-01      2.629980000000000E+01      3.070831000000000E-01      1.670547000000000E+02
4901000000.000000      4.153900000000000E-01      2.589160000000000E+01      3.045197000000000E-01      1.666953000000000E+02
4902000000.000000      4.145508000000000E-01      2.580761000000000E+01      3.016815000000000E-01      1.663125000000000E+02
4903000000.000000      4.153442000000000E-01      2.573535000000000E+01      2.966003000000000E-01      1.658281000000000E+02
4904000000.000000      4.147949000000000E-01      2.546875000000000E+01      2.947693000000000E-01      1.654063000000000E+02
4905000000.000000      4.142914000000000E-01      2.522558000000000E+01      2.919769000000000E-01      1.650391000000000E+02
4906000000.000000      4.132538000000000E-01      2.510742000000000E+01      2.875519000000000E-01      1.649062000000000E+02
4907000000.000000      4.137878000000000E-01      2.484766000000000E+01      2.843323000000000E-01      1.642969000000000E+02
4908000000.000000      4.147644000000000E-01      2.464453000000000E+01      2.815552000000000E-01      1.639688000000000E+02
4909000000.000000      4.129486000000000E-01      2.459375000000000E+01      2.766876000000000E-01      1.636562000000000E+02
4910000000.000000      4.131927000000000E-01      2.433105000000000E+01      2.734222000000000E-01      1.631953000000000E+02
4911000000.000000      4.137268000000000E-01      2.419531000000000E+01      2.709808000000000E-01      1.630156000000000E+02
4912000000.000000      4.128876000000000E-01      2.412304000000000E+01      2.673340000000000E-01      1.624297000000000E+02
4913000000.000000      4.134064000000000E-01      2.382715000000000E+01      2.633514000000000E-01      1.621094000000000E+02
4914000000.000000      4.121857000000000E-01      2.358691000000000E+01      2.602692000000000E-01      1.618047000000000E+02
4915000000.000000      4.134216000000000E-01      2.351758000000000E+01      2.560883000000000E-01      1.612656000000000E+02
4916000000.000000      4.124756000000000E-01      2.332910000000000E+01      2.529755000000000E-01      1.611406000000000E+02
4917000000.000000      4.116974000000000E-01      2.314063000000000E+01      2.496338000000000E-01      1.608359000000000E+02
4918000000.000000      4.121094000000000E-01      2.292285000000000E+01      2.451248000000000E-01      1.603281000000000E+02
4919000000.000000      4.110413000000000E-01      2.272168000000000E+01      2.423401000000000E-01      1.605312000000000E+02
4920000000.000000      4.119263000000000E-01      2.254199000000000E+01      2.378082000000000E-01      1.598672000000000E+02
4921000000.000000      4.117584000000000E-01      2.259668000000000E+01      2.346115000000000E-01      1.597656000000000E+02
4922000000.000000      4.122467000000000E-01      2.228125000000000E+01      2.302704000000000E-01      1.596250000000000E+02
4923000000.000000      4.109039000000000E-01      2.210547000000000E+01      2.267380000000000E-01      1.594297000000000E+02
4924000000.000000      4.107208000000000E-01      2.196387000000000E+01      2.228088000000000E-01      1.589687000000000E+02
4925000000.000000      4.098816000000000E-01      2.180859000000000E+01      2.198334000000000E-01      1.590000000000000E+02
4926000000.000000      4.108429000000000E-01      2.159277000000000E+01      2.154312000000000E-01      1.588047000000000E+02
4927000000.000000      4.098053000000000E-01      2.127148000000000E+01      2.115860000000000E-01      1.584375000000000E+02
4928000000.000000      4.104156000000000E-01      2.121973000000000E+01      2.080078000000000E-01      1.584063000000000E+02
4929000000.000000      4.097137000000000E-01      2.101465000000000E+01      2.040558000000000E-01      1.585312000000000E+02
4930000000.000000      4.091949000000000E-01      2.097754000000000E+01      2.000809000000000E-01      1.584453000000000E+02
4931000000.000000      4.096375000000000E-01      2.067187000000000E+01      1.963882000000000E-01      1.581484000000000E+02
4932000000.000000      4.089813000000000E-01      2.067969000000000E+01      1.920624000000000E-01      1.583437000000000E+02
4933000000.000000      4.083557000000000E-01      2.038281000000000E+01      1.878052000000000E-01      1.584141000000000E+02
4934000000.000000      4.087219000000000E-01      2.035058000000000E+01      1.844254000000000E-01      1.583516000000000E+02
4935000000.000000      4.097900000000000E-01      2.003027000000000E+01      1.811905000000000E-01      1.586016000000000E+02
4936000000.000000      4.074249000000000E-01      1.990723000000000E+01      1.772079000000000E-01      1.587188000000000E+02
4937000000.000000      4.084625000000000E-01      1.972656000000000E+01      1.731644000000000E-01      1.590234000000000E+02
4938000000.000000      4.070892000000000E-01      1.977344000000000E+01      1.694794000000000E-01      1.593203000000000E+02
4939000000.000000      4.072876000000000E-01      1.952051000000000E+01      1.653061000000000E-01      1.594453000000000E+02
4940000000.000000      4.079285000000000E-01      1.932129000000000E+01      1.618195000000000E-01      1.597969000000000E+02
4941000000.000000      4.079895000000000E-01      1.905078000000000E+01      1.585770000000000E-01      1.605000000000000E+02
4942000000.000000      4.066925000000000E-01      1.913672000000000E+01      1.545410000000000E-01      1.607969000000000E+02
4943000000.000000      4.069061000000000E-01      1.891211000000000E+01      1.511841000000000E-01      1.613203000000000E+02
4944000000.000000      4.059296000000000E-01      1.870898000000000E+01      1.478043000000000E-01      1.620000000000000E+02
4945000000.000000      4.061584000000000E-01      1.855859000000000E+01      1.442108000000000E-01      1.626328000000000E+02
4946000000.000000      4.057465000000000E-01      1.834570000000000E+01      1.409302000000000E-01      1.633984000000000E+02
4947000000.000000      4.062653000000000E-01      1.831640000000000E+01      1.375122000000000E-01      1.640859000000000E+02
4948000000.000000      4.055634000000000E-01      1.809082000000000E+01      1.347046000000000E-01      1.650547000000000E+02
4949000000.000000      4.053650000000000E-01      1.803125000000000E+01      1.319809000000000E-01      1.661953000000000E+02
4950000000.000000      4.048309000000000E-01      1.783887000000000E+01      1.289063000000000E-01      1.672734000000000E+02
4951000000.000000      4.042511000000000E-01      1.767969000000000E+01      1.264648000000000E-01      1.681953000000000E+02
4952000000.000000      4.049225000000000E-01      1.735059000000000E+01      1.233253000000000E-01      1.695781000000000E+02
4953000000.000000      4.036865000000000E-01      1.720508000000000E+01      1.216965000000000E-01      1.711797000000000E+02
4954000000.000000      4.039764000000000E-01      1.718359000000000E+01      1.193771000000000E-01      1.722891000000000E+02
