! Network Analyzer HP8722D
! Hewlett-Packard
! Data name: Linha & Wilkinson
! Saver's name: Rodrigo Anjos
! Comments: Teste da utilização de aquisição
continua pelo VNA HP8722D
! Time and date: 23/5/2025 09:38
!              Frequency                     S11                                                   S21                                                   S12                                                   S22
# HZ  S  MA R 50
4800000000.000000      3.220673000000000E-01      3.630468000000000E+01      4.656372000000000E-01     -1.269687000000000E+02
4801000000.000000      3.225708000000000E-01      3.660742000000000E+01      4.679413000000000E-01     -1.277383000000000E+02
4802000000.000000      3.235626000000000E-01      3.676172000000000E+01      4.679413000000000E-01     -1.284609000000000E+02
4803000000.000000      3.240204000000000E-01      3.688477000000000E+01      4.712830000000000E-01     -1.292891000000000E+02
4804000000.000000      3.252869000000000E-01      3.710546000000000E+01      4.719391000000000E-01     -1.300469000000000E+02
4805000000.000000      3.272095000000000E-01      3.718554000000000E+01      4.729919000000000E-01     -1.306641000000000E+02
4806000000.000000      3.272552000000000E-01      3.739453000000000E+01      4.758301000000000E-01     -1.313828000000000E+02
4807000000.000000      3.285370000000000E-01      3.745898000000000E+01      4.751587000000000E-01     -1.323516000000000E+02
4808000000.000000      3.289337000000000E-01      3.774023000000000E+01      4.777374000000000E-01     -1.328047000000000E+02
4809000000.000000      3.302765000000000E-01      3.800390000000000E+01      4.774780000000000E-01     -1.337422000000000E+02
4810000000.000000      3.313293000000000E-01      3.808008000000000E+01      4.795380000000000E-01     -1.343437000000000E+02
4811000000.000000      3.332672000000000E-01      3.817968000000000E+01      4.808655000000000E-01     -1.351641000000000E+02
4812000000.000000      3.356171000000000E-01      3.839844000000000E+01      4.807739000000000E-01     -1.357891000000000E+02
4813000000.000000      3.358307000000000E-01      3.847656000000000E+01      4.821014000000000E-01     -1.366484000000000E+02
4814000000.000000      3.365326000000000E-01      3.856836000000000E+01      4.838867000000000E-01     -1.370781000000000E+02
4815000000.000000      3.380890000000000E-01      3.866601000000000E+01      4.832153000000000E-01     -1.379453000000000E+02
4816000000.000000      3.403015000000000E-01      3.883594000000000E+01      4.845276000000000E-01     -1.386328000000000E+02
4817000000.000000      3.411713000000000E-01      3.890234000000000E+01      4.856567000000000E-01     -1.394766000000000E+02
4818000000.000000      3.427124000000000E-01      3.893750000000000E+01      4.846191000000000E-01     -1.402422000000000E+02
4819000000.000000      3.450317000000000E-01      3.900976000000000E+01      4.852753000000000E-01     -1.409922000000000E+02
4820000000.000000      3.451996000000000E-01      3.908594000000000E+01      4.849701000000000E-01     -1.414453000000000E+02
4821000000.000000      3.478088000000000E-01      3.917578000000000E+01      4.863281000000000E-01     -1.422734000000000E+02
4822000000.000000      3.479156000000000E-01      3.902148000000000E+01      4.850922000000000E-01     -1.430781000000000E+02
4823000000.000000      3.502808000000000E-01      3.909570000000000E+01      4.859467000000000E-01     -1.438828000000000E+02
4824000000.000000      3.520508000000000E-01      3.927539000000000E+01      4.845428000000000E-01     -1.444922000000000E+02
4825000000.000000      3.534851000000000E-01      3.916601000000000E+01      4.853973000000000E-01     -1.453516000000000E+02
4826000000.000000      3.551331000000000E-01      3.915234000000000E+01      4.854736000000000E-01     -1.460625000000000E+02
4827000000.000000      3.572540000000000E-01      3.912304000000000E+01      4.848175000000000E-01     -1.465937000000000E+02
4828000000.000000      3.591461000000000E-01      3.915234000000000E+01      4.844055000000000E-01     -1.475937000000000E+02
4829000000.000000      3.602448000000000E-01      3.927343000000000E+01      4.841156000000000E-01     -1.480469000000000E+02
4830000000.000000      3.625488000000000E-01      3.912500000000000E+01      4.837952000000000E-01     -1.489219000000000E+02
4831000000.000000      3.632813000000000E-01      3.902539000000000E+01      4.830322000000000E-01     -1.497266000000000E+02
4832000000.000000      3.654327000000000E-01      3.901367000000000E+01      4.822388000000000E-01     -1.502031000000000E+02
4833000000.000000      3.665161000000000E-01      3.893555000000000E+01      4.820557000000000E-01     -1.509297000000000E+02
4834000000.000000      3.684540000000000E-01      3.896093000000000E+01      4.812164000000000E-01     -1.518516000000000E+02
4835000000.000000      3.702393000000000E-01      3.871679000000000E+01      4.812317000000000E-01     -1.525781000000000E+02
4836000000.000000      3.722534000000000E-01      3.876562000000000E+01      4.789429000000000E-01     -1.532500000000000E+02
4837000000.000000      3.731232000000000E-01      3.873632000000000E+01      4.786835000000000E-01     -1.542500000000000E+02
4838000000.000000      3.737488000000000E-01      3.858789000000000E+01      4.776001000000000E-01     -1.545781000000000E+02
4839000000.000000      3.781738000000000E-01      3.847265000000000E+01      4.761658000000000E-01     -1.554453000000000E+02
4840000000.000000      3.786469000000000E-01      3.819726000000000E+01      4.757538000000000E-01     -1.560234000000000E+02
4841000000.000000      3.804169000000000E-01      3.822851000000000E+01      4.746857000000000E-01     -1.568125000000000E+02
4842000000.000000      3.818207000000000E-01      3.810351000000000E+01      4.744263000000000E-01     -1.575000000000000E+02
4843000000.000000      3.847961000000000E-01      3.779492000000000E+01      4.730072000000000E-01     -1.583281000000000E+02
4844000000.000000      3.855133000000000E-01      3.772461000000000E+01      4.699097000000000E-01     -1.589922000000000E+02
4845000000.000000      3.864899000000000E-01      3.770508000000000E+01      4.687195000000000E-01     -1.597344000000000E+02
4846000000.000000      3.884735000000000E-01      3.756445000000000E+01      4.678650000000000E-01     -1.603984000000000E+02
4847000000.000000      3.896484000000000E-01      3.738672000000000E+01      4.666138000000000E-01     -1.609453000000000E+02
4848000000.000000      3.911133000000000E-01      3.717773000000000E+01      4.639130000000000E-01     -1.617188000000000E+02
4849000000.000000      3.917084000000000E-01      3.696094000000000E+01      4.635925000000000E-01     -1.624063000000000E+02
4850000000.000000      3.936920000000000E-01      3.679296000000000E+01      4.600525000000000E-01     -1.632969000000000E+02
4851000000.000000      3.949127000000000E-01      3.679296000000000E+01      4.596252000000000E-01     -1.640156000000000E+02
4852000000.000000      3.968201000000000E-01      3.650976000000000E+01      4.573517000000000E-01     -1.647266000000000E+02
4853000000.000000      3.978729000000000E-01      3.641992000000000E+01      4.540863000000000E-01     -1.653672000000000E+02
4854000000.000000      3.990479000000000E-01      3.609961000000000E+01      4.530640000000000E-01     -1.663516000000000E+02
4855000000.000000      4.000397000000000E-01      3.593164000000000E+01      4.511719000000000E-01     -1.667969000000000E+02
4856000000.000000      4.013519000000000E-01      3.573437000000000E+01      4.491577000000000E-01     -1.675859000000000E+02
4857000000.000000      4.031982000000000E-01      3.550195000000000E+01      4.474182000000000E-01     -1.680547000000000E+02
4858000000.000000      4.035187000000000E-01      3.529492000000000E+01      4.448700000000000E-01     -1.688437000000000E+02
4859000000.000000      4.050293000000000E-01      3.511133000000000E+01      4.430695000000000E-01     -1.695547000000000E+02
4860000000.000000      4.054260000000000E-01      3.495117000000000E+01      4.412079000000000E-01     -1.703438000000000E+02
4861000000.000000      4.067535000000000E-01      3.473633000000000E+01      4.374084000000000E-01     -1.710078000000000E+02
4862000000.000000      4.070282000000000E-01      3.450586000000000E+01      4.353943000000000E-01     -1.716797000000000E+02
4863000000.000000      4.089661000000000E-01      3.440039000000000E+01      4.318542000000000E-01     -1.724297000000000E+02
4864000000.000000      4.099426000000000E-01      3.398242000000000E+01      4.302521000000000E-01     -1.731562000000000E+02
4865000000.000000      4.109039000000000E-01      3.384570000000000E+01      4.267426000000000E-01     -1.738672000000000E+02
4866000000.000000      4.119110000000000E-01      3.356445000000000E+01      4.228973000000000E-01     -1.743672000000000E+02
4867000000.000000      4.118042000000000E-01      3.335546000000000E+01      4.208527000000000E-01     -1.753203000000000E+02
4868000000.000000      4.132080000000000E-01      3.311132000000000E+01      4.176483000000000E-01     -1.759453000000000E+02
4869000000.000000      4.131012000000000E-01      3.297461000000000E+01      4.146423000000000E-01     -1.764688000000000E+02
4870000000.000000      4.145508000000000E-01      3.274609000000000E+01      4.109802000000000E-01     -1.769922000000000E+02
4871000000.000000      4.153290000000000E-01      3.244531000000000E+01      4.095001000000000E-01     -1.777266000000000E+02
4872000000.000000      4.172058000000000E-01      3.226367000000000E+01      4.054108000000000E-01     -1.781641000000000E+02
4873000000.000000      4.170380000000000E-01      3.209375000000000E+01      4.014435000000000E-01     -1.790078000000000E+02
4874000000.000000      4.171448000000000E-01      3.197656000000000E+01      3.977661000000000E-01     -1.796875000000000E+02
4875000000.000000      4.173889000000000E-01      3.154687000000000E+01      3.944092000000000E-01      1.798984000000000E+02
4876000000.000000      4.190369000000000E-01      3.145703000000000E+01      3.920746000000000E-01      1.790234000000000E+02
4877000000.000000      4.197998000000000E-01      3.103320000000000E+01      3.885193000000000E-01      1.785703000000000E+02
4878000000.000000      4.193878000000000E-01      3.079590000000000E+01      3.850098000000000E-01      1.782266000000000E+02
4879000000.000000      4.197083000000000E-01      3.074512000000000E+01      3.795319000000000E-01      1.776953000000000E+02
4880000000.000000      4.208527000000000E-01      3.039551000000000E+01      3.775940000000000E-01      1.769297000000000E+02
4881000000.000000      4.204865000000000E-01      3.026172000000000E+01      3.738251000000000E-01      1.765625000000000E+02
4882000000.000000      4.223938000000000E-01      3.003515000000000E+01      3.710632000000000E-01      1.758828000000000E+02
4883000000.000000      4.212189000000000E-01      2.982031000000000E+01      3.669586000000000E-01      1.753281000000000E+02
4884000000.000000      4.210663000000000E-01      2.964062000000000E+01      3.635712000000000E-01      1.748516000000000E+02
4885000000.000000      4.224243000000000E-01      2.937012000000000E+01      3.606262000000000E-01      1.745391000000000E+02
4886000000.000000      4.223175000000000E-01      2.914063000000000E+01      3.570557000000000E-01      1.739297000000000E+02
4887000000.000000      4.217529000000000E-01      2.883203000000000E+01      3.542328000000000E-01      1.733750000000000E+02
4888000000.000000      4.217987000000000E-01      2.856836000000000E+01      3.516541000000000E-01      1.728984000000000E+02
4889000000.000000      4.235687000000000E-01      2.840429000000000E+01      3.462524000000000E-01      1.725625000000000E+02
4890000000.000000      4.220428000000000E-01      2.823437000000000E+01      3.427734000000000E-01      1.717031000000000E+02
4891000000.000000      4.229736000000000E-01      2.805957000000000E+01      3.386383000000000E-01      1.714844000000000E+02
4892000000.000000      4.220276000000000E-01      2.767675000000000E+01      3.348541000000000E-01      1.710234000000000E+02
4893000000.000000      4.235077000000000E-01      2.754883000000000E+01      3.326569000000000E-01      1.704766000000000E+02
4894000000.000000      4.228516000000000E-01      2.746094000000000E+01      3.287811000000000E-01      1.702344000000000E+02
4895000000.000000      4.238434000000000E-01      2.718066000000000E+01      3.264465000000000E-01      1.698281000000000E+02
4896000000.000000      4.230194000000000E-01      2.694629000000000E+01      3.228760000000000E-01      1.692891000000000E+02
4897000000.000000      4.230652000000000E-01      2.680859000000000E+01      3.187408000000000E-01      1.688047000000000E+02
4898000000.000000      4.239502000000000E-01      2.656445000000000E+01      3.161926000000000E-01      1.685390000000000E+02
4899000000.000000      4.224396000000000E-01      2.625000000000000E+01      3.116913000000000E-01      1.679688000000000E+02
4900000000.000000      4.233093000000000E-01      2.609570000000000E+01      3.085327000000000E-01      1.676953000000000E+02
4901000000.000000      4.227600000000000E-01      2.586914000000000E+01      3.058624000000000E-01      1.673672000000000E+02
4902000000.000000      4.229126000000000E-01      2.580957000000000E+01      3.026123000000000E-01      1.668906000000000E+02
4903000000.000000      4.229889000000000E-01      2.558984000000000E+01      2.986908000000000E-01      1.664922000000000E+02
4904000000.000000      4.228516000000000E-01      2.536816000000000E+01      2.955475000000000E-01      1.660156000000000E+02
4905000000.000000      4.226685000000000E-01      2.518457000000000E+01      2.925415000000000E-01      1.657891000000000E+02
4906000000.000000      4.222412000000000E-01      2.492773000000000E+01      2.888489000000000E-01      1.656641000000000E+02
4907000000.000000      4.226074000000000E-01      2.484961000000000E+01      2.862091000000000E-01      1.650547000000000E+02
4908000000.000000      4.224701000000000E-01      2.451269000000000E+01      2.826538000000000E-01      1.644453000000000E+02
4909000000.000000      4.211426000000000E-01      2.449512000000000E+01      2.789612000000000E-01      1.643672000000000E+02
4910000000.000000      4.207611000000000E-01      2.431250000000000E+01      2.750854000000000E-01      1.638594000000000E+02
4911000000.000000      4.219513000000000E-01      2.408398000000000E+01      2.726135000000000E-01      1.635156000000000E+02
4912000000.000000      4.213715000000000E-01      2.395703000000000E+01      2.680969000000000E-01      1.630312000000000E+02
4913000000.000000      4.218903000000000E-01      2.376660000000000E+01      2.657776000000000E-01      1.626172000000000E+02
4914000000.000000      4.224701000000000E-01      2.347461000000000E+01      2.615662000000000E-01      1.625703000000000E+02
4915000000.000000      4.211426000000000E-01      2.344043000000000E+01      2.578278000000000E-01      1.620234000000000E+02
4916000000.000000      4.214325000000000E-01      2.319726000000000E+01      2.544556000000000E-01      1.617031000000000E+02
4917000000.000000      4.209595000000000E-01      2.304883000000000E+01      2.511444000000000E-01      1.614453000000000E+02
4918000000.000000      4.208069000000000E-01      2.291406000000000E+01      2.467575000000000E-01      1.610937000000000E+02
4919000000.000000      4.201050000000000E-01      2.276074000000000E+01      2.443542000000000E-01      1.609922000000000E+02
4920000000.000000      4.194183000000000E-01      2.261328000000000E+01      2.401657000000000E-01      1.604687000000000E+02
4921000000.000000      4.205627000000000E-01      2.252148000000000E+01      2.365570000000000E-01      1.603906000000000E+02
4922000000.000000      4.201660000000000E-01      2.225195000000000E+01      2.325058000000000E-01      1.600781000000000E+02
4923000000.000000      4.195557000000000E-01      2.210254000000000E+01      2.287064000000000E-01      1.597969000000000E+02
4924000000.000000      4.190826000000000E-01      2.196094000000000E+01      2.253265000000000E-01      1.595000000000000E+02
4925000000.000000      4.195709000000000E-01      2.172754000000000E+01      2.214890000000000E-01      1.593828000000000E+02
4926000000.000000      4.196014000000000E-01      2.163281000000000E+01      2.176208000000000E-01      1.591328000000000E+02
4927000000.000000      4.190674000000000E-01      2.145020000000000E+01      2.131958000000000E-01      1.588594000000000E+02
4928000000.000000      4.195251000000000E-01      2.126465000000000E+01      2.095871000000000E-01      1.586641000000000E+02
4929000000.000000      4.182434000000000E-01      2.104492000000000E+01      2.057190000000000E-01      1.587891000000000E+02
4930000000.000000      4.186401000000000E-01      2.090332000000000E+01      2.022171000000000E-01      1.585547000000000E+02
4931000000.000000      4.173737000000000E-01      2.079980000000000E+01      1.991043000000000E-01      1.585547000000000E+02
4932000000.000000      4.174652000000000E-01      2.057715000000000E+01      1.946030000000000E-01      1.584531000000000E+02
4933000000.000000      4.171600000000000E-01      2.039941000000000E+01      1.892090000000000E-01      1.587891000000000E+02
4934000000.000000      4.174042000000000E-01      2.022949000000000E+01      1.862640000000000E-01      1.584922000000000E+02
4935000000.000000      4.186554000000000E-01      2.006054000000000E+01      1.833649000000000E-01      1.586875000000000E+02
4936000000.000000      4.161530000000000E-01      1.999023000000000E+01      1.790695000000000E-01      1.588750000000000E+02
4937000000.000000      4.169159000000000E-01      1.981348000000000E+01      1.747665000000000E-01      1.589531000000000E+02
4938000000.000000      4.156189000000000E-01      1.974902000000000E+01      1.712112000000000E-01      1.591250000000000E+02
4939000000.000000      4.167480000000000E-01      1.952344000000000E+01      1.672058000000000E-01      1.595000000000000E+02
4940000000.000000      4.162598000000000E-01      1.934277000000000E+01      1.635742000000000E-01      1.595078000000000E+02
4941000000.000000      4.146423000000000E-01      1.909961000000000E+01      1.595154000000000E-01      1.599297000000000E+02
4942000000.000000      4.149628000000000E-01      1.908789000000000E+01      1.564636000000000E-01      1.604375000000000E+02
4943000000.000000      4.149170000000000E-01      1.899219000000000E+01      1.529236000000000E-01      1.609609000000000E+02
4944000000.000000      4.154968000000000E-01      1.882226000000000E+01      1.494064000000000E-01      1.615234000000000E+02
4945000000.000000      4.152985000000000E-01      1.852930000000000E+01      1.457291000000000E-01      1.620312000000000E+02
4946000000.000000      4.144440000000000E-01      1.835058000000000E+01      1.426315000000000E-01      1.627578000000000E+02
4947000000.000000      4.148102000000000E-01      1.831250000000000E+01      1.389465000000000E-01      1.634375000000000E+02
4948000000.000000      4.149017000000000E-01      1.819336000000000E+01      1.361618000000000E-01      1.642891000000000E+02
4949000000.000000      4.141998000000000E-01      1.789648000000000E+01      1.329803000000000E-01      1.655859000000000E+02
4950000000.000000      4.138794000000000E-01      1.788379000000000E+01      1.297531000000000E-01      1.664531000000000E+02
4951000000.000000      4.132843000000000E-01      1.769531000000000E+01      1.273499000000000E-01      1.674609000000000E+02
4952000000.000000      4.132538000000000E-01      1.746777000000000E+01      1.242447000000000E-01      1.685390000000000E+02
4953000000.000000      4.127350000000000E-01      1.739746000000000E+01      1.225815000000000E-01      1.699219000000000E+02
4954000000.000000      4.131470000000000E-01      1.729492000000000E+01      1.196823000000000E-01      1.711875000000000E+02
