! Network Analyzer HP8722D
! Hewlett-Packard
! Data name: Linha & Wilkinson
! Saver's name: Rodrigo Anjos
! Comments: Teste da utilização de aquisição
continua pelo VNA HP8722D
! Time and date: 23/5/2025 12:27
!              Frequency                     S11                                                   S21                                                   S12                                                   S22
# HZ  S  MA R 50
4800000000.000000      2.947388000000000E-01      3.891406000000000E+01      4.789276000000000E-01     -1.288984000000000E+02
4801000000.000000      2.949677000000000E-01      3.921484000000000E+01      4.805756000000000E-01     -1.295312000000000E+02
4802000000.000000      2.966766000000000E-01      3.939062000000000E+01      4.822540000000000E-01     -1.303203000000000E+02
4803000000.000000      2.969666000000000E-01      3.955859000000000E+01      4.843140000000000E-01     -1.308672000000000E+02
4804000000.000000      2.984161000000000E-01      3.984961000000000E+01      4.853668000000000E-01     -1.316406000000000E+02
4805000000.000000      3.005981000000000E-01      3.989648000000000E+01      4.877930000000000E-01     -1.325234000000000E+02
4806000000.000000      3.011932000000000E-01      4.008203000000000E+01      4.903717000000000E-01     -1.330937000000000E+02
4807000000.000000      3.019867000000000E-01      4.024804000000000E+01      4.902344000000000E-01     -1.340547000000000E+02
4808000000.000000      3.030243000000000E-01      4.043750000000000E+01      4.916229000000000E-01     -1.344922000000000E+02
4809000000.000000      3.046112000000000E-01      4.068749000000000E+01      4.923248000000000E-01     -1.355313000000000E+02
4810000000.000000      3.062897000000000E-01      4.078515000000000E+01      4.936523000000000E-01     -1.361328000000000E+02
4811000000.000000      3.082733000000000E-01      4.096875000000000E+01      4.945221000000000E-01     -1.368438000000000E+02
4812000000.000000      3.104095000000000E-01      4.111718000000000E+01      4.955597000000000E-01     -1.377812000000000E+02
4813000000.000000      3.108063000000000E-01      4.129492000000000E+01      4.966125000000000E-01     -1.384063000000000E+02
4814000000.000000      3.122711000000000E-01      4.120703000000000E+01      4.975281000000000E-01     -1.389453000000000E+02
4815000000.000000      3.139038000000000E-01      4.139062000000000E+01      4.972687000000000E-01     -1.397344000000000E+02
4816000000.000000      3.161011000000000E-01      4.154297000000000E+01      4.997559000000000E-01     -1.404531000000000E+02
4817000000.000000      3.175049000000000E-01      4.158593000000000E+01      4.996185000000000E-01     -1.412969000000000E+02
4818000000.000000      3.187561000000000E-01      4.161328000000000E+01      4.987946000000000E-01     -1.420938000000000E+02
4819000000.000000      3.208923000000000E-01      4.165039000000000E+01      5.000000000000000E-01     -1.428516000000000E+02
4820000000.000000      3.216248000000000E-01      4.173828000000000E+01      4.998474000000000E-01     -1.434453000000000E+02
4821000000.000000      3.246613000000000E-01      4.175781000000000E+01      5.014038000000000E-01     -1.441719000000000E+02
4822000000.000000      3.254089000000000E-01      4.164453000000000E+01      4.995575000000000E-01     -1.448984000000000E+02
4823000000.000000      3.274231000000000E-01      4.172071000000000E+01      5.006714000000000E-01     -1.457344000000000E+02
4824000000.000000      3.296356000000000E-01      4.180664000000000E+01      5.004883000000000E-01     -1.464922000000000E+02
4825000000.000000      3.314819000000000E-01      4.171875000000000E+01      4.985809000000000E-01     -1.470547000000000E+02
4826000000.000000      3.328094000000000E-01      4.171875000000000E+01      5.000610000000000E-01     -1.478672000000000E+02
4827000000.000000      3.345947000000000E-01      4.164453000000000E+01      4.990540000000000E-01     -1.484922000000000E+02
4828000000.000000      3.370056000000000E-01      4.159961000000000E+01      5.004578000000000E-01     -1.491797000000000E+02
4829000000.000000      3.387146000000000E-01      4.166016000000000E+01      4.984894000000000E-01     -1.499844000000000E+02
4830000000.000000      3.402252000000000E-01      4.141211000000000E+01      4.973907000000000E-01     -1.509844000000000E+02
4831000000.000000      3.417053000000000E-01      4.140625000000000E+01      4.978790000000000E-01     -1.516250000000000E+02
4832000000.000000      3.434448000000000E-01      4.138867000000000E+01      4.973755000000000E-01     -1.520234000000000E+02
4833000000.000000      3.448029000000000E-01      4.127734000000000E+01      4.965057000000000E-01     -1.530000000000000E+02
4834000000.000000      3.463440000000000E-01      4.123437000000000E+01      4.946289000000000E-01     -1.535625000000000E+02
4835000000.000000      3.488312000000000E-01      4.105078000000000E+01      4.949493000000000E-01     -1.544062000000000E+02
4836000000.000000      3.512115000000000E-01      4.105664000000000E+01      4.935150000000000E-01     -1.551250000000000E+02
4837000000.000000      3.514862000000000E-01      4.089648000000000E+01      4.927673000000000E-01     -1.558437000000000E+02
4838000000.000000      3.532257000000000E-01      4.073828000000000E+01      4.924622000000000E-01     -1.564062000000000E+02
4839000000.000000      3.567810000000000E-01      4.070117000000000E+01      4.914703000000000E-01     -1.570547000000000E+02
4840000000.000000      3.572540000000000E-01      4.033789000000000E+01      4.899750000000000E-01     -1.576406000000000E+02
4841000000.000000      3.586121000000000E-01      4.035937000000000E+01      4.890442000000000E-01     -1.586875000000000E+02
4842000000.000000      3.598938000000000E-01      4.012304000000000E+01      4.874725000000000E-01     -1.592187000000000E+02
4843000000.000000      3.630829000000000E-01      3.991796000000000E+01      4.872894000000000E-01     -1.600625000000000E+02
4844000000.000000      3.632813000000000E-01      3.976758000000000E+01      4.852295000000000E-01     -1.608125000000000E+02
4845000000.000000      3.653564000000000E-01      3.968359000000000E+01      4.837646000000000E-01     -1.614063000000000E+02
4846000000.000000      3.672943000000000E-01      3.945313000000000E+01      4.821930000000000E-01     -1.621797000000000E+02
4847000000.000000      3.686981000000000E-01      3.933789000000000E+01      4.801636000000000E-01     -1.626875000000000E+02
4848000000.000000      3.693542000000000E-01      3.915039000000000E+01      4.772339000000000E-01     -1.635781000000000E+02
4849000000.000000      3.713989000000000E-01      3.877344000000000E+01      4.766998000000000E-01     -1.641953000000000E+02
4850000000.000000      3.729401000000000E-01      3.856836000000000E+01      4.743805000000000E-01     -1.649531000000000E+02
4851000000.000000      3.742981000000000E-01      3.858203000000000E+01      4.746399000000000E-01     -1.656953000000000E+02
4852000000.000000      3.755493000000000E-01      3.832617000000000E+01      4.713593000000000E-01     -1.664844000000000E+02
4853000000.000000      3.771820000000000E-01      3.820703000000000E+01      4.670258000000000E-01     -1.668828000000000E+02
4854000000.000000      3.782654000000000E-01      3.787500000000000E+01      4.666290000000000E-01     -1.680391000000000E+02
4855000000.000000      3.791656000000000E-01      3.769726000000000E+01      4.642029000000000E-01     -1.684922000000000E+02
4856000000.000000      3.802032000000000E-01      3.750000000000000E+01      4.613190000000000E-01     -1.692578000000000E+02
4857000000.000000      3.820648000000000E-01      3.725976000000000E+01      4.604187000000000E-01     -1.698672000000000E+02
4858000000.000000      3.821716000000000E-01      3.689844000000000E+01      4.576111000000000E-01     -1.706328000000000E+02
4859000000.000000      3.837433000000000E-01      3.669140000000000E+01      4.550781000000000E-01     -1.712812000000000E+02
4860000000.000000      3.849487000000000E-01      3.661523000000000E+01      4.516144000000000E-01     -1.719844000000000E+02
4861000000.000000      3.857727000000000E-01      3.633789000000000E+01      4.492493000000000E-01     -1.726328000000000E+02
4862000000.000000      3.861389000000000E-01      3.598828000000000E+01      4.470825000000000E-01     -1.733594000000000E+02
4863000000.000000      3.877869000000000E-01      3.586914000000000E+01      4.438629000000000E-01     -1.742500000000000E+02
4864000000.000000      3.885193000000000E-01      3.548828000000000E+01      4.420319000000000E-01     -1.745391000000000E+02
4865000000.000000      3.889465000000000E-01      3.517383000000000E+01      4.382935000000000E-01     -1.750781000000000E+02
4866000000.000000      3.905182000000000E-01      3.497656000000000E+01      4.349976000000000E-01     -1.760000000000000E+02
4867000000.000000      3.899689000000000E-01      3.475000000000000E+01      4.323883000000000E-01     -1.768672000000000E+02
4868000000.000000      3.918304000000000E-01      3.450195000000000E+01      4.279175000000000E-01     -1.773359000000000E+02
4869000000.000000      3.925171000000000E-01      3.431836000000000E+01      4.273987000000000E-01     -1.780781000000000E+02
4870000000.000000      3.927460000000000E-01      3.404882000000000E+01      4.228058000000000E-01     -1.784609000000000E+02
4871000000.000000      3.935242000000000E-01      3.368359000000000E+01      4.206390000000000E-01     -1.793203000000000E+02
4872000000.000000      3.951721000000000E-01      3.358789000000000E+01      4.165497000000000E-01     -1.798281000000000E+02
4873000000.000000      3.952637000000000E-01      3.328125000000000E+01      4.132843000000000E-01      1.796016000000000E+02
4874000000.000000      3.954315000000000E-01      3.297656000000000E+01      4.098511000000000E-01      1.788828000000000E+02
4875000000.000000      3.953857000000000E-01      3.265820000000000E+01      4.054413000000000E-01      1.784219000000000E+02
4876000000.000000      3.967590000000000E-01      3.253320000000000E+01      4.037476000000000E-01      1.778906000000000E+02
4877000000.000000      3.973846000000000E-01      3.204883000000000E+01      3.995056000000000E-01      1.771172000000000E+02
4878000000.000000      3.974304000000000E-01      3.199316000000000E+01      3.971710000000000E-01      1.764219000000000E+02
4879000000.000000      3.985443000000000E-01      3.182519000000000E+01      3.914948000000000E-01      1.760703000000000E+02
4880000000.000000      3.981171000000000E-01      3.131738000000000E+01      3.892059000000000E-01      1.755469000000000E+02
4881000000.000000      3.982086000000000E-01      3.122168000000000E+01      3.850403000000000E-01      1.748125000000000E+02
4882000000.000000      3.994293000000000E-01      3.098242000000000E+01      3.820496000000000E-01      1.743750000000000E+02
4883000000.000000      3.989563000000000E-01      3.059473000000000E+01      3.789063000000000E-01      1.738672000000000E+02
4884000000.000000      4.000244000000000E-01      3.065136000000000E+01      3.741302000000000E-01      1.731641000000000E+02
4885000000.000000      3.993530000000000E-01      3.022558000000000E+01      3.718719000000000E-01      1.730312000000000E+02
4886000000.000000      3.998566000000000E-01      3.008984000000000E+01      3.687744000000000E-01      1.726719000000000E+02
4887000000.000000      3.994904000000000E-01      2.981543000000000E+01      3.643799000000000E-01      1.718984000000000E+02
4888000000.000000      3.998413000000000E-01      2.940039000000000E+01      3.616180000000000E-01      1.712578000000000E+02
4889000000.000000      4.000244000000000E-01      2.918457000000000E+01      3.565216000000000E-01      1.711875000000000E+02
4890000000.000000      3.997345000000000E-01      2.890137000000000E+01      3.538208000000000E-01      1.701641000000000E+02
4891000000.000000      4.001617000000000E-01      2.873242000000000E+01      3.511047000000000E-01      1.698750000000000E+02
4892000000.000000      4.002991000000000E-01      2.856836000000000E+01      3.465576000000000E-01      1.696953000000000E+02
4893000000.000000      4.007721000000000E-01      2.829785000000000E+01      3.430634000000000E-01      1.690469000000000E+02
4894000000.000000      3.997650000000000E-01      2.823535000000000E+01      3.402557000000000E-01      1.686328000000000E+02
4895000000.000000      4.008942000000000E-01      2.780468000000000E+01      3.364563000000000E-01      1.682891000000000E+02
4896000000.000000      4.001923000000000E-01      2.759570000000000E+01      3.328552000000000E-01      1.679062000000000E+02
4897000000.000000      3.988647000000000E-01      2.739941000000000E+01      3.299713000000000E-01      1.673281000000000E+02
4898000000.000000      4.001312000000000E-01      2.730469000000000E+01      3.271027000000000E-01      1.667891000000000E+02
4899000000.000000      3.999023000000000E-01      2.701660000000000E+01      3.218079000000000E-01      1.664766000000000E+02
4900000000.000000      3.991547000000000E-01      2.669922000000000E+01      3.194275000000000E-01      1.663281000000000E+02
4901000000.000000      3.994293000000000E-01      2.660547000000000E+01      3.171234000000000E-01      1.657344000000000E+02
4902000000.000000      3.991394000000000E-01      2.624414000000000E+01      3.134613000000000E-01      1.656016000000000E+02
4903000000.000000      3.991241000000000E-01      2.618164000000000E+01      3.088989000000000E-01      1.652734000000000E+02
4904000000.000000      3.993378000000000E-01      2.587500000000000E+01      3.054047000000000E-01      1.646797000000000E+02
4905000000.000000      3.984680000000000E-01      2.572558000000000E+01      3.033447000000000E-01      1.641641000000000E+02
4906000000.000000      3.990326000000000E-01      2.554004000000000E+01      2.989960000000000E-01      1.640000000000000E+02
4907000000.000000      3.984680000000000E-01      2.530762000000000E+01      2.954865000000000E-01      1.635625000000000E+02
4908000000.000000      3.984680000000000E-01      2.516211000000000E+01      2.926178000000000E-01      1.629453000000000E+02
4909000000.000000      3.971710000000000E-01      2.494922000000000E+01      2.889862000000000E-01      1.626797000000000E+02
4910000000.000000      3.965149000000000E-01      2.483105000000000E+01      2.857361000000000E-01      1.622969000000000E+02
4911000000.000000      3.977203000000000E-01      2.469824000000000E+01      2.813110000000000E-01      1.620391000000000E+02
4912000000.000000      3.973541000000000E-01      2.454297000000000E+01      2.783508000000000E-01      1.615078000000000E+02
4913000000.000000      3.973083000000000E-01      2.409277000000000E+01      2.745514000000000E-01      1.612500000000000E+02
4914000000.000000      3.972321000000000E-01      2.392773000000000E+01      2.714386000000000E-01      1.609297000000000E+02
4915000000.000000      3.964996000000000E-01      2.388379000000000E+01      2.673950000000000E-01      1.604609000000000E+02
4916000000.000000      3.965149000000000E-01      2.361914000000000E+01      2.642670000000000E-01      1.601094000000000E+02
4917000000.000000      3.956451000000000E-01      2.348145000000000E+01      2.603149000000000E-01      1.598594000000000E+02
4918000000.000000      3.951416000000000E-01      2.322754000000000E+01      2.565308000000000E-01      1.593906000000000E+02
4919000000.000000      3.952026000000000E-01      2.314258000000000E+01      2.531281000000000E-01      1.594219000000000E+02
4920000000.000000      3.962555000000000E-01      2.299511000000000E+01      2.490845000000000E-01      1.587969000000000E+02
4921000000.000000      3.942413000000000E-01      2.287402000000000E+01      2.453232000000000E-01      1.586719000000000E+02
4922000000.000000      3.943787000000000E-01      2.254395000000000E+01      2.417068000000000E-01      1.583672000000000E+02
4923000000.000000      3.949127000000000E-01      2.254101000000000E+01      2.370529000000000E-01      1.583594000000000E+02
4924000000.000000      3.944244000000000E-01      2.225390000000000E+01      2.335358000000000E-01      1.578203000000000E+02
4925000000.000000      3.944092000000000E-01      2.201660000000000E+01      2.299652000000000E-01      1.576562000000000E+02
4926000000.000000      3.938446000000000E-01      2.192969000000000E+01      2.254791000000000E-01      1.575938000000000E+02
4927000000.000000      3.936005000000000E-01      2.162207000000000E+01      2.213058000000000E-01      1.573437000000000E+02
4928000000.000000      3.940430000000000E-01      2.144922000000000E+01      2.176743000000000E-01      1.571640000000000E+02
4929000000.000000      3.926697000000000E-01      2.136523000000000E+01      2.131348000000000E-01      1.572813000000000E+02
4930000000.000000      3.928680000000000E-01      2.124023000000000E+01      2.100983000000000E-01      1.568281000000000E+02
4931000000.000000      3.923340000000000E-01      2.097754000000000E+01      2.060394000000000E-01      1.568125000000000E+02
4932000000.000000      3.921967000000000E-01      2.079980000000000E+01      2.018280000000000E-01      1.566641000000000E+02
4933000000.000000      3.917084000000000E-01      2.071191000000000E+01      1.972046000000000E-01      1.567969000000000E+02
4934000000.000000      3.924408000000000E-01      2.054004000000000E+01      1.933136000000000E-01      1.567578000000000E+02
4935000000.000000      3.924255000000000E-01      2.035449000000000E+01      1.900864000000000E-01      1.569453000000000E+02
4936000000.000000      3.909912000000000E-01      2.025097000000000E+01      1.858215000000000E-01      1.570703000000000E+02
4937000000.000000      3.919067000000000E-01      2.003418000000000E+01      1.820755000000000E-01      1.569687000000000E+02
4938000000.000000      3.902435000000000E-01      1.997656000000000E+01      1.777115000000000E-01      1.573203000000000E+02
4939000000.000000      3.901978000000000E-01      1.984082000000000E+01      1.742096000000000E-01      1.576172000000000E+02
4940000000.000000      3.909454000000000E-01      1.946875000000000E+01      1.698380000000000E-01      1.579375000000000E+02
4941000000.000000      3.901520000000000E-01      1.943457000000000E+01      1.662750000000000E-01      1.581406000000000E+02
4942000000.000000      3.893280000000000E-01      1.919629000000000E+01      1.622391000000000E-01      1.586094000000000E+02
4943000000.000000      3.894958000000000E-01      1.911719000000000E+01      1.585236000000000E-01      1.588984000000000E+02
4944000000.000000      3.888550000000000E-01      1.887793000000000E+01      1.550217000000000E-01      1.596250000000000E+02
4945000000.000000      3.891296000000000E-01      1.859766000000000E+01      1.509247000000000E-01      1.602578000000000E+02
4946000000.000000      3.886719000000000E-01      1.853027000000000E+01      1.481094000000000E-01      1.608672000000000E+02
4947000000.000000      3.885803000000000E-01      1.843066000000000E+01      1.442261000000000E-01      1.616172000000000E+02
4948000000.000000      3.875732000000000E-01      1.813281000000000E+01      1.411362000000000E-01      1.624063000000000E+02
4949000000.000000      3.875427000000000E-01      1.811328000000000E+01      1.381073000000000E-01      1.635469000000000E+02
4950000000.000000      3.875122000000000E-01      1.798047000000000E+01      1.351013000000000E-01      1.642422000000000E+02
4951000000.000000      3.870697000000000E-01      1.774219000000000E+01      1.322861000000000E-01      1.651953000000000E+02
4952000000.000000      3.864594000000000E-01      1.749121000000000E+01      1.293411000000000E-01      1.663984000000000E+02
4953000000.000000      3.868256000000000E-01      1.735352000000000E+01      1.265869000000000E-01      1.677813000000000E+02
4954000000.000000      3.868103000000000E-01      1.720996000000000E+01      1.240578000000000E-01      1.693125000000000E+02
