! Network Analyzer HP8722D
! Hewlett-Packard
! Data name: Linha & Wilkinson
! Saver's name: Rodrigo Anjos
! Comments: Teste da utilização de aquisição
continua pelo VNA HP8722D
! Time and date: 23/5/2025 15:53
!              Frequency                     S11                                                   S21                                                   S12                                                   S22
# HZ  S  MA R 50
4800000000.000000      2.798157000000000E-01      4.042382000000000E+01      4.888611000000000E-01     -1.299141000000000E+02
4801000000.000000      2.808228000000000E-01      4.072266000000000E+01      4.902344000000000E-01     -1.306641000000000E+02
4802000000.000000      2.822418000000000E-01      4.097265000000000E+01      4.907227000000000E-01     -1.314844000000000E+02
4803000000.000000      2.832947000000000E-01      4.110547000000000E+01      4.944153000000000E-01     -1.321094000000000E+02
4804000000.000000      2.845764000000000E-01      4.144336000000000E+01      4.943542000000000E-01     -1.328594000000000E+02
4805000000.000000      2.866211000000000E-01      4.141211000000000E+01      4.976196000000000E-01     -1.334531000000000E+02
4806000000.000000      2.869873000000000E-01      4.157617000000000E+01      4.974976000000000E-01     -1.342500000000000E+02
4807000000.000000      2.889557000000000E-01      4.184960000000000E+01      5.000916000000000E-01     -1.350000000000000E+02
4808000000.000000      2.899017000000000E-01      4.205664000000000E+01      5.019226000000000E-01     -1.355859000000000E+02
4809000000.000000      2.917175000000000E-01      4.220508000000000E+01      5.024719000000000E-01     -1.366562000000000E+02
4810000000.000000      2.931061000000000E-01      4.240039000000000E+01      5.023804000000000E-01     -1.370703000000000E+02
4811000000.000000      2.952271000000000E-01      4.253515000000000E+01      5.055847000000000E-01     -1.381094000000000E+02
4812000000.000000      2.972107000000000E-01      4.266797000000000E+01      5.057678000000000E-01     -1.387344000000000E+02
4813000000.000000      2.982941000000000E-01      4.285937000000000E+01      5.043945000000000E-01     -1.394453000000000E+02
4814000000.000000      2.993317000000000E-01      4.284765000000000E+01      5.072937000000000E-01     -1.400469000000000E+02
4815000000.000000      3.011017000000000E-01      4.295703000000000E+01      5.063477000000000E-01     -1.409375000000000E+02
4816000000.000000      3.037109000000000E-01      4.306054000000000E+01      5.088501000000000E-01     -1.416406000000000E+02
4817000000.000000      3.049316000000000E-01      4.315039000000000E+01      5.077515000000000E-01     -1.423672000000000E+02
4818000000.000000      3.061981000000000E-01      4.313477000000000E+01      5.081787000000000E-01     -1.429922000000000E+02
4819000000.000000      3.086700000000000E-01      4.315430000000000E+01      5.079956000000000E-01     -1.438750000000000E+02
4820000000.000000      3.097992000000000E-01      4.321875000000000E+01      5.093079000000000E-01     -1.443438000000000E+02
4821000000.000000      3.125458000000000E-01      4.318359000000000E+01      5.093689000000000E-01     -1.453359000000000E+02
4822000000.000000      3.135223000000000E-01      4.309960000000000E+01      5.093079000000000E-01     -1.459922000000000E+02
4823000000.000000      3.155365000000000E-01      4.313477000000000E+01      5.107727000000000E-01     -1.467500000000000E+02
4824000000.000000      3.183899000000000E-01      4.326367000000000E+01      5.090637000000000E-01     -1.476172000000000E+02
4825000000.000000      3.197784000000000E-01      4.307031000000000E+01      5.073547000000000E-01     -1.480781000000000E+02
4826000000.000000      3.218994000000000E-01      4.300977000000000E+01      5.080872000000000E-01     -1.489766000000000E+02
4827000000.000000      3.231201000000000E-01      4.306054000000000E+01      5.082092000000000E-01     -1.495547000000000E+02
4828000000.000000      3.253479000000000E-01      4.304296000000000E+01      5.089722000000000E-01     -1.504375000000000E+02
4829000000.000000      3.265839000000000E-01      4.300977000000000E+01      5.084229000000000E-01     -1.510234000000000E+02
4830000000.000000      3.287506000000000E-01      4.283593000000000E+01      5.068054000000000E-01     -1.520156000000000E+02
4831000000.000000      3.304291000000000E-01      4.286523000000000E+01      5.056763000000000E-01     -1.524844000000000E+02
4832000000.000000      3.324738000000000E-01      4.282617000000000E+01      5.055542000000000E-01     -1.531641000000000E+02
4833000000.000000      3.334503000000000E-01      4.262109000000000E+01      5.033875000000000E-01     -1.539141000000000E+02
4834000000.000000      3.356628000000000E-01      4.251953000000000E+01      5.039368000000000E-01     -1.545859000000000E+02
4835000000.000000      3.381653000000000E-01      4.233594000000000E+01      5.032043000000000E-01     -1.553203000000000E+02
4836000000.000000      3.394165000000000E-01      4.218750000000000E+01      5.014954000000000E-01     -1.561953000000000E+02
4837000000.000000      3.405762000000000E-01      4.218750000000000E+01      5.003967000000000E-01     -1.569453000000000E+02
4838000000.000000      3.419952000000000E-01      4.187696000000000E+01      4.996643000000000E-01     -1.574844000000000E+02
4839000000.000000      3.456726000000000E-01      4.178515000000000E+01      4.986420000000000E-01     -1.582422000000000E+02
4840000000.000000      3.462524000000000E-01      4.159765000000000E+01      4.981384000000000E-01     -1.589687000000000E+02
4841000000.000000      3.480072000000000E-01      4.149804000000000E+01      4.960022000000000E-01     -1.597500000000000E+02
4842000000.000000      3.493042000000000E-01      4.129296000000000E+01      4.941711000000000E-01     -1.603359000000000E+02
4843000000.000000      3.517914000000000E-01      4.095312000000000E+01      4.943695000000000E-01     -1.612813000000000E+02
4844000000.000000      3.528595000000000E-01      4.081445000000000E+01      4.913177000000000E-01     -1.618125000000000E+02
4845000000.000000      3.546143000000000E-01      4.085742000000000E+01      4.913330000000000E-01     -1.625313000000000E+02
4846000000.000000      3.558197000000000E-01      4.050781000000000E+01      4.895325000000000E-01     -1.633750000000000E+02
4847000000.000000      3.573761000000000E-01      4.042969000000000E+01      4.878235000000000E-01     -1.638750000000000E+02
4848000000.000000      3.584900000000000E-01      4.009570000000000E+01      4.855194000000000E-01     -1.646250000000000E+02
4849000000.000000      3.601074000000000E-01      3.980664000000000E+01      4.838104000000000E-01     -1.653203000000000E+02
4850000000.000000      3.612518000000000E-01      3.972070000000000E+01      4.808807000000000E-01     -1.660547000000000E+02
4851000000.000000      3.629913000000000E-01      3.959179000000000E+01      4.798279000000000E-01     -1.668906000000000E+02
4852000000.000000      3.648529000000000E-01      3.933203000000000E+01      4.787292000000000E-01     -1.673281000000000E+02
4853000000.000000      3.655853000000000E-01      3.905859000000000E+01      4.745178000000000E-01     -1.681328000000000E+02
4854000000.000000      3.670349000000000E-01      3.858593000000000E+01      4.732819000000000E-01     -1.689609000000000E+02
4855000000.000000      3.682098000000000E-01      3.849804000000000E+01      4.705658000000000E-01     -1.695313000000000E+02
4856000000.000000      3.693390000000000E-01      3.828516000000000E+01      4.680328000000000E-01     -1.702109000000000E+02
4857000000.000000      3.705444000000000E-01      3.804883000000000E+01      4.678497000000000E-01     -1.709141000000000E+02
4858000000.000000      3.714294000000000E-01      3.772265000000000E+01      4.639893000000000E-01     -1.715312000000000E+02
4859000000.000000      3.730164000000000E-01      3.743359000000000E+01      4.626465000000000E-01     -1.723672000000000E+02
4860000000.000000      3.735657000000000E-01      3.733984000000000E+01      4.591980000000000E-01     -1.728750000000000E+02
4861000000.000000      3.747711000000000E-01      3.705273000000000E+01      4.570160000000000E-01     -1.737656000000000E+02
4862000000.000000      3.751984000000000E-01      3.681055000000000E+01      4.556885000000000E-01     -1.741641000000000E+02
4863000000.000000      3.753204000000000E-01      3.661133000000000E+01      4.500275000000000E-01     -1.750625000000000E+02
4864000000.000000      3.770447000000000E-01      3.618555000000000E+01      4.495087000000000E-01     -1.755781000000000E+02
4865000000.000000      3.778229000000000E-01      3.588867000000000E+01      4.443359000000000E-01     -1.762344000000000E+02
4866000000.000000      3.782349000000000E-01      3.562695000000000E+01      4.415283000000000E-01     -1.770469000000000E+02
4867000000.000000      3.792419000000000E-01      3.550000000000000E+01      4.398651000000000E-01     -1.775781000000000E+02
4868000000.000000      3.801575000000000E-01      3.508203000000000E+01      4.358063000000000E-01     -1.784688000000000E+02
4869000000.000000      3.805084000000000E-01      3.487695000000000E+01      4.320679000000000E-01     -1.790625000000000E+02
4870000000.000000      3.815918000000000E-01      3.466797000000000E+01      4.305878000000000E-01     -1.795391000000000E+02
4871000000.000000      3.817444000000000E-01      3.419140000000000E+01      4.263306000000000E-01      1.797266000000000E+02
4872000000.000000      3.832855000000000E-01      3.396875000000000E+01      4.231567000000000E-01      1.792422000000000E+02
4873000000.000000      3.829498000000000E-01      3.383789000000000E+01      4.199677000000000E-01      1.786562000000000E+02
4874000000.000000      3.836823000000000E-01      3.353320000000000E+01      4.160309000000000E-01      1.779219000000000E+02
4875000000.000000      3.841248000000000E-01      3.327343000000000E+01      4.128876000000000E-01      1.774141000000000E+02
4876000000.000000      3.847809000000000E-01      3.316992000000000E+01      4.095306000000000E-01      1.770234000000000E+02
4877000000.000000      3.854523000000000E-01      3.258203000000000E+01      4.058990000000000E-01      1.761016000000000E+02
4878000000.000000      3.847961000000000E-01      3.241211000000000E+01      4.024811000000000E-01      1.756094000000000E+02
4879000000.000000      3.862915000000000E-01      3.217578000000000E+01      3.982697000000000E-01      1.753047000000000E+02
4880000000.000000      3.868103000000000E-01      3.189258000000000E+01      3.955994000000000E-01      1.746016000000000E+02
4881000000.000000      3.865051000000000E-01      3.173340000000000E+01      3.919678000000000E-01      1.740234000000000E+02
4882000000.000000      3.868256000000000E-01      3.151562000000000E+01      3.893127000000000E-01      1.734609000000000E+02
4883000000.000000      3.866272000000000E-01      3.108691000000000E+01      3.827667000000000E-01      1.729766000000000E+02
4884000000.000000      3.872070000000000E-01      3.097265000000000E+01      3.806000000000000E-01      1.725078000000000E+02
4885000000.000000      3.878326000000000E-01      3.071289000000000E+01      3.779907000000000E-01      1.723359000000000E+02
4886000000.000000      3.874664000000000E-01      3.044531000000000E+01      3.740234000000000E-01      1.716172000000000E+02
4887000000.000000      3.877258000000000E-01      3.003711000000000E+01      3.716736000000000E-01      1.709297000000000E+02
4888000000.000000      3.876801000000000E-01      2.986035000000000E+01      3.684998000000000E-01      1.706953000000000E+02
4889000000.000000      3.872833000000000E-01      2.966797000000000E+01      3.617249000000000E-01      1.702344000000000E+02
4890000000.000000      3.872986000000000E-01      2.944433000000000E+01      3.587494000000000E-01      1.694687000000000E+02
4891000000.000000      3.871002000000000E-01      2.914453000000000E+01      3.546906000000000E-01      1.691328000000000E+02
4892000000.000000      3.865967000000000E-01      2.888574000000000E+01      3.518982000000000E-01      1.688672000000000E+02
4893000000.000000      3.875275000000000E-01      2.862988000000000E+01      3.495331000000000E-01      1.681250000000000E+02
4894000000.000000      3.866272000000000E-01      2.850098000000000E+01      3.431091000000000E-01      1.678750000000000E+02
4895000000.000000      3.885345000000000E-01      2.821289000000000E+01      3.424225000000000E-01      1.675469000000000E+02
4896000000.000000      3.876801000000000E-01      2.798828000000000E+01      3.385925000000000E-01      1.670156000000000E+02
4897000000.000000      3.868408000000000E-01      2.767578000000000E+01      3.329773000000000E-01      1.666563000000000E+02
4898000000.000000      3.871002000000000E-01      2.756250000000000E+01      3.315582000000000E-01      1.663125000000000E+02
4899000000.000000      3.866730000000000E-01      2.716504000000000E+01      3.282166000000000E-01      1.656875000000000E+02
4900000000.000000      3.861694000000000E-01      2.698925000000000E+01      3.247833000000000E-01      1.653672000000000E+02
4901000000.000000      3.864899000000000E-01      2.678125000000000E+01      3.207397000000000E-01      1.651250000000000E+02
4902000000.000000      3.866425000000000E-01      2.658886000000000E+01      3.183441000000000E-01      1.646016000000000E+02
4903000000.000000      3.865204000000000E-01      2.639941000000000E+01      3.136597000000000E-01      1.642187000000000E+02
4904000000.000000      3.857880000000000E-01      2.619141000000000E+01      3.099823000000000E-01      1.638906000000000E+02
4905000000.000000      3.852081000000000E-01      2.591992000000000E+01      3.075562000000000E-01      1.632891000000000E+02
4906000000.000000      3.851929000000000E-01      2.554785000000000E+01      3.033752000000000E-01      1.633047000000000E+02
4907000000.000000      3.853912000000000E-01      2.546289000000000E+01      3.010254000000000E-01      1.626094000000000E+02
4908000000.000000      3.859100000000000E-01      2.524609000000000E+01      2.970123000000000E-01      1.621172000000000E+02
4909000000.000000      3.836517000000000E-01      2.512012000000000E+01      2.937317000000000E-01      1.620156000000000E+02
4910000000.000000      3.838348000000000E-01      2.496094000000000E+01      2.897491000000000E-01      1.615703000000000E+02
4911000000.000000      3.839874000000000E-01      2.484961000000000E+01      2.870636000000000E-01      1.611875000000000E+02
4912000000.000000      3.836060000000000E-01      2.463476000000000E+01      2.830811000000000E-01      1.608438000000000E+02
4913000000.000000      3.833923000000000E-01      2.428906000000000E+01      2.799072000000000E-01      1.603594000000000E+02
4914000000.000000      3.829346000000000E-01      2.419043000000000E+01      2.752991000000000E-01      1.602969000000000E+02
4915000000.000000      3.835754000000000E-01      2.395117000000000E+01      2.718964000000000E-01      1.597500000000000E+02
4916000000.000000      3.826141000000000E-01      2.362109000000000E+01      2.683868000000000E-01      1.593047000000000E+02
4917000000.000000      3.830414000000000E-01      2.362305000000000E+01      2.642212000000000E-01      1.590859000000000E+02
4918000000.000000      3.821259000000000E-01      2.328320000000000E+01      2.597809000000000E-01      1.586719000000000E+02
4919000000.000000      3.818665000000000E-01      2.323535000000000E+01      2.568665000000000E-01      1.586172000000000E+02
4920000000.000000      3.817139000000000E-01      2.306641000000000E+01      2.527771000000000E-01      1.578984000000000E+02
4921000000.000000      3.812103000000000E-01      2.288965000000000E+01      2.493057000000000E-01      1.578359000000000E+02
4922000000.000000      3.816071000000000E-01      2.266602000000000E+01      2.452469000000000E-01      1.577656000000000E+02
4923000000.000000      3.806763000000000E-01      2.245019000000000E+01      2.408218000000000E-01      1.574687000000000E+02
4924000000.000000      3.812408000000000E-01      2.238574000000000E+01      2.367630000000000E-01      1.571719000000000E+02
4925000000.000000      3.802795000000000E-01      2.207422000000000E+01      2.331619000000000E-01      1.567812000000000E+02
4926000000.000000      3.801422000000000E-01      2.195703000000000E+01      2.295837000000000E-01      1.567500000000000E+02
4927000000.000000      3.797913000000000E-01      2.169043000000000E+01      2.250290000000000E-01      1.564062000000000E+02
4928000000.000000      3.807220000000000E-01      2.155566000000000E+01      2.211380000000000E-01      1.563672000000000E+02
4929000000.000000      3.777618000000000E-01      2.147949000000000E+01      2.168121000000000E-01      1.562422000000000E+02
4930000000.000000      3.795013000000000E-01      2.129492000000000E+01      2.132111000000000E-01      1.562031000000000E+02
4931000000.000000      3.786774000000000E-01      2.093652000000000E+01      2.095261000000000E-01      1.561250000000000E+02
4932000000.000000      3.783417000000000E-01      2.081738000000000E+01      2.048950000000000E-01      1.560313000000000E+02
4933000000.000000      3.783875000000000E-01      2.057324000000000E+01      2.002869000000000E-01      1.561016000000000E+02
4934000000.000000      3.780975000000000E-01      2.050097000000000E+01      1.970749000000000E-01      1.558359000000000E+02
4935000000.000000      3.788757000000000E-01      2.039063000000000E+01      1.929932000000000E-01      1.562266000000000E+02
4936000000.000000      3.773346000000000E-01      2.014843000000000E+01      1.884460000000000E-01      1.562813000000000E+02
4937000000.000000      3.775330000000000E-01      1.988183000000000E+01      1.849518000000000E-01      1.563594000000000E+02
4938000000.000000      3.763580000000000E-01      1.989844000000000E+01      1.805420000000000E-01      1.565625000000000E+02
4939000000.000000      3.765717000000000E-01      1.969531000000000E+01      1.768112000000000E-01      1.567344000000000E+02
4940000000.000000      3.765259000000000E-01      1.948828000000000E+01      1.726608000000000E-01      1.569766000000000E+02
4941000000.000000      3.766632000000000E-01      1.943457000000000E+01      1.684341000000000E-01      1.574062000000000E+02
4942000000.000000      3.752747000000000E-01      1.916406000000000E+01      1.650391000000000E-01      1.578281000000000E+02
4943000000.000000      3.751373000000000E-01      1.897461000000000E+01      1.612930000000000E-01      1.584297000000000E+02
4944000000.000000      3.752747000000000E-01      1.872949000000000E+01      1.578903000000000E-01      1.587422000000000E+02
4945000000.000000      3.746490000000000E-01      1.865820000000000E+01      1.539230000000000E-01      1.593672000000000E+02
4946000000.000000      3.749695000000000E-01      1.847949000000000E+01      1.505127000000000E-01      1.602422000000000E+02
4947000000.000000      3.739777000000000E-01      1.820019000000000E+01      1.466217000000000E-01      1.608750000000000E+02
4948000000.000000      3.743134000000000E-01      1.815430000000000E+01      1.434708000000000E-01      1.618750000000000E+02
4949000000.000000      3.726959000000000E-01      1.816699000000000E+01      1.405106000000000E-01      1.626875000000000E+02
4950000000.000000      3.735657000000000E-01      1.780273000000000E+01      1.371536000000000E-01      1.636562000000000E+02
4951000000.000000      3.730164000000000E-01      1.760644000000000E+01      1.341782000000000E-01      1.644609000000000E+02
4952000000.000000      3.728790000000000E-01      1.736621000000000E+01      1.312485000000000E-01      1.657891000000000E+02
4953000000.000000      3.723755000000000E-01      1.715332000000000E+01      1.288071000000000E-01      1.672188000000000E+02
4954000000.000000      3.717194000000000E-01      1.705566000000000E+01      1.263962000000000E-01      1.685469000000000E+02
