! Network Analyzer HP8722D
! Hewlett-Packard
! Data name: Linha & Wilkinson
! Saver's name: Rodrigo Anjos
! Comments: Teste da utilização de aquisição
continua pelo VNA HP8722D
! Time and date: 23/5/2025 07:48
!              Frequency                     S11                                                   S21                                                   S12                                                   S22
# HZ  S  MA R 50
4800000000.000000      6.438293000000000E-01      1.025146000000000E+01      4.732361000000000E-01     -9.387499000000000E+01
4801000000.000000      6.415710000000000E-01      1.056055000000000E+01      4.770355000000000E-01     -9.439062000000000E+01
4802000000.000000      6.408081000000000E-01      1.050293000000000E+01      4.774933000000000E-01     -9.501562000000000E+01
4803000000.000000      6.387634000000000E-01      1.044238000000000E+01      4.810333000000000E-01     -9.584375000000000E+01
4804000000.000000      6.363831000000000E-01      1.038721000000000E+01      4.817505000000000E-01     -9.662109000000000E+01
4805000000.000000      6.360779000000000E-01      1.049854000000000E+01      4.826050000000000E-01     -9.747656000000000E+01
4806000000.000000      6.334229000000000E-01      1.052344000000000E+01      4.852905000000000E-01     -9.807812000000000E+01
4807000000.000000      6.312256000000000E-01      1.058252000000000E+01      4.853210000000000E-01     -9.903906000000000E+01
4808000000.000000      6.291504000000000E-01      1.046582000000000E+01      4.880676000000000E-01     -9.949999000000000E+01
4809000000.000000      6.279907000000000E-01      1.068408000000000E+01      4.893951000000000E-01     -1.007500000000000E+02
4810000000.000000      6.281433000000000E-01      1.058105000000000E+01      4.895477000000000E-01     -1.009844000000000E+02
4811000000.000000      6.266174000000000E-01      1.070068000000000E+01      4.925995000000000E-01     -1.021719000000000E+02
4812000000.000000      6.264648000000000E-01      1.097363000000000E+01      4.925690000000000E-01     -1.027266000000000E+02
4813000000.000000      6.246948000000000E-01      1.079639000000000E+01      4.927368000000000E-01     -1.035938000000000E+02
4814000000.000000      6.228943000000000E-01      1.091748000000000E+01      4.946899000000000E-01     -1.043008000000000E+02
4815000000.000000      6.209412000000000E-01      1.091211000000000E+01      4.940796000000000E-01     -1.050898000000000E+02
4816000000.000000      6.202698000000000E-01      1.103809000000000E+01      4.960175000000000E-01     -1.057461000000000E+02
4817000000.000000      6.179504000000000E-01      1.113867000000000E+01      4.950714000000000E-01     -1.065117000000000E+02
4818000000.000000      6.176147000000000E-01      1.124854000000000E+01      4.962158000000000E-01     -1.073359000000000E+02
4819000000.000000      6.159973000000000E-01      1.118506000000000E+01      4.967804000000000E-01     -1.080469000000000E+02
4820000000.000000      6.145630000000000E-01      1.145557000000000E+01      4.973907000000000E-01     -1.087695000000000E+02
4821000000.000000      6.148376000000000E-01      1.148047000000000E+01      4.983521000000000E-01     -1.095508000000000E+02
4822000000.000000      6.120911000000000E-01      1.145850000000000E+01      4.969330000000000E-01     -1.102226000000000E+02
4823000000.000000      6.133423000000000E-01      1.159424000000000E+01      4.987793000000000E-01     -1.110352000000000E+02
4824000000.000000      6.127319000000000E-01      1.175928000000000E+01      4.985199000000000E-01     -1.119375000000000E+02
4825000000.000000      6.123962000000000E-01      1.179639000000000E+01      4.987030000000000E-01     -1.125312000000000E+02
4826000000.000000      6.109009000000000E-01      1.182910000000000E+01      4.994659000000000E-01     -1.134023000000000E+02
4827000000.000000      6.096497000000000E-01      1.207666000000000E+01      5.007935000000000E-01     -1.140469000000000E+02
4828000000.000000      6.116638000000000E-01      1.218506000000000E+01      4.985199000000000E-01     -1.146992000000000E+02
4829000000.000000      6.090698000000000E-01      1.256104000000000E+01      5.016479000000000E-01     -1.155781000000000E+02
4830000000.000000      6.101379000000000E-01      1.226318000000000E+01      5.004883000000000E-01     -1.162578000000000E+02
4831000000.000000      6.077271000000000E-01      1.249805000000000E+01      4.989166000000000E-01     -1.170820000000000E+02
4832000000.000000      6.064453000000000E-01      1.290576000000000E+01      4.982605000000000E-01     -1.177891000000000E+02
4833000000.000000      6.085510000000000E-01      1.283740000000000E+01      4.992676000000000E-01     -1.185547000000000E+02
4834000000.000000      6.063538000000000E-01      1.262451000000000E+01      4.990082000000000E-01     -1.194102000000000E+02
4835000000.000000      6.082458000000000E-01      1.297852000000000E+01      4.994354000000000E-01     -1.202617000000000E+02
4836000000.000000      6.098328000000000E-01      1.324951000000000E+01      4.965668000000000E-01     -1.210195000000000E+02
4837000000.000000      6.091614000000000E-01      1.331396000000000E+01      4.974670000000000E-01     -1.218984000000000E+02
4838000000.000000      6.084900000000000E-01      1.332617000000000E+01      4.975281000000000E-01     -1.222461000000000E+02
4839000000.000000      6.121521000000000E-01      1.348389000000000E+01      4.975586000000000E-01     -1.233047000000000E+02
4840000000.000000      6.116943000000000E-01      1.343604000000000E+01      4.974213000000000E-01     -1.240508000000000E+02
4841000000.000000      6.091919000000000E-01      1.359961000000000E+01      4.961090000000000E-01     -1.249297000000000E+02
4842000000.000000      6.106873000000000E-01      1.363525000000000E+01      4.950714000000000E-01     -1.255703000000000E+02
4843000000.000000      6.143188000000000E-01      1.368896000000000E+01      4.953918000000000E-01     -1.264609000000000E+02
4844000000.000000      6.135864000000000E-01      1.369580000000000E+01      4.929047000000000E-01     -1.274336000000000E+02
4845000000.000000      6.137085000000000E-01      1.408154000000000E+01      4.899292000000000E-01     -1.281094000000000E+02
4846000000.000000      6.135864000000000E-01      1.397461000000000E+01      4.905396000000000E-01     -1.290781000000000E+02
4847000000.000000      6.165161000000000E-01      1.407178000000000E+01      4.897003000000000E-01     -1.297969000000000E+02
4848000000.000000      6.144714000000000E-01      1.426025000000000E+01      4.874420000000000E-01     -1.307812000000000E+02
4849000000.000000      6.167908000000000E-01      1.404150000000000E+01      4.871826000000000E-01     -1.314609000000000E+02
4850000000.000000      6.162415000000000E-01      1.430273000000000E+01      4.845734000000000E-01     -1.323906000000000E+02
4851000000.000000      6.195984000000000E-01      1.438916000000000E+01      4.833984000000000E-01     -1.332422000000000E+02
4852000000.000000      6.196594000000000E-01      1.431787000000000E+01      4.812622000000000E-01     -1.341484000000000E+02
4853000000.000000      6.218567000000000E-01      1.431787000000000E+01      4.775543000000000E-01     -1.349609000000000E+02
4854000000.000000      6.230164000000000E-01      1.438379000000000E+01      4.750824000000000E-01     -1.358672000000000E+02
4855000000.000000      6.218567000000000E-01      1.471338000000000E+01      4.734955000000000E-01     -1.366172000000000E+02
4856000000.000000      6.242676000000000E-01      1.436865000000000E+01      4.691772000000000E-01     -1.376172000000000E+02
4857000000.000000      6.254578000000000E-01      1.477637000000000E+01      4.695282000000000E-01     -1.383359000000000E+02
4858000000.000000      6.261292000000000E-01      1.458008000000000E+01      4.660797000000000E-01     -1.391875000000000E+02
4859000000.000000      6.279602000000000E-01      1.457031000000000E+01      4.630280000000000E-01     -1.399688000000000E+02
4860000000.000000      6.286621000000000E-01      1.468018000000000E+01      4.588776000000000E-01     -1.407578000000000E+02
4861000000.000000      6.301880000000000E-01      1.476416000000000E+01      4.559479000000000E-01     -1.417344000000000E+02
4862000000.000000      6.305542000000000E-01      1.454688000000000E+01      4.544067000000000E-01     -1.422812000000000E+02
4863000000.000000      6.313477000000000E-01      1.455127000000000E+01      4.486542000000000E-01     -1.432031000000000E+02
4864000000.000000      6.358337000000000E-01      1.460205000000000E+01      4.460754000000000E-01     -1.440312000000000E+02
4865000000.000000      6.365967000000000E-01      1.466113000000000E+01      4.422302000000000E-01     -1.446640000000000E+02
4866000000.000000      6.361694000000000E-01      1.466260000000000E+01      4.366760000000000E-01     -1.457187000000000E+02
4867000000.000000      6.357422000000000E-01      1.462646000000000E+01      4.344940000000000E-01     -1.464922000000000E+02
4868000000.000000      6.377563000000000E-01      1.454297000000000E+01      4.307709000000000E-01     -1.473047000000000E+02
4869000000.000000      6.380920000000000E-01      1.472021000000000E+01      4.261932000000000E-01     -1.479063000000000E+02
4870000000.000000      6.415405000000000E-01      1.457324000000000E+01      4.219666000000000E-01     -1.484219000000000E+02
4871000000.000000      6.418762000000000E-01      1.442773000000000E+01      4.174805000000000E-01     -1.494375000000000E+02
4872000000.000000      6.433716000000000E-01      1.440967000000000E+01      4.137878000000000E-01     -1.500859000000000E+02
4873000000.000000      6.438293000000000E-01      1.444141000000000E+01      4.079742000000000E-01     -1.508359000000000E+02
4874000000.000000      6.445313000000000E-01      1.450293000000000E+01      4.045410000000000E-01     -1.516250000000000E+02
4875000000.000000      6.479797000000000E-01      1.452246000000000E+01      3.995819000000000E-01     -1.521250000000000E+02
4876000000.000000      6.484375000000000E-01      1.433984000000000E+01      3.979645000000000E-01     -1.528516000000000E+02
4877000000.000000      6.517334000000000E-01      1.423242000000000E+01      3.917084000000000E-01     -1.534844000000000E+02
4878000000.000000      6.508179000000000E-01      1.419824000000000E+01      3.881531000000000E-01     -1.539141000000000E+02
4879000000.000000      6.538696000000000E-01      1.408447000000000E+01      3.814240000000000E-01     -1.542187000000000E+02
4880000000.000000      6.551208000000000E-01      1.431787000000000E+01      3.787537000000000E-01     -1.552734000000000E+02
4881000000.000000      6.551208000000000E-01      1.396191000000000E+01      3.745575000000000E-01     -1.555625000000000E+02
4882000000.000000      6.570435000000000E-01      1.406934000000000E+01      3.696899000000000E-01     -1.562031000000000E+02
4883000000.000000      6.564941000000000E-01      1.407617000000000E+01      3.635559000000000E-01     -1.567578000000000E+02
4884000000.000000      6.588745000000000E-01      1.379590000000000E+01      3.610535000000000E-01     -1.574297000000000E+02
4885000000.000000      6.610107000000000E-01      1.373291000000000E+01      3.569489000000000E-01     -1.576641000000000E+02
4886000000.000000      6.597595000000000E-01      1.372852000000000E+01      3.533478000000000E-01     -1.581719000000000E+02
4887000000.000000      6.619263000000000E-01      1.359814000000000E+01      3.484650000000000E-01     -1.585469000000000E+02
4888000000.000000      6.616516000000000E-01      1.348975000000000E+01      3.440704000000000E-01     -1.590703000000000E+02
4889000000.000000      6.639404000000000E-01      1.357471000000000E+01      3.397980000000000E-01     -1.594453000000000E+02
4890000000.000000      6.648254000000000E-01      1.355420000000000E+01      3.359070000000000E-01     -1.601328000000000E+02
4891000000.000000      6.639099000000000E-01      1.345654000000000E+01      3.309937000000000E-01     -1.604687000000000E+02
4892000000.000000      6.662292000000000E-01      1.321484000000000E+01      3.276367000000000E-01     -1.606641000000000E+02
4893000000.000000      6.673889000000000E-01      1.317920000000000E+01      3.225250000000000E-01     -1.614219000000000E+02
4894000000.000000      6.699829000000000E-01      1.315869000000000E+01      3.188171000000000E-01     -1.616641000000000E+02
4895000000.000000      6.712341000000000E-01      1.301465000000000E+01      3.162994000000000E-01     -1.619375000000000E+02
4896000000.000000      6.705627000000000E-01      1.296387000000000E+01      3.122253000000000E-01     -1.624141000000000E+02
4897000000.000000      6.710205000000000E-01      1.289355000000000E+01      3.078461000000000E-01     -1.627656000000000E+02
4898000000.000000      6.742554000000000E-01      1.273828000000000E+01      3.040009000000000E-01     -1.629453000000000E+02
4899000000.000000      6.751709000000000E-01      1.273438000000000E+01      3.010101000000000E-01     -1.634844000000000E+02
4900000000.000000      6.743164000000000E-01      1.261768000000000E+01      2.971497000000000E-01     -1.636797000000000E+02
4901000000.000000      6.770325000000000E-01      1.246777000000000E+01      2.931213000000000E-01     -1.639922000000000E+02
4902000000.000000      6.744690000000000E-01      1.235254000000000E+01      2.907410000000000E-01     -1.643594000000000E+02
4903000000.000000      6.759338000000000E-01      1.220557000000000E+01      2.857513000000000E-01     -1.646406000000000E+02
4904000000.000000      6.772461000000000E-01      1.212598000000000E+01      2.826080000000000E-01     -1.652187000000000E+02
4905000000.000000      6.776123000000000E-01      1.201074000000000E+01      2.791748000000000E-01     -1.654687000000000E+02
4906000000.000000      6.771240000000000E-01      1.187207000000000E+01      2.751160000000000E-01     -1.655234000000000E+02
4907000000.000000      6.796570000000000E-01      1.183740000000000E+01      2.728271000000000E-01     -1.659844000000000E+02
4908000000.000000      6.799011000000000E-01      1.170410000000000E+01      2.687683000000000E-01     -1.663359000000000E+02
4909000000.000000      6.807861000000000E-01      1.159717000000000E+01      2.654877000000000E-01     -1.665625000000000E+02
4910000000.000000      6.825562000000000E-01      1.148340000000000E+01      2.618561000000000E-01     -1.668828000000000E+02
4911000000.000000      6.826782000000000E-01      1.136914000000000E+01      2.582550000000000E-01     -1.671406000000000E+02
4912000000.000000      6.821289000000000E-01      1.143115000000000E+01      2.550812000000000E-01     -1.675781000000000E+02
4913000000.000000      6.817627000000000E-01      1.127734000000000E+01      2.522278000000000E-01     -1.676719000000000E+02
4914000000.000000      6.846313000000000E-01      1.101514000000000E+01      2.478180000000000E-01     -1.679922000000000E+02
4915000000.000000      6.844177000000000E-01      1.112891000000000E+01      2.442932000000000E-01     -1.685234000000000E+02
4916000000.000000      6.846008000000000E-01      1.087646000000000E+01      2.405319000000000E-01     -1.686797000000000E+02
4917000000.000000      6.866760000000000E-01      1.092969000000000E+01      2.378998000000000E-01     -1.688359000000000E+02
4918000000.000000      6.874084000000000E-01      1.089014000000000E+01      2.331848000000000E-01     -1.692188000000000E+02
4919000000.000000      6.867371000000000E-01      1.080615000000000E+01      2.301941000000000E-01     -1.691797000000000E+02
4920000000.000000      6.866760000000000E-01      1.058350000000000E+01      2.261353000000000E-01     -1.696953000000000E+02
4921000000.000000      6.879272000000000E-01      1.045752000000000E+01      2.232590000000000E-01     -1.697656000000000E+02
4922000000.000000      6.875610000000000E-01      1.040918000000000E+01      2.188339000000000E-01     -1.698281000000000E+02
4923000000.000000      6.891174000000000E-01      1.019092000000000E+01      2.149277000000000E-01     -1.699922000000000E+02
4924000000.000000      6.910095000000000E-01      1.026123000000000E+01      2.107468000000000E-01     -1.702422000000000E+02
4925000000.000000      6.881104000000000E-01      9.949219000000000E+00      2.077484000000000E-01     -1.703594000000000E+02
4926000000.000000      6.910095000000000E-01      1.010449000000000E+01      2.041473000000000E-01     -1.706719000000000E+02
4927000000.000000      6.927185000000000E-01      9.950684000000000E+00      2.004623000000000E-01     -1.708125000000000E+02
4928000000.000000      6.936646000000000E-01      9.836426000000000E+00      1.969757000000000E-01     -1.707266000000000E+02
4929000000.000000      6.909485000000000E-01      9.710449000000000E+00      1.925354000000000E-01     -1.707109000000000E+02
4930000000.000000      6.922302000000000E-01      9.480957000000000E+00      1.892319000000000E-01     -1.706406000000000E+02
4931000000.000000      6.935425000000000E-01      9.295410000000000E+00      1.855164000000000E-01     -1.708125000000000E+02
4932000000.000000      6.926270000000000E-01      9.389160000000000E+00      1.817322000000000E-01     -1.704922000000000E+02
4933000000.000000      6.928406000000000E-01      9.154297000000000E+00      1.776886000000000E-01     -1.703125000000000E+02
4934000000.000000      6.933899000000000E-01      9.033203000000000E+00      1.740646000000000E-01     -1.705937000000000E+02
4935000000.000000      6.970520000000000E-01      8.911133000000000E+00      1.705551000000000E-01     -1.700312000000000E+02
4936000000.000000      6.946106000000000E-01      8.850586000000000E+00      1.663208000000000E-01     -1.698750000000000E+02
4937000000.000000      6.957092000000000E-01      8.836914000000000E+00      1.630173000000000E-01     -1.698984000000000E+02
4938000000.000000      6.947327000000000E-01      8.752930000000000E+00      1.598206000000000E-01     -1.693516000000000E+02
4939000000.000000      6.957397000000000E-01      8.581543000000000E+00      1.559601000000000E-01     -1.688281000000000E+02
4940000000.000000      6.957397000000000E-01      8.539063000000000E+00      1.522217000000000E-01     -1.686250000000000E+02
4941000000.000000      6.980591000000000E-01      8.380859000000000E+00      1.496124000000000E-01     -1.681250000000000E+02
4942000000.000000      6.962585000000000E-01      8.448242000000000E+00      1.456451000000000E-01     -1.676328000000000E+02
4943000000.000000      6.968689000000000E-01      8.287598000000000E+00      1.422882000000000E-01     -1.668594000000000E+02
4944000000.000000      6.990662000000000E-01      8.214844000000000E+00      1.387253000000000E-01     -1.661641000000000E+02
4945000000.000000      6.979065000000000E-01      8.166504000000000E+00      1.357346000000000E-01     -1.654531000000000E+02
4946000000.000000      6.988220000000000E-01      8.007324000000000E+00      1.328278000000000E-01     -1.646484000000000E+02
4947000000.000000      6.990356000000000E-01      7.731445000000000E+00      1.296692000000000E-01     -1.637500000000000E+02
4948000000.000000      6.999817000000000E-01      8.020996000000000E+00      1.273422000000000E-01     -1.629297000000000E+02
4949000000.000000      7.004700000000000E-01      7.546143000000000E+00      1.246490000000000E-01     -1.613984000000000E+02
4950000000.000000      6.993408000000000E-01      7.683350000000000E+00      1.212578000000000E-01     -1.607734000000000E+02
4951000000.000000      7.019348000000000E-01      7.437744000000000E+00      1.194916000000000E-01     -1.592344000000000E+02
4952000000.000000      7.013550000000000E-01      7.290771000000000E+00      1.168633000000000E-01     -1.579844000000000E+02
4953000000.000000      7.029724000000000E-01      7.456787000000000E+00      1.152420000000000E-01     -1.564219000000000E+02
4954000000.000000      7.037354000000000E-01      7.186279000000000E+00      1.127739000000000E-01     -1.550000000000000E+02
