! Network Analyzer HP8722D
! Hewlett-Packard
! Data name: Linha & Wilkinson
! Saver's name: Rodrigo Anjos
! Comments: Teste da utilização de aquisição
continua pelo VNA HP8722D
! Time and date: 23/5/2025 13:02
!              Frequency                     S11                                                   S21                                                   S12                                                   S22
# HZ  S  MA R 50
4800000000.000000      2.865143000000000E-01      3.970703000000000E+01      4.863586000000000E-01     -1.296641000000000E+02
4801000000.000000      2.873993000000000E-01      4.000196000000000E+01      4.866028000000000E-01     -1.302031000000000E+02
4802000000.000000      2.889709000000000E-01      4.013476000000000E+01      4.879608000000000E-01     -1.309297000000000E+02
4803000000.000000      2.896576000000000E-01      4.042382000000000E+01      4.913330000000000E-01     -1.316562000000000E+02
4804000000.000000      2.910309000000000E-01      4.054492000000000E+01      4.923706000000000E-01     -1.324766000000000E+02
4805000000.000000      2.925720000000000E-01      4.072851000000000E+01      4.926453000000000E-01     -1.330234000000000E+02
4806000000.000000      2.936249000000000E-01      4.088672000000000E+01      4.934235000000000E-01     -1.338438000000000E+02
4807000000.000000      2.949677000000000E-01      4.107422000000000E+01      4.956360000000000E-01     -1.347109000000000E+02
4808000000.000000      2.957611000000000E-01      4.128125000000000E+01      4.975586000000000E-01     -1.352734000000000E+02
4809000000.000000      2.975006000000000E-01      4.150586000000000E+01      4.991608000000000E-01     -1.362734000000000E+02
4810000000.000000      2.992859000000000E-01      4.160546000000000E+01      4.995270000000000E-01     -1.367734000000000E+02
4811000000.000000      3.009491000000000E-01      4.175781000000000E+01      5.007019000000000E-01     -1.376797000000000E+02
4812000000.000000      3.031311000000000E-01      4.190430000000000E+01      5.018005000000000E-01     -1.383516000000000E+02
4813000000.000000      3.038177000000000E-01      4.200976000000000E+01      5.034485000000000E-01     -1.391484000000000E+02
4814000000.000000      3.050690000000000E-01      4.207617000000000E+01      5.034180000000000E-01     -1.396484000000000E+02
4815000000.000000      3.070526000000000E-01      4.219727000000000E+01      5.036621000000000E-01     -1.404141000000000E+02
4816000000.000000      3.091736000000000E-01      4.232226000000000E+01      5.041504000000000E-01     -1.411875000000000E+02
4817000000.000000      3.106689000000000E-01      4.241406000000000E+01      5.044861000000000E-01     -1.420625000000000E+02
4818000000.000000      3.126984000000000E-01      4.239843000000000E+01      5.057678000000000E-01     -1.428047000000000E+02
4819000000.000000      3.146362000000000E-01      4.241211000000000E+01      5.046387000000000E-01     -1.435000000000000E+02
4820000000.000000      3.154449000000000E-01      4.249609000000000E+01      5.051575000000000E-01     -1.438750000000000E+02
4821000000.000000      3.181152000000000E-01      4.249804000000000E+01      5.070801000000000E-01     -1.451016000000000E+02
4822000000.000000      3.191986000000000E-01      4.241015000000000E+01      5.046387000000000E-01     -1.456640000000000E+02
4823000000.000000      3.211060000000000E-01      4.242578000000000E+01      5.071716000000000E-01     -1.464219000000000E+02
4824000000.000000      3.230438000000000E-01      4.253125000000000E+01      5.061646000000000E-01     -1.472109000000000E+02
4825000000.000000      3.249969000000000E-01      4.240430000000000E+01      5.053101000000000E-01     -1.478047000000000E+02
4826000000.000000      3.267670000000000E-01      4.240234000000000E+01      5.048828000000000E-01     -1.486328000000000E+02
4827000000.000000      3.286743000000000E-01      4.239453000000000E+01      5.048218000000000E-01     -1.492734000000000E+02
4828000000.000000      3.307800000000000E-01      4.231641000000000E+01      5.053101000000000E-01     -1.500234000000000E+02
4829000000.000000      3.322449000000000E-01      4.232226000000000E+01      5.034790000000000E-01     -1.507734000000000E+02
4830000000.000000      3.341064000000000E-01      4.213281000000000E+01      5.039063000000000E-01     -1.514531000000000E+02
4831000000.000000      3.355103000000000E-01      4.212695000000000E+01      5.031128000000000E-01     -1.522422000000000E+02
4832000000.000000      3.376923000000000E-01      4.216406000000000E+01      5.025024000000000E-01     -1.529375000000000E+02
4833000000.000000      3.386841000000000E-01      4.187890000000000E+01      5.010071000000000E-01     -1.537500000000000E+02
4834000000.000000      3.408661000000000E-01      4.180469000000000E+01      4.994659000000000E-01     -1.542578000000000E+02
4835000000.000000      3.432465000000000E-01      4.162890000000000E+01      4.993286000000000E-01     -1.551250000000000E+02
4836000000.000000      3.445129000000000E-01      4.157617000000000E+01      4.977570000000000E-01     -1.557734000000000E+02
4837000000.000000      3.461304000000000E-01      4.152734000000000E+01      4.963379000000000E-01     -1.567031000000000E+02
4838000000.000000      3.476105000000000E-01      4.128711000000000E+01      4.969940000000000E-01     -1.570859000000000E+02
4839000000.000000      3.506927000000000E-01      4.126953000000000E+01      4.961548000000000E-01     -1.578906000000000E+02
4840000000.000000      3.513794000000000E-01      4.096680000000000E+01      4.943848000000000E-01     -1.586016000000000E+02
4841000000.000000      3.527374000000000E-01      4.095117000000000E+01      4.929352000000000E-01     -1.594922000000000E+02
4842000000.000000      3.538055000000000E-01      4.076562000000000E+01      4.919128000000000E-01     -1.600859000000000E+02
4843000000.000000      3.569183000000000E-01      4.044922000000000E+01      4.896088000000000E-01     -1.607031000000000E+02
4844000000.000000      3.581238000000000E-01      4.017774000000000E+01      4.877930000000000E-01     -1.614063000000000E+02
4845000000.000000      3.598785000000000E-01      4.020703000000000E+01      4.864349000000000E-01     -1.620703000000000E+02
4846000000.000000      3.602600000000000E-01      3.997070000000000E+01      4.857178000000000E-01     -1.627734000000000E+02
4847000000.000000      3.629150000000000E-01      3.980273000000000E+01      4.854279000000000E-01     -1.636484000000000E+02
4848000000.000000      3.635406000000000E-01      3.958984000000000E+01      4.827271000000000E-01     -1.640234000000000E+02
4849000000.000000      3.657837000000000E-01      3.930078000000000E+01      4.804382000000000E-01     -1.648984000000000E+02
4850000000.000000      3.664551000000000E-01      3.912109000000000E+01      4.784851000000000E-01     -1.656797000000000E+02
4851000000.000000      3.677673000000000E-01      3.904101000000000E+01      4.776611000000000E-01     -1.664453000000000E+02
4852000000.000000      3.697968000000000E-01      3.879101000000000E+01      4.743958000000000E-01     -1.670859000000000E+02
4853000000.000000      3.705292000000000E-01      3.844922000000000E+01      4.721222000000000E-01     -1.677266000000000E+02
4854000000.000000      3.717957000000000E-01      3.832812000000000E+01      4.706726000000000E-01     -1.685390000000000E+02
4855000000.000000      3.721466000000000E-01      3.806445000000000E+01      4.679718000000000E-01     -1.693438000000000E+02
4856000000.000000      3.739624000000000E-01      3.783398000000000E+01      4.665527000000000E-01     -1.701562000000000E+02
4857000000.000000      3.755188000000000E-01      3.756250000000000E+01      4.644623000000000E-01     -1.705781000000000E+02
4858000000.000000      3.762665000000000E-01      3.734570000000000E+01      4.615326000000000E-01     -1.711562000000000E+02
4859000000.000000      3.776093000000000E-01      3.709375000000000E+01      4.605713000000000E-01     -1.719844000000000E+02
4860000000.000000      3.783875000000000E-01      3.689453000000000E+01      4.566803000000000E-01     -1.727813000000000E+02
4861000000.000000      3.787842000000000E-01      3.660547000000000E+01      4.536896000000000E-01     -1.735234000000000E+02
4862000000.000000      3.796844000000000E-01      3.644726000000000E+01      4.528198000000000E-01     -1.740703000000000E+02
4863000000.000000      3.811340000000000E-01      3.616211000000000E+01      4.480133000000000E-01     -1.747734000000000E+02
4864000000.000000      3.820343000000000E-01      3.582617000000000E+01      4.465790000000000E-01     -1.752266000000000E+02
4865000000.000000      3.830719000000000E-01      3.554101000000000E+01      4.419250000000000E-01     -1.759844000000000E+02
4866000000.000000      3.836060000000000E-01      3.531641000000000E+01      4.380646000000000E-01     -1.767422000000000E+02
4867000000.000000      3.836365000000000E-01      3.506836000000000E+01      4.354706000000000E-01     -1.774375000000000E+02
4868000000.000000      3.854980000000000E-01      3.471875000000000E+01      4.331665000000000E-01     -1.780156000000000E+02
4869000000.000000      3.858490000000000E-01      3.454102000000000E+01      4.305573000000000E-01     -1.785547000000000E+02
4870000000.000000      3.864136000000000E-01      3.432617000000000E+01      4.270630000000000E-01     -1.792344000000000E+02
4871000000.000000      3.872681000000000E-01      3.389257000000000E+01      4.237976000000000E-01     -1.798672000000000E+02
4872000000.000000      3.889313000000000E-01      3.378711000000000E+01      4.207916000000000E-01      1.795469000000000E+02
4873000000.000000      3.887482000000000E-01      3.349414000000000E+01      4.167938000000000E-01      1.788750000000000E+02
4874000000.000000      3.891754000000000E-01      3.319921000000000E+01      4.142151000000000E-01      1.783047000000000E+02
4875000000.000000      3.896027000000000E-01      3.290039000000000E+01      4.090271000000000E-01      1.778047000000000E+02
4876000000.000000      3.900757000000000E-01      3.279882000000000E+01      4.074097000000000E-01      1.771406000000000E+02
4877000000.000000      3.914185000000000E-01      3.242578000000000E+01      4.041290000000000E-01      1.763594000000000E+02
4878000000.000000      3.902588000000000E-01      3.218945000000000E+01      3.993988000000000E-01      1.758750000000000E+02
4879000000.000000      3.917084000000000E-01      3.195898000000000E+01      3.945923000000000E-01      1.755312000000000E+02
4880000000.000000      3.920898000000000E-01      3.171875000000000E+01      3.933105000000000E-01      1.747969000000000E+02
4881000000.000000      3.916626000000000E-01      3.133789000000000E+01      3.897705000000000E-01      1.744531000000000E+02
4882000000.000000      3.925934000000000E-01      3.112011000000000E+01      3.860931000000000E-01      1.738594000000000E+02
4883000000.000000      3.916626000000000E-01      3.083301000000000E+01      3.818054000000000E-01      1.733359000000000E+02
4884000000.000000      3.933563000000000E-01      3.059765000000000E+01      3.788300000000000E-01      1.726328000000000E+02
4885000000.000000      3.927765000000000E-01      3.033105000000000E+01      3.750916000000000E-01      1.723438000000000E+02
4886000000.000000      3.936462000000000E-01      3.024805000000000E+01      3.715363000000000E-01      1.718984000000000E+02
4887000000.000000      3.934174000000000E-01      2.999609000000000E+01      3.686676000000000E-01      1.713438000000000E+02
4888000000.000000      3.928223000000000E-01      2.963964000000000E+01      3.653717000000000E-01      1.707656000000000E+02
4889000000.000000      3.925476000000000E-01      2.944336000000000E+01      3.610992000000000E-01      1.704609000000000E+02
4890000000.000000      3.923645000000000E-01      2.902832000000000E+01      3.585052000000000E-01      1.696563000000000E+02
4891000000.000000      3.927002000000000E-01      2.884863000000000E+01      3.523560000000000E-01      1.695000000000000E+02
4892000000.000000      3.923187000000000E-01      2.862011000000000E+01      3.499451000000000E-01      1.693359000000000E+02
4893000000.000000      3.932495000000000E-01      2.837305000000000E+01      3.464355000000000E-01      1.685234000000000E+02
4894000000.000000      3.924103000000000E-01      2.818457000000000E+01      3.419495000000000E-01      1.682812000000000E+02
4895000000.000000      3.934174000000000E-01      2.782617000000000E+01      3.409424000000000E-01      1.679297000000000E+02
4896000000.000000      3.932343000000000E-01      2.773438000000000E+01      3.356628000000000E-01      1.672656000000000E+02
4897000000.000000      3.925934000000000E-01      2.748144000000000E+01      3.320313000000000E-01      1.668672000000000E+02
4898000000.000000      3.933868000000000E-01      2.734766000000000E+01      3.286133000000000E-01      1.666719000000000E+02
4899000000.000000      3.927460000000000E-01      2.711523000000000E+01      3.268127000000000E-01      1.659765000000000E+02
4900000000.000000      3.924713000000000E-01      2.687988000000000E+01      3.228455000000000E-01      1.655313000000000E+02
4901000000.000000      3.925018000000000E-01      2.663476000000000E+01      3.190460000000000E-01      1.654844000000000E+02
4902000000.000000      3.915863000000000E-01      2.630176000000000E+01      3.164978000000000E-01      1.648750000000000E+02
4903000000.000000      3.919678000000000E-01      2.628418000000000E+01      3.114166000000000E-01      1.644297000000000E+02
4904000000.000000      3.922119000000000E-01      2.603320000000000E+01      3.090210000000000E-01      1.641641000000000E+02
4905000000.000000      3.917694000000000E-01      2.570801000000000E+01      3.061218000000000E-01      1.635781000000000E+02
4906000000.000000      3.910675000000000E-01      2.554394000000000E+01      3.024902000000000E-01      1.634766000000000E+02
4907000000.000000      3.915558000000000E-01      2.532129000000000E+01      2.989502000000000E-01      1.629766000000000E+02
4908000000.000000      3.914337000000000E-01      2.513476000000000E+01      2.955627000000000E-01      1.625000000000000E+02
4909000000.000000      3.905792000000000E-01      2.500488000000000E+01      2.918243000000000E-01      1.621641000000000E+02
4910000000.000000      3.894958000000000E-01      2.479980000000000E+01      2.875519000000000E-01      1.617578000000000E+02
4911000000.000000      3.904419000000000E-01      2.459765000000000E+01      2.843170000000000E-01      1.614766000000000E+02
4912000000.000000      3.895416000000000E-01      2.443750000000000E+01      2.807617000000000E-01      1.611797000000000E+02
4913000000.000000      3.896637000000000E-01      2.423633000000000E+01      2.776337000000000E-01      1.606406000000000E+02
4914000000.000000      3.893890000000000E-01      2.389453000000000E+01      2.740173000000000E-01      1.604609000000000E+02
4915000000.000000      3.892670000000000E-01      2.380957000000000E+01      2.702789000000000E-01      1.598906000000000E+02
4916000000.000000      3.885193000000000E-01      2.370703000000000E+01      2.664032000000000E-01      1.595000000000000E+02
4917000000.000000      3.894958000000000E-01      2.345801000000000E+01      2.627258000000000E-01      1.592031000000000E+02
4918000000.000000      3.894653000000000E-01      2.328808000000000E+01      2.590637000000000E-01      1.589609000000000E+02
4919000000.000000      3.871765000000000E-01      2.309961000000000E+01      2.556610000000000E-01      1.589062000000000E+02
4920000000.000000      3.875275000000000E-01      2.291113000000000E+01      2.510986000000000E-01      1.582578000000000E+02
4921000000.000000      3.875122000000000E-01      2.279980000000000E+01      2.475510000000000E-01      1.581484000000000E+02
4922000000.000000      3.877258000000000E-01      2.264062000000000E+01      2.433395000000000E-01      1.578516000000000E+02
4923000000.000000      3.873596000000000E-01      2.246680000000000E+01      2.393494000000000E-01      1.577422000000000E+02
4924000000.000000      3.869629000000000E-01      2.220313000000000E+01      2.351456000000000E-01      1.572813000000000E+02
4925000000.000000      3.867035000000000E-01      2.208789000000000E+01      2.315445000000000E-01      1.572969000000000E+02
4926000000.000000      3.861084000000000E-01      2.191699000000000E+01      2.276535000000000E-01      1.570078000000000E+02
4927000000.000000      3.859100000000000E-01      2.171973000000000E+01      2.240753000000000E-01      1.567188000000000E+02
4928000000.000000      3.870697000000000E-01      2.146679000000000E+01      2.198181000000000E-01      1.566406000000000E+02
4929000000.000000      3.852234000000000E-01      2.124804000000000E+01      2.154694000000000E-01      1.564297000000000E+02
4930000000.000000      3.850861000000000E-01      2.127636000000000E+01      2.112579000000000E-01      1.562813000000000E+02
4931000000.000000      3.848267000000000E-01      2.102149000000000E+01      2.085037000000000E-01      1.562109000000000E+02
4932000000.000000      3.848114000000000E-01      2.079980000000000E+01      2.036896000000000E-01      1.562422000000000E+02
4933000000.000000      3.841705000000000E-01      2.072363000000000E+01      1.995850000000000E-01      1.565703000000000E+02
4934000000.000000      3.842010000000000E-01      2.042969000000000E+01      1.955795000000000E-01      1.561953000000000E+02
4935000000.000000      3.844910000000000E-01      2.035058000000000E+01      1.922455000000000E-01      1.565703000000000E+02
4936000000.000000      3.831177000000000E-01      2.018847000000000E+01      1.872330000000000E-01      1.565547000000000E+02
4937000000.000000      3.835907000000000E-01      1.987890000000000E+01      1.831207000000000E-01      1.566406000000000E+02
4938000000.000000      3.829041000000000E-01      1.991894000000000E+01      1.799088000000000E-01      1.569062000000000E+02
4939000000.000000      3.830261000000000E-01      1.972656000000000E+01      1.760712000000000E-01      1.572578000000000E+02
4940000000.000000      3.823853000000000E-01      1.940234000000000E+01      1.714172000000000E-01      1.572422000000000E+02
4941000000.000000      3.830719000000000E-01      1.936133000000000E+01      1.681137000000000E-01      1.577109000000000E+02
4942000000.000000      3.810883000000000E-01      1.919629000000000E+01      1.638565000000000E-01      1.581640000000000E+02
4943000000.000000      3.823853000000000E-01      1.891797000000000E+01      1.603699000000000E-01      1.586172000000000E+02
4944000000.000000      3.820343000000000E-01      1.883789000000000E+01      1.567001000000000E-01      1.591953000000000E+02
4945000000.000000      3.811493000000000E-01      1.855273000000000E+01      1.526031000000000E-01      1.597344000000000E+02
4946000000.000000      3.813324000000000E-01      1.842187000000000E+01      1.497116000000000E-01      1.604375000000000E+02
4947000000.000000      3.809052000000000E-01      1.829883000000000E+01      1.458969000000000E-01      1.611719000000000E+02
4948000000.000000      3.809814000000000E-01      1.826562000000000E+01      1.424408000000000E-01      1.620312000000000E+02
4949000000.000000      3.796234000000000E-01      1.794726000000000E+01      1.391602000000000E-01      1.630859000000000E+02
4950000000.000000      3.797455000000000E-01      1.787598000000000E+01      1.362305000000000E-01      1.639844000000000E+02
4951000000.000000      3.798676000000000E-01      1.763379000000000E+01      1.336441000000000E-01      1.648906000000000E+02
4952000000.000000      3.790283000000000E-01      1.742969000000000E+01      1.304779000000000E-01      1.661328000000000E+02
4953000000.000000      3.786316000000000E-01      1.720703000000000E+01      1.280365000000000E-01      1.674766000000000E+02
4954000000.000000      3.783264000000000E-01      1.708594000000000E+01      1.255112000000000E-01      1.687109000000000E+02
