! Network Analyzer HP8722D
! Hewlett-Packard
! Data name: Linha & Wilkinson
! Saver's name: Rodrigo Anjos
! Comments: Teste da utilização de aquisição
continua pelo VNA HP8722D
! Time and date: 23/5/2025 12:56
!              Frequency                     S11                                                   S21                                                   S12                                                   S22
# HZ  S  MA R 50
4800000000.000000      2.885437000000000E-01      3.957226000000000E+01      4.840393000000000E-01     -1.297734000000000E+02
4801000000.000000      2.895050000000000E-01      3.991406000000000E+01      4.844666000000000E-01     -1.304922000000000E+02
4802000000.000000      2.907410000000000E-01      4.005468000000000E+01      4.864655000000000E-01     -1.311094000000000E+02
4803000000.000000      2.917480000000000E-01      4.020508000000000E+01      4.894867000000000E-01     -1.316797000000000E+02
4804000000.000000      2.929535000000000E-01      4.049024000000000E+01      4.898529000000000E-01     -1.324687000000000E+02
4805000000.000000      2.949066000000000E-01      4.052343000000000E+01      4.912109000000000E-01     -1.331875000000000E+02
4806000000.000000      2.958832000000000E-01      4.078321000000000E+01      4.938660000000000E-01     -1.339062000000000E+02
4807000000.000000      2.971649000000000E-01      4.094727000000000E+01      4.943390000000000E-01     -1.347578000000000E+02
4808000000.000000      2.978210000000000E-01      4.117969000000000E+01      4.950104000000000E-01     -1.354141000000000E+02
4809000000.000000      2.999268000000000E-01      4.136719000000000E+01      4.958649000000000E-01     -1.362031000000000E+02
4810000000.000000      3.014069000000000E-01      4.147461000000000E+01      4.988403000000000E-01     -1.368594000000000E+02
4811000000.000000      3.032074000000000E-01      4.168164000000000E+01      4.997406000000000E-01     -1.377109000000000E+02
4812000000.000000      3.051605000000000E-01      4.176562000000000E+01      5.003052000000000E-01     -1.383203000000000E+02
4813000000.000000      3.059998000000000E-01      4.189453000000000E+01      5.010986000000000E-01     -1.391016000000000E+02
4814000000.000000      3.072052000000000E-01      4.195508000000000E+01      5.015869000000000E-01     -1.397656000000000E+02
4815000000.000000      3.091736000000000E-01      4.201953000000000E+01      5.020447000000000E-01     -1.403906000000000E+02
4816000000.000000      3.120117000000000E-01      4.221289000000000E+01      5.031738000000000E-01     -1.412812000000000E+02
4817000000.000000      3.126526000000000E-01      4.227929000000000E+01      5.034180000000000E-01     -1.421016000000000E+02
4818000000.000000      3.145447000000000E-01      4.220117000000000E+01      5.027466000000000E-01     -1.427031000000000E+02
4819000000.000000      3.171692000000000E-01      4.224999000000000E+01      5.040588000000000E-01     -1.433594000000000E+02
4820000000.000000      3.174744000000000E-01      4.232031000000000E+01      5.034790000000000E-01     -1.440547000000000E+02
4821000000.000000      3.205261000000000E-01      4.237109000000000E+01      5.052490000000000E-01     -1.448437000000000E+02
4822000000.000000      3.211365000000000E-01      4.226953000000000E+01      5.032654000000000E-01     -1.456563000000000E+02
4823000000.000000      3.233337000000000E-01      4.224609000000000E+01      5.037842000000000E-01     -1.462891000000000E+02
4824000000.000000      3.252716000000000E-01      4.239062000000000E+01      5.036621000000000E-01     -1.470937000000000E+02
4825000000.000000      3.267670000000000E-01      4.227539000000000E+01      5.020447000000000E-01     -1.477890000000000E+02
4826000000.000000      3.284607000000000E-01      4.218750000000000E+01      5.027161000000000E-01     -1.488281000000000E+02
4827000000.000000      3.308105000000000E-01      4.216406000000000E+01      5.024719000000000E-01     -1.492500000000000E+02
4828000000.000000      3.333435000000000E-01      4.218163000000000E+01      5.024109000000000E-01     -1.499453000000000E+02
4829000000.000000      3.342133000000000E-01      4.222265000000000E+01      5.016785000000000E-01     -1.507031000000000E+02
4830000000.000000      3.360596000000000E-01      4.193164000000000E+01      5.018921000000000E-01     -1.516797000000000E+02
4831000000.000000      3.379669000000000E-01      4.184375000000000E+01      4.998779000000000E-01     -1.522969000000000E+02
4832000000.000000      3.398743000000000E-01      4.188672000000000E+01      4.995880000000000E-01     -1.529063000000000E+02
4833000000.000000      3.406525000000000E-01      4.167969000000000E+01      4.988861000000000E-01     -1.535703000000000E+02
4834000000.000000      3.432465000000000E-01      4.161328000000000E+01      4.979248000000000E-01     -1.543828000000000E+02
4835000000.000000      3.449402000000000E-01      4.149414000000000E+01      4.971161000000000E-01     -1.551797000000000E+02
4836000000.000000      3.465729000000000E-01      4.150391000000000E+01      4.973755000000000E-01     -1.557344000000000E+02
4837000000.000000      3.482971000000000E-01      4.146874000000000E+01      4.947968000000000E-01     -1.566406000000000E+02
4838000000.000000      3.493805000000000E-01      4.109571000000000E+01      4.937897000000000E-01     -1.571875000000000E+02
4839000000.000000      3.529053000000000E-01      4.116406000000000E+01      4.939728000000000E-01     -1.577422000000000E+02
4840000000.000000      3.530579000000000E-01      4.076757000000000E+01      4.924774000000000E-01     -1.586406000000000E+02
4841000000.000000      3.550873000000000E-01      4.082421000000000E+01      4.911499000000000E-01     -1.594531000000000E+02
4842000000.000000      3.561859000000000E-01      4.058203000000000E+01      4.895782000000000E-01     -1.601406000000000E+02
4843000000.000000      3.590851000000000E-01      4.023046000000000E+01      4.895782000000000E-01     -1.607812000000000E+02
4844000000.000000      3.596802000000000E-01      4.008789000000000E+01      4.869385000000000E-01     -1.615625000000000E+02
4845000000.000000      3.612366000000000E-01      3.999804000000000E+01      4.853210000000000E-01     -1.622500000000000E+02
4846000000.000000      3.631439000000000E-01      3.972656000000000E+01      4.835815000000000E-01     -1.628828000000000E+02
4847000000.000000      3.645325000000000E-01      3.968554000000000E+01      4.812469000000000E-01     -1.635156000000000E+02
4848000000.000000      3.654022000000000E-01      3.934765000000000E+01      4.800262000000000E-01     -1.642812000000000E+02
4849000000.000000      3.670959000000000E-01      3.915820000000000E+01      4.787903000000000E-01     -1.651328000000000E+02
4850000000.000000      3.687439000000000E-01      3.896484000000000E+01      4.761047000000000E-01     -1.657969000000000E+02
4851000000.000000      3.699341000000000E-01      3.879297000000000E+01      4.753265000000000E-01     -1.663750000000000E+02
4852000000.000000      3.713684000000000E-01      3.855078000000000E+01      4.724731000000000E-01     -1.671875000000000E+02
4853000000.000000      3.723297000000000E-01      3.834961000000000E+01      4.694061000000000E-01     -1.678750000000000E+02
4854000000.000000      3.735657000000000E-01      3.808398000000000E+01      4.674683000000000E-01     -1.686875000000000E+02
4855000000.000000      3.749390000000000E-01      3.790234000000000E+01      4.658661000000000E-01     -1.694297000000000E+02
4856000000.000000      3.755798000000000E-01      3.772656000000000E+01      4.634857000000000E-01     -1.700312000000000E+02
4857000000.000000      3.775330000000000E-01      3.744531000000000E+01      4.627991000000000E-01     -1.706172000000000E+02
4858000000.000000      3.780060000000000E-01      3.708789000000000E+01      4.594727000000000E-01     -1.713750000000000E+02
4859000000.000000      3.794403000000000E-01      3.692383000000000E+01      4.571838000000000E-01     -1.720703000000000E+02
4860000000.000000      3.800964000000000E-01      3.681055000000000E+01      4.547882000000000E-01     -1.727969000000000E+02
4861000000.000000      3.803101000000000E-01      3.641797000000000E+01      4.516754000000000E-01     -1.733750000000000E+02
4862000000.000000      3.815308000000000E-01      3.628320000000000E+01      4.493866000000000E-01     -1.740781000000000E+02
4863000000.000000      3.824463000000000E-01      3.600195000000000E+01      4.454651000000000E-01     -1.747969000000000E+02
4864000000.000000      3.835144000000000E-01      3.567383000000000E+01      4.432373000000000E-01     -1.753281000000000E+02
4865000000.000000      3.844604000000000E-01      3.548828000000000E+01      4.395752000000000E-01     -1.759844000000000E+02
4866000000.000000      3.857269000000000E-01      3.513281000000000E+01      4.366455000000000E-01     -1.766875000000000E+02
4867000000.000000      3.857422000000000E-01      3.486914000000000E+01      4.340668000000000E-01     -1.775078000000000E+02
4868000000.000000      3.863983000000000E-01      3.469727000000000E+01      4.308624000000000E-01     -1.778203000000000E+02
4869000000.000000      3.879700000000000E-01      3.440625000000000E+01      4.264679000000000E-01     -1.784531000000000E+02
4870000000.000000      3.885651000000000E-01      3.424805000000000E+01      4.248810000000000E-01     -1.792422000000000E+02
4871000000.000000      3.882751000000000E-01      3.390234000000000E+01      4.209595000000000E-01      1.799609000000000E+02
4872000000.000000      3.905029000000000E-01      3.363867000000000E+01      4.168091000000000E-01      1.796250000000000E+02
4873000000.000000      3.903198000000000E-01      3.344336000000000E+01      4.144135000000000E-01      1.787578000000000E+02
4874000000.000000      3.901062000000000E-01      3.305469000000000E+01      4.113159000000000E-01      1.783359000000000E+02
4875000000.000000      3.916626000000000E-01      3.279101000000000E+01      4.071198000000000E-01      1.776484000000000E+02
4876000000.000000      3.913422000000000E-01      3.268359000000000E+01      4.042053000000000E-01      1.770469000000000E+02
4877000000.000000      3.922424000000000E-01      3.221875000000000E+01      4.009247000000000E-01      1.764219000000000E+02
4878000000.000000      3.921661000000000E-01      3.202539000000000E+01      3.977814000000000E-01      1.759140000000000E+02
4879000000.000000      3.931885000000000E-01      3.186035000000000E+01      3.927002000000000E-01      1.754453000000000E+02
4880000000.000000      3.937531000000000E-01      3.148633000000000E+01      3.902893000000000E-01      1.748828000000000E+02
4881000000.000000      3.932953000000000E-01      3.122949000000000E+01      3.863068000000000E-01      1.745312000000000E+02
4882000000.000000      3.938599000000000E-01      3.114258000000000E+01      3.826752000000000E-01      1.737187000000000E+02
4883000000.000000      3.940277000000000E-01      3.073535000000000E+01      3.784332000000000E-01      1.732188000000000E+02
4884000000.000000      3.935699000000000E-01      3.057324000000000E+01      3.748474000000000E-01      1.727969000000000E+02
4885000000.000000      3.946533000000000E-01      3.026953000000000E+01      3.724823000000000E-01      1.723594000000000E+02
4886000000.000000      3.949280000000000E-01      3.007715000000000E+01      3.682556000000000E-01      1.719297000000000E+02
4887000000.000000      3.941345000000000E-01      2.982226000000000E+01      3.661499000000000E-01      1.711641000000000E+02
4888000000.000000      3.947601000000000E-01      2.947851000000000E+01      3.629913000000000E-01      1.708906000000000E+02
4889000000.000000      3.943939000000000E-01      2.928515000000000E+01      3.575897000000000E-01      1.705078000000000E+02
4890000000.000000      3.949280000000000E-01      2.890722000000000E+01      3.543549000000000E-01      1.695625000000000E+02
4891000000.000000      3.945618000000000E-01      2.897558000000000E+01      3.515320000000000E-01      1.693750000000000E+02
4892000000.000000      3.938904000000000E-01      2.852930000000000E+01      3.475952000000000E-01      1.692656000000000E+02
4893000000.000000      3.949280000000000E-01      2.835156000000000E+01      3.436890000000000E-01      1.684453000000000E+02
4894000000.000000      3.940887000000000E-01      2.806641000000000E+01      3.403473000000000E-01      1.680234000000000E+02
4895000000.000000      3.952026000000000E-01      2.788965000000000E+01      3.379669000000000E-01      1.677734000000000E+02
4896000000.000000      3.944550000000000E-01      2.761621000000000E+01      3.333130000000000E-01      1.674297000000000E+02
4897000000.000000      3.944702000000000E-01      2.745019000000000E+01      3.295593000000000E-01      1.669765000000000E+02
4898000000.000000      3.934784000000000E-01      2.724023000000000E+01      3.269348000000000E-01      1.665000000000000E+02
4899000000.000000      3.936462000000000E-01      2.701172000000000E+01      3.228607000000000E-01      1.659844000000000E+02
4900000000.000000      3.928680000000000E-01      2.662793000000000E+01      3.194275000000000E-01      1.658125000000000E+02
4901000000.000000      3.947296000000000E-01      2.658691000000000E+01      3.166046000000000E-01      1.654453000000000E+02
4902000000.000000      3.930664000000000E-01      2.627930000000000E+01      3.132935000000000E-01      1.649141000000000E+02
4903000000.000000      3.924255000000000E-01      2.620019000000000E+01      3.095093000000000E-01      1.645937000000000E+02
4904000000.000000      3.928223000000000E-01      2.587109000000000E+01      3.058624000000000E-01      1.641406000000000E+02
4905000000.000000      3.919830000000000E-01      2.562793000000000E+01      3.031464000000000E-01      1.636953000000000E+02
4906000000.000000      3.931427000000000E-01      2.553711000000000E+01      2.994995000000000E-01      1.635078000000000E+02
4907000000.000000      3.933868000000000E-01      2.528320000000000E+01      2.961884000000000E-01      1.630547000000000E+02
4908000000.000000      3.924408000000000E-01      2.498535000000000E+01      2.924652000000000E-01      1.626484000000000E+02
4909000000.000000      3.917236000000000E-01      2.492090000000000E+01      2.888794000000000E-01      1.621953000000000E+02
4910000000.000000      3.920441000000000E-01      2.479980000000000E+01      2.857971000000000E-01      1.619219000000000E+02
4911000000.000000      3.913879000000000E-01      2.450586000000000E+01      2.825928000000000E-01      1.615937000000000E+02
4912000000.000000      3.917084000000000E-01      2.435742000000000E+01      2.784271000000000E-01      1.611016000000000E+02
4913000000.000000      3.916626000000000E-01      2.399219000000000E+01      2.751465000000000E-01      1.607500000000000E+02
4914000000.000000      3.914185000000000E-01      2.382715000000000E+01      2.712097000000000E-01      1.604844000000000E+02
4915000000.000000      3.907471000000000E-01      2.376855000000000E+01      2.673950000000000E-01      1.600781000000000E+02
4916000000.000000      3.903351000000000E-01      2.359570000000000E+01      2.643890000000000E-01      1.596328000000000E+02
4917000000.000000      3.901062000000000E-01      2.343848000000000E+01      2.597198000000000E-01      1.594141000000000E+02
4918000000.000000      3.898468000000000E-01      2.321484000000000E+01      2.563477000000000E-01      1.589922000000000E+02
4919000000.000000      3.884277000000000E-01      2.305957000000000E+01      2.528076000000000E-01      1.591328000000000E+02
4920000000.000000      3.896027000000000E-01      2.268066000000000E+01      2.483444000000000E-01      1.583672000000000E+02
4921000000.000000      3.892365000000000E-01      2.270703000000000E+01      2.456741000000000E-01      1.583516000000000E+02
4922000000.000000      3.885040000000000E-01      2.241211000000000E+01      2.411575000000000E-01      1.580781000000000E+02
4923000000.000000      3.888855000000000E-01      2.236914000000000E+01      2.371292000000000E-01      1.577734000000000E+02
4924000000.000000      3.881531000000000E-01      2.227246000000000E+01      2.335587000000000E-01      1.575312000000000E+02
4925000000.000000      3.885956000000000E-01      2.202832000000000E+01      2.298660000000000E-01      1.574375000000000E+02
4926000000.000000      3.873291000000000E-01      2.181933000000000E+01      2.256851000000000E-01      1.570859000000000E+02
4927000000.000000      3.871002000000000E-01      2.161133000000000E+01      2.215271000000000E-01      1.569141000000000E+02
4928000000.000000      3.878479000000000E-01      2.133496000000000E+01      2.173615000000000E-01      1.568516000000000E+02
4929000000.000000      3.871002000000000E-01      2.125683000000000E+01      2.133255000000000E-01      1.568281000000000E+02
4930000000.000000      3.874664000000000E-01      2.109082000000000E+01      2.092209000000000E-01      1.565703000000000E+02
4931000000.000000      3.862152000000000E-01      2.091309000000000E+01      2.057495000000000E-01      1.566875000000000E+02
4932000000.000000      3.853302000000000E-01      2.087597000000000E+01      2.014313000000000E-01      1.564766000000000E+02
4933000000.000000      3.865509000000000E-01      2.062500000000000E+01      1.968002000000000E-01      1.567188000000000E+02
4934000000.000000      3.860321000000000E-01      2.037793000000000E+01      1.936035000000000E-01      1.565000000000000E+02
4935000000.000000      3.865509000000000E-01      2.026074000000000E+01      1.900711000000000E-01      1.568047000000000E+02
4936000000.000000      3.850403000000000E-01      2.006836000000000E+01      1.850510000000000E-01      1.569531000000000E+02
4937000000.000000      3.858185000000000E-01      1.979101000000000E+01      1.812897000000000E-01      1.569453000000000E+02
4938000000.000000      3.850555000000000E-01      1.975976000000000E+01      1.776199000000000E-01      1.570703000000000E+02
4939000000.000000      3.845673000000000E-01      1.968945000000000E+01      1.741714000000000E-01      1.575000000000000E+02
4940000000.000000      3.844757000000000E-01      1.943066000000000E+01      1.697083000000000E-01      1.577188000000000E+02
4941000000.000000      3.845978000000000E-01      1.920801000000000E+01      1.660919000000000E-01      1.581640000000000E+02
4942000000.000000      3.837280000000000E-01      1.915430000000000E+01      1.621475000000000E-01      1.586016000000000E+02
4943000000.000000      3.832855000000000E-01      1.897168000000000E+01      1.583176000000000E-01      1.590312000000000E+02
4944000000.000000      3.840942000000000E-01      1.880566000000000E+01      1.548996000000000E-01      1.596641000000000E+02
4945000000.000000      3.825226000000000E-01      1.861816000000000E+01      1.509018000000000E-01      1.602031000000000E+02
4946000000.000000      3.825073000000000E-01      1.835938000000000E+01      1.475449000000000E-01      1.608594000000000E+02
4947000000.000000      3.825989000000000E-01      1.810644000000000E+01      1.441727000000000E-01      1.616250000000000E+02
4948000000.000000      3.826294000000000E-01      1.824805000000000E+01      1.406937000000000E-01      1.626562000000000E+02
4949000000.000000      3.812866000000000E-01      1.787109000000000E+01      1.381073000000000E-01      1.637578000000000E+02
4950000000.000000      3.820801000000000E-01      1.782324000000000E+01      1.351166000000000E-01      1.644140000000000E+02
4951000000.000000      3.810730000000000E-01      1.759277000000000E+01      1.315842000000000E-01      1.654375000000000E+02
4952000000.000000      3.803558000000000E-01      1.743750000000000E+01      1.291428000000000E-01      1.671797000000000E+02
4953000000.000000      3.798981000000000E-01      1.715430000000000E+01      1.270676000000000E-01      1.682656000000000E+02
4954000000.000000      3.796844000000000E-01      1.704297000000000E+01      1.242714000000000E-01      1.693438000000000E+02
