! Network Analyzer HP8722D
! Hewlett-Packard
! Data name: Linha & Wilkinson
! Saver's name: Rodrigo Anjos
! Comments: Teste da utilização de aquisição
continua pelo VNA HP8722D
! Time and date: 23/5/2025 11:04
!              Frequency                     S11                                                   S21                                                   S12                                                   S22
# HZ  S  MA R 50
4800000000.000000      3.159943000000000E-01      3.725390000000000E+01      4.703827000000000E-01     -1.284844000000000E+02
4801000000.000000      3.163910000000000E-01      3.750000000000000E+01      4.707031000000000E-01     -1.289922000000000E+02
4802000000.000000      3.174744000000000E-01      3.772070000000000E+01      4.721375000000000E-01     -1.296406000000000E+02
4803000000.000000      3.182526000000000E-01      3.788671000000000E+01      4.754791000000000E-01     -1.303516000000000E+02
4804000000.000000      3.189392000000000E-01      3.808398000000000E+01      4.754639000000000E-01     -1.310937000000000E+02
4805000000.000000      3.209076000000000E-01      3.814844000000000E+01      4.767609000000000E-01     -1.319531000000000E+02
4806000000.000000      3.212280000000000E-01      3.831055000000000E+01      4.786377000000000E-01     -1.325859000000000E+02
4807000000.000000      3.224792000000000E-01      3.853516000000000E+01      4.808502000000000E-01     -1.334531000000000E+02
4808000000.000000      3.234863000000000E-01      3.860156000000000E+01      4.822235000000000E-01     -1.338984000000000E+02
4809000000.000000      3.256378000000000E-01      3.885937000000000E+01      4.819031000000000E-01     -1.349688000000000E+02
4810000000.000000      3.264008000000000E-01      3.896093000000000E+01      4.843292000000000E-01     -1.354766000000000E+02
4811000000.000000      3.280487000000000E-01      3.908203000000000E+01      4.845734000000000E-01     -1.364297000000000E+02
4812000000.000000      3.307648000000000E-01      3.927734000000000E+01      4.838562000000000E-01     -1.370781000000000E+02
4813000000.000000      3.311310000000000E-01      3.937304000000000E+01      4.868469000000000E-01     -1.378281000000000E+02
4814000000.000000      3.316650000000000E-01      3.944336000000000E+01      4.865570000000000E-01     -1.385391000000000E+02
4815000000.000000      3.333130000000000E-01      3.950976000000000E+01      4.877625000000000E-01     -1.391953000000000E+02
4816000000.000000      3.357697000000000E-01      3.961523000000000E+01      4.886169000000000E-01     -1.397344000000000E+02
4817000000.000000      3.368378000000000E-01      3.966992000000000E+01      4.893188000000000E-01     -1.406875000000000E+02
4818000000.000000      3.383942000000000E-01      3.974414000000000E+01      4.880524000000000E-01     -1.415000000000000E+02
4819000000.000000      3.399658000000000E-01      3.975000000000000E+01      4.886780000000000E-01     -1.422500000000000E+02
4820000000.000000      3.407440000000000E-01      3.991601000000000E+01      4.887848000000000E-01     -1.426641000000000E+02
4821000000.000000      3.436584000000000E-01      3.994726000000000E+01      4.894562000000000E-01     -1.435703000000000E+02
4822000000.000000      3.445892000000000E-01      3.979883000000000E+01      4.884796000000000E-01     -1.444219000000000E+02
4823000000.000000      3.464813000000000E-01      3.983203000000000E+01      4.899750000000000E-01     -1.451641000000000E+02
4824000000.000000      3.483734000000000E-01      3.989453000000000E+01      4.878235000000000E-01     -1.460547000000000E+02
4825000000.000000      3.497009000000000E-01      3.983593000000000E+01      4.885101000000000E-01     -1.464141000000000E+02
4826000000.000000      3.515472000000000E-01      3.976171000000000E+01      4.890289000000000E-01     -1.472891000000000E+02
4827000000.000000      3.531494000000000E-01      3.978125000000000E+01      4.884491000000000E-01     -1.478828000000000E+02
4828000000.000000      3.552856000000000E-01      3.976367000000000E+01      4.877319000000000E-01     -1.489297000000000E+02
4829000000.000000      3.563538000000000E-01      3.980859000000000E+01      4.884796000000000E-01     -1.493281000000000E+02
4830000000.000000      3.584595000000000E-01      3.964258000000000E+01      4.869537000000000E-01     -1.504062000000000E+02
4831000000.000000      3.601074000000000E-01      3.960156000000000E+01      4.866333000000000E-01     -1.509063000000000E+02
4832000000.000000      3.612976000000000E-01      3.967578000000000E+01      4.858093000000000E-01     -1.515859000000000E+02
4833000000.000000      3.630676000000000E-01      3.943945000000000E+01      4.838257000000000E-01     -1.522656000000000E+02
4834000000.000000      3.642883000000000E-01      3.942968000000000E+01      4.838715000000000E-01     -1.530156000000000E+02
4835000000.000000      3.667450000000000E-01      3.925781000000000E+01      4.830627000000000E-01     -1.537969000000000E+02
4836000000.000000      3.684845000000000E-01      3.929883000000000E+01      4.816132000000000E-01     -1.544453000000000E+02
4837000000.000000      3.696289000000000E-01      3.923828000000000E+01      4.797363000000000E-01     -1.553828000000000E+02
4838000000.000000      3.709564000000000E-01      3.902734000000000E+01      4.803925000000000E-01     -1.558125000000000E+02
4839000000.000000      3.738251000000000E-01      3.894336000000000E+01      4.789124000000000E-01     -1.565625000000000E+02
4840000000.000000      3.749084000000000E-01      3.866211000000000E+01      4.778748000000000E-01     -1.573828000000000E+02
4841000000.000000      3.763580000000000E-01      3.878125000000000E+01      4.761200000000000E-01     -1.581719000000000E+02
4842000000.000000      3.769836000000000E-01      3.849804000000000E+01      4.759827000000000E-01     -1.586641000000000E+02
4843000000.000000      3.801422000000000E-01      3.820898000000000E+01      4.743805000000000E-01     -1.594766000000000E+02
4844000000.000000      3.810272000000000E-01      3.808594000000000E+01      4.717102000000000E-01     -1.602500000000000E+02
4845000000.000000      3.823547000000000E-01      3.816211000000000E+01      4.706573000000000E-01     -1.608594000000000E+02
4846000000.000000      3.844604000000000E-01      3.786328000000000E+01      4.691162000000000E-01     -1.616250000000000E+02
4847000000.000000      3.855591000000000E-01      3.782812000000000E+01      4.689178000000000E-01     -1.622500000000000E+02
4848000000.000000      3.861847000000000E-01      3.751172000000000E+01      4.655609000000000E-01     -1.630547000000000E+02
4849000000.000000      3.879852000000000E-01      3.732422000000000E+01      4.639282000000000E-01     -1.636953000000000E+02
4850000000.000000      3.891296000000000E-01      3.715820000000000E+01      4.624786000000000E-01     -1.643828000000000E+02
4851000000.000000      3.905945000000000E-01      3.710742000000000E+01      4.612579000000000E-01     -1.651641000000000E+02
4852000000.000000      3.921204000000000E-01      3.675390000000000E+01      4.593811000000000E-01     -1.659688000000000E+02
4853000000.000000      3.931274000000000E-01      3.665039000000000E+01      4.545746000000000E-01     -1.664297000000000E+02
4854000000.000000      3.943329000000000E-01      3.647851000000000E+01      4.535828000000000E-01     -1.672031000000000E+02
4855000000.000000      3.955231000000000E-01      3.618945000000000E+01      4.520264000000000E-01     -1.680703000000000E+02
4856000000.000000      3.965607000000000E-01      3.611133000000000E+01      4.497223000000000E-01     -1.686797000000000E+02
4857000000.000000      3.984680000000000E-01      3.580859000000000E+01      4.481659000000000E-01     -1.692734000000000E+02
4858000000.000000      3.989563000000000E-01      3.561328000000000E+01      4.460602000000000E-01     -1.701015000000000E+02
4859000000.000000      4.000549000000000E-01      3.531250000000000E+01      4.441223000000000E-01     -1.708828000000000E+02
4860000000.000000      4.007874000000000E-01      3.532422000000000E+01      4.397583000000000E-01     -1.713203000000000E+02
4861000000.000000      4.011688000000000E-01      3.493359000000000E+01      4.374695000000000E-01     -1.721641000000000E+02
4862000000.000000      4.020996000000000E-01      3.477734000000000E+01      4.342957000000000E-01     -1.728359000000000E+02
4863000000.000000      4.033356000000000E-01      3.453125000000000E+01      4.303284000000000E-01     -1.737187000000000E+02
4864000000.000000      4.053955000000000E-01      3.429883000000000E+01      4.291840000000000E-01     -1.742109000000000E+02
4865000000.000000      4.055634000000000E-01      3.403515000000000E+01      4.252167000000000E-01     -1.745937000000000E+02
4866000000.000000      4.074097000000000E-01      3.377344000000000E+01      4.227753000000000E-01     -1.754219000000000E+02
4867000000.000000      4.070282000000000E-01      3.357812000000000E+01      4.205322000000000E-01     -1.763438000000000E+02
4868000000.000000      4.086609000000000E-01      3.333398000000000E+01      4.169922000000000E-01     -1.768203000000000E+02
4869000000.000000      4.084167000000000E-01      3.310156000000000E+01      4.122772000000000E-01     -1.774688000000000E+02
4870000000.000000      4.093323000000000E-01      3.286914000000000E+01      4.113312000000000E-01     -1.778359000000000E+02
4871000000.000000      4.093781000000000E-01      3.256054000000000E+01      4.070740000000000E-01     -1.788281000000000E+02
4872000000.000000      4.116974000000000E-01      3.241015000000000E+01      4.040833000000000E-01     -1.793516000000000E+02
4873000000.000000      4.110413000000000E-01      3.218554000000000E+01      4.010010000000000E-01      1.799609000000000E+02
4874000000.000000      4.116821000000000E-01      3.196191000000000E+01      3.977966000000000E-01      1.792734000000000E+02
4875000000.000000      4.122162000000000E-01      3.168945000000000E+01      3.936005000000000E-01      1.790625000000000E+02
4876000000.000000      4.126740000000000E-01      3.157129000000000E+01      3.905945000000000E-01      1.784297000000000E+02
4877000000.000000      4.146576000000000E-01      3.113086000000000E+01      3.876801000000000E-01      1.777656000000000E+02
4878000000.000000      4.138489000000000E-01      3.099218000000000E+01      3.825073000000000E-01      1.772891000000000E+02
4879000000.000000      4.144440000000000E-01      3.079394000000000E+01      3.793335000000000E-01      1.767812000000000E+02
4880000000.000000      4.150848000000000E-01      3.052051000000000E+01      3.770447000000000E-01      1.761875000000000E+02
4881000000.000000      4.145966000000000E-01      3.032227000000000E+01      3.718567000000000E-01      1.755938000000000E+02
4882000000.000000      4.151154000000000E-01      3.007031000000000E+01      3.704681000000000E-01      1.750937000000000E+02
4883000000.000000      4.161682000000000E-01      2.983105000000000E+01      3.657379000000000E-01      1.745156000000000E+02
4884000000.000000      4.164124000000000E-01      2.971094000000000E+01      3.621063000000000E-01      1.739766000000000E+02
4885000000.000000      4.164276000000000E-01      2.949609000000000E+01      3.606110000000000E-01      1.736016000000000E+02
4886000000.000000      4.165344000000000E-01      2.925781000000000E+01      3.558807000000000E-01      1.729687000000000E+02
4887000000.000000      4.167328000000000E-01      2.905468000000000E+01      3.526001000000000E-01      1.726250000000000E+02
4888000000.000000      4.159088000000000E-01      2.870996000000000E+01      3.484955000000000E-01      1.721484000000000E+02
4889000000.000000      4.166565000000000E-01      2.854785000000000E+01      3.449860000000000E-01      1.715859000000000E+02
4890000000.000000      4.160767000000000E-01      2.835644000000000E+01      3.405457000000000E-01      1.708672000000000E+02
4891000000.000000      4.170837000000000E-01      2.822461000000000E+01      3.374023000000000E-01      1.707031000000000E+02
4892000000.000000      4.156952000000000E-01      2.782227000000000E+01      3.345795000000000E-01      1.700781000000000E+02
4893000000.000000      4.175262000000000E-01      2.766211000000000E+01      3.304901000000000E-01      1.697344000000000E+02
4894000000.000000      4.161377000000000E-01      2.735840000000000E+01      3.271027000000000E-01      1.694062000000000E+02
4895000000.000000      4.179077000000000E-01      2.716894000000000E+01      3.245850000000000E-01      1.690078000000000E+02
4896000000.000000      4.170685000000000E-01      2.704394000000000E+01      3.206635000000000E-01      1.685703000000000E+02
4897000000.000000      4.168396000000000E-01      2.684277000000000E+01      3.170929000000000E-01      1.681406000000000E+02
4898000000.000000      4.160919000000000E-01      2.668848000000000E+01      3.144073000000000E-01      1.678984000000000E+02
4899000000.000000      4.167175000000000E-01      2.646679000000000E+01      3.109589000000000E-01      1.672969000000000E+02
4900000000.000000      4.159241000000000E-01      2.619629000000000E+01      3.071747000000000E-01      1.669609000000000E+02
4901000000.000000      4.161377000000000E-01      2.601953000000000E+01      3.040009000000000E-01      1.666328000000000E+02
4902000000.000000      4.166718000000000E-01      2.575879000000000E+01      3.015747000000000E-01      1.663437000000000E+02
4903000000.000000      4.161987000000000E-01      2.576757000000000E+01      2.966766000000000E-01      1.658203000000000E+02
4904000000.000000      4.170532000000000E-01      2.536133000000000E+01      2.940063000000000E-01      1.653906000000000E+02
4905000000.000000      4.160309000000000E-01      2.529004000000000E+01      2.912598000000000E-01      1.650234000000000E+02
4906000000.000000      4.152374000000000E-01      2.502930000000000E+01      2.875366000000000E-01      1.648594000000000E+02
4907000000.000000      4.159546000000000E-01      2.489843000000000E+01      2.848206000000000E-01      1.641172000000000E+02
4908000000.000000      4.159241000000000E-01      2.466113000000000E+01      2.810974000000000E-01      1.638438000000000E+02
4909000000.000000      4.152832000000000E-01      2.438672000000000E+01      2.765656000000000E-01      1.634922000000000E+02
4910000000.000000      4.147491000000000E-01      2.433691000000000E+01      2.734070000000000E-01      1.632656000000000E+02
4911000000.000000      4.147644000000000E-01      2.413281000000000E+01      2.706757000000000E-01      1.628672000000000E+02
4912000000.000000      4.140167000000000E-01      2.403906000000000E+01      2.672119000000000E-01      1.626641000000000E+02
4913000000.000000      4.144287000000000E-01      2.375098000000000E+01      2.633362000000000E-01      1.621406000000000E+02
4914000000.000000      4.146881000000000E-01      2.352832000000000E+01      2.602997000000000E-01      1.620156000000000E+02
4915000000.000000      4.145966000000000E-01      2.348437000000000E+01      2.564392000000000E-01      1.613984000000000E+02
4916000000.000000      4.136200000000000E-01      2.332520000000000E+01      2.525024000000000E-01      1.610703000000000E+02
4917000000.000000      4.132538000000000E-01      2.305274000000000E+01      2.497101000000000E-01      1.609531000000000E+02
4918000000.000000      4.131165000000000E-01      2.283594000000000E+01      2.447128000000000E-01      1.604063000000000E+02
4919000000.000000      4.118500000000000E-01      2.279101000000000E+01      2.420883000000000E-01      1.604219000000000E+02
4920000000.000000      4.127502000000000E-01      2.250781000000000E+01      2.377701000000000E-01      1.599141000000000E+02
4921000000.000000      4.125061000000000E-01      2.255469000000000E+01      2.343063000000000E-01      1.597969000000000E+02
4922000000.000000      4.134674000000000E-01      2.220313000000000E+01      2.304230000000000E-01      1.597812000000000E+02
4923000000.000000      4.130249000000000E-01      2.212305000000000E+01      2.265167000000000E-01      1.594687000000000E+02
4924000000.000000      4.128876000000000E-01      2.194726000000000E+01      2.226257000000000E-01      1.590937000000000E+02
4925000000.000000      4.117889000000000E-01      2.170312000000000E+01      2.189789000000000E-01      1.590859000000000E+02
4926000000.000000      4.117737000000000E-01      2.159766000000000E+01      2.158279000000000E-01      1.588906000000000E+02
4927000000.000000      4.105682000000000E-01      2.146289000000000E+01      2.116241000000000E-01      1.586406000000000E+02
4928000000.000000      4.127350000000000E-01      2.113183000000000E+01      2.079315000000000E-01      1.585312000000000E+02
4929000000.000000      4.110260000000000E-01      2.117676000000000E+01      2.036819000000000E-01      1.585547000000000E+02
4930000000.000000      4.110718000000000E-01      2.101953000000000E+01      2.002411000000000E-01      1.583203000000000E+02
4931000000.000000      4.103241000000000E-01      2.079394000000000E+01      1.963501000000000E-01      1.582500000000000E+02
4932000000.000000      4.104767000000000E-01      2.058203000000000E+01      1.922531000000000E-01      1.583359000000000E+02
4933000000.000000      4.104462000000000E-01      2.045215000000000E+01      1.875076000000000E-01      1.586016000000000E+02
4934000000.000000      4.107208000000000E-01      2.032324000000000E+01      1.841660000000000E-01      1.583906000000000E+02
4935000000.000000      4.110718000000000E-01      2.020996000000000E+01      1.808472000000000E-01      1.586406000000000E+02
4936000000.000000      4.097595000000000E-01      1.999219000000000E+01      1.766968000000000E-01      1.588828000000000E+02
4937000000.000000      4.092102000000000E-01      1.979394000000000E+01      1.729965000000000E-01      1.589453000000000E+02
4938000000.000000      4.090271000000000E-01      1.974902000000000E+01      1.693420000000000E-01      1.593047000000000E+02
4939000000.000000      4.091797000000000E-01      1.965820000000000E+01      1.656418000000000E-01      1.595625000000000E+02
4940000000.000000      4.080658000000000E-01      1.936426000000000E+01      1.615524000000000E-01      1.598438000000000E+02
4941000000.000000      4.100800000000000E-01      1.908594000000000E+01      1.579590000000000E-01      1.603203000000000E+02
4942000000.000000      4.076080000000000E-01      1.910645000000000E+01      1.544189000000000E-01      1.606484000000000E+02
4943000000.000000      4.082336000000000E-01      1.904394000000000E+01      1.508942000000000E-01      1.613594000000000E+02
4944000000.000000      4.079742000000000E-01      1.867090000000000E+01      1.475983000000000E-01      1.620000000000000E+02
4945000000.000000      4.073029000000000E-01      1.862109000000000E+01      1.440048000000000E-01      1.626484000000000E+02
4946000000.000000      4.070892000000000E-01      1.836426000000000E+01      1.410370000000000E-01      1.633047000000000E+02
4947000000.000000      4.072113000000000E-01      1.824219000000000E+01      1.375504000000000E-01      1.643516000000000E+02
4948000000.000000      4.064636000000000E-01      1.811328000000000E+01      1.342087000000000E-01      1.650625000000000E+02
4949000000.000000      4.061127000000000E-01      1.786230000000000E+01      1.318817000000000E-01      1.662734000000000E+02
4950000000.000000      4.057465000000000E-01      1.795898000000000E+01      1.288223000000000E-01      1.673203000000000E+02
4951000000.000000      4.061279000000000E-01      1.763379000000000E+01      1.264572000000000E-01      1.681797000000000E+02
4952000000.000000      4.059601000000000E-01      1.738574000000000E+01      1.236305000000000E-01      1.696094000000000E+02
4953000000.000000      4.060974000000000E-01      1.730273000000000E+01      1.220131000000000E-01      1.710859000000000E+02
4954000000.000000      4.056702000000000E-01      1.721191000000000E+01      1.191559000000000E-01      1.725156000000000E+02
