! Network Analyzer HP8722D
! Hewlett-Packard
! Data name: Linha & Wilkinson
! Saver's name: Rodrigo Anjos
! Comments: Teste da utilização de aquisição
continua pelo VNA HP8722D
! Time and date: 23/5/2025 13:24
!              Frequency                     S11                                                   S21                                                   S12                                                   S22
# HZ  S  MA R 50
4800000000.000000      2.902679000000000E-01      3.952929000000000E+01      4.834900000000000E-01     -1.297422000000000E+02
4801000000.000000      2.914429000000000E-01      3.982226000000000E+01      4.842072000000000E-01     -1.302109000000000E+02
4802000000.000000      2.926483000000000E-01      3.995312000000000E+01      4.851990000000000E-01     -1.310234000000000E+02
4803000000.000000      2.936554000000000E-01      4.014257000000000E+01      4.888458000000000E-01     -1.315234000000000E+02
4804000000.000000      2.945557000000000E-01      4.045507000000000E+01      4.885254000000000E-01     -1.323281000000000E+02
4805000000.000000      2.962646000000000E-01      4.046288000000000E+01      4.917450000000000E-01     -1.331406000000000E+02
4806000000.000000      2.973633000000000E-01      4.064843000000000E+01      4.915771000000000E-01     -1.338594000000000E+02
4807000000.000000      2.988281000000000E-01      4.081055000000000E+01      4.937744000000000E-01     -1.347656000000000E+02
4808000000.000000      2.995453000000000E-01      4.104492000000000E+01      4.950714000000000E-01     -1.353281000000000E+02
4809000000.000000      3.013916000000000E-01      4.125196000000000E+01      4.961090000000000E-01     -1.362344000000000E+02
4810000000.000000      3.027191000000000E-01      4.141015000000000E+01      4.977875000000000E-01     -1.368047000000000E+02
4811000000.000000      3.048706000000000E-01      4.154492000000000E+01      4.992676000000000E-01     -1.376094000000000E+02
4812000000.000000      3.066864000000000E-01      4.165235000000000E+01      4.994965000000000E-01     -1.383047000000000E+02
4813000000.000000      3.074799000000000E-01      4.182422000000000E+01      4.998932000000000E-01     -1.391562000000000E+02
4814000000.000000      3.091736000000000E-01      4.179101000000000E+01      5.008545000000000E-01     -1.396875000000000E+02
4815000000.000000      3.109894000000000E-01      4.196485000000000E+01      5.006104000000000E-01     -1.405000000000000E+02
4816000000.000000      3.130646000000000E-01      4.212695000000000E+01      5.024719000000000E-01     -1.410625000000000E+02
4817000000.000000      3.143311000000000E-01      4.214257000000000E+01      5.024414000000000E-01     -1.420391000000000E+02
4818000000.000000      3.161316000000000E-01      4.213672000000000E+01      5.018616000000000E-01     -1.426250000000000E+02
4819000000.000000      3.179932000000000E-01      4.220899000000000E+01      5.025330000000000E-01     -1.435234000000000E+02
4820000000.000000      3.190613000000000E-01      4.228711000000000E+01      5.034790000000000E-01     -1.439922000000000E+02
4821000000.000000      3.218994000000000E-01      4.216601000000000E+01      5.043335000000000E-01     -1.448125000000000E+02
4822000000.000000      3.224487000000000E-01      4.214648000000000E+01      5.020142000000000E-01     -1.456640000000000E+02
4823000000.000000      3.245850000000000E-01      4.216601000000000E+01      5.031433000000000E-01     -1.464766000000000E+02
4824000000.000000      3.266296000000000E-01      4.231641000000000E+01      5.023499000000000E-01     -1.472422000000000E+02
4825000000.000000      3.284302000000000E-01      4.207812000000000E+01      5.017090000000000E-01     -1.478359000000000E+02
4826000000.000000      3.300323000000000E-01      4.210156000000000E+01      5.022888000000000E-01     -1.485234000000000E+02
4827000000.000000      3.318787000000000E-01      4.208398000000000E+01      5.020142000000000E-01     -1.492734000000000E+02
4828000000.000000      3.342743000000000E-01      4.210156000000000E+01      5.019531000000000E-01     -1.500156000000000E+02
4829000000.000000      3.352203000000000E-01      4.218163000000000E+01      5.007629000000000E-01     -1.507656000000000E+02
4830000000.000000      3.371124000000000E-01      4.193749000000000E+01      5.000610000000000E-01     -1.516016000000000E+02
4831000000.000000      3.388672000000000E-01      4.178320000000000E+01      5.005493000000000E-01     -1.522187000000000E+02
4832000000.000000      3.403625000000000E-01      4.182617000000000E+01      4.990082000000000E-01     -1.530000000000000E+02
4833000000.000000      3.417969000000000E-01      4.161133000000000E+01      4.984283000000000E-01     -1.535000000000000E+02
4834000000.000000      3.441010000000000E-01      4.156836000000000E+01      4.972534000000000E-01     -1.543828000000000E+02
4835000000.000000      3.456116000000000E-01      4.142968000000000E+01      4.970093000000000E-01     -1.550937000000000E+02
4836000000.000000      3.478851000000000E-01      4.141406000000000E+01      4.950714000000000E-01     -1.557188000000000E+02
4837000000.000000      3.492737000000000E-01      4.127930000000000E+01      4.926453000000000E-01     -1.566875000000000E+02
4838000000.000000      3.503876000000000E-01      4.111328000000000E+01      4.944153000000000E-01     -1.572578000000000E+02
4839000000.000000      3.540955000000000E-01      4.091797000000000E+01      4.923706000000000E-01     -1.577891000000000E+02
4840000000.000000      3.545380000000000E-01      4.073828000000000E+01      4.914703000000000E-01     -1.586250000000000E+02
4841000000.000000      3.558502000000000E-01      4.069336000000000E+01      4.905090000000000E-01     -1.593281000000000E+02
4842000000.000000      3.572388000000000E-01      4.050195000000000E+01      4.895325000000000E-01     -1.599922000000000E+02
4843000000.000000      3.597412000000000E-01      4.014453000000000E+01      4.881134000000000E-01     -1.608594000000000E+02
4844000000.000000      3.606873000000000E-01      4.008398000000000E+01      4.864197000000000E-01     -1.616797000000000E+02
4845000000.000000      3.622742000000000E-01      4.001953000000000E+01      4.845428000000000E-01     -1.619609000000000E+02
4846000000.000000      3.641815000000000E-01      3.979297000000000E+01      4.838104000000000E-01     -1.628672000000000E+02
4847000000.000000      3.657684000000000E-01      3.966797000000000E+01      4.814148000000000E-01     -1.633906000000000E+02
4848000000.000000      3.663940000000000E-01      3.925781000000000E+01      4.806366000000000E-01     -1.642500000000000E+02
4849000000.000000      3.679657000000000E-01      3.903320000000000E+01      4.784546000000000E-01     -1.650547000000000E+02
4850000000.000000      3.692780000000000E-01      3.883203000000000E+01      4.754486000000000E-01     -1.656719000000000E+02
4851000000.000000      3.707733000000000E-01      3.877344000000000E+01      4.747620000000000E-01     -1.665234000000000E+02
4852000000.000000      3.722229000000000E-01      3.854883000000000E+01      4.707184000000000E-01     -1.670312000000000E+02
4853000000.000000      3.731537000000000E-01      3.830664000000000E+01      4.692688000000000E-01     -1.678203000000000E+02
4854000000.000000      3.746643000000000E-01      3.801367000000000E+01      4.676819000000000E-01     -1.685156000000000E+02
4855000000.000000      3.751373000000000E-01      3.780664000000000E+01      4.649200000000000E-01     -1.692109000000000E+02
4856000000.000000      3.769531000000000E-01      3.757226000000000E+01      4.634552000000000E-01     -1.698750000000000E+02
4857000000.000000      3.785553000000000E-01      3.740429000000000E+01      4.608917000000000E-01     -1.706484000000000E+02
4858000000.000000      3.786774000000000E-01      3.716015000000000E+01      4.589233000000000E-01     -1.713438000000000E+02
4859000000.000000      3.796692000000000E-01      3.682422000000000E+01      4.566193000000000E-01     -1.718984000000000E+02
4860000000.000000      3.813171000000000E-01      3.671875000000000E+01      4.533234000000000E-01     -1.727422000000000E+02
4861000000.000000      3.820801000000000E-01      3.640039000000000E+01      4.503174000000000E-01     -1.734297000000000E+02
4862000000.000000      3.822784000000000E-01      3.611719000000000E+01      4.485016000000000E-01     -1.741016000000000E+02
4863000000.000000      3.842926000000000E-01      3.596484000000000E+01      4.442444000000000E-01     -1.746719000000000E+02
4864000000.000000      3.845978000000000E-01      3.567383000000000E+01      4.422302000000000E-01     -1.753438000000000E+02
4865000000.000000      3.854370000000000E-01      3.533984000000000E+01      4.392090000000000E-01     -1.758984000000000E+02
4866000000.000000      3.865814000000000E-01      3.516992000000000E+01      4.357758000000000E-01     -1.766562000000000E+02
4867000000.000000      3.860016000000000E-01      3.482617000000000E+01      4.332581000000000E-01     -1.774453000000000E+02
4868000000.000000      3.878021000000000E-01      3.457617000000000E+01      4.300385000000000E-01     -1.778984000000000E+02
4869000000.000000      3.881531000000000E-01      3.448437000000000E+01      4.266815000000000E-01     -1.786719000000000E+02
4870000000.000000      3.892975000000000E-01      3.412500000000000E+01      4.225311000000000E-01     -1.793359000000000E+02
4871000000.000000      3.895111000000000E-01      3.380664000000000E+01      4.196167000000000E-01     -1.798203000000000E+02
4872000000.000000      3.914337000000000E-01      3.361133000000000E+01      4.174347000000000E-01      1.795469000000000E+02
4873000000.000000      3.908386000000000E-01      3.342382000000000E+01      4.140015000000000E-01      1.787891000000000E+02
4874000000.000000      3.915253000000000E-01      3.311132000000000E+01      4.097137000000000E-01      1.785000000000000E+02
4875000000.000000      3.920135000000000E-01      3.278906000000000E+01      4.069824000000000E-01      1.778359000000000E+02
4876000000.000000      3.922272000000000E-01      3.256250000000000E+01      4.033661000000000E-01      1.772891000000000E+02
4877000000.000000      3.931122000000000E-01      3.211133000000000E+01      4.000702000000000E-01      1.765469000000000E+02
4878000000.000000      3.929138000000000E-01      3.203320000000000E+01      3.972778000000000E-01      1.757813000000000E+02
4879000000.000000      3.943481000000000E-01      3.184765000000000E+01      3.927002000000000E-01      1.754609000000000E+02
4880000000.000000      3.944244000000000E-01      3.145215000000000E+01      3.902893000000000E-01      1.748672000000000E+02
4881000000.000000      3.937683000000000E-01      3.132813000000000E+01      3.855896000000000E-01      1.743594000000000E+02
4882000000.000000      3.949738000000000E-01      3.111328000000000E+01      3.835754000000000E-01      1.736953000000000E+02
4883000000.000000      3.949738000000000E-01      3.068457000000000E+01      3.784180000000000E-01      1.732422000000000E+02
4884000000.000000      3.955536000000000E-01      3.052051000000000E+01      3.749084000000000E-01      1.729141000000000E+02
4885000000.000000      3.956146000000000E-01      3.036718000000000E+01      3.709564000000000E-01      1.723359000000000E+02
4886000000.000000      3.957672000000000E-01      3.004883000000000E+01      3.681488000000000E-01      1.718125000000000E+02
4887000000.000000      3.954315000000000E-01      2.983007000000000E+01      3.654175000000000E-01      1.715469000000000E+02
4888000000.000000      3.950958000000000E-01      2.945801000000000E+01      3.622742000000000E-01      1.708906000000000E+02
4889000000.000000      3.947296000000000E-01      2.934570000000000E+01      3.568420000000000E-01      1.705937000000000E+02
4890000000.000000      3.949432000000000E-01      2.904785000000000E+01      3.536835000000000E-01      1.695625000000000E+02
4891000000.000000      3.958130000000000E-01      2.877148000000000E+01      3.507080000000000E-01      1.693984000000000E+02
4892000000.000000      3.946075000000000E-01      2.859961000000000E+01      3.466949000000000E-01      1.691406000000000E+02
4893000000.000000      3.959808000000000E-01      2.838964000000000E+01      3.418732000000000E-01      1.685234000000000E+02
4894000000.000000      3.949890000000000E-01      2.820117000000000E+01      3.390961000000000E-01      1.681875000000000E+02
4895000000.000000      3.963623000000000E-01      2.789648000000000E+01      3.372345000000000E-01      1.679844000000000E+02
4896000000.000000      3.954010000000000E-01      2.759472000000000E+01      3.326263000000000E-01      1.673750000000000E+02
4897000000.000000      3.949585000000000E-01      2.748828000000000E+01      3.286285000000000E-01      1.668203000000000E+02
4898000000.000000      3.953247000000000E-01      2.719629000000000E+01      3.268127000000000E-01      1.667187000000000E+02
4899000000.000000      3.955688000000000E-01      2.696386000000000E+01      3.228760000000000E-01      1.660312000000000E+02
4900000000.000000      3.947144000000000E-01      2.666992000000000E+01      3.191071000000000E-01      1.657812000000000E+02
4901000000.000000      3.946075000000000E-01      2.659082000000000E+01      3.154449000000000E-01      1.652969000000000E+02
4902000000.000000      3.947754000000000E-01      2.635254000000000E+01      3.128815000000000E-01      1.650234000000000E+02
4903000000.000000      3.946838000000000E-01      2.608398000000000E+01      3.085175000000000E-01      1.646406000000000E+02
4904000000.000000      3.935394000000000E-01      2.598730000000000E+01      3.039398000000000E-01      1.642656000000000E+02
4905000000.000000      3.940277000000000E-01      2.562207000000000E+01      3.030548000000000E-01      1.637734000000000E+02
4906000000.000000      3.938141000000000E-01      2.552929000000000E+01      2.994690000000000E-01      1.636875000000000E+02
4907000000.000000      3.930664000000000E-01      2.523633000000000E+01      2.951050000000000E-01      1.630000000000000E+02
4908000000.000000      3.937378000000000E-01      2.517187000000000E+01      2.924500000000000E-01      1.624375000000000E+02
4909000000.000000      3.920135000000000E-01      2.496094000000000E+01      2.880554000000000E-01      1.623516000000000E+02
4910000000.000000      3.928070000000000E-01      2.472949000000000E+01      2.850494000000000E-01      1.621094000000000E+02
4911000000.000000      3.923492000000000E-01      2.459765000000000E+01      2.814789000000000E-01      1.615234000000000E+02
4912000000.000000      3.919678000000000E-01      2.434570000000000E+01      2.777405000000000E-01      1.610625000000000E+02
4913000000.000000      3.924713000000000E-01      2.414844000000000E+01      2.745972000000000E-01      1.606641000000000E+02
4914000000.000000      3.922577000000000E-01      2.395898000000000E+01      2.715149000000000E-01      1.606719000000000E+02
4915000000.000000      3.922119000000000E-01      2.380176000000000E+01      2.666168000000000E-01      1.600703000000000E+02
4916000000.000000      3.921509000000000E-01      2.360547000000000E+01      2.630005000000000E-01      1.597422000000000E+02
4917000000.000000      3.917084000000000E-01      2.352246000000000E+01      2.596436000000000E-01      1.596016000000000E+02
4918000000.000000      3.914032000000000E-01      2.312304000000000E+01      2.555084000000000E-01      1.591875000000000E+02
4919000000.000000      3.904266000000000E-01      2.320801000000000E+01      2.525787000000000E-01      1.591250000000000E+02
4920000000.000000      3.907776000000000E-01      2.291016000000000E+01      2.480698000000000E-01      1.586406000000000E+02
4921000000.000000      3.894806000000000E-01      2.280566000000000E+01      2.444916000000000E-01      1.584141000000000E+02
4922000000.000000      3.897552000000000E-01      2.252539000000000E+01      2.408981000000000E-01      1.580859000000000E+02
4923000000.000000      3.905334000000000E-01      2.250781000000000E+01      2.368240000000000E-01      1.579297000000000E+02
4924000000.000000      3.895569000000000E-01      2.216406000000000E+01      2.326431000000000E-01      1.575781000000000E+02
4925000000.000000      3.887177000000000E-01      2.197754000000000E+01      2.287827000000000E-01      1.573125000000000E+02
4926000000.000000      3.886566000000000E-01      2.189844000000000E+01      2.249374000000000E-01      1.571484000000000E+02
4927000000.000000      3.883209000000000E-01      2.173730000000000E+01      2.209702000000000E-01      1.569687000000000E+02
4928000000.000000      3.894806000000000E-01      2.136133000000000E+01      2.169571000000000E-01      1.569844000000000E+02
4929000000.000000      3.878784000000000E-01      2.123633000000000E+01      2.123337000000000E-01      1.567578000000000E+02
4930000000.000000      3.873138000000000E-01      2.128418000000000E+01      2.089157000000000E-01      1.566406000000000E+02
4931000000.000000      3.878326000000000E-01      2.093359000000000E+01      2.052536000000000E-01      1.565938000000000E+02
4932000000.000000      3.870544000000000E-01      2.089550000000000E+01      2.011642000000000E-01      1.564922000000000E+02
4933000000.000000      3.868866000000000E-01      2.054785000000000E+01      1.960068000000000E-01      1.567656000000000E+02
4934000000.000000      3.873901000000000E-01      2.038476000000000E+01      1.926346000000000E-01      1.566797000000000E+02
4935000000.000000      3.874817000000000E-01      2.029297000000000E+01      1.892242000000000E-01      1.569062000000000E+02
4936000000.000000      3.856354000000000E-01      2.006054000000000E+01      1.844482000000000E-01      1.569219000000000E+02
4937000000.000000      3.869476000000000E-01      1.988477000000000E+01      1.814423000000000E-01      1.569687000000000E+02
4938000000.000000      3.858795000000000E-01      1.985449000000000E+01      1.766586000000000E-01      1.575469000000000E+02
4939000000.000000      3.852539000000000E-01      1.970605000000000E+01      1.730576000000000E-01      1.577734000000000E+02
4940000000.000000      3.851929000000000E-01      1.944824000000000E+01      1.689072000000000E-01      1.577266000000000E+02
4941000000.000000      3.846130000000000E-01      1.923242000000000E+01      1.653061000000000E-01      1.583047000000000E+02
4942000000.000000      3.842010000000000E-01      1.914746000000000E+01      1.614685000000000E-01      1.587734000000000E+02
4943000000.000000      3.845062000000000E-01      1.899219000000000E+01      1.578903000000000E-01      1.593047000000000E+02
4944000000.000000      3.837280000000000E-01      1.872070000000000E+01      1.542358000000000E-01      1.596719000000000E+02
4945000000.000000      3.845978000000000E-01      1.853516000000000E+01      1.508408000000000E-01      1.604219000000000E+02
4946000000.000000      3.836975000000000E-01      1.846484000000000E+01      1.471481000000000E-01      1.610547000000000E+02
4947000000.000000      3.831787000000000E-01      1.822851000000000E+01      1.438217000000000E-01      1.618594000000000E+02
4948000000.000000      3.836670000000000E-01      1.817383000000000E+01      1.406479000000000E-01      1.627187000000000E+02
4949000000.000000      3.830719000000000E-01      1.794824000000000E+01      1.380310000000000E-01      1.640000000000000E+02
4950000000.000000      3.826294000000000E-01      1.782617000000000E+01      1.347122000000000E-01      1.647187000000000E+02
4951000000.000000      3.820343000000000E-01      1.768164000000000E+01      1.321335000000000E-01      1.657422000000000E+02
4952000000.000000      3.814392000000000E-01      1.736230000000000E+01      1.285858000000000E-01      1.669765000000000E+02
4953000000.000000      3.803711000000000E-01      1.738574000000000E+01      1.269150000000000E-01      1.682109000000000E+02
4954000000.000000      3.815002000000000E-01      1.711523000000000E+01      1.239204000000000E-01      1.696953000000000E+02
