! Network Analyzer HP8722D
! Hewlett-Packard
! Data name: Linha & Wilkinson
! Saver's name: Rodrigo Anjos
! Comments: Teste da utilização de aquisição
continua pelo VNA HP8722D
! Time and date: 23/5/2025 11:02
!              Frequency                     S11                                                   S21                                                   S12                                                   S22
# HZ  S  MA R 50
4800000000.000000      3.134766000000000E-01      3.737500000000000E+01      4.714661000000000E-01     -1.285156000000000E+02
4801000000.000000      3.144379000000000E-01      3.771484000000000E+01      4.726410000000000E-01     -1.291719000000000E+02
4802000000.000000      3.151398000000000E-01      3.778906000000000E+01      4.747009000000000E-01     -1.296328000000000E+02
4803000000.000000      3.158264000000000E-01      3.799219000000000E+01      4.766693000000000E-01     -1.305156000000000E+02
4804000000.000000      3.173676000000000E-01      3.825976000000000E+01      4.776459000000000E-01     -1.313047000000000E+02
4805000000.000000      3.192902000000000E-01      3.825976000000000E+01      4.775543000000000E-01     -1.318906000000000E+02
4806000000.000000      3.195801000000000E-01      3.847070000000000E+01      4.789124000000000E-01     -1.325781000000000E+02
4807000000.000000      3.205261000000000E-01      3.866992000000000E+01      4.811554000000000E-01     -1.334375000000000E+02
4808000000.000000      3.214111000000000E-01      3.877344000000000E+01      4.825897000000000E-01     -1.339922000000000E+02
4809000000.000000      3.228760000000000E-01      3.898046000000000E+01      4.826355000000000E-01     -1.349844000000000E+02
4810000000.000000      3.246460000000000E-01      3.911523000000000E+01      4.857941000000000E-01     -1.354297000000000E+02
4811000000.000000      3.262939000000000E-01      3.919336000000000E+01      4.863739000000000E-01     -1.363750000000000E+02
4812000000.000000      3.287811000000000E-01      3.942383000000000E+01      4.865570000000000E-01     -1.370781000000000E+02
4813000000.000000      3.293152000000000E-01      3.949804000000000E+01      4.873047000000000E-01     -1.378750000000000E+02
4814000000.000000      3.302612000000000E-01      3.960351000000000E+01      4.888458000000000E-01     -1.384140000000000E+02
4815000000.000000      3.318634000000000E-01      3.970117000000000E+01      4.878235000000000E-01     -1.392734000000000E+02
4816000000.000000      3.337402000000000E-01      3.979883000000000E+01      4.887543000000000E-01     -1.399219000000000E+02
4817000000.000000      3.349915000000000E-01      3.985547000000000E+01      4.894104000000000E-01     -1.408516000000000E+02
4818000000.000000      3.360596000000000E-01      3.986719000000000E+01      4.899445000000000E-01     -1.414687000000000E+02
4819000000.000000      3.379059000000000E-01      3.990234000000000E+01      4.902496000000000E-01     -1.421016000000000E+02
4820000000.000000      3.391876000000000E-01      4.005664000000000E+01      4.915161000000000E-01     -1.428437000000000E+02
4821000000.000000      3.414459000000000E-01      4.003906000000000E+01      4.901123000000000E-01     -1.437109000000000E+02
4822000000.000000      3.425446000000000E-01      3.989258000000000E+01      4.894104000000000E-01     -1.444219000000000E+02
4823000000.000000      3.442383000000000E-01      4.004102000000000E+01      4.913025000000000E-01     -1.451328000000000E+02
4824000000.000000      3.461304000000000E-01      4.013281000000000E+01      4.901123000000000E-01     -1.457813000000000E+02
4825000000.000000      3.483582000000000E-01      3.991601000000000E+01      4.893646000000000E-01     -1.465234000000000E+02
4826000000.000000      3.496857000000000E-01      4.002149000000000E+01      4.902191000000000E-01     -1.474688000000000E+02
4827000000.000000      3.515167000000000E-01      3.997265000000000E+01      4.884644000000000E-01     -1.479687000000000E+02
4828000000.000000      3.532104000000000E-01      4.002539000000000E+01      4.898071000000000E-01     -1.487813000000000E+02
4829000000.000000      3.547821000000000E-01      3.999218000000000E+01      4.885254000000000E-01     -1.495781000000000E+02
4830000000.000000      3.566589000000000E-01      3.984375000000000E+01      4.877930000000000E-01     -1.501250000000000E+02
4831000000.000000      3.576660000000000E-01      3.977148000000000E+01      4.875183000000000E-01     -1.511641000000000E+02
4832000000.000000      3.598633000000000E-01      3.982031000000000E+01      4.876251000000000E-01     -1.515859000000000E+02
4833000000.000000      3.605804000000000E-01      3.963867000000000E+01      4.845428000000000E-01     -1.523281000000000E+02
4834000000.000000      3.625488000000000E-01      3.956250000000000E+01      4.862213000000000E-01     -1.531484000000000E+02
4835000000.000000      3.653259000000000E-01      3.942578000000000E+01      4.847412000000000E-01     -1.538359000000000E+02
4836000000.000000      3.667450000000000E-01      3.941601000000000E+01      4.825439000000000E-01     -1.545469000000000E+02
4837000000.000000      3.675995000000000E-01      3.940625000000000E+01      4.816742000000000E-01     -1.555156000000000E+02
4838000000.000000      3.694916000000000E-01      3.912304000000000E+01      4.821320000000000E-01     -1.559375000000000E+02
4839000000.000000      3.724060000000000E-01      3.909180000000000E+01      4.802704000000000E-01     -1.566562000000000E+02
4840000000.000000      3.726349000000000E-01      3.885156000000000E+01      4.789734000000000E-01     -1.574453000000000E+02
4841000000.000000      3.751984000000000E-01      3.893750000000000E+01      4.773102000000000E-01     -1.580625000000000E+02
4842000000.000000      3.760376000000000E-01      3.866601000000000E+01      4.766998000000000E-01     -1.588203000000000E+02
4843000000.000000      3.788757000000000E-01      3.835938000000000E+01      4.755402000000000E-01     -1.595391000000000E+02
4844000000.000000      3.791351000000000E-01      3.815820000000000E+01      4.742737000000000E-01     -1.601875000000000E+02
4845000000.000000      3.809357000000000E-01      3.825390000000000E+01      4.719391000000000E-01     -1.608828000000000E+02
4846000000.000000      3.822479000000000E-01      3.803125000000000E+01      4.707184000000000E-01     -1.617344000000000E+02
4847000000.000000      3.842773000000000E-01      3.800586000000000E+01      4.692841000000000E-01     -1.623437000000000E+02
4848000000.000000      3.850708000000000E-01      3.770703000000000E+01      4.664154000000000E-01     -1.630234000000000E+02
4849000000.000000      3.866119000000000E-01      3.746289000000000E+01      4.644623000000000E-01     -1.637969000000000E+02
4850000000.000000      3.880157000000000E-01      3.738867000000000E+01      4.641724000000000E-01     -1.645078000000000E+02
4851000000.000000      3.895721000000000E-01      3.719922000000000E+01      4.632263000000000E-01     -1.651484000000000E+02
4852000000.000000      3.900452000000000E-01      3.700000000000000E+01      4.599915000000000E-01     -1.659609000000000E+02
4853000000.000000      3.917847000000000E-01      3.686523000000000E+01      4.573517000000000E-01     -1.666563000000000E+02
4854000000.000000      3.930664000000000E-01      3.649609000000000E+01      4.552460000000000E-01     -1.676016000000000E+02
4855000000.000000      3.937988000000000E-01      3.629101000000000E+01      4.549103000000000E-01     -1.680781000000000E+02
4856000000.000000      3.953247000000000E-01      3.616406000000000E+01      4.520416000000000E-01     -1.690312000000000E+02
4857000000.000000      3.965759000000000E-01      3.603320000000000E+01      4.499207000000000E-01     -1.694141000000000E+02
4858000000.000000      3.973541000000000E-01      3.573633000000000E+01      4.465637000000000E-01     -1.701094000000000E+02
4859000000.000000      3.981171000000000E-01      3.539648000000000E+01      4.445038000000000E-01     -1.708281000000000E+02
4860000000.000000      3.999023000000000E-01      3.542383000000000E+01      4.406281000000000E-01     -1.714687000000000E+02
4861000000.000000      4.005890000000000E-01      3.504492000000000E+01      4.385681000000000E-01     -1.723516000000000E+02
4862000000.000000      4.012451000000000E-01      3.487305000000000E+01      4.367828000000000E-01     -1.730937000000000E+02
4863000000.000000      4.026184000000000E-01      3.471094000000000E+01      4.334259000000000E-01     -1.736406000000000E+02
4864000000.000000      4.031219000000000E-01      3.427734000000000E+01      4.301147000000000E-01     -1.742578000000000E+02
4865000000.000000      4.040070000000000E-01      3.411718000000000E+01      4.271088000000000E-01     -1.748203000000000E+02
4866000000.000000      4.054565000000000E-01      3.399023000000000E+01      4.242859000000000E-01     -1.756172000000000E+02
4867000000.000000      4.052887000000000E-01      3.375977000000000E+01      4.215393000000000E-01     -1.763047000000000E+02
4868000000.000000      4.066467000000000E-01      3.338672000000000E+01      4.186249000000000E-01     -1.772109000000000E+02
4869000000.000000      4.068909000000000E-01      3.329883000000000E+01      4.166260000000000E-01     -1.777344000000000E+02
4870000000.000000      4.073944000000000E-01      3.298828000000000E+01      4.122467000000000E-01     -1.779609000000000E+02
4871000000.000000      4.085388000000000E-01      3.271679000000000E+01      4.092407000000000E-01     -1.788125000000000E+02
4872000000.000000      4.099121000000000E-01      3.246679000000000E+01      4.064636000000000E-01     -1.793750000000000E+02
4873000000.000000      4.105225000000000E-01      3.229687000000000E+01      4.026337000000000E-01      1.799141000000000E+02
4874000000.000000      4.099884000000000E-01      3.216211000000000E+01      3.986511000000000E-01      1.791563000000000E+02
4875000000.000000      4.103088000000000E-01      3.178320000000000E+01      3.951111000000000E-01      1.787266000000000E+02
4876000000.000000      4.117889000000000E-01      3.172070000000000E+01      3.920593000000000E-01      1.782031000000000E+02
4877000000.000000      4.120941000000000E-01      3.126269000000000E+01      3.883820000000000E-01      1.774688000000000E+02
4878000000.000000      4.111023000000000E-01      3.103320000000000E+01      3.859100000000000E-01      1.771641000000000E+02
4879000000.000000      4.135437000000000E-01      3.093847000000000E+01      3.821106000000000E-01      1.765391000000000E+02
4880000000.000000      4.136047000000000E-01      3.047949000000000E+01      3.796539000000000E-01      1.759922000000000E+02
4881000000.000000      4.138489000000000E-01      3.046972000000000E+01      3.749695000000000E-01      1.756641000000000E+02
4882000000.000000      4.145355000000000E-01      3.029297000000000E+01      3.717041000000000E-01      1.748984000000000E+02
4883000000.000000      4.142151000000000E-01      2.982031000000000E+01      3.671265000000000E-01      1.742500000000000E+02
4884000000.000000      4.150238000000000E-01      2.972754000000000E+01      3.648071000000000E-01      1.738203000000000E+02
4885000000.000000      4.148102000000000E-01      2.943457000000000E+01      3.603210000000000E-01      1.734531000000000E+02
4886000000.000000      4.149475000000000E-01      2.940820000000000E+01      3.565063000000000E-01      1.730859000000000E+02
4887000000.000000      4.153595000000000E-01      2.906250000000000E+01      3.532410000000000E-01      1.723203000000000E+02
4888000000.000000      4.147949000000000E-01      2.873535000000000E+01      3.512268000000000E-01      1.719687000000000E+02
4889000000.000000      4.157867000000000E-01      2.857519000000000E+01      3.457947000000000E-01      1.715859000000000E+02
4890000000.000000      4.147186000000000E-01      2.823144000000000E+01      3.426056000000000E-01      1.707109000000000E+02
4891000000.000000      4.155121000000000E-01      2.825488000000000E+01      3.396454000000000E-01      1.706875000000000E+02
4892000000.000000      4.138031000000000E-01      2.803808000000000E+01      3.365173000000000E-01      1.703984000000000E+02
4893000000.000000      4.161072000000000E-01      2.765918000000000E+01      3.330383000000000E-01      1.698125000000000E+02
4894000000.000000      4.144592000000000E-01      2.751172000000000E+01      3.285675000000000E-01      1.693828000000000E+02
4895000000.000000      4.160614000000000E-01      2.729883000000000E+01      3.254852000000000E-01      1.690469000000000E+02
4896000000.000000      4.163513000000000E-01      2.712109000000000E+01      3.220673000000000E-01      1.685937000000000E+02
4897000000.000000      4.152374000000000E-01      2.693945000000000E+01      3.183441000000000E-01      1.681406000000000E+02
4898000000.000000      4.156647000000000E-01      2.679199000000000E+01      3.161469000000000E-01      1.677891000000000E+02
4899000000.000000      4.155731000000000E-01      2.642187000000000E+01      3.124390000000000E-01      1.671719000000000E+02
4900000000.000000      4.150543000000000E-01      2.614258000000000E+01      3.090820000000000E-01      1.669141000000000E+02
4901000000.000000      4.143677000000000E-01      2.605762000000000E+01      3.058167000000000E-01      1.663984000000000E+02
4902000000.000000      4.153748000000000E-01      2.585058000000000E+01      3.024597000000000E-01      1.662109000000000E+02
4903000000.000000      4.149628000000000E-01      2.581152000000000E+01      2.979889000000000E-01      1.656484000000000E+02
4904000000.000000      4.150848000000000E-01      2.552343000000000E+01      2.950592000000000E-01      1.651562000000000E+02
4905000000.000000      4.140320000000000E-01      2.527050000000000E+01      2.920532000000000E-01      1.649062000000000E+02
4906000000.000000      4.140015000000000E-01      2.510058000000000E+01      2.888947000000000E-01      1.647344000000000E+02
4907000000.000000      4.136047000000000E-01      2.496191000000000E+01      2.854614000000000E-01      1.642187000000000E+02
4908000000.000000      4.144287000000000E-01      2.466211000000000E+01      2.818451000000000E-01      1.637500000000000E+02
4909000000.000000      4.128418000000000E-01      2.446972000000000E+01      2.782440000000000E-01      1.632656000000000E+02
4910000000.000000      4.134674000000000E-01      2.454687000000000E+01      2.750092000000000E-01      1.632109000000000E+02
4911000000.000000      4.133148000000000E-01      2.418457000000000E+01      2.713776000000000E-01      1.626250000000000E+02
4912000000.000000      4.125061000000000E-01      2.402637000000000E+01      2.679138000000000E-01      1.623516000000000E+02
4913000000.000000      4.133148000000000E-01      2.383691000000000E+01      2.651520000000000E-01      1.621562000000000E+02
4914000000.000000      4.131622000000000E-01      2.358301000000000E+01      2.613678000000000E-01      1.617109000000000E+02
4915000000.000000      4.116821000000000E-01      2.347070000000000E+01      2.575531000000000E-01      1.612890000000000E+02
4916000000.000000      4.117279000000000E-01      2.336914000000000E+01      2.544403000000000E-01      1.608594000000000E+02
4917000000.000000      4.121246000000000E-01      2.320703000000000E+01      2.507324000000000E-01      1.608906000000000E+02
4918000000.000000      4.118195000000000E-01      2.292090000000000E+01      2.463226000000000E-01      1.603750000000000E+02
4919000000.000000      4.108276000000000E-01      2.277148000000000E+01      2.431793000000000E-01      1.603203000000000E+02
4920000000.000000      4.119415000000000E-01      2.257813000000000E+01      2.388687000000000E-01      1.599141000000000E+02
4921000000.000000      4.109650000000000E-01      2.253808000000000E+01      2.360077000000000E-01      1.595312000000000E+02
4922000000.000000      4.106598000000000E-01      2.223731000000000E+01      2.318878000000000E-01      1.595781000000000E+02
4923000000.000000      4.104156000000000E-01      2.221094000000000E+01      2.277908000000000E-01      1.591172000000000E+02
4924000000.000000      4.113922000000000E-01      2.208203000000000E+01      2.236481000000000E-01      1.588594000000000E+02
4925000000.000000      4.105225000000000E-01      2.182617000000000E+01      2.206497000000000E-01      1.587578000000000E+02
4926000000.000000      4.094849000000000E-01      2.177051000000000E+01      2.168045000000000E-01      1.585625000000000E+02
4927000000.000000      4.096985000000000E-01      2.144238000000000E+01      2.123642000000000E-01      1.583047000000000E+02
4928000000.000000      4.098358000000000E-01      2.125977000000000E+01      2.087860000000000E-01      1.583750000000000E+02
4929000000.000000      4.087219000000000E-01      2.116504000000000E+01      2.047501000000000E-01      1.582500000000000E+02
4930000000.000000      4.092865000000000E-01      2.102344000000000E+01      2.012100000000000E-01      1.582109000000000E+02
4931000000.000000      4.081726000000000E-01      2.081347000000000E+01      1.974258000000000E-01      1.581016000000000E+02
4932000000.000000      4.088135000000000E-01      2.067969000000000E+01      1.934052000000000E-01      1.581484000000000E+02
4933000000.000000      4.094086000000000E-01      2.047558000000000E+01      1.887512000000000E-01      1.583906000000000E+02
4934000000.000000      4.089050000000000E-01      2.029980000000000E+01      1.857224000000000E-01      1.581172000000000E+02
4935000000.000000      4.092712000000000E-01      2.014453000000000E+01      1.820908000000000E-01      1.585938000000000E+02
4936000000.000000      4.075623000000000E-01      2.005469000000000E+01      1.776886000000000E-01      1.584453000000000E+02
4937000000.000000      4.075317000000000E-01      1.968262000000000E+01      1.740952000000000E-01      1.586719000000000E+02
4938000000.000000      4.078064000000000E-01      1.972852000000000E+01      1.702499000000000E-01      1.590234000000000E+02
4939000000.000000      4.066925000000000E-01      1.964746000000000E+01      1.665039000000000E-01      1.594141000000000E+02
4940000000.000000      4.078369000000000E-01      1.943066000000000E+01      1.625061000000000E-01      1.595547000000000E+02
4941000000.000000      4.072571000000000E-01      1.923633000000000E+01      1.590118000000000E-01      1.601016000000000E+02
4942000000.000000      4.068298000000000E-01      1.908008000000000E+01      1.554260000000000E-01      1.606406000000000E+02
4943000000.000000      4.061432000000000E-01      1.890039000000000E+01      1.517487000000000E-01      1.609453000000000E+02
4944000000.000000      4.061737000000000E-01      1.872851000000000E+01      1.487961000000000E-01      1.616953000000000E+02
4945000000.000000      4.052124000000000E-01      1.867480000000000E+01      1.447449000000000E-01      1.621641000000000E+02
4946000000.000000      4.061279000000000E-01      1.846387000000000E+01      1.417236000000000E-01      1.630859000000000E+02
4947000000.000000      4.050293000000000E-01      1.816504000000000E+01      1.384354000000000E-01      1.637500000000000E+02
4948000000.000000      4.058533000000000E-01      1.812695000000000E+01      1.352081000000000E-01      1.646563000000000E+02
4949000000.000000      4.037323000000000E-01      1.793066000000000E+01      1.323776000000000E-01      1.658984000000000E+02
4950000000.000000      4.055481000000000E-01      1.785937000000000E+01      1.298981000000000E-01      1.667031000000000E+02
4951000000.000000      4.056396000000000E-01      1.779785000000000E+01      1.269455000000000E-01      1.679062000000000E+02
4952000000.000000      4.043579000000000E-01      1.751074000000000E+01      1.242828000000000E-01      1.691641000000000E+02
4953000000.000000      4.032440000000000E-01      1.734277000000000E+01      1.217155000000000E-01      1.708594000000000E+02
4954000000.000000      4.032288000000000E-01      1.723047000000000E+01      1.195145000000000E-01      1.719531000000000E+02
