! Network Analyzer HP8722D
! Hewlett-Packard
! Data name: Linha & Wilkinson
! Saver's name: Rodrigo Anjos
! Comments: Teste da utilização de aquisição
continua pelo VNA HP8722D
! Time and date: 23/5/2025 09:44
!              Frequency                     S11                                                   S21                                                   S12                                                   S22
# HZ  S  MA R 50
4800000000.000000      3.111115000000000E-01      3.739453000000000E+01      4.732971000000000E-01     -1.282656000000000E+02
4801000000.000000      3.116302000000000E-01      3.766797000000000E+01      4.730530000000000E-01     -1.289922000000000E+02
4802000000.000000      3.130341000000000E-01      3.788867000000000E+01      4.742737000000000E-01     -1.296172000000000E+02
4803000000.000000      3.138123000000000E-01      3.803320000000000E+01      4.769287000000000E-01     -1.303437000000000E+02
4804000000.000000      3.147736000000000E-01      3.825000000000000E+01      4.781189000000000E-01     -1.311484000000000E+02
4805000000.000000      3.166351000000000E-01      3.835156000000000E+01      4.790192000000000E-01     -1.319531000000000E+02
4806000000.000000      3.169556000000000E-01      3.842382000000000E+01      4.820251000000000E-01     -1.325391000000000E+02
4807000000.000000      3.183899000000000E-01      3.868750000000000E+01      4.826508000000000E-01     -1.333906000000000E+02
4808000000.000000      3.188019000000000E-01      3.879492000000000E+01      4.844818000000000E-01     -1.341016000000000E+02
4809000000.000000      3.207245000000000E-01      3.908008000000000E+01      4.849396000000000E-01     -1.349219000000000E+02
4810000000.000000      3.219147000000000E-01      3.916797000000000E+01      4.865417000000000E-01     -1.353750000000000E+02
4811000000.000000      3.233337000000000E-01      3.929688000000000E+01      4.873047000000000E-01     -1.364063000000000E+02
4812000000.000000      3.257904000000000E-01      3.951953000000000E+01      4.879150000000000E-01     -1.370000000000000E+02
4813000000.000000      3.262482000000000E-01      3.954297000000000E+01      4.889832000000000E-01     -1.379141000000000E+02
4814000000.000000      3.276367000000000E-01      3.958203000000000E+01      4.895630000000000E-01     -1.385391000000000E+02
4815000000.000000      3.283386000000000E-01      3.976758000000000E+01      4.900513000000000E-01     -1.392578000000000E+02
4816000000.000000      3.313446000000000E-01      3.985352000000000E+01      4.900513000000000E-01     -1.399609000000000E+02
4817000000.000000      3.318787000000000E-01      3.993945000000000E+01      4.910736000000000E-01     -1.407422000000000E+02
4818000000.000000      3.339081000000000E-01      3.994531000000000E+01      4.915314000000000E-01     -1.415000000000000E+02
4819000000.000000      3.359833000000000E-01      3.999023000000000E+01      4.905701000000000E-01     -1.421250000000000E+02
4820000000.000000      3.365173000000000E-01      4.010547000000000E+01      4.914703000000000E-01     -1.427734000000000E+02
4821000000.000000      3.390503000000000E-01      4.010938000000000E+01      4.925842000000000E-01     -1.438281000000000E+02
4822000000.000000      3.398132000000000E-01      4.006249000000000E+01      4.909821000000000E-01     -1.444531000000000E+02
4823000000.000000      3.422241000000000E-01      4.009179000000000E+01      4.920807000000000E-01     -1.450234000000000E+02
4824000000.000000      3.435516000000000E-01      4.016406000000000E+01      4.915924000000000E-01     -1.459375000000000E+02
4825000000.000000      3.449860000000000E-01      4.011523000000000E+01      4.922180000000000E-01     -1.466250000000000E+02
4826000000.000000      3.471680000000000E-01      4.006836000000000E+01      4.914398000000000E-01     -1.475000000000000E+02
4827000000.000000      3.485870000000000E-01      4.010156000000000E+01      4.900055000000000E-01     -1.477734000000000E+02
4828000000.000000      3.512268000000000E-01      4.003125000000000E+01      4.911804000000000E-01     -1.488125000000000E+02
4829000000.000000      3.524780000000000E-01      4.013867000000000E+01      4.893494000000000E-01     -1.494297000000000E+02
4830000000.000000      3.538818000000000E-01      4.000977000000000E+01      4.889374000000000E-01     -1.502031000000000E+02
4831000000.000000      3.546448000000000E-01      3.986328000000000E+01      4.889221000000000E-01     -1.509844000000000E+02
4832000000.000000      3.570709000000000E-01      3.989453000000000E+01      4.868317000000000E-01     -1.516875000000000E+02
4833000000.000000      3.589172000000000E-01      3.979101000000000E+01      4.876556000000000E-01     -1.521953000000000E+02
4834000000.000000      3.602600000000000E-01      3.966015000000000E+01      4.866943000000000E-01     -1.530703000000000E+02
4835000000.000000      3.622742000000000E-01      3.951562000000000E+01      4.863739000000000E-01     -1.537578000000000E+02
4836000000.000000      3.639526000000000E-01      3.963867000000000E+01      4.840546000000000E-01     -1.545469000000000E+02
4837000000.000000      3.654175000000000E-01      3.954492000000000E+01      4.835052000000000E-01     -1.554531000000000E+02
4838000000.000000      3.666840000000000E-01      3.930664000000000E+01      4.839783000000000E-01     -1.558047000000000E+02
4839000000.000000      3.699341000000000E-01      3.925976000000000E+01      4.821014000000000E-01     -1.566484000000000E+02
4840000000.000000      3.708038000000000E-01      3.896875000000000E+01      4.813843000000000E-01     -1.572266000000000E+02
4841000000.000000      3.718872000000000E-01      3.900391000000000E+01      4.797516000000000E-01     -1.580703000000000E+02
4842000000.000000      3.734131000000000E-01      3.877734000000000E+01      4.786224000000000E-01     -1.587656000000000E+02
4843000000.000000      3.762207000000000E-01      3.847265000000000E+01      4.778595000000000E-01     -1.596641000000000E+02
4844000000.000000      3.772888000000000E-01      3.832422000000000E+01      4.758606000000000E-01     -1.602422000000000E+02
4845000000.000000      3.781128000000000E-01      3.842187000000000E+01      4.738617000000000E-01     -1.609375000000000E+02
4846000000.000000      3.802643000000000E-01      3.814844000000000E+01      4.728851000000000E-01     -1.615469000000000E+02
4847000000.000000      3.818054000000000E-01      3.800586000000000E+01      4.720459000000000E-01     -1.623125000000000E+02
4848000000.000000      3.826752000000000E-01      3.772656000000000E+01      4.689178000000000E-01     -1.630234000000000E+02
4849000000.000000      3.842316000000000E-01      3.752148000000000E+01      4.673767000000000E-01     -1.638438000000000E+02
4850000000.000000      3.854675000000000E-01      3.742578000000000E+01      4.656219000000000E-01     -1.642891000000000E+02
4851000000.000000      3.873901000000000E-01      3.727734000000000E+01      4.651031000000000E-01     -1.652109000000000E+02
4852000000.000000      3.881378000000000E-01      3.709375000000000E+01      4.630127000000000E-01     -1.659922000000000E+02
4853000000.000000      3.896484000000000E-01      3.690820000000000E+01      4.590302000000000E-01     -1.664609000000000E+02
4854000000.000000      3.902588000000000E-01      3.669140000000000E+01      4.564972000000000E-01     -1.673594000000000E+02
4855000000.000000      3.912964000000000E-01      3.651953000000000E+01      4.551392000000000E-01     -1.682578000000000E+02
4856000000.000000      3.935089000000000E-01      3.628711000000000E+01      4.540863000000000E-01     -1.687500000000000E+02
4857000000.000000      3.944092000000000E-01      3.600586000000000E+01      4.509888000000000E-01     -1.694062000000000E+02
4858000000.000000      3.947296000000000E-01      3.583593000000000E+01      4.488373000000000E-01     -1.701719000000000E+02
4859000000.000000      3.965759000000000E-01      3.555664000000000E+01      4.465179000000000E-01     -1.708359000000000E+02
4860000000.000000      3.973846000000000E-01      3.548437000000000E+01      4.434814000000000E-01     -1.714062000000000E+02
4861000000.000000      3.979187000000000E-01      3.522070000000000E+01      4.409485000000000E-01     -1.722812000000000E+02
4862000000.000000      3.991241000000000E-01      3.488672000000000E+01      4.405670000000000E-01     -1.728906000000000E+02
4863000000.000000      4.004211000000000E-01      3.480078000000000E+01      4.350281000000000E-01     -1.735937000000000E+02
4864000000.000000      4.014130000000000E-01      3.440625000000000E+01      4.337311000000000E-01     -1.742031000000000E+02
4865000000.000000      4.022217000000000E-01      3.424414000000000E+01      4.298096000000000E-01     -1.748750000000000E+02
4866000000.000000      4.030457000000000E-01      3.399023000000000E+01      4.270172000000000E-01     -1.754922000000000E+02
4867000000.000000      4.028015000000000E-01      3.375391000000000E+01      4.239655000000000E-01     -1.763672000000000E+02
4868000000.000000      4.047089000000000E-01      3.344336000000000E+01      4.212952000000000E-01     -1.769063000000000E+02
4869000000.000000      4.049377000000000E-01      3.334961000000000E+01      4.180756000000000E-01     -1.775781000000000E+02
4870000000.000000      4.057770000000000E-01      3.297266000000000E+01      4.145660000000000E-01     -1.780078000000000E+02
4871000000.000000      4.060669000000000E-01      3.278320000000000E+01      4.130707000000000E-01     -1.788984000000000E+02
4872000000.000000      4.078522000000000E-01      3.262304000000000E+01      4.079285000000000E-01     -1.793203000000000E+02
4873000000.000000      4.068756000000000E-01      3.241406000000000E+01      4.053955000000000E-01      1.799219000000000E+02
4874000000.000000      4.082031000000000E-01      3.214258000000000E+01      4.015808000000000E-01      1.794531000000000E+02
4875000000.000000      4.084778000000000E-01      3.181738000000000E+01      3.970032000000000E-01      1.790000000000000E+02
4876000000.000000      4.093933000000000E-01      3.174707000000000E+01      3.948059000000000E-01      1.783437000000000E+02
4877000000.000000      4.100800000000000E-01      3.115820000000000E+01      3.908691000000000E-01      1.777812000000000E+02
4878000000.000000      4.103851000000000E-01      3.114160000000000E+01      3.873291000000000E-01      1.771797000000000E+02
4879000000.000000      4.115295000000000E-01      3.090820000000000E+01      3.826294000000000E-01      1.764922000000000E+02
4880000000.000000      4.121399000000000E-01      3.064550000000000E+01      3.806305000000000E-01      1.758203000000000E+02
4881000000.000000      4.113617000000000E-01      3.045215000000000E+01      3.768921000000000E-01      1.755156000000000E+02
4882000000.000000      4.125977000000000E-01      3.019922000000000E+01      3.743134000000000E-01      1.747109000000000E+02
4883000000.000000      4.129181000000000E-01      2.994922000000000E+01      3.699951000000000E-01      1.743281000000000E+02
4884000000.000000      4.124603000000000E-01      2.982910000000000E+01      3.666992000000000E-01      1.738984000000000E+02
4885000000.000000      4.138031000000000E-01      2.958203000000000E+01      3.631897000000000E-01      1.737109000000000E+02
4886000000.000000      4.138031000000000E-01      2.934375000000000E+01      3.591461000000000E-01      1.727734000000000E+02
4887000000.000000      4.134369000000000E-01      2.904199000000000E+01      3.571014000000000E-01      1.722109000000000E+02
4888000000.000000      4.129028000000000E-01      2.873437000000000E+01      3.543701000000000E-01      1.717813000000000E+02
4889000000.000000      4.131165000000000E-01      2.860254000000000E+01      3.486938000000000E-01      1.715000000000000E+02
4890000000.000000      4.124603000000000E-01      2.830957000000000E+01      3.450775000000000E-01      1.706640000000000E+02
4891000000.000000      4.142761000000000E-01      2.823144000000000E+01      3.419647000000000E-01      1.701953000000000E+02
4892000000.000000      4.140472000000000E-01      2.793359000000000E+01      3.371277000000000E-01      1.701953000000000E+02
4893000000.000000      4.138031000000000E-01      2.772168000000000E+01      3.350067000000000E-01      1.695313000000000E+02
4894000000.000000      4.134979000000000E-01      2.752441000000000E+01      3.313751000000000E-01      1.688437000000000E+02
4895000000.000000      4.140167000000000E-01      2.716504000000000E+01      3.280640000000000E-01      1.688437000000000E+02
4896000000.000000      4.139557000000000E-01      2.716894000000000E+01      3.246155000000000E-01      1.684062000000000E+02
4897000000.000000      4.132690000000000E-01      2.700293000000000E+01      3.213348000000000E-01      1.678516000000000E+02
4898000000.000000      4.138031000000000E-01      2.662109000000000E+01      3.174286000000000E-01      1.674375000000000E+02
4899000000.000000      4.137726000000000E-01      2.650000000000000E+01      3.149719000000000E-01      1.670000000000000E+02
4900000000.000000      4.133911000000000E-01      2.611523000000000E+01      3.112640000000000E-01      1.668672000000000E+02
4901000000.000000      4.132996000000000E-01      2.604101000000000E+01      3.078308000000000E-01      1.664609000000000E+02
4902000000.000000      4.141388000000000E-01      2.576953000000000E+01      3.048553000000000E-01      1.660938000000000E+02
4903000000.000000      4.133148000000000E-01      2.585351000000000E+01      3.011932000000000E-01      1.656719000000000E+02
4904000000.000000      4.130554000000000E-01      2.535742000000000E+01      2.977905000000000E-01      1.651797000000000E+02
4905000000.000000      4.125977000000000E-01      2.518261000000000E+01      2.940369000000000E-01      1.649062000000000E+02
4906000000.000000      4.123688000000000E-01      2.504687000000000E+01      2.910461000000000E-01      1.646484000000000E+02
4907000000.000000      4.118042000000000E-01      2.485742000000000E+01      2.885895000000000E-01      1.641094000000000E+02
4908000000.000000      4.125214000000000E-01      2.462500000000000E+01      2.848663000000000E-01      1.636016000000000E+02
4909000000.000000      4.119110000000000E-01      2.448242000000000E+01      2.802887000000000E-01      1.634766000000000E+02
4910000000.000000      4.116211000000000E-01      2.439453000000000E+01      2.779541000000000E-01      1.630781000000000E+02
4911000000.000000      4.114990000000000E-01      2.424219000000000E+01      2.740173000000000E-01      1.627734000000000E+02
4912000000.000000      4.103699000000000E-01      2.404687000000000E+01      2.708740000000000E-01      1.622656000000000E+02
4913000000.000000      4.112244000000000E-01      2.378906000000000E+01      2.668915000000000E-01      1.619375000000000E+02
4914000000.000000      4.109802000000000E-01      2.355469000000000E+01      2.630920000000000E-01      1.616797000000000E+02
4915000000.000000      4.104614000000000E-01      2.344141000000000E+01      2.596283000000000E-01      1.612266000000000E+02
4916000000.000000      4.101410000000000E-01      2.334863000000000E+01      2.561493000000000E-01      1.607344000000000E+02
4917000000.000000      4.102631000000000E-01      2.311914000000000E+01      2.532196000000000E-01      1.605312000000000E+02
4918000000.000000      4.100800000000000E-01      2.288574000000000E+01      2.489243000000000E-01      1.602656000000000E+02
4919000000.000000      4.093781000000000E-01      2.273144000000000E+01      2.458954000000000E-01      1.602109000000000E+02
4920000000.000000      4.097443000000000E-01      2.244141000000000E+01      2.412567000000000E-01      1.595234000000000E+02
4921000000.000000      4.091034000000000E-01      2.250195000000000E+01      2.382202000000000E-01      1.594844000000000E+02
4922000000.000000      4.097595000000000E-01      2.221094000000000E+01      2.341385000000000E-01      1.591406000000000E+02
4923000000.000000      4.084930000000000E-01      2.222754000000000E+01      2.300644000000000E-01      1.592031000000000E+02
4924000000.000000      4.094696000000000E-01      2.199805000000000E+01      2.259216000000000E-01      1.587656000000000E+02
4925000000.000000      4.084473000000000E-01      2.175488000000000E+01      2.223129000000000E-01      1.586406000000000E+02
4926000000.000000      4.088287000000000E-01      2.154004000000000E+01      2.195435000000000E-01      1.583437000000000E+02
4927000000.000000      4.084015000000000E-01      2.145898000000000E+01      2.143860000000000E-01      1.582109000000000E+02
4928000000.000000      4.090118000000000E-01      2.126953000000000E+01      2.110596000000000E-01      1.580625000000000E+02
4929000000.000000      4.081268000000000E-01      2.107226000000000E+01      2.067413000000000E-01      1.581250000000000E+02
4930000000.000000      4.072418000000000E-01      2.099121000000000E+01      2.031097000000000E-01      1.579375000000000E+02
4931000000.000000      4.071655000000000E-01      2.066113000000000E+01      1.996078000000000E-01      1.578906000000000E+02
4932000000.000000      4.063416000000000E-01      2.046191000000000E+01      1.956787000000000E-01      1.576953000000000E+02
4933000000.000000      4.069519000000000E-01      2.040625000000000E+01      1.906586000000000E-01      1.578984000000000E+02
4934000000.000000      4.071655000000000E-01      2.014258000000000E+01      1.873932000000000E-01      1.578750000000000E+02
4935000000.000000      4.072876000000000E-01      2.005078000000000E+01      1.845474000000000E-01      1.580156000000000E+02
4936000000.000000      4.054565000000000E-01      1.995215000000000E+01      1.794891000000000E-01      1.581875000000000E+02
4937000000.000000      4.058533000000000E-01      1.969824000000000E+01      1.757889000000000E-01      1.582578000000000E+02
4938000000.000000      4.047394000000000E-01      1.970508000000000E+01      1.721802000000000E-01      1.585391000000000E+02
4939000000.000000      4.044189000000000E-01      1.969824000000000E+01      1.684341000000000E-01      1.587969000000000E+02
4940000000.000000      4.049835000000000E-01      1.928906000000000E+01      1.640930000000000E-01      1.592344000000000E+02
4941000000.000000      4.045868000000000E-01      1.915234000000000E+01      1.607971000000000E-01      1.596172000000000E+02
4942000000.000000      4.044647000000000E-01      1.904590000000000E+01      1.570511000000000E-01      1.599531000000000E+02
4943000000.000000      4.046783000000000E-01      1.884668000000000E+01      1.533661000000000E-01      1.603516000000000E+02
4944000000.000000      4.041901000000000E-01      1.861035000000000E+01      1.501236000000000E-01      1.611562000000000E+02
4945000000.000000      4.039154000000000E-01      1.857715000000000E+01      1.464920000000000E-01      1.617109000000000E+02
4946000000.000000      4.037476000000000E-01      1.845215000000000E+01      1.428223000000000E-01      1.624687000000000E+02
4947000000.000000      4.034729000000000E-01      1.823828000000000E+01      1.400223000000000E-01      1.633047000000000E+02
4948000000.000000      4.039459000000000E-01      1.817871000000000E+01      1.367416000000000E-01      1.641328000000000E+02
4949000000.000000      4.030914000000000E-01      1.791797000000000E+01      1.337967000000000E-01      1.654219000000000E+02
4950000000.000000      4.030151000000000E-01      1.778125000000000E+01      1.307755000000000E-01      1.661719000000000E+02
4951000000.000000      4.027100000000000E-01      1.756250000000000E+01      1.283875000000000E-01      1.671719000000000E+02
4952000000.000000      4.016266000000000E-01      1.747851000000000E+01      1.249275000000000E-01      1.683594000000000E+02
4953000000.000000      4.013062000000000E-01      1.717285000000000E+01      1.235924000000000E-01      1.698828000000000E+02
4954000000.000000      4.010010000000000E-01      1.713574000000000E+01      1.202888000000000E-01      1.711250000000000E+02
