! Network Analyzer HP8722D
! Hewlett-Packard
! Data name: Linha & Wilkinson
! Saver's name: Rodrigo Anjos
! Comments: Teste da utilização de aquisição
continua pelo VNA HP8722D
! Time and date: 23/5/2025 16:01
!              Frequency                     S11                                                   S21                                                   S12                                                   S22
# HZ  S  MA R 50
4800000000.000000      2.793579000000000E-01      4.036328000000000E+01      4.882965000000000E-01     -1.299453000000000E+02
4801000000.000000      2.811737000000000E-01      4.067773000000000E+01      4.897156000000000E-01     -1.304609000000000E+02
4802000000.000000      2.819824000000000E-01      4.083984000000000E+01      4.915619000000000E-01     -1.311484000000000E+02
4803000000.000000      2.829895000000000E-01      4.104492000000000E+01      4.939575000000000E-01     -1.318516000000000E+02
4804000000.000000      2.839355000000000E-01      4.140038000000000E+01      4.963379000000000E-01     -1.326562000000000E+02
4805000000.000000      2.863922000000000E-01      4.142383000000000E+01      4.957581000000000E-01     -1.333750000000000E+02
4806000000.000000      2.868195000000000E-01      4.166211000000000E+01      4.958344000000000E-01     -1.341016000000000E+02
4807000000.000000      2.882385000000000E-01      4.184960000000000E+01      4.989929000000000E-01     -1.349688000000000E+02
4808000000.000000      2.895355000000000E-01      4.197266000000000E+01      5.006104000000000E-01     -1.354609000000000E+02
4809000000.000000      2.910767000000000E-01      4.220117000000000E+01      5.017090000000000E-01     -1.362969000000000E+02
4810000000.000000      2.931976000000000E-01      4.234375000000000E+01      5.031738000000000E-01     -1.367734000000000E+02
4811000000.000000      2.945099000000000E-01      4.244336000000000E+01      5.049133000000000E-01     -1.378047000000000E+02
4812000000.000000      2.969666000000000E-01      4.261132000000000E+01      5.047302000000000E-01     -1.383516000000000E+02
4813000000.000000      2.978058000000000E-01      4.281054000000000E+01      5.050354000000000E-01     -1.392031000000000E+02
4814000000.000000      2.994537000000000E-01      4.287695000000000E+01      5.064697000000000E-01     -1.398359000000000E+02
4815000000.000000      3.011169000000000E-01      4.289453000000000E+01      5.060120000000000E-01     -1.406328000000000E+02
4816000000.000000      3.034515000000000E-01      4.306641000000000E+01      5.075378000000000E-01     -1.413281000000000E+02
4817000000.000000      3.049011000000000E-01      4.309766000000000E+01      5.079346000000000E-01     -1.420547000000000E+02
4818000000.000000      3.064728000000000E-01      4.305664000000000E+01      5.086975000000000E-01     -1.428672000000000E+02
4819000000.000000      3.086090000000000E-01      4.313477000000000E+01      5.083008000000000E-01     -1.436953000000000E+02
4820000000.000000      3.092804000000000E-01      4.325391000000000E+01      5.087891000000000E-01     -1.441875000000000E+02
4821000000.000000      3.123779000000000E-01      4.325976000000000E+01      5.088501000000000E-01     -1.450625000000000E+02
4822000000.000000      3.132324000000000E-01      4.318945000000000E+01      5.083313000000000E-01     -1.456719000000000E+02
4823000000.000000      3.154297000000000E-01      4.313672000000000E+01      5.095215000000000E-01     -1.464531000000000E+02
4824000000.000000      3.172913000000000E-01      4.322266000000000E+01      5.079346000000000E-01     -1.473125000000000E+02
4825000000.000000      3.193512000000000E-01      4.308594000000000E+01      5.083923000000000E-01     -1.480469000000000E+02
4826000000.000000      3.211823000000000E-01      4.305469000000000E+01      5.097046000000000E-01     -1.489375000000000E+02
4827000000.000000      3.232117000000000E-01      4.307617000000000E+01      5.080566000000000E-01     -1.494453000000000E+02
4828000000.000000      3.252411000000000E-01      4.302343000000000E+01      5.083618000000000E-01     -1.502031000000000E+02
4829000000.000000      3.269043000000000E-01      4.309960000000000E+01      5.076904000000000E-01     -1.508203000000000E+02
4830000000.000000      3.289337000000000E-01      4.285352000000000E+01      5.073853000000000E-01     -1.517656000000000E+02
4831000000.000000      3.302002000000000E-01      4.285742000000000E+01      5.060425000000000E-01     -1.524141000000000E+02
4832000000.000000      3.317413000000000E-01      4.278320000000000E+01      5.057983000000000E-01     -1.529844000000000E+02
4833000000.000000      3.333282000000000E-01      4.259766000000000E+01      5.034790000000000E-01     -1.537500000000000E+02
4834000000.000000      3.352966000000000E-01      4.250586000000000E+01      5.043335000000000E-01     -1.545469000000000E+02
4835000000.000000      3.373413000000000E-01      4.242188000000000E+01      5.032349000000000E-01     -1.552813000000000E+02
4836000000.000000      3.393860000000000E-01      4.234179000000000E+01      5.018616000000000E-01     -1.560078000000000E+02
4837000000.000000      3.410950000000000E-01      4.220703000000000E+01      5.005798000000000E-01     -1.567656000000000E+02
4838000000.000000      3.416748000000000E-01      4.191796000000000E+01      5.002747000000000E-01     -1.572187000000000E+02
4839000000.000000      3.456726000000000E-01      4.185937000000000E+01      4.989014000000000E-01     -1.579922000000000E+02
4840000000.000000      3.462524000000000E-01      4.158984000000000E+01      4.979095000000000E-01     -1.585781000000000E+02
4841000000.000000      3.475800000000000E-01      4.146484000000000E+01      4.967041000000000E-01     -1.595000000000000E+02
4842000000.000000      3.491058000000000E-01      4.127149000000000E+01      4.947052000000000E-01     -1.602422000000000E+02
4843000000.000000      3.520813000000000E-01      4.099805000000000E+01      4.947662000000000E-01     -1.608750000000000E+02
4844000000.000000      3.524017000000000E-01      4.095312000000000E+01      4.931488000000000E-01     -1.616641000000000E+02
4845000000.000000      3.538361000000000E-01      4.075000000000000E+01      4.912109000000000E-01     -1.621484000000000E+02
4846000000.000000      3.559875000000000E-01      4.053906000000000E+01      4.890442000000000E-01     -1.631016000000000E+02
4847000000.000000      3.576050000000000E-01      4.054101000000000E+01      4.890747000000000E-01     -1.635391000000000E+02
4848000000.000000      3.583984000000000E-01      4.008789000000000E+01      4.860535000000000E-01     -1.643984000000000E+02
4849000000.000000      3.598480000000000E-01      3.980859000000000E+01      4.838257000000000E-01     -1.651094000000000E+02
4850000000.000000      3.612061000000000E-01      3.970703000000000E+01      4.814453000000000E-01     -1.657969000000000E+02
4851000000.000000      3.634491000000000E-01      3.956445000000000E+01      4.800873000000000E-01     -1.665625000000000E+02
4852000000.000000      3.641510000000000E-01      3.924414000000000E+01      4.789429000000000E-01     -1.672344000000000E+02
4853000000.000000      3.659668000000000E-01      3.901172000000000E+01      4.742279000000000E-01     -1.679609000000000E+02
4854000000.000000      3.669128000000000E-01      3.868555000000000E+01      4.729919000000000E-01     -1.687734000000000E+02
4855000000.000000      3.677673000000000E-01      3.855469000000000E+01      4.723053000000000E-01     -1.692734000000000E+02
4856000000.000000      3.691254000000000E-01      3.823437000000000E+01      4.690399000000000E-01     -1.699766000000000E+02
4857000000.000000      3.706055000000000E-01      3.808984000000000E+01      4.669800000000000E-01     -1.706640000000000E+02
4858000000.000000      3.715210000000000E-01      3.784765000000000E+01      4.641724000000000E-01     -1.713984000000000E+02
4859000000.000000      3.724213000000000E-01      3.752734000000000E+01      4.624634000000000E-01     -1.721797000000000E+02
4860000000.000000      3.736115000000000E-01      3.745117000000000E+01      4.596558000000000E-01     -1.727031000000000E+02
4861000000.000000      3.742523000000000E-01      3.705469000000000E+01      4.569092000000000E-01     -1.735156000000000E+02
4862000000.000000      3.750458000000000E-01      3.682812000000000E+01      4.556427000000000E-01     -1.740703000000000E+02
4863000000.000000      3.761444000000000E-01      3.667187000000000E+01      4.501953000000000E-01     -1.747734000000000E+02
4864000000.000000      3.773499000000000E-01      3.623828000000000E+01      4.490967000000000E-01     -1.753594000000000E+02
4865000000.000000      3.777466000000000E-01      3.597656000000000E+01      4.450226000000000E-01     -1.759219000000000E+02
4866000000.000000      3.779144000000000E-01      3.575195000000000E+01      4.433746000000000E-01     -1.767031000000000E+02
4867000000.000000      3.787384000000000E-01      3.547461000000000E+01      4.407043000000000E-01     -1.775469000000000E+02
4868000000.000000      3.800659000000000E-01      3.523242000000000E+01      4.373474000000000E-01     -1.781016000000000E+02
4869000000.000000      3.806610000000000E-01      3.493359000000000E+01      4.331665000000000E-01     -1.788047000000000E+02
4870000000.000000      3.812256000000000E-01      3.477344000000000E+01      4.286194000000000E-01     -1.791484000000000E+02
4871000000.000000      3.816833000000000E-01      3.431250000000000E+01      4.253998000000000E-01      1.798750000000000E+02
4872000000.000000      3.839417000000000E-01      3.416992000000000E+01      4.232941000000000E-01      1.795391000000000E+02
4873000000.000000      3.834534000000000E-01      3.384180000000000E+01      4.193268000000000E-01      1.785000000000000E+02
4874000000.000000      3.834534000000000E-01      3.356250000000000E+01      4.154816000000000E-01      1.781094000000000E+02
4875000000.000000      3.844910000000000E-01      3.331250000000000E+01      4.116669000000000E-01      1.778516000000000E+02
4876000000.000000      3.846436000000000E-01      3.313867000000000E+01      4.110718000000000E-01      1.770156000000000E+02
4877000000.000000      3.858643000000000E-01      3.264453000000000E+01      4.061432000000000E-01      1.764141000000000E+02
4878000000.000000      3.846741000000000E-01      3.246679000000000E+01      4.031525000000000E-01      1.756562000000000E+02
4879000000.000000      3.864594000000000E-01      3.225976000000000E+01      3.993835000000000E-01      1.753438000000000E+02
4880000000.000000      3.876038000000000E-01      3.193262000000000E+01      3.964233000000000E-01      1.746875000000000E+02
4881000000.000000      3.869171000000000E-01      3.166504000000000E+01      3.922272000000000E-01      1.743515000000000E+02
4882000000.000000      3.871765000000000E-01      3.153027000000000E+01      3.909760000000000E-01      1.736172000000000E+02
4883000000.000000      3.873138000000000E-01      3.114843000000000E+01      3.845062000000000E-01      1.732500000000000E+02
4884000000.000000      3.882141000000000E-01      3.094824000000000E+01      3.811951000000000E-01      1.727266000000000E+02
4885000000.000000      3.881378000000000E-01      3.071191000000000E+01      3.777313000000000E-01      1.724531000000000E+02
4886000000.000000      3.874207000000000E-01      3.053320000000000E+01      3.746643000000000E-01      1.719609000000000E+02
4887000000.000000      3.880157000000000E-01      3.021582000000000E+01      3.695221000000000E-01      1.711562000000000E+02
4888000000.000000      3.884125000000000E-01      2.976171000000000E+01      3.677826000000000E-01      1.707578000000000E+02
4889000000.000000      3.878479000000000E-01      2.967871000000000E+01      3.629150000000000E-01      1.702578000000000E+02
4890000000.000000      3.880615000000000E-01      2.947851000000000E+01      3.592224000000000E-01      1.696328000000000E+02
4891000000.000000      3.880615000000000E-01      2.929492000000000E+01      3.556671000000000E-01      1.693750000000000E+02
4892000000.000000      3.871155000000000E-01      2.891113000000000E+01      3.516998000000000E-01      1.690078000000000E+02
4893000000.000000      3.881836000000000E-01      2.859277000000000E+01      3.482971000000000E-01      1.683516000000000E+02
4894000000.000000      3.874969000000000E-01      2.840625000000000E+01      3.454742000000000E-01      1.679531000000000E+02
4895000000.000000      3.880157000000000E-01      2.830859000000000E+01      3.424530000000000E-01      1.677344000000000E+02
4896000000.000000      3.875580000000000E-01      2.792675000000000E+01      3.384399000000000E-01      1.671797000000000E+02
4897000000.000000      3.862305000000000E-01      2.765625000000000E+01      3.347626000000000E-01      1.666563000000000E+02
4898000000.000000      3.868713000000000E-01      2.747949000000000E+01      3.329468000000000E-01      1.664219000000000E+02
4899000000.000000      3.861389000000000E-01      2.734766000000000E+01      3.284302000000000E-01      1.659453000000000E+02
4900000000.000000      3.868103000000000E-01      2.711816000000000E+01      3.248138000000000E-01      1.655000000000000E+02
4901000000.000000      3.865204000000000E-01      2.685449000000000E+01      3.216400000000000E-01      1.652266000000000E+02
4902000000.000000      3.871155000000000E-01      2.650293000000000E+01      3.189392000000000E-01      1.647734000000000E+02
4903000000.000000      3.862152000000000E-01      2.649902000000000E+01      3.133392000000000E-01      1.643437000000000E+02
4904000000.000000      3.861694000000000E-01      2.615234000000000E+01      3.111267000000000E-01      1.640469000000000E+02
4905000000.000000      3.855743000000000E-01      2.593945000000000E+01      3.085022000000000E-01      1.635703000000000E+02
4906000000.000000      3.853302000000000E-01      2.573925000000000E+01      3.047333000000000E-01      1.633516000000000E+02
4907000000.000000      3.859863000000000E-01      2.554296000000000E+01      3.015289000000000E-01      1.627891000000000E+02
4908000000.000000      3.850708000000000E-01      2.525586000000000E+01      2.982941000000000E-01      1.622500000000000E+02
4909000000.000000      3.840790000000000E-01      2.518945000000000E+01      2.933502000000000E-01      1.620781000000000E+02
4910000000.000000      3.844910000000000E-01      2.490039000000000E+01      2.906494000000000E-01      1.615859000000000E+02
4911000000.000000      3.839874000000000E-01      2.471289000000000E+01      2.866058000000000E-01      1.612578000000000E+02
4912000000.000000      3.841553000000000E-01      2.460742000000000E+01      2.834930000000000E-01      1.608438000000000E+02
4913000000.000000      3.845673000000000E-01      2.434961000000000E+01      2.799835000000000E-01      1.605625000000000E+02
4914000000.000000      3.842010000000000E-01      2.415820000000000E+01      2.767334000000000E-01      1.602813000000000E+02
4915000000.000000      3.831482000000000E-01      2.410937000000000E+01      2.722778000000000E-01      1.596875000000000E+02
4916000000.000000      3.836060000000000E-01      2.385937000000000E+01      2.688751000000000E-01      1.592422000000000E+02
4917000000.000000      3.826904000000000E-01      2.370508000000000E+01      2.648926000000000E-01      1.591016000000000E+02
4918000000.000000      3.828125000000000E-01      2.342383000000000E+01      2.609863000000000E-01      1.588203000000000E+02
4919000000.000000      3.818054000000000E-01      2.323925000000000E+01      2.579498000000000E-01      1.586406000000000E+02
4920000000.000000      3.816223000000000E-01      2.300195000000000E+01      2.532349000000000E-01      1.581328000000000E+02
4921000000.000000      3.809967000000000E-01      2.289746000000000E+01      2.498779000000000E-01      1.578906000000000E+02
4922000000.000000      3.817139000000000E-01      2.260937000000000E+01      2.460175000000000E-01      1.578281000000000E+02
4923000000.000000      3.815002000000000E-01      2.252832000000000E+01      2.415314000000000E-01      1.576328000000000E+02
4924000000.000000      3.814087000000000E-01      2.249804000000000E+01      2.376785000000000E-01      1.569844000000000E+02
4925000000.000000      3.802795000000000E-01      2.204492000000000E+01      2.342148000000000E-01      1.569453000000000E+02
4926000000.000000      3.796387000000000E-01      2.198340000000000E+01      2.298279000000000E-01      1.566172000000000E+02
4927000000.000000      3.792419000000000E-01      2.170117000000000E+01      2.260284000000000E-01      1.564844000000000E+02
4928000000.000000      3.803406000000000E-01      2.149024000000000E+01      2.222061000000000E-01      1.563203000000000E+02
4929000000.000000      3.787537000000000E-01      2.150000000000000E+01      2.178040000000000E-01      1.562578000000000E+02
4930000000.000000      3.790894000000000E-01      2.133887000000000E+01      2.137222000000000E-01      1.559766000000000E+02
4931000000.000000      3.787842000000000E-01      2.097266000000000E+01      2.105026000000000E-01      1.559844000000000E+02
4932000000.000000      3.789368000000000E-01      2.087207000000000E+01      2.055283000000000E-01      1.560469000000000E+02
4933000000.000000      3.782959000000000E-01      2.062109000000000E+01      2.010422000000000E-01      1.561250000000000E+02
4934000000.000000      3.779755000000000E-01      2.058789000000000E+01      1.967392000000000E-01      1.558906000000000E+02
4935000000.000000      3.787079000000000E-01      2.041797000000000E+01      1.936111000000000E-01      1.562656000000000E+02
4936000000.000000      3.769226000000000E-01      2.011230000000000E+01      1.894531000000000E-01      1.561484000000000E+02
4937000000.000000      3.779449000000000E-01      1.995215000000000E+01      1.851654000000000E-01      1.562109000000000E+02
4938000000.000000      3.772430000000000E-01      1.994238000000000E+01      1.816864000000000E-01      1.565625000000000E+02
4939000000.000000      3.765106000000000E-01      1.982031000000000E+01      1.773071000000000E-01      1.569531000000000E+02
4940000000.000000      3.769073000000000E-01      1.947949000000000E+01      1.734619000000000E-01      1.569922000000000E+02
4941000000.000000      3.771515000000000E-01      1.920215000000000E+01      1.695557000000000E-01      1.574141000000000E+02
4942000000.000000      3.755798000000000E-01      1.913476000000000E+01      1.657791000000000E-01      1.575859000000000E+02
4943000000.000000      3.753967000000000E-01      1.907227000000000E+01      1.617508000000000E-01      1.584063000000000E+02
4944000000.000000      3.751831000000000E-01      1.881933000000000E+01      1.583328000000000E-01      1.586953000000000E+02
4945000000.000000      3.743134000000000E-01      1.859277000000000E+01      1.544418000000000E-01      1.593516000000000E+02
4946000000.000000      3.740845000000000E-01      1.854687000000000E+01      1.507950000000000E-01      1.599922000000000E+02
4947000000.000000      3.745880000000000E-01      1.823730000000000E+01      1.471786000000000E-01      1.607500000000000E+02
4948000000.000000      3.742523000000000E-01      1.815039000000000E+01      1.443939000000000E-01      1.614922000000000E+02
4949000000.000000      3.730621000000000E-01      1.785742000000000E+01      1.407852000000000E-01      1.626953000000000E+02
4950000000.000000      3.730316000000000E-01      1.786621000000000E+01      1.375809000000000E-01      1.634609000000000E+02
4951000000.000000      3.736115000000000E-01      1.757813000000000E+01      1.348267000000000E-01      1.645703000000000E+02
4952000000.000000      3.724976000000000E-01      1.739648000000000E+01      1.317978000000000E-01      1.653828000000000E+02
4953000000.000000      3.714752000000000E-01      1.723047000000000E+01      1.293335000000000E-01      1.669765000000000E+02
4954000000.000000      3.717041000000000E-01      1.711328000000000E+01      1.266403000000000E-01      1.684062000000000E+02
