! Network Analyzer HP8722D
! Hewlett-Packard
! Data name: Linha & Wilkinson
! Saver's name: Rodrigo Anjos
! Comments: Teste da utilização de aquisição
continua pelo VNA HP8722D
! Time and date: 23/5/2025 09:20
!              Frequency                     S11                                                   S21                                                   S12                                                   S22
# HZ  S  MA R 50
4800000000.000000      3.324890000000000E-01      3.555469000000000E+01      4.617462000000000E-01     -1.263945000000000E+02
4801000000.000000      3.327179000000000E-01      3.573242000000000E+01      4.632874000000000E-01     -1.271211000000000E+02
4802000000.000000      3.335724000000000E-01      3.588281000000000E+01      4.636841000000000E-01     -1.279414000000000E+02
4803000000.000000      3.343201000000000E-01      3.599609000000000E+01      4.659119000000000E-01     -1.283672000000000E+02
4804000000.000000      3.348541000000000E-01      3.625781000000000E+01      4.677582000000000E-01     -1.291406000000000E+02
4805000000.000000      3.366852000000000E-01      3.630859000000000E+01      4.682312000000000E-01     -1.300156000000000E+02
4806000000.000000      3.369751000000000E-01      3.649219000000000E+01      4.704742000000000E-01     -1.307188000000000E+02
4807000000.000000      3.379211000000000E-01      3.663671000000000E+01      4.719238000000000E-01     -1.316406000000000E+02
4808000000.000000      3.385925000000000E-01      3.678320000000000E+01      4.721985000000000E-01     -1.321875000000000E+02
4809000000.000000      3.399048000000000E-01      3.704297000000000E+01      4.730072000000000E-01     -1.330781000000000E+02
4810000000.000000      3.416901000000000E-01      3.713476000000000E+01      4.745026000000000E-01     -1.336172000000000E+02
4811000000.000000      3.425903000000000E-01      3.720898000000000E+01      4.762726000000000E-01     -1.346250000000000E+02
4812000000.000000      3.448639000000000E-01      3.750195000000000E+01      4.775085000000000E-01     -1.351953000000000E+02
4813000000.000000      3.448029000000000E-01      3.757421000000000E+01      4.778900000000000E-01     -1.358594000000000E+02
4814000000.000000      3.461761000000000E-01      3.757813000000000E+01      4.786377000000000E-01     -1.364844000000000E+02
4815000000.000000      3.462372000000000E-01      3.774805000000000E+01      4.783173000000000E-01     -1.375000000000000E+02
4816000000.000000      3.489838000000000E-01      3.795507000000000E+01      4.809723000000000E-01     -1.380938000000000E+02
4817000000.000000      3.496704000000000E-01      3.805859000000000E+01      4.802094000000000E-01     -1.389531000000000E+02
4818000000.000000      3.507538000000000E-01      3.807422000000000E+01      4.793396000000000E-01     -1.396328000000000E+02
4819000000.000000      3.527679000000000E-01      3.809765000000000E+01      4.804230000000000E-01     -1.402422000000000E+02
4820000000.000000      3.536682000000000E-01      3.818554000000000E+01      4.797821000000000E-01     -1.407812000000000E+02
4821000000.000000      3.566742000000000E-01      3.818945000000000E+01      4.811249000000000E-01     -1.417500000000000E+02
4822000000.000000      3.568726000000000E-01      3.816797000000000E+01      4.809875000000000E-01     -1.425625000000000E+02
4823000000.000000      3.585358000000000E-01      3.822656000000000E+01      4.823761000000000E-01     -1.432500000000000E+02
4824000000.000000      3.598633000000000E-01      3.838867000000000E+01      4.808044000000000E-01     -1.441015000000000E+02
4825000000.000000      3.618927000000000E-01      3.831055000000000E+01      4.803925000000000E-01     -1.445937000000000E+02
4826000000.000000      3.630524000000000E-01      3.831445000000000E+01      4.812012000000000E-01     -1.455547000000000E+02
4827000000.000000      3.648682000000000E-01      3.829687000000000E+01      4.808502000000000E-01     -1.460625000000000E+02
4828000000.000000      3.674316000000000E-01      3.832031000000000E+01      4.803925000000000E-01     -1.467969000000000E+02
4829000000.000000      3.679047000000000E-01      3.839844000000000E+01      4.802551000000000E-01     -1.477109000000000E+02
4830000000.000000      3.701324000000000E-01      3.828711000000000E+01      4.794464000000000E-01     -1.483359000000000E+02
4831000000.000000      3.718414000000000E-01      3.814844000000000E+01      4.788361000000000E-01     -1.491094000000000E+02
4832000000.000000      3.741608000000000E-01      3.823828000000000E+01      4.772949000000000E-01     -1.497187000000000E+02
4833000000.000000      3.747559000000000E-01      3.806055000000000E+01      4.775543000000000E-01     -1.503750000000000E+02
4834000000.000000      3.766174000000000E-01      3.793359000000000E+01      4.762878000000000E-01     -1.513047000000000E+02
4835000000.000000      3.786011000000000E-01      3.788867000000000E+01      4.761505000000000E-01     -1.518359000000000E+02
4836000000.000000      3.804169000000000E-01      3.798437000000000E+01      4.743347000000000E-01     -1.525156000000000E+02
4837000000.000000      3.816223000000000E-01      3.790430000000000E+01      4.727936000000000E-01     -1.535859000000000E+02
4838000000.000000      3.825989000000000E-01      3.773438000000000E+01      4.724884000000000E-01     -1.540781000000000E+02
4839000000.000000      3.865967000000000E-01      3.773242000000000E+01      4.713898000000000E-01     -1.547266000000000E+02
4840000000.000000      3.872986000000000E-01      3.741406000000000E+01      4.715424000000000E-01     -1.554141000000000E+02
4841000000.000000      3.882751000000000E-01      3.749218000000000E+01      4.704437000000000E-01     -1.562422000000000E+02
4842000000.000000      3.896637000000000E-01      3.733007000000000E+01      4.680939000000000E-01     -1.568516000000000E+02
4843000000.000000      3.924561000000000E-01      3.715039000000000E+01      4.685211000000000E-01     -1.577969000000000E+02
4844000000.000000      3.930206000000000E-01      3.697851000000000E+01      4.660492000000000E-01     -1.582266000000000E+02
4845000000.000000      3.948517000000000E-01      3.694531000000000E+01      4.645538000000000E-01     -1.589766000000000E+02
4846000000.000000      3.967285000000000E-01      3.679688000000000E+01      4.645386000000000E-01     -1.598984000000000E+02
4847000000.000000      3.977051000000000E-01      3.673437000000000E+01      4.615479000000000E-01     -1.604063000000000E+02
4848000000.000000      3.985596000000000E-01      3.641406000000000E+01      4.591522000000000E-01     -1.611641000000000E+02
4849000000.000000      4.001923000000000E-01      3.628906000000000E+01      4.594574000000000E-01     -1.618594000000000E+02
4850000000.000000      4.006958000000000E-01      3.608984000000000E+01      4.576111000000000E-01     -1.627031000000000E+02
4851000000.000000      4.030914000000000E-01      3.600390000000000E+01      4.552917000000000E-01     -1.634922000000000E+02
4852000000.000000      4.040985000000000E-01      3.587891000000000E+01      4.525146000000000E-01     -1.641328000000000E+02
4853000000.000000      4.050903000000000E-01      3.554883000000000E+01      4.508972000000000E-01     -1.648125000000000E+02
4854000000.000000      4.061279000000000E-01      3.543359000000000E+01      4.490967000000000E-01     -1.655547000000000E+02
4855000000.000000      4.078369000000000E-01      3.533594000000000E+01      4.468842000000000E-01     -1.661172000000000E+02
4856000000.000000      4.086914000000000E-01      3.519531000000000E+01      4.442291000000000E-01     -1.668281000000000E+02
4857000000.000000      4.098816000000000E-01      3.506250000000000E+01      4.441986000000000E-01     -1.676172000000000E+02
4858000000.000000      4.103241000000000E-01      3.478320000000000E+01      4.413300000000000E-01     -1.684531000000000E+02
4859000000.000000      4.121399000000000E-01      3.455273000000000E+01      4.383240000000000E-01     -1.691015000000000E+02
4860000000.000000      4.128418000000000E-01      3.442968000000000E+01      4.352112000000000E-01     -1.697813000000000E+02
4861000000.000000      4.147034000000000E-01      3.416016000000000E+01      4.322968000000000E-01     -1.704375000000000E+02
4862000000.000000      4.145508000000000E-01      3.403320000000000E+01      4.324341000000000E-01     -1.709844000000000E+02
4863000000.000000      4.168396000000000E-01      3.385547000000000E+01      4.269257000000000E-01     -1.719063000000000E+02
4864000000.000000      4.176483000000000E-01      3.354492000000000E+01      4.256744000000000E-01     -1.724219000000000E+02
4865000000.000000      4.183044000000000E-01      3.328711000000000E+01      4.218445000000000E-01     -1.731719000000000E+02
4866000000.000000      4.185486000000000E-01      3.310937000000000E+01      4.190063000000000E-01     -1.739141000000000E+02
4867000000.000000      4.186554000000000E-01      3.302343000000000E+01      4.162140000000000E-01     -1.747344000000000E+02
4868000000.000000      4.208374000000000E-01      3.265820000000000E+01      4.139862000000000E-01     -1.753281000000000E+02
4869000000.000000      4.216766000000000E-01      3.245898000000000E+01      4.116211000000000E-01     -1.759609000000000E+02
4870000000.000000      4.221191000000000E-01      3.230664000000000E+01      4.072266000000000E-01     -1.763359000000000E+02
4871000000.000000      4.226379000000000E-01      3.201367000000000E+01      4.046021000000000E-01     -1.772656000000000E+02
4872000000.000000      4.243622000000000E-01      3.188867000000000E+01      4.010620000000000E-01     -1.778437000000000E+02
4873000000.000000      4.249573000000000E-01      3.174609000000000E+01      3.985748000000000E-01     -1.784375000000000E+02
4874000000.000000      4.244843000000000E-01      3.145215000000000E+01      3.933563000000000E-01     -1.790625000000000E+02
4875000000.000000      4.252014000000000E-01      3.106445000000000E+01      3.905487000000000E-01     -1.795781000000000E+02
4876000000.000000      4.257355000000000E-01      3.108789000000000E+01      3.884125000000000E-01      1.797109000000000E+02
4877000000.000000      4.264374000000000E-01      3.078906000000000E+01      3.834229000000000E-01      1.792812000000000E+02
4878000000.000000      4.264374000000000E-01      3.037012000000000E+01      3.813934000000000E-01      1.786797000000000E+02
4879000000.000000      4.275665000000000E-01      3.025683000000000E+01      3.763428000000000E-01      1.781250000000000E+02
4880000000.000000      4.286041000000000E-01      3.001660000000000E+01      3.731537000000000E-01      1.773516000000000E+02
4881000000.000000      4.286957000000000E-01      2.986425000000000E+01      3.694305000000000E-01      1.769063000000000E+02
4882000000.000000      4.291687000000000E-01      2.963964000000000E+01      3.673553000000000E-01      1.763906000000000E+02
4883000000.000000      4.292145000000000E-01      2.927637000000000E+01      3.635101000000000E-01      1.759375000000000E+02
4884000000.000000      4.295502000000000E-01      2.922363000000000E+01      3.612061000000000E-01      1.751484000000000E+02
4885000000.000000      4.301605000000000E-01      2.913574000000000E+01      3.560181000000000E-01      1.750703000000000E+02
4886000000.000000      4.309082000000000E-01      2.889453000000000E+01      3.519287000000000E-01      1.743906000000000E+02
4887000000.000000      4.309845000000000E-01      2.869433000000000E+01      3.500366000000000E-01      1.739531000000000E+02
4888000000.000000      4.312744000000000E-01      2.823047000000000E+01      3.478851000000000E-01      1.734922000000000E+02
4889000000.000000      4.304352000000000E-01      2.813281000000000E+01      3.422546000000000E-01      1.730469000000000E+02
4890000000.000000      4.295502000000000E-01      2.787890000000000E+01      3.386536000000000E-01      1.721797000000000E+02
4891000000.000000      4.305420000000000E-01      2.765722000000000E+01      3.348236000000000E-01      1.720469000000000E+02
4892000000.000000      4.304504000000000E-01      2.750195000000000E+01      3.315887000000000E-01      1.717656000000000E+02
4893000000.000000      4.314117000000000E-01      2.731836000000000E+01      3.285370000000000E-01      1.708437000000000E+02
4894000000.000000      4.304657000000000E-01      2.699023000000000E+01      3.244476000000000E-01      1.708047000000000E+02
4895000000.000000      4.330139000000000E-01      2.688965000000000E+01      3.229828000000000E-01      1.703047000000000E+02
4896000000.000000      4.309845000000000E-01      2.666016000000000E+01      3.183441000000000E-01      1.699141000000000E+02
4897000000.000000      4.309235000000000E-01      2.654687000000000E+01      3.148499000000000E-01      1.694062000000000E+02
4898000000.000000      4.317780000000000E-01      2.624414000000000E+01      3.122101000000000E-01      1.690391000000000E+02
4899000000.000000      4.308624000000000E-01      2.618261000000000E+01      3.088531000000000E-01      1.685000000000000E+02
4900000000.000000      4.306946000000000E-01      2.580078000000000E+01      3.052368000000000E-01      1.682344000000000E+02
4901000000.000000      4.312592000000000E-01      2.571582000000000E+01      3.023987000000000E-01      1.677344000000000E+02
4902000000.000000      4.315643000000000E-01      2.537695000000000E+01      2.992859000000000E-01      1.675625000000000E+02
4903000000.000000      4.314270000000000E-01      2.527344000000000E+01      2.953186000000000E-01      1.670859000000000E+02
4904000000.000000      4.311981000000000E-01      2.508301000000000E+01      2.917633000000000E-01      1.665781000000000E+02
4905000000.000000      4.303589000000000E-01      2.499902000000000E+01      2.891388000000000E-01      1.662500000000000E+02
4906000000.000000      4.311066000000000E-01      2.472851000000000E+01      2.857513000000000E-01      1.661016000000000E+02
4907000000.000000      4.305115000000000E-01      2.460449000000000E+01      2.823944000000000E-01      1.654609000000000E+02
4908000000.000000      4.312286000000000E-01      2.439355000000000E+01      2.798004000000000E-01      1.651641000000000E+02
4909000000.000000      4.305115000000000E-01      2.429199000000000E+01      2.751770000000000E-01      1.648750000000000E+02
4910000000.000000      4.300690000000000E-01      2.408203000000000E+01      2.723083000000000E-01      1.644453000000000E+02
4911000000.000000      4.301605000000000E-01      2.399609000000000E+01      2.688141000000000E-01      1.641562000000000E+02
4912000000.000000      4.308472000000000E-01      2.377441000000000E+01      2.657013000000000E-01      1.637344000000000E+02
4913000000.000000      4.304504000000000E-01      2.348047000000000E+01      2.621002000000000E-01      1.632656000000000E+02
4914000000.000000      4.297180000000000E-01      2.341015000000000E+01      2.588043000000000E-01      1.631172000000000E+02
4915000000.000000      4.294891000000000E-01      2.329883000000000E+01      2.543182000000000E-01      1.624141000000000E+02
4916000000.000000      4.289551000000000E-01      2.310742000000000E+01      2.508545000000000E-01      1.621328000000000E+02
4917000000.000000      4.299164000000000E-01      2.301856000000000E+01      2.484055000000000E-01      1.620703000000000E+02
4918000000.000000      4.292450000000000E-01      2.271191000000000E+01      2.437668000000000E-01      1.616172000000000E+02
4919000000.000000      4.277802000000000E-01      2.263379000000000E+01      2.406082000000000E-01      1.615937000000000E+02
4920000000.000000      4.298706000000000E-01      2.240332000000000E+01      2.367249000000000E-01      1.610937000000000E+02
4921000000.000000      4.280396000000000E-01      2.248340000000000E+01      2.333603000000000E-01      1.609062000000000E+02
4922000000.000000      4.298096000000000E-01      2.203027000000000E+01      2.298660000000000E-01      1.608047000000000E+02
4923000000.000000      4.283600000000000E-01      2.198437000000000E+01      2.258682000000000E-01      1.603750000000000E+02
4924000000.000000      4.275818000000000E-01      2.172656000000000E+01      2.220535000000000E-01      1.600547000000000E+02
4925000000.000000      4.273376000000000E-01      2.162109000000000E+01      2.178955000000000E-01      1.598906000000000E+02
4926000000.000000      4.274597000000000E-01      2.148340000000000E+01      2.143478000000000E-01      1.597500000000000E+02
4927000000.000000      4.267883000000000E-01      2.138672000000000E+01      2.109451000000000E-01      1.595234000000000E+02
4928000000.000000      4.272003000000000E-01      2.110058000000000E+01      2.066574000000000E-01      1.594766000000000E+02
4929000000.000000      4.273224000000000E-01      2.107226000000000E+01      2.028503000000000E-01      1.594922000000000E+02
4930000000.000000      4.263153000000000E-01      2.090332000000000E+01      1.989975000000000E-01      1.592656000000000E+02
4931000000.000000      4.273834000000000E-01      2.058789000000000E+01      1.961594000000000E-01      1.591250000000000E+02
4932000000.000000      4.259796000000000E-01      2.058887000000000E+01      1.917191000000000E-01      1.592500000000000E+02
4933000000.000000      4.266510000000000E-01      2.035351000000000E+01      1.870270000000000E-01      1.594297000000000E+02
4934000000.000000      4.274445000000000E-01      2.010840000000000E+01      1.836090000000000E-01      1.592187000000000E+02
4935000000.000000      4.275055000000000E-01      2.005371000000000E+01      1.800537000000000E-01      1.595156000000000E+02
4936000000.000000      4.262085000000000E-01      1.979590000000000E+01      1.762161000000000E-01      1.595625000000000E+02
4937000000.000000      4.259949000000000E-01      1.969238000000000E+01      1.722565000000000E-01      1.595000000000000E+02
4938000000.000000      4.238129000000000E-01      1.968848000000000E+01      1.684570000000000E-01      1.598516000000000E+02
4939000000.000000      4.245605000000000E-01      1.949316000000000E+01      1.652222000000000E-01      1.600859000000000E+02
4940000000.000000      4.256592000000000E-01      1.924219000000000E+01      1.614075000000000E-01      1.602969000000000E+02
4941000000.000000      4.252014000000000E-01      1.914160000000000E+01      1.573868000000000E-01      1.608750000000000E+02
4942000000.000000      4.232788000000000E-01      1.910840000000000E+01      1.545563000000000E-01      1.611406000000000E+02
4943000000.000000      4.244843000000000E-01      1.890137000000000E+01      1.501465000000000E-01      1.618047000000000E+02
4944000000.000000      4.242096000000000E-01      1.869043000000000E+01      1.471863000000000E-01      1.621562000000000E+02
4945000000.000000      4.242096000000000E-01      1.841699000000000E+01      1.434326000000000E-01      1.626562000000000E+02
4946000000.000000      4.246368000000000E-01      1.843359000000000E+01      1.402740000000000E-01      1.639062000000000E+02
4947000000.000000      4.239655000000000E-01      1.823730000000000E+01      1.369247000000000E-01      1.644140000000000E+02
4948000000.000000      4.240723000000000E-01      1.807226000000000E+01      1.340561000000000E-01      1.653047000000000E+02
4949000000.000000      4.234009000000000E-01      1.791016000000000E+01      1.309891000000000E-01      1.664766000000000E+02
4950000000.000000      4.232941000000000E-01      1.783594000000000E+01      1.281662000000000E-01      1.672578000000000E+02
4951000000.000000      4.232330000000000E-01      1.757031000000000E+01      1.257477000000000E-01      1.683047000000000E+02
4952000000.000000      4.219818000000000E-01      1.749512000000000E+01      1.225510000000000E-01      1.694922000000000E+02
4953000000.000000      4.217377000000000E-01      1.743164000000000E+01      1.205330000000000E-01      1.708047000000000E+02
4954000000.000000      4.213257000000000E-01      1.724023000000000E+01      1.182594000000000E-01      1.721328000000000E+02
