! Network Analyzer HP8722D
! Hewlett-Packard
! Data name: Linha & Wilkinson
! Saver's name: Rodrigo Anjos
! Comments: Teste da utilização de aquisição
continua pelo VNA HP8722D
! Time and date: 23/5/2025 08:20
!              Frequency                     S11                                                   S21                                                   S12                                                   S22
# HZ  S  MA R 50
4800000000.000000      4.122925000000000E-01      2.877246000000000E+01      4.311066000000000E-01     -1.191328000000000E+02
4801000000.000000      4.130249000000000E-01      2.900097000000000E+01      4.329071000000000E-01     -1.196445000000000E+02
4802000000.000000      4.134216000000000E-01      2.913574000000000E+01      4.350281000000000E-01     -1.206289000000000E+02
4803000000.000000      4.127655000000000E-01      2.926855000000000E+01      4.364319000000000E-01     -1.212812000000000E+02
4804000000.000000      4.121399000000000E-01      2.940625000000000E+01      4.383850000000000E-01     -1.218398000000000E+02
4805000000.000000      4.149170000000000E-01      2.964844000000000E+01      4.390411000000000E-01     -1.227578000000000E+02
4806000000.000000      4.145966000000000E-01      2.966406000000000E+01      4.403839000000000E-01     -1.233125000000000E+02
4807000000.000000      4.134827000000000E-01      2.960644000000000E+01      4.409180000000000E-01     -1.243008000000000E+02
4808000000.000000      4.136353000000000E-01      2.976465000000000E+01      4.423676000000000E-01     -1.246992000000000E+02
4809000000.000000      4.144440000000000E-01      2.995898000000000E+01      4.433899000000000E-01     -1.256758000000000E+02
4810000000.000000      4.153290000000000E-01      3.007910000000000E+01      4.441528000000000E-01     -1.263437000000000E+02
4811000000.000000      4.149170000000000E-01      3.047168000000000E+01      4.466400000000000E-01     -1.271484000000000E+02
4812000000.000000      4.182434000000000E-01      3.061132000000000E+01      4.482117000000000E-01     -1.280156000000000E+02
4813000000.000000      4.163971000000000E-01      3.053711000000000E+01      4.488678000000000E-01     -1.285859000000000E+02
4814000000.000000      4.179077000000000E-01      3.063379000000000E+01      4.478607000000000E-01     -1.292344000000000E+02
4815000000.000000      4.185333000000000E-01      3.068066000000000E+01      4.495087000000000E-01     -1.300703000000000E+02
4816000000.000000      4.199066000000000E-01      3.070117000000000E+01      4.495697000000000E-01     -1.307344000000000E+02
4817000000.000000      4.199524000000000E-01      3.101074000000000E+01      4.495087000000000E-01     -1.316875000000000E+02
4818000000.000000      4.211273000000000E-01      3.093847000000000E+01      4.500732000000000E-01     -1.323594000000000E+02
4819000000.000000      4.222260000000000E-01      3.104297000000000E+01      4.502716000000000E-01     -1.331406000000000E+02
4820000000.000000      4.227295000000000E-01      3.120508000000000E+01      4.502563000000000E-01     -1.338047000000000E+02
4821000000.000000      4.259796000000000E-01      3.124707000000000E+01      4.520721000000000E-01     -1.345234000000000E+02
4822000000.000000      4.237366000000000E-01      3.114551000000000E+01      4.506378000000000E-01     -1.351328000000000E+02
4823000000.000000      4.266968000000000E-01      3.127930000000000E+01      4.515076000000000E-01     -1.360391000000000E+02
4824000000.000000      4.269257000000000E-01      3.142969000000000E+01      4.498444000000000E-01     -1.369688000000000E+02
4825000000.000000      4.284973000000000E-01      3.168848000000000E+01      4.502258000000000E-01     -1.375703000000000E+02
4826000000.000000      4.306183000000000E-01      3.143847000000000E+01      4.500275000000000E-01     -1.385000000000000E+02
4827000000.000000      4.314575000000000E-01      3.163574000000000E+01      4.503174000000000E-01     -1.391719000000000E+02
4828000000.000000      4.323883000000000E-01      3.154492000000000E+01      4.505005000000000E-01     -1.396328000000000E+02
4829000000.000000      4.328308000000000E-01      3.184765000000000E+01      4.505310000000000E-01     -1.403516000000000E+02
4830000000.000000      4.340668000000000E-01      3.187402000000000E+01      4.502411000000000E-01     -1.412266000000000E+02
4831000000.000000      4.354248000000000E-01      3.172949000000000E+01      4.506378000000000E-01     -1.421094000000000E+02
4832000000.000000      4.359283000000000E-01      3.179688000000000E+01      4.491577000000000E-01     -1.426250000000000E+02
4833000000.000000      4.375916000000000E-01      3.176660000000000E+01      4.488525000000000E-01     -1.431953000000000E+02
4834000000.000000      4.393463000000000E-01      3.171289000000000E+01      4.474792000000000E-01     -1.439297000000000E+02
4835000000.000000      4.397583000000000E-01      3.181641000000000E+01      4.467163000000000E-01     -1.448828000000000E+02
4836000000.000000      4.416351000000000E-01      3.184082000000000E+01      4.476929000000000E-01     -1.452891000000000E+02
4837000000.000000      4.424591000000000E-01      3.176465000000000E+01      4.447327000000000E-01     -1.462891000000000E+02
4838000000.000000      4.451752000000000E-01      3.175293000000000E+01      4.452820000000000E-01     -1.467969000000000E+02
4839000000.000000      4.473877000000000E-01      3.178320000000000E+01      4.441833000000000E-01     -1.475547000000000E+02
4840000000.000000      4.474945000000000E-01      3.151367000000000E+01      4.441986000000000E-01     -1.483281000000000E+02
4841000000.000000      4.485626000000000E-01      3.168554000000000E+01      4.427185000000000E-01     -1.490625000000000E+02
4842000000.000000      4.498749000000000E-01      3.158398000000000E+01      4.426422000000000E-01     -1.498125000000000E+02
4843000000.000000      4.535675000000000E-01      3.146875000000000E+01      4.418182000000000E-01     -1.505312000000000E+02
4844000000.000000      4.536743000000000E-01      3.164941000000000E+01      4.408112000000000E-01     -1.512969000000000E+02
4845000000.000000      4.537048000000000E-01      3.168848000000000E+01      4.388733000000000E-01     -1.518828000000000E+02
4846000000.000000      4.564209000000000E-01      3.152344000000000E+01      4.371796000000000E-01     -1.527656000000000E+02
4847000000.000000      4.580994000000000E-01      3.144922000000000E+01      4.366302000000000E-01     -1.532031000000000E+02
4848000000.000000      4.588623000000000E-01      3.120312000000000E+01      4.338989000000000E-01     -1.541719000000000E+02
4849000000.000000      4.602661000000000E-01      3.121289000000000E+01      4.339142000000000E-01     -1.548906000000000E+02
4850000000.000000      4.618988000000000E-01      3.107129000000000E+01      4.313812000000000E-01     -1.555625000000000E+02
4851000000.000000      4.628296000000000E-01      3.104297000000000E+01      4.307861000000000E-01     -1.564687000000000E+02
4852000000.000000      4.637756000000000E-01      3.078320000000000E+01      4.287720000000000E-01     -1.572422000000000E+02
4853000000.000000      4.666748000000000E-01      3.087207000000000E+01      4.261780000000000E-01     -1.579375000000000E+02
4854000000.000000      4.667816000000000E-01      3.076367000000000E+01      4.245758000000000E-01     -1.585625000000000E+02
4855000000.000000      4.677277000000000E-01      3.040039000000000E+01      4.230957000000000E-01     -1.595312000000000E+02
4856000000.000000      4.702759000000000E-01      3.034668000000000E+01      4.209290000000000E-01     -1.603516000000000E+02
4857000000.000000      4.706421000000000E-01      3.031054000000000E+01      4.198761000000000E-01     -1.607344000000000E+02
4858000000.000000      4.714203000000000E-01      3.019238000000000E+01      4.172668000000000E-01     -1.616406000000000E+02
4859000000.000000      4.726563000000000E-01      2.989160000000000E+01      4.157562000000000E-01     -1.624063000000000E+02
4860000000.000000      4.742126000000000E-01      2.997559000000000E+01      4.131317000000000E-01     -1.632109000000000E+02
4861000000.000000      4.747620000000000E-01      2.975781000000000E+01      4.113770000000000E-01     -1.637734000000000E+02
4862000000.000000      4.752350000000000E-01      2.968359000000000E+01      4.086609000000000E-01     -1.644219000000000E+02
4863000000.000000      4.755096000000000E-01      2.969043000000000E+01      4.054260000000000E-01     -1.652812000000000E+02
4864000000.000000      4.788208000000000E-01      2.957324000000000E+01      4.039917000000000E-01     -1.660234000000000E+02
4865000000.000000      4.799805000000000E-01      2.941113000000000E+01      3.984833000000000E-01     -1.665937000000000E+02
4866000000.000000      4.800262000000000E-01      2.912793000000000E+01      3.957825000000000E-01     -1.673359000000000E+02
4867000000.000000      4.802856000000000E-01      2.918652000000000E+01      3.943787000000000E-01     -1.681953000000000E+02
4868000000.000000      4.833069000000000E-01      2.874218000000000E+01      3.918915000000000E-01     -1.688906000000000E+02
4869000000.000000      4.835052000000000E-01      2.879980000000000E+01      3.880768000000000E-01     -1.695781000000000E+02
4870000000.000000      4.837036000000000E-01      2.853516000000000E+01      3.840790000000000E-01     -1.702891000000000E+02
4871000000.000000      4.850616000000000E-01      2.820117000000000E+01      3.813934000000000E-01     -1.709531000000000E+02
4872000000.000000      4.878845000000000E-01      2.804492000000000E+01      3.780060000000000E-01     -1.715937000000000E+02
4873000000.000000      4.885559000000000E-01      2.812891000000000E+01      3.743134000000000E-01     -1.721328000000000E+02
4874000000.000000      4.876709000000000E-01      2.801074000000000E+01      3.729401000000000E-01     -1.728359000000000E+02
4875000000.000000      4.887238000000000E-01      2.773828000000000E+01      3.683777000000000E-01     -1.734375000000000E+02
4876000000.000000      4.911346000000000E-01      2.769922000000000E+01      3.658142000000000E-01     -1.738750000000000E+02
4877000000.000000      4.896393000000000E-01      2.744336000000000E+01      3.629761000000000E-01     -1.747969000000000E+02
4878000000.000000      4.901733000000000E-01      2.718262000000000E+01      3.591156000000000E-01     -1.752891000000000E+02
4879000000.000000      4.920349000000000E-01      2.703516000000000E+01      3.547821000000000E-01     -1.758828000000000E+02
4880000000.000000      4.950867000000000E-01      2.674805000000000E+01      3.522034000000000E-01     -1.761562000000000E+02
4881000000.000000      4.928436000000000E-01      2.672754000000000E+01      3.489075000000000E-01     -1.770703000000000E+02
4882000000.000000      4.957581000000000E-01      2.659570000000000E+01      3.455963000000000E-01     -1.775859000000000E+02
4883000000.000000      4.927368000000000E-01      2.651367000000000E+01      3.407745000000000E-01     -1.781641000000000E+02
4884000000.000000      4.953766000000000E-01      2.647558000000000E+01      3.380585000000000E-01     -1.785156000000000E+02
4885000000.000000      4.959106000000000E-01      2.585156000000000E+01      3.354950000000000E-01     -1.791875000000000E+02
4886000000.000000      4.965668000000000E-01      2.596680000000000E+01      3.310852000000000E-01     -1.793203000000000E+02
4887000000.000000      4.967194000000000E-01      2.581738000000000E+01      3.292694000000000E-01      1.798750000000000E+02
4888000000.000000      4.957428000000000E-01      2.554004000000000E+01      3.240967000000000E-01      1.793359000000000E+02
4889000000.000000      4.974518000000000E-01      2.538183000000000E+01      3.209229000000000E-01      1.792031000000000E+02
4890000000.000000      4.977875000000000E-01      2.515918000000000E+01      3.175049000000000E-01      1.783125000000000E+02
4891000000.000000      4.993439000000000E-01      2.508789000000000E+01      3.143768000000000E-01      1.780156000000000E+02
4892000000.000000      4.975281000000000E-01      2.483593000000000E+01      3.105011000000000E-01      1.779219000000000E+02
4893000000.000000      4.993439000000000E-01      2.483105000000000E+01      3.071747000000000E-01      1.770781000000000E+02
4894000000.000000      4.998779000000000E-01      2.453516000000000E+01      3.044739000000000E-01      1.767734000000000E+02
4895000000.000000      4.985962000000000E-01      2.430371000000000E+01      3.014069000000000E-01      1.764531000000000E+02
4896000000.000000      4.999237000000000E-01      2.412402000000000E+01      2.979889000000000E-01      1.758906000000000E+02
4897000000.000000      4.994507000000000E-01      2.419140000000000E+01      2.938385000000000E-01      1.754453000000000E+02
4898000000.000000      4.999084000000000E-01      2.411718000000000E+01      2.907715000000000E-01      1.752109000000000E+02
4899000000.000000      5.011597000000000E-01      2.393066000000000E+01      2.880859000000000E-01      1.746484000000000E+02
4900000000.000000      5.011902000000000E-01      2.359863000000000E+01      2.840729000000000E-01      1.744609000000000E+02
4901000000.000000      5.012512000000000E-01      2.348437000000000E+01      2.814178000000000E-01      1.740156000000000E+02
4902000000.000000      5.015564000000000E-01      2.338281000000000E+01      2.784119000000000E-01      1.736406000000000E+02
4903000000.000000      5.015259000000000E-01      2.317773000000000E+01      2.744141000000000E-01      1.731094000000000E+02
4904000000.000000      5.019836000000000E-01      2.276367000000000E+01      2.720337000000000E-01      1.727890000000000E+02
4905000000.000000      5.006104000000000E-01      2.268652000000000E+01      2.689056000000000E-01      1.723672000000000E+02
4906000000.000000      4.990082000000000E-01      2.265234000000000E+01      2.659149000000000E-01      1.721094000000000E+02
4907000000.000000      4.992218000000000E-01      2.255859000000000E+01      2.628326000000000E-01      1.717422000000000E+02
4908000000.000000      5.010681000000000E-01      2.237597000000000E+01      2.593689000000000E-01      1.712812000000000E+02
4909000000.000000      5.003357000000000E-01      2.226074000000000E+01      2.556763000000000E-01      1.709063000000000E+02
4910000000.000000      5.018616000000000E-01      2.209961000000000E+01      2.526855000000000E-01      1.707734000000000E+02
4911000000.000000      5.006714000000000E-01      2.205273000000000E+01      2.498322000000000E-01      1.703359000000000E+02
4912000000.000000      5.015259000000000E-01      2.174414000000000E+01      2.466583000000000E-01      1.698750000000000E+02
4913000000.000000      5.030518000000000E-01      2.162304000000000E+01      2.437210000000000E-01      1.697187000000000E+02
4914000000.000000      5.021362000000000E-01      2.140332000000000E+01      2.396317000000000E-01      1.694609000000000E+02
4915000000.000000      5.018616000000000E-01      2.130762000000000E+01      2.361679000000000E-01      1.689687000000000E+02
4916000000.000000      5.023804000000000E-01      2.130566000000000E+01      2.331238000000000E-01      1.685547000000000E+02
4917000000.000000      5.016785000000000E-01      2.110840000000000E+01      2.294922000000000E-01      1.683437000000000E+02
4918000000.000000      5.016174000000000E-01      2.079102000000000E+01      2.257538000000000E-01      1.681250000000000E+02
4919000000.000000      5.007019000000000E-01      2.075976000000000E+01      2.231750000000000E-01      1.679297000000000E+02
4920000000.000000      5.010986000000000E-01      2.060156000000000E+01      2.196884000000000E-01      1.673437000000000E+02
4921000000.000000      5.017090000000000E-01      2.059082000000000E+01      2.161255000000000E-01      1.672734000000000E+02
4922000000.000000      5.023193000000000E-01      2.036914000000000E+01      2.124405000000000E-01      1.671250000000000E+02
4923000000.000000      5.033264000000000E-01      2.007324000000000E+01      2.089767000000000E-01      1.668750000000000E+02
4924000000.000000      5.033569000000000E-01      2.021582000000000E+01      2.054062000000000E-01      1.665234000000000E+02
4925000000.000000      5.008545000000000E-01      2.013476000000000E+01      2.021790000000000E-01      1.664609000000000E+02
4926000000.000000      5.013733000000000E-01      1.992090000000000E+01      1.989059000000000E-01      1.662031000000000E+02
4927000000.000000      5.006409000000000E-01      1.966894000000000E+01      1.948242000000000E-01      1.657969000000000E+02
4928000000.000000      5.025024000000000E-01      1.952246000000000E+01      1.918411000000000E-01      1.658750000000000E+02
4929000000.000000      5.008240000000000E-01      1.941602000000000E+01      1.879044000000000E-01      1.659062000000000E+02
4930000000.000000      5.009766000000000E-01      1.927344000000000E+01      1.846771000000000E-01      1.657422000000000E+02
4931000000.000000      4.994507000000000E-01      1.914551000000000E+01      1.815872000000000E-01      1.657500000000000E+02
4932000000.000000      5.020752000000000E-01      1.898633000000000E+01      1.768951000000000E-01      1.657031000000000E+02
4933000000.000000      5.007629000000000E-01      1.882031000000000E+01      1.731033000000000E-01      1.659297000000000E+02
4934000000.000000      5.011292000000000E-01      1.878711000000000E+01      1.697617000000000E-01      1.656016000000000E+02
4935000000.000000      5.023804000000000E-01      1.871289000000000E+01      1.668091000000000E-01      1.660234000000000E+02
4936000000.000000      5.016479000000000E-01      1.837793000000000E+01      1.630249000000000E-01      1.661016000000000E+02
4937000000.000000      5.018921000000000E-01      1.842773000000000E+01      1.593552000000000E-01      1.663828000000000E+02
4938000000.000000      5.008240000000000E-01      1.841992000000000E+01      1.559906000000000E-01      1.666641000000000E+02
4939000000.000000      5.018616000000000E-01      1.824219000000000E+01      1.523438000000000E-01      1.666953000000000E+02
4940000000.000000      5.003052000000000E-01      1.806836000000000E+01      1.491470000000000E-01      1.671172000000000E+02
4941000000.000000      5.017700000000000E-01      1.785058000000000E+01      1.458282000000000E-01      1.676172000000000E+02
4942000000.000000      5.004578000000000E-01      1.768457000000000E+01      1.423187000000000E-01      1.679453000000000E+02
4943000000.000000      5.018616000000000E-01      1.763281000000000E+01      1.387482000000000E-01      1.687187000000000E+02
4944000000.000000      5.021667000000000E-01      1.754199000000000E+01      1.355896000000000E-01      1.691328000000000E+02
4945000000.000000      5.012512000000000E-01      1.727148000000000E+01      1.326523000000000E-01      1.696016000000000E+02
4946000000.000000      5.020142000000000E-01      1.714648000000000E+01      1.293945000000000E-01      1.704141000000000E+02
4947000000.000000      5.007019000000000E-01      1.719336000000000E+01      1.264648000000000E-01      1.711562000000000E+02
4948000000.000000      5.030823000000000E-01      1.683594000000000E+01      1.237869000000000E-01      1.721719000000000E+02
4949000000.000000      5.017395000000000E-01      1.683105000000000E+01      1.212120000000000E-01      1.732344000000000E+02
4950000000.000000      5.003357000000000E-01      1.663183000000000E+01      1.181450000000000E-01      1.741016000000000E+02
4951000000.000000      5.009766000000000E-01      1.643555000000000E+01      1.160011000000000E-01      1.752187000000000E+02
4952000000.000000      5.016479000000000E-01      1.635449000000000E+01      1.131172000000000E-01      1.765469000000000E+02
4953000000.000000      5.007324000000000E-01      1.645410000000000E+01      1.113434000000000E-01      1.778672000000000E+02
4954000000.000000      5.009155000000000E-01      1.623633000000000E+01      1.089859000000000E-01      1.793672000000000E+02
