! Network Analyzer HP8722D
! Hewlett-Packard
! Data name: Linha & Wilkinson
! Saver's name: Rodrigo Anjos
! Comments: Teste da utilização de aquisição
continua pelo VNA HP8722D
! Time and date: 23/5/2025 15:32
!              Frequency                     S11                                                   S21                                                   S12                                                   S22
# HZ  S  MA R 50
4800000000.000000      2.823486000000000E-01      4.008985000000000E+01      4.858246000000000E-01     -1.293203000000000E+02
4801000000.000000      2.837219000000000E-01      4.025391000000000E+01      4.863586000000000E-01     -1.301172000000000E+02
4802000000.000000      2.853241000000000E-01      4.051171000000000E+01      4.881592000000000E-01     -1.307891000000000E+02
4803000000.000000      2.859039000000000E-01      4.069140000000000E+01      4.915466000000000E-01     -1.313906000000000E+02
4804000000.000000      2.872772000000000E-01      4.094727000000000E+01      4.915466000000000E-01     -1.321016000000000E+02
4805000000.000000      2.889099000000000E-01      4.103711000000000E+01      4.947052000000000E-01     -1.329062000000000E+02
4806000000.000000      2.901459000000000E-01      4.123828000000000E+01      4.946594000000000E-01     -1.337656000000000E+02
4807000000.000000      2.912292000000000E-01      4.145117000000000E+01      4.956818000000000E-01     -1.346172000000000E+02
4808000000.000000      2.922668000000000E-01      4.159765000000000E+01      4.985962000000000E-01     -1.350000000000000E+02
4809000000.000000      2.939606000000000E-01      4.184960000000000E+01      4.997253000000000E-01     -1.358906000000000E+02
4810000000.000000      2.956696000000000E-01      4.194531000000000E+01      5.003662000000000E-01     -1.364375000000000E+02
4811000000.000000      2.973175000000000E-01      4.218750000000000E+01      5.010376000000000E-01     -1.374063000000000E+02
4812000000.000000      2.997284000000000E-01      4.226953000000000E+01      5.027466000000000E-01     -1.380078000000000E+02
4813000000.000000      3.005066000000000E-01      4.239453000000000E+01      5.025940000000000E-01     -1.386797000000000E+02
4814000000.000000      3.014069000000000E-01      4.245898000000000E+01      5.038147000000000E-01     -1.394687000000000E+02
4815000000.000000      3.034973000000000E-01      4.266406000000000E+01      5.042725000000000E-01     -1.402266000000000E+02
4816000000.000000      3.061523000000000E-01      4.267383000000000E+01      5.050659000000000E-01     -1.409297000000000E+02
4817000000.000000      3.073578000000000E-01      4.278710000000000E+01      5.063171000000000E-01     -1.417813000000000E+02
4818000000.000000      3.090057000000000E-01      4.274219000000000E+01      5.056763000000000E-01     -1.423125000000000E+02
4819000000.000000      3.106995000000000E-01      4.280273000000000E+01      5.068970000000000E-01     -1.431015000000000E+02
4820000000.000000      3.117676000000000E-01      4.287499000000000E+01      5.064697000000000E-01     -1.436953000000000E+02
4821000000.000000      3.144836000000000E-01      4.292188000000000E+01      5.071106000000000E-01     -1.446953000000000E+02
4822000000.000000      3.159637000000000E-01      4.290625000000000E+01      5.057678000000000E-01     -1.453906000000000E+02
4823000000.000000      3.179932000000000E-01      4.285937000000000E+01      5.070801000000000E-01     -1.462188000000000E+02
4824000000.000000      3.196869000000000E-01      4.296288000000000E+01      5.062256000000000E-01     -1.469063000000000E+02
4825000000.000000      3.215790000000000E-01      4.280663000000000E+01      5.068665000000000E-01     -1.474453000000000E+02
4826000000.000000      3.234711000000000E-01      4.278710000000000E+01      5.065002000000000E-01     -1.483203000000000E+02
4827000000.000000      3.251343000000000E-01      4.282031000000000E+01      5.063782000000000E-01     -1.489687000000000E+02
4828000000.000000      3.275299000000000E-01      4.275781000000000E+01      5.059509000000000E-01     -1.497266000000000E+02
4829000000.000000      3.289490000000000E-01      4.276367000000000E+01      5.058594000000000E-01     -1.504141000000000E+02
4830000000.000000      3.308411000000000E-01      4.254102000000000E+01      5.046387000000000E-01     -1.512266000000000E+02
4831000000.000000      3.325958000000000E-01      4.250586000000000E+01      5.041809000000000E-01     -1.520078000000000E+02
4832000000.000000      3.342590000000000E-01      4.255664000000000E+01      5.033875000000000E-01     -1.525703000000000E+02
4833000000.000000      3.356628000000000E-01      4.229297000000000E+01      5.024719000000000E-01     -1.532500000000000E+02
4834000000.000000      3.375549000000000E-01      4.229101000000000E+01      5.026550000000000E-01     -1.541250000000000E+02
4835000000.000000      3.400726000000000E-01      4.212695000000000E+01      5.014038000000000E-01     -1.548828000000000E+02
4836000000.000000      3.418274000000000E-01      4.213086000000000E+01      4.999237000000000E-01     -1.554375000000000E+02
4837000000.000000      3.428802000000000E-01      4.207227000000000E+01      4.984741000000000E-01     -1.564766000000000E+02
4838000000.000000      3.440094000000000E-01      4.176562000000000E+01      4.978638000000000E-01     -1.569922000000000E+02
4839000000.000000      3.479156000000000E-01      4.170507000000000E+01      4.970245000000000E-01     -1.575000000000000E+02
4840000000.000000      3.481903000000000E-01      4.146289000000000E+01      4.969330000000000E-01     -1.583516000000000E+02
4841000000.000000      3.498077000000000E-01      4.141602000000000E+01      4.949341000000000E-01     -1.591016000000000E+02
4842000000.000000      3.515472000000000E-01      4.122070000000000E+01      4.933929000000000E-01     -1.598438000000000E+02
4843000000.000000      3.542023000000000E-01      4.080274000000000E+01      4.927979000000000E-01     -1.604922000000000E+02
4844000000.000000      3.545532000000000E-01      4.067773000000000E+01      4.916687000000000E-01     -1.612422000000000E+02
4845000000.000000      3.564301000000000E-01      4.059375000000000E+01      4.897614000000000E-01     -1.617969000000000E+02
4846000000.000000      3.588562000000000E-01      4.037695000000000E+01      4.871368000000000E-01     -1.624922000000000E+02
4847000000.000000      3.595581000000000E-01      4.028906000000000E+01      4.860840000000000E-01     -1.632500000000000E+02
4848000000.000000      3.609924000000000E-01      3.997461000000000E+01      4.840393000000000E-01     -1.639375000000000E+02
4849000000.000000      3.624420000000000E-01      3.981445000000000E+01      4.829254000000000E-01     -1.647500000000000E+02
4850000000.000000      3.637238000000000E-01      3.961719000000000E+01      4.804077000000000E-01     -1.653281000000000E+02
4851000000.000000      3.649902000000000E-01      3.942578000000000E+01      4.804230000000000E-01     -1.659688000000000E+02
4852000000.000000      3.663483000000000E-01      3.906250000000000E+01      4.766846000000000E-01     -1.668594000000000E+02
4853000000.000000      3.674469000000000E-01      3.900781000000000E+01      4.726868000000000E-01     -1.674297000000000E+02
4854000000.000000      3.686676000000000E-01      3.870117000000000E+01      4.726105000000000E-01     -1.685000000000000E+02
4855000000.000000      3.700867000000000E-01      3.851367000000000E+01      4.688721000000000E-01     -1.689609000000000E+02
4856000000.000000      3.708191000000000E-01      3.820117000000000E+01      4.671936000000000E-01     -1.696640000000000E+02
4857000000.000000      3.727417000000000E-01      3.805273000000000E+01      4.670868000000000E-01     -1.702422000000000E+02
4858000000.000000      3.735657000000000E-01      3.768164000000000E+01      4.644623000000000E-01     -1.711016000000000E+02
4859000000.000000      3.747711000000000E-01      3.745117000000000E+01      4.596710000000000E-01     -1.717500000000000E+02
4860000000.000000      3.758850000000000E-01      3.736719000000000E+01      4.578400000000000E-01     -1.723828000000000E+02
4861000000.000000      3.768005000000000E-01      3.700586000000000E+01      4.574280000000000E-01     -1.731094000000000E+02
4862000000.000000      3.776245000000000E-01      3.672656000000000E+01      4.541779000000000E-01     -1.738047000000000E+02
4863000000.000000      3.786163000000000E-01      3.660156000000000E+01      4.496765000000000E-01     -1.745234000000000E+02
4864000000.000000      3.792572000000000E-01      3.618750000000000E+01      4.476166000000000E-01     -1.750547000000000E+02
4865000000.000000      3.804169000000000E-01      3.599023000000000E+01      4.444275000000000E-01     -1.757891000000000E+02
4866000000.000000      3.809204000000000E-01      3.554688000000000E+01      4.420929000000000E-01     -1.763594000000000E+02
4867000000.000000      3.813782000000000E-01      3.540625000000000E+01      4.390564000000000E-01     -1.769766000000000E+02
4868000000.000000      3.827972000000000E-01      3.519140000000000E+01      4.355164000000000E-01     -1.778125000000000E+02
4869000000.000000      3.837433000000000E-01      3.484961000000000E+01      4.319916000000000E-01     -1.784062000000000E+02
4870000000.000000      3.844147000000000E-01      3.466992000000000E+01      4.292755000000000E-01     -1.788281000000000E+02
4871000000.000000      3.841248000000000E-01      3.424609000000000E+01      4.264069000000000E-01     -1.798516000000000E+02
4872000000.000000      3.853607000000000E-01      3.416016000000000E+01      4.226074000000000E-01      1.797812000000000E+02
4873000000.000000      3.856812000000000E-01      3.380078000000000E+01      4.194794000000000E-01      1.791406000000000E+02
4874000000.000000      3.862762000000000E-01      3.359961000000000E+01      4.150848000000000E-01      1.783047000000000E+02
4875000000.000000      3.866730000000000E-01      3.326757000000000E+01      4.106445000000000E-01      1.780703000000000E+02
4876000000.000000      3.877106000000000E-01      3.311328000000000E+01      4.077606000000000E-01      1.774141000000000E+02
4877000000.000000      3.882141000000000E-01      3.271679000000000E+01      4.041290000000000E-01      1.769219000000000E+02
4878000000.000000      3.878021000000000E-01      3.254687000000000E+01      4.007721000000000E-01      1.762500000000000E+02
4879000000.000000      3.889008000000000E-01      3.223633000000000E+01      3.993683000000000E-01      1.757422000000000E+02
4880000000.000000      3.900452000000000E-01      3.194824000000000E+01      3.957825000000000E-01      1.752500000000000E+02
4881000000.000000      3.887787000000000E-01      3.174414000000000E+01      3.908386000000000E-01      1.746953000000000E+02
4882000000.000000      3.899994000000000E-01      3.147656000000000E+01      3.893127000000000E-01      1.739609000000000E+02
4883000000.000000      3.894958000000000E-01      3.119141000000000E+01      3.859406000000000E-01      1.734297000000000E+02
4884000000.000000      3.904572000000000E-01      3.097363000000000E+01      3.806915000000000E-01      1.728047000000000E+02
4885000000.000000      3.902588000000000E-01      3.070605000000000E+01      3.771667000000000E-01      1.727578000000000E+02
4886000000.000000      3.907623000000000E-01      3.044238000000000E+01      3.748474000000000E-01      1.721250000000000E+02
4887000000.000000      3.904114000000000E-01      3.019824000000000E+01      3.714142000000000E-01      1.716250000000000E+02
4888000000.000000      3.904877000000000E-01      2.991211000000000E+01      3.684998000000000E-01      1.711016000000000E+02
4889000000.000000      3.902893000000000E-01      2.966113000000000E+01      3.622894000000000E-01      1.707813000000000E+02
4890000000.000000      3.887329000000000E-01      2.943457000000000E+01      3.585968000000000E-01      1.699453000000000E+02
4891000000.000000      3.904266000000000E-01      2.922363000000000E+01      3.561859000000000E-01      1.693438000000000E+02
4892000000.000000      3.900452000000000E-01      2.899609000000000E+01      3.521271000000000E-01      1.691406000000000E+02
4893000000.000000      3.909149000000000E-01      2.866113000000000E+01      3.490753000000000E-01      1.686328000000000E+02
4894000000.000000      3.904266000000000E-01      2.846094000000000E+01      3.450317000000000E-01      1.681875000000000E+02
4895000000.000000      3.908997000000000E-01      2.811230000000000E+01      3.426819000000000E-01      1.680078000000000E+02
4896000000.000000      3.898468000000000E-01      2.801367000000000E+01      3.384094000000000E-01      1.674062000000000E+02
4897000000.000000      3.895569000000000E-01      2.780566000000000E+01      3.354187000000000E-01      1.669765000000000E+02
4898000000.000000      3.892670000000000E-01      2.766602000000000E+01      3.322601000000000E-01      1.666875000000000E+02
4899000000.000000      3.890686000000000E-01      2.732226000000000E+01      3.285065000000000E-01      1.662266000000000E+02
4900000000.000000      3.895264000000000E-01      2.694921000000000E+01      3.239594000000000E-01      1.658281000000000E+02
4901000000.000000      3.899078000000000E-01      2.687109000000000E+01      3.212128000000000E-01      1.654140000000000E+02
4902000000.000000      3.889618000000000E-01      2.681445000000000E+01      3.189087000000000E-01      1.650859000000000E+02
4903000000.000000      3.891296000000000E-01      2.650586000000000E+01      3.138733000000000E-01      1.645781000000000E+02
4904000000.000000      3.884277000000000E-01      2.617480000000000E+01      3.111267000000000E-01      1.640938000000000E+02
4905000000.000000      3.883972000000000E-01      2.602246000000000E+01      3.082123000000000E-01      1.637734000000000E+02
4906000000.000000      3.879395000000000E-01      2.577929000000000E+01      3.040771000000000E-01      1.636562000000000E+02
4907000000.000000      3.884735000000000E-01      2.547558000000000E+01      3.018036000000000E-01      1.631094000000000E+02
4908000000.000000      3.890533000000000E-01      2.532715000000000E+01      2.984314000000000E-01      1.625234000000000E+02
4909000000.000000      3.878326000000000E-01      2.517871000000000E+01      2.939148000000000E-01      1.623281000000000E+02
4910000000.000000      3.872986000000000E-01      2.496973000000000E+01      2.909088000000000E-01      1.620391000000000E+02
4911000000.000000      3.877106000000000E-01      2.488770000000000E+01      2.870636000000000E-01      1.616172000000000E+02
4912000000.000000      3.865814000000000E-01      2.461035000000000E+01      2.839813000000000E-01      1.610859000000000E+02
4913000000.000000      3.873749000000000E-01      2.435449000000000E+01      2.802277000000000E-01      1.607656000000000E+02
4914000000.000000      3.870850000000000E-01      2.411621000000000E+01      2.762756000000000E-01      1.605156000000000E+02
4915000000.000000      3.856812000000000E-01      2.401953000000000E+01      2.721558000000000E-01      1.599922000000000E+02
4916000000.000000      3.860168000000000E-01      2.381934000000000E+01      2.683258000000000E-01      1.596172000000000E+02
4917000000.000000      3.863220000000000E-01      2.370703000000000E+01      2.653656000000000E-01      1.593672000000000E+02
4918000000.000000      3.855743000000000E-01      2.336328000000000E+01      2.605438000000000E-01      1.590391000000000E+02
4919000000.000000      3.843994000000000E-01      2.329102000000000E+01      2.581024000000000E-01      1.589062000000000E+02
4920000000.000000      3.847656000000000E-01      2.298730000000000E+01      2.533722000000000E-01      1.582266000000000E+02
4921000000.000000      3.851929000000000E-01      2.291602000000000E+01      2.504578000000000E-01      1.581563000000000E+02
4922000000.000000      3.846436000000000E-01      2.271191000000000E+01      2.458267000000000E-01      1.579141000000000E+02
4923000000.000000      3.836517000000000E-01      2.278125000000000E+01      2.415009000000000E-01      1.576641000000000E+02
4924000000.000000      3.843079000000000E-01      2.245800000000000E+01      2.376785000000000E-01      1.572578000000000E+02
4925000000.000000      3.831940000000000E-01      2.212891000000000E+01      2.347260000000000E-01      1.570859000000000E+02
4926000000.000000      3.831787000000000E-01      2.219336000000000E+01      2.307053000000000E-01      1.568750000000000E+02
4927000000.000000      3.824768000000000E-01      2.181152000000000E+01      2.259827000000000E-01      1.568125000000000E+02
4928000000.000000      3.830566000000000E-01      2.159570000000000E+01      2.219772000000000E-01      1.566094000000000E+02
4929000000.000000      3.825684000000000E-01      2.148633000000000E+01      2.177811000000000E-01      1.565078000000000E+02
4930000000.000000      3.813019000000000E-01      2.132519000000000E+01      2.141571000000000E-01      1.562344000000000E+02
4931000000.000000      3.819733000000000E-01      2.105371000000000E+01      2.101440000000000E-01      1.561875000000000E+02
4932000000.000000      3.824921000000000E-01      2.095019000000000E+01      2.060623000000000E-01      1.561016000000000E+02
4933000000.000000      3.826904000000000E-01      2.069531000000000E+01      2.011871000000000E-01      1.561953000000000E+02
4934000000.000000      3.824768000000000E-01      2.059473000000000E+01      1.972046000000000E-01      1.560469000000000E+02
4935000000.000000      3.825836000000000E-01      2.044238000000000E+01      1.941528000000000E-01      1.563125000000000E+02
4936000000.000000      3.807678000000000E-01      2.032715000000000E+01      1.896896000000000E-01      1.563594000000000E+02
4937000000.000000      3.808289000000000E-01      2.005957000000000E+01      1.856842000000000E-01      1.563203000000000E+02
4938000000.000000      3.809662000000000E-01      1.992969000000000E+01      1.815948000000000E-01      1.566562000000000E+02
4939000000.000000      3.796539000000000E-01      1.980078000000000E+01      1.775589000000000E-01      1.568750000000000E+02
4940000000.000000      3.798370000000000E-01      1.961426000000000E+01      1.731186000000000E-01      1.570547000000000E+02
4941000000.000000      3.793488000000000E-01      1.930078000000000E+01      1.696396000000000E-01      1.574141000000000E+02
4942000000.000000      3.778992000000000E-01      1.937793000000000E+01      1.655884000000000E-01      1.577656000000000E+02
4943000000.000000      3.784027000000000E-01      1.909472000000000E+01      1.613235000000000E-01      1.582734000000000E+02
4944000000.000000      3.786163000000000E-01      1.896875000000000E+01      1.588364000000000E-01      1.587188000000000E+02
4945000000.000000      3.784637000000000E-01      1.866406000000000E+01      1.544495000000000E-01      1.592734000000000E+02
4946000000.000000      3.784180000000000E-01      1.850293000000000E+01      1.510010000000000E-01      1.600078000000000E+02
4947000000.000000      3.777466000000000E-01      1.833008000000000E+01      1.475067000000000E-01      1.604063000000000E+02
4948000000.000000      3.782959000000000E-01      1.830273000000000E+01      1.442642000000000E-01      1.615625000000000E+02
4949000000.000000      3.766479000000000E-01      1.809082000000000E+01      1.412277000000000E-01      1.625469000000000E+02
4950000000.000000      3.770447000000000E-01      1.794043000000000E+01      1.377258000000000E-01      1.632656000000000E+02
4951000000.000000      3.762970000000000E-01      1.777441000000000E+01      1.352234000000000E-01      1.641172000000000E+02
4952000000.000000      3.757629000000000E-01      1.742969000000000E+01      1.315308000000000E-01      1.655078000000000E+02
4953000000.000000      3.754578000000000E-01      1.744433000000000E+01      1.292801000000000E-01      1.668047000000000E+02
4954000000.000000      3.753510000000000E-01      1.724023000000000E+01      1.263123000000000E-01      1.679453000000000E+02
