! Network Analyzer HP8722D
! Hewlett-Packard
! Data name: Linha & Wilkinson
! Saver's name: Rodrigo Anjos
! Comments: Teste da utilização de aquisição
continua pelo VNA HP8722D
! Time and date: 23/5/2025 16:19
!              Frequency                     S11                                                   S21                                                   S12                                                   S22
# HZ  S  MA R 50
4800000000.000000      2.797699000000000E-01      4.033984000000000E+01      4.881744000000000E-01     -1.295391000000000E+02
4801000000.000000      2.807465000000000E-01      4.058398000000000E+01      4.884033000000000E-01     -1.303281000000000E+02
4802000000.000000      2.817993000000000E-01      4.072266000000000E+01      4.913635000000000E-01     -1.310000000000000E+02
4803000000.000000      2.826385000000000E-01      4.095703000000000E+01      4.935455000000000E-01     -1.315078000000000E+02
4804000000.000000      2.840118000000000E-01      4.126172000000000E+01      4.942627000000000E-01     -1.322266000000000E+02
4805000000.000000      2.859192000000000E-01      4.128906000000000E+01      4.964600000000000E-01     -1.331563000000000E+02
4806000000.000000      2.868042000000000E-01      4.158984000000000E+01      4.976959000000000E-01     -1.339219000000000E+02
4807000000.000000      2.882538000000000E-01      4.179883000000000E+01      4.986877000000000E-01     -1.348672000000000E+02
4808000000.000000      2.894287000000000E-01      4.192383000000000E+01      5.001831000000000E-01     -1.352734000000000E+02
4809000000.000000      2.912445000000000E-01      4.213867000000000E+01      5.014648000000000E-01     -1.362266000000000E+02
4810000000.000000      2.930450000000000E-01      4.227929000000000E+01      5.029602000000000E-01     -1.366406000000000E+02
4811000000.000000      2.947235000000000E-01      4.246094000000000E+01      5.032654000000000E-01     -1.375078000000000E+02
4812000000.000000      2.967682000000000E-01      4.259570000000000E+01      5.047302000000000E-01     -1.383828000000000E+02
4813000000.000000      2.974091000000000E-01      4.266602000000000E+01      5.057068000000000E-01     -1.390000000000000E+02
4814000000.000000      2.989502000000000E-01      4.276563000000000E+01      5.068665000000000E-01     -1.398906000000000E+02
4815000000.000000      3.010101000000000E-01      4.287890000000000E+01      5.064697000000000E-01     -1.403516000000000E+02
4816000000.000000      3.031158000000000E-01      4.303320000000000E+01      5.091248000000000E-01     -1.412109000000000E+02
4817000000.000000      3.042908000000000E-01      4.306641000000000E+01      5.086365000000000E-01     -1.420469000000000E+02
4818000000.000000      3.064423000000000E-01      4.302930000000000E+01      5.083618000000000E-01     -1.427187000000000E+02
4819000000.000000      3.082581000000000E-01      4.310742000000000E+01      5.084534000000000E-01     -1.433594000000000E+02
4820000000.000000      3.094788000000000E-01      4.317968000000000E+01      5.094299000000000E-01     -1.439687000000000E+02
4821000000.000000      3.122864000000000E-01      4.317578000000000E+01      5.104065000000000E-01     -1.449219000000000E+02
4822000000.000000      3.133545000000000E-01      4.317187000000000E+01      5.077820000000000E-01     -1.455156000000000E+02
4823000000.000000      3.154755000000000E-01      4.313672000000000E+01      5.104675000000000E-01     -1.463984000000000E+02
4824000000.000000      3.175812000000000E-01      4.326367000000000E+01      5.086060000000000E-01     -1.469531000000000E+02
4825000000.000000      3.193207000000000E-01      4.316015000000000E+01      5.083008000000000E-01     -1.476953000000000E+02
4826000000.000000      3.207397000000000E-01      4.308007000000000E+01      5.094910000000000E-01     -1.487344000000000E+02
4827000000.000000      3.229523000000000E-01      4.313477000000000E+01      5.101929000000000E-01     -1.492031000000000E+02
4828000000.000000      3.253632000000000E-01      4.308398000000000E+01      5.076599000000000E-01     -1.500078000000000E+02
4829000000.000000      3.263855000000000E-01      4.309179000000000E+01      5.068359000000000E-01     -1.506562000000000E+02
4830000000.000000      3.282166000000000E-01      4.293750000000000E+01      5.076904000000000E-01     -1.514141000000000E+02
4831000000.000000      3.300018000000000E-01      4.275391000000000E+01      5.064697000000000E-01     -1.521250000000000E+02
4832000000.000000      3.324280000000000E-01      4.281836000000000E+01      5.052490000000000E-01     -1.526953000000000E+02
4833000000.000000      3.331757000000000E-01      4.260156000000000E+01      5.046997000000000E-01     -1.535234000000000E+02
4834000000.000000      3.347778000000000E-01      4.259375000000000E+01      5.035095000000000E-01     -1.542031000000000E+02
4835000000.000000      3.371887000000000E-01      4.234765000000000E+01      5.046997000000000E-01     -1.549766000000000E+02
4836000000.000000      3.391571000000000E-01      4.232226000000000E+01      5.026855000000000E-01     -1.556562000000000E+02
4837000000.000000      3.404999000000000E-01      4.223437000000000E+01      5.005188000000000E-01     -1.566406000000000E+02
4838000000.000000      3.417816000000000E-01      4.205274000000000E+01      5.013428000000000E-01     -1.570859000000000E+02
4839000000.000000      3.454437000000000E-01      4.193164000000000E+01      4.992676000000000E-01     -1.577812000000000E+02
4840000000.000000      3.461304000000000E-01      4.168164000000000E+01      4.979706000000000E-01     -1.584766000000000E+02
4841000000.000000      3.482361000000000E-01      4.163086000000000E+01      4.954071000000000E-01     -1.592500000000000E+02
4842000000.000000      3.493500000000000E-01      4.136132000000000E+01      4.962158000000000E-01     -1.600078000000000E+02
4843000000.000000      3.518677000000000E-01      4.114062000000000E+01      4.952240000000000E-01     -1.607109000000000E+02
4844000000.000000      3.518372000000000E-01      4.093946000000000E+01      4.938202000000000E-01     -1.615313000000000E+02
4845000000.000000      3.541107000000000E-01      4.087500000000000E+01      4.906769000000000E-01     -1.622031000000000E+02
4846000000.000000      3.563385000000000E-01      4.061913000000000E+01      4.908600000000000E-01     -1.628125000000000E+02
4847000000.000000      3.574066000000000E-01      4.050390000000000E+01      4.885254000000000E-01     -1.634453000000000E+02
4848000000.000000      3.579865000000000E-01      4.030469000000000E+01      4.848480000000000E-01     -1.641953000000000E+02
4849000000.000000      3.599396000000000E-01      3.999414000000000E+01      4.850006000000000E-01     -1.647891000000000E+02
4850000000.000000      3.612976000000000E-01      3.973047000000000E+01      4.824524000000000E-01     -1.654687000000000E+02
4851000000.000000      3.626404000000000E-01      3.966211000000000E+01      4.810944000000000E-01     -1.663594000000000E+02
4852000000.000000      3.637238000000000E-01      3.931445000000000E+01      4.802856000000000E-01     -1.668594000000000E+02
4853000000.000000      3.659821000000000E-01      3.912695000000000E+01      4.748077000000000E-01     -1.678047000000000E+02
4854000000.000000      3.672333000000000E-01      3.883789000000000E+01      4.743347000000000E-01     -1.685156000000000E+02
4855000000.000000      3.682404000000000E-01      3.870117000000000E+01      4.720764000000000E-01     -1.691172000000000E+02
4856000000.000000      3.692474000000000E-01      3.844922000000000E+01      4.699097000000000E-01     -1.698906000000000E+02
4857000000.000000      3.703461000000000E-01      3.825976000000000E+01      4.682770000000000E-01     -1.704609000000000E+02
4858000000.000000      3.709106000000000E-01      3.783594000000000E+01      4.664917000000000E-01     -1.711797000000000E+02
4859000000.000000      3.721161000000000E-01      3.769922000000000E+01      4.640656000000000E-01     -1.719297000000000E+02
4860000000.000000      3.734283000000000E-01      3.756054000000000E+01      4.600220000000000E-01     -1.726094000000000E+02
4861000000.000000      3.740387000000000E-01      3.718945000000000E+01      4.579926000000000E-01     -1.734219000000000E+02
4862000000.000000      3.749390000000000E-01      3.685351000000000E+01      4.564972000000000E-01     -1.739766000000000E+02
4863000000.000000      3.763733000000000E-01      3.669531000000000E+01      4.529419000000000E-01     -1.745781000000000E+02
4864000000.000000      3.770142000000000E-01      3.633398000000000E+01      4.506989000000000E-01     -1.752969000000000E+02
4865000000.000000      3.768921000000000E-01      3.601171000000000E+01      4.459839000000000E-01     -1.757422000000000E+02
4866000000.000000      3.784485000000000E-01      3.576172000000000E+01      4.441223000000000E-01     -1.764766000000000E+02
4867000000.000000      3.785095000000000E-01      3.561523000000000E+01      4.410553000000000E-01     -1.773594000000000E+02
4868000000.000000      3.808289000000000E-01      3.523438000000000E+01      4.382782000000000E-01     -1.780391000000000E+02
4869000000.000000      3.805847000000000E-01      3.503711000000000E+01      4.350281000000000E-01     -1.784297000000000E+02
4870000000.000000      3.818512000000000E-01      3.477344000000000E+01      4.306183000000000E-01     -1.791172000000000E+02
4871000000.000000      3.818359000000000E-01      3.441992000000000E+01      4.284821000000000E-01     -1.796641000000000E+02
4872000000.000000      3.836823000000000E-01      3.415430000000000E+01      4.251099000000000E-01      1.795547000000000E+02
4873000000.000000      3.828278000000000E-01      3.398242000000000E+01      4.214172000000000E-01      1.788984000000000E+02
4874000000.000000      3.844604000000000E-01      3.376758000000000E+01      4.175110000000000E-01      1.783359000000000E+02
4875000000.000000      3.849792000000000E-01      3.335546000000000E+01      4.149323000000000E-01      1.777578000000000E+02
4876000000.000000      3.860168000000000E-01      3.326172000000000E+01      4.117126000000000E-01      1.773047000000000E+02
4877000000.000000      3.856506000000000E-01      3.279492000000000E+01      4.073792000000000E-01      1.766562000000000E+02
4878000000.000000      3.852539000000000E-01      3.253515000000000E+01      4.041748000000000E-01      1.760703000000000E+02
4879000000.000000      3.861847000000000E-01      3.246289000000000E+01      3.999176000000000E-01      1.756484000000000E+02
4880000000.000000      3.871307000000000E-01      3.203320000000000E+01      3.966522000000000E-01      1.748984000000000E+02
4881000000.000000      3.870087000000000E-01      3.186914000000000E+01      3.932037000000000E-01      1.746328000000000E+02
4882000000.000000      3.874359000000000E-01      3.156054000000000E+01      3.900299000000000E-01      1.738984000000000E+02
4883000000.000000      3.867340000000000E-01      3.126758000000000E+01      3.854370000000000E-01      1.733281000000000E+02
4884000000.000000      3.876801000000000E-01      3.099902000000000E+01      3.831329000000000E-01      1.727734000000000E+02
4885000000.000000      3.885345000000000E-01      3.083496000000000E+01      3.790436000000000E-01      1.724922000000000E+02
4886000000.000000      3.882141000000000E-01      3.056933000000000E+01      3.758698000000000E-01      1.718750000000000E+02
4887000000.000000      3.880615000000000E-01      3.032715000000000E+01      3.716125000000000E-01      1.715234000000000E+02
4888000000.000000      3.881531000000000E-01      2.979297000000000E+01      3.685913000000000E-01      1.708437000000000E+02
4889000000.000000      3.880310000000000E-01      2.966992000000000E+01      3.653259000000000E-01      1.704219000000000E+02
4890000000.000000      3.868256000000000E-01      2.943164000000000E+01      3.621216000000000E-01      1.697109000000000E+02
4891000000.000000      3.882446000000000E-01      2.925781000000000E+01      3.572083000000000E-01      1.694219000000000E+02
4892000000.000000      3.882599000000000E-01      2.891016000000000E+01      3.535767000000000E-01      1.689375000000000E+02
4893000000.000000      3.883667000000000E-01      2.876269000000000E+01      3.509216000000000E-01      1.682266000000000E+02
4894000000.000000      3.862305000000000E-01      2.855469000000000E+01      3.466187000000000E-01      1.681875000000000E+02
4895000000.000000      3.882141000000000E-01      2.823730000000000E+01      3.442841000000000E-01      1.677266000000000E+02
4896000000.000000      3.885193000000000E-01      2.811230000000000E+01      3.403931000000000E-01      1.672578000000000E+02
4897000000.000000      3.873138000000000E-01      2.790527000000000E+01      3.371887000000000E-01      1.667187000000000E+02
4898000000.000000      3.872070000000000E-01      2.756543000000000E+01      3.340454000000000E-01      1.666172000000000E+02
4899000000.000000      3.872986000000000E-01      2.731543000000000E+01      3.307953000000000E-01      1.659062000000000E+02
4900000000.000000      3.875732000000000E-01      2.716699000000000E+01      3.262177000000000E-01      1.656016000000000E+02
4901000000.000000      3.871613000000000E-01      2.689844000000000E+01      3.234100000000000E-01      1.653047000000000E+02
4902000000.000000      3.871307000000000E-01      2.663867000000000E+01      3.198700000000000E-01      1.649219000000000E+02
4903000000.000000      3.867340000000000E-01      2.655176000000000E+01      3.153839000000000E-01      1.646016000000000E+02
4904000000.000000      3.868866000000000E-01      2.627148000000000E+01      3.134918000000000E-01      1.639375000000000E+02
4905000000.000000      3.859558000000000E-01      2.599218000000000E+01      3.096771000000000E-01      1.636719000000000E+02
4906000000.000000      3.853760000000000E-01      2.584765000000000E+01      3.064270000000000E-01      1.634140000000000E+02
4907000000.000000      3.854828000000000E-01      2.559765000000000E+01      3.027191000000000E-01      1.628515000000000E+02
4908000000.000000      3.859406000000000E-01      2.547558000000000E+01      3.003540000000000E-01      1.622734000000000E+02
4909000000.000000      3.843231000000000E-01      2.515820000000000E+01      2.953339000000000E-01      1.620469000000000E+02
4910000000.000000      3.854065000000000E-01      2.506640000000000E+01      2.919769000000000E-01      1.617734000000000E+02
4911000000.000000      3.851471000000000E-01      2.496973000000000E+01      2.891846000000000E-01      1.614766000000000E+02
4912000000.000000      3.841095000000000E-01      2.474512000000000E+01      2.847748000000000E-01      1.609453000000000E+02
4913000000.000000      3.842621000000000E-01      2.435937000000000E+01      2.811432000000000E-01      1.605937000000000E+02
4914000000.000000      3.833618000000000E-01      2.415527000000000E+01      2.778778000000000E-01      1.601797000000000E+02
4915000000.000000      3.843842000000000E-01      2.399609000000000E+01      2.736511000000000E-01      1.596797000000000E+02
4916000000.000000      3.831787000000000E-01      2.381348000000000E+01      2.708130000000000E-01      1.594531000000000E+02
4917000000.000000      3.828125000000000E-01      2.364356000000000E+01      2.667542000000000E-01      1.590547000000000E+02
4918000000.000000      3.838654000000000E-01      2.350488000000000E+01      2.620392000000000E-01      1.587656000000000E+02
4919000000.000000      3.816528000000000E-01      2.326855000000000E+01      2.593689000000000E-01      1.586641000000000E+02
4920000000.000000      3.823700000000000E-01      2.314746000000000E+01      2.545166000000000E-01      1.581797000000000E+02
4921000000.000000      3.820038000000000E-01      2.306347000000000E+01      2.514648000000000E-01      1.579453000000000E+02
4922000000.000000      3.814850000000000E-01      2.259472000000000E+01      2.476807000000000E-01      1.576484000000000E+02
4923000000.000000      3.821869000000000E-01      2.257519000000000E+01      2.431488000000000E-01      1.574375000000000E+02
4924000000.000000      3.813477000000000E-01      2.240332000000000E+01      2.396088000000000E-01      1.571172000000000E+02
4925000000.000000      3.812256000000000E-01      2.214550000000000E+01      2.355118000000000E-01      1.569844000000000E+02
4926000000.000000      3.809052000000000E-01      2.206933000000000E+01      2.316589000000000E-01      1.567344000000000E+02
4927000000.000000      3.799744000000000E-01      2.184277000000000E+01      2.273560000000000E-01      1.564219000000000E+02
4928000000.000000      3.811646000000000E-01      2.166308000000000E+01      2.236710000000000E-01      1.562344000000000E+02
4929000000.000000      3.791504000000000E-01      2.146679000000000E+01      2.192383000000000E-01      1.561250000000000E+02
4930000000.000000      3.791656000000000E-01      2.127734000000000E+01      2.156677000000000E-01      1.561563000000000E+02
4931000000.000000      3.793945000000000E-01      2.115820000000000E+01      2.116699000000000E-01      1.558750000000000E+02
4932000000.000000      3.791962000000000E-01      2.094336000000000E+01      2.070694000000000E-01      1.559062000000000E+02
4933000000.000000      3.784332000000000E-01      2.073925000000000E+01      2.018890000000000E-01      1.558750000000000E+02
4934000000.000000      3.791199000000000E-01      2.055762000000000E+01      1.983871000000000E-01      1.557344000000000E+02
4935000000.000000      3.799438000000000E-01      2.044336000000000E+01      1.952667000000000E-01      1.559844000000000E+02
4936000000.000000      3.777924000000000E-01      2.023633000000000E+01      1.902237000000000E-01      1.559531000000000E+02
4937000000.000000      3.775787000000000E-01      1.996191000000000E+01      1.865921000000000E-01      1.561484000000000E+02
4938000000.000000      3.764648000000000E-01      1.990137000000000E+01      1.825333000000000E-01      1.563516000000000E+02
4939000000.000000      3.767700000000000E-01      1.980762000000000E+01      1.786194000000000E-01      1.564531000000000E+02
4940000000.000000      3.768158000000000E-01      1.951367000000000E+01      1.747665000000000E-01      1.565391000000000E+02
4941000000.000000      3.770447000000000E-01      1.932617000000000E+01      1.705627000000000E-01      1.572109000000000E+02
4942000000.000000      3.755798000000000E-01      1.930566000000000E+01      1.671829000000000E-01      1.575703000000000E+02
4943000000.000000      3.761292000000000E-01      1.912402000000000E+01      1.626892000000000E-01      1.580859000000000E+02
4944000000.000000      3.759308000000000E-01      1.892090000000000E+01      1.595764000000000E-01      1.584531000000000E+02
4945000000.000000      3.751373000000000E-01      1.872949000000000E+01      1.553802000000000E-01      1.591328000000000E+02
4946000000.000000      3.756409000000000E-01      1.850976000000000E+01      1.521149000000000E-01      1.596953000000000E+02
4947000000.000000      3.753662000000000E-01      1.839062000000000E+01      1.479874000000000E-01      1.602656000000000E+02
4948000000.000000      3.745270000000000E-01      1.833984000000000E+01      1.446228000000000E-01      1.609844000000000E+02
4949000000.000000      3.733826000000000E-01      1.809082000000000E+01      1.417465000000000E-01      1.622344000000000E+02
4950000000.000000      3.736572000000000E-01      1.801953000000000E+01      1.384354000000000E-01      1.628984000000000E+02
4951000000.000000      3.735352000000000E-01      1.768847000000000E+01      1.356888000000000E-01      1.638438000000000E+02
4952000000.000000      3.733063000000000E-01      1.760547000000000E+01      1.322708000000000E-01      1.652187000000000E+02
4953000000.000000      3.734131000000000E-01      1.735547000000000E+01      1.297302000000000E-01      1.663203000000000E+02
4954000000.000000      3.730316000000000E-01      1.712695000000000E+01      1.272812000000000E-01      1.677891000000000E+02
