! Network Analyzer HP8722D
! Hewlett-Packard
! Data name: Linha & Wilkinson
! Saver's name: Rodrigo Anjos
! Comments: Teste da utilização de aquisição
continua pelo VNA HP8722D
! Time and date: 23/5/2025 08:04
!              Frequency                     S11                                                   S21                                                   S12                                                   S22
# HZ  S  MA R 50
4800000000.000000      4.820557000000000E-01      2.349121000000000E+01      4.213409000000000E-01     -1.115234000000000E+02
4801000000.000000      4.820862000000000E-01      2.367188000000000E+01      4.226074000000000E-01     -1.120703000000000E+02
4802000000.000000      4.811096000000000E-01      2.372265000000000E+01      4.252625000000000E-01     -1.126797000000000E+02
4803000000.000000      4.807739000000000E-01      2.368457000000000E+01      4.265747000000000E-01     -1.135508000000000E+02
4804000000.000000      4.796448000000000E-01      2.388379000000000E+01      4.287567000000000E-01     -1.141992000000000E+02
4805000000.000000      4.812012000000000E-01      2.387305000000000E+01      4.295959000000000E-01     -1.150234000000000E+02
4806000000.000000      4.805908000000000E-01      2.394824000000000E+01      4.292297000000000E-01     -1.158125000000000E+02
4807000000.000000      4.798737000000000E-01      2.392773000000000E+01      4.317780000000000E-01     -1.166484000000000E+02
4808000000.000000      4.796753000000000E-01      2.411718000000000E+01      4.326477000000000E-01     -1.172109000000000E+02
4809000000.000000      4.774933000000000E-01      2.443848000000000E+01      4.337158000000000E-01     -1.179570000000000E+02
4810000000.000000      4.791107000000000E-01      2.449219000000000E+01      4.357452000000000E-01     -1.186992000000000E+02
4811000000.000000      4.787598000000000E-01      2.449512000000000E+01      4.368896000000000E-01     -1.195664000000000E+02
4812000000.000000      4.806213000000000E-01      2.476269000000000E+01      4.370575000000000E-01     -1.202734000000000E+02
4813000000.000000      4.802399000000000E-01      2.487109000000000E+01      4.380035000000000E-01     -1.211992000000000E+02
4814000000.000000      4.802856000000000E-01      2.475195000000000E+01      4.388123000000000E-01     -1.218516000000000E+02
4815000000.000000      4.804840000000000E-01      2.494238000000000E+01      4.388275000000000E-01     -1.226992000000000E+02
4816000000.000000      4.809723000000000E-01      2.496777000000000E+01      4.403534000000000E-01     -1.234336000000000E+02
4817000000.000000      4.806519000000000E-01      2.499609000000000E+01      4.403687000000000E-01     -1.241016000000000E+02
4818000000.000000      4.812317000000000E-01      2.522949000000000E+01      4.411469000000000E-01     -1.248438000000000E+02
4819000000.000000      4.820099000000000E-01      2.503027000000000E+01      4.389343000000000E-01     -1.255195000000000E+02
4820000000.000000      4.824829000000000E-01      2.540039000000000E+01      4.425964000000000E-01     -1.261992000000000E+02
4821000000.000000      4.842987000000000E-01      2.551367000000000E+01      4.424286000000000E-01     -1.268203000000000E+02
4822000000.000000      4.824219000000000E-01      2.550879000000000E+01      4.409180000000000E-01     -1.277109000000000E+02
4823000000.000000      4.842072000000000E-01      2.568652000000000E+01      4.440765000000000E-01     -1.286562000000000E+02
4824000000.000000      4.840851000000000E-01      2.599414000000000E+01      4.409332000000000E-01     -1.292656000000000E+02
4825000000.000000      4.847107000000000E-01      2.585156000000000E+01      4.413452000000000E-01     -1.300781000000000E+02
4826000000.000000      4.855194000000000E-01      2.586523000000000E+01      4.414063000000000E-01     -1.307031000000000E+02
4827000000.000000      4.864197000000000E-01      2.591797000000000E+01      4.416046000000000E-01     -1.314766000000000E+02
4828000000.000000      4.875031000000000E-01      2.593554000000000E+01      4.421997000000000E-01     -1.320391000000000E+02
4829000000.000000      4.891968000000000E-01      2.607031000000000E+01      4.416046000000000E-01     -1.327344000000000E+02
4830000000.000000      4.890137000000000E-01      2.613867000000000E+01      4.401855000000000E-01     -1.337344000000000E+02
4831000000.000000      4.902954000000000E-01      2.615429000000000E+01      4.417267000000000E-01     -1.342813000000000E+02
4832000000.000000      4.911041000000000E-01      2.633008000000000E+01      4.400330000000000E-01     -1.349297000000000E+02
4833000000.000000      4.909668000000000E-01      2.628125000000000E+01      4.393463000000000E-01     -1.356797000000000E+02
4834000000.000000      4.919281000000000E-01      2.668359000000000E+01      4.393005000000000E-01     -1.366016000000000E+02
4835000000.000000      4.963989000000000E-01      2.641992000000000E+01      4.387970000000000E-01     -1.374375000000000E+02
4836000000.000000      4.974518000000000E-01      2.653027000000000E+01      4.369354000000000E-01     -1.379297000000000E+02
4837000000.000000      4.972992000000000E-01      2.659765000000000E+01      4.381104000000000E-01     -1.389844000000000E+02
4838000000.000000      4.967194000000000E-01      2.655859000000000E+01      4.371796000000000E-01     -1.393594000000000E+02
4839000000.000000      5.007935000000000E-01      2.666504000000000E+01      4.364777000000000E-01     -1.402109000000000E+02
4840000000.000000      4.999847000000000E-01      2.662598000000000E+01      4.368591000000000E-01     -1.409219000000000E+02
4841000000.000000      5.000610000000000E-01      2.662207000000000E+01      4.361420000000000E-01     -1.416953000000000E+02
4842000000.000000      5.031738000000000E-01      2.663574000000000E+01      4.338379000000000E-01     -1.424141000000000E+02
4843000000.000000      5.043945000000000E-01      2.646973000000000E+01      4.345245000000000E-01     -1.432812000000000E+02
4844000000.000000      5.046997000000000E-01      2.668359000000000E+01      4.332123000000000E-01     -1.439844000000000E+02
4845000000.000000      5.066528000000000E-01      2.693848000000000E+01      4.319458000000000E-01     -1.445781000000000E+02
4846000000.000000      5.066833000000000E-01      2.641992000000000E+01      4.299469000000000E-01     -1.455156000000000E+02
4847000000.000000      5.097351000000000E-01      2.647656000000000E+01      4.288177000000000E-01     -1.462578000000000E+02
4848000000.000000      5.099792000000000E-01      2.643261000000000E+01      4.271393000000000E-01     -1.468906000000000E+02
4849000000.000000      5.101929000000000E-01      2.639941000000000E+01      4.251709000000000E-01     -1.478125000000000E+02
4850000000.000000      5.122986000000000E-01      2.649414000000000E+01      4.247589000000000E-01     -1.485234000000000E+02
4851000000.000000      5.140686000000000E-01      2.652050000000000E+01      4.241028000000000E-01     -1.493203000000000E+02
4852000000.000000      5.148010000000000E-01      2.639941000000000E+01      4.217072000000000E-01     -1.500937000000000E+02
4853000000.000000      5.161438000000000E-01      2.633105000000000E+01      4.195862000000000E-01     -1.507891000000000E+02
4854000000.000000      5.175476000000000E-01      2.648633000000000E+01      4.176331000000000E-01     -1.516406000000000E+02
4855000000.000000      5.182190000000000E-01      2.622265000000000E+01      4.163055000000000E-01     -1.523828000000000E+02
4856000000.000000      5.199585000000000E-01      2.624902000000000E+01      4.143677000000000E-01     -1.532500000000000E+02
4857000000.000000      5.213928000000000E-01      2.614453000000000E+01      4.125671000000000E-01     -1.539453000000000E+02
4858000000.000000      5.205078000000000E-01      2.604394000000000E+01      4.098053000000000E-01     -1.545703000000000E+02
4859000000.000000      5.230103000000000E-01      2.584668000000000E+01      4.072418000000000E-01     -1.555078000000000E+02
4860000000.000000      5.239868000000000E-01      2.597265000000000E+01      4.066772000000000E-01     -1.561328000000000E+02
4861000000.000000      5.267944000000000E-01      2.581738000000000E+01      4.025574000000000E-01     -1.570547000000000E+02
4862000000.000000      5.265198000000000E-01      2.578418000000000E+01      4.006500000000000E-01     -1.577422000000000E+02
4863000000.000000      5.263672000000000E-01      2.563574000000000E+01      3.963623000000000E-01     -1.585938000000000E+02
4864000000.000000      5.295715000000000E-01      2.553027000000000E+01      3.950043000000000E-01     -1.590781000000000E+02
4865000000.000000      5.299988000000000E-01      2.538867000000000E+01      3.914185000000000E-01     -1.599844000000000E+02
4866000000.000000      5.322571000000000E-01      2.524902000000000E+01      3.893127000000000E-01     -1.604844000000000E+02
4867000000.000000      5.308838000000000E-01      2.517578000000000E+01      3.851318000000000E-01     -1.615469000000000E+02
4868000000.000000      5.334778000000000E-01      2.509961000000000E+01      3.836060000000000E-01     -1.620625000000000E+02
4869000000.000000      5.336914000000000E-01      2.494824000000000E+01      3.811798000000000E-01     -1.627734000000000E+02
4870000000.000000      5.325012000000000E-01      2.488086000000000E+01      3.778534000000000E-01     -1.634453000000000E+02
4871000000.000000      5.349121000000000E-01      2.473242000000000E+01      3.741760000000000E-01     -1.643984000000000E+02
4872000000.000000      5.377502000000000E-01      2.460938000000000E+01      3.697968000000000E-01     -1.649609000000000E+02
4873000000.000000      5.370789000000000E-01      2.470800000000000E+01      3.675537000000000E-01     -1.656328000000000E+02
4874000000.000000      5.375061000000000E-01      2.446972000000000E+01      3.630676000000000E-01     -1.662188000000000E+02
4875000000.000000      5.423584000000000E-01      2.422461000000000E+01      3.599701000000000E-01     -1.666641000000000E+02
4876000000.000000      5.395813000000000E-01      2.425879000000000E+01      3.578033000000000E-01     -1.673984000000000E+02
4877000000.000000      5.433044000000000E-01      2.392871000000000E+01      3.531952000000000E-01     -1.680703000000000E+02
4878000000.000000      5.414734000000000E-01      2.370019000000000E+01      3.496399000000000E-01     -1.686328000000000E+02
4879000000.000000      5.444031000000000E-01      2.370019000000000E+01      3.460541000000000E-01     -1.693516000000000E+02
4880000000.000000      5.444336000000000E-01      2.359668000000000E+01      3.435211000000000E-01     -1.700547000000000E+02
4881000000.000000      5.446777000000000E-01      2.354687000000000E+01      3.388824000000000E-01     -1.704062000000000E+02
4882000000.000000      5.473633000000000E-01      2.349804000000000E+01      3.356476000000000E-01     -1.711016000000000E+02
4883000000.000000      5.473022000000000E-01      2.328808000000000E+01      3.320618000000000E-01     -1.717734000000000E+02
4884000000.000000      5.487366000000000E-01      2.313672000000000E+01      3.288116000000000E-01     -1.721797000000000E+02
4885000000.000000      5.493774000000000E-01      2.298047000000000E+01      3.247986000000000E-01     -1.723125000000000E+02
4886000000.000000      5.487366000000000E-01      2.280957000000000E+01      3.212738000000000E-01     -1.728437000000000E+02
4887000000.000000      5.495300000000000E-01      2.249414000000000E+01      3.185730000000000E-01     -1.735625000000000E+02
4888000000.000000      5.514221000000000E-01      2.247070000000000E+01      3.154449000000000E-01     -1.740391000000000E+02
4889000000.000000      5.496216000000000E-01      2.244141000000000E+01      3.117371000000000E-01     -1.746016000000000E+02
4890000000.000000      5.503540000000000E-01      2.226367000000000E+01      3.071899000000000E-01     -1.752500000000000E+02
4891000000.000000      5.525513000000000E-01      2.218750000000000E+01      3.048706000000000E-01     -1.756328000000000E+02
4892000000.000000      5.527039000000000E-01      2.197266000000000E+01      3.010254000000000E-01     -1.758125000000000E+02
4893000000.000000      5.534363000000000E-01      2.189844000000000E+01      2.980347000000000E-01     -1.763359000000000E+02
4894000000.000000      5.523071000000000E-01      2.173633000000000E+01      2.942505000000000E-01     -1.767578000000000E+02
4895000000.000000      5.557861000000000E-01      2.156933000000000E+01      2.922211000000000E-01     -1.770625000000000E+02
4896000000.000000      5.536499000000000E-01      2.127441000000000E+01      2.882996000000000E-01     -1.775078000000000E+02
4897000000.000000      5.551758000000000E-01      2.140234000000000E+01      2.841339000000000E-01     -1.779531000000000E+02
4898000000.000000      5.567627000000000E-01      2.105078000000000E+01      2.816467000000000E-01     -1.782969000000000E+02
4899000000.000000      5.552368000000000E-01      2.104102000000000E+01      2.781830000000000E-01     -1.787500000000000E+02
4900000000.000000      5.556030000000000E-01      2.085840000000000E+01      2.746582000000000E-01     -1.790390000000000E+02
4901000000.000000      5.577698000000000E-01      2.088769000000000E+01      2.715302000000000E-01     -1.793437000000000E+02
4902000000.000000      5.574646000000000E-01      2.037890000000000E+01      2.690277000000000E-01     -1.797500000000000E+02
4903000000.000000      5.565796000000000E-01      2.044336000000000E+01      2.651825000000000E-01      1.797812000000000E+02
4904000000.000000      5.596924000000000E-01      2.037500000000000E+01      2.622681000000000E-01      1.794297000000000E+02
4905000000.000000      5.592041000000000E-01      2.014941000000000E+01      2.600403000000000E-01      1.790078000000000E+02
4906000000.000000      5.595703000000000E-01      2.006348000000000E+01      2.560577000000000E-01      1.788984000000000E+02
4907000000.000000      5.569763000000000E-01      1.989746000000000E+01      2.535095000000000E-01      1.783594000000000E+02
4908000000.000000      5.595703000000000E-01      1.974902000000000E+01      2.507019000000000E-01      1.781016000000000E+02
4909000000.000000      5.586243000000000E-01      1.948340000000000E+01      2.468414000000000E-01      1.776797000000000E+02
4910000000.000000      5.564575000000000E-01      1.948926000000000E+01      2.435684000000000E-01      1.774297000000000E+02
4911000000.000000      5.567322000000000E-01      1.940527000000000E+01      2.409286000000000E-01      1.773125000000000E+02
4912000000.000000      5.586243000000000E-01      1.929199000000000E+01      2.373734000000000E-01      1.765703000000000E+02
4913000000.000000      5.610046000000000E-01      1.922559000000000E+01      2.339401000000000E-01      1.763594000000000E+02
4914000000.000000      5.614319000000000E-01      1.887500000000000E+01      2.310791000000000E-01      1.760078000000000E+02
4915000000.000000      5.588074000000000E-01      1.890820000000000E+01      2.275314000000000E-01      1.756406000000000E+02
4916000000.000000      5.615540000000000E-01      1.869922000000000E+01      2.246246000000000E-01      1.753750000000000E+02
4917000000.000000      5.592651000000000E-01      1.868555000000000E+01      2.211533000000000E-01      1.752187000000000E+02
4918000000.000000      5.606079000000000E-01      1.841699000000000E+01      2.172165000000000E-01      1.748594000000000E+02
4919000000.000000      5.610352000000000E-01      1.845117000000000E+01      2.146072000000000E-01      1.747890000000000E+02
4920000000.000000      5.620117000000000E-01      1.818457000000000E+01      2.111282000000000E-01      1.743203000000000E+02
4921000000.000000      5.599670000000000E-01      1.821777000000000E+01      2.088623000000000E-01      1.740078000000000E+02
4922000000.000000      5.605774000000000E-01      1.812304000000000E+01      2.044678000000000E-01      1.740625000000000E+02
4923000000.000000      5.604248000000000E-01      1.794043000000000E+01      2.011414000000000E-01      1.739375000000000E+02
4924000000.000000      5.604858000000000E-01      1.795703000000000E+01      1.976471000000000E-01      1.735312000000000E+02
4925000000.000000      5.616455000000000E-01      1.770703000000000E+01      1.942673000000000E-01      1.734375000000000E+02
4926000000.000000      5.607605000000000E-01      1.751758000000000E+01      1.909409000000000E-01      1.733125000000000E+02
4927000000.000000      5.609131000000000E-01      1.749512000000000E+01      1.868896000000000E-01      1.729297000000000E+02
4928000000.000000      5.602112000000000E-01      1.718262000000000E+01      1.841507000000000E-01      1.728984000000000E+02
4929000000.000000      5.602417000000000E-01      1.712012000000000E+01      1.804123000000000E-01      1.728984000000000E+02
4930000000.000000      5.640869000000000E-01      1.701074000000000E+01      1.773758000000000E-01      1.726484000000000E+02
4931000000.000000      5.612793000000000E-01      1.675879000000000E+01      1.741104000000000E-01      1.729687000000000E+02
4932000000.000000      5.624084000000000E-01      1.685840000000000E+01      1.699142000000000E-01      1.728203000000000E+02
4933000000.000000      5.627747000000000E-01      1.665527000000000E+01      1.658859000000000E-01      1.729687000000000E+02
4934000000.000000      5.629883000000000E-01      1.655469000000000E+01      1.626282000000000E-01      1.729375000000000E+02
4935000000.000000      5.617981000000000E-01      1.658887000000000E+01      1.599045000000000E-01      1.732656000000000E+02
4936000000.000000      5.609131000000000E-01      1.621777000000000E+01      1.559067000000000E-01      1.732500000000000E+02
4937000000.000000      5.628052000000000E-01      1.618066000000000E+01      1.526566000000000E-01      1.734297000000000E+02
4938000000.000000      5.619507000000000E-01      1.622656000000000E+01      1.495285000000000E-01      1.737422000000000E+02
4939000000.000000      5.614624000000000E-01      1.598193000000000E+01      1.462555000000000E-01      1.742188000000000E+02
4940000000.000000      5.627747000000000E-01      1.577051000000000E+01      1.428452000000000E-01      1.744297000000000E+02
4941000000.000000      5.628357000000000E-01      1.569092000000000E+01      1.397858000000000E-01      1.750313000000000E+02
4942000000.000000      5.610657000000000E-01      1.559619000000000E+01      1.360092000000000E-01      1.754453000000000E+02
4943000000.000000      5.626221000000000E-01      1.560986000000000E+01      1.332703000000000E-01      1.761484000000000E+02
4944000000.000000      5.635376000000000E-01      1.532178000000000E+01      1.306229000000000E-01      1.766328000000000E+02
4945000000.000000      5.637817000000000E-01      1.520898000000000E+01      1.271515000000000E-01      1.772656000000000E+02
4946000000.000000      5.649719000000000E-01      1.532031000000000E+01      1.240959000000000E-01      1.781406000000000E+02
4947000000.000000      5.647888000000000E-01      1.493408000000000E+01      1.211357000000000E-01      1.789063000000000E+02
4948000000.000000      5.650330000000000E-01      1.478027000000000E+01      1.189079000000000E-01      1.797500000000000E+02
4949000000.000000      5.650330000000000E-01      1.461865000000000E+01      1.160240000000000E-01     -1.789922000000000E+02
4950000000.000000      5.648499000000000E-01      1.483691000000000E+01      1.135597000000000E-01     -1.779766000000000E+02
4951000000.000000      5.644836000000000E-01      1.462793000000000E+01      1.113739000000000E-01     -1.770547000000000E+02
4952000000.000000      5.654297000000000E-01      1.450732000000000E+01      1.088486000000000E-01     -1.757031000000000E+02
4953000000.000000      5.639648000000000E-01      1.413623000000000E+01      1.069756000000000E-01     -1.743438000000000E+02
4954000000.000000      5.638733000000000E-01      1.393604000000000E+01      1.052628000000000E-01     -1.728516000000000E+02
