! Network Analyzer HP8722D
! Hewlett-Packard
! Data name: Linha & Wilkinson
! Saver's name: Rodrigo Anjos
! Comments: Teste da utilização de aquisição
continua pelo VNA HP8722D
! Time and date: 23/5/2025 09:47
!              Frequency                     S11                                                   S21                                                   S12                                                   S22
# HZ  S  MA R 50
4800000000.000000      3.112640000000000E-01      3.740039000000000E+01      4.710846000000000E-01     -1.282344000000000E+02
4801000000.000000      3.121185000000000E-01      3.762304000000000E+01      4.724731000000000E-01     -1.291484000000000E+02
4802000000.000000      3.132629000000000E-01      3.778320000000000E+01      4.749603000000000E-01     -1.296016000000000E+02
4803000000.000000      3.140259000000000E-01      3.793554000000000E+01      4.749451000000000E-01     -1.302500000000000E+02
4804000000.000000      3.149109000000000E-01      3.826562000000000E+01      4.784241000000000E-01     -1.309375000000000E+02
4805000000.000000      3.168182000000000E-01      3.833593000000000E+01      4.791565000000000E-01     -1.318828000000000E+02
4806000000.000000      3.173981000000000E-01      3.845703000000000E+01      4.805756000000000E-01     -1.325391000000000E+02
4807000000.000000      3.184052000000000E-01      3.869922000000000E+01      4.804077000000000E-01     -1.333203000000000E+02
4808000000.000000      3.193054000000000E-01      3.887500000000000E+01      4.836578000000000E-01     -1.339453000000000E+02
4809000000.000000      3.209381000000000E-01      3.904101000000000E+01      4.857788000000000E-01     -1.350312000000000E+02
4810000000.000000      3.227539000000000E-01      3.915430000000000E+01      4.863739000000000E-01     -1.354375000000000E+02
4811000000.000000      3.236542000000000E-01      3.933789000000000E+01      4.869843000000000E-01     -1.363281000000000E+02
4812000000.000000      3.260345000000000E-01      3.940039000000000E+01      4.875488000000000E-01     -1.370156000000000E+02
4813000000.000000      3.265686000000000E-01      3.960742000000000E+01      4.871826000000000E-01     -1.378047000000000E+02
4814000000.000000      3.279419000000000E-01      3.966601000000000E+01      4.889526000000000E-01     -1.383594000000000E+02
4815000000.000000      3.291168000000000E-01      3.979101000000000E+01      4.889069000000000E-01     -1.390859000000000E+02
4816000000.000000      3.317413000000000E-01      3.982812000000000E+01      4.903107000000000E-01     -1.399453000000000E+02
4817000000.000000      3.322601000000000E-01      3.991992000000000E+01      4.908142000000000E-01     -1.406484000000000E+02
4818000000.000000      3.342743000000000E-01      3.991015000000000E+01      4.907379000000000E-01     -1.413281000000000E+02
4819000000.000000      3.359528000000000E-01      3.994922000000000E+01      4.903107000000000E-01     -1.420781000000000E+02
4820000000.000000      3.367920000000000E-01      4.008203000000000E+01      4.909821000000000E-01     -1.428437000000000E+02
4821000000.000000      3.396759000000000E-01      4.012304000000000E+01      4.918823000000000E-01     -1.437109000000000E+02
4822000000.000000      3.404999000000000E-01      3.998437000000000E+01      4.904633000000000E-01     -1.443516000000000E+02
4823000000.000000      3.423767000000000E-01      4.004102000000000E+01      4.914856000000000E-01     -1.450000000000000E+02
4824000000.000000      3.444519000000000E-01      4.016992000000000E+01      4.898529000000000E-01     -1.458047000000000E+02
4825000000.000000      3.457794000000000E-01      4.006836000000000E+01      4.886322000000000E-01     -1.464766000000000E+02
4826000000.000000      3.472443000000000E-01      4.005859000000000E+01      4.902496000000000E-01     -1.472265000000000E+02
4827000000.000000      3.496399000000000E-01      4.006836000000000E+01      4.890289000000000E-01     -1.478750000000000E+02
4828000000.000000      3.514099000000000E-01      4.004492000000000E+01      4.899750000000000E-01     -1.486953000000000E+02
4829000000.000000      3.532257000000000E-01      3.996679000000000E+01      4.904327000000000E-01     -1.494062000000000E+02
4830000000.000000      3.544312000000000E-01      3.992969000000000E+01      4.892273000000000E-01     -1.501094000000000E+02
4831000000.000000      3.562012000000000E-01      3.987890000000000E+01      4.880829000000000E-01     -1.510547000000000E+02
4832000000.000000      3.576202000000000E-01      3.985352000000000E+01      4.869385000000000E-01     -1.515234000000000E+02
4833000000.000000      3.585663000000000E-01      3.968359000000000E+01      4.867859000000000E-01     -1.523359000000000E+02
4834000000.000000      3.604431000000000E-01      3.961914000000000E+01      4.868317000000000E-01     -1.529844000000000E+02
4835000000.000000      3.627930000000000E-01      3.947851000000000E+01      4.855042000000000E-01     -1.537422000000000E+02
4836000000.000000      3.643646000000000E-01      3.947656000000000E+01      4.831696000000000E-01     -1.543672000000000E+02
4837000000.000000      3.659515000000000E-01      3.940820000000000E+01      4.820862000000000E-01     -1.553594000000000E+02
4838000000.000000      3.672638000000000E-01      3.919140000000000E+01      4.816589000000000E-01     -1.559375000000000E+02
4839000000.000000      3.712006000000000E-01      3.911914000000000E+01      4.814911000000000E-01     -1.565938000000000E+02
4840000000.000000      3.715973000000000E-01      3.898633000000000E+01      4.811096000000000E-01     -1.573594000000000E+02
4841000000.000000      3.726501000000000E-01      3.886133000000000E+01      4.781952000000000E-01     -1.579922000000000E+02
4842000000.000000      3.738708000000000E-01      3.871679000000000E+01      4.779816000000000E-01     -1.589141000000000E+02
4843000000.000000      3.768158000000000E-01      3.845898000000000E+01      4.763184000000000E-01     -1.594609000000000E+02
4844000000.000000      3.772583000000000E-01      3.827343000000000E+01      4.756317000000000E-01     -1.601953000000000E+02
4845000000.000000      3.788452000000000E-01      3.833203000000000E+01      4.732361000000000E-01     -1.607812000000000E+02
4846000000.000000      3.807678000000000E-01      3.810547000000000E+01      4.728241000000000E-01     -1.616172000000000E+02
4847000000.000000      3.824005000000000E-01      3.797852000000000E+01      4.710999000000000E-01     -1.621953000000000E+02
4848000000.000000      3.827362000000000E-01      3.775976000000000E+01      4.669342000000000E-01     -1.629531000000000E+02
4849000000.000000      3.842926000000000E-01      3.748632000000000E+01      4.671936000000000E-01     -1.636016000000000E+02
4850000000.000000      3.854675000000000E-01      3.733593000000000E+01      4.639435000000000E-01     -1.643828000000000E+02
4851000000.000000      3.872528000000000E-01      3.729297000000000E+01      4.635315000000000E-01     -1.651562000000000E+02
4852000000.000000      3.887787000000000E-01      3.712695000000000E+01      4.622345000000000E-01     -1.659219000000000E+02
4853000000.000000      3.897858000000000E-01      3.692187000000000E+01      4.596863000000000E-01     -1.666953000000000E+02
4854000000.000000      3.910217000000000E-01      3.662304000000000E+01      4.567413000000000E-01     -1.673672000000000E+02
4855000000.000000      3.926239000000000E-01      3.635547000000000E+01      4.545898000000000E-01     -1.679297000000000E+02
4856000000.000000      3.935852000000000E-01      3.626953000000000E+01      4.528351000000000E-01     -1.685469000000000E+02
4857000000.000000      3.955383000000000E-01      3.595117000000000E+01      4.507294000000000E-01     -1.694297000000000E+02
4858000000.000000      3.960419000000000E-01      3.569140000000000E+01      4.480286000000000E-01     -1.699687000000000E+02
4859000000.000000      3.965759000000000E-01      3.551758000000000E+01      4.464264000000000E-01     -1.708828000000000E+02
4860000000.000000      3.981018000000000E-01      3.546289000000000E+01      4.426270000000000E-01     -1.715312000000000E+02
4861000000.000000      3.985291000000000E-01      3.511914000000000E+01      4.398041000000000E-01     -1.721328000000000E+02
4862000000.000000      3.993225000000000E-01      3.487305000000000E+01      4.391479000000000E-01     -1.727578000000000E+02
4863000000.000000      4.011230000000000E-01      3.472461000000000E+01      4.347229000000000E-01     -1.734766000000000E+02
4864000000.000000      4.021912000000000E-01      3.448437000000000E+01      4.318542000000000E-01     -1.742344000000000E+02
4865000000.000000      4.030609000000000E-01      3.410937000000000E+01      4.288177000000000E-01     -1.747578000000000E+02
4866000000.000000      4.041443000000000E-01      3.385937000000000E+01      4.249878000000000E-01     -1.754609000000000E+02
4867000000.000000      4.035492000000000E-01      3.370703000000000E+01      4.229126000000000E-01     -1.764375000000000E+02
4868000000.000000      4.053955000000000E-01      3.346289000000000E+01      4.199066000000000E-01     -1.768359000000000E+02
4869000000.000000      4.057770000000000E-01      3.321484000000000E+01      4.171600000000000E-01     -1.776641000000000E+02
4870000000.000000      4.060364000000000E-01      3.304101000000000E+01      4.149017000000000E-01     -1.778281000000000E+02
4871000000.000000      4.057617000000000E-01      3.269726000000000E+01      4.104919000000000E-01     -1.786641000000000E+02
4872000000.000000      4.084778000000000E-01      3.253906000000000E+01      4.075928000000000E-01     -1.792500000000000E+02
4873000000.000000      4.085236000000000E-01      3.227734000000000E+01      4.034271000000000E-01      1.798125000000000E+02
4874000000.000000      4.088440000000000E-01      3.211719000000000E+01      3.997650000000000E-01      1.793516000000000E+02
4875000000.000000      4.090118000000000E-01      3.180078000000000E+01      3.962555000000000E-01      1.788359000000000E+02
4876000000.000000      4.095612000000000E-01      3.166308000000000E+01      3.937225000000000E-01      1.783047000000000E+02
4877000000.000000      4.111481000000000E-01      3.123340000000000E+01      3.911591000000000E-01      1.775234000000000E+02
4878000000.000000      4.105225000000000E-01      3.107129000000000E+01      3.866577000000000E-01      1.768906000000000E+02
4879000000.000000      4.120941000000000E-01      3.089062000000000E+01      3.826752000000000E-01      1.766172000000000E+02
4880000000.000000      4.121399000000000E-01      3.066113000000000E+01      3.792572000000000E-01      1.759922000000000E+02
4881000000.000000      4.118347000000000E-01      3.046289000000000E+01      3.774109000000000E-01      1.754531000000000E+02
4882000000.000000      4.130096000000000E-01      3.024902000000000E+01      3.735046000000000E-01      1.751016000000000E+02
4883000000.000000      4.129944000000000E-01      2.993359000000000E+01      3.695221000000000E-01      1.745391000000000E+02
4884000000.000000      4.134521000000000E-01      2.976269000000000E+01      3.650360000000000E-01      1.738203000000000E+02
4885000000.000000      4.132080000000000E-01      2.948828000000000E+01      3.624725000000000E-01      1.735625000000000E+02
4886000000.000000      4.131012000000000E-01      2.937012000000000E+01      3.604736000000000E-01      1.732031000000000E+02
4887000000.000000      4.132080000000000E-01      2.910742000000000E+01      3.550873000000000E-01      1.722500000000000E+02
4888000000.000000      4.140320000000000E-01      2.875488000000000E+01      3.523102000000000E-01      1.719219000000000E+02
4889000000.000000      4.135742000000000E-01      2.850586000000000E+01      3.483734000000000E-01      1.713516000000000E+02
4890000000.000000      4.134216000000000E-01      2.830566000000000E+01      3.449097000000000E-01      1.709453000000000E+02
4891000000.000000      4.140015000000000E-01      2.820801000000000E+01      3.410034000000000E-01      1.703359000000000E+02
4892000000.000000      4.138336000000000E-01      2.795996000000000E+01      3.376617000000000E-01      1.700547000000000E+02
4893000000.000000      4.141998000000000E-01      2.770117000000000E+01      3.345947000000000E-01      1.695625000000000E+02
4894000000.000000      4.135132000000000E-01      2.756543000000000E+01      3.315277000000000E-01      1.690781000000000E+02
4895000000.000000      4.145813000000000E-01      2.719433000000000E+01      3.284454000000000E-01      1.688516000000000E+02
4896000000.000000      4.138489000000000E-01      2.700976000000000E+01      3.236389000000000E-01      1.685000000000000E+02
4897000000.000000      4.137268000000000E-01      2.682812000000000E+01      3.208008000000000E-01      1.679922000000000E+02
4898000000.000000      4.136353000000000E-01      2.662207000000000E+01      3.179016000000000E-01      1.677500000000000E+02
4899000000.000000      4.139557000000000E-01      2.628320000000000E+01      3.142395000000000E-01      1.672734000000000E+02
4900000000.000000      4.137421000000000E-01      2.617578000000000E+01      3.106232000000000E-01      1.668359000000000E+02
4901000000.000000      4.135437000000000E-01      2.610058000000000E+01      3.071442000000000E-01      1.663203000000000E+02
4902000000.000000      4.133148000000000E-01      2.591309000000000E+01      3.043060000000000E-01      1.662578000000000E+02
4903000000.000000      4.136353000000000E-01      2.566211000000000E+01      2.997589000000000E-01      1.654922000000000E+02
4904000000.000000      4.129181000000000E-01      2.534765000000000E+01      2.972412000000000E-01      1.652187000000000E+02
4905000000.000000      4.131622000000000E-01      2.528027000000000E+01      2.941437000000000E-01      1.648359000000000E+02
4906000000.000000      4.123688000000000E-01      2.495800000000000E+01      2.901001000000000E-01      1.646250000000000E+02
4907000000.000000      4.125977000000000E-01      2.481250000000000E+01      2.880249000000000E-01      1.640781000000000E+02
4908000000.000000      4.137268000000000E-01      2.456347000000000E+01      2.842712000000000E-01      1.637266000000000E+02
4909000000.000000      4.116516000000000E-01      2.455761000000000E+01      2.797546000000000E-01      1.634922000000000E+02
4910000000.000000      4.113159000000000E-01      2.445508000000000E+01      2.768250000000000E-01      1.631328000000000E+02
4911000000.000000      4.118652000000000E-01      2.424219000000000E+01      2.734375000000000E-01      1.628203000000000E+02
4912000000.000000      4.118042000000000E-01      2.413965000000000E+01      2.703705000000000E-01      1.621875000000000E+02
4913000000.000000      4.113617000000000E-01      2.370703000000000E+01      2.661591000000000E-01      1.618359000000000E+02
4914000000.000000      4.118958000000000E-01      2.349804000000000E+01      2.631378000000000E-01      1.616328000000000E+02
4915000000.000000      4.116364000000000E-01      2.335059000000000E+01      2.590179000000000E-01      1.613516000000000E+02
4916000000.000000      4.108887000000000E-01      2.331250000000000E+01      2.556915000000000E-01      1.607656000000000E+02
4917000000.000000      4.101715000000000E-01      2.317481000000000E+01      2.520752000000000E-01      1.604844000000000E+02
4918000000.000000      4.096527000000000E-01      2.296093000000000E+01      2.481537000000000E-01      1.603672000000000E+02
4919000000.000000      4.104156000000000E-01      2.279101000000000E+01      2.453232000000000E-01      1.602734000000000E+02
4920000000.000000      4.098511000000000E-01      2.263379000000000E+01      2.406998000000000E-01      1.595234000000000E+02
4921000000.000000      4.089661000000000E-01      2.251074000000000E+01      2.374344000000000E-01      1.594453000000000E+02
4922000000.000000      4.100342000000000E-01      2.228222000000000E+01      2.334061000000000E-01      1.592656000000000E+02
4923000000.000000      4.088287000000000E-01      2.214942000000000E+01      2.299957000000000E-01      1.590391000000000E+02
4924000000.000000      4.090881000000000E-01      2.181933000000000E+01      2.255478000000000E-01      1.588125000000000E+02
4925000000.000000      4.087372000000000E-01      2.169336000000000E+01      2.220993000000000E-01      1.586250000000000E+02
4926000000.000000      4.085846000000000E-01      2.167383000000000E+01      2.182236000000000E-01      1.583359000000000E+02
4927000000.000000      4.083862000000000E-01      2.140332000000000E+01      2.141495000000000E-01      1.582031000000000E+02
4928000000.000000      4.081421000000000E-01      2.117383000000000E+01      2.107697000000000E-01      1.582656000000000E+02
4929000000.000000      4.072418000000000E-01      2.107129000000000E+01      2.061157000000000E-01      1.581953000000000E+02
4930000000.000000      4.082336000000000E-01      2.101758000000000E+01      2.020950000000000E-01      1.578438000000000E+02
4931000000.000000      4.074249000000000E-01      2.079394000000000E+01      1.993027000000000E-01      1.579219000000000E+02
4932000000.000000      4.063263000000000E-01      2.065527000000000E+01      1.952591000000000E-01      1.578906000000000E+02
4933000000.000000      4.068909000000000E-01      2.036035000000000E+01      1.901245000000000E-01      1.579844000000000E+02
4934000000.000000      4.085083000000000E-01      2.018847000000000E+01      1.867218000000000E-01      1.577266000000000E+02
4935000000.000000      4.072418000000000E-01      2.014843000000000E+01      1.834564000000000E-01      1.582500000000000E+02
4936000000.000000      4.063721000000000E-01      2.001367000000000E+01      1.793137000000000E-01      1.583516000000000E+02
4937000000.000000      4.060669000000000E-01      1.979394000000000E+01      1.752014000000000E-01      1.583125000000000E+02
4938000000.000000      4.056702000000000E-01      1.966601000000000E+01      1.713181000000000E-01      1.586016000000000E+02
4939000000.000000      4.054108000000000E-01      1.962402000000000E+01      1.674957000000000E-01      1.589219000000000E+02
4940000000.000000      4.064484000000000E-01      1.939453000000000E+01      1.637115000000000E-01      1.591484000000000E+02
4941000000.000000      4.056854000000000E-01      1.912305000000000E+01      1.603622000000000E-01      1.595469000000000E+02
4942000000.000000      4.044189000000000E-01      1.905664000000000E+01      1.564636000000000E-01      1.601719000000000E+02
4943000000.000000      4.048004000000000E-01      1.889160000000000E+01      1.534271000000000E-01      1.607265000000000E+02
4944000000.000000      4.050903000000000E-01      1.870410000000000E+01      1.498108000000000E-01      1.610703000000000E+02
4945000000.000000      4.044189000000000E-01      1.848926000000000E+01      1.461334000000000E-01      1.620000000000000E+02
4946000000.000000      4.037781000000000E-01      1.832715000000000E+01      1.429901000000000E-01      1.625234000000000E+02
4947000000.000000      4.035187000000000E-01      1.816308000000000E+01      1.392975000000000E-01      1.633281000000000E+02
4948000000.000000      4.038849000000000E-01      1.810059000000000E+01      1.359711000000000E-01      1.642344000000000E+02
4949000000.000000      4.028015000000000E-01      1.795410000000000E+01      1.335144000000000E-01      1.651719000000000E+02
4950000000.000000      4.024506000000000E-01      1.781543000000000E+01      1.305542000000000E-01      1.663203000000000E+02
4951000000.000000      4.027405000000000E-01      1.758887000000000E+01      1.274719000000000E-01      1.672344000000000E+02
4952000000.000000      4.023743000000000E-01      1.739648000000000E+01      1.250381000000000E-01      1.684766000000000E+02
4953000000.000000      4.013977000000000E-01      1.719727000000000E+01      1.224365000000000E-01      1.700234000000000E+02
4954000000.000000      4.023132000000000E-01      1.712012000000000E+01      1.204834000000000E-01      1.713906000000000E+02
