! Network Analyzer HP8722D
! Hewlett-Packard
! Data name: Linha & Wilkinson
! Saver's name: Rodrigo Anjos
! Comments: Teste da utilização de aquisição
continua pelo VNA HP8722D
! Time and date: 23/5/2025 16:41
!              Frequency                     S11                                                   S21                                                   S12                                                   S22
# HZ  S  MA R 50
4800000000.000000      2.824097000000000E-01      4.032422000000000E+01      4.893646000000000E-01     -1.300390000000000E+02
4801000000.000000      2.833252000000000E-01      4.061328000000000E+01      4.891663000000000E-01     -1.305391000000000E+02
4802000000.000000      2.848206000000000E-01      4.067578000000000E+01      4.905548000000000E-01     -1.312578000000000E+02
4803000000.000000      2.855377000000000E-01      4.092773000000000E+01      4.936218000000000E-01     -1.318594000000000E+02
4804000000.000000      2.868042000000000E-01      4.114258000000000E+01      4.942474000000000E-01     -1.327734000000000E+02
4805000000.000000      2.890167000000000E-01      4.126367000000000E+01      4.956360000000000E-01     -1.334219000000000E+02
4806000000.000000      2.898865000000000E-01      4.143945000000000E+01      4.980164000000000E-01     -1.341484000000000E+02
4807000000.000000      2.911072000000000E-01      4.173828000000000E+01      4.986725000000000E-01     -1.350000000000000E+02
4808000000.000000      2.919464000000000E-01      4.180078000000000E+01      4.997406000000000E-01     -1.355547000000000E+02
4809000000.000000      2.939758000000000E-01      4.203515000000000E+01      5.009766000000000E-01     -1.365547000000000E+02
4810000000.000000      2.956543000000000E-01      4.215234000000000E+01      5.032654000000000E-01     -1.368828000000000E+02
4811000000.000000      2.976532000000000E-01      4.229492000000000E+01      5.039978000000000E-01     -1.378750000000000E+02
4812000000.000000      2.997131000000000E-01      4.252343000000000E+01      5.031738000000000E-01     -1.386563000000000E+02
4813000000.000000      3.007355000000000E-01      4.255664000000000E+01      5.048218000000000E-01     -1.393359000000000E+02
4814000000.000000      3.022919000000000E-01      4.258985000000000E+01      5.059204000000000E-01     -1.401094000000000E+02
4815000000.000000      3.036346000000000E-01      4.269727000000000E+01      5.066833000000000E-01     -1.408125000000000E+02
4816000000.000000      3.061523000000000E-01      4.284570000000000E+01      5.081482000000000E-01     -1.414766000000000E+02
4817000000.000000      3.074493000000000E-01      4.295117000000000E+01      5.074158000000000E-01     -1.423125000000000E+02
4818000000.000000      3.090515000000000E-01      4.295507000000000E+01      5.069580000000000E-01     -1.430312000000000E+02
4819000000.000000      3.115997000000000E-01      4.302930000000000E+01      5.085144000000000E-01     -1.437891000000000E+02
4820000000.000000      3.126068000000000E-01      4.291992000000000E+01      5.070801000000000E-01     -1.442891000000000E+02
4821000000.000000      3.153381000000000E-01      4.301171000000000E+01      5.089722000000000E-01     -1.453750000000000E+02
4822000000.000000      3.158264000000000E-01      4.285352000000000E+01      5.082397000000000E-01     -1.458984000000000E+02
4823000000.000000      3.184814000000000E-01      4.293164000000000E+01      5.086060000000000E-01     -1.466328000000000E+02
4824000000.000000      3.202515000000000E-01      4.300586000000000E+01      5.074158000000000E-01     -1.474922000000000E+02
4825000000.000000      3.226624000000000E-01      4.285352000000000E+01      5.073853000000000E-01     -1.480391000000000E+02
4826000000.000000      3.237305000000000E-01      4.292969000000000E+01      5.076904000000000E-01     -1.488750000000000E+02
4827000000.000000      3.260803000000000E-01      4.287305000000000E+01      5.057678000000000E-01     -1.494453000000000E+02
4828000000.000000      3.276825000000000E-01      4.277148000000000E+01      5.079956000000000E-01     -1.502734000000000E+02
4829000000.000000      3.291016000000000E-01      4.283399000000000E+01      5.060120000000000E-01     -1.508906000000000E+02
4830000000.000000      3.308411000000000E-01      4.264062000000000E+01      5.052795000000000E-01     -1.517578000000000E+02
4831000000.000000      3.325043000000000E-01      4.250586000000000E+01      5.050049000000000E-01     -1.525000000000000E+02
4832000000.000000      3.345490000000000E-01      4.260351000000000E+01      5.044861000000000E-01     -1.531328000000000E+02
4833000000.000000      3.356781000000000E-01      4.233398000000000E+01      5.032959000000000E-01     -1.539141000000000E+02
4834000000.000000      3.378906000000000E-01      4.229297000000000E+01      5.026855000000000E-01     -1.546875000000000E+02
4835000000.000000      3.398285000000000E-01      4.216406000000000E+01      5.024414000000000E-01     -1.552891000000000E+02
4836000000.000000      3.414459000000000E-01      4.208203000000000E+01      5.003357000000000E-01     -1.560781000000000E+02
4837000000.000000      3.430328000000000E-01      4.199414000000000E+01      4.997864000000000E-01     -1.570391000000000E+02
4838000000.000000      3.444977000000000E-01      4.172852000000000E+01      4.990234000000000E-01     -1.574375000000000E+02
4839000000.000000      3.480377000000000E-01      4.163281000000000E+01      4.988861000000000E-01     -1.581406000000000E+02
4840000000.000000      3.484650000000000E-01      4.130859000000000E+01      4.954987000000000E-01     -1.588359000000000E+02
4841000000.000000      3.497772000000000E-01      4.141211000000000E+01      4.947968000000000E-01     -1.596719000000000E+02
4842000000.000000      3.513489000000000E-01      4.111328000000000E+01      4.938354000000000E-01     -1.604297000000000E+02
4843000000.000000      3.536987000000000E-01      4.077538000000000E+01      4.926147000000000E-01     -1.609922000000000E+02
4844000000.000000      3.550262000000000E-01      4.064649000000000E+01      4.904633000000000E-01     -1.618594000000000E+02
4845000000.000000      3.562775000000000E-01      4.052539000000000E+01      4.892578000000000E-01     -1.624766000000000E+02
4846000000.000000      3.589325000000000E-01      4.035352000000000E+01      4.883423000000000E-01     -1.633125000000000E+02
4847000000.000000      3.594360000000000E-01      4.023046000000000E+01      4.866791000000000E-01     -1.637031000000000E+02
4848000000.000000      3.609772000000000E-01      3.988281000000000E+01      4.839325000000000E-01     -1.645469000000000E+02
4849000000.000000      3.622437000000000E-01      3.963867000000000E+01      4.823914000000000E-01     -1.652891000000000E+02
4850000000.000000      3.636322000000000E-01      3.954687000000000E+01      4.809113000000000E-01     -1.658203000000000E+02
4851000000.000000      3.653870000000000E-01      3.929492000000000E+01      4.801788000000000E-01     -1.667422000000000E+02
4852000000.000000      3.663635000000000E-01      3.910156000000000E+01      4.762268000000000E-01     -1.673750000000000E+02
4853000000.000000      3.674774000000000E-01      3.883203000000000E+01      4.731445000000000E-01     -1.680312000000000E+02
4854000000.000000      3.688812000000000E-01      3.856054000000000E+01      4.723358000000000E-01     -1.687813000000000E+02
4855000000.000000      3.703461000000000E-01      3.837500000000000E+01      4.693451000000000E-01     -1.695000000000000E+02
4856000000.000000      3.717499000000000E-01      3.816797000000000E+01      4.674683000000000E-01     -1.701719000000000E+02
4857000000.000000      3.724823000000000E-01      3.787695000000000E+01      4.658661000000000E-01     -1.707109000000000E+02
4858000000.000000      3.734436000000000E-01      3.754687000000000E+01      4.629669000000000E-01     -1.714766000000000E+02
4859000000.000000      3.743896000000000E-01      3.736719000000000E+01      4.614410000000000E-01     -1.721953000000000E+02
4860000000.000000      3.753967000000000E-01      3.720117000000000E+01      4.579468000000000E-01     -1.727422000000000E+02
4861000000.000000      3.765717000000000E-01      3.695117000000000E+01      4.556732000000000E-01     -1.736797000000000E+02
4862000000.000000      3.768311000000000E-01      3.649219000000000E+01      4.524689000000000E-01     -1.741328000000000E+02
4863000000.000000      3.779449000000000E-01      3.640820000000000E+01      4.489746000000000E-01     -1.750234000000000E+02
4864000000.000000      3.796692000000000E-01      3.609375000000000E+01      4.476776000000000E-01     -1.755703000000000E+02
4865000000.000000      3.797302000000000E-01      3.583398000000000E+01      4.448395000000000E-01     -1.760625000000000E+02
4866000000.000000      3.807068000000000E-01      3.537304000000000E+01      4.396515000000000E-01     -1.769609000000000E+02
4867000000.000000      3.808746000000000E-01      3.520312000000000E+01      4.374237000000000E-01     -1.776172000000000E+02
4868000000.000000      3.818054000000000E-01      3.494726000000000E+01      4.347839000000000E-01     -1.784297000000000E+02
4869000000.000000      3.832855000000000E-01      3.473633000000000E+01      4.312592000000000E-01     -1.788125000000000E+02
4870000000.000000      3.833313000000000E-01      3.441015000000000E+01      4.286652000000000E-01     -1.793906000000000E+02
4871000000.000000      3.838501000000000E-01      3.418554000000000E+01      4.246063000000000E-01      1.796719000000000E+02
4872000000.000000      3.855896000000000E-01      3.396093000000000E+01      4.206696000000000E-01      1.794531000000000E+02
4873000000.000000      3.846741000000000E-01      3.374023000000000E+01      4.173737000000000E-01      1.786328000000000E+02
4874000000.000000      3.855438000000000E-01      3.337695000000000E+01      4.132233000000000E-01      1.781953000000000E+02
4875000000.000000      3.864441000000000E-01      3.313477000000000E+01      4.100952000000000E-01      1.775469000000000E+02
4876000000.000000      3.872681000000000E-01      3.298242000000000E+01      4.075012000000000E-01      1.770859000000000E+02
4877000000.000000      3.878784000000000E-01      3.266406000000000E+01      4.041901000000000E-01      1.763047000000000E+02
4878000000.000000      3.868713000000000E-01      3.229687000000000E+01      3.999023000000000E-01      1.757891000000000E+02
4879000000.000000      3.883362000000000E-01      3.214062000000000E+01      3.956451000000000E-01      1.753515000000000E+02
4880000000.000000      3.889313000000000E-01      3.180469000000000E+01      3.936615000000000E-01      1.746094000000000E+02
4881000000.000000      3.882446000000000E-01      3.149707000000000E+01      3.900299000000000E-01      1.741094000000000E+02
4882000000.000000      3.894043000000000E-01      3.144629000000000E+01      3.873444000000000E-01      1.737187000000000E+02
4883000000.000000      3.895721000000000E-01      3.100000000000000E+01      3.833313000000000E-01      1.731797000000000E+02
4884000000.000000      3.896637000000000E-01      3.081445000000000E+01      3.792572000000000E-01      1.725859000000000E+02
4885000000.000000      3.891907000000000E-01      3.068848000000000E+01      3.745728000000000E-01      1.721953000000000E+02
4886000000.000000      3.899994000000000E-01      3.043945000000000E+01      3.737030000000000E-01      1.717422000000000E+02
4887000000.000000      3.891144000000000E-01      3.019922000000000E+01      3.688812000000000E-01      1.711719000000000E+02
4888000000.000000      3.890839000000000E-01      2.965332000000000E+01      3.650360000000000E-01      1.704453000000000E+02
4889000000.000000      3.897858000000000E-01      2.953222000000000E+01      3.617706000000000E-01      1.703594000000000E+02
4890000000.000000      3.889008000000000E-01      2.937402000000000E+01      3.572388000000000E-01      1.693984000000000E+02
4891000000.000000      3.897552000000000E-01      2.922168000000000E+01      3.544464000000000E-01      1.692188000000000E+02
4892000000.000000      3.893890000000000E-01      2.883008000000000E+01      3.508453000000000E-01      1.689531000000000E+02
4893000000.000000      3.897858000000000E-01      2.866601000000000E+01      3.480072000000000E-01      1.686797000000000E+02
4894000000.000000      3.890381000000000E-01      2.828418000000000E+01      3.433380000000000E-01      1.680156000000000E+02
4895000000.000000      3.895569000000000E-01      2.808496000000000E+01      3.409729000000000E-01      1.675234000000000E+02
4896000000.000000      3.897247000000000E-01      2.785351000000000E+01      3.366852000000000E-01      1.670625000000000E+02
4897000000.000000      3.882599000000000E-01      2.761621000000000E+01      3.339081000000000E-01      1.667422000000000E+02
4898000000.000000      3.890533000000000E-01      2.744433000000000E+01      3.302307000000000E-01      1.663672000000000E+02
4899000000.000000      3.893433000000000E-01      2.722070000000000E+01      3.258209000000000E-01      1.658125000000000E+02
4900000000.000000      3.885956000000000E-01      2.698730000000000E+01      3.225250000000000E-01      1.656250000000000E+02
4901000000.000000      3.885651000000000E-01      2.682910000000000E+01      3.191376000000000E-01      1.650000000000000E+02
4902000000.000000      3.889923000000000E-01      2.656738000000000E+01      3.160400000000000E-01      1.647500000000000E+02
4903000000.000000      3.881378000000000E-01      2.642285000000000E+01      3.125458000000000E-01      1.643594000000000E+02
4904000000.000000      3.889008000000000E-01      2.616113000000000E+01      3.082275000000000E-01      1.639062000000000E+02
4905000000.000000      3.874664000000000E-01      2.585449000000000E+01      3.061676000000000E-01      1.634844000000000E+02
4906000000.000000      3.870697000000000E-01      2.558496000000000E+01      3.022003000000000E-01      1.634219000000000E+02
4907000000.000000      3.869171000000000E-01      2.558105000000000E+01      2.992706000000000E-01      1.628750000000000E+02
4908000000.000000      3.881531000000000E-01      2.525000000000000E+01      2.956543000000000E-01      1.625391000000000E+02
4909000000.000000      3.863831000000000E-01      2.504395000000000E+01      2.919159000000000E-01      1.618828000000000E+02
4910000000.000000      3.860474000000000E-01      2.477636000000000E+01      2.885437000000000E-01      1.616562000000000E+02
4911000000.000000      3.867493000000000E-01      2.477344000000000E+01      2.850189000000000E-01      1.612969000000000E+02
4912000000.000000      3.859100000000000E-01      2.458691000000000E+01      2.816467000000000E-01      1.608438000000000E+02
4913000000.000000      3.866425000000000E-01      2.424902000000000E+01      2.778778000000000E-01      1.604844000000000E+02
4914000000.000000      3.859406000000000E-01      2.411718000000000E+01      2.738953000000000E-01      1.602656000000000E+02
4915000000.000000      3.851776000000000E-01      2.383984000000000E+01      2.706146000000000E-01      1.599375000000000E+02
4916000000.000000      3.855133000000000E-01      2.377441000000000E+01      2.668610000000000E-01      1.595234000000000E+02
4917000000.000000      3.840637000000000E-01      2.359570000000000E+01      2.637634000000000E-01      1.592734000000000E+02
4918000000.000000      3.845062000000000E-01      2.340332000000000E+01      2.587891000000000E-01      1.588594000000000E+02
4919000000.000000      3.832550000000000E-01      2.315625000000000E+01      2.556152000000000E-01      1.588359000000000E+02
4920000000.000000      3.845215000000000E-01      2.300586000000000E+01      2.514648000000000E-01      1.581094000000000E+02
4921000000.000000      3.834839000000000E-01      2.288574000000000E+01      2.475815000000000E-01      1.580625000000000E+02
4922000000.000000      3.843079000000000E-01      2.251758000000000E+01      2.444229000000000E-01      1.577891000000000E+02
4923000000.000000      3.833771000000000E-01      2.252930000000000E+01      2.396393000000000E-01      1.575547000000000E+02
4924000000.000000      3.831329000000000E-01      2.238281000000000E+01      2.357025000000000E-01      1.572656000000000E+02
4925000000.000000      3.825226000000000E-01      2.204590000000000E+01      2.323151000000000E-01      1.571719000000000E+02
4926000000.000000      3.821106000000000E-01      2.204199000000000E+01      2.279434000000000E-01      1.568047000000000E+02
4927000000.000000      3.822174000000000E-01      2.168945000000000E+01      2.242203000000000E-01      1.566797000000000E+02
4928000000.000000      3.829193000000000E-01      2.153027000000000E+01      2.203217000000000E-01      1.565312000000000E+02
4929000000.000000      3.812408000000000E-01      2.136817000000000E+01      2.155457000000000E-01      1.564531000000000E+02
4930000000.000000      3.809204000000000E-01      2.133399000000000E+01      2.119980000000000E-01      1.563125000000000E+02
4931000000.000000      3.809052000000000E-01      2.119531000000000E+01      2.081985000000000E-01      1.561719000000000E+02
4932000000.000000      3.802643000000000E-01      2.096289000000000E+01      2.039642000000000E-01      1.562969000000000E+02
4933000000.000000      3.797607000000000E-01      2.075781000000000E+01      1.991119000000000E-01      1.563516000000000E+02
4934000000.000000      3.802032000000000E-01      2.054492000000000E+01      1.951447000000000E-01      1.561328000000000E+02
4935000000.000000      3.806610000000000E-01      2.028613000000000E+01      1.918869000000000E-01      1.565312000000000E+02
4936000000.000000      3.795624000000000E-01      2.018261000000000E+01      1.878433000000000E-01      1.565234000000000E+02
4937000000.000000      3.797760000000000E-01      1.997363000000000E+01      1.837769000000000E-01      1.566875000000000E+02
4938000000.000000      3.779755000000000E-01      1.997266000000000E+01      1.796722000000000E-01      1.569453000000000E+02
4939000000.000000      3.780823000000000E-01      1.983984000000000E+01      1.752777000000000E-01      1.570234000000000E+02
4940000000.000000      3.789368000000000E-01      1.937988000000000E+01      1.715698000000000E-01      1.572109000000000E+02
4941000000.000000      3.789673000000000E-01      1.940039000000000E+01      1.681442000000000E-01      1.578359000000000E+02
4942000000.000000      3.772430000000000E-01      1.929980000000000E+01      1.637878000000000E-01      1.580781000000000E+02
4943000000.000000      3.776550000000000E-01      1.899805000000000E+01      1.602249000000000E-01      1.586406000000000E+02
4944000000.000000      3.771362000000000E-01      1.886328000000000E+01      1.570129000000000E-01      1.591563000000000E+02
4945000000.000000      3.767395000000000E-01      1.858691000000000E+01      1.528168000000000E-01      1.597578000000000E+02
4946000000.000000      3.767242000000000E-01      1.836719000000000E+01      1.497269000000000E-01      1.605234000000000E+02
4947000000.000000      3.763275000000000E-01      1.831543000000000E+01      1.456985000000000E-01      1.613047000000000E+02
4948000000.000000      3.764191000000000E-01      1.816992000000000E+01      1.431198000000000E-01      1.620781000000000E+02
4949000000.000000      3.743134000000000E-01      1.800488000000000E+01      1.397552000000000E-01      1.632109000000000E+02
4950000000.000000      3.750153000000000E-01      1.788965000000000E+01      1.364822000000000E-01      1.640391000000000E+02
4951000000.000000      3.751831000000000E-01      1.764453000000000E+01      1.336517000000000E-01      1.650781000000000E+02
4952000000.000000      3.750763000000000E-01      1.735254000000000E+01      1.307449000000000E-01      1.661797000000000E+02
4953000000.000000      3.737183000000000E-01      1.724023000000000E+01      1.282883000000000E-01      1.675937000000000E+02
4954000000.000000      3.741760000000000E-01      1.719043000000000E+01      1.254654000000000E-01      1.688594000000000E+02
