! Network Analyzer HP8722D
! Hewlett-Packard
! Data name: Linha & Wilkinson
! Saver's name: Rodrigo Anjos
! Comments: Teste da utilização de aquisição
continua pelo VNA HP8722D
! Time and date: 23/5/2025 16:29
!              Frequency                     S11                                                   S21                                                   S12                                                   S22
# HZ  S  MA R 50
4800000000.000000      2.796478000000000E-01      4.058203000000000E+01      4.877930000000000E-01     -1.301250000000000E+02
4801000000.000000      2.811432000000000E-01      4.082617000000000E+01      4.899902000000000E-01     -1.308828000000000E+02
4802000000.000000      2.822723000000000E-01      4.097852000000000E+01      4.912415000000000E-01     -1.313672000000000E+02
4803000000.000000      2.831573000000000E-01      4.116796000000000E+01      4.945374000000000E-01     -1.320547000000000E+02
4804000000.000000      2.847290000000000E-01      4.149804000000000E+01      4.948730000000000E-01     -1.328516000000000E+02
4805000000.000000      2.867279000000000E-01      4.149219000000000E+01      4.960632000000000E-01     -1.337422000000000E+02
4806000000.000000      2.875366000000000E-01      4.172461000000000E+01      4.975433000000000E-01     -1.343203000000000E+02
4807000000.000000      2.889862000000000E-01      4.191992000000000E+01      4.987640000000000E-01     -1.352266000000000E+02
4808000000.000000      2.897644000000000E-01      4.207812000000000E+01      5.002747000000000E-01     -1.358438000000000E+02
4809000000.000000      2.916260000000000E-01      4.233398000000000E+01      5.017700000000000E-01     -1.366953000000000E+02
4810000000.000000      2.932739000000000E-01      4.242578000000000E+01      5.032654000000000E-01     -1.371719000000000E+02
4811000000.000000      2.953033000000000E-01      4.262891000000000E+01      5.029907000000000E-01     -1.382344000000000E+02
4812000000.000000      2.974548000000000E-01      4.270117000000000E+01      5.046387000000000E-01     -1.387969000000000E+02
4813000000.000000      2.982483000000000E-01      4.283203000000000E+01      5.058899000000000E-01     -1.394140000000000E+02
4814000000.000000      2.999573000000000E-01      4.287890000000000E+01      5.068359000000000E-01     -1.401719000000000E+02
4815000000.000000      3.013306000000000E-01      4.302343000000000E+01      5.065918000000000E-01     -1.409922000000000E+02
4816000000.000000      3.039551000000000E-01      4.315039000000000E+01      5.073853000000000E-01     -1.416953000000000E+02
4817000000.000000      3.049011000000000E-01      4.318164000000000E+01      5.086670000000000E-01     -1.424219000000000E+02
4818000000.000000      3.066254000000000E-01      4.312109000000000E+01      5.086975000000000E-01     -1.430859000000000E+02
4819000000.000000      3.090973000000000E-01      4.325195000000000E+01      5.073853000000000E-01     -1.440234000000000E+02
4820000000.000000      3.099823000000000E-01      4.332421000000000E+01      5.081177000000000E-01     -1.445937000000000E+02
4821000000.000000      3.126984000000000E-01      4.320508000000000E+01      5.094910000000000E-01     -1.453594000000000E+02
4822000000.000000      3.139191000000000E-01      4.315234000000000E+01      5.075073000000000E-01     -1.459375000000000E+02
4823000000.000000      3.164368000000000E-01      4.311328000000000E+01      5.084839000000000E-01     -1.468359000000000E+02
4824000000.000000      3.177795000000000E-01      4.333789000000000E+01      5.082397000000000E-01     -1.477734000000000E+02
4825000000.000000      3.195953000000000E-01      4.308984000000000E+01      5.076294000000000E-01     -1.483281000000000E+02
4826000000.000000      3.214417000000000E-01      4.304688000000000E+01      5.091248000000000E-01     -1.491719000000000E+02
4827000000.000000      3.236694000000000E-01      4.307422000000000E+01      5.073853000000000E-01     -1.496250000000000E+02
4828000000.000000      3.262329000000000E-01      4.305664000000000E+01      5.076599000000000E-01     -1.505469000000000E+02
4829000000.000000      3.273010000000000E-01      4.303711000000000E+01      5.069275000000000E-01     -1.512891000000000E+02
4830000000.000000      3.293152000000000E-01      4.286328000000000E+01      5.057983000000000E-01     -1.518984000000000E+02
4831000000.000000      3.306580000000000E-01      4.267187000000000E+01      5.059204000000000E-01     -1.528906000000000E+02
4832000000.000000      3.326874000000000E-01      4.279101000000000E+01      5.052185000000000E-01     -1.535469000000000E+02
4833000000.000000      3.334656000000000E-01      4.255468000000000E+01      5.046387000000000E-01     -1.540078000000000E+02
4834000000.000000      3.353577000000000E-01      4.239843000000000E+01      5.030823000000000E-01     -1.549297000000000E+02
4835000000.000000      3.378754000000000E-01      4.236718000000000E+01      5.029602000000000E-01     -1.556094000000000E+02
4836000000.000000      3.401642000000000E-01      4.217382000000000E+01      5.015564000000000E-01     -1.562813000000000E+02
4837000000.000000      3.413696000000000E-01      4.208984000000000E+01      5.003052000000000E-01     -1.571875000000000E+02
4838000000.000000      3.425598000000000E-01      4.194336000000000E+01      5.001831000000000E-01     -1.575938000000000E+02
4839000000.000000      3.457336000000000E-01      4.183594000000000E+01      4.978790000000000E-01     -1.582891000000000E+02
4840000000.000000      3.460693000000000E-01      4.152344000000000E+01      4.981384000000000E-01     -1.590859000000000E+02
4841000000.000000      3.483429000000000E-01      4.151953000000000E+01      4.976807000000000E-01     -1.599297000000000E+02
4842000000.000000      3.494415000000000E-01      4.122070000000000E+01      4.948730000000000E-01     -1.604141000000000E+02
4843000000.000000      3.522186000000000E-01      4.095899000000000E+01      4.933014000000000E-01     -1.612266000000000E+02
4844000000.000000      3.527679000000000E-01      4.080274000000000E+01      4.916687000000000E-01     -1.620234000000000E+02
4845000000.000000      3.546143000000000E-01      4.068359000000000E+01      4.898224000000000E-01     -1.625937000000000E+02
4846000000.000000      3.559723000000000E-01      4.052734000000000E+01      4.883881000000000E-01     -1.633047000000000E+02
4847000000.000000      3.577576000000000E-01      4.040429000000000E+01      4.872742000000000E-01     -1.640859000000000E+02
4848000000.000000      3.587036000000000E-01      4.000781000000000E+01      4.832916000000000E-01     -1.648281000000000E+02
4849000000.000000      3.603821000000000E-01      3.979687000000000E+01      4.841156000000000E-01     -1.655000000000000E+02
4850000000.000000      3.614502000000000E-01      3.959961000000000E+01      4.800262000000000E-01     -1.661641000000000E+02
4851000000.000000      3.630066000000000E-01      3.953320000000000E+01      4.796753000000000E-01     -1.668516000000000E+02
4852000000.000000      3.649292000000000E-01      3.921289000000000E+01      4.782257000000000E-01     -1.675781000000000E+02
4853000000.000000      3.659668000000000E-01      3.897265000000000E+01      4.743042000000000E-01     -1.682891000000000E+02
4854000000.000000      3.670502000000000E-01      3.867969000000000E+01      4.717255000000000E-01     -1.690625000000000E+02
4855000000.000000      3.677063000000000E-01      3.855078000000000E+01      4.699707000000000E-01     -1.696563000000000E+02
4856000000.000000      3.696136000000000E-01      3.824023000000000E+01      4.689789000000000E-01     -1.705703000000000E+02
4857000000.000000      3.709259000000000E-01      3.807031000000000E+01      4.661102000000000E-01     -1.708750000000000E+02
4858000000.000000      3.712311000000000E-01      3.769922000000000E+01      4.634247000000000E-01     -1.718203000000000E+02
4859000000.000000      3.731384000000000E-01      3.735547000000000E+01      4.614868000000000E-01     -1.724141000000000E+02
4860000000.000000      3.737488000000000E-01      3.726367000000000E+01      4.589233000000000E-01     -1.731875000000000E+02
4861000000.000000      3.740387000000000E-01      3.695508000000000E+01      4.558716000000000E-01     -1.738125000000000E+02
4862000000.000000      3.751831000000000E-01      3.665430000000000E+01      4.557037000000000E-01     -1.744141000000000E+02
4863000000.000000      3.756104000000000E-01      3.648438000000000E+01      4.489441000000000E-01     -1.751328000000000E+02
4864000000.000000      3.771210000000000E-01      3.611328000000000E+01      4.469147000000000E-01     -1.759375000000000E+02
4865000000.000000      3.779297000000000E-01      3.588086000000000E+01      4.434662000000000E-01     -1.763047000000000E+02
4866000000.000000      3.790283000000000E-01      3.561523000000000E+01      4.410248000000000E-01     -1.770234000000000E+02
4867000000.000000      3.782806000000000E-01      3.536718000000000E+01      4.381104000000000E-01     -1.778750000000000E+02
4868000000.000000      3.797607000000000E-01      3.510156000000000E+01      4.350586000000000E-01     -1.784844000000000E+02
4869000000.000000      3.806915000000000E-01      3.481836000000000E+01      4.315338000000000E-01     -1.790703000000000E+02
4870000000.000000      3.811493000000000E-01      3.454102000000000E+01      4.284668000000000E-01     -1.796328000000000E+02
4871000000.000000      3.818359000000000E-01      3.426953000000000E+01      4.262848000000000E-01      1.796484000000000E+02
4872000000.000000      3.838654000000000E-01      3.404101000000000E+01      4.211273000000000E-01      1.790234000000000E+02
4873000000.000000      3.835754000000000E-01      3.379687000000000E+01      4.185638000000000E-01      1.784141000000000E+02
4874000000.000000      3.837891000000000E-01      3.350781000000000E+01      4.151154000000000E-01      1.777578000000000E+02
4875000000.000000      3.843689000000000E-01      3.318554000000000E+01      4.105835000000000E-01      1.771406000000000E+02
4876000000.000000      3.843231000000000E-01      3.297461000000000E+01      4.086456000000000E-01      1.768203000000000E+02
4877000000.000000      3.850250000000000E-01      3.245508000000000E+01      4.037018000000000E-01      1.761641000000000E+02
4878000000.000000      3.844910000000000E-01      3.226367000000000E+01      4.007263000000000E-01      1.756484000000000E+02
4879000000.000000      3.856506000000000E-01      3.202734000000000E+01      3.959961000000000E-01      1.750313000000000E+02
4880000000.000000      3.864136000000000E-01      3.185547000000000E+01      3.940277000000000E-01      1.744922000000000E+02
4881000000.000000      3.862305000000000E-01      3.164844000000000E+01      3.894501000000000E-01      1.743750000000000E+02
4882000000.000000      3.864594000000000E-01      3.140429000000000E+01      3.878479000000000E-01      1.734141000000000E+02
4883000000.000000      3.862457000000000E-01      3.106934000000000E+01      3.828735000000000E-01      1.729297000000000E+02
4884000000.000000      3.874969000000000E-01      3.096289000000000E+01      3.792877000000000E-01      1.723203000000000E+02
4885000000.000000      3.868408000000000E-01      3.066211000000000E+01      3.756409000000000E-01      1.720469000000000E+02
4886000000.000000      3.878784000000000E-01      3.031641000000000E+01      3.727570000000000E-01      1.715547000000000E+02
4887000000.000000      3.872833000000000E-01      3.002344000000000E+01      3.684387000000000E-01      1.710781000000000E+02
4888000000.000000      3.875122000000000E-01      2.971191000000000E+01      3.663788000000000E-01      1.705078000000000E+02
4889000000.000000      3.875122000000000E-01      2.946386000000000E+01      3.616943000000000E-01      1.698906000000000E+02
4890000000.000000      3.863983000000000E-01      2.928125000000000E+01      3.591309000000000E-01      1.694062000000000E+02
4891000000.000000      3.872375000000000E-01      2.905566000000000E+01      3.543396000000000E-01      1.688984000000000E+02
4892000000.000000      3.862610000000000E-01      2.883594000000000E+01      3.520203000000000E-01      1.688203000000000E+02
4893000000.000000      3.875427000000000E-01      2.867090000000000E+01      3.467712000000000E-01      1.679141000000000E+02
4894000000.000000      3.876953000000000E-01      2.837988000000000E+01      3.436279000000000E-01      1.677734000000000E+02
4895000000.000000      3.880005000000000E-01      2.818262000000000E+01      3.419800000000000E-01      1.673984000000000E+02
4896000000.000000      3.870392000000000E-01      2.785937000000000E+01      3.368073000000000E-01      1.670234000000000E+02
4897000000.000000      3.863983000000000E-01      2.772461000000000E+01      3.332062000000000E-01      1.666094000000000E+02
4898000000.000000      3.863525000000000E-01      2.747949000000000E+01      3.308563000000000E-01      1.662266000000000E+02
4899000000.000000      3.864746000000000E-01      2.727734000000000E+01      3.264313000000000E-01      1.655234000000000E+02
4900000000.000000      3.853912000000000E-01      2.706250000000000E+01      3.238678000000000E-01      1.654375000000000E+02
4901000000.000000      3.860779000000000E-01      2.676270000000000E+01      3.204956000000000E-01      1.650156000000000E+02
4902000000.000000      3.864746000000000E-01      2.645898000000000E+01      3.174591000000000E-01      1.646094000000000E+02
4903000000.000000      3.864136000000000E-01      2.641797000000000E+01      3.127594000000000E-01      1.642109000000000E+02
4904000000.000000      3.845825000000000E-01      2.606054000000000E+01      3.100739000000000E-01      1.637969000000000E+02
4905000000.000000      3.852386000000000E-01      2.584765000000000E+01      3.070068000000000E-01      1.633594000000000E+02
4906000000.000000      3.848267000000000E-01      2.567968000000000E+01      3.027191000000000E-01      1.631719000000000E+02
4907000000.000000      3.845673000000000E-01      2.540722000000000E+01      2.997894000000000E-01      1.627187000000000E+02
4908000000.000000      3.847198000000000E-01      2.519922000000000E+01      2.966766000000000E-01      1.622266000000000E+02
4909000000.000000      3.837738000000000E-01      2.498340000000000E+01      2.921295000000000E-01      1.618203000000000E+02
4910000000.000000      3.838501000000000E-01      2.493457000000000E+01      2.884674000000000E-01      1.616172000000000E+02
4911000000.000000      3.832703000000000E-01      2.469824000000000E+01      2.861176000000000E-01      1.611641000000000E+02
4912000000.000000      3.829193000000000E-01      2.454199000000000E+01      2.823029000000000E-01      1.606172000000000E+02
4913000000.000000      3.834991000000000E-01      2.433691000000000E+01      2.784576000000000E-01      1.604609000000000E+02
4914000000.000000      3.829651000000000E-01      2.401172000000000E+01      2.747498000000000E-01      1.601875000000000E+02
4915000000.000000      3.819580000000000E-01      2.387402000000000E+01      2.703552000000000E-01      1.596172000000000E+02
4916000000.000000      3.822632000000000E-01      2.362988000000000E+01      2.669830000000000E-01      1.592344000000000E+02
4917000000.000000      3.817749000000000E-01      2.356543000000000E+01      2.630768000000000E-01      1.590391000000000E+02
4918000000.000000      3.824158000000000E-01      2.328906000000000E+01      2.584991000000000E-01      1.586094000000000E+02
4919000000.000000      3.809814000000000E-01      2.325390000000000E+01      2.556610000000000E-01      1.583828000000000E+02
4920000000.000000      3.812256000000000E-01      2.302441000000000E+01      2.514801000000000E-01      1.580469000000000E+02
4921000000.000000      3.806152000000000E-01      2.281836000000000E+01      2.487564000000000E-01      1.578984000000000E+02
4922000000.000000      3.811493000000000E-01      2.270410000000000E+01      2.452393000000000E-01      1.577031000000000E+02
4923000000.000000      3.807831000000000E-01      2.253222000000000E+01      2.401199000000000E-01      1.573594000000000E+02
4924000000.000000      3.804474000000000E-01      2.241406000000000E+01      2.361221000000000E-01      1.569609000000000E+02
4925000000.000000      3.792419000000000E-01      2.211328000000000E+01      2.326813000000000E-01      1.570469000000000E+02
4926000000.000000      3.797607000000000E-01      2.201172000000000E+01      2.283554000000000E-01      1.566094000000000E+02
4927000000.000000      3.795013000000000E-01      2.164649000000000E+01      2.241058000000000E-01      1.566875000000000E+02
4928000000.000000      3.796082000000000E-01      2.148633000000000E+01      2.204590000000000E-01      1.565625000000000E+02
4929000000.000000      3.791962000000000E-01      2.129785000000000E+01      2.159348000000000E-01      1.563047000000000E+02
4930000000.000000      3.781586000000000E-01      2.120019000000000E+01      2.123642000000000E-01      1.561641000000000E+02
4931000000.000000      3.783264000000000E-01      2.089942000000000E+01      2.088470000000000E-01      1.561094000000000E+02
4932000000.000000      3.781128000000000E-01      2.098437000000000E+01      2.039795000000000E-01      1.560078000000000E+02
4933000000.000000      3.782043000000000E-01      2.066504000000000E+01      1.992188000000000E-01      1.563672000000000E+02
4934000000.000000      3.784637000000000E-01      2.050976000000000E+01      1.962738000000000E-01      1.560937000000000E+02
4935000000.000000      3.779449000000000E-01      2.029395000000000E+01      1.923752000000000E-01      1.563359000000000E+02
4936000000.000000      3.760529000000000E-01      2.008984000000000E+01      1.876373000000000E-01      1.562813000000000E+02
4937000000.000000      3.768005000000000E-01      1.986426000000000E+01      1.837769000000000E-01      1.564844000000000E+02
4938000000.000000      3.757629000000000E-01      1.971289000000000E+01      1.799011000000000E-01      1.565781000000000E+02
4939000000.000000      3.756866000000000E-01      1.971484000000000E+01      1.758957000000000E-01      1.570000000000000E+02
4940000000.000000      3.761749000000000E-01      1.945313000000000E+01      1.719131000000000E-01      1.572266000000000E+02
4941000000.000000      3.759003000000000E-01      1.921875000000000E+01      1.683502000000000E-01      1.576875000000000E+02
4942000000.000000      3.754578000000000E-01      1.916699000000000E+01      1.643677000000000E-01      1.581016000000000E+02
4943000000.000000      3.746185000000000E-01      1.896875000000000E+01      1.603622000000000E-01      1.586562000000000E+02
4944000000.000000      3.742981000000000E-01      1.869141000000000E+01      1.567459000000000E-01      1.591250000000000E+02
4945000000.000000      3.739166000000000E-01      1.860059000000000E+01      1.525879000000000E-01      1.599844000000000E+02
4946000000.000000      3.744659000000000E-01      1.837305000000000E+01      1.498032000000000E-01      1.604219000000000E+02
4947000000.000000      3.735046000000000E-01      1.830176000000000E+01      1.457062000000000E-01      1.612266000000000E+02
4948000000.000000      3.734436000000000E-01      1.805957000000000E+01      1.434250000000000E-01      1.620469000000000E+02
4949000000.000000      3.731842000000000E-01      1.798730000000000E+01      1.394882000000000E-01      1.631562000000000E+02
4950000000.000000      3.733368000000000E-01      1.786035000000000E+01      1.364212000000000E-01      1.641953000000000E+02
4951000000.000000      3.721161000000000E-01      1.749512000000000E+01      1.337128000000000E-01      1.650156000000000E+02
4952000000.000000      3.717499000000000E-01      1.743164000000000E+01      1.306763000000000E-01      1.661797000000000E+02
4953000000.000000      3.712006000000000E-01      1.712695000000000E+01      1.281738000000000E-01      1.676094000000000E+02
4954000000.000000      3.717194000000000E-01      1.693750000000000E+01      1.260147000000000E-01      1.689609000000000E+02
