! Network Analyzer HP8722D
! Hewlett-Packard
! Data name: Linha & Wilkinson
! Saver's name: Rodrigo Anjos
! Comments: Teste da utilização de aquisição
continua pelo VNA HP8722D
! Time and date: 23/5/2025 15:03
!              Frequency                     S11                                                   S21                                                   S12                                                   S22
# HZ  S  MA R 50
4800000000.000000      2.823029000000000E-01      4.016015000000000E+01      4.862061000000000E-01     -1.296328000000000E+02
4801000000.000000      2.832794000000000E-01      4.041406000000000E+01      4.876709000000000E-01     -1.302031000000000E+02
4802000000.000000      2.847137000000000E-01      4.056445000000000E+01      4.893188000000000E-01     -1.309141000000000E+02
4803000000.000000      2.856293000000000E-01      4.073632000000000E+01      4.919739000000000E-01     -1.318516000000000E+02
4804000000.000000      2.871857000000000E-01      4.100781000000000E+01      4.924927000000000E-01     -1.323125000000000E+02
4805000000.000000      2.886810000000000E-01      4.118360000000000E+01      4.953308000000000E-01     -1.331094000000000E+02
4806000000.000000      2.893524000000000E-01      4.131445000000000E+01      4.949951000000000E-01     -1.338594000000000E+02
4807000000.000000      2.909393000000000E-01      4.150586000000000E+01      4.984589000000000E-01     -1.348047000000000E+02
4808000000.000000      2.918243000000000E-01      4.178320000000000E+01      4.991913000000000E-01     -1.354297000000000E+02
4809000000.000000      2.937469000000000E-01      4.184179000000000E+01      4.989014000000000E-01     -1.360937000000000E+02
4810000000.000000      2.954559000000000E-01      4.200195000000000E+01      5.028076000000000E-01     -1.367578000000000E+02
4811000000.000000      2.973022000000000E-01      4.222265000000000E+01      5.030212000000000E-01     -1.376016000000000E+02
4812000000.000000      2.994080000000000E-01      4.231641000000000E+01      5.042419000000000E-01     -1.383047000000000E+02
4813000000.000000      3.000946000000000E-01      4.248242000000000E+01      5.040588000000000E-01     -1.390938000000000E+02
4814000000.000000      3.017273000000000E-01      4.256445000000000E+01      5.048523000000000E-01     -1.396719000000000E+02
4815000000.000000      3.033295000000000E-01      4.265625000000000E+01      5.058289000000000E-01     -1.405313000000000E+02
4816000000.000000      3.059235000000000E-01      4.271093000000000E+01      5.073547000000000E-01     -1.412109000000000E+02
4817000000.000000      3.067474000000000E-01      4.279687000000000E+01      5.069885000000000E-01     -1.418750000000000E+02
4818000000.000000      3.084106000000000E-01      4.285546000000000E+01      5.067749000000000E-01     -1.426563000000000E+02
4819000000.000000      3.103333000000000E-01      4.293554000000000E+01      5.063782000000000E-01     -1.434453000000000E+02
4820000000.000000      3.114777000000000E-01      4.296288000000000E+01      5.081177000000000E-01     -1.440703000000000E+02
4821000000.000000      3.147583000000000E-01      4.294531000000000E+01      5.087585000000000E-01     -1.450547000000000E+02
4822000000.000000      3.155060000000000E-01      4.289063000000000E+01      5.066223000000000E-01     -1.455781000000000E+02
4823000000.000000      3.176422000000000E-01      4.289844000000000E+01      5.082703000000000E-01     -1.463672000000000E+02
4824000000.000000      3.193817000000000E-01      4.300586000000000E+01      5.072327000000000E-01     -1.471250000000000E+02
4825000000.000000      3.211670000000000E-01      4.285937000000000E+01      5.079041000000000E-01     -1.479844000000000E+02
4826000000.000000      3.228912000000000E-01      4.286133000000000E+01      5.075378000000000E-01     -1.486875000000000E+02
4827000000.000000      3.251801000000000E-01      4.286914000000000E+01      5.061340000000000E-01     -1.492578000000000E+02
4828000000.000000      3.275909000000000E-01      4.280273000000000E+01      5.065613000000000E-01     -1.500000000000000E+02
4829000000.000000      3.289795000000000E-01      4.282031000000000E+01      5.057373000000000E-01     -1.506250000000000E+02
4830000000.000000      3.309631000000000E-01      4.262109000000000E+01      5.053406000000000E-01     -1.513984000000000E+02
4831000000.000000      3.320923000000000E-01      4.256640000000000E+01      5.052185000000000E-01     -1.521563000000000E+02
4832000000.000000      3.339386000000000E-01      4.262891000000000E+01      5.040283000000000E-01     -1.528281000000000E+02
4833000000.000000      3.358612000000000E-01      4.222852000000000E+01      5.027161000000000E-01     -1.533594000000000E+02
4834000000.000000      3.375244000000000E-01      4.229297000000000E+01      5.024719000000000E-01     -1.544844000000000E+02
4835000000.000000      3.399200000000000E-01      4.208008000000000E+01      5.019836000000000E-01     -1.552031000000000E+02
4836000000.000000      3.411102000000000E-01      4.207227000000000E+01      5.007935000000000E-01     -1.557578000000000E+02
4837000000.000000      3.430023000000000E-01      4.201953000000000E+01      4.990387000000000E-01     -1.567422000000000E+02
4838000000.000000      3.439789000000000E-01      4.179101000000000E+01      4.990692000000000E-01     -1.572109000000000E+02
4839000000.000000      3.475647000000000E-01      4.165039000000000E+01      4.973297000000000E-01     -1.579766000000000E+02
4840000000.000000      3.485107000000000E-01      4.134961000000000E+01      4.961090000000000E-01     -1.584922000000000E+02
4841000000.000000      3.496399000000000E-01      4.138672000000000E+01      4.958954000000000E-01     -1.594375000000000E+02
4842000000.000000      3.511658000000000E-01      4.115430000000000E+01      4.929504000000000E-01     -1.598984000000000E+02
4843000000.000000      3.542786000000000E-01      4.087695000000000E+01      4.938049000000000E-01     -1.608047000000000E+02
4844000000.000000      3.545837000000000E-01      4.064062000000000E+01      4.901428000000000E-01     -1.615156000000000E+02
4845000000.000000      3.562775000000000E-01      4.055664000000000E+01      4.880371000000000E-01     -1.621719000000000E+02
4846000000.000000      3.584290000000000E-01      4.045507000000000E+01      4.883270000000000E-01     -1.627422000000000E+02
4847000000.000000      3.596802000000000E-01      4.024610000000000E+01      4.870605000000000E-01     -1.637187000000000E+02
4848000000.000000      3.604279000000000E-01      4.000390000000000E+01      4.840851000000000E-01     -1.642891000000000E+02
4849000000.000000      3.619843000000000E-01      3.955859000000000E+01      4.830017000000000E-01     -1.650156000000000E+02
4850000000.000000      3.629150000000000E-01      3.963867000000000E+01      4.809570000000000E-01     -1.655000000000000E+02
4851000000.000000      3.654022000000000E-01      3.939258000000000E+01      4.785461000000000E-01     -1.665156000000000E+02
4852000000.000000      3.662567000000000E-01      3.915820000000000E+01      4.769592000000000E-01     -1.669922000000000E+02
4853000000.000000      3.675690000000000E-01      3.892578000000000E+01      4.736176000000000E-01     -1.678437000000000E+02
4854000000.000000      3.690796000000000E-01      3.853711000000000E+01      4.723511000000000E-01     -1.685469000000000E+02
4855000000.000000      3.700562000000000E-01      3.847656000000000E+01      4.703217000000000E-01     -1.693438000000000E+02
4856000000.000000      3.714294000000000E-01      3.821289000000000E+01      4.680328000000000E-01     -1.698437000000000E+02
4857000000.000000      3.729095000000000E-01      3.800976000000000E+01      4.665070000000000E-01     -1.704141000000000E+02
4858000000.000000      3.735046000000000E-01      3.771289000000000E+01      4.636536000000000E-01     -1.711484000000000E+02
4859000000.000000      3.746948000000000E-01      3.736719000000000E+01      4.619293000000000E-01     -1.719922000000000E+02
4860000000.000000      3.753662000000000E-01      3.721094000000000E+01      4.589386000000000E-01     -1.725859000000000E+02
4861000000.000000      3.760529000000000E-01      3.701562000000000E+01      4.556732000000000E-01     -1.732500000000000E+02
4862000000.000000      3.771515000000000E-01      3.663476000000000E+01      4.552155000000000E-01     -1.738906000000000E+02
4863000000.000000      3.790131000000000E-01      3.648242000000000E+01      4.488983000000000E-01     -1.748359000000000E+02
4864000000.000000      3.793030000000000E-01      3.619922000000000E+01      4.482269000000000E-01     -1.752812000000000E+02
4865000000.000000      3.791351000000000E-01      3.590429000000000E+01      4.450836000000000E-01     -1.760078000000000E+02
4866000000.000000      3.807983000000000E-01      3.562304000000000E+01      4.403381000000000E-01     -1.765469000000000E+02
4867000000.000000      3.810577000000000E-01      3.534570000000000E+01      4.389954000000000E-01     -1.774141000000000E+02
4868000000.000000      3.823395000000000E-01      3.512695000000000E+01      4.373932000000000E-01     -1.779766000000000E+02
4869000000.000000      3.825226000000000E-01      3.478906000000000E+01      4.324951000000000E-01     -1.786562000000000E+02
4870000000.000000      3.831940000000000E-01      3.470117000000000E+01      4.306488000000000E-01     -1.791797000000000E+02
4871000000.000000      3.839874000000000E-01      3.434375000000000E+01      4.256134000000000E-01     -1.798125000000000E+02
4872000000.000000      3.855438000000000E-01      3.410351000000000E+01      4.228516000000000E-01      1.795312000000000E+02
4873000000.000000      3.847198000000000E-01      3.387304000000000E+01      4.195099000000000E-01      1.788906000000000E+02
4874000000.000000      3.859558000000000E-01      3.355859000000000E+01      4.152985000000000E-01      1.783203000000000E+02
4875000000.000000      3.864899000000000E-01      3.318750000000000E+01      4.111938000000000E-01      1.778203000000000E+02
4876000000.000000      3.870392000000000E-01      3.308008000000000E+01      4.091949000000000E-01      1.771953000000000E+02
4877000000.000000      3.874969000000000E-01      3.242578000000000E+01      4.050446000000000E-01      1.766094000000000E+02
4878000000.000000      3.873596000000000E-01      3.243359000000000E+01      4.017792000000000E-01      1.761484000000000E+02
4879000000.000000      3.886719000000000E-01      3.223633000000000E+01      3.975067000000000E-01      1.755312000000000E+02
4880000000.000000      3.889771000000000E-01      3.179004000000000E+01      3.946075000000000E-01      1.749922000000000E+02
4881000000.000000      3.888855000000000E-01      3.164063000000000E+01      3.926239000000000E-01      1.745312000000000E+02
4882000000.000000      3.893127000000000E-01      3.144336000000000E+01      3.887939000000000E-01      1.740000000000000E+02
4883000000.000000      3.890686000000000E-01      3.101758000000000E+01      3.831177000000000E-01      1.733203000000000E+02
4884000000.000000      3.907166000000000E-01      3.093164000000000E+01      3.810272000000000E-01      1.727969000000000E+02
4885000000.000000      3.900757000000000E-01      3.060059000000000E+01      3.760376000000000E-01      1.725703000000000E+02
4886000000.000000      3.897247000000000E-01      3.042383000000000E+01      3.742676000000000E-01      1.718984000000000E+02
4887000000.000000      3.895721000000000E-01      3.017187000000000E+01      3.702545000000000E-01      1.713359000000000E+02
4888000000.000000      3.898621000000000E-01      2.978906000000000E+01      3.672943000000000E-01      1.707656000000000E+02
4889000000.000000      3.903046000000000E-01      2.966504000000000E+01      3.627625000000000E-01      1.704062000000000E+02
4890000000.000000      3.894501000000000E-01      2.942676000000000E+01      3.583679000000000E-01      1.697422000000000E+02
4891000000.000000      3.898926000000000E-01      2.920410000000000E+01      3.553314000000000E-01      1.693594000000000E+02
4892000000.000000      3.898010000000000E-01      2.884668000000000E+01      3.516083000000000E-01      1.691172000000000E+02
4893000000.000000      3.910370000000000E-01      2.843066000000000E+01      3.489075000000000E-01      1.683359000000000E+02
4894000000.000000      3.901215000000000E-01      2.838867000000000E+01      3.444824000000000E-01      1.681797000000000E+02
4895000000.000000      3.904419000000000E-01      2.819336000000000E+01      3.427887000000000E-01      1.674687000000000E+02
4896000000.000000      3.897247000000000E-01      2.792089000000000E+01      3.381348000000000E-01      1.672812000000000E+02
4897000000.000000      3.901520000000000E-01      2.779101000000000E+01      3.345184000000000E-01      1.665859000000000E+02
4898000000.000000      3.890076000000000E-01      2.748828000000000E+01      3.304443000000000E-01      1.666250000000000E+02
4899000000.000000      3.898010000000000E-01      2.726171000000000E+01      3.266144000000000E-01      1.658594000000000E+02
4900000000.000000      3.894501000000000E-01      2.695410000000000E+01      3.241882000000000E-01      1.655469000000000E+02
4901000000.000000      3.887634000000000E-01      2.669922000000000E+01      3.206635000000000E-01      1.652734000000000E+02
4902000000.000000      3.883362000000000E-01      2.663965000000000E+01      3.179626000000000E-01      1.649062000000000E+02
4903000000.000000      3.883972000000000E-01      2.637890000000000E+01      3.135223000000000E-01      1.643516000000000E+02
4904000000.000000      3.880157000000000E-01      2.611035000000000E+01      3.109436000000000E-01      1.639844000000000E+02
4905000000.000000      3.881073000000000E-01      2.596289000000000E+01      3.079376000000000E-01      1.635547000000000E+02
4906000000.000000      3.880310000000000E-01      2.570313000000000E+01      3.037567000000000E-01      1.634844000000000E+02
4907000000.000000      3.879242000000000E-01      2.548047000000000E+01      3.008728000000000E-01      1.628672000000000E+02
4908000000.000000      3.880005000000000E-01      2.525195000000000E+01      2.982941000000000E-01      1.624609000000000E+02
4909000000.000000      3.865051000000000E-01      2.506054000000000E+01      2.937927000000000E-01      1.620234000000000E+02
4910000000.000000      3.870392000000000E-01      2.484375000000000E+01      2.901764000000000E-01      1.616406000000000E+02
4911000000.000000      3.866119000000000E-01      2.469433000000000E+01      2.870026000000000E-01      1.614063000000000E+02
4912000000.000000      3.867950000000000E-01      2.460156000000000E+01      2.828064000000000E-01      1.609141000000000E+02
4913000000.000000      3.869171000000000E-01      2.433594000000000E+01      2.792664000000000E-01      1.606797000000000E+02
4914000000.000000      3.877106000000000E-01      2.402539000000000E+01      2.755432000000000E-01      1.604063000000000E+02
4915000000.000000      3.859558000000000E-01      2.408691000000000E+01      2.712860000000000E-01      1.599219000000000E+02
4916000000.000000      3.861847000000000E-01      2.380371000000000E+01      2.686157000000000E-01      1.595703000000000E+02
4917000000.000000      3.841095000000000E-01      2.353320000000000E+01      2.645721000000000E-01      1.592969000000000E+02
4918000000.000000      3.849945000000000E-01      2.334668000000000E+01      2.606354000000000E-01      1.588203000000000E+02
4919000000.000000      3.841705000000000E-01      2.326562000000000E+01      2.574310000000000E-01      1.588125000000000E+02
4920000000.000000      3.835297000000000E-01      2.302929000000000E+01      2.529907000000000E-01      1.582109000000000E+02
4921000000.000000      3.836060000000000E-01      2.290722000000000E+01      2.492981000000000E-01      1.580625000000000E+02
4922000000.000000      3.833923000000000E-01      2.260352000000000E+01      2.454987000000000E-01      1.579219000000000E+02
4923000000.000000      3.836517000000000E-01      2.257813000000000E+01      2.411957000000000E-01      1.574531000000000E+02
4924000000.000000      3.834839000000000E-01      2.247461000000000E+01      2.375336000000000E-01      1.571875000000000E+02
4925000000.000000      3.825531000000000E-01      2.225098000000000E+01      2.333145000000000E-01      1.570703000000000E+02
4926000000.000000      3.825226000000000E-01      2.192676000000000E+01      2.296448000000000E-01      1.568047000000000E+02
4927000000.000000      3.828125000000000E-01      2.174805000000000E+01      2.253647000000000E-01      1.566250000000000E+02
4928000000.000000      3.828888000000000E-01      2.154199000000000E+01      2.212601000000000E-01      1.563750000000000E+02
4929000000.000000      3.813171000000000E-01      2.142285000000000E+01      2.176437000000000E-01      1.565078000000000E+02
4930000000.000000      3.822479000000000E-01      2.129004000000000E+01      2.134705000000000E-01      1.561250000000000E+02
4931000000.000000      3.812103000000000E-01      2.108593000000000E+01      2.099075000000000E-01      1.559297000000000E+02
4932000000.000000      3.804016000000000E-01      2.088867000000000E+01      2.049789000000000E-01      1.561250000000000E+02
4933000000.000000      3.808289000000000E-01      2.064258000000000E+01      2.005463000000000E-01      1.561250000000000E+02
4934000000.000000      3.808289000000000E-01      2.046679000000000E+01      1.966705000000000E-01      1.561406000000000E+02
4935000000.000000      3.807678000000000E-01      2.036231000000000E+01      1.933594000000000E-01      1.563984000000000E+02
4936000000.000000      3.796692000000000E-01      2.012500000000000E+01      1.892776000000000E-01      1.563281000000000E+02
4937000000.000000      3.802185000000000E-01      2.002636000000000E+01      1.847763000000000E-01      1.563906000000000E+02
4938000000.000000      3.787842000000000E-01      1.992773000000000E+01      1.810303000000000E-01      1.566250000000000E+02
4939000000.000000      3.787537000000000E-01      1.966406000000000E+01      1.769333000000000E-01      1.569609000000000E+02
4940000000.000000      3.787994000000000E-01      1.949512000000000E+01      1.726761000000000E-01      1.568672000000000E+02
4941000000.000000      3.790588000000000E-01      1.937793000000000E+01      1.693878000000000E-01      1.575000000000000E+02
4942000000.000000      3.775330000000000E-01      1.923828000000000E+01      1.648407000000000E-01      1.579141000000000E+02
4943000000.000000      3.777161000000000E-01      1.903320000000000E+01      1.613846000000000E-01      1.583828000000000E+02
4944000000.000000      3.775330000000000E-01      1.877832000000000E+01      1.574097000000000E-01      1.587969000000000E+02
4945000000.000000      3.782196000000000E-01      1.866406000000000E+01      1.539688000000000E-01      1.594141000000000E+02
4946000000.000000      3.773346000000000E-01      1.847949000000000E+01      1.503830000000000E-01      1.601094000000000E+02
4947000000.000000      3.771057000000000E-01      1.830176000000000E+01      1.469803000000000E-01      1.608125000000000E+02
4948000000.000000      3.772430000000000E-01      1.819140000000000E+01      1.439743000000000E-01      1.614375000000000E+02
4949000000.000000      3.758087000000000E-01      1.793164000000000E+01      1.407166000000000E-01      1.626562000000000E+02
4950000000.000000      3.754578000000000E-01      1.787012000000000E+01      1.376419000000000E-01      1.636719000000000E+02
4951000000.000000      3.759460000000000E-01      1.767383000000000E+01      1.343765000000000E-01      1.644453000000000E+02
4952000000.000000      3.751984000000000E-01      1.735840000000000E+01      1.313705000000000E-01      1.656094000000000E+02
4953000000.000000      3.757477000000000E-01      1.734570000000000E+01      1.286163000000000E-01      1.669688000000000E+02
4954000000.000000      3.748779000000000E-01      1.723535000000000E+01      1.265411000000000E-01      1.681797000000000E+02
