! Network Analyzer HP8722D
! Hewlett-Packard
! Data name: Linha & Wilkinson
! Saver's name: Rodrigo Anjos
! Comments: Teste da utilização de aquisição
continua pelo VNA HP8722D
! Time and date: 23/5/2025 08:32
!              Frequency                     S11                                                   S21                                                   S12                                                   S22
# HZ  S  MA R 50
4800000000.000000      3.837280000000000E-01      3.117871000000000E+01      4.393463000000000E-01     -1.218984000000000E+02
4801000000.000000      3.840485000000000E-01      3.135351000000000E+01      4.421387000000000E-01     -1.226601000000000E+02
4802000000.000000      3.845673000000000E-01      3.143847000000000E+01      4.436035000000000E-01     -1.233047000000000E+02
4803000000.000000      3.847656000000000E-01      3.161718000000000E+01      4.452209000000000E-01     -1.239648000000000E+02
4804000000.000000      3.848877000000000E-01      3.179296000000000E+01      4.458313000000000E-01     -1.248633000000000E+02
4805000000.000000      3.862457000000000E-01      3.186914000000000E+01      4.479675000000000E-01     -1.255312000000000E+02
4806000000.000000      3.857574000000000E-01      3.202734000000000E+01      4.469147000000000E-01     -1.262812000000000E+02
4807000000.000000      3.863068000000000E-01      3.210546000000000E+01      4.497833000000000E-01     -1.271680000000000E+02
4808000000.000000      3.863983000000000E-01      3.221289000000000E+01      4.524078000000000E-01     -1.276875000000000E+02
4809000000.000000      3.880005000000000E-01      3.247461000000000E+01      4.520416000000000E-01     -1.285391000000000E+02
4810000000.000000      3.886108000000000E-01      3.258789000000000E+01      4.546661000000000E-01     -1.291328000000000E+02
4811000000.000000      3.894501000000000E-01      3.271679000000000E+01      4.555511000000000E-01     -1.299062000000000E+02
4812000000.000000      3.916168000000000E-01      3.295312000000000E+01      4.562073000000000E-01     -1.306015000000000E+02
4813000000.000000      3.915405000000000E-01      3.308203000000000E+01      4.567719000000000E-01     -1.314609000000000E+02
4814000000.000000      3.916626000000000E-01      3.303711000000000E+01      4.570007000000000E-01     -1.320000000000000E+02
4815000000.000000      3.920746000000000E-01      3.319336000000000E+01      4.580078000000000E-01     -1.331563000000000E+02
4816000000.000000      3.943024000000000E-01      3.335742000000000E+01      4.587860000000000E-01     -1.336406000000000E+02
4817000000.000000      3.952179000000000E-01      3.342968000000000E+01      4.593048000000000E-01     -1.343672000000000E+02
4818000000.000000      3.958130000000000E-01      3.344922000000000E+01      4.591980000000000E-01     -1.353203000000000E+02
4819000000.000000      3.975525000000000E-01      3.355469000000000E+01      4.593353000000000E-01     -1.358750000000000E+02
4820000000.000000      3.977356000000000E-01      3.364258000000000E+01      4.594574000000000E-01     -1.366016000000000E+02
4821000000.000000      3.995972000000000E-01      3.367578000000000E+01      4.595795000000000E-01     -1.373437000000000E+02
4822000000.000000      4.002533000000000E-01      3.371875000000000E+01      4.586639000000000E-01     -1.382109000000000E+02
4823000000.000000      4.014893000000000E-01      3.369336000000000E+01      4.596405000000000E-01     -1.388672000000000E+02
4824000000.000000      4.035187000000000E-01      3.399805000000000E+01      4.596100000000000E-01     -1.396406000000000E+02
4825000000.000000      4.048767000000000E-01      3.388281000000000E+01      4.589996000000000E-01     -1.402266000000000E+02
4826000000.000000      4.058838000000000E-01      3.388672000000000E+01      4.595947000000000E-01     -1.410547000000000E+02
4827000000.000000      4.072723000000000E-01      3.396679000000000E+01      4.592133000000000E-01     -1.416563000000000E+02
4828000000.000000      4.091339000000000E-01      3.398828000000000E+01      4.601746000000000E-01     -1.424531000000000E+02
4829000000.000000      4.098358000000000E-01      3.417383000000000E+01      4.586182000000000E-01     -1.432656000000000E+02
4830000000.000000      4.119110000000000E-01      3.404492000000000E+01      4.592133000000000E-01     -1.440156000000000E+02
4831000000.000000      4.126740000000000E-01      3.389257000000000E+01      4.582977000000000E-01     -1.447187000000000E+02
4832000000.000000      4.138489000000000E-01      3.410742000000000E+01      4.580841000000000E-01     -1.452656000000000E+02
4833000000.000000      4.153442000000000E-01      3.402344000000000E+01      4.556122000000000E-01     -1.460469000000000E+02
4834000000.000000      4.166718000000000E-01      3.405859000000000E+01      4.550018000000000E-01     -1.467891000000000E+02
4835000000.000000      4.189758000000000E-01      3.401172000000000E+01      4.560394000000000E-01     -1.475625000000000E+02
4836000000.000000      4.207764000000000E-01      3.402734000000000E+01      4.542694000000000E-01     -1.481250000000000E+02
4837000000.000000      4.212952000000000E-01      3.408789000000000E+01      4.528351000000000E-01     -1.492422000000000E+02
4838000000.000000      4.221344000000000E-01      3.396679000000000E+01      4.542084000000000E-01     -1.496016000000000E+02
4839000000.000000      4.255524000000000E-01      3.403320000000000E+01      4.524231000000000E-01     -1.502812000000000E+02
4840000000.000000      4.264832000000000E-01      3.381445000000000E+01      4.521332000000000E-01     -1.510703000000000E+02
4841000000.000000      4.274597000000000E-01      3.390039000000000E+01      4.510193000000000E-01     -1.517187000000000E+02
4842000000.000000      4.282837000000000E-01      3.374804000000000E+01      4.495392000000000E-01     -1.525156000000000E+02
4843000000.000000      4.312286000000000E-01      3.348633000000000E+01      4.486542000000000E-01     -1.532891000000000E+02
4844000000.000000      4.313354000000000E-01      3.350781000000000E+01      4.472351000000000E-01     -1.540078000000000E+02
4845000000.000000      4.340057000000000E-01      3.354297000000000E+01      4.463348000000000E-01     -1.546719000000000E+02
4846000000.000000      4.354248000000000E-01      3.347656000000000E+01      4.452057000000000E-01     -1.553047000000000E+02
4847000000.000000      4.364319000000000E-01      3.338086000000000E+01      4.433899000000000E-01     -1.561406000000000E+02
4848000000.000000      4.379120000000000E-01      3.317187000000000E+01      4.416809000000000E-01     -1.568750000000000E+02
4849000000.000000      4.389801000000000E-01      3.304296000000000E+01      4.412994000000000E-01     -1.575156000000000E+02
4850000000.000000      4.402466000000000E-01      3.286523000000000E+01      4.393311000000000E-01     -1.583516000000000E+02
4851000000.000000      4.415588000000000E-01      3.283008000000000E+01      4.380646000000000E-01     -1.590156000000000E+02
4852000000.000000      4.429626000000000E-01      3.283984000000000E+01      4.360962000000000E-01     -1.597734000000000E+02
4853000000.000000      4.450378000000000E-01      3.265429000000000E+01      4.338531000000000E-01     -1.605391000000000E+02
4854000000.000000      4.463654000000000E-01      3.247851000000000E+01      4.317322000000000E-01     -1.612969000000000E+02
4855000000.000000      4.466400000000000E-01      3.235937000000000E+01      4.298096000000000E-01     -1.621641000000000E+02
4856000000.000000      4.486542000000000E-01      3.223828000000000E+01      4.277649000000000E-01     -1.627109000000000E+02
4857000000.000000      4.495850000000000E-01      3.206836000000000E+01      4.270935000000000E-01     -1.633906000000000E+02
4858000000.000000      4.501038000000000E-01      3.194043000000000E+01      4.243317000000000E-01     -1.641328000000000E+02
4859000000.000000      4.518280000000000E-01      3.174414000000000E+01      4.218445000000000E-01     -1.648750000000000E+02
4860000000.000000      4.525909000000000E-01      3.159863000000000E+01      4.184113000000000E-01     -1.655234000000000E+02
4861000000.000000      4.539795000000000E-01      3.145898000000000E+01      4.159851000000000E-01     -1.663984000000000E+02
4862000000.000000      4.545898000000000E-01      3.125000000000000E+01      4.154358000000000E-01     -1.669453000000000E+02
4863000000.000000      4.560394000000000E-01      3.123340000000000E+01      4.119720000000000E-01     -1.677891000000000E+02
4864000000.000000      4.572754000000000E-01      3.096972000000000E+01      4.091492000000000E-01     -1.684375000000000E+02
4865000000.000000      4.572449000000000E-01      3.070996000000000E+01      4.060364000000000E-01     -1.690547000000000E+02
4866000000.000000      4.594727000000000E-01      3.056641000000000E+01      4.033051000000000E-01     -1.698281000000000E+02
4867000000.000000      4.608154000000000E-01      3.043164000000000E+01      4.006653000000000E-01     -1.707344000000000E+02
4868000000.000000      4.600067000000000E-01      3.031933000000000E+01      3.981323000000000E-01     -1.711875000000000E+02
4869000000.000000      4.604950000000000E-01      3.012304000000000E+01      3.955078000000000E-01     -1.721641000000000E+02
4870000000.000000      4.619293000000000E-01      2.995410000000000E+01      3.909302000000000E-01     -1.723203000000000E+02
4871000000.000000      4.626770000000000E-01      2.966504000000000E+01      3.887329000000000E-01     -1.731641000000000E+02
4872000000.000000      4.652863000000000E-01      2.967382000000000E+01      3.841248000000000E-01     -1.737969000000000E+02
4873000000.000000      4.645538000000000E-01      2.937012000000000E+01      3.804626000000000E-01     -1.746250000000000E+02
4874000000.000000      4.648895000000000E-01      2.919531000000000E+01      3.775024000000000E-01     -1.750937000000000E+02
4875000000.000000      4.667969000000000E-01      2.919336000000000E+01      3.746948000000000E-01     -1.756641000000000E+02
4876000000.000000      4.671936000000000E-01      2.890429000000000E+01      3.709412000000000E-01     -1.765391000000000E+02
4877000000.000000      4.678040000000000E-01      2.848730000000000E+01      3.691101000000000E-01     -1.772187000000000E+02
4878000000.000000      4.680023000000000E-01      2.849218000000000E+01      3.655396000000000E-01     -1.775391000000000E+02
4879000000.000000      4.693604000000000E-01      2.843066000000000E+01      3.601379000000000E-01     -1.779453000000000E+02
4880000000.000000      4.694824000000000E-01      2.798828000000000E+01      3.575745000000000E-01     -1.788125000000000E+02
4881000000.000000      4.698181000000000E-01      2.801758000000000E+01      3.552094000000000E-01     -1.790625000000000E+02
4882000000.000000      4.721069000000000E-01      2.784472000000000E+01      3.518524000000000E-01      1.799922000000000E+02
4883000000.000000      4.716492000000000E-01      2.768555000000000E+01      3.468933000000000E-01      1.795703000000000E+02
4884000000.000000      4.718323000000000E-01      2.732617000000000E+01      3.441010000000000E-01      1.790000000000000E+02
4885000000.000000      4.722137000000000E-01      2.737305000000000E+01      3.411865000000000E-01      1.786641000000000E+02
4886000000.000000      4.719849000000000E-01      2.698730000000000E+01      3.376923000000000E-01      1.782187000000000E+02
4887000000.000000      4.724426000000000E-01      2.695019000000000E+01      3.346252000000000E-01      1.775938000000000E+02
4888000000.000000      4.740448000000000E-01      2.649902000000000E+01      3.310852000000000E-01      1.771953000000000E+02
4889000000.000000      4.720917000000000E-01      2.655468000000000E+01      3.268585000000000E-01      1.766875000000000E+02
4890000000.000000      4.729004000000000E-01      2.617480000000000E+01      3.247986000000000E-01      1.761953000000000E+02
4891000000.000000      4.747620000000000E-01      2.614941000000000E+01      3.204498000000000E-01      1.756953000000000E+02
4892000000.000000      4.742737000000000E-01      2.593652000000000E+01      3.165588000000000E-01      1.754688000000000E+02
4893000000.000000      4.766083000000000E-01      2.568262000000000E+01      3.136902000000000E-01      1.747344000000000E+02
4894000000.000000      4.754791000000000E-01      2.544629000000000E+01      3.103943000000000E-01      1.744609000000000E+02
4895000000.000000      4.775391000000000E-01      2.546289000000000E+01      3.083496000000000E-01      1.741172000000000E+02
4896000000.000000      4.754028000000000E-01      2.519531000000000E+01      3.038635000000000E-01      1.736641000000000E+02
4897000000.000000      4.763184000000000E-01      2.489551000000000E+01      3.003082000000000E-01      1.733359000000000E+02
4898000000.000000      4.752808000000000E-01      2.500977000000000E+01      2.977295000000000E-01      1.728437000000000E+02
4899000000.000000      4.776154000000000E-01      2.474218000000000E+01      2.942810000000000E-01      1.722656000000000E+02
4900000000.000000      4.770508000000000E-01      2.450684000000000E+01      2.909088000000000E-01      1.720703000000000E+02
4901000000.000000      4.753113000000000E-01      2.421484000000000E+01      2.881470000000000E-01      1.716250000000000E+02
4902000000.000000      4.759827000000000E-01      2.425586000000000E+01      2.841034000000000E-01      1.714687000000000E+02
4903000000.000000      4.768524000000000E-01      2.410742000000000E+01      2.804413000000000E-01      1.708516000000000E+02
4904000000.000000      4.767303000000000E-01      2.394531000000000E+01      2.774811000000000E-01      1.706250000000000E+02
4905000000.000000      4.768372000000000E-01      2.378516000000000E+01      2.750244000000000E-01      1.700469000000000E+02
4906000000.000000      4.751892000000000E-01      2.352539000000000E+01      2.713165000000000E-01      1.699219000000000E+02
4907000000.000000      4.762878000000000E-01      2.320801000000000E+01      2.691040000000000E-01      1.693047000000000E+02
4908000000.000000      4.756165000000000E-01      2.318750000000000E+01      2.654572000000000E-01      1.688281000000000E+02
4909000000.000000      4.765625000000000E-01      2.317481000000000E+01      2.618561000000000E-01      1.686406000000000E+02
4910000000.000000      4.754181000000000E-01      2.299414000000000E+01      2.586975000000000E-01      1.683125000000000E+02
4911000000.000000      4.765015000000000E-01      2.290722000000000E+01      2.557373000000000E-01      1.680547000000000E+02
4912000000.000000      4.771118000000000E-01      2.252930000000000E+01      2.520447000000000E-01      1.676250000000000E+02
4913000000.000000      4.775696000000000E-01      2.247168000000000E+01      2.490768000000000E-01      1.672188000000000E+02
4914000000.000000      4.765778000000000E-01      2.247363000000000E+01      2.455673000000000E-01      1.669297000000000E+02
4915000000.000000      4.762268000000000E-01      2.214648000000000E+01      2.419815000000000E-01      1.663828000000000E+02
4916000000.000000      4.759827000000000E-01      2.210449000000000E+01      2.385559000000000E-01      1.661328000000000E+02
4917000000.000000      4.762726000000000E-01      2.177539000000000E+01      2.349396000000000E-01      1.658828000000000E+02
4918000000.000000      4.750061000000000E-01      2.195117000000000E+01      2.313843000000000E-01      1.655156000000000E+02
4919000000.000000      4.755096000000000E-01      2.165332000000000E+01      2.288895000000000E-01      1.654297000000000E+02
4920000000.000000      4.744263000000000E-01      2.154687000000000E+01      2.244797000000000E-01      1.649609000000000E+02
4921000000.000000      4.748535000000000E-01      2.137793000000000E+01      2.215805000000000E-01      1.647422000000000E+02
4922000000.000000      4.750366000000000E-01      2.115918000000000E+01      2.182159000000000E-01      1.645391000000000E+02
4923000000.000000      4.768677000000000E-01      2.104492000000000E+01      2.139664000000000E-01      1.643125000000000E+02
4924000000.000000      4.756317000000000E-01      2.095313000000000E+01      2.104416000000000E-01      1.639453000000000E+02
4925000000.000000      4.739227000000000E-01      2.077637000000000E+01      2.073898000000000E-01      1.638984000000000E+02
4926000000.000000      4.744110000000000E-01      2.065918000000000E+01      2.035675000000000E-01      1.636094000000000E+02
4927000000.000000      4.759064000000000E-01      2.032422000000000E+01      2.000122000000000E-01      1.634922000000000E+02
4928000000.000000      4.765778000000000E-01      2.020020000000000E+01      1.961594000000000E-01      1.634063000000000E+02
4929000000.000000      4.737396000000000E-01      1.995312000000000E+01      1.926117000000000E-01      1.632266000000000E+02
4930000000.000000      4.770966000000000E-01      1.998633000000000E+01      1.890182000000000E-01      1.631562000000000E+02
4931000000.000000      4.733887000000000E-01      1.982422000000000E+01      1.855164000000000E-01      1.631328000000000E+02
4932000000.000000      4.724884000000000E-01      1.965137000000000E+01      1.814041000000000E-01      1.632187000000000E+02
4933000000.000000      4.732666000000000E-01      1.961719000000000E+01      1.769943000000000E-01      1.633906000000000E+02
4934000000.000000      4.733276000000000E-01      1.936426000000000E+01      1.743774000000000E-01      1.632422000000000E+02
4935000000.000000      4.748077000000000E-01      1.941797000000000E+01      1.711197000000000E-01      1.634766000000000E+02
4936000000.000000      4.738922000000000E-01      1.913672000000000E+01      1.668625000000000E-01      1.635703000000000E+02
4937000000.000000      4.738770000000000E-01      1.914160000000000E+01      1.633682000000000E-01      1.636406000000000E+02
4938000000.000000      4.720917000000000E-01      1.903320000000000E+01      1.599655000000000E-01      1.638359000000000E+02
4939000000.000000      4.742279000000000E-01      1.885351000000000E+01      1.564484000000000E-01      1.641953000000000E+02
4940000000.000000      4.732513000000000E-01      1.846094000000000E+01      1.529846000000000E-01      1.644375000000000E+02
4941000000.000000      4.764099000000000E-01      1.846875000000000E+01      1.492996000000000E-01      1.649297000000000E+02
4942000000.000000      4.744873000000000E-01      1.832617000000000E+01      1.458435000000000E-01      1.654063000000000E+02
4943000000.000000      4.731140000000000E-01      1.830273000000000E+01      1.424332000000000E-01      1.658203000000000E+02
4944000000.000000      4.744873000000000E-01      1.807519000000000E+01      1.391144000000000E-01      1.665703000000000E+02
4945000000.000000      4.740295000000000E-01      1.788086000000000E+01      1.361465000000000E-01      1.671641000000000E+02
4946000000.000000      4.725037000000000E-01      1.807910000000000E+01      1.329803000000000E-01      1.678516000000000E+02
4947000000.000000      4.727783000000000E-01      1.770996000000000E+01      1.294327000000000E-01      1.686641000000000E+02
4948000000.000000      4.723053000000000E-01      1.759277000000000E+01      1.269684000000000E-01      1.693203000000000E+02
4949000000.000000      4.731750000000000E-01      1.748535000000000E+01      1.240387000000000E-01      1.707500000000000E+02
4950000000.000000      4.741516000000000E-01      1.724414000000000E+01      1.215782000000000E-01      1.713359000000000E+02
4951000000.000000      4.748840000000000E-01      1.713086000000000E+01      1.185989000000000E-01      1.725078000000000E+02
4952000000.000000      4.718170000000000E-01      1.702441000000000E+01      1.159782000000000E-01      1.738125000000000E+02
4953000000.000000      4.733887000000000E-01      1.686914000000000E+01      1.140022000000000E-01      1.753594000000000E+02
4954000000.000000      4.734344000000000E-01      1.680957000000000E+01      1.120071000000000E-01      1.764531000000000E+02
