! Network Analyzer HP8722D
! Hewlett-Packard
! Data name: Linha & Wilkinson
! Saver's name: Rodrigo Anjos
! Comments: Teste da utilização de aquisição
continua pelo VNA HP8722D
! Time and date: 23/5/2025 07:38
!              Frequency                     S11                                                   S21                                                   S12                                                   S22
# HZ  S  MA R 50
4800000000.000000      6.422424000000000E-01      1.065381000000000E+01      4.724426000000000E-01     -9.364061000000000E+01
4801000000.000000      6.395264000000000E-01      1.066895000000000E+01      4.744415000000000E-01     -9.441015000000000E+01
4802000000.000000      6.395569000000000E-01      1.070752000000000E+01      4.763489000000000E-01     -9.500000000000000E+01
4803000000.000000      6.374817000000000E-01      1.073193000000000E+01      4.799347000000000E-01     -9.569530000000000E+01
4804000000.000000      6.362000000000000E-01      1.056592000000000E+01      4.799194000000000E-01     -9.682421000000000E+01
4805000000.000000      6.355591000000000E-01      1.061377000000000E+01      4.806061000000000E-01     -9.724609000000000E+01
4806000000.000000      6.336060000000000E-01      1.085449000000000E+01      4.824982000000000E-01     -9.823046000000000E+01
4807000000.000000      6.297913000000000E-01      1.067725000000000E+01      4.837341000000000E-01     -9.903124000000000E+01
4808000000.000000      6.291199000000000E-01      1.071680000000000E+01      4.853973000000000E-01     -9.953905000000000E+01
4809000000.000000      6.268005000000000E-01      1.079248000000000E+01      4.870148000000000E-01     -1.004297000000000E+02
4810000000.000000      6.256409000000000E-01      1.074023000000000E+01      4.891968000000000E-01     -1.013281000000000E+02
4811000000.000000      6.242981000000000E-01      1.078711000000000E+01      4.904480000000000E-01     -1.020859000000000E+02
4812000000.000000      6.251526000000000E-01      1.119092000000000E+01      4.904633000000000E-01     -1.027070000000000E+02
4813000000.000000      6.220703000000000E-01      1.112061000000000E+01      4.920349000000000E-01     -1.037344000000000E+02
4814000000.000000      6.202087000000000E-01      1.097363000000000E+01      4.924316000000000E-01     -1.041640000000000E+02
4815000000.000000      6.181641000000000E-01      1.101221000000000E+01      4.927216000000000E-01     -1.048594000000000E+02
4816000000.000000      6.188660000000000E-01      1.116748000000000E+01      4.945679000000000E-01     -1.056680000000000E+02
4817000000.000000      6.163330000000000E-01      1.128955000000000E+01      4.943390000000000E-01     -1.065195000000000E+02
4818000000.000000      6.163330000000000E-01      1.117432000000000E+01      4.936523000000000E-01     -1.072109000000000E+02
4819000000.000000      6.147461000000000E-01      1.131299000000000E+01      4.953308000000000E-01     -1.079883000000000E+02
4820000000.000000      6.127319000000000E-01      1.167139000000000E+01      4.957123000000000E-01     -1.087695000000000E+02
4821000000.000000      6.123962000000000E-01      1.160547000000000E+01      4.966736000000000E-01     -1.095820000000000E+02
4822000000.000000      6.105957000000000E-01      1.163574000000000E+01      4.944000000000000E-01     -1.104805000000000E+02
4823000000.000000      6.112671000000000E-01      1.162354000000000E+01      4.965057000000000E-01     -1.110898000000000E+02
4824000000.000000      6.098022000000000E-01      1.179492000000000E+01      4.978333000000000E-01     -1.117461000000000E+02
4825000000.000000      6.110535000000000E-01      1.196680000000000E+01      4.964142000000000E-01     -1.128242000000000E+02
4826000000.000000      6.092834000000000E-01      1.195410000000000E+01      4.981232000000000E-01     -1.134180000000000E+02
4827000000.000000      6.076050000000000E-01      1.215869000000000E+01      4.982300000000000E-01     -1.140820000000000E+02
4828000000.000000      6.080017000000000E-01      1.221924000000000E+01      4.990997000000000E-01     -1.149414000000000E+02
4829000000.000000      6.087341000000000E-01      1.254736000000000E+01      4.979553000000000E-01     -1.155508000000000E+02
4830000000.000000      6.090393000000000E-01      1.240625000000000E+01      4.983521000000000E-01     -1.162891000000000E+02
4831000000.000000      6.086121000000000E-01      1.259961000000000E+01      4.976349000000000E-01     -1.170781000000000E+02
4832000000.000000      6.058960000000000E-01      1.278516000000000E+01      4.959259000000000E-01     -1.177656000000000E+02
4833000000.000000      6.060791000000000E-01      1.291406000000000E+01      4.970398000000000E-01     -1.186758000000000E+02
4834000000.000000      6.067200000000000E-01      1.292090000000000E+01      4.974976000000000E-01     -1.194727000000000E+02
4835000000.000000      6.089172000000000E-01      1.312988000000000E+01      4.972382000000000E-01     -1.201406000000000E+02
4836000000.000000      6.086731000000000E-01      1.309131000000000E+01      4.965668000000000E-01     -1.209727000000000E+02
4837000000.000000      6.069641000000000E-01      1.335938000000000E+01      4.938202000000000E-01     -1.220742000000000E+02
4838000000.000000      6.065063000000000E-01      1.328369000000000E+01      4.947662000000000E-01     -1.224453000000000E+02
4839000000.000000      6.086121000000000E-01      1.381641000000000E+01      4.946899000000000E-01     -1.232461000000000E+02
4840000000.000000      6.085815000000000E-01      1.341699000000000E+01      4.943085000000000E-01     -1.239219000000000E+02
4841000000.000000      6.102905000000000E-01      1.366797000000000E+01      4.946747000000000E-01     -1.248672000000000E+02
4842000000.000000      6.104431000000000E-01      1.378467000000000E+01      4.929352000000000E-01     -1.256406000000000E+02
4843000000.000000      6.127625000000000E-01      1.385059000000000E+01      4.931335000000000E-01     -1.265977000000000E+02
4844000000.000000      6.109619000000000E-01      1.393311000000000E+01      4.912262000000000E-01     -1.274531000000000E+02
4845000000.000000      6.121826000000000E-01      1.417480000000000E+01      4.897614000000000E-01     -1.280937000000000E+02
4846000000.000000      6.142883000000000E-01      1.407031000000000E+01      4.888916000000000E-01     -1.290625000000000E+02
4847000000.000000      6.157227000000000E-01      1.430957000000000E+01      4.882813000000000E-01     -1.297812000000000E+02
4848000000.000000      6.144409000000000E-01      1.406787000000000E+01      4.839935000000000E-01     -1.306250000000000E+02
4849000000.000000      6.164246000000000E-01      1.426270000000000E+01      4.853058000000000E-01     -1.314141000000000E+02
4850000000.000000      6.165771000000000E-01      1.442334000000000E+01      4.826965000000000E-01     -1.323437000000000E+02
4851000000.000000      6.189575000000000E-01      1.458252000000000E+01      4.817352000000000E-01     -1.332500000000000E+02
4852000000.000000      6.184387000000000E-01      1.447559000000000E+01      4.781342000000000E-01     -1.339922000000000E+02
4853000000.000000      6.183167000000000E-01      1.467041000000000E+01      4.753113000000000E-01     -1.349375000000000E+02
4854000000.000000      6.225586000000000E-01      1.457471000000000E+01      4.740448000000000E-01     -1.358828000000000E+02
4855000000.000000      6.217346000000000E-01      1.486572000000000E+01      4.716492000000000E-01     -1.366641000000000E+02
4856000000.000000      6.229858000000000E-01      1.471729000000000E+01      4.677582000000000E-01     -1.375937000000000E+02
4857000000.000000      6.221008000000000E-01      1.479541000000000E+01      4.671783000000000E-01     -1.383672000000000E+02
4858000000.000000      6.253662000000000E-01      1.477344000000000E+01      4.632721000000000E-01     -1.391094000000000E+02
4859000000.000000      6.258240000000000E-01      1.478857000000000E+01      4.605865000000000E-01     -1.399922000000000E+02
4860000000.000000      6.264648000000000E-01      1.480225000000000E+01      4.568176000000000E-01     -1.406953000000000E+02
4861000000.000000      6.276245000000000E-01      1.481738000000000E+01      4.540100000000000E-01     -1.415781000000000E+02
4862000000.000000      6.291504000000000E-01      1.489844000000000E+01      4.526672000000000E-01     -1.424844000000000E+02
4863000000.000000      6.295776000000000E-01      1.486035000000000E+01      4.475403000000000E-01     -1.435469000000000E+02
4864000000.000000      6.317139000000000E-01      1.485205000000000E+01      4.454346000000000E-01     -1.441406000000000E+02
4865000000.000000      6.319275000000000E-01      1.480664000000000E+01      4.410706000000000E-01     -1.446484000000000E+02
4866000000.000000      6.342773000000000E-01      1.479834000000000E+01      4.363098000000000E-01     -1.457813000000000E+02
4867000000.000000      6.345215000000000E-01      1.471191000000000E+01      4.321594000000000E-01     -1.463906000000000E+02
4868000000.000000      6.371460000000000E-01      1.483398000000000E+01      4.283905000000000E-01     -1.472891000000000E+02
4869000000.000000      6.386108000000000E-01      1.468457000000000E+01      4.241791000000000E-01     -1.479766000000000E+02
4870000000.000000      6.398010000000000E-01      1.472168000000000E+01      4.201813000000000E-01     -1.483594000000000E+02
4871000000.000000      6.399841000000000E-01      1.458984000000000E+01      4.171143000000000E-01     -1.494531000000000E+02
4872000000.000000      6.418152000000000E-01      1.476123000000000E+01      4.120941000000000E-01     -1.500156000000000E+02
4873000000.000000      6.432495000000000E-01      1.464063000000000E+01      4.073792000000000E-01     -1.509219000000000E+02
4874000000.000000      6.452026000000000E-01      1.468701000000000E+01      4.032745000000000E-01     -1.515859000000000E+02
4875000000.000000      6.473083000000000E-01      1.452637000000000E+01      3.985596000000000E-01     -1.520859000000000E+02
4876000000.000000      6.474915000000000E-01      1.461719000000000E+01      3.943787000000000E-01     -1.527422000000000E+02
4877000000.000000      6.486511000000000E-01      1.437695000000000E+01      3.907166000000000E-01     -1.535312000000000E+02
4878000000.000000      6.494751000000000E-01      1.431885000000000E+01      3.867340000000000E-01     -1.542266000000000E+02
4879000000.000000      6.511536000000000E-01      1.436719000000000E+01      3.804626000000000E-01     -1.545938000000000E+02
4880000000.000000      6.517639000000000E-01      1.436182000000000E+01      3.773041000000000E-01     -1.551563000000000E+02
4881000000.000000      6.535034000000000E-01      1.425439000000000E+01      3.729095000000000E-01     -1.555312000000000E+02
4882000000.000000      6.563721000000000E-01      1.428076000000000E+01      3.679657000000000E-01     -1.562266000000000E+02
4883000000.000000      6.542358000000000E-01      1.400732000000000E+01      3.635559000000000E-01     -1.569687000000000E+02
4884000000.000000      6.581116000000000E-01      1.412842000000000E+01      3.591461000000000E-01     -1.574297000000000E+02
4885000000.000000      6.594543000000000E-01      1.382617000000000E+01      3.562317000000000E-01     -1.577188000000000E+02
4886000000.000000      6.594849000000000E-01      1.408154000000000E+01      3.511200000000000E-01     -1.578750000000000E+02
4887000000.000000      6.596375000000000E-01      1.379053000000000E+01      3.477173000000000E-01     -1.586016000000000E+02
4888000000.000000      6.625061000000000E-01      1.377393000000000E+01      3.434753000000000E-01     -1.594297000000000E+02
4889000000.000000      6.617432000000000E-01      1.380957000000000E+01      3.383636000000000E-01     -1.596797000000000E+02
4890000000.000000      6.622925000000000E-01      1.363916000000000E+01      3.336029000000000E-01     -1.603437000000000E+02
4891000000.000000      6.650085000000000E-01      1.335498000000000E+01      3.298950000000000E-01     -1.607344000000000E+02
4892000000.000000      6.656799000000000E-01      1.346094000000000E+01      3.259125000000000E-01     -1.607265000000000E+02
4893000000.000000      6.679993000000000E-01      1.325195000000000E+01      3.219299000000000E-01     -1.615078000000000E+02
4894000000.000000      6.685486000000000E-01      1.328613000000000E+01      3.169250000000000E-01     -1.615078000000000E+02
4895000000.000000      6.689148000000000E-01      1.310645000000000E+01      3.156433000000000E-01     -1.620234000000000E+02
4896000000.000000      6.709290000000000E-01      1.304736000000000E+01      3.113251000000000E-01     -1.622890000000000E+02
4897000000.000000      6.701050000000000E-01      1.296240000000000E+01      3.067017000000000E-01     -1.627578000000000E+02
4898000000.000000      6.719666000000000E-01      1.285645000000000E+01      3.036957000000000E-01     -1.629922000000000E+02
4899000000.000000      6.728516000000000E-01      1.296240000000000E+01      2.998810000000000E-01     -1.635859000000000E+02
4900000000.000000      6.714172000000000E-01      1.262451000000000E+01      2.960510000000000E-01     -1.638281000000000E+02
4901000000.000000      6.736450000000000E-01      1.257227000000000E+01      2.925873000000000E-01     -1.640000000000000E+02
4902000000.000000      6.755981000000000E-01      1.239258000000000E+01      2.890778000000000E-01     -1.642578000000000E+02
4903000000.000000      6.746216000000000E-01      1.229639000000000E+01      2.852020000000000E-01     -1.647031000000000E+02
4904000000.000000      6.763916000000000E-01      1.213672000000000E+01      2.810059000000000E-01     -1.650938000000000E+02
4905000000.000000      6.771545000000000E-01      1.214111000000000E+01      2.787018000000000E-01     -1.654687000000000E+02
4906000000.000000      6.762085000000000E-01      1.208740000000000E+01      2.744293000000000E-01     -1.654531000000000E+02
4907000000.000000      6.777344000000000E-01      1.183496000000000E+01      2.721252000000000E-01     -1.659219000000000E+02
4908000000.000000      6.803589000000000E-01      1.178809000000000E+01      2.685547000000000E-01     -1.664219000000000E+02
4909000000.000000      6.790161000000000E-01      1.167969000000000E+01      2.648010000000000E-01     -1.665547000000000E+02
4910000000.000000      6.795654000000000E-01      1.164551000000000E+01      2.612000000000000E-01     -1.669062000000000E+02
4911000000.000000      6.792908000000000E-01      1.153418000000000E+01      2.579346000000000E-01     -1.671250000000000E+02
4912000000.000000      6.798096000000000E-01      1.147656000000000E+01      2.546997000000000E-01     -1.674687000000000E+02
4913000000.000000      6.824036000000000E-01      1.128271000000000E+01      2.505341000000000E-01     -1.677891000000000E+02
4914000000.000000      6.824951000000000E-01      1.123877000000000E+01      2.473679000000000E-01     -1.679609000000000E+02
4915000000.000000      6.822205000000000E-01      1.117822000000000E+01      2.439041000000000E-01     -1.683125000000000E+02
4916000000.000000      6.822510000000000E-01      1.112207000000000E+01      2.405090000000000E-01     -1.687109000000000E+02
4917000000.000000      6.835632000000000E-01      1.110547000000000E+01      2.365952000000000E-01     -1.687656000000000E+02
4918000000.000000      6.866455000000000E-01      1.085303000000000E+01      2.324524000000000E-01     -1.690625000000000E+02
4919000000.000000      6.837158000000000E-01      1.077881000000000E+01      2.293015000000000E-01     -1.691328000000000E+02
4920000000.000000      6.854553000000000E-01      1.088867000000000E+01      2.252121000000000E-01     -1.697031000000000E+02
4921000000.000000      6.850586000000000E-01      1.062891000000000E+01      2.223663000000000E-01     -1.696484000000000E+02
4922000000.000000      6.875610000000000E-01      1.055371000000000E+01      2.183228000000000E-01     -1.698516000000000E+02
4923000000.000000      6.889954000000000E-01      1.045459000000000E+01      2.149429000000000E-01     -1.699375000000000E+02
4924000000.000000      6.891479000000000E-01      1.023193000000000E+01      2.106781000000000E-01     -1.704141000000000E+02
4925000000.000000      6.865540000000000E-01      1.030615000000000E+01      2.073746000000000E-01     -1.703594000000000E+02
4926000000.000000      6.890869000000000E-01      1.006738000000000E+01      2.037125000000000E-01     -1.704609000000000E+02
4927000000.000000      6.891174000000000E-01      9.902344000000000E+00      1.996613000000000E-01     -1.706875000000000E+02
4928000000.000000      6.900635000000000E-01      9.850586000000000E+00      1.960831000000000E-01     -1.706484000000000E+02
4929000000.000000      6.899414000000000E-01      9.812012000000000E+00      1.926117000000000E-01     -1.708281000000000E+02
4930000000.000000      6.904907000000000E-01      9.732422000000000E+00      1.885376000000000E-01     -1.708047000000000E+02
4931000000.000000      6.884460000000000E-01      9.585449000000000E+00      1.856995000000000E-01     -1.706172000000000E+02
4932000000.000000      6.906128000000000E-01      9.560547000000000E+00      1.811295000000000E-01     -1.706328000000000E+02
4933000000.000000      6.916199000000000E-01      9.331055000000000E+00      1.773987000000000E-01     -1.703828000000000E+02
4934000000.000000      6.934204000000000E-01      9.220215000000000E+00      1.738663000000000E-01     -1.702500000000000E+02
4935000000.000000      6.948242000000000E-01      9.152832000000000E+00      1.706619000000000E-01     -1.700234000000000E+02
4936000000.000000      6.921387000000000E-01      9.040039000000000E+00      1.665421000000000E-01     -1.700469000000000E+02
4937000000.000000      6.943665000000000E-01      9.107422000000000E+00      1.626358000000000E-01     -1.697422000000000E+02
4938000000.000000      6.926270000000000E-01      8.931641000000000E+00      1.597443000000000E-01     -1.693672000000000E+02
4939000000.000000      6.939392000000000E-01      8.852051000000000E+00      1.563644000000000E-01     -1.688203000000000E+02
4940000000.000000      6.947327000000000E-01      8.507324000000000E+00      1.518936000000000E-01     -1.687891000000000E+02
4941000000.000000      6.954346000000000E-01      8.559570000000000E+00      1.487579000000000E-01     -1.681328000000000E+02
4942000000.000000      6.943054000000000E-01      8.602051000000000E+00      1.453705000000000E-01     -1.674687000000000E+02
4943000000.000000      6.969910000000000E-01      8.537598000000000E+00      1.423264000000000E-01     -1.669765000000000E+02
4944000000.000000      6.961975000000000E-01      8.402832000000000E+00      1.389542000000000E-01     -1.661172000000000E+02
4945000000.000000      6.968079000000000E-01      8.261719000000000E+00      1.356735000000000E-01     -1.654375000000000E+02
4946000000.000000      6.987610000000000E-01      8.172363000000000E+00      1.328506000000000E-01     -1.645781000000000E+02
4947000000.000000      6.978149000000000E-01      8.077637000000000E+00      1.296768000000000E-01     -1.637500000000000E+02
4948000000.000000      6.987610000000000E-01      8.061035000000000E+00      1.265564000000000E-01     -1.626406000000000E+02
4949000000.000000      6.984863000000000E-01      7.774170000000000E+00      1.240158000000000E-01     -1.616250000000000E+02
4950000000.000000      6.990356000000000E-01      7.833252000000000E+00      1.211319000000000E-01     -1.603359000000000E+02
4951000000.000000      7.002869000000000E-01      7.635498000000000E+00      1.194229000000000E-01     -1.591484000000000E+02
4952000000.000000      6.989746000000000E-01      7.492676000000000E+00      1.163445000000000E-01     -1.578984000000000E+02
4953000000.000000      6.994629000000000E-01      7.290771000000000E+00      1.145020000000000E-01     -1.563594000000000E+02
4954000000.000000      7.023621000000000E-01      7.378662000000000E+00      1.123886000000000E-01     -1.550859000000000E+02
