! Network Analyzer HP8722D
! Hewlett-Packard
! Data name: Linha & Wilkinson
! Saver's name: Rodrigo Anjos
! Comments: Teste da utilização de aquisição
continua pelo VNA HP8722D
! Time and date: 23/5/2025 12:07
!              Frequency                     S11                                                   S21                                                   S12                                                   S22
# HZ  S  MA R 50
4800000000.000000      3.005219000000000E-01      3.841406000000000E+01      4.771271000000000E-01     -1.286406000000000E+02
4801000000.000000      3.010254000000000E-01      3.868750000000000E+01      4.786835000000000E-01     -1.293750000000000E+02
4802000000.000000      3.023682000000000E-01      3.886133000000000E+01      4.808197000000000E-01     -1.299687000000000E+02
4803000000.000000      3.032379000000000E-01      3.902148000000000E+01      4.845123000000000E-01     -1.306719000000000E+02
4804000000.000000      3.040314000000000E-01      3.928711000000000E+01      4.839020000000000E-01     -1.314922000000000E+02
4805000000.000000      3.059845000000000E-01      3.928906000000000E+01      4.854889000000000E-01     -1.323125000000000E+02
4806000000.000000      3.066101000000000E-01      3.956055000000000E+01      4.865723000000000E-01     -1.329219000000000E+02
4807000000.000000      3.079987000000000E-01      3.975390000000000E+01      4.879150000000000E-01     -1.339375000000000E+02
4808000000.000000      3.089142000000000E-01      3.989453000000000E+01      4.880066000000000E-01     -1.344063000000000E+02
4809000000.000000      3.102417000000000E-01      4.012500000000000E+01      4.897766000000000E-01     -1.353984000000000E+02
4810000000.000000      3.119049000000000E-01      4.027148000000000E+01      4.920349000000000E-01     -1.359062000000000E+02
4811000000.000000      3.140106000000000E-01      4.030663000000000E+01      4.933777000000000E-01     -1.366719000000000E+02
4812000000.000000      3.156281000000000E-01      4.055273000000000E+01      4.932251000000000E-01     -1.375625000000000E+02
4813000000.000000      3.164215000000000E-01      4.064453000000000E+01      4.940491000000000E-01     -1.382031000000000E+02
4814000000.000000      3.178101000000000E-01      4.069336000000000E+01      4.949341000000000E-01     -1.388125000000000E+02
4815000000.000000      3.191986000000000E-01      4.080664000000000E+01      4.947510000000000E-01     -1.395078000000000E+02
4816000000.000000      3.214874000000000E-01      4.093946000000000E+01      4.977570000000000E-01     -1.403828000000000E+02
4817000000.000000      3.228912000000000E-01      4.109179000000000E+01      4.967194000000000E-01     -1.410156000000000E+02
4818000000.000000      3.242035000000000E-01      4.105273000000000E+01      4.977112000000000E-01     -1.418750000000000E+02
4819000000.000000      3.263550000000000E-01      4.109961000000000E+01      4.969635000000000E-01     -1.424453000000000E+02
4820000000.000000      3.277283000000000E-01      4.116406000000000E+01      4.973297000000000E-01     -1.431641000000000E+02
4821000000.000000      3.302460000000000E-01      4.122851000000000E+01      4.977264000000000E-01     -1.439141000000000E+02
4822000000.000000      3.308716000000000E-01      4.109961000000000E+01      4.953766000000000E-01     -1.446172000000000E+02
4823000000.000000      3.328857000000000E-01      4.116796000000000E+01      4.980316000000000E-01     -1.454062000000000E+02
4824000000.000000      3.348083000000000E-01      4.133203000000000E+01      4.967651000000000E-01     -1.462969000000000E+02
4825000000.000000      3.366547000000000E-01      4.112305000000000E+01      4.968262000000000E-01     -1.469609000000000E+02
4826000000.000000      3.378143000000000E-01      4.111328000000000E+01      4.973145000000000E-01     -1.476641000000000E+02
4827000000.000000      3.402100000000000E-01      4.112305000000000E+01      4.964752000000000E-01     -1.482969000000000E+02
4828000000.000000      3.421783000000000E-01      4.112695000000000E+01      4.965820000000000E-01     -1.491328000000000E+02
4829000000.000000      3.435059000000000E-01      4.115624000000000E+01      4.963837000000000E-01     -1.497578000000000E+02
4830000000.000000      3.450165000000000E-01      4.100195000000000E+01      4.948273000000000E-01     -1.505078000000000E+02
4831000000.000000      3.462219000000000E-01      4.095703000000000E+01      4.940338000000000E-01     -1.512891000000000E+02
4832000000.000000      3.480682000000000E-01      4.095312000000000E+01      4.933472000000000E-01     -1.518906000000000E+02
4833000000.000000      3.495026000000000E-01      4.079687000000000E+01      4.938049000000000E-01     -1.526016000000000E+02
4834000000.000000      3.519440000000000E-01      4.067773000000000E+01      4.923401000000000E-01     -1.533047000000000E+02
4835000000.000000      3.540802000000000E-01      4.057422000000000E+01      4.927826000000000E-01     -1.540469000000000E+02
4836000000.000000      3.553925000000000E-01      4.050195000000000E+01      4.895020000000000E-01     -1.547969000000000E+02
4837000000.000000      3.574677000000000E-01      4.048437000000000E+01      4.898224000000000E-01     -1.558047000000000E+02
4838000000.000000      3.580017000000000E-01      4.019921000000000E+01      4.881439000000000E-01     -1.560859000000000E+02
4839000000.000000      3.614197000000000E-01      4.025391000000000E+01      4.877777000000000E-01     -1.568438000000000E+02
4840000000.000000      3.619995000000000E-01      3.988672000000000E+01      4.860992000000000E-01     -1.576328000000000E+02
4841000000.000000      3.643188000000000E-01      3.992383000000000E+01      4.864044000000000E-01     -1.583281000000000E+02
4842000000.000000      3.651123000000000E-01      3.964648000000000E+01      4.838715000000000E-01     -1.590312000000000E+02
4843000000.000000      3.678284000000000E-01      3.948047000000000E+01      4.819183000000000E-01     -1.598984000000000E+02
4844000000.000000      3.688354000000000E-01      3.925976000000000E+01      4.825592000000000E-01     -1.607500000000000E+02
4845000000.000000      3.703308000000000E-01      3.923437000000000E+01      4.808960000000000E-01     -1.611328000000000E+02
4846000000.000000      3.723297000000000E-01      3.910742000000000E+01      4.780121000000000E-01     -1.619297000000000E+02
4847000000.000000      3.738861000000000E-01      3.897070000000000E+01      4.765015000000000E-01     -1.626172000000000E+02
4848000000.000000      3.744965000000000E-01      3.867188000000000E+01      4.727936000000000E-01     -1.633125000000000E+02
4849000000.000000      3.759766000000000E-01      3.835742000000000E+01      4.732056000000000E-01     -1.640781000000000E+02
4850000000.000000      3.775635000000000E-01      3.817968000000000E+01      4.712830000000000E-01     -1.648203000000000E+02
4851000000.000000      3.787384000000000E-01      3.821484000000000E+01      4.692535000000000E-01     -1.655000000000000E+02
4852000000.000000      3.806000000000000E-01      3.799023000000000E+01      4.677582000000000E-01     -1.662656000000000E+02
4853000000.000000      3.815460000000000E-01      3.770898000000000E+01      4.644470000000000E-01     -1.668828000000000E+02
4854000000.000000      3.826752000000000E-01      3.750000000000000E+01      4.624329000000000E-01     -1.676641000000000E+02
4855000000.000000      3.840179000000000E-01      3.730664000000000E+01      4.611664000000000E-01     -1.683594000000000E+02
4856000000.000000      3.852234000000000E-01      3.701562000000000E+01      4.583282000000000E-01     -1.690234000000000E+02
4857000000.000000      3.863525000000000E-01      3.686132000000000E+01      4.560547000000000E-01     -1.696563000000000E+02
4858000000.000000      3.872070000000000E-01      3.660351000000000E+01      4.551544000000000E-01     -1.705000000000000E+02
4859000000.000000      3.882751000000000E-01      3.630664000000000E+01      4.533539000000000E-01     -1.710781000000000E+02
4860000000.000000      3.895264000000000E-01      3.618359000000000E+01      4.490509000000000E-01     -1.716250000000000E+02
4861000000.000000      3.905029000000000E-01      3.595117000000000E+01      4.482269000000000E-01     -1.725000000000000E+02
4862000000.000000      3.906860000000000E-01      3.566406000000000E+01      4.454346000000000E-01     -1.729609000000000E+02
4863000000.000000      3.923187000000000E-01      3.547461000000000E+01      4.411774000000000E-01     -1.738359000000000E+02
4864000000.000000      3.931122000000000E-01      3.516992000000000E+01      4.392700000000000E-01     -1.743750000000000E+02
4865000000.000000      3.937531000000000E-01      3.490820000000000E+01      4.350433000000000E-01     -1.751172000000000E+02
4866000000.000000      3.942871000000000E-01      3.452929000000000E+01      4.325256000000000E-01     -1.756719000000000E+02
4867000000.000000      3.949127000000000E-01      3.445117000000000E+01      4.300537000000000E-01     -1.765859000000000E+02
4868000000.000000      3.968811000000000E-01      3.422461000000000E+01      4.275513000000000E-01     -1.770000000000000E+02
4869000000.000000      3.966064000000000E-01      3.404882000000000E+01      4.243927000000000E-01     -1.779453000000000E+02
4870000000.000000      3.975830000000000E-01      3.384766000000000E+01      4.201508000000000E-01     -1.782656000000000E+02
4871000000.000000      3.974609000000000E-01      3.335938000000000E+01      4.174957000000000E-01     -1.791250000000000E+02
4872000000.000000      3.996582000000000E-01      3.325000000000000E+01      4.132996000000000E-01     -1.796328000000000E+02
4873000000.000000      3.988190000000000E-01      3.299414000000000E+01      4.102173000000000E-01      1.797109000000000E+02
4874000000.000000      4.001465000000000E-01      3.274023000000000E+01      4.064178000000000E-01      1.791016000000000E+02
4875000000.000000      4.007874000000000E-01      3.239843000000000E+01      4.029236000000000E-01      1.787344000000000E+02
4876000000.000000      4.008789000000000E-01      3.239843000000000E+01      3.999939000000000E-01      1.776797000000000E+02
4877000000.000000      4.015808000000000E-01      3.183203000000000E+01      3.968201000000000E-01      1.773203000000000E+02
4878000000.000000      4.016571000000000E-01      3.175976000000000E+01      3.932648000000000E-01      1.767812000000000E+02
4879000000.000000      4.036102000000000E-01      3.158789000000000E+01      3.896027000000000E-01      1.763281000000000E+02
4880000000.000000      4.034119000000000E-01      3.126660000000000E+01      3.872223000000000E-01      1.756719000000000E+02
4881000000.000000      4.025116000000000E-01      3.097851000000000E+01      3.843689000000000E-01      1.752500000000000E+02
4882000000.000000      4.038849000000000E-01      3.086719000000000E+01      3.807831000000000E-01      1.746172000000000E+02
4883000000.000000      4.031982000000000E-01      3.051562000000000E+01      3.759918000000000E-01      1.741328000000000E+02
4884000000.000000      4.041901000000000E-01      3.036328000000000E+01      3.717346000000000E-01      1.735781000000000E+02
4885000000.000000      4.043884000000000E-01      3.003320000000000E+01      3.681335000000000E-01      1.732500000000000E+02
4886000000.000000      4.052429000000000E-01      2.988672000000000E+01      3.653107000000000E-01      1.728594000000000E+02
4887000000.000000      4.043274000000000E-01      2.949804000000000E+01      3.620148000000000E-01      1.721172000000000E+02
4888000000.000000      4.043732000000000E-01      2.923535000000000E+01      3.587646000000000E-01      1.717187000000000E+02
4889000000.000000      4.050140000000000E-01      2.911230000000000E+01      3.549500000000000E-01      1.712109000000000E+02
4890000000.000000      4.040985000000000E-01      2.884180000000000E+01      3.526306000000000E-01      1.705234000000000E+02
4891000000.000000      4.058838000000000E-01      2.868359000000000E+01      3.470612000000000E-01      1.701797000000000E+02
4892000000.000000      4.042664000000000E-01      2.837011000000000E+01      3.436432000000000E-01      1.699687000000000E+02
4893000000.000000      4.048920000000000E-01      2.816113000000000E+01      3.395538000000000E-01      1.693438000000000E+02
4894000000.000000      4.051971000000000E-01      2.802148000000000E+01      3.367462000000000E-01      1.690234000000000E+02
4895000000.000000      4.051819000000000E-01      2.776172000000000E+01      3.342743000000000E-01      1.684062000000000E+02
4896000000.000000      4.044037000000000E-01      2.748437000000000E+01      3.300171000000000E-01      1.680938000000000E+02
4897000000.000000      4.047699000000000E-01      2.735937000000000E+01      3.265228000000000E-01      1.676016000000000E+02
4898000000.000000      4.044952000000000E-01      2.705469000000000E+01      3.243866000000000E-01      1.672812000000000E+02
4899000000.000000      4.042206000000000E-01      2.692285000000000E+01      3.195038000000000E-01      1.666719000000000E+02
4900000000.000000      4.048920000000000E-01      2.675488000000000E+01      3.168030000000000E-01      1.665078000000000E+02
4901000000.000000      4.046326000000000E-01      2.632421000000000E+01      3.131409000000000E-01      1.660938000000000E+02
4902000000.000000      4.048004000000000E-01      2.622949000000000E+01      3.101349000000000E-01      1.657891000000000E+02
4903000000.000000      4.047089000000000E-01      2.618261000000000E+01      3.066864000000000E-01      1.651094000000000E+02
4904000000.000000      4.042816000000000E-01      2.585351000000000E+01      3.025665000000000E-01      1.647578000000000E+02
4905000000.000000      4.030762000000000E-01      2.564160000000000E+01      2.995758000000000E-01      1.644140000000000E+02
4906000000.000000      4.038086000000000E-01      2.550976000000000E+01      2.965546000000000E-01      1.643047000000000E+02
4907000000.000000      4.029541000000000E-01      2.517480000000000E+01      2.936554000000000E-01      1.636172000000000E+02
4908000000.000000      4.038391000000000E-01      2.495214000000000E+01      2.898254000000000E-01      1.633359000000000E+02
4909000000.000000      4.026184000000000E-01      2.484277000000000E+01      2.860718000000000E-01      1.629375000000000E+02
4910000000.000000      4.020386000000000E-01      2.459277000000000E+01      2.830505000000000E-01      1.626094000000000E+02
4911000000.000000      4.029541000000000E-01      2.458593000000000E+01      2.789154000000000E-01      1.623047000000000E+02
4912000000.000000      4.013977000000000E-01      2.442480000000000E+01      2.753143000000000E-01      1.617812000000000E+02
4913000000.000000      4.024963000000000E-01      2.402929000000000E+01      2.721863000000000E-01      1.615078000000000E+02
4914000000.000000      4.014740000000000E-01      2.371387000000000E+01      2.682648000000000E-01      1.613203000000000E+02
4915000000.000000      4.014587000000000E-01      2.370508000000000E+01      2.645874000000000E-01      1.607578000000000E+02
4916000000.000000      4.015045000000000E-01      2.363476000000000E+01      2.614136000000000E-01      1.603906000000000E+02
4917000000.000000      4.009094000000000E-01      2.342968000000000E+01      2.575836000000000E-01      1.602031000000000E+02
4918000000.000000      4.008331000000000E-01      2.311621000000000E+01      2.537079000000000E-01      1.597031000000000E+02
4919000000.000000      4.000397000000000E-01      2.301758000000000E+01      2.507935000000000E-01      1.597109000000000E+02
4920000000.000000      4.010010000000000E-01      2.275097000000000E+01      2.461777000000000E-01      1.590469000000000E+02
4921000000.000000      3.995056000000000E-01      2.272754000000000E+01      2.433395000000000E-01      1.589609000000000E+02
4922000000.000000      3.998871000000000E-01      2.269824000000000E+01      2.390289000000000E-01      1.589375000000000E+02
4923000000.000000      3.993225000000000E-01      2.233105000000000E+01      2.351227000000000E-01      1.585234000000000E+02
4924000000.000000      3.997955000000000E-01      2.229785000000000E+01      2.308197000000000E-01      1.580937000000000E+02
4925000000.000000      3.988953000000000E-01      2.207617000000000E+01      2.271500000000000E-01      1.580859000000000E+02
4926000000.000000      3.992920000000000E-01      2.188867000000000E+01      2.233276000000000E-01      1.577031000000000E+02
4927000000.000000      3.984528000000000E-01      2.159570000000000E+01      2.189331000000000E-01      1.575469000000000E+02
4928000000.000000      3.988800000000000E-01      2.144043000000000E+01      2.157669000000000E-01      1.575625000000000E+02
4929000000.000000      3.987274000000000E-01      2.142188000000000E+01      2.112885000000000E-01      1.574844000000000E+02
4930000000.000000      3.984375000000000E-01      2.136621000000000E+01      2.075119000000000E-01      1.572344000000000E+02
4931000000.000000      3.971710000000000E-01      2.095410000000000E+01      2.043152000000000E-01      1.571016000000000E+02
4932000000.000000      3.988037000000000E-01      2.085156000000000E+01      1.994781000000000E-01      1.570391000000000E+02
4933000000.000000      3.981018000000000E-01      2.081055000000000E+01      1.949463000000000E-01      1.573047000000000E+02
4934000000.000000      3.978577000000000E-01      2.034082000000000E+01      1.916809000000000E-01      1.571640000000000E+02
4935000000.000000      3.975677000000000E-01      2.034180000000000E+01      1.876068000000000E-01      1.572891000000000E+02
4936000000.000000      3.963623000000000E-01      2.020312000000000E+01      1.838608000000000E-01      1.574531000000000E+02
4937000000.000000      3.960419000000000E-01      2.003711000000000E+01      1.791306000000000E-01      1.574219000000000E+02
4938000000.000000      3.958588000000000E-01      1.986426000000000E+01      1.764221000000000E-01      1.576641000000000E+02
4939000000.000000      3.957672000000000E-01      1.961523000000000E+01      1.721802000000000E-01      1.580547000000000E+02
4940000000.000000      3.956757000000000E-01      1.949902000000000E+01      1.681595000000000E-01      1.581953000000000E+02
4941000000.000000      3.961487000000000E-01      1.923144000000000E+01      1.646881000000000E-01      1.586953000000000E+02
4942000000.000000      3.950653000000000E-01      1.918262000000000E+01      1.601410000000000E-01      1.591406000000000E+02
4943000000.000000      3.944244000000000E-01      1.896777000000000E+01      1.571808000000000E-01      1.594922000000000E+02
4944000000.000000      3.946686000000000E-01      1.877148000000000E+01      1.537399000000000E-01      1.601328000000000E+02
4945000000.000000      3.943176000000000E-01      1.867188000000000E+01      1.496048000000000E-01      1.607188000000000E+02
4946000000.000000      3.943176000000000E-01      1.860644000000000E+01      1.466293000000000E-01      1.612578000000000E+02
4947000000.000000      3.942108000000000E-01      1.832227000000000E+01      1.426392000000000E-01      1.621406000000000E+02
4948000000.000000      3.939209000000000E-01      1.816406000000000E+01      1.394730000000000E-01      1.629922000000000E+02
4949000000.000000      3.925629000000000E-01      1.798828000000000E+01      1.363297000000000E-01      1.641875000000000E+02
4950000000.000000      3.936615000000000E-01      1.800781000000000E+01      1.337280000000000E-01      1.649531000000000E+02
4951000000.000000      3.934021000000000E-01      1.771484000000000E+01      1.304321000000000E-01      1.659141000000000E+02
4952000000.000000      3.925476000000000E-01      1.755566000000000E+01      1.276932000000000E-01      1.671484000000000E+02
4953000000.000000      3.921661000000000E-01      1.733496000000000E+01      1.254425000000000E-01      1.686172000000000E+02
4954000000.000000      3.921509000000000E-01      1.723730000000000E+01      1.230125000000000E-01      1.698516000000000E+02
