! Network Analyzer HP8722D
! Hewlett-Packard
! Data name: Linha & Wilkinson
! Saver's name: Rodrigo Anjos
! Comments: Teste da utilização de aquisição
continua pelo VNA HP8722D
! Time and date: 23/5/2025 08:34
!              Frequency                     S11                                                   S21                                                   S12                                                   S22
# HZ  S  MA R 50
4800000000.000000      3.791656000000000E-01      3.153320000000000E+01      4.414215000000000E-01     -1.224922000000000E+02
4801000000.000000      3.794098000000000E-01      3.172558000000000E+01      4.418640000000000E-01     -1.232656000000000E+02
4802000000.000000      3.800964000000000E-01      3.187402000000000E+01      4.432983000000000E-01     -1.236211000000000E+02
4803000000.000000      3.800812000000000E-01      3.201953000000000E+01      4.470367000000000E-01     -1.246562000000000E+02
4804000000.000000      3.805542000000000E-01      3.219141000000000E+01      4.472198000000000E-01     -1.251719000000000E+02
4805000000.000000      3.821869000000000E-01      3.221094000000000E+01      4.490051000000000E-01     -1.259687000000000E+02
4806000000.000000      3.815308000000000E-01      3.238086000000000E+01      4.509125000000000E-01     -1.267188000000000E+02
4807000000.000000      3.827667000000000E-01      3.244336000000000E+01      4.515686000000000E-01     -1.275781000000000E+02
4808000000.000000      3.825684000000000E-01      3.262500000000000E+01      4.527740000000000E-01     -1.281172000000000E+02
4809000000.000000      3.838043000000000E-01      3.284765000000000E+01      4.535522000000000E-01     -1.290859000000000E+02
4810000000.000000      3.842621000000000E-01      3.302539000000000E+01      4.553223000000000E-01     -1.296641000000000E+02
4811000000.000000      3.855438000000000E-01      3.317773000000000E+01      4.567413000000000E-01     -1.304062000000000E+02
4812000000.000000      3.870087000000000E-01      3.331055000000000E+01      4.589386000000000E-01     -1.312031000000000E+02
4813000000.000000      3.869781000000000E-01      3.343750000000000E+01      4.587708000000000E-01     -1.321328000000000E+02
4814000000.000000      3.876801000000000E-01      3.345117000000000E+01      4.587250000000000E-01     -1.324844000000000E+02
4815000000.000000      3.887177000000000E-01      3.364062000000000E+01      4.591980000000000E-01     -1.333984000000000E+02
4816000000.000000      3.903046000000000E-01      3.374023000000000E+01      4.604797000000000E-01     -1.340312000000000E+02
4817000000.000000      3.910065000000000E-01      3.388086000000000E+01      4.597931000000000E-01     -1.348984000000000E+02
4818000000.000000      3.921814000000000E-01      3.388867000000000E+01      4.602203000000000E-01     -1.356797000000000E+02
4819000000.000000      3.937531000000000E-01      3.397461000000000E+01      4.597168000000000E-01     -1.362890000000000E+02
4820000000.000000      3.933563000000000E-01      3.409375000000000E+01      4.609833000000000E-01     -1.367578000000000E+02
4821000000.000000      3.958282000000000E-01      3.422070000000000E+01      4.617767000000000E-01     -1.378125000000000E+02
4822000000.000000      3.963776000000000E-01      3.415039000000000E+01      4.613037000000000E-01     -1.385156000000000E+02
4823000000.000000      3.977203000000000E-01      3.418359000000000E+01      4.615784000000000E-01     -1.391016000000000E+02
4824000000.000000      3.992004000000000E-01      3.437891000000000E+01      4.616852000000000E-01     -1.399453000000000E+02
4825000000.000000      4.006042000000000E-01      3.434765000000000E+01      4.613495000000000E-01     -1.405234000000000E+02
4826000000.000000      4.022675000000000E-01      3.425976000000000E+01      4.608917000000000E-01     -1.414219000000000E+02
4827000000.000000      4.035034000000000E-01      3.436523000000000E+01      4.611969000000000E-01     -1.420000000000000E+02
4828000000.000000      4.049988000000000E-01      3.435547000000000E+01      4.619751000000000E-01     -1.427031000000000E+02
4829000000.000000      4.071503000000000E-01      3.444726000000000E+01      4.622650000000000E-01     -1.435391000000000E+02
4830000000.000000      4.074249000000000E-01      3.439648000000000E+01      4.606781000000000E-01     -1.440547000000000E+02
4831000000.000000      4.089203000000000E-01      3.444726000000000E+01      4.597931000000000E-01     -1.450859000000000E+02
4832000000.000000      4.099426000000000E-01      3.452539000000000E+01      4.584961000000000E-01     -1.457969000000000E+02
4833000000.000000      4.110260000000000E-01      3.433203000000000E+01      4.583435000000000E-01     -1.463438000000000E+02
4834000000.000000      4.128723000000000E-01      3.439062000000000E+01      4.580841000000000E-01     -1.471562000000000E+02
4835000000.000000      4.154816000000000E-01      3.435742000000000E+01      4.584503000000000E-01     -1.478984000000000E+02
4836000000.000000      4.159698000000000E-01      3.437304000000000E+01      4.557495000000000E-01     -1.485781000000000E+02
4837000000.000000      4.173126000000000E-01      3.448047000000000E+01      4.551544000000000E-01     -1.496094000000000E+02
4838000000.000000      4.183960000000000E-01      3.426758000000000E+01      4.560089000000000E-01     -1.499375000000000E+02
4839000000.000000      4.216766000000000E-01      3.427343000000000E+01      4.541473000000000E-01     -1.507891000000000E+02
4840000000.000000      4.220123000000000E-01      3.414258000000000E+01      4.535065000000000E-01     -1.516250000000000E+02
4841000000.000000      4.233704000000000E-01      3.422266000000000E+01      4.531403000000000E-01     -1.522031000000000E+02
4842000000.000000      4.240723000000000E-01      3.405468000000000E+01      4.507599000000000E-01     -1.528984000000000E+02
4843000000.000000      4.271240000000000E-01      3.398046000000000E+01      4.506226000000000E-01     -1.538047000000000E+02
4844000000.000000      4.280853000000000E-01      3.387890000000000E+01      4.494171000000000E-01     -1.544688000000000E+02
4845000000.000000      4.288025000000000E-01      3.396093000000000E+01      4.484100000000000E-01     -1.551563000000000E+02
4846000000.000000      4.310913000000000E-01      3.372265000000000E+01      4.457550000000000E-01     -1.558984000000000E+02
4847000000.000000      4.321747000000000E-01      3.374023000000000E+01      4.460449000000000E-01     -1.564609000000000E+02
4848000000.000000      4.330597000000000E-01      3.348633000000000E+01      4.416809000000000E-01     -1.572500000000000E+02
4849000000.000000      4.347992000000000E-01      3.339844000000000E+01      4.431915000000000E-01     -1.581172000000000E+02
4850000000.000000      4.359131000000000E-01      3.324023000000000E+01      4.403381000000000E-01     -1.587422000000000E+02
4851000000.000000      4.377441000000000E-01      3.322656000000000E+01      4.398804000000000E-01     -1.594453000000000E+02
4852000000.000000      4.391632000000000E-01      3.300000000000000E+01      4.371338000000000E-01     -1.601563000000000E+02
4853000000.000000      4.405060000000000E-01      3.300000000000000E+01      4.341125000000000E-01     -1.608672000000000E+02
4854000000.000000      4.415131000000000E-01      3.280078000000000E+01      4.322510000000000E-01     -1.618203000000000E+02
4855000000.000000      4.423065000000000E-01      3.271289000000000E+01      4.311829000000000E-01     -1.625156000000000E+02
4856000000.000000      4.440765000000000E-01      3.252344000000000E+01      4.291229000000000E-01     -1.631562000000000E+02
4857000000.000000      4.464569000000000E-01      3.230664000000000E+01      4.276276000000000E-01     -1.639609000000000E+02
4858000000.000000      4.468079000000000E-01      3.218945000000000E+01      4.252777000000000E-01     -1.645625000000000E+02
4859000000.000000      4.479523000000000E-01      3.193652000000000E+01      4.240417000000000E-01     -1.655547000000000E+02
4860000000.000000      4.494019000000000E-01      3.193652000000000E+01      4.206848000000000E-01     -1.661797000000000E+02
4861000000.000000      4.500885000000000E-01      3.181347000000000E+01      4.189758000000000E-01     -1.668359000000000E+02
4862000000.000000      4.501190000000000E-01      3.153711000000000E+01      4.162445000000000E-01     -1.675000000000000E+02
4863000000.000000      4.520264000000000E-01      3.150293000000000E+01      4.124603000000000E-01     -1.681797000000000E+02
4864000000.000000      4.536285000000000E-01      3.119238000000000E+01      4.099731000000000E-01     -1.687656000000000E+02
4865000000.000000      4.546509000000000E-01      3.106934000000000E+01      4.079590000000000E-01     -1.693750000000000E+02
4866000000.000000      4.550171000000000E-01      3.082715000000000E+01      4.033966000000000E-01     -1.702812000000000E+02
4867000000.000000      4.551239000000000E-01      3.082422000000000E+01      4.022369000000000E-01     -1.709922000000000E+02
4868000000.000000      4.577789000000000E-01      3.052343000000000E+01      3.984528000000000E-01     -1.717969000000000E+02
4869000000.000000      4.571533000000000E-01      3.025195000000000E+01      3.964081000000000E-01     -1.724453000000000E+02
4870000000.000000      4.584656000000000E-01      3.020801000000000E+01      3.926697000000000E-01     -1.729453000000000E+02
4871000000.000000      4.591370000000000E-01      2.989843000000000E+01      3.903503000000000E-01     -1.736797000000000E+02
4872000000.000000      4.623413000000000E-01      2.982031000000000E+01      3.849030000000000E-01     -1.741016000000000E+02
4873000000.000000      4.608002000000000E-01      2.977148000000000E+01      3.828278000000000E-01     -1.749453000000000E+02
4874000000.000000      4.614563000000000E-01      2.942871000000000E+01      3.788605000000000E-01     -1.757422000000000E+02
4875000000.000000      4.611816000000000E-01      2.920019000000000E+01      3.767090000000000E-01     -1.762578000000000E+02
4876000000.000000      4.641724000000000E-01      2.924121000000000E+01      3.731842000000000E-01     -1.768203000000000E+02
4877000000.000000      4.648132000000000E-01      2.902441000000000E+01      3.681335000000000E-01     -1.773672000000000E+02
4878000000.000000      4.637299000000000E-01      2.871484000000000E+01      3.665924000000000E-01     -1.780391000000000E+02
4879000000.000000      4.649658000000000E-01      2.871777000000000E+01      3.623810000000000E-01     -1.785859000000000E+02
4880000000.000000      4.654388000000000E-01      2.836719000000000E+01      3.591003000000000E-01     -1.790234000000000E+02
4881000000.000000      4.669647000000000E-01      2.813965000000000E+01      3.567505000000000E-01     -1.797578000000000E+02
4882000000.000000      4.665375000000000E-01      2.796093000000000E+01      3.523407000000000E-01      1.799687000000000E+02
4883000000.000000      4.666138000000000E-01      2.796387000000000E+01      3.494110000000000E-01      1.792266000000000E+02
4884000000.000000      4.663544000000000E-01      2.782812000000000E+01      3.446655000000000E-01      1.787500000000000E+02
4885000000.000000      4.683075000000000E-01      2.758789000000000E+01      3.412933000000000E-01      1.784688000000000E+02
4886000000.000000      4.671936000000000E-01      2.714160000000000E+01      3.391113000000000E-01      1.780000000000000E+02
4887000000.000000      4.685516000000000E-01      2.699316000000000E+01      3.350830000000000E-01      1.775547000000000E+02
4888000000.000000      4.685669000000000E-01      2.684863000000000E+01      3.325500000000000E-01      1.770078000000000E+02
4889000000.000000      4.690857000000000E-01      2.666699000000000E+01      3.279266000000000E-01      1.762500000000000E+02
4890000000.000000      4.684143000000000E-01      2.641992000000000E+01      3.251953000000000E-01      1.756328000000000E+02
4891000000.000000      4.711304000000000E-01      2.630859000000000E+01      3.215332000000000E-01      1.753359000000000E+02
4892000000.000000      4.696960000000000E-01      2.632519000000000E+01      3.187408000000000E-01      1.750000000000000E+02
4893000000.000000      4.715881000000000E-01      2.605957000000000E+01      3.149414000000000E-01      1.744375000000000E+02
4894000000.000000      4.696655000000000E-01      2.596289000000000E+01      3.120270000000000E-01      1.740625000000000E+02
4895000000.000000      4.717102000000000E-01      2.539746000000000E+01      3.097382000000000E-01      1.736328000000000E+02
4896000000.000000      4.712677000000000E-01      2.537402000000000E+01      3.053894000000000E-01      1.732422000000000E+02
4897000000.000000      4.694519000000000E-01      2.531445000000000E+01      3.016663000000000E-01      1.728047000000000E+02
4898000000.000000      4.711609000000000E-01      2.511035000000000E+01      2.987366000000000E-01      1.724688000000000E+02
4899000000.000000      4.709015000000000E-01      2.493164000000000E+01      2.951508000000000E-01      1.719063000000000E+02
4900000000.000000      4.705505000000000E-01      2.466797000000000E+01      2.920685000000000E-01      1.716719000000000E+02
4901000000.000000      4.707031000000000E-01      2.454199000000000E+01      2.889862000000000E-01      1.712500000000000E+02
4902000000.000000      4.715424000000000E-01      2.430371000000000E+01      2.855988000000000E-01      1.708750000000000E+02
4903000000.000000      4.721680000000000E-01      2.426855000000000E+01      2.815094000000000E-01      1.704375000000000E+02
4904000000.000000      4.740601000000000E-01      2.408594000000000E+01      2.788849000000000E-01      1.700938000000000E+02
4905000000.000000      4.729156000000000E-01      2.390039000000000E+01      2.762146000000000E-01      1.696094000000000E+02
4906000000.000000      4.715729000000000E-01      2.366992000000000E+01      2.726593000000000E-01      1.696875000000000E+02
4907000000.000000      4.739075000000000E-01      2.351269000000000E+01      2.700043000000000E-01      1.689766000000000E+02
4908000000.000000      4.731750000000000E-01      2.331836000000000E+01      2.667542000000000E-01      1.685078000000000E+02
4909000000.000000      4.705658000000000E-01      2.317285000000000E+01      2.629700000000000E-01      1.681641000000000E+02
4910000000.000000      4.715118000000000E-01      2.319140000000000E+01      2.596588000000000E-01      1.678906000000000E+02
4911000000.000000      4.732819000000000E-01      2.303906000000000E+01      2.568359000000000E-01      1.676406000000000E+02
4912000000.000000      4.710541000000000E-01      2.292090000000000E+01      2.535248000000000E-01      1.671406000000000E+02
4913000000.000000      4.714355000000000E-01      2.257129000000000E+01      2.504730000000000E-01      1.668125000000000E+02
4914000000.000000      4.724731000000000E-01      2.242774000000000E+01      2.463684000000000E-01      1.665937000000000E+02
4915000000.000000      4.713440000000000E-01      2.228027000000000E+01      2.433777000000000E-01      1.659609000000000E+02
4916000000.000000      4.726257000000000E-01      2.208496000000000E+01      2.396164000000000E-01      1.657266000000000E+02
4917000000.000000      4.733582000000000E-01      2.211621000000000E+01      2.362747000000000E-01      1.655156000000000E+02
4918000000.000000      4.717712000000000E-01      2.175781000000000E+01      2.323761000000000E-01      1.652109000000000E+02
4919000000.000000      4.715271000000000E-01      2.172266000000000E+01      2.294083000000000E-01      1.650938000000000E+02
4920000000.000000      4.720764000000000E-01      2.167969000000000E+01      2.256241000000000E-01      1.644375000000000E+02
4921000000.000000      4.709167000000000E-01      2.136523000000000E+01      2.227402000000000E-01      1.643281000000000E+02
4922000000.000000      4.726563000000000E-01      2.125098000000000E+01      2.190933000000000E-01      1.642891000000000E+02
4923000000.000000      4.730530000000000E-01      2.110058000000000E+01      2.149963000000000E-01      1.641562000000000E+02
4924000000.000000      4.715118000000000E-01      2.096289000000000E+01      2.109299000000000E-01      1.637187000000000E+02
4925000000.000000      4.700928000000000E-01      2.083398000000000E+01      2.078018000000000E-01      1.635313000000000E+02
4926000000.000000      4.713593000000000E-01      2.084179000000000E+01      2.042847000000000E-01      1.632734000000000E+02
4927000000.000000      4.700470000000000E-01      2.057812000000000E+01      2.003708000000000E-01      1.631172000000000E+02
4928000000.000000      4.714203000000000E-01      2.059082000000000E+01      1.971817000000000E-01      1.630547000000000E+02
4929000000.000000      4.701691000000000E-01      2.015527000000000E+01      1.933365000000000E-01      1.630000000000000E+02
4930000000.000000      4.702911000000000E-01      2.031641000000000E+01      1.897049000000000E-01      1.628047000000000E+02
4931000000.000000      4.709015000000000E-01      1.994531000000000E+01      1.865540000000000E-01      1.627891000000000E+02
4932000000.000000      4.720612000000000E-01      1.984668000000000E+01      1.823578000000000E-01      1.628125000000000E+02
4933000000.000000      4.698639000000000E-01      1.962793000000000E+01      1.783752000000000E-01      1.628515000000000E+02
4934000000.000000      4.710083000000000E-01      1.953418000000000E+01      1.747513000000000E-01      1.627812000000000E+02
4935000000.000000      4.717255000000000E-01      1.934668000000000E+01      1.712875000000000E-01      1.630703000000000E+02
4936000000.000000      4.708252000000000E-01      1.952539000000000E+01      1.678543000000000E-01      1.630078000000000E+02
4937000000.000000      4.707031000000000E-01      1.904687000000000E+01      1.642838000000000E-01      1.631953000000000E+02
4938000000.000000      4.693909000000000E-01      1.913769000000000E+01      1.608047000000000E-01      1.634453000000000E+02
4939000000.000000      4.694977000000000E-01      1.914453000000000E+01      1.574326000000000E-01      1.638906000000000E+02
4940000000.000000      4.688263000000000E-01      1.871777000000000E+01      1.534424000000000E-01      1.640234000000000E+02
4941000000.000000      4.689636000000000E-01      1.839160000000000E+01      1.501160000000000E-01      1.645000000000000E+02
4942000000.000000      4.691315000000000E-01      1.851563000000000E+01      1.467209000000000E-01      1.650547000000000E+02
4943000000.000000      4.689331000000000E-01      1.847558000000000E+01      1.432648000000000E-01      1.653750000000000E+02
4944000000.000000      4.689331000000000E-01      1.807226000000000E+01      1.401672000000000E-01      1.659922000000000E+02
4945000000.000000      4.694824000000000E-01      1.808594000000000E+01      1.366119000000000E-01      1.666641000000000E+02
4946000000.000000      4.684906000000000E-01      1.787012000000000E+01      1.336288000000000E-01      1.675469000000000E+02
4947000000.000000      4.682312000000000E-01      1.779297000000000E+01      1.302414000000000E-01      1.684297000000000E+02
4948000000.000000      4.681549000000000E-01      1.754590000000000E+01      1.274490000000000E-01      1.691094000000000E+02
4949000000.000000      4.685211000000000E-01      1.746484000000000E+01      1.246834000000000E-01      1.703359000000000E+02
4950000000.000000      4.683533000000000E-01      1.744824000000000E+01      1.217232000000000E-01      1.712344000000000E+02
4951000000.000000      4.686432000000000E-01      1.722168000000000E+01      1.195030000000000E-01      1.720547000000000E+02
4952000000.000000      4.682922000000000E-01      1.720801000000000E+01      1.169167000000000E-01      1.733281000000000E+02
4953000000.000000      4.670105000000000E-01      1.689941000000000E+01      1.150665000000000E-01      1.749453000000000E+02
4954000000.000000      4.673462000000000E-01      1.658301000000000E+01      1.123734000000000E-01      1.761094000000000E+02
