! Network Analyzer HP8722D
! Hewlett-Packard
! Data name: Linha & Wilkinson
! Saver's name: Rodrigo Anjos
! Comments: Teste da utilização de aquisição
continua pelo VNA HP8722D
! Time and date: 23/5/2025 14:34
!              Frequency                     S11                                                   S21                                                   S12                                                   S22
# HZ  S  MA R 50
4800000000.000000      2.913055000000000E-01      3.929883000000000E+01      4.818726000000000E-01     -1.292109000000000E+02
4801000000.000000      2.922974000000000E-01      3.952734000000000E+01      4.832001000000000E-01     -1.295625000000000E+02
4802000000.000000      2.935791000000000E-01      3.971484000000000E+01      4.840240000000000E-01     -1.304531000000000E+02
4803000000.000000      2.945557000000000E-01      3.986523000000000E+01      4.877167000000000E-01     -1.310313000000000E+02
4804000000.000000      2.954865000000000E-01      4.012304000000000E+01      4.889984000000000E-01     -1.318594000000000E+02
4805000000.000000      2.976837000000000E-01      4.027344000000000E+01      4.891357000000000E-01     -1.327031000000000E+02
4806000000.000000      2.978821000000000E-01      4.040625000000000E+01      4.918823000000000E-01     -1.333984000000000E+02
4807000000.000000      2.992554000000000E-01      4.068749000000000E+01      4.911957000000000E-01     -1.340781000000000E+02
4808000000.000000      3.004913000000000E-01      4.082617000000000E+01      4.939728000000000E-01     -1.347031000000000E+02
4809000000.000000      3.023529000000000E-01      4.102735000000000E+01      4.951630000000000E-01     -1.357109000000000E+02
4810000000.000000      3.037567000000000E-01      4.117773000000000E+01      4.966278000000000E-01     -1.361484000000000E+02
4811000000.000000      3.051910000000000E-01      4.125586000000000E+01      4.966736000000000E-01     -1.371172000000000E+02
4812000000.000000      3.073578000000000E-01      4.142774000000000E+01      4.982910000000000E-01     -1.377891000000000E+02
4813000000.000000      3.081665000000000E-01      4.161718000000000E+01      5.000916000000000E-01     -1.384140000000000E+02
4814000000.000000      3.100433000000000E-01      4.164063000000000E+01      5.004272000000000E-01     -1.390156000000000E+02
4815000000.000000      3.113861000000000E-01      4.179296000000000E+01      4.998322000000000E-01     -1.400000000000000E+02
4816000000.000000      3.136902000000000E-01      4.184375000000000E+01      5.024719000000000E-01     -1.406406000000000E+02
4817000000.000000      3.148651000000000E-01      4.200195000000000E+01      5.011902000000000E-01     -1.415156000000000E+02
4818000000.000000      3.162994000000000E-01      4.193749000000000E+01      5.004578000000000E-01     -1.422500000000000E+02
4819000000.000000      3.183594000000000E-01      4.200585000000000E+01      5.018005000000000E-01     -1.427813000000000E+02
4820000000.000000      3.191223000000000E-01      4.208203000000000E+01      5.017395000000000E-01     -1.435469000000000E+02
4821000000.000000      3.222504000000000E-01      4.220117000000000E+01      5.029297000000000E-01     -1.443359000000000E+02
4822000000.000000      3.228607000000000E-01      4.202538000000000E+01      5.011597000000000E-01     -1.450469000000000E+02
4823000000.000000      3.252411000000000E-01      4.202344000000000E+01      5.030823000000000E-01     -1.456875000000000E+02
4824000000.000000      3.268280000000000E-01      4.221484000000000E+01      5.023499000000000E-01     -1.466172000000000E+02
4825000000.000000      3.290405000000000E-01      4.203321000000000E+01      5.014038000000000E-01     -1.472734000000000E+02
4826000000.000000      3.303375000000000E-01      4.208984000000000E+01      5.028992000000000E-01     -1.480859000000000E+02
4827000000.000000      3.323517000000000E-01      4.200000000000000E+01      5.018921000000000E-01     -1.487031000000000E+02
4828000000.000000      3.352051000000000E-01      4.199219000000000E+01      5.029907000000000E-01     -1.494531000000000E+02
4829000000.000000      3.359680000000000E-01      4.205664000000000E+01      5.009766000000000E-01     -1.500703000000000E+02
4830000000.000000      3.381958000000000E-01      4.181641000000000E+01      5.000305000000000E-01     -1.510156000000000E+02
4831000000.000000      3.395691000000000E-01      4.179296000000000E+01      4.996643000000000E-01     -1.515703000000000E+02
4832000000.000000      3.418427000000000E-01      4.179688000000000E+01      4.982147000000000E-01     -1.522578000000000E+02
4833000000.000000      3.423004000000000E-01      4.153516000000000E+01      4.975128000000000E-01     -1.530547000000000E+02
4834000000.000000      3.443298000000000E-01      4.154297000000000E+01      4.975128000000000E-01     -1.537812000000000E+02
4835000000.000000      3.463440000000000E-01      4.141602000000000E+01      4.965515000000000E-01     -1.545000000000000E+02
4836000000.000000      3.483582000000000E-01      4.141015000000000E+01      4.936981000000000E-01     -1.552187000000000E+02
4837000000.000000      3.498230000000000E-01      4.134570000000000E+01      4.929810000000000E-01     -1.561094000000000E+02
4838000000.000000      3.507538000000000E-01      4.106835000000000E+01      4.934998000000000E-01     -1.566641000000000E+02
4839000000.000000      3.543243000000000E-01      4.101367000000000E+01      4.931641000000000E-01     -1.571797000000000E+02
4840000000.000000      3.550110000000000E-01      4.075000000000000E+01      4.921722000000000E-01     -1.580625000000000E+02
4841000000.000000      3.569336000000000E-01      4.078906000000000E+01      4.904938000000000E-01     -1.587422000000000E+02
4842000000.000000      3.581543000000000E-01      4.053124000000000E+01      4.894714000000000E-01     -1.593672000000000E+02
4843000000.000000      3.609619000000000E-01      4.018750000000000E+01      4.877625000000000E-01     -1.602813000000000E+02
4844000000.000000      3.615723000000000E-01      4.015038000000000E+01      4.871521000000000E-01     -1.609453000000000E+02
4845000000.000000      3.630524000000000E-01      4.004883000000000E+01      4.845123000000000E-01     -1.616250000000000E+02
4846000000.000000      3.650970000000000E-01      3.982226000000000E+01      4.827118000000000E-01     -1.621797000000000E+02
4847000000.000000      3.663788000000000E-01      3.974414000000000E+01      4.822083000000000E-01     -1.627734000000000E+02
4848000000.000000      3.672943000000000E-01      3.934570000000000E+01      4.783478000000000E-01     -1.636875000000000E+02
4849000000.000000      3.694000000000000E-01      3.900586000000000E+01      4.792480000000000E-01     -1.644219000000000E+02
4850000000.000000      3.699493000000000E-01      3.896093000000000E+01      4.747162000000000E-01     -1.651641000000000E+02
4851000000.000000      3.719025000000000E-01      3.887500000000000E+01      4.747162000000000E-01     -1.659219000000000E+02
4852000000.000000      3.734131000000000E-01      3.858398000000000E+01      4.718170000000000E-01     -1.665703000000000E+02
4853000000.000000      3.746338000000000E-01      3.833008000000000E+01      4.694214000000000E-01     -1.672500000000000E+02
4854000000.000000      3.759460000000000E-01      3.807812000000000E+01      4.672546000000000E-01     -1.679766000000000E+02
4855000000.000000      3.765411000000000E-01      3.795507000000000E+01      4.652405000000000E-01     -1.686484000000000E+02
4856000000.000000      3.776855000000000E-01      3.763086000000000E+01      4.636078000000000E-01     -1.692969000000000E+02
4857000000.000000      3.795929000000000E-01      3.744922000000000E+01      4.618988000000000E-01     -1.699375000000000E+02
4858000000.000000      3.797302000000000E-01      3.716211000000000E+01      4.588165000000000E-01     -1.706719000000000E+02
4859000000.000000      3.820343000000000E-01      3.691406000000000E+01      4.579315000000000E-01     -1.715859000000000E+02
4860000000.000000      3.820953000000000E-01      3.677343000000000E+01      4.540253000000000E-01     -1.721719000000000E+02
4861000000.000000      3.826752000000000E-01      3.652734000000000E+01      4.503021000000000E-01     -1.729141000000000E+02
4862000000.000000      3.834991000000000E-01      3.624218000000000E+01      4.486389000000000E-01     -1.735391000000000E+02
4863000000.000000      3.852081000000000E-01      3.608398000000000E+01      4.453278000000000E-01     -1.741172000000000E+02
4864000000.000000      3.861237000000000E-01      3.580664000000000E+01      4.439697000000000E-01     -1.747109000000000E+02
4865000000.000000      3.870087000000000E-01      3.538671000000000E+01      4.401245000000000E-01     -1.754219000000000E+02
4866000000.000000      3.876953000000000E-01      3.521484000000000E+01      4.361572000000000E-01     -1.761562000000000E+02
4867000000.000000      3.875732000000000E-01      3.505664000000000E+01      4.339905000000000E-01     -1.767031000000000E+02
4868000000.000000      3.895874000000000E-01      3.467382000000000E+01      4.319611000000000E-01     -1.776562000000000E+02
4869000000.000000      3.896484000000000E-01      3.450390000000000E+01      4.274597000000000E-01     -1.780547000000000E+02
4870000000.000000      3.899231000000000E-01      3.418750000000000E+01      4.249878000000000E-01     -1.785000000000000E+02
4871000000.000000      3.911438000000000E-01      3.389453000000000E+01      4.212799000000000E-01     -1.794141000000000E+02
4872000000.000000      3.925629000000000E-01      3.366406000000000E+01      4.181824000000000E-01     -1.799375000000000E+02
4873000000.000000      3.919983000000000E-01      3.339844000000000E+01      4.138641000000000E-01      1.791953000000000E+02
4874000000.000000      3.929901000000000E-01      3.313867000000000E+01      4.108276000000000E-01      1.788047000000000E+02
4875000000.000000      3.927307000000000E-01      3.292383000000000E+01      4.073029000000000E-01      1.782734000000000E+02
4876000000.000000      3.940735000000000E-01      3.282812000000000E+01      4.045868000000000E-01      1.776797000000000E+02
4877000000.000000      3.952179000000000E-01      3.225586000000000E+01      4.008789000000000E-01      1.769687000000000E+02
4878000000.000000      3.946228000000000E-01      3.202148000000000E+01      3.980865000000000E-01      1.763203000000000E+02
4879000000.000000      3.946075000000000E-01      3.197656000000000E+01      3.923950000000000E-01      1.760000000000000E+02
4880000000.000000      3.966370000000000E-01      3.177734000000000E+01      3.900146000000000E-01      1.753984000000000E+02
4881000000.000000      3.957520000000000E-01      3.141797000000000E+01      3.874359000000000E-01      1.747422000000000E+02
4882000000.000000      3.961945000000000E-01      3.120117000000000E+01      3.843689000000000E-01      1.744062000000000E+02
4883000000.000000      3.956604000000000E-01      3.084082000000000E+01      3.790436000000000E-01      1.735078000000000E+02
4884000000.000000      3.970032000000000E-01      3.068457000000000E+01      3.758392000000000E-01      1.731953000000000E+02
4885000000.000000      3.963165000000000E-01      3.039453000000000E+01      3.734283000000000E-01      1.729141000000000E+02
4886000000.000000      3.973694000000000E-01      3.019922000000000E+01      3.698273000000000E-01      1.725781000000000E+02
4887000000.000000      3.971710000000000E-01      2.989648000000000E+01      3.669434000000000E-01      1.718516000000000E+02
4888000000.000000      3.973236000000000E-01      2.954297000000000E+01      3.617706000000000E-01      1.711797000000000E+02
4889000000.000000      3.978577000000000E-01      2.940039000000000E+01      3.593445000000000E-01      1.707109000000000E+02
4890000000.000000      3.963776000000000E-01      2.909375000000000E+01      3.547516000000000E-01      1.700156000000000E+02
4891000000.000000      3.974915000000000E-01      2.895410000000000E+01      3.507843000000000E-01      1.698437000000000E+02
4892000000.000000      3.960876000000000E-01      2.864355000000000E+01      3.486938000000000E-01      1.695156000000000E+02
4893000000.000000      3.975983000000000E-01      2.846875000000000E+01      3.436127000000000E-01      1.689453000000000E+02
4894000000.000000      3.976440000000000E-01      2.822168000000000E+01      3.407288000000000E-01      1.684844000000000E+02
4895000000.000000      3.984222000000000E-01      2.802246000000000E+01      3.376465000000000E-01      1.681562000000000E+02
4896000000.000000      3.975983000000000E-01      2.773144000000000E+01      3.349609000000000E-01      1.678828000000000E+02
4897000000.000000      3.966980000000000E-01      2.767578000000000E+01      3.310242000000000E-01      1.672891000000000E+02
4898000000.000000      3.968506000000000E-01      2.739160000000000E+01      3.271484000000000E-01      1.673281000000000E+02
4899000000.000000      3.967743000000000E-01      2.712891000000000E+01      3.234253000000000E-01      1.662578000000000E+02
4900000000.000000      3.967590000000000E-01      2.682422000000000E+01      3.203583000000000E-01      1.659844000000000E+02
4901000000.000000      3.963165000000000E-01      2.662304000000000E+01      3.170776000000000E-01      1.656953000000000E+02
4902000000.000000      3.958893000000000E-01      2.652637000000000E+01      3.145752000000000E-01      1.654140000000000E+02
4903000000.000000      3.960114000000000E-01      2.627441000000000E+01      3.100128000000000E-01      1.649844000000000E+02
4904000000.000000      3.964081000000000E-01      2.605078000000000E+01      3.070526000000000E-01      1.645313000000000E+02
4905000000.000000      3.956909000000000E-01      2.586914000000000E+01      3.040314000000000E-01      1.639375000000000E+02
4906000000.000000      3.951111000000000E-01      2.557129000000000E+01      3.001251000000000E-01      1.638672000000000E+02
4907000000.000000      3.955688000000000E-01      2.546191000000000E+01      2.969666000000000E-01      1.633828000000000E+02
4908000000.000000      3.952637000000000E-01      2.519531000000000E+01      2.936707000000000E-01      1.628828000000000E+02
4909000000.000000      3.941498000000000E-01      2.507031000000000E+01      2.895203000000000E-01      1.625703000000000E+02
4910000000.000000      3.952179000000000E-01      2.497265000000000E+01      2.868500000000000E-01      1.621953000000000E+02
4911000000.000000      3.945160000000000E-01      2.468750000000000E+01      2.832794000000000E-01      1.619531000000000E+02
4912000000.000000      3.947906000000000E-01      2.460644000000000E+01      2.789917000000000E-01      1.613594000000000E+02
4913000000.000000      3.944855000000000E-01      2.429590000000000E+01      2.763519000000000E-01      1.610312000000000E+02
4914000000.000000      3.944092000000000E-01      2.398828000000000E+01      2.728271000000000E-01      1.609609000000000E+02
4915000000.000000      3.937836000000000E-01      2.394726000000000E+01      2.689667000000000E-01      1.604531000000000E+02
4916000000.000000      3.935699000000000E-01      2.375293000000000E+01      2.654877000000000E-01      1.598438000000000E+02
4917000000.000000      3.924561000000000E-01      2.356250000000000E+01      2.613525000000000E-01      1.598125000000000E+02
4918000000.000000      3.932190000000000E-01      2.340625000000000E+01      2.570343000000000E-01      1.593437000000000E+02
4919000000.000000      3.929291000000000E-01      2.326953000000000E+01      2.544098000000000E-01      1.593281000000000E+02
4920000000.000000      3.919830000000000E-01      2.298438000000000E+01      2.486343000000000E-01      1.585078000000000E+02
4921000000.000000      3.915863000000000E-01      2.290332000000000E+01      2.462921000000000E-01      1.585234000000000E+02
4922000000.000000      3.919830000000000E-01      2.270410000000000E+01      2.422867000000000E-01      1.583906000000000E+02
4923000000.000000      3.912354000000000E-01      2.243066000000000E+01      2.383881000000000E-01      1.580781000000000E+02
4924000000.000000      3.915405000000000E-01      2.237695000000000E+01      2.343369000000000E-01      1.577656000000000E+02
4925000000.000000      3.902588000000000E-01      2.211914000000000E+01      2.303162000000000E-01      1.575391000000000E+02
4926000000.000000      3.906555000000000E-01      2.192578000000000E+01      2.266235000000000E-01      1.573437000000000E+02
4927000000.000000      3.898315000000000E-01      2.174707000000000E+01      2.222443000000000E-01      1.572031000000000E+02
4928000000.000000      3.905945000000000E-01      2.161523000000000E+01      2.193985000000000E-01      1.571406000000000E+02
4929000000.000000      3.900146000000000E-01      2.143652000000000E+01      2.143478000000000E-01      1.569375000000000E+02
4930000000.000000      3.909149000000000E-01      2.135742000000000E+01      2.106476000000000E-01      1.567422000000000E+02
4931000000.000000      3.891449000000000E-01      2.110938000000000E+01      2.070389000000000E-01      1.566250000000000E+02
4932000000.000000      3.893585000000000E-01      2.087597000000000E+01      2.027283000000000E-01      1.565859000000000E+02
4933000000.000000      3.891449000000000E-01      2.072949000000000E+01      1.978226000000000E-01      1.567656000000000E+02
4934000000.000000      3.901825000000000E-01      2.053418000000000E+01      1.947632000000000E-01      1.565391000000000E+02
4935000000.000000      3.889923000000000E-01      2.041211000000000E+01      1.913223000000000E-01      1.567656000000000E+02
4936000000.000000      3.879852000000000E-01      2.023242000000000E+01      1.864014000000000E-01      1.568281000000000E+02
4937000000.000000      3.867340000000000E-01      2.002051000000000E+01      1.827927000000000E-01      1.569609000000000E+02
4938000000.000000      3.879395000000000E-01      2.007129000000000E+01      1.783371000000000E-01      1.571797000000000E+02
4939000000.000000      3.861694000000000E-01      1.966797000000000E+01      1.743774000000000E-01      1.574219000000000E+02
4940000000.000000      3.878021000000000E-01      1.953711000000000E+01      1.706467000000000E-01      1.576328000000000E+02
4941000000.000000      3.872833000000000E-01      1.948242000000000E+01      1.668625000000000E-01      1.579062000000000E+02
4942000000.000000      3.866730000000000E-01      1.936523000000000E+01      1.630859000000000E-01      1.584922000000000E+02
4943000000.000000      3.864288000000000E-01      1.903906000000000E+01      1.593781000000000E-01      1.585703000000000E+02
4944000000.000000      3.859100000000000E-01      1.881933000000000E+01      1.561050000000000E-01      1.594844000000000E+02
4945000000.000000      3.852997000000000E-01      1.875195000000000E+01      1.518326000000000E-01      1.600703000000000E+02
4946000000.000000      3.859406000000000E-01      1.861035000000000E+01      1.484299000000000E-01      1.606484000000000E+02
4947000000.000000      3.854675000000000E-01      1.833203000000000E+01      1.448517000000000E-01      1.614375000000000E+02
4948000000.000000      3.850250000000000E-01      1.835742000000000E+01      1.419983000000000E-01      1.620937000000000E+02
4949000000.000000      3.842163000000000E-01      1.814355000000000E+01      1.391373000000000E-01      1.634140000000000E+02
4950000000.000000      3.846130000000000E-01      1.808008000000000E+01      1.351318000000000E-01      1.643359000000000E+02
4951000000.000000      3.841248000000000E-01      1.780469000000000E+01      1.325531000000000E-01      1.652500000000000E+02
4952000000.000000      3.837585000000000E-01      1.761914000000000E+01      1.298447000000000E-01      1.663359000000000E+02
4953000000.000000      3.835602000000000E-01      1.746484000000000E+01      1.267242000000000E-01      1.677813000000000E+02
4954000000.000000      3.835602000000000E-01      1.722168000000000E+01      1.248894000000000E-01      1.691875000000000E+02
