! Network Analyzer HP8722D
! Hewlett-Packard
! Data name: Linha & Wilkinson
! Saver's name: Rodrigo Anjos
! Comments: Teste da utilização de aquisição
continua pelo VNA HP8722D
! Time and date: 23/5/2025 15:38
!              Frequency                     S11                                                   S21                                                   S12                                                   S22
# HZ  S  MA R 50
4800000000.000000      2.819061000000000E-01      4.003515000000000E+01      4.863739000000000E-01     -1.294609000000000E+02
4801000000.000000      2.831268000000000E-01      4.033789000000000E+01      4.873810000000000E-01     -1.300625000000000E+02
4802000000.000000      2.842255000000000E-01      4.056054000000000E+01      4.900208000000000E-01     -1.308281000000000E+02
4803000000.000000      2.849731000000000E-01      4.077148000000000E+01      4.927826000000000E-01     -1.315938000000000E+02
4804000000.000000      2.863922000000000E-01      4.096093000000000E+01      4.934540000000000E-01     -1.323047000000000E+02
4805000000.000000      2.884521000000000E-01      4.112500000000000E+01      4.939270000000000E-01     -1.329687000000000E+02
4806000000.000000      2.892303000000000E-01      4.131249000000000E+01      4.952545000000000E-01     -1.337265000000000E+02
4807000000.000000      2.906952000000000E-01      4.145703000000000E+01      4.975586000000000E-01     -1.345469000000000E+02
4808000000.000000      2.915344000000000E-01      4.164453000000000E+01      4.976044000000000E-01     -1.350625000000000E+02
4809000000.000000      2.931061000000000E-01      4.190430000000000E+01      5.006714000000000E-01     -1.360078000000000E+02
4810000000.000000      2.953186000000000E-01      4.202344000000000E+01      5.025024000000000E-01     -1.366250000000000E+02
4811000000.000000      2.965698000000000E-01      4.210351000000000E+01      5.019531000000000E-01     -1.373750000000000E+02
4812000000.000000      2.994080000000000E-01      4.235352000000000E+01      5.035706000000000E-01     -1.381172000000000E+02
4813000000.000000      2.998657000000000E-01      4.252343000000000E+01      5.041504000000000E-01     -1.387656000000000E+02
4814000000.000000      3.011017000000000E-01      4.257813000000000E+01      5.049438000000000E-01     -1.394140000000000E+02
4815000000.000000      3.031464000000000E-01      4.260351000000000E+01      5.056152000000000E-01     -1.401875000000000E+02
4816000000.000000      3.051453000000000E-01      4.276367000000000E+01      5.067139000000000E-01     -1.408828000000000E+02
4817000000.000000      3.062439000000000E-01      4.281054000000000E+01      5.073242000000000E-01     -1.417031000000000E+02
4818000000.000000      3.083801000000000E-01      4.286328000000000E+01      5.051270000000000E-01     -1.425859000000000E+02
4819000000.000000      3.106232000000000E-01      4.299414000000000E+01      5.074768000000000E-01     -1.432734000000000E+02
4820000000.000000      3.117828000000000E-01      4.296875000000000E+01      5.070190000000000E-01     -1.439531000000000E+02
4821000000.000000      3.141022000000000E-01      4.304101000000000E+01      5.079956000000000E-01     -1.448281000000000E+02
4822000000.000000      3.150787000000000E-01      4.295703000000000E+01      5.057373000000000E-01     -1.456016000000000E+02
4823000000.000000      3.170319000000000E-01      4.296094000000000E+01      5.085754000000000E-01     -1.461875000000000E+02
4824000000.000000      3.190155000000000E-01      4.307422000000000E+01      5.075989000000000E-01     -1.470391000000000E+02
4825000000.000000      3.207550000000000E-01      4.297265000000000E+01      5.065613000000000E-01     -1.476641000000000E+02
4826000000.000000      3.224335000000000E-01      4.289453000000000E+01      5.071411000000000E-01     -1.484688000000000E+02
4827000000.000000      3.243256000000000E-01      4.284961000000000E+01      5.069885000000000E-01     -1.490000000000000E+02
4828000000.000000      3.270416000000000E-01      4.275976000000000E+01      5.071411000000000E-01     -1.498437000000000E+02
4829000000.000000      3.285675000000000E-01      4.278516000000000E+01      5.063171000000000E-01     -1.505703000000000E+02
4830000000.000000      3.304901000000000E-01      4.264062000000000E+01      5.061646000000000E-01     -1.512187000000000E+02
4831000000.000000      3.319550000000000E-01      4.263672000000000E+01      5.046997000000000E-01     -1.521328000000000E+02
4832000000.000000      3.337860000000000E-01      4.262304000000000E+01      5.043640000000000E-01     -1.527344000000000E+02
4833000000.000000      3.346252000000000E-01      4.235547000000000E+01      5.032654000000000E-01     -1.533203000000000E+02
4834000000.000000      3.370209000000000E-01      4.242188000000000E+01      5.024719000000000E-01     -1.541250000000000E+02
4835000000.000000      3.397369000000000E-01      4.215625000000000E+01      5.033569000000000E-01     -1.549062000000000E+02
4836000000.000000      3.405609000000000E-01      4.203906000000000E+01      5.010376000000000E-01     -1.555312000000000E+02
4837000000.000000      3.425293000000000E-01      4.208398000000000E+01      4.988861000000000E-01     -1.564297000000000E+02
4838000000.000000      3.438110000000000E-01      4.184960000000000E+01      4.991913000000000E-01     -1.569766000000000E+02
4839000000.000000      3.474731000000000E-01      4.176953000000000E+01      4.976501000000000E-01     -1.577031000000000E+02
4840000000.000000      3.486481000000000E-01      4.144140000000000E+01      4.963684000000000E-01     -1.584453000000000E+02
4841000000.000000      3.497314000000000E-01      4.143945000000000E+01      4.964752000000000E-01     -1.591328000000000E+02
4842000000.000000      3.511353000000000E-01      4.124609000000000E+01      4.947205000000000E-01     -1.597578000000000E+02
4843000000.000000      3.535156000000000E-01      4.090039000000000E+01      4.940948000000000E-01     -1.605937000000000E+02
4844000000.000000      3.539429000000000E-01      4.080664000000000E+01      4.920349000000000E-01     -1.612578000000000E+02
4845000000.000000      3.557129000000000E-01      4.064649000000000E+01      4.904480000000000E-01     -1.620156000000000E+02
4846000000.000000      3.581848000000000E-01      4.046875000000000E+01      4.882507000000000E-01     -1.626562000000000E+02
4847000000.000000      3.591309000000000E-01      4.032227000000000E+01      4.868317000000000E-01     -1.633437000000000E+02
4848000000.000000      3.604431000000000E-01      4.003515000000000E+01      4.849091000000000E-01     -1.640781000000000E+02
4849000000.000000      3.621216000000000E-01      3.965625000000000E+01      4.831238000000000E-01     -1.648828000000000E+02
4850000000.000000      3.633728000000000E-01      3.953516000000000E+01      4.820709000000000E-01     -1.654766000000000E+02
4851000000.000000      3.643494000000000E-01      3.951562000000000E+01      4.806976000000000E-01     -1.662656000000000E+02
4852000000.000000      3.662262000000000E-01      3.915234000000000E+01      4.782410000000000E-01     -1.669297000000000E+02
4853000000.000000      3.675079000000000E-01      3.901367000000000E+01      4.751587000000000E-01     -1.675313000000000E+02
4854000000.000000      3.685303000000000E-01      3.865820000000000E+01      4.732971000000000E-01     -1.684141000000000E+02
4855000000.000000      3.695831000000000E-01      3.848633000000000E+01      4.714661000000000E-01     -1.690547000000000E+02
4856000000.000000      3.718567000000000E-01      3.826757000000000E+01      4.692078000000000E-01     -1.696484000000000E+02
4857000000.000000      3.718567000000000E-01      3.813672000000000E+01      4.669189000000000E-01     -1.701875000000000E+02
4858000000.000000      3.729706000000000E-01      3.771484000000000E+01      4.640656000000000E-01     -1.711797000000000E+02
4859000000.000000      3.742828000000000E-01      3.749218000000000E+01      4.628906000000000E-01     -1.717734000000000E+02
4860000000.000000      3.756409000000000E-01      3.739648000000000E+01      4.589233000000000E-01     -1.726016000000000E+02
4861000000.000000      3.766632000000000E-01      3.699219000000000E+01      4.560089000000000E-01     -1.731875000000000E+02
4862000000.000000      3.771057000000000E-01      3.676758000000000E+01      4.543762000000000E-01     -1.735781000000000E+02
4863000000.000000      3.776703000000000E-01      3.659375000000000E+01      4.521332000000000E-01     -1.745937000000000E+02
4864000000.000000      3.789978000000000E-01      3.622851000000000E+01      4.487000000000000E-01     -1.752109000000000E+02
4865000000.000000      3.799896000000000E-01      3.588476000000000E+01      4.444885000000000E-01     -1.756484000000000E+02
4866000000.000000      3.806305000000000E-01      3.559570000000000E+01      4.421844000000000E-01     -1.765234000000000E+02
4867000000.000000      3.809967000000000E-01      3.530078000000000E+01      4.396973000000000E-01     -1.772734000000000E+02
4868000000.000000      3.823395000000000E-01      3.503711000000000E+01      4.368286000000000E-01     -1.779531000000000E+02
4869000000.000000      3.829956000000000E-01      3.500195000000000E+01      4.339142000000000E-01     -1.784141000000000E+02
4870000000.000000      3.834686000000000E-01      3.472265000000000E+01      4.296570000000000E-01     -1.790469000000000E+02
4871000000.000000      3.848114000000000E-01      3.430859000000000E+01      4.260101000000000E-01     -1.797422000000000E+02
4872000000.000000      3.853455000000000E-01      3.406836000000000E+01      4.236603000000000E-01      1.797188000000000E+02
4873000000.000000      3.858490000000000E-01      3.391406000000000E+01      4.201965000000000E-01      1.792266000000000E+02
4874000000.000000      3.862457000000000E-01      3.363281000000000E+01      4.160309000000000E-01      1.784765000000000E+02
4875000000.000000      3.860779000000000E-01      3.319140000000000E+01      4.143982000000000E-01      1.781172000000000E+02
4876000000.000000      3.873444000000000E-01      3.316601000000000E+01      4.100952000000000E-01      1.772734000000000E+02
4877000000.000000      3.875732000000000E-01      3.260156000000000E+01      4.074249000000000E-01      1.767500000000000E+02
4878000000.000000      3.873596000000000E-01      3.256836000000000E+01      4.045410000000000E-01      1.762344000000000E+02
4879000000.000000      3.877716000000000E-01      3.218554000000000E+01      3.994141000000000E-01      1.755391000000000E+02
4880000000.000000      3.886108000000000E-01      3.196680000000000E+01      3.954315000000000E-01      1.751875000000000E+02
4881000000.000000      3.890076000000000E-01      3.175586000000000E+01      3.927002000000000E-01      1.745547000000000E+02
4882000000.000000      3.896332000000000E-01      3.148340000000000E+01      3.897705000000000E-01      1.739219000000000E+02
4883000000.000000      3.886719000000000E-01      3.107812000000000E+01      3.849335000000000E-01      1.735156000000000E+02
4884000000.000000      3.903961000000000E-01      3.098535000000000E+01      3.822327000000000E-01      1.728125000000000E+02
4885000000.000000      3.905640000000000E-01      3.071972000000000E+01      3.771667000000000E-01      1.724609000000000E+02
4886000000.000000      3.891754000000000E-01      3.055957000000000E+01      3.741760000000000E-01      1.720391000000000E+02
4887000000.000000      3.904419000000000E-01      3.017578000000000E+01      3.714600000000000E-01      1.716484000000000E+02
4888000000.000000      3.898773000000000E-01      2.981934000000000E+01      3.678131000000000E-01      1.707969000000000E+02
4889000000.000000      3.904419000000000E-01      2.969433000000000E+01      3.640900000000000E-01      1.705625000000000E+02
4890000000.000000      3.901978000000000E-01      2.944726000000000E+01      3.592224000000000E-01      1.699297000000000E+02
4891000000.000000      3.908386000000000E-01      2.923047000000000E+01      3.569031000000000E-01      1.695703000000000E+02
4892000000.000000      3.897552000000000E-01      2.892773000000000E+01      3.540497000000000E-01      1.693906000000000E+02
4893000000.000000      3.910522000000000E-01      2.878222000000000E+01      3.493500000000000E-01      1.687031000000000E+02
4894000000.000000      3.898468000000000E-01      2.852148000000000E+01      3.463745000000000E-01      1.683437000000000E+02
4895000000.000000      3.903351000000000E-01      2.822168000000000E+01      3.428802000000000E-01      1.677500000000000E+02
4896000000.000000      3.896027000000000E-01      2.798144000000000E+01      3.398743000000000E-01      1.675390000000000E+02
4897000000.000000      3.897095000000000E-01      2.778027000000000E+01      3.360901000000000E-01      1.667969000000000E+02
4898000000.000000      3.903503000000000E-01      2.762304000000000E+01      3.332825000000000E-01      1.666016000000000E+02
4899000000.000000      3.892517000000000E-01      2.738965000000000E+01      3.286438000000000E-01      1.661094000000000E+02
4900000000.000000      3.900452000000000E-01      2.701660000000000E+01      3.251495000000000E-01      1.658906000000000E+02
4901000000.000000      3.900604000000000E-01      2.684277000000000E+01      3.219757000000000E-01      1.654453000000000E+02
4902000000.000000      3.896484000000000E-01      2.667480000000000E+01      3.188324000000000E-01      1.651406000000000E+02
4903000000.000000      3.888855000000000E-01      2.635839000000000E+01      3.142090000000000E-01      1.645391000000000E+02
4904000000.000000      3.889923000000000E-01      2.625977000000000E+01      3.112335000000000E-01      1.641094000000000E+02
4905000000.000000      3.888702000000000E-01      2.607812000000000E+01      3.090363000000000E-01      1.635781000000000E+02
4906000000.000000      3.872681000000000E-01      2.572656000000000E+01      3.051147000000000E-01      1.636016000000000E+02
4907000000.000000      3.874664000000000E-01      2.556152000000000E+01      3.017426000000000E-01      1.628906000000000E+02
4908000000.000000      3.883820000000000E-01      2.541406000000000E+01      2.982635000000000E-01      1.625313000000000E+02
4909000000.000000      3.868256000000000E-01      2.522265000000000E+01      2.945251000000000E-01      1.621641000000000E+02
4910000000.000000      3.873749000000000E-01      2.502539000000000E+01      2.914886000000000E-01      1.619922000000000E+02
4911000000.000000      3.873291000000000E-01      2.478516000000000E+01      2.879639000000000E-01      1.615000000000000E+02
4912000000.000000      3.861237000000000E-01      2.460156000000000E+01      2.838440000000000E-01      1.609922000000000E+02
4913000000.000000      3.862610000000000E-01      2.439844000000000E+01      2.805481000000000E-01      1.605703000000000E+02
4914000000.000000      3.867035000000000E-01      2.421093000000000E+01      2.770691000000000E-01      1.604453000000000E+02
4915000000.000000      3.860168000000000E-01      2.398633000000000E+01      2.729492000000000E-01      1.599297000000000E+02
4916000000.000000      3.861084000000000E-01      2.382910000000000E+01      2.691345000000000E-01      1.595312000000000E+02
4917000000.000000      3.848572000000000E-01      2.379687000000000E+01      2.658691000000000E-01      1.592734000000000E+02
4918000000.000000      3.845673000000000E-01      2.340430000000000E+01      2.615814000000000E-01      1.591094000000000E+02
4919000000.000000      3.844757000000000E-01      2.338574000000000E+01      2.580261000000000E-01      1.587188000000000E+02
4920000000.000000      3.854675000000000E-01      2.306933000000000E+01      2.533417000000000E-01      1.582813000000000E+02
4921000000.000000      3.834686000000000E-01      2.295996000000000E+01      2.510376000000000E-01      1.580391000000000E+02
4922000000.000000      3.841400000000000E-01      2.285937000000000E+01      2.467651000000000E-01      1.579766000000000E+02
4923000000.000000      3.831329000000000E-01      2.260547000000000E+01      2.429047000000000E-01      1.576484000000000E+02
4924000000.000000      3.835449000000000E-01      2.242090000000000E+01      2.386780000000000E-01      1.572109000000000E+02
4925000000.000000      3.826904000000000E-01      2.217968000000000E+01      2.342072000000000E-01      1.570391000000000E+02
4926000000.000000      3.830414000000000E-01      2.205859000000000E+01      2.304306000000000E-01      1.568125000000000E+02
4927000000.000000      3.824463000000000E-01      2.183789000000000E+01      2.265701000000000E-01      1.566094000000000E+02
4928000000.000000      3.829651000000000E-01      2.169922000000000E+01      2.223206000000000E-01      1.565234000000000E+02
4929000000.000000      3.817902000000000E-01      2.145312000000000E+01      2.182236000000000E-01      1.563516000000000E+02
4930000000.000000      3.815613000000000E-01      2.138867000000000E+01      2.150726000000000E-01      1.562109000000000E+02
4931000000.000000      3.806458000000000E-01      2.108593000000000E+01      2.111130000000000E-01      1.562422000000000E+02
4932000000.000000      3.813934000000000E-01      2.098047000000000E+01      2.062225000000000E-01      1.561719000000000E+02
4933000000.000000      3.809967000000000E-01      2.078808000000000E+01      2.012253000000000E-01      1.561250000000000E+02
4934000000.000000      3.809052000000000E-01      2.064648000000000E+01      1.982117000000000E-01      1.559609000000000E+02
4935000000.000000      3.814087000000000E-01      2.038867000000000E+01      1.943359000000000E-01      1.561641000000000E+02
4936000000.000000      3.798523000000000E-01      2.028125000000000E+01      1.903763000000000E-01      1.562734000000000E+02
4937000000.000000      3.800049000000000E-01      1.996680000000000E+01      1.861496000000000E-01      1.561016000000000E+02
4938000000.000000      3.793335000000000E-01      1.985742000000000E+01      1.820068000000000E-01      1.566328000000000E+02
4939000000.000000      3.801270000000000E-01      1.989844000000000E+01      1.781082000000000E-01      1.568047000000000E+02
4940000000.000000      3.797302000000000E-01      1.948340000000000E+01      1.739883000000000E-01      1.566484000000000E+02
4941000000.000000      3.791809000000000E-01      1.936133000000000E+01      1.700439000000000E-01      1.574297000000000E+02
4942000000.000000      3.778534000000000E-01      1.919629000000000E+01      1.662369000000000E-01      1.576797000000000E+02
4943000000.000000      3.781891000000000E-01      1.907227000000000E+01      1.624298000000000E-01      1.580312000000000E+02
4944000000.000000      3.777618000000000E-01      1.883008000000000E+01      1.589127000000000E-01      1.585469000000000E+02
4945000000.000000      3.780365000000000E-01      1.868848000000000E+01      1.548462000000000E-01      1.593203000000000E+02
4946000000.000000      3.780975000000000E-01      1.850195000000000E+01      1.514740000000000E-01      1.598750000000000E+02
4947000000.000000      3.760223000000000E-01      1.840137000000000E+01      1.474915000000000E-01      1.605625000000000E+02
4948000000.000000      3.780975000000000E-01      1.828125000000000E+01      1.446762000000000E-01      1.614297000000000E+02
4949000000.000000      3.765259000000000E-01      1.808301000000000E+01      1.413651000000000E-01      1.623906000000000E+02
4950000000.000000      3.768005000000000E-01      1.802539000000000E+01      1.382065000000000E-01      1.631875000000000E+02
4951000000.000000      3.760071000000000E-01      1.776758000000000E+01      1.347275000000000E-01      1.641797000000000E+02
4952000000.000000      3.757477000000000E-01      1.750098000000000E+01      1.317444000000000E-01      1.653281000000000E+02
4953000000.000000      3.748627000000000E-01      1.739453000000000E+01      1.292419000000000E-01      1.664531000000000E+02
4954000000.000000      3.747101000000000E-01      1.713281000000000E+01      1.267776000000000E-01      1.679375000000000E+02
