! Network Analyzer HP8722D
! Hewlett-Packard
! Data name: Linha & Wilkinson
! Saver's name: Rodrigo Anjos
! Comments: Teste da utilização de aquisição
continua pelo VNA HP8722D
! Time and date: 23/5/2025 09:40
!              Frequency                     S11                                                   S21                                                   S12                                                   S22
# HZ  S  MA R 50
4800000000.000000      3.164215000000000E-01      3.692187000000000E+01      4.687958000000000E-01     -1.279570000000000E+02
4801000000.000000      3.170319000000000E-01      3.716601000000000E+01      4.706268000000000E-01     -1.286094000000000E+02
4802000000.000000      3.177795000000000E-01      3.734375000000000E+01      4.718475000000000E-01     -1.292031000000000E+02
4803000000.000000      3.188477000000000E-01      3.750977000000000E+01      4.736786000000000E-01     -1.298047000000000E+02
4804000000.000000      3.199615000000000E-01      3.770508000000000E+01      4.760437000000000E-01     -1.307422000000000E+02
4805000000.000000      3.215637000000000E-01      3.779492000000000E+01      4.753876000000000E-01     -1.314297000000000E+02
4806000000.000000      3.219299000000000E-01      3.797656000000000E+01      4.779510000000000E-01     -1.320078000000000E+02
4807000000.000000      3.229980000000000E-01      3.808594000000000E+01      4.793701000000000E-01     -1.329219000000000E+02
4808000000.000000      3.238831000000000E-01      3.831640000000000E+01      4.818726000000000E-01     -1.335000000000000E+02
4809000000.000000      3.255615000000000E-01      3.848437000000000E+01      4.821167000000000E-01     -1.343516000000000E+02
4810000000.000000      3.266754000000000E-01      3.860156000000000E+01      4.836121000000000E-01     -1.349609000000000E+02
4811000000.000000      3.283997000000000E-01      3.876758000000000E+01      4.854431000000000E-01     -1.358906000000000E+02
4812000000.000000      3.305664000000000E-01      3.897070000000000E+01      4.855804000000000E-01     -1.366250000000000E+02
4813000000.000000      3.311920000000000E-01      3.910547000000000E+01      4.858398000000000E-01     -1.372734000000000E+02
4814000000.000000      3.320770000000000E-01      3.903906000000000E+01      4.864960000000000E-01     -1.378594000000000E+02
4815000000.000000      3.333893000000000E-01      3.915234000000000E+01      4.858704000000000E-01     -1.386563000000000E+02
4816000000.000000      3.357849000000000E-01      3.929492000000000E+01      4.888306000000000E-01     -1.393750000000000E+02
4817000000.000000      3.372345000000000E-01      3.947070000000000E+01      4.870605000000000E-01     -1.403203000000000E+02
4818000000.000000      3.382416000000000E-01      3.939648000000000E+01      4.871521000000000E-01     -1.409531000000000E+02
4819000000.000000      3.402252000000000E-01      3.946289000000000E+01      4.877930000000000E-01     -1.416484000000000E+02
4820000000.000000      3.410492000000000E-01      3.961523000000000E+01      4.871368000000000E-01     -1.421250000000000E+02
4821000000.000000      3.433533000000000E-01      3.960156000000000E+01      4.890900000000000E-01     -1.431953000000000E+02
4822000000.000000      3.444366000000000E-01      3.951562000000000E+01      4.866486000000000E-01     -1.437891000000000E+02
4823000000.000000      3.465729000000000E-01      3.951757000000000E+01      4.885559000000000E-01     -1.445313000000000E+02
4824000000.000000      3.477020000000000E-01      3.966797000000000E+01      4.881897000000000E-01     -1.454141000000000E+02
4825000000.000000      3.496552000000000E-01      3.960156000000000E+01      4.894409000000000E-01     -1.460000000000000E+02
4826000000.000000      3.511505000000000E-01      3.952929000000000E+01      4.893799000000000E-01     -1.468359000000000E+02
4827000000.000000      3.530579000000000E-01      3.962695000000000E+01      4.895782000000000E-01     -1.474922000000000E+02
4828000000.000000      3.558502000000000E-01      3.958789000000000E+01      4.894409000000000E-01     -1.481562000000000E+02
4829000000.000000      3.562469000000000E-01      3.968164000000000E+01      4.871521000000000E-01     -1.487969000000000E+02
4830000000.000000      3.583984000000000E-01      3.949804000000000E+01      4.874878000000000E-01     -1.496250000000000E+02
4831000000.000000      3.597870000000000E-01      3.949219000000000E+01      4.862366000000000E-01     -1.503438000000000E+02
4832000000.000000      3.618927000000000E-01      3.940234000000000E+01      4.851990000000000E-01     -1.509453000000000E+02
4833000000.000000      3.624725000000000E-01      3.923437000000000E+01      4.838867000000000E-01     -1.516953000000000E+02
4834000000.000000      3.645020000000000E-01      3.916601000000000E+01      4.834290000000000E-01     -1.524609000000000E+02
4835000000.000000      3.666840000000000E-01      3.913476000000000E+01      4.833527000000000E-01     -1.531172000000000E+02
4836000000.000000      3.684692000000000E-01      3.918359000000000E+01      4.810333000000000E-01     -1.538203000000000E+02
4837000000.000000      3.692322000000000E-01      3.917187000000000E+01      4.808502000000000E-01     -1.548359000000000E+02
4838000000.000000      3.710327000000000E-01      3.889257000000000E+01      4.809113000000000E-01     -1.552031000000000E+02
4839000000.000000      3.744354000000000E-01      3.884375000000000E+01      4.800262000000000E-01     -1.560234000000000E+02
4840000000.000000      3.753052000000000E-01      3.856445000000000E+01      4.788818000000000E-01     -1.567266000000000E+02
4841000000.000000      3.768616000000000E-01      3.860742000000000E+01      4.765167000000000E-01     -1.573828000000000E+02
4842000000.000000      3.778687000000000E-01      3.834375000000000E+01      4.775696000000000E-01     -1.583203000000000E+02
4843000000.000000      3.806000000000000E-01      3.812500000000000E+01      4.754028000000000E-01     -1.589687000000000E+02
4844000000.000000      3.813629000000000E-01      3.798828000000000E+01      4.725342000000000E-01     -1.597969000000000E+02
4845000000.000000      3.828125000000000E-01      3.802734000000000E+01      4.717560000000000E-01     -1.603281000000000E+02
4846000000.000000      3.845520000000000E-01      3.780664000000000E+01      4.713287000000000E-01     -1.609688000000000E+02
4847000000.000000      3.863525000000000E-01      3.768555000000000E+01      4.682617000000000E-01     -1.619062000000000E+02
4848000000.000000      3.870392000000000E-01      3.740820000000000E+01      4.657440000000000E-01     -1.623047000000000E+02
4849000000.000000      3.881378000000000E-01      3.716601000000000E+01      4.664459000000000E-01     -1.631484000000000E+02
4850000000.000000      3.899384000000000E-01      3.713476000000000E+01      4.639282000000000E-01     -1.640312000000000E+02
4851000000.000000      3.920593000000000E-01      3.708984000000000E+01      4.627838000000000E-01     -1.646719000000000E+02
4852000000.000000      3.929901000000000E-01      3.684179000000000E+01      4.613190000000000E-01     -1.653594000000000E+02
4853000000.000000      3.943634000000000E-01      3.660351000000000E+01      4.569397000000000E-01     -1.659531000000000E+02
4854000000.000000      3.953705000000000E-01      3.641406000000000E+01      4.556427000000000E-01     -1.667812000000000E+02
4855000000.000000      3.964233000000000E-01      3.631640000000000E+01      4.539795000000000E-01     -1.676328000000000E+02
4856000000.000000      3.970947000000000E-01      3.592382000000000E+01      4.512177000000000E-01     -1.680625000000000E+02
4857000000.000000      3.992157000000000E-01      3.580078000000000E+01      4.500122000000000E-01     -1.689141000000000E+02
4858000000.000000      3.994598000000000E-01      3.547461000000000E+01      4.469604000000000E-01     -1.695000000000000E+02
4859000000.000000      4.009705000000000E-01      3.529492000000000E+01      4.447784000000000E-01     -1.703906000000000E+02
4860000000.000000      4.025116000000000E-01      3.518945000000000E+01      4.422913000000000E-01     -1.708594000000000E+02
4861000000.000000      4.031525000000000E-01      3.498632000000000E+01      4.394989000000000E-01     -1.717813000000000E+02
4862000000.000000      4.033661000000000E-01      3.465234000000000E+01      4.377136000000000E-01     -1.722812000000000E+02
4863000000.000000      4.052429000000000E-01      3.459570000000000E+01      4.340363000000000E-01     -1.730781000000000E+02
4864000000.000000      4.058685000000000E-01      3.418945000000000E+01      4.320831000000000E-01     -1.735547000000000E+02
4865000000.000000      4.060059000000000E-01      3.400391000000000E+01      4.274750000000000E-01     -1.743438000000000E+02
4866000000.000000      4.085541000000000E-01      3.375781000000000E+01      4.248657000000000E-01     -1.751172000000000E+02
4867000000.000000      4.075928000000000E-01      3.361719000000000E+01      4.216614000000000E-01     -1.758437000000000E+02
4868000000.000000      4.093018000000000E-01      3.330469000000000E+01      4.203186000000000E-01     -1.763906000000000E+02
4869000000.000000      4.093170000000000E-01      3.304296000000000E+01      4.164734000000000E-01     -1.770781000000000E+02
4870000000.000000      4.098053000000000E-01      3.286718000000000E+01      4.134064000000000E-01     -1.774453000000000E+02
4871000000.000000      4.108734000000000E-01      3.257421000000000E+01      4.091187000000000E-01     -1.782891000000000E+02
4872000000.000000      4.126892000000000E-01      3.246679000000000E+01      4.058075000000000E-01     -1.787812000000000E+02
4873000000.000000      4.124603000000000E-01      3.225195000000000E+01      4.027710000000000E-01     -1.796719000000000E+02
4874000000.000000      4.133453000000000E-01      3.202148000000000E+01      3.999023000000000E-01      1.796562000000000E+02
4875000000.000000      4.139404000000000E-01      3.170605000000000E+01      3.959656000000000E-01      1.794453000000000E+02
4876000000.000000      4.149780000000000E-01      3.163769000000000E+01      3.940430000000000E-01      1.788125000000000E+02
4877000000.000000      4.151001000000000E-01      3.103418000000000E+01      3.910675000000000E-01      1.779844000000000E+02
4878000000.000000      4.149628000000000E-01      3.103613000000000E+01      3.858795000000000E-01      1.774141000000000E+02
4879000000.000000      4.155273000000000E-01      3.078906000000000E+01      3.813782000000000E-01      1.770391000000000E+02
4880000000.000000      4.163361000000000E-01      3.046484000000000E+01      3.788452000000000E-01      1.762266000000000E+02
4881000000.000000      4.161530000000000E-01      3.032324000000000E+01      3.752899000000000E-01      1.759375000000000E+02
4882000000.000000      4.170685000000000E-01      3.010449000000000E+01      3.719635000000000E-01      1.752344000000000E+02
4883000000.000000      4.158020000000000E-01      2.975293000000000E+01      3.683929000000000E-01      1.748437000000000E+02
4884000000.000000      4.173431000000000E-01      2.976660000000000E+01      3.650513000000000E-01      1.741406000000000E+02
4885000000.000000      4.178467000000000E-01      2.947461000000000E+01      3.618469000000000E-01      1.738906000000000E+02
4886000000.000000      4.177704000000000E-01      2.921484000000000E+01      3.583832000000000E-01      1.737109000000000E+02
4887000000.000000      4.178619000000000E-01      2.898242000000000E+01      3.561554000000000E-01      1.729375000000000E+02
4888000000.000000      4.173889000000000E-01      2.861230000000000E+01      3.524780000000000E-01      1.723516000000000E+02
4889000000.000000      4.183197000000000E-01      2.850488000000000E+01      3.478851000000000E-01      1.717969000000000E+02
4890000000.000000      4.179382000000000E-01      2.823828000000000E+01      3.436584000000000E-01      1.710000000000000E+02
4891000000.000000      4.188385000000000E-01      2.813379000000000E+01      3.393555000000000E-01      1.710156000000000E+02
4892000000.000000      4.184418000000000E-01      2.781836000000000E+01      3.365936000000000E-01      1.706016000000000E+02
4893000000.000000      4.185028000000000E-01      2.754492000000000E+01      3.343048000000000E-01      1.700547000000000E+02
4894000000.000000      4.189606000000000E-01      2.753027000000000E+01      3.298645000000000E-01      1.696406000000000E+02
4895000000.000000      4.183350000000000E-01      2.719336000000000E+01      3.280640000000000E-01      1.693438000000000E+02
4896000000.000000      4.183044000000000E-01      2.689941000000000E+01      3.224640000000000E-01      1.689297000000000E+02
4897000000.000000      4.178467000000000E-01      2.680078000000000E+01      3.203125000000000E-01      1.683984000000000E+02
4898000000.000000      4.188995000000000E-01      2.665332000000000E+01      3.166962000000000E-01      1.680859000000000E+02
4899000000.000000      4.175415000000000E-01      2.651367000000000E+01      3.132629000000000E-01      1.674844000000000E+02
4900000000.000000      4.180908000000000E-01      2.618555000000000E+01      3.103943000000000E-01      1.672344000000000E+02
4901000000.000000      4.183350000000000E-01      2.591309000000000E+01      3.068390000000000E-01      1.667734000000000E+02
4902000000.000000      4.188232000000000E-01      2.582031000000000E+01      3.037415000000000E-01      1.664141000000000E+02
4903000000.000000      4.188690000000000E-01      2.568848000000000E+01      2.996521000000000E-01      1.661406000000000E+02
4904000000.000000      4.182281000000000E-01      2.540527000000000E+01      2.963409000000000E-01      1.656563000000000E+02
4905000000.000000      4.178009000000000E-01      2.516602000000000E+01      2.937012000000000E-01      1.651484000000000E+02
4906000000.000000      4.171448000000000E-01      2.506445000000000E+01      2.907104000000000E-01      1.650156000000000E+02
4907000000.000000      4.179535000000000E-01      2.472558000000000E+01      2.870483000000000E-01      1.645547000000000E+02
4908000000.000000      4.183655000000000E-01      2.458593000000000E+01      2.830963000000000E-01      1.640469000000000E+02
4909000000.000000      4.162140000000000E-01      2.441504000000000E+01      2.800446000000000E-01      1.636484000000000E+02
4910000000.000000      4.173279000000000E-01      2.443457000000000E+01      2.765808000000000E-01      1.633594000000000E+02
4911000000.000000      4.178162000000000E-01      2.421875000000000E+01      2.733917000000000E-01      1.630781000000000E+02
4912000000.000000      4.173431000000000E-01      2.396875000000000E+01      2.691956000000000E-01      1.626562000000000E+02
4913000000.000000      4.173431000000000E-01      2.372168000000000E+01      2.660980000000000E-01      1.622813000000000E+02
4914000000.000000      4.171295000000000E-01      2.356152000000000E+01      2.621460000000000E-01      1.620547000000000E+02
4915000000.000000      4.164886000000000E-01      2.351758000000000E+01      2.580719000000000E-01      1.615547000000000E+02
4916000000.000000      4.170074000000000E-01      2.324805000000000E+01      2.558594000000000E-01      1.613203000000000E+02
4917000000.000000      4.165344000000000E-01      2.313965000000000E+01      2.518463000000000E-01      1.609844000000000E+02
4918000000.000000      4.160461000000000E-01      2.287207000000000E+01      2.475204000000000E-01      1.607031000000000E+02
4919000000.000000      4.153290000000000E-01      2.268066000000000E+01      2.447662000000000E-01      1.605703000000000E+02
4920000000.000000      4.144745000000000E-01      2.266992000000000E+01      2.399979000000000E-01      1.598594000000000E+02
4921000000.000000      4.153137000000000E-01      2.257617000000000E+01      2.377090000000000E-01      1.598203000000000E+02
4922000000.000000      4.157410000000000E-01      2.221484000000000E+01      2.332153000000000E-01      1.596875000000000E+02
4923000000.000000      4.142456000000000E-01      2.214550000000000E+01      2.289734000000000E-01      1.595000000000000E+02
4924000000.000000      4.144745000000000E-01      2.198633000000000E+01      2.250290000000000E-01      1.590469000000000E+02
4925000000.000000      4.141846000000000E-01      2.185254000000000E+01      2.212601000000000E-01      1.589766000000000E+02
4926000000.000000      4.136505000000000E-01      2.164355000000000E+01      2.179565000000000E-01      1.587656000000000E+02
4927000000.000000      4.130707000000000E-01      2.134961000000000E+01      2.135391000000000E-01      1.586172000000000E+02
4928000000.000000      4.149170000000000E-01      2.122265000000000E+01      2.105179000000000E-01      1.582578000000000E+02
4929000000.000000      4.129181000000000E-01      2.112597000000000E+01      2.062149000000000E-01      1.583594000000000E+02
4930000000.000000      4.134979000000000E-01      2.096289000000000E+01      2.023010000000000E-01      1.582578000000000E+02
4931000000.000000      4.127655000000000E-01      2.070313000000000E+01      1.991196000000000E-01      1.581016000000000E+02
4932000000.000000      4.124298000000000E-01      2.056738000000000E+01      1.950836000000000E-01      1.580859000000000E+02
4933000000.000000      4.116364000000000E-01      2.050391000000000E+01      1.903076000000000E-01      1.583203000000000E+02
4934000000.000000      4.116974000000000E-01      2.025097000000000E+01      1.862411000000000E-01      1.581250000000000E+02
4935000000.000000      4.126282000000000E-01      2.020703000000000E+01      1.834259000000000E-01      1.584375000000000E+02
4936000000.000000      4.118347000000000E-01      1.993262000000000E+01      1.788101000000000E-01      1.585078000000000E+02
4937000000.000000      4.118500000000000E-01      1.978711000000000E+01      1.751251000000000E-01      1.586797000000000E+02
4938000000.000000      4.106293000000000E-01      1.977637000000000E+01      1.715546000000000E-01      1.588438000000000E+02
4939000000.000000      4.107361000000000E-01      1.964453000000000E+01      1.674500000000000E-01      1.591328000000000E+02
4940000000.000000      4.105682000000000E-01      1.946289000000000E+01      1.639862000000000E-01      1.593828000000000E+02
4941000000.000000      4.113159000000000E-01      1.911621000000000E+01      1.604996000000000E-01      1.598828000000000E+02
4942000000.000000      4.094543000000000E-01      1.904297000000000E+01      1.565552000000000E-01      1.601406000000000E+02
4943000000.000000      4.091797000000000E-01      1.894824000000000E+01      1.528397000000000E-01      1.607812000000000E+02
4944000000.000000      4.099121000000000E-01      1.866113000000000E+01      1.498184000000000E-01      1.613125000000000E+02
4945000000.000000      4.092712000000000E-01      1.865039000000000E+01      1.460114000000000E-01      1.619844000000000E+02
4946000000.000000      4.094086000000000E-01      1.842773000000000E+01      1.428986000000000E-01      1.628359000000000E+02
4947000000.000000      4.092102000000000E-01      1.821582000000000E+01      1.389847000000000E-01      1.634297000000000E+02
4948000000.000000      4.099121000000000E-01      1.816699000000000E+01      1.359482000000000E-01      1.643281000000000E+02
4949000000.000000      4.075165000000000E-01      1.790137000000000E+01      1.334686000000000E-01      1.653984000000000E+02
4950000000.000000      4.079285000000000E-01      1.778809000000000E+01      1.304855000000000E-01      1.664609000000000E+02
4951000000.000000      4.080200000000000E-01      1.771680000000000E+01      1.275024000000000E-01      1.673750000000000E+02
4952000000.000000      4.072113000000000E-01      1.759668000000000E+01      1.252747000000000E-01      1.685625000000000E+02
4953000000.000000      4.074249000000000E-01      1.736621000000000E+01      1.226349000000000E-01      1.700859000000000E+02
4954000000.000000      4.072113000000000E-01      1.705176000000000E+01      1.200180000000000E-01      1.713438000000000E+02
