! Network Analyzer HP8722D
! Hewlett-Packard
! Data name: Linha & Wilkinson
! Saver's name: Rodrigo Anjos
! Comments: Teste da utilização de aquisição
continua pelo VNA HP8722D
! Time and date: 23/5/2025 15:53
!              Frequency                     S11                                                   S21                                                   S12                                                   S22
# HZ  S  MA R 50
4800000000.000000      2.798615000000000E-01      4.044141000000000E+01      4.882202000000000E-01     -1.299531000000000E+02
4801000000.000000      2.807007000000000E-01      4.073632000000000E+01      4.904480000000000E-01     -1.305312000000000E+02
4802000000.000000      2.820740000000000E-01      4.091992000000000E+01      4.901733000000000E-01     -1.313750000000000E+02
4803000000.000000      2.833405000000000E-01      4.110547000000000E+01      4.935150000000000E-01     -1.320547000000000E+02
4804000000.000000      2.843781000000000E-01      4.144140000000000E+01      4.960327000000000E-01     -1.326562000000000E+02
4805000000.000000      2.866516000000000E-01      4.146874000000000E+01      4.963989000000000E-01     -1.334922000000000E+02
4806000000.000000      2.875977000000000E-01      4.165235000000000E+01      4.985352000000000E-01     -1.342813000000000E+02
4807000000.000000      2.885437000000000E-01      4.186719000000000E+01      4.988556000000000E-01     -1.349453000000000E+02
4808000000.000000      2.898102000000000E-01      4.199804000000000E+01      5.004272000000000E-01     -1.356094000000000E+02
4809000000.000000      2.913818000000000E-01      4.221875000000000E+01      5.021667000000000E-01     -1.365078000000000E+02
4810000000.000000      2.932587000000000E-01      4.234765000000000E+01      5.027466000000000E-01     -1.370234000000000E+02
4811000000.000000      2.948761000000000E-01      4.251953000000000E+01      5.043335000000000E-01     -1.380000000000000E+02
4812000000.000000      2.973938000000000E-01      4.268164000000000E+01      5.041199000000000E-01     -1.385469000000000E+02
4813000000.000000      2.982178000000000E-01      4.286133000000000E+01      5.048523000000000E-01     -1.392734000000000E+02
4814000000.000000      2.995605000000000E-01      4.283008000000000E+01      5.061035000000000E-01     -1.402266000000000E+02
4815000000.000000      3.012695000000000E-01      4.297461000000000E+01      5.070496000000000E-01     -1.408984000000000E+02
4816000000.000000      3.039246000000000E-01      4.304688000000000E+01      5.084839000000000E-01     -1.416641000000000E+02
4817000000.000000      3.048096000000000E-01      4.317187000000000E+01      5.084839000000000E-01     -1.424297000000000E+02
4818000000.000000      3.071594000000000E-01      4.307422000000000E+01      5.088806000000000E-01     -1.430469000000000E+02
4819000000.000000      3.091125000000000E-01      4.323632000000000E+01      5.093689000000000E-01     -1.438359000000000E+02
4820000000.000000      3.099823000000000E-01      4.323632000000000E+01      5.080566000000000E-01     -1.443906000000000E+02
4821000000.000000      3.127289000000000E-01      4.331445000000000E+01      5.096741000000000E-01     -1.452734000000000E+02
4822000000.000000      3.134308000000000E-01      4.321289000000000E+01      5.080566000000000E-01     -1.459063000000000E+02
4823000000.000000      3.162689000000000E-01      4.320508000000000E+01      5.105591000000000E-01     -1.467813000000000E+02
4824000000.000000      3.178711000000000E-01      4.326367000000000E+01      5.088196000000000E-01     -1.473359000000000E+02
4825000000.000000      3.197021000000000E-01      4.314062000000000E+01      5.072327000000000E-01     -1.481406000000000E+02
4826000000.000000      3.207855000000000E-01      4.305469000000000E+01      5.081177000000000E-01     -1.490078000000000E+02
4827000000.000000      3.231812000000000E-01      4.306641000000000E+01      5.081177000000000E-01     -1.495703000000000E+02
4828000000.000000      3.257904000000000E-01      4.301367000000000E+01      5.086365000000000E-01     -1.501641000000000E+02
4829000000.000000      3.273926000000000E-01      4.310547000000000E+01      5.082092000000000E-01     -1.509219000000000E+02
4830000000.000000      3.287201000000000E-01      4.289063000000000E+01      5.053101000000000E-01     -1.518594000000000E+02
4831000000.000000      3.300629000000000E-01      4.277929000000000E+01      5.061035000000000E-01     -1.525078000000000E+02
4832000000.000000      3.331146000000000E-01      4.277344000000000E+01      5.054016000000000E-01     -1.533125000000000E+02
4833000000.000000      3.336639000000000E-01      4.263867000000000E+01      5.043945000000000E-01     -1.540000000000000E+02
4834000000.000000      3.354797000000000E-01      4.248437000000000E+01      5.035095000000000E-01     -1.547500000000000E+02
4835000000.000000      3.377533000000000E-01      4.233007000000000E+01      5.031738000000000E-01     -1.555000000000000E+02
4836000000.000000      3.395844000000000E-01      4.224805000000000E+01      5.008850000000000E-01     -1.560859000000000E+02
4837000000.000000      3.412476000000000E-01      4.219140000000000E+01      5.003052000000000E-01     -1.570625000000000E+02
4838000000.000000      3.420563000000000E-01      4.194140000000000E+01      5.005493000000000E-01     -1.573906000000000E+02
4839000000.000000      3.458099000000000E-01      4.187890000000000E+01      4.979858000000000E-01     -1.581953000000000E+02
4840000000.000000      3.464508000000000E-01      4.159570000000000E+01      4.977264000000000E-01     -1.590391000000000E+02
4841000000.000000      3.481598000000000E-01      4.144140000000000E+01      4.971924000000000E-01     -1.597656000000000E+02
4842000000.000000      3.491669000000000E-01      4.130664000000000E+01      4.948273000000000E-01     -1.603906000000000E+02
4843000000.000000      3.521118000000000E-01      4.096875000000000E+01      4.940796000000000E-01     -1.611562000000000E+02
4844000000.000000      3.524780000000000E-01      4.083203000000000E+01      4.920044000000000E-01     -1.619609000000000E+02
4845000000.000000      3.541870000000000E-01      4.074804000000000E+01      4.909973000000000E-01     -1.625156000000000E+02
4846000000.000000      3.562317000000000E-01      4.050977000000000E+01      4.895020000000000E-01     -1.632109000000000E+02
4847000000.000000      3.581238000000000E-01      4.045117000000000E+01      4.872131000000000E-01     -1.637891000000000E+02
4848000000.000000      3.585052000000000E-01      4.015038000000000E+01      4.837036000000000E-01     -1.646172000000000E+02
4849000000.000000      3.601685000000000E-01      3.981250000000000E+01      4.836884000000000E-01     -1.654063000000000E+02
4850000000.000000      3.613129000000000E-01      3.970508000000000E+01      4.806213000000000E-01     -1.659375000000000E+02
4851000000.000000      3.631592000000000E-01      3.950195000000000E+01      4.798431000000000E-01     -1.667187000000000E+02
4852000000.000000      3.646240000000000E-01      3.923633000000000E+01      4.776154000000000E-01     -1.675390000000000E+02
4853000000.000000      3.660583000000000E-01      3.906641000000000E+01      4.746094000000000E-01     -1.681562000000000E+02
4854000000.000000      3.669739000000000E-01      3.868945000000000E+01      4.733734000000000E-01     -1.687500000000000E+02
4855000000.000000      3.684387000000000E-01      3.858007000000000E+01      4.702454000000000E-01     -1.694766000000000E+02
4856000000.000000      3.688660000000000E-01      3.826562000000000E+01      4.678802000000000E-01     -1.702656000000000E+02
4857000000.000000      3.707886000000000E-01      3.807422000000000E+01      4.669647000000000E-01     -1.709531000000000E+02
4858000000.000000      3.715668000000000E-01      3.775781000000000E+01      4.647064000000000E-01     -1.715781000000000E+02
4859000000.000000      3.724670000000000E-01      3.742188000000000E+01      4.614716000000000E-01     -1.721797000000000E+02
4860000000.000000      3.736267000000000E-01      3.739258000000000E+01      4.592285000000000E-01     -1.730000000000000E+02
4861000000.000000      3.742981000000000E-01      3.703125000000000E+01      4.572601000000000E-01     -1.737266000000000E+02
4862000000.000000      3.755035000000000E-01      3.675781000000000E+01      4.526672000000000E-01     -1.743047000000000E+02
4863000000.000000      3.762360000000000E-01      3.656445000000000E+01      4.500427000000000E-01     -1.749922000000000E+02
4864000000.000000      3.773651000000000E-01      3.630664000000000E+01      4.482117000000000E-01     -1.755859000000000E+02
4865000000.000000      3.774414000000000E-01      3.589648000000000E+01      4.444885000000000E-01     -1.763750000000000E+02
4866000000.000000      3.787994000000000E-01      3.562891000000000E+01      4.403687000000000E-01     -1.770703000000000E+02
4867000000.000000      3.786163000000000E-01      3.533594000000000E+01      4.393311000000000E-01     -1.777734000000000E+02
4868000000.000000      3.803406000000000E-01      3.511328000000000E+01      4.360046000000000E-01     -1.783203000000000E+02
4869000000.000000      3.810120000000000E-01      3.487890000000000E+01      4.324951000000000E-01     -1.790469000000000E+02
4870000000.000000      3.813477000000000E-01      3.459961000000000E+01      4.283447000000000E-01     -1.793984000000000E+02
4871000000.000000      3.813019000000000E-01      3.426367000000000E+01      4.267578000000000E-01      1.798359000000000E+02
4872000000.000000      3.835754000000000E-01      3.402734000000000E+01      4.226532000000000E-01      1.794062000000000E+02
4873000000.000000      3.830566000000000E-01      3.385351000000000E+01      4.189301000000000E-01      1.786641000000000E+02
4874000000.000000      3.838043000000000E-01      3.363672000000000E+01      4.150696000000000E-01      1.778437000000000E+02
4875000000.000000      3.841553000000000E-01      3.325976000000000E+01      4.132233000000000E-01      1.775234000000000E+02
4876000000.000000      3.848419000000000E-01      3.310937000000000E+01      4.087982000000000E-01      1.768516000000000E+02
4877000000.000000      3.852386000000000E-01      3.265039000000000E+01      4.045410000000000E-01      1.764844000000000E+02
4878000000.000000      3.850708000000000E-01      3.237500000000000E+01      4.039001000000000E-01      1.758437000000000E+02
4879000000.000000      3.866425000000000E-01      3.223242000000000E+01      3.974762000000000E-01      1.753984000000000E+02
4880000000.000000      3.866272000000000E-01      3.190918000000000E+01      3.939514000000000E-01      1.745859000000000E+02
4881000000.000000      3.862610000000000E-01      3.164063000000000E+01      3.914795000000000E-01      1.741406000000000E+02
4882000000.000000      3.867493000000000E-01      3.153125000000000E+01      3.878326000000000E-01      1.735078000000000E+02
4883000000.000000      3.870544000000000E-01      3.103320000000000E+01      3.838501000000000E-01      1.730469000000000E+02
4884000000.000000      3.874817000000000E-01      3.088086000000000E+01      3.793182000000000E-01      1.725703000000000E+02
4885000000.000000      3.871918000000000E-01      3.065918000000000E+01      3.770599000000000E-01      1.722734000000000E+02
4886000000.000000      3.876343000000000E-01      3.038867000000000E+01      3.733826000000000E-01      1.717422000000000E+02
4887000000.000000      3.869019000000000E-01      3.009766000000000E+01      3.704987000000000E-01      1.711094000000000E+02
4888000000.000000      3.877563000000000E-01      2.978027000000000E+01      3.660126000000000E-01      1.706484000000000E+02
4889000000.000000      3.879395000000000E-01      2.969141000000000E+01      3.631744000000000E-01      1.703438000000000E+02
4890000000.000000      3.872223000000000E-01      2.928515000000000E+01      3.592987000000000E-01      1.693594000000000E+02
4891000000.000000      3.876038000000000E-01      2.922754000000000E+01      3.550415000000000E-01      1.693438000000000E+02
4892000000.000000      3.875122000000000E-01      2.882226000000000E+01      3.526306000000000E-01      1.686797000000000E+02
4893000000.000000      3.881989000000000E-01      2.862305000000000E+01      3.479004000000000E-01      1.682578000000000E+02
4894000000.000000      3.874054000000000E-01      2.845508000000000E+01      3.445740000000000E-01      1.679922000000000E+02
4895000000.000000      3.877563000000000E-01      2.819043000000000E+01      3.422852000000000E-01      1.674375000000000E+02
4896000000.000000      3.869629000000000E-01      2.787598000000000E+01      3.389740000000000E-01      1.671875000000000E+02
4897000000.000000      3.873444000000000E-01      2.767090000000000E+01      3.341675000000000E-01      1.663047000000000E+02
4898000000.000000      3.862152000000000E-01      2.747949000000000E+01      3.305664000000000E-01      1.662734000000000E+02
4899000000.000000      3.868713000000000E-01      2.717382000000000E+01      3.271637000000000E-01      1.660391000000000E+02
4900000000.000000      3.863068000000000E-01      2.694238000000000E+01      3.237457000000000E-01      1.653672000000000E+02
4901000000.000000      3.863373000000000E-01      2.680859000000000E+01      3.207703000000000E-01      1.650312000000000E+02
4902000000.000000      3.859100000000000E-01      2.660254000000000E+01      3.171234000000000E-01      1.647422000000000E+02
4903000000.000000      3.858795000000000E-01      2.634082000000000E+01      3.136749000000000E-01      1.643594000000000E+02
4904000000.000000      3.859406000000000E-01      2.597851000000000E+01      3.104858000000000E-01      1.638047000000000E+02
4905000000.000000      3.856964000000000E-01      2.598633000000000E+01      3.072662000000000E-01      1.633672000000000E+02
4906000000.000000      3.847198000000000E-01      2.584473000000000E+01      3.041534000000000E-01      1.632969000000000E+02
4907000000.000000      3.855896000000000E-01      2.544922000000000E+01      2.999115000000000E-01      1.626094000000000E+02
4908000000.000000      3.853912000000000E-01      2.522265000000000E+01      2.974243000000000E-01      1.623437000000000E+02
4909000000.000000      3.838654000000000E-01      2.496875000000000E+01      2.930450000000000E-01      1.620078000000000E+02
4910000000.000000      3.835754000000000E-01      2.495214000000000E+01      2.899475000000000E-01      1.615078000000000E+02
4911000000.000000      3.844299000000000E-01      2.469824000000000E+01      2.866821000000000E-01      1.612422000000000E+02
4912000000.000000      3.828888000000000E-01      2.461816000000000E+01      2.822723000000000E-01      1.606797000000000E+02
4913000000.000000      3.835297000000000E-01      2.433398000000000E+01      2.794495000000000E-01      1.604609000000000E+02
4914000000.000000      3.835754000000000E-01      2.403613000000000E+01      2.749939000000000E-01      1.602187000000000E+02
4915000000.000000      3.824921000000000E-01      2.391797000000000E+01      2.718201000000000E-01      1.595781000000000E+02
4916000000.000000      3.828735000000000E-01      2.379883000000000E+01      2.683411000000000E-01      1.594531000000000E+02
4917000000.000000      3.826447000000000E-01      2.366992000000000E+01      2.645264000000000E-01      1.589297000000000E+02
4918000000.000000      3.811798000000000E-01      2.346094000000000E+01      2.600708000000000E-01      1.586719000000000E+02
4919000000.000000      3.815460000000000E-01      2.321680000000000E+01      2.568512000000000E-01      1.587422000000000E+02
4920000000.000000      3.814545000000000E-01      2.298828000000000E+01      2.522736000000000E-01      1.580312000000000E+02
4921000000.000000      3.810120000000000E-01      2.304199000000000E+01      2.499619000000000E-01      1.578672000000000E+02
4922000000.000000      3.803406000000000E-01      2.244629000000000E+01      2.451859000000000E-01      1.577422000000000E+02
4923000000.000000      3.811951000000000E-01      2.255273000000000E+01      2.409515000000000E-01      1.574375000000000E+02
4924000000.000000      3.802032000000000E-01      2.232129000000000E+01      2.367401000000000E-01      1.569531000000000E+02
4925000000.000000      3.800659000000000E-01      2.204199000000000E+01      2.331009000000000E-01      1.570859000000000E+02
4926000000.000000      3.794708000000000E-01      2.192969000000000E+01      2.292328000000000E-01      1.566719000000000E+02
4927000000.000000      3.790894000000000E-01      2.176465000000000E+01      2.249680000000000E-01      1.564141000000000E+02
4928000000.000000      3.809357000000000E-01      2.161231000000000E+01      2.214890000000000E-01      1.564766000000000E+02
4929000000.000000      3.791656000000000E-01      2.139160000000000E+01      2.166748000000000E-01      1.561094000000000E+02
4930000000.000000      3.792419000000000E-01      2.132422000000000E+01      2.130203000000000E-01      1.561563000000000E+02
4931000000.000000      3.788147000000000E-01      2.097363000000000E+01      2.092285000000000E-01      1.559453000000000E+02
4932000000.000000      3.785248000000000E-01      2.089160000000000E+01      2.045288000000000E-01      1.560078000000000E+02
4933000000.000000      3.781738000000000E-01      2.071875000000000E+01      2.001724000000000E-01      1.561563000000000E+02
4934000000.000000      3.778687000000000E-01      2.047656000000000E+01      1.963120000000000E-01      1.559219000000000E+02
4935000000.000000      3.782501000000000E-01      2.025000000000000E+01      1.931458000000000E-01      1.563047000000000E+02
4936000000.000000      3.771973000000000E-01      2.012109000000000E+01      1.888275000000000E-01      1.562578000000000E+02
4937000000.000000      3.775330000000000E-01      1.988477000000000E+01      1.845322000000000E-01      1.561563000000000E+02
4938000000.000000      3.760376000000000E-01      1.994922000000000E+01      1.805649000000000E-01      1.567188000000000E+02
4939000000.000000      3.767395000000000E-01      1.963183000000000E+01      1.764679000000000E-01      1.568359000000000E+02
4940000000.000000      3.767090000000000E-01      1.945996000000000E+01      1.720581000000000E-01      1.570078000000000E+02
4941000000.000000      3.766937000000000E-01      1.925000000000000E+01      1.690979000000000E-01      1.576250000000000E+02
4942000000.000000      3.753357000000000E-01      1.918066000000000E+01      1.648026000000000E-01      1.580625000000000E+02
4943000000.000000      3.756866000000000E-01      1.903320000000000E+01      1.609802000000000E-01      1.583906000000000E+02
4944000000.000000      3.748322000000000E-01      1.883301000000000E+01      1.579742000000000E-01      1.588047000000000E+02
4945000000.000000      3.746338000000000E-01      1.858301000000000E+01      1.537170000000000E-01      1.595469000000000E+02
4946000000.000000      3.744659000000000E-01      1.842773000000000E+01      1.504059000000000E-01      1.602422000000000E+02
4947000000.000000      3.743744000000000E-01      1.818555000000000E+01      1.463242000000000E-01      1.609219000000000E+02
4948000000.000000      3.737488000000000E-01      1.827246000000000E+01      1.432190000000000E-01      1.617266000000000E+02
4949000000.000000      3.724823000000000E-01      1.793652000000000E+01      1.403961000000000E-01      1.629766000000000E+02
4950000000.000000      3.740997000000000E-01      1.781543000000000E+01      1.368256000000000E-01      1.636719000000000E+02
4951000000.000000      3.730011000000000E-01      1.751562000000000E+01      1.341629000000000E-01      1.647812000000000E+02
4952000000.000000      3.716431000000000E-01      1.744141000000000E+01      1.311493000000000E-01      1.659531000000000E+02
4953000000.000000      3.715668000000000E-01      1.724902000000000E+01      1.291275000000000E-01      1.672969000000000E+02
4954000000.000000      3.723602000000000E-01      1.719824000000000E+01      1.260681000000000E-01      1.682734000000000E+02
