! Network Analyzer HP8722D
! Hewlett-Packard
! Data name: Linha & Wilkinson
! Saver's name: Rodrigo Anjos
! Comments: Teste da utilização de aquisição
continua pelo VNA HP8722D
! Time and date: 23/5/2025 12:22
!              Frequency                     S11                                                   S21                                                   S12                                                   S22
# HZ  S  MA R 50
4800000000.000000      2.977905000000000E-01      3.867773000000000E+01      4.794312000000000E-01     -1.288594000000000E+02
4801000000.000000      2.982483000000000E-01      3.894336000000000E+01      4.795227000000000E-01     -1.296484000000000E+02
4802000000.000000      2.990723000000000E-01      3.907422000000000E+01      4.816437000000000E-01     -1.301484000000000E+02
4803000000.000000      3.002167000000000E-01      3.925390000000000E+01      4.841003000000000E-01     -1.308438000000000E+02
4804000000.000000      3.014221000000000E-01      3.954492000000000E+01      4.852142000000000E-01     -1.315391000000000E+02
4805000000.000000      3.032684000000000E-01      3.958593000000000E+01      4.868927000000000E-01     -1.324453000000000E+02
4806000000.000000      3.040466000000000E-01      3.982226000000000E+01      4.885864000000000E-01     -1.330234000000000E+02
4807000000.000000      3.049774000000000E-01      4.004296000000000E+01      4.900818000000000E-01     -1.339141000000000E+02
4808000000.000000      3.063965000000000E-01      4.015038000000000E+01      4.912872000000000E-01     -1.344531000000000E+02
4809000000.000000      3.075714000000000E-01      4.041797000000000E+01      4.918976000000000E-01     -1.353672000000000E+02
4810000000.000000      3.094482000000000E-01      4.046679000000000E+01      4.933319000000000E-01     -1.359297000000000E+02
4811000000.000000      3.105927000000000E-01      4.060937000000000E+01      4.935455000000000E-01     -1.368438000000000E+02
4812000000.000000      3.132172000000000E-01      4.078321000000000E+01      4.946289000000000E-01     -1.375547000000000E+02
4813000000.000000      3.142242000000000E-01      4.093750000000000E+01      4.953003000000000E-01     -1.382109000000000E+02
4814000000.000000      3.150787000000000E-01      4.096093000000000E+01      4.968262000000000E-01     -1.387266000000000E+02
4815000000.000000      3.164673000000000E-01      4.112500000000000E+01      4.970398000000000E-01     -1.396875000000000E+02
4816000000.000000      3.192444000000000E-01      4.124609000000000E+01      4.984436000000000E-01     -1.404375000000000E+02
4817000000.000000      3.201599000000000E-01      4.132226000000000E+01      4.982605000000000E-01     -1.410703000000000E+02
4818000000.000000      3.216248000000000E-01      4.131640000000000E+01      4.971771000000000E-01     -1.418359000000000E+02
4819000000.000000      3.238983000000000E-01      4.135351000000000E+01      4.983063000000000E-01     -1.425859000000000E+02
4820000000.000000      3.247833000000000E-01      4.141797000000000E+01      4.984131000000000E-01     -1.432188000000000E+02
4821000000.000000      3.272247000000000E-01      4.148046000000000E+01      5.000305000000000E-01     -1.440156000000000E+02
4822000000.000000      3.286285000000000E-01      4.137109000000000E+01      4.982605000000000E-01     -1.448359000000000E+02
4823000000.000000      3.302460000000000E-01      4.143750000000000E+01      4.993439000000000E-01     -1.454922000000000E+02
4824000000.000000      3.325348000000000E-01      4.157812000000000E+01      4.982758000000000E-01     -1.463828000000000E+02
4825000000.000000      3.340302000000000E-01      4.139453000000000E+01      4.982910000000000E-01     -1.469922000000000E+02
4826000000.000000      3.357697000000000E-01      4.135351000000000E+01      4.996948000000000E-01     -1.479063000000000E+02
4827000000.000000      3.381958000000000E-01      4.133203000000000E+01      4.985962000000000E-01     -1.483828000000000E+02
4828000000.000000      3.397522000000000E-01      4.133985000000000E+01      4.980164000000000E-01     -1.492109000000000E+02
4829000000.000000      3.411713000000000E-01      4.141602000000000E+01      4.975128000000000E-01     -1.498516000000000E+02
4830000000.000000      3.426819000000000E-01      4.124413000000000E+01      4.971619000000000E-01     -1.507813000000000E+02
4831000000.000000      3.442230000000000E-01      4.108594000000000E+01      4.971313000000000E-01     -1.515391000000000E+02
4832000000.000000      3.457489000000000E-01      4.122851000000000E+01      4.956207000000000E-01     -1.520703000000000E+02
4833000000.000000      3.474274000000000E-01      4.098437000000000E+01      4.948883000000000E-01     -1.526875000000000E+02
4834000000.000000      3.492279000000000E-01      4.092773000000000E+01      4.954071000000000E-01     -1.535312000000000E+02
4835000000.000000      3.512878000000000E-01      4.081250000000000E+01      4.931946000000000E-01     -1.541641000000000E+02
4836000000.000000      3.535919000000000E-01      4.082421000000000E+01      4.920349000000000E-01     -1.549375000000000E+02
4837000000.000000      3.545990000000000E-01      4.070313000000000E+01      4.899597000000000E-01     -1.557969000000000E+02
4838000000.000000      3.562164000000000E-01      4.051953000000000E+01      4.905396000000000E-01     -1.563984000000000E+02
4839000000.000000      3.589478000000000E-01      4.044726000000000E+01      4.896698000000000E-01     -1.570547000000000E+02
4840000000.000000      3.601837000000000E-01      4.019140000000000E+01      4.892426000000000E-01     -1.576797000000000E+02
4841000000.000000      3.618011000000000E-01      4.019727000000000E+01      4.882050000000000E-01     -1.585234000000000E+02
4842000000.000000      3.628540000000000E-01      3.991015000000000E+01      4.856567000000000E-01     -1.590937000000000E+02
4843000000.000000      3.657990000000000E-01      3.965625000000000E+01      4.849243000000000E-01     -1.599688000000000E+02
4844000000.000000      3.659363000000000E-01      3.956445000000000E+01      4.830322000000000E-01     -1.607265000000000E+02
4845000000.000000      3.679352000000000E-01      3.945508000000000E+01      4.813843000000000E-01     -1.613594000000000E+02
4846000000.000000      3.701324000000000E-01      3.932031000000000E+01      4.789886000000000E-01     -1.621172000000000E+02
4847000000.000000      3.712463000000000E-01      3.919336000000000E+01      4.778290000000000E-01     -1.626797000000000E+02
4848000000.000000      3.718109000000000E-01      3.888086000000000E+01      4.763641000000000E-01     -1.634453000000000E+02
4849000000.000000      3.735809000000000E-01      3.862109000000000E+01      4.749603000000000E-01     -1.639531000000000E+02
4850000000.000000      3.752594000000000E-01      3.842187000000000E+01      4.724274000000000E-01     -1.648828000000000E+02
4851000000.000000      3.768768000000000E-01      3.837891000000000E+01      4.718781000000000E-01     -1.656094000000000E+02
4852000000.000000      3.783569000000000E-01      3.808008000000000E+01      4.694214000000000E-01     -1.663750000000000E+02
4853000000.000000      3.792877000000000E-01      3.793945000000000E+01      4.668732000000000E-01     -1.670156000000000E+02
4854000000.000000      3.803864000000000E-01      3.766602000000000E+01      4.643097000000000E-01     -1.677891000000000E+02
4855000000.000000      3.812256000000000E-01      3.748242000000000E+01      4.629822000000000E-01     -1.683828000000000E+02
4856000000.000000      3.823547000000000E-01      3.721289000000000E+01      4.614716000000000E-01     -1.691641000000000E+02
4857000000.000000      3.833618000000000E-01      3.709375000000000E+01      4.582977000000000E-01     -1.697031000000000E+02
4858000000.000000      3.844299000000000E-01      3.684375000000000E+01      4.566498000000000E-01     -1.703125000000000E+02
4859000000.000000      3.865204000000000E-01      3.650976000000000E+01      4.547882000000000E-01     -1.711875000000000E+02
4860000000.000000      3.871307000000000E-01      3.638086000000000E+01      4.504700000000000E-01     -1.717500000000000E+02
4861000000.000000      3.882599000000000E-01      3.605273000000000E+01      4.490814000000000E-01     -1.726328000000000E+02
4862000000.000000      3.881226000000000E-01      3.586133000000000E+01      4.459229000000000E-01     -1.732578000000000E+02
4863000000.000000      3.898926000000000E-01      3.566406000000000E+01      4.428101000000000E-01     -1.740156000000000E+02
4864000000.000000      3.906403000000000E-01      3.544726000000000E+01      4.402924000000000E-01     -1.745781000000000E+02
4865000000.000000      3.908539000000000E-01      3.503125000000000E+01      4.392242000000000E-01     -1.752656000000000E+02
4866000000.000000      3.929443000000000E-01      3.474609000000000E+01      4.347992000000000E-01     -1.759687000000000E+02
4867000000.000000      3.926392000000000E-01      3.458593000000000E+01      4.311371000000000E-01     -1.766172000000000E+02
4868000000.000000      3.944244000000000E-01      3.432226000000000E+01      4.296875000000000E-01     -1.772734000000000E+02
4869000000.000000      3.941040000000000E-01      3.411328000000000E+01      4.268799000000000E-01     -1.779453000000000E+02
4870000000.000000      3.954315000000000E-01      3.389257000000000E+01      4.216766000000000E-01     -1.784141000000000E+02
4871000000.000000      3.953400000000000E-01      3.344922000000000E+01      4.186401000000000E-01     -1.791719000000000E+02
4872000000.000000      3.973694000000000E-01      3.334570000000000E+01      4.138794000000000E-01     -1.797734000000000E+02
4873000000.000000      3.970337000000000E-01      3.312891000000000E+01      4.120941000000000E-01      1.797109000000000E+02
4874000000.000000      3.974915000000000E-01      3.283398000000000E+01      4.098358000000000E-01      1.788516000000000E+02
4875000000.000000      3.981018000000000E-01      3.252344000000000E+01      4.057922000000000E-01      1.786094000000000E+02
4876000000.000000      3.989563000000000E-01      3.242383000000000E+01      4.026489000000000E-01      1.779609000000000E+02
4877000000.000000      4.006805000000000E-01      3.193945000000000E+01      3.988800000000000E-01      1.771563000000000E+02
4878000000.000000      3.990326000000000E-01      3.183398000000000E+01      3.957214000000000E-01      1.765781000000000E+02
4879000000.000000      4.008179000000000E-01      3.172070000000000E+01      3.911743000000000E-01      1.762891000000000E+02
4880000000.000000      4.018402000000000E-01      3.128613000000000E+01      3.864899000000000E-01      1.755703000000000E+02
4881000000.000000      4.008331000000000E-01      3.108105000000000E+01      3.854218000000000E-01      1.751484000000000E+02
4882000000.000000      4.018097000000000E-01      3.099218000000000E+01      3.815155000000000E-01      1.744688000000000E+02
4883000000.000000      4.018097000000000E-01      3.055664000000000E+01      3.778992000000000E-01      1.738828000000000E+02
4884000000.000000      4.017792000000000E-01      3.042773000000000E+01      3.737030000000000E-01      1.735547000000000E+02
4885000000.000000      4.017792000000000E-01      3.013086000000000E+01      3.710022000000000E-01      1.731719000000000E+02
4886000000.000000      4.028015000000000E-01      2.992090000000000E+01      3.659515000000000E-01      1.727344000000000E+02
4887000000.000000      4.020386000000000E-01      2.975781000000000E+01      3.645935000000000E-01      1.720312000000000E+02
4888000000.000000      4.027710000000000E-01      2.930566000000000E+01      3.608856000000000E-01      1.713438000000000E+02
4889000000.000000      4.022980000000000E-01      2.922754000000000E+01      3.569489000000000E-01      1.712578000000000E+02
4890000000.000000      4.020386000000000E-01      2.885937000000000E+01      3.537445000000000E-01      1.704141000000000E+02
4891000000.000000      4.031525000000000E-01      2.872363000000000E+01      3.491821000000000E-01      1.701406000000000E+02
4892000000.000000      4.030609000000000E-01      2.854589000000000E+01      3.457031000000000E-01      1.698047000000000E+02
4893000000.000000      4.028473000000000E-01      2.819824000000000E+01      3.417053000000000E-01      1.690234000000000E+02
4894000000.000000      4.015656000000000E-01      2.805957000000000E+01      3.371124000000000E-01      1.688125000000000E+02
4895000000.000000      4.028473000000000E-01      2.771679000000000E+01      3.364716000000000E-01      1.683203000000000E+02
4896000000.000000      4.029846000000000E-01      2.759472000000000E+01      3.321228000000000E-01      1.678828000000000E+02
4897000000.000000      4.024963000000000E-01      2.738574000000000E+01      3.275146000000000E-01      1.676953000000000E+02
4898000000.000000      4.020081000000000E-01      2.717676000000000E+01      3.252563000000000E-01      1.671875000000000E+02
4899000000.000000      4.018402000000000E-01      2.687597000000000E+01      3.220825000000000E-01      1.666094000000000E+02
4900000000.000000      4.013062000000000E-01      2.663281000000000E+01      3.186646000000000E-01      1.663359000000000E+02
4901000000.000000      4.017944000000000E-01      2.661621000000000E+01      3.153534000000000E-01      1.658672000000000E+02
4902000000.000000      4.013672000000000E-01      2.625683000000000E+01      3.126984000000000E-01      1.656016000000000E+02
4903000000.000000      4.028931000000000E-01      2.602930000000000E+01      3.079376000000000E-01      1.650859000000000E+02
4904000000.000000      4.018250000000000E-01      2.591601000000000E+01      3.044586000000000E-01      1.647734000000000E+02
4905000000.000000      4.013062000000000E-01      2.575293000000000E+01      3.016815000000000E-01      1.641953000000000E+02
4906000000.000000      4.007263000000000E-01      2.546875000000000E+01      2.983704000000000E-01      1.641953000000000E+02
4907000000.000000      4.004517000000000E-01      2.525586000000000E+01      2.952576000000000E-01      1.636172000000000E+02
4908000000.000000      4.002991000000000E-01      2.508789000000000E+01      2.918701000000000E-01      1.632266000000000E+02
4909000000.000000      4.005585000000000E-01      2.477051000000000E+01      2.878418000000000E-01      1.627656000000000E+02
4910000000.000000      4.003296000000000E-01      2.472851000000000E+01      2.837982000000000E-01      1.625859000000000E+02
4911000000.000000      4.001160000000000E-01      2.452637000000000E+01      2.816772000000000E-01      1.621953000000000E+02
4912000000.000000      3.999939000000000E-01      2.437695000000000E+01      2.774048000000000E-01      1.616484000000000E+02
4913000000.000000      3.997803000000000E-01      2.407324000000000E+01      2.744293000000000E-01      1.613828000000000E+02
4914000000.000000      3.991699000000000E-01      2.392871000000000E+01      2.697601000000000E-01      1.610703000000000E+02
4915000000.000000      3.985138000000000E-01      2.381250000000000E+01      2.669067000000000E-01      1.605312000000000E+02
4916000000.000000      3.991547000000000E-01      2.360644000000000E+01      2.626648000000000E-01      1.601641000000000E+02
4917000000.000000      3.985901000000000E-01      2.354199000000000E+01      2.590942000000000E-01      1.599766000000000E+02
4918000000.000000      3.986053000000000E-01      2.323828000000000E+01      2.552338000000000E-01      1.595703000000000E+02
4919000000.000000      3.974609000000000E-01      2.308496000000000E+01      2.520599000000000E-01      1.594844000000000E+02
4920000000.000000      3.992004000000000E-01      2.283594000000000E+01      2.477646000000000E-01      1.587734000000000E+02
4921000000.000000      3.975525000000000E-01      2.283594000000000E+01      2.444153000000000E-01      1.587812000000000E+02
4922000000.000000      3.977509000000000E-01      2.256152000000000E+01      2.404175000000000E-01      1.585000000000000E+02
4923000000.000000      3.974152000000000E-01      2.253906000000000E+01      2.360458000000000E-01      1.582891000000000E+02
4924000000.000000      3.979645000000000E-01      2.230273000000000E+01      2.320099000000000E-01      1.578672000000000E+02
4925000000.000000      3.970032000000000E-01      2.201172000000000E+01      2.285385000000000E-01      1.578203000000000E+02
4926000000.000000      3.965149000000000E-01      2.182519000000000E+01      2.250290000000000E-01      1.574844000000000E+02
4927000000.000000      3.963776000000000E-01      2.172949000000000E+01      2.204742000000000E-01      1.573359000000000E+02
4928000000.000000      3.971863000000000E-01      2.132813000000000E+01      2.169724000000000E-01      1.571797000000000E+02
4929000000.000000      3.953400000000000E-01      2.126172000000000E+01      2.130890000000000E-01      1.572344000000000E+02
4930000000.000000      3.951874000000000E-01      2.121777000000000E+01      2.087708000000000E-01      1.569531000000000E+02
4931000000.000000      3.940887000000000E-01      2.096386000000000E+01      2.054901000000000E-01      1.568828000000000E+02
4932000000.000000      3.955078000000000E-01      2.099023000000000E+01      2.007294000000000E-01      1.569766000000000E+02
4933000000.000000      3.946838000000000E-01      2.062891000000000E+01      1.964111000000000E-01      1.570234000000000E+02
4934000000.000000      3.951263000000000E-01      2.041992000000000E+01      1.934967000000000E-01      1.569062000000000E+02
4935000000.000000      3.951111000000000E-01      2.040234000000000E+01      1.891708000000000E-01      1.572344000000000E+02
4936000000.000000      3.933258000000000E-01      2.018555000000000E+01      1.849747000000000E-01      1.572344000000000E+02
4937000000.000000      3.942871000000000E-01      1.998926000000000E+01      1.811829000000000E-01      1.572187000000000E+02
4938000000.000000      3.934631000000000E-01      1.991894000000000E+01      1.770706000000000E-01      1.577109000000000E+02
4939000000.000000      3.931274000000000E-01      1.974512000000000E+01      1.730042000000000E-01      1.577266000000000E+02
4940000000.000000      3.929443000000000E-01      1.945508000000000E+01      1.691971000000000E-01      1.578750000000000E+02
4941000000.000000      3.923950000000000E-01      1.933691000000000E+01      1.657791000000000E-01      1.582344000000000E+02
4942000000.000000      3.913116000000000E-01      1.918945000000000E+01      1.613159000000000E-01      1.586406000000000E+02
4943000000.000000      3.923492000000000E-01      1.908594000000000E+01      1.581879000000000E-01      1.592344000000000E+02
4944000000.000000      3.919678000000000E-01      1.891113000000000E+01      1.543961000000000E-01      1.598359000000000E+02
4945000000.000000      3.912506000000000E-01      1.871094000000000E+01      1.506577000000000E-01      1.603359000000000E+02
4946000000.000000      3.909607000000000E-01      1.848828000000000E+01      1.476288000000000E-01      1.610859000000000E+02
4947000000.000000      3.919678000000000E-01      1.840723000000000E+01      1.438904000000000E-01      1.617031000000000E+02
4948000000.000000      3.910217000000000E-01      1.828809000000000E+01      1.409531000000000E-01      1.625547000000000E+02
4949000000.000000      3.900452000000000E-01      1.814746000000000E+01      1.374359000000000E-01      1.638594000000000E+02
4950000000.000000      3.897095000000000E-01      1.792676000000000E+01      1.341858000000000E-01      1.644063000000000E+02
4951000000.000000      3.896332000000000E-01      1.772851000000000E+01      1.314240000000000E-01      1.654844000000000E+02
4952000000.000000      3.895569000000000E-01      1.744726000000000E+01      1.283798000000000E-01      1.667109000000000E+02
4953000000.000000      3.894806000000000E-01      1.738574000000000E+01      1.259995000000000E-01      1.680156000000000E+02
4954000000.000000      3.885651000000000E-01      1.720801000000000E+01      1.234283000000000E-01      1.695000000000000E+02
