! Network Analyzer HP8722D
! Hewlett-Packard
! Data name: Linha & Wilkinson
! Saver's name: Rodrigo Anjos
! Comments: Teste da utilização de aquisição
continua pelo VNA HP8722D
! Time and date: 23/5/2025 08:22
!              Frequency                     S11                                                   S21                                                   S12                                                   S22
# HZ  S  MA R 50
4800000000.000000      4.076233000000000E-01      2.956250000000000E+01      4.327545000000000E-01     -1.194453000000000E+02
4801000000.000000      4.059296000000000E-01      2.972070000000000E+01      4.332886000000000E-01     -1.201484000000000E+02
4802000000.000000      4.072876000000000E-01      2.949902000000000E+01      4.344635000000000E-01     -1.208008000000000E+02
4803000000.000000      4.072266000000000E-01      2.980566000000000E+01      4.381561000000000E-01     -1.213008000000000E+02
4804000000.000000      4.074707000000000E-01      3.000000000000000E+01      4.391022000000000E-01     -1.222734000000000E+02
4805000000.000000      4.074249000000000E-01      3.013672000000000E+01      4.393158000000000E-01     -1.228945000000000E+02
4806000000.000000      4.077759000000000E-01      3.029004000000000E+01      4.407959000000000E-01     -1.236094000000000E+02
4807000000.000000      4.087982000000000E-01      3.025586000000000E+01      4.416046000000000E-01     -1.245742000000000E+02
4808000000.000000      4.068604000000000E-01      3.023144000000000E+01      4.435577000000000E-01     -1.252305000000000E+02
4809000000.000000      4.093933000000000E-01      3.050976000000000E+01      4.443359000000000E-01     -1.260508000000000E+02
4810000000.000000      4.101868000000000E-01      3.061328000000000E+01      4.459534000000000E-01     -1.265547000000000E+02
4811000000.000000      4.107971000000000E-01      3.079590000000000E+01      4.472198000000000E-01     -1.275898000000000E+02
4812000000.000000      4.118500000000000E-01      3.091601000000000E+01      4.485931000000000E-01     -1.282187000000000E+02
4813000000.000000      4.131470000000000E-01      3.095508000000000E+01      4.494934000000000E-01     -1.290469000000000E+02
4814000000.000000      4.111938000000000E-01      3.125977000000000E+01      4.495392000000000E-01     -1.294922000000000E+02
4815000000.000000      4.129639000000000E-01      3.123340000000000E+01      4.501801000000000E-01     -1.304062000000000E+02
4816000000.000000      4.158936000000000E-01      3.146679000000000E+01      4.498138000000000E-01     -1.309844000000000E+02
4817000000.000000      4.164581000000000E-01      3.155273000000000E+01      4.495239000000000E-01     -1.318750000000000E+02
4818000000.000000      4.164734000000000E-01      3.150683000000000E+01      4.499512000000000E-01     -1.325781000000000E+02
4819000000.000000      4.164734000000000E-01      3.160449000000000E+01      4.491882000000000E-01     -1.332813000000000E+02
4820000000.000000      4.177399000000000E-01      3.183691000000000E+01      4.527740000000000E-01     -1.339297000000000E+02
4821000000.000000      4.187469000000000E-01      3.201172000000000E+01      4.528961000000000E-01     -1.348203000000000E+02
4822000000.000000      4.193573000000000E-01      3.183789000000000E+01      4.502563000000000E-01     -1.357109000000000E+02
4823000000.000000      4.218140000000000E-01      3.174707000000000E+01      4.522858000000000E-01     -1.363359000000000E+02
4824000000.000000      4.236603000000000E-01      3.220312000000000E+01      4.520569000000000E-01     -1.371094000000000E+02
4825000000.000000      4.234924000000000E-01      3.204297000000000E+01      4.528351000000000E-01     -1.377187000000000E+02
4826000000.000000      4.254456000000000E-01      3.205273000000000E+01      4.510193000000000E-01     -1.385781000000000E+02
4827000000.000000      4.255066000000000E-01      3.219727000000000E+01      4.517517000000000E-01     -1.392656000000000E+02
4828000000.000000      4.290771000000000E-01      3.231836000000000E+01      4.515228000000000E-01     -1.398594000000000E+02
4829000000.000000      4.272461000000000E-01      3.230273000000000E+01      4.513245000000000E-01     -1.406641000000000E+02
4830000000.000000      4.294281000000000E-01      3.200976000000000E+01      4.514008000000000E-01     -1.414375000000000E+02
4831000000.000000      4.300690000000000E-01      3.218945000000000E+01      4.508514000000000E-01     -1.420078000000000E+02
4832000000.000000      4.337311000000000E-01      3.237695000000000E+01      4.498901000000000E-01     -1.426953000000000E+02
4833000000.000000      4.328308000000000E-01      3.215234000000000E+01      4.499969000000000E-01     -1.434453000000000E+02
4834000000.000000      4.346313000000000E-01      3.215234000000000E+01      4.483337000000000E-01     -1.441797000000000E+02
4835000000.000000      4.365845000000000E-01      3.219531000000000E+01      4.487457000000000E-01     -1.448750000000000E+02
4836000000.000000      4.372864000000000E-01      3.223633000000000E+01      4.478302000000000E-01     -1.456328000000000E+02
4837000000.000000      4.400787000000000E-01      3.235156000000000E+01      4.460754000000000E-01     -1.466875000000000E+02
4838000000.000000      4.411316000000000E-01      3.216211000000000E+01      4.469604000000000E-01     -1.471875000000000E+02
4839000000.000000      4.445190000000000E-01      3.210156000000000E+01      4.456024000000000E-01     -1.477422000000000E+02
4840000000.000000      4.436188000000000E-01      3.213281000000000E+01      4.456482000000000E-01     -1.485391000000000E+02
4841000000.000000      4.453125000000000E-01      3.202734000000000E+01      4.437103000000000E-01     -1.494375000000000E+02
4842000000.000000      4.460754000000000E-01      3.214062000000000E+01      4.425964000000000E-01     -1.499922000000000E+02
4843000000.000000      4.485016000000000E-01      3.196191000000000E+01      4.424438000000000E-01     -1.509297000000000E+02
4844000000.000000      4.487762000000000E-01      3.195898000000000E+01      4.407501000000000E-01     -1.514609000000000E+02
4845000000.000000      4.516296000000000E-01      3.196582000000000E+01      4.397125000000000E-01     -1.520703000000000E+02
4846000000.000000      4.528198000000000E-01      3.170312000000000E+01      4.385376000000000E-01     -1.528984000000000E+02
4847000000.000000      4.541321000000000E-01      3.179492000000000E+01      4.368439000000000E-01     -1.537266000000000E+02
4848000000.000000      4.560089000000000E-01      3.156445000000000E+01      4.337311000000000E-01     -1.543828000000000E+02
4849000000.000000      4.564362000000000E-01      3.136523000000000E+01      4.346161000000000E-01     -1.552031000000000E+02
4850000000.000000      4.577179000000000E-01      3.130371000000000E+01      4.321289000000000E-01     -1.558906000000000E+02
4851000000.000000      4.596558000000000E-01      3.141894000000000E+01      4.307404000000000E-01     -1.567031000000000E+02
4852000000.000000      4.607086000000000E-01      3.138476000000000E+01      4.281769000000000E-01     -1.573359000000000E+02
4853000000.000000      4.609070000000000E-01      3.127930000000000E+01      4.253082000000000E-01     -1.580234000000000E+02
4854000000.000000      4.633026000000000E-01      3.111816000000000E+01      4.246674000000000E-01     -1.590781000000000E+02
4855000000.000000      4.624329000000000E-01      3.088183000000000E+01      4.231873000000000E-01     -1.597422000000000E+02
4856000000.000000      4.650574000000000E-01      3.077637000000000E+01      4.212799000000000E-01     -1.602344000000000E+02
4857000000.000000      4.670258000000000E-01      3.085058000000000E+01      4.203339000000000E-01     -1.610000000000000E+02
4858000000.000000      4.680328000000000E-01      3.062988000000000E+01      4.169769000000000E-01     -1.617656000000000E+02
4859000000.000000      4.687042000000000E-01      3.022168000000000E+01      4.170990000000000E-01     -1.626953000000000E+02
4860000000.000000      4.698029000000000E-01      3.039355000000000E+01      4.120789000000000E-01     -1.631641000000000E+02
4861000000.000000      4.706421000000000E-01      3.025976000000000E+01      4.093170000000000E-01     -1.640156000000000E+02
4862000000.000000      4.714050000000000E-01      3.000586000000000E+01      4.082031000000000E-01     -1.647500000000000E+02
4863000000.000000      4.713745000000000E-01      2.985742000000000E+01      4.041443000000000E-01     -1.655859000000000E+02
4864000000.000000      4.744415000000000E-01      2.984375000000000E+01      4.030762000000000E-01     -1.659688000000000E+02
4865000000.000000      4.768982000000000E-01      2.954004000000000E+01      3.996582000000000E-01     -1.666875000000000E+02
4866000000.000000      4.757233000000000E-01      2.945898000000000E+01      3.963776000000000E-01     -1.676250000000000E+02
4867000000.000000      4.754028000000000E-01      2.944433000000000E+01      3.932037000000000E-01     -1.683672000000000E+02
4868000000.000000      4.803619000000000E-01      2.895508000000000E+01      3.912659000000000E-01     -1.690625000000000E+02
4869000000.000000      4.780121000000000E-01      2.897754000000000E+01      3.891144000000000E-01     -1.698047000000000E+02
4870000000.000000      4.793396000000000E-01      2.873535000000000E+01      3.849335000000000E-01     -1.704531000000000E+02
4871000000.000000      4.813080000000000E-01      2.857129000000000E+01      3.821259000000000E-01     -1.711016000000000E+02
4872000000.000000      4.818268000000000E-01      2.847070000000000E+01      3.794098000000000E-01     -1.714687000000000E+02
4873000000.000000      4.828033000000000E-01      2.839550000000000E+01      3.771210000000000E-01     -1.721719000000000E+02
4874000000.000000      4.827118000000000E-01      2.826172000000000E+01      3.707275000000000E-01     -1.728281000000000E+02
4875000000.000000      4.830627000000000E-01      2.797363000000000E+01      3.685455000000000E-01     -1.735859000000000E+02
4876000000.000000      4.832306000000000E-01      2.814648000000000E+01      3.667450000000000E-01     -1.741484000000000E+02
4877000000.000000      4.872894000000000E-01      2.751074000000000E+01      3.629150000000000E-01     -1.750547000000000E+02
4878000000.000000      4.860535000000000E-01      2.750488000000000E+01      3.588867000000000E-01     -1.754453000000000E+02
4879000000.000000      4.875336000000000E-01      2.746387000000000E+01      3.548584000000000E-01     -1.757891000000000E+02
4880000000.000000      4.888458000000000E-01      2.715332000000000E+01      3.520050000000000E-01     -1.765938000000000E+02
4881000000.000000      4.875031000000000E-01      2.712207000000000E+01      3.494873000000000E-01     -1.769687000000000E+02
4882000000.000000      4.904938000000000E-01      2.702734000000000E+01      3.455658000000000E-01     -1.776016000000000E+02
4883000000.000000      4.891052000000000E-01      2.638184000000000E+01      3.425140000000000E-01     -1.782109000000000E+02
4884000000.000000      4.897308000000000E-01      2.646582000000000E+01      3.376007000000000E-01     -1.785625000000000E+02
4885000000.000000      4.900513000000000E-01      2.641113000000000E+01      3.349609000000000E-01     -1.791250000000000E+02
4886000000.000000      4.934387000000000E-01      2.635058000000000E+01      3.320618000000000E-01     -1.794922000000000E+02
4887000000.000000      4.918213000000000E-01      2.607422000000000E+01      3.284607000000000E-01     -1.799844000000000E+02
4888000000.000000      4.932251000000000E-01      2.581738000000000E+01      3.257751000000000E-01      1.789609000000000E+02
4889000000.000000      4.912567000000000E-01      2.565918000000000E+01      3.211212000000000E-01      1.786562000000000E+02
4890000000.000000      4.917908000000000E-01      2.550976000000000E+01      3.177948000000000E-01      1.781250000000000E+02
4891000000.000000      4.946289000000000E-01      2.541601000000000E+01      3.146973000000000E-01      1.777812000000000E+02
4892000000.000000      4.926758000000000E-01      2.504687000000000E+01      3.116150000000000E-01      1.773984000000000E+02
4893000000.000000      4.946594000000000E-01      2.498535000000000E+01      3.083649000000000E-01      1.768672000000000E+02
4894000000.000000      4.940186000000000E-01      2.469727000000000E+01      3.036194000000000E-01      1.765547000000000E+02
4895000000.000000      4.950714000000000E-01      2.450000000000000E+01      3.028107000000000E-01      1.762031000000000E+02
4896000000.000000      4.944000000000000E-01      2.446582000000000E+01      2.985687000000000E-01      1.756641000000000E+02
4897000000.000000      4.935150000000000E-01      2.429004000000000E+01      2.943268000000000E-01      1.752812000000000E+02
4898000000.000000      4.950256000000000E-01      2.411816000000000E+01      2.917480000000000E-01      1.749141000000000E+02
4899000000.000000      4.949646000000000E-01      2.402539000000000E+01      2.881622000000000E-01      1.744141000000000E+02
4900000000.000000      4.958649000000000E-01      2.377148000000000E+01      2.852478000000000E-01      1.740781000000000E+02
4901000000.000000      4.947662000000000E-01      2.361230000000000E+01      2.818604000000000E-01      1.737656000000000E+02
4902000000.000000      4.948578000000000E-01      2.348047000000000E+01      2.788239000000000E-01      1.733438000000000E+02
4903000000.000000      4.966431000000000E-01      2.346680000000000E+01      2.747192000000000E-01      1.729844000000000E+02
4904000000.000000      4.966583000000000E-01      2.315918000000000E+01      2.721405000000000E-01      1.725625000000000E+02
4905000000.000000      4.960327000000000E-01      2.305566000000000E+01      2.692719000000000E-01      1.721094000000000E+02
4906000000.000000      4.952850000000000E-01      2.288672000000000E+01      2.657776000000000E-01      1.720000000000000E+02
4907000000.000000      4.965973000000000E-01      2.259961000000000E+01      2.629700000000000E-01      1.715469000000000E+02
4908000000.000000      4.961853000000000E-01      2.250488000000000E+01      2.602844000000000E-01      1.711016000000000E+02
4909000000.000000      4.955444000000000E-01      2.236230000000000E+01      2.562714000000000E-01      1.707891000000000E+02
4910000000.000000      4.966888000000000E-01      2.228418000000000E+01      2.527008000000000E-01      1.704844000000000E+02
4911000000.000000      4.953613000000000E-01      2.226367000000000E+01      2.500610000000000E-01      1.700938000000000E+02
4912000000.000000      4.970398000000000E-01      2.211328000000000E+01      2.466812000000000E-01      1.697656000000000E+02
4913000000.000000      4.976807000000000E-01      2.183496000000000E+01      2.443466000000000E-01      1.694219000000000E+02
4914000000.000000      4.946136000000000E-01      2.175683000000000E+01      2.407227000000000E-01      1.691015000000000E+02
4915000000.000000      4.965820000000000E-01      2.161328000000000E+01      2.371292000000000E-01      1.687578000000000E+02
4916000000.000000      4.967194000000000E-01      2.143261000000000E+01      2.332611000000000E-01      1.683125000000000E+02
4917000000.000000      4.952698000000000E-01      2.110058000000000E+01      2.305450000000000E-01      1.680859000000000E+02
4918000000.000000      4.953003000000000E-01      2.088281000000000E+01      2.261276000000000E-01      1.677266000000000E+02
4919000000.000000      4.964294000000000E-01      2.088965000000000E+01      2.233963000000000E-01      1.676875000000000E+02
4920000000.000000      4.964905000000000E-01      2.070703000000000E+01      2.202377000000000E-01      1.671719000000000E+02
4921000000.000000      4.956818000000000E-01      2.062891000000000E+01      2.170029000000000E-01      1.669062000000000E+02
4922000000.000000      4.967651000000000E-01      2.070215000000000E+01      2.128372000000000E-01      1.668125000000000E+02
4923000000.000000      4.973145000000000E-01      2.043848000000000E+01      2.096405000000000E-01      1.665313000000000E+02
4924000000.000000      4.950714000000000E-01      2.032813000000000E+01      2.056198000000000E-01      1.661641000000000E+02
4925000000.000000      4.952393000000000E-01      1.989160000000000E+01      2.027054000000000E-01      1.660938000000000E+02
4926000000.000000      4.941254000000000E-01      2.011523000000000E+01      1.990662000000000E-01      1.659609000000000E+02
4927000000.000000      4.938660000000000E-01      1.986719000000000E+01      1.948547000000000E-01      1.657031000000000E+02
4928000000.000000      4.967499000000000E-01      1.952246000000000E+01      1.919098000000000E-01      1.656484000000000E+02
4929000000.000000      4.958801000000000E-01      1.963769000000000E+01      1.877823000000000E-01      1.654531000000000E+02
4930000000.000000      4.952850000000000E-01      1.963183000000000E+01      1.849289000000000E-01      1.653281000000000E+02
4931000000.000000      4.955597000000000E-01      1.925683000000000E+01      1.818695000000000E-01      1.656016000000000E+02
4932000000.000000      4.949799000000000E-01      1.923633000000000E+01      1.774216000000000E-01      1.653359000000000E+02
4933000000.000000      4.954834000000000E-01      1.912305000000000E+01      1.735001000000000E-01      1.657266000000000E+02
4934000000.000000      4.976501000000000E-01      1.883594000000000E+01      1.703262000000000E-01      1.653281000000000E+02
4935000000.000000      4.978638000000000E-01      1.895801000000000E+01      1.670380000000000E-01      1.656875000000000E+02
4936000000.000000      4.934692000000000E-01      1.879395000000000E+01      1.631775000000000E-01      1.659219000000000E+02
4937000000.000000      4.967194000000000E-01      1.846191000000000E+01      1.599731000000000E-01      1.660469000000000E+02
4938000000.000000      4.949646000000000E-01      1.838476000000000E+01      1.562729000000000E-01      1.661094000000000E+02
4939000000.000000      4.945374000000000E-01      1.822754000000000E+01      1.532669000000000E-01      1.664453000000000E+02
4940000000.000000      4.941406000000000E-01      1.793750000000000E+01      1.489944000000000E-01      1.666719000000000E+02
4941000000.000000      4.976044000000000E-01      1.785937000000000E+01      1.460190000000000E-01      1.672500000000000E+02
4942000000.000000      4.938812000000000E-01      1.793652000000000E+01      1.428909000000000E-01      1.676328000000000E+02
4943000000.000000      4.951782000000000E-01      1.768652000000000E+01      1.397400000000000E-01      1.683359000000000E+02
4944000000.000000      4.949341000000000E-01      1.755176000000000E+01      1.357803000000000E-01      1.688125000000000E+02
4945000000.000000      4.952850000000000E-01      1.749414000000000E+01      1.332092000000000E-01      1.693672000000000E+02
4946000000.000000      4.949646000000000E-01      1.748437000000000E+01      1.303329000000000E-01      1.699922000000000E+02
4947000000.000000      4.956818000000000E-01      1.721680000000000E+01      1.267853000000000E-01      1.709687000000000E+02
4948000000.000000      4.950104000000000E-01      1.701074000000000E+01      1.243324000000000E-01      1.716484000000000E+02
4949000000.000000      4.929199000000000E-01      1.684473000000000E+01      1.214981000000000E-01      1.733047000000000E+02
4950000000.000000      4.928589000000000E-01      1.695508000000000E+01      1.184311000000000E-01      1.738594000000000E+02
4951000000.000000      4.945374000000000E-01      1.678125000000000E+01      1.159897000000000E-01      1.747890000000000E+02
4952000000.000000      4.946899000000000E-01      1.654590000000000E+01      1.133957000000000E-01      1.762109000000000E+02
4953000000.000000      4.945068000000000E-01      1.629492000000000E+01      1.115036000000000E-01      1.776094000000000E+02
4954000000.000000      4.942474000000000E-01      1.633301000000000E+01      1.098671000000000E-01      1.788594000000000E+02
