! Network Analyzer HP8722D
! Hewlett-Packard
! Data name: Linha & Wilkinson
! Saver's name: Rodrigo Anjos
! Comments: Teste da utilização de aquisição
continua pelo VNA HP8722D
! Time and date: 23/5/2025 15:43
!              Frequency                     S11                                                   S21                                                   S12                                                   S22
# HZ  S  MA R 50
4800000000.000000      2.823181000000000E-01      4.015625000000000E+01      4.857178000000000E-01     -1.297344000000000E+02
4801000000.000000      2.834625000000000E-01      4.047656000000000E+01      4.880981000000000E-01     -1.302656000000000E+02
4802000000.000000      2.843628000000000E-01      4.059766000000000E+01      4.884033000000000E-01     -1.308906000000000E+02
4803000000.000000      2.856140000000000E-01      4.086914000000000E+01      4.930725000000000E-01     -1.316094000000000E+02
4804000000.000000      2.866974000000000E-01      4.115039000000000E+01      4.931030000000000E-01     -1.323281000000000E+02
4805000000.000000      2.886963000000000E-01      4.118164000000000E+01      4.941864000000000E-01     -1.331406000000000E+02
4806000000.000000      2.896729000000000E-01      4.140234000000000E+01      4.962158000000000E-01     -1.340391000000000E+02
4807000000.000000      2.906952000000000E-01      4.160352000000000E+01      4.961548000000000E-01     -1.346719000000000E+02
4808000000.000000      2.916107000000000E-01      4.174218000000000E+01      4.986115000000000E-01     -1.353203000000000E+02
4809000000.000000      2.930756000000000E-01      4.204297000000000E+01      4.998322000000000E-01     -1.362109000000000E+02
4810000000.000000      2.954559000000000E-01      4.210742000000000E+01      5.008240000000000E-01     -1.367031000000000E+02
4811000000.000000      2.967529000000000E-01      4.221093000000000E+01      5.024109000000000E-01     -1.376172000000000E+02
4812000000.000000      2.994995000000000E-01      4.239648000000000E+01      5.024414000000000E-01     -1.384375000000000E+02
4813000000.000000      2.998657000000000E-01      4.258594000000000E+01      5.035706000000000E-01     -1.391719000000000E+02
4814000000.000000      3.014221000000000E-01      4.259179000000000E+01      5.055237000000000E-01     -1.397031000000000E+02
4815000000.000000      3.033447000000000E-01      4.267578000000000E+01      5.047607000000000E-01     -1.405625000000000E+02
4816000000.000000      3.056335000000000E-01      4.277148000000000E+01      5.076294000000000E-01     -1.412891000000000E+02
4817000000.000000      3.068848000000000E-01      4.296875000000000E+01      5.069580000000000E-01     -1.422422000000000E+02
4818000000.000000      3.084564000000000E-01      4.285937000000000E+01      5.064087000000000E-01     -1.427344000000000E+02
4819000000.000000      3.106689000000000E-01      4.302930000000000E+01      5.066528000000000E-01     -1.433750000000000E+02
4820000000.000000      3.115234000000000E-01      4.303320000000000E+01      5.069580000000000E-01     -1.440625000000000E+02
4821000000.000000      3.146973000000000E-01      4.297852000000000E+01      5.083618000000000E-01     -1.449609000000000E+02
4822000000.000000      3.157043000000000E-01      4.298242000000000E+01      5.070496000000000E-01     -1.455703000000000E+02
4823000000.000000      3.177185000000000E-01      4.295898000000000E+01      5.080261000000000E-01     -1.463594000000000E+02
4824000000.000000      3.196106000000000E-01      4.306836000000000E+01      5.063782000000000E-01     -1.472422000000000E+02
4825000000.000000      3.207855000000000E-01      4.292773000000000E+01      5.065308000000000E-01     -1.478594000000000E+02
4826000000.000000      3.228302000000000E-01      4.280859000000000E+01      5.065918000000000E-01     -1.486953000000000E+02
4827000000.000000      3.249664000000000E-01      4.290625000000000E+01      5.054932000000000E-01     -1.491172000000000E+02
4828000000.000000      3.272705000000000E-01      4.277929000000000E+01      5.062866000000000E-01     -1.500469000000000E+02
4829000000.000000      3.286438000000000E-01      4.284375000000000E+01      5.061035000000000E-01     -1.506172000000000E+02
4830000000.000000      3.310242000000000E-01      4.262891000000000E+01      5.049744000000000E-01     -1.514141000000000E+02
4831000000.000000      3.318787000000000E-01      4.259766000000000E+01      5.042725000000000E-01     -1.523516000000000E+02
4832000000.000000      3.346405000000000E-01      4.256055000000000E+01      5.036926000000000E-01     -1.530078000000000E+02
4833000000.000000      3.351440000000000E-01      4.234571000000000E+01      5.021057000000000E-01     -1.536250000000000E+02
4834000000.000000      3.370514000000000E-01      4.231250000000000E+01      5.021973000000000E-01     -1.542891000000000E+02
4835000000.000000      3.394165000000000E-01      4.217187000000000E+01      5.008545000000000E-01     -1.551094000000000E+02
4836000000.000000      3.412628000000000E-01      4.207031000000000E+01      5.011902000000000E-01     -1.557266000000000E+02
4837000000.000000      3.423004000000000E-01      4.199609000000000E+01      4.978333000000000E-01     -1.566406000000000E+02
4838000000.000000      3.442383000000000E-01      4.180664000000000E+01      4.979401000000000E-01     -1.570859000000000E+02
4839000000.000000      3.471069000000000E-01      4.168750000000000E+01      4.977112000000000E-01     -1.577891000000000E+02
4840000000.000000      3.477936000000000E-01      4.144140000000000E+01      4.948120000000000E-01     -1.586875000000000E+02
4841000000.000000      3.494568000000000E-01      4.145117000000000E+01      4.951172000000000E-01     -1.593047000000000E+02
4842000000.000000      3.505402000000000E-01      4.120507000000000E+01      4.936066000000000E-01     -1.600859000000000E+02
4843000000.000000      3.539429000000000E-01      4.089648000000000E+01      4.936218000000000E-01     -1.607500000000000E+02
4844000000.000000      3.544006000000000E-01      4.070508000000000E+01      4.912415000000000E-01     -1.614922000000000E+02
4845000000.000000      3.565369000000000E-01      4.064258000000000E+01      4.882965000000000E-01     -1.621016000000000E+02
4846000000.000000      3.585968000000000E-01      4.046288000000000E+01      4.891205000000000E-01     -1.628672000000000E+02
4847000000.000000      3.591003000000000E-01      4.033789000000000E+01      4.873657000000000E-01     -1.634375000000000E+02
4848000000.000000      3.609161000000000E-01      3.999023000000000E+01      4.827423000000000E-01     -1.641406000000000E+02
4849000000.000000      3.615875000000000E-01      3.977734000000000E+01      4.832001000000000E-01     -1.649688000000000E+02
4850000000.000000      3.636017000000000E-01      3.949414000000000E+01      4.798126000000000E-01     -1.657266000000000E+02
4851000000.000000      3.648376000000000E-01      3.945898000000000E+01      4.796295000000000E-01     -1.664453000000000E+02
4852000000.000000      3.659058000000000E-01      3.924805000000000E+01      4.765930000000000E-01     -1.671016000000000E+02
4853000000.000000      3.676910000000000E-01      3.896484000000000E+01      4.737244000000000E-01     -1.676797000000000E+02
4854000000.000000      3.685760000000000E-01      3.865820000000000E+01      4.732819000000000E-01     -1.685469000000000E+02
4855000000.000000      3.699341000000000E-01      3.843750000000000E+01      4.701691000000000E-01     -1.692031000000000E+02
4856000000.000000      3.710022000000000E-01      3.831055000000000E+01      4.687653000000000E-01     -1.697813000000000E+02
4857000000.000000      3.725586000000000E-01      3.803906000000000E+01      4.650421000000000E-01     -1.706563000000000E+02
4858000000.000000      3.729706000000000E-01      3.764453000000000E+01      4.639130000000000E-01     -1.713203000000000E+02
4859000000.000000      3.739014000000000E-01      3.736523000000000E+01      4.616699000000000E-01     -1.722188000000000E+02
4860000000.000000      3.759460000000000E-01      3.725000000000000E+01      4.573669000000000E-01     -1.725937000000000E+02
4861000000.000000      3.762360000000000E-01      3.701757000000000E+01      4.551697000000000E-01     -1.735937000000000E+02
4862000000.000000      3.766022000000000E-01      3.665039000000000E+01      4.525604000000000E-01     -1.738281000000000E+02
4863000000.000000      3.779297000000000E-01      3.645508000000000E+01      4.502563000000000E-01     -1.747890000000000E+02
4864000000.000000      3.795471000000000E-01      3.622461000000000E+01      4.480896000000000E-01     -1.753906000000000E+02
4865000000.000000      3.791962000000000E-01      3.588672000000000E+01      4.434357000000000E-01     -1.759609000000000E+02
4866000000.000000      3.811340000000000E-01      3.559765000000000E+01      4.405518000000000E-01     -1.766406000000000E+02
4867000000.000000      3.808289000000000E-01      3.533594000000000E+01      4.376678000000000E-01     -1.776016000000000E+02
4868000000.000000      3.822021000000000E-01      3.508008000000000E+01      4.343414000000000E-01     -1.782734000000000E+02
4869000000.000000      3.828583000000000E-01      3.482031000000000E+01      4.314117000000000E-01     -1.784844000000000E+02
4870000000.000000      3.831635000000000E-01      3.461523000000000E+01      4.297028000000000E-01     -1.792109000000000E+02
4871000000.000000      3.838196000000000E-01      3.421679000000000E+01      4.241180000000000E-01     -1.798437000000000E+02
4872000000.000000      3.850250000000000E-01      3.396484000000000E+01      4.213409000000000E-01      1.795312000000000E+02
4873000000.000000      3.849945000000000E-01      3.380273000000000E+01      4.190521000000000E-01      1.788047000000000E+02
4874000000.000000      3.861389000000000E-01      3.351953000000000E+01      4.156799000000000E-01      1.782812000000000E+02
4875000000.000000      3.856812000000000E-01      3.323633000000000E+01      4.117737000000000E-01      1.778359000000000E+02
4876000000.000000      3.862457000000000E-01      3.315625000000000E+01      4.081879000000000E-01      1.770625000000000E+02
4877000000.000000      3.870087000000000E-01      3.262304000000000E+01      4.043732000000000E-01      1.765312000000000E+02
4878000000.000000      3.862915000000000E-01      3.231445000000000E+01      4.001923000000000E-01      1.759219000000000E+02
4879000000.000000      3.876953000000000E-01      3.220898000000000E+01      3.972015000000000E-01      1.753906000000000E+02
4880000000.000000      3.891449000000000E-01      3.184863000000000E+01      3.947754000000000E-01      1.748047000000000E+02
4881000000.000000      3.883057000000000E-01      3.170703000000000E+01      3.912354000000000E-01      1.744062000000000E+02
4882000000.000000      3.893738000000000E-01      3.142187000000000E+01      3.880920000000000E-01      1.738594000000000E+02
4883000000.000000      3.886261000000000E-01      3.105762000000000E+01      3.835907000000000E-01      1.733359000000000E+02
4884000000.000000      3.898926000000000E-01      3.103418000000000E+01      3.801880000000000E-01      1.726563000000000E+02
4885000000.000000      3.893433000000000E-01      3.062793000000000E+01      3.760071000000000E-01      1.723906000000000E+02
4886000000.000000      3.896332000000000E-01      3.042578000000000E+01      3.738098000000000E-01      1.718906000000000E+02
4887000000.000000      3.890991000000000E-01      3.010742000000000E+01      3.693237000000000E-01      1.712812000000000E+02
4888000000.000000      3.899689000000000E-01      2.975293000000000E+01      3.661804000000000E-01      1.708125000000000E+02
4889000000.000000      3.903961000000000E-01      2.966113000000000E+01      3.623962000000000E-01      1.704375000000000E+02
4890000000.000000      3.885956000000000E-01      2.926953000000000E+01      3.581543000000000E-01      1.695547000000000E+02
4891000000.000000      3.894501000000000E-01      2.917969000000000E+01      3.544922000000000E-01      1.691094000000000E+02
4892000000.000000      3.894958000000000E-01      2.888672000000000E+01      3.514252000000000E-01      1.692812000000000E+02
4893000000.000000      3.890839000000000E-01      2.863770000000000E+01      3.471680000000000E-01      1.683984000000000E+02
4894000000.000000      3.888092000000000E-01      2.841015000000000E+01      3.436737000000000E-01      1.679297000000000E+02
4895000000.000000      3.901672000000000E-01      2.815430000000000E+01      3.420410000000000E-01      1.678281000000000E+02
4896000000.000000      3.891754000000000E-01      2.801855000000000E+01      3.390961000000000E-01      1.673672000000000E+02
4897000000.000000      3.888702000000000E-01      2.782910000000000E+01      3.330994000000000E-01      1.666484000000000E+02
4898000000.000000      3.891754000000000E-01      2.741015000000000E+01      3.309479000000000E-01      1.665078000000000E+02
4899000000.000000      3.892822000000000E-01      2.728125000000000E+01      3.269043000000000E-01      1.658516000000000E+02
4900000000.000000      3.893127000000000E-01      2.696386000000000E+01      3.238831000000000E-01      1.656797000000000E+02
4901000000.000000      3.889160000000000E-01      2.686914000000000E+01      3.204651000000000E-01      1.653359000000000E+02
4902000000.000000      3.886566000000000E-01      2.660547000000000E+01      3.179626000000000E-01      1.648906000000000E+02
4903000000.000000      3.886414000000000E-01      2.641992000000000E+01      3.128662000000000E-01      1.643437000000000E+02
4904000000.000000      3.879852000000000E-01      2.617188000000000E+01      3.101044000000000E-01      1.640703000000000E+02
4905000000.000000      3.876495000000000E-01      2.590625000000000E+01      3.076630000000000E-01      1.636406000000000E+02
4906000000.000000      3.881073000000000E-01      2.568262000000000E+01      3.031311000000000E-01      1.634922000000000E+02
4907000000.000000      3.871613000000000E-01      2.542480000000000E+01      3.008423000000000E-01      1.629297000000000E+02
4908000000.000000      3.883820000000000E-01      2.534863000000000E+01      2.977753000000000E-01      1.624219000000000E+02
4909000000.000000      3.856964000000000E-01      2.519140000000000E+01      2.931976000000000E-01      1.622656000000000E+02
4910000000.000000      3.865051000000000E-01      2.496484000000000E+01      2.897491000000000E-01      1.618281000000000E+02
4911000000.000000      3.862152000000000E-01      2.487011000000000E+01      2.861481000000000E-01      1.613672000000000E+02
4912000000.000000      3.869629000000000E-01      2.453613000000000E+01      2.824707000000000E-01      1.609297000000000E+02
4913000000.000000      3.864136000000000E-01      2.437988000000000E+01      2.789917000000000E-01      1.605469000000000E+02
4914000000.000000      3.857269000000000E-01      2.416699000000000E+01      2.752380000000000E-01      1.602813000000000E+02
4915000000.000000      3.853455000000000E-01      2.393847000000000E+01      2.709656000000000E-01      1.599219000000000E+02
4916000000.000000      3.845215000000000E-01      2.385352000000000E+01      2.679443000000000E-01      1.593594000000000E+02
4917000000.000000      3.851318000000000E-01      2.367871000000000E+01      2.643433000000000E-01      1.593125000000000E+02
4918000000.000000      3.845367000000000E-01      2.331250000000000E+01      2.606506000000000E-01      1.589609000000000E+02
4919000000.000000      3.832855000000000E-01      2.324414000000000E+01      2.569427000000000E-01      1.588906000000000E+02
4920000000.000000      3.844604000000000E-01      2.306933000000000E+01      2.527008000000000E-01      1.581172000000000E+02
4921000000.000000      3.838959000000000E-01      2.295117000000000E+01      2.495193000000000E-01      1.580859000000000E+02
4922000000.000000      3.840942000000000E-01      2.276367000000000E+01      2.446136000000000E-01      1.577891000000000E+02
4923000000.000000      3.828278000000000E-01      2.260352000000000E+01      2.404099000000000E-01      1.574844000000000E+02
4924000000.000000      3.829956000000000E-01      2.239062000000000E+01      2.369766000000000E-01      1.571563000000000E+02
4925000000.000000      3.819733000000000E-01      2.214942000000000E+01      2.328568000000000E-01      1.570391000000000E+02
4926000000.000000      3.818359000000000E-01      2.198828000000000E+01      2.289429000000000E-01      1.569141000000000E+02
4927000000.000000      3.818054000000000E-01      2.168359000000000E+01      2.250900000000000E-01      1.564766000000000E+02
4928000000.000000      3.821869000000000E-01      2.161621000000000E+01      2.208176000000000E-01      1.564687000000000E+02
4929000000.000000      3.817444000000000E-01      2.147070000000000E+01      2.162857000000000E-01      1.563594000000000E+02
4930000000.000000      3.816528000000000E-01      2.128516000000000E+01      2.130203000000000E-01      1.562734000000000E+02
4931000000.000000      3.811188000000000E-01      2.104199000000000E+01      2.092972000000000E-01      1.562813000000000E+02
4932000000.000000      3.807678000000000E-01      2.093652000000000E+01      2.052765000000000E-01      1.562031000000000E+02
4933000000.000000      3.808594000000000E-01      2.067187000000000E+01      2.000198000000000E-01      1.561406000000000E+02
4934000000.000000      3.809509000000000E-01      2.050293000000000E+01      1.964340000000000E-01      1.561016000000000E+02
4935000000.000000      3.811951000000000E-01      2.034180000000000E+01      1.930161000000000E-01      1.563906000000000E+02
4936000000.000000      3.794098000000000E-01      2.014843000000000E+01      1.883316000000000E-01      1.563828000000000E+02
4937000000.000000      3.805084000000000E-01      1.996484000000000E+01      1.846542000000000E-01      1.564297000000000E+02
4938000000.000000      3.791199000000000E-01      2.005273000000000E+01      1.804276000000000E-01      1.567500000000000E+02
4939000000.000000      3.791656000000000E-01      1.980469000000000E+01      1.765747000000000E-01      1.570234000000000E+02
4940000000.000000      3.791046000000000E-01      1.962012000000000E+01      1.725311000000000E-01      1.569844000000000E+02
4941000000.000000      3.787384000000000E-01      1.931641000000000E+01      1.689224000000000E-01      1.576094000000000E+02
4942000000.000000      3.778381000000000E-01      1.933398000000000E+01      1.648560000000000E-01      1.578281000000000E+02
4943000000.000000      3.780670000000000E-01      1.915137000000000E+01      1.611786000000000E-01      1.585234000000000E+02
4944000000.000000      3.779602000000000E-01      1.886621000000000E+01      1.577759000000000E-01      1.590000000000000E+02
4945000000.000000      3.774719000000000E-01      1.870215000000000E+01      1.536026000000000E-01      1.595000000000000E+02
4946000000.000000      3.772583000000000E-01      1.862012000000000E+01      1.503448000000000E-01      1.601406000000000E+02
4947000000.000000      3.765259000000000E-01      1.825879000000000E+01      1.466522000000000E-01      1.609062000000000E+02
4948000000.000000      3.768158000000000E-01      1.815430000000000E+01      1.434631000000000E-01      1.618828000000000E+02
4949000000.000000      3.758240000000000E-01      1.805957000000000E+01      1.405716000000000E-01      1.626719000000000E+02
4950000000.000000      3.758545000000000E-01      1.793066000000000E+01      1.370163000000000E-01      1.637344000000000E+02
4951000000.000000      3.753967000000000E-01      1.766309000000000E+01      1.338806000000000E-01      1.647109000000000E+02
4952000000.000000      3.757935000000000E-01      1.765723000000000E+01      1.313629000000000E-01      1.658828000000000E+02
4953000000.000000      3.751068000000000E-01      1.736230000000000E+01      1.284561000000000E-01      1.671953000000000E+02
4954000000.000000      3.741302000000000E-01      1.707227000000000E+01      1.260300000000000E-01      1.684766000000000E+02
