! Network Analyzer HP8722D
! Hewlett-Packard
! Data name: Linha & Wilkinson
! Saver's name: Rodrigo Anjos
! Comments: Teste da utilização de aquisição
continua pelo VNA HP8722D
! Time and date: 23/5/2025 16:25
!              Frequency                     S11                                                   S21                                                   S12                                                   S22
# HZ  S  MA R 50
4800000000.000000      2.806549000000000E-01      4.049218000000000E+01      4.881287000000000E-01     -1.301406000000000E+02
4801000000.000000      2.819519000000000E-01      4.075976000000000E+01      4.887543000000000E-01     -1.305703000000000E+02
4802000000.000000      2.828979000000000E-01      4.089648000000000E+01      4.895935000000000E-01     -1.311953000000000E+02
4803000000.000000      2.841339000000000E-01      4.108007000000000E+01      4.927979000000000E-01     -1.321328000000000E+02
4804000000.000000      2.851868000000000E-01      4.143164000000000E+01      4.945831000000000E-01     -1.328672000000000E+02
4805000000.000000      2.869263000000000E-01      4.139062000000000E+01      4.959717000000000E-01     -1.335625000000000E+02
4806000000.000000      2.882385000000000E-01      4.165429000000000E+01      4.967499000000000E-01     -1.342578000000000E+02
4807000000.000000      2.896118000000000E-01      4.185742000000000E+01      4.976501000000000E-01     -1.349453000000000E+02
4808000000.000000      2.905121000000000E-01      4.208593000000000E+01      5.008545000000000E-01     -1.355937000000000E+02
4809000000.000000      2.923584000000000E-01      4.220508000000000E+01      5.015869000000000E-01     -1.365078000000000E+02
4810000000.000000      2.939606000000000E-01      4.231641000000000E+01      5.033875000000000E-01     -1.369766000000000E+02
4811000000.000000      2.955475000000000E-01      4.246679000000000E+01      5.038452000000000E-01     -1.379688000000000E+02
4812000000.000000      2.978821000000000E-01      4.266992000000000E+01      5.050659000000000E-01     -1.385703000000000E+02
4813000000.000000      2.992706000000000E-01      4.272656000000000E+01      5.057678000000000E-01     -1.393437000000000E+02
4814000000.000000      3.002777000000000E-01      4.275976000000000E+01      5.053101000000000E-01     -1.399609000000000E+02
4815000000.000000      3.017883000000000E-01      4.295117000000000E+01      5.067139000000000E-01     -1.408750000000000E+02
4816000000.000000      3.046722000000000E-01      4.303320000000000E+01      5.076294000000000E-01     -1.416797000000000E+02
4817000000.000000      3.055878000000000E-01      4.313477000000000E+01      5.079041000000000E-01     -1.424141000000000E+02
4818000000.000000      3.076019000000000E-01      4.308398000000000E+01      5.075684000000000E-01     -1.429531000000000E+02
4819000000.000000      3.096619000000000E-01      4.316406000000000E+01      5.068359000000000E-01     -1.437734000000000E+02
4820000000.000000      3.108978000000000E-01      4.317578000000000E+01      5.083923000000000E-01     -1.443906000000000E+02
4821000000.000000      3.132629000000000E-01      4.317187000000000E+01      5.083618000000000E-01     -1.452812000000000E+02
4822000000.000000      3.146362000000000E-01      4.313281000000000E+01      5.081177000000000E-01     -1.459531000000000E+02
4823000000.000000      3.166351000000000E-01      4.318359000000000E+01      5.087891000000000E-01     -1.467891000000000E+02
4824000000.000000      3.181152000000000E-01      4.321679000000000E+01      5.060425000000000E-01     -1.475312000000000E+02
4825000000.000000      3.200989000000000E-01      4.304688000000000E+01      5.064392000000000E-01     -1.482031000000000E+02
4826000000.000000      3.222198000000000E-01      4.308984000000000E+01      5.056458000000000E-01     -1.489766000000000E+02
4827000000.000000      3.238983000000000E-01      4.301562000000000E+01      5.066528000000000E-01     -1.494609000000000E+02
4828000000.000000      3.265076000000000E-01      4.301367000000000E+01      5.068054000000000E-01     -1.503281000000000E+02
4829000000.000000      3.279419000000000E-01      4.301758000000000E+01      5.067139000000000E-01     -1.510156000000000E+02
4830000000.000000      3.294983000000000E-01      4.284765000000000E+01      5.058899000000000E-01     -1.519609000000000E+02
4831000000.000000      3.309174000000000E-01      4.262695000000000E+01      5.053711000000000E-01     -1.526172000000000E+02
4832000000.000000      3.329773000000000E-01      4.274414000000000E+01      5.036011000000000E-01     -1.531250000000000E+02
4833000000.000000      3.344269000000000E-01      4.246484000000000E+01      5.036621000000000E-01     -1.537734000000000E+02
4834000000.000000      3.364410000000000E-01      4.239843000000000E+01      5.035400000000000E-01     -1.547031000000000E+02
4835000000.000000      3.389740000000000E-01      4.227344000000000E+01      5.019531000000000E-01     -1.555156000000000E+02
4836000000.000000      3.404388000000000E-01      4.221680000000000E+01      5.006409000000000E-01     -1.560625000000000E+02
4837000000.000000      3.417511000000000E-01      4.209961000000000E+01      4.994659000000000E-01     -1.570156000000000E+02
4838000000.000000      3.431702000000000E-01      4.191992000000000E+01      4.985199000000000E-01     -1.574609000000000E+02
4839000000.000000      3.462219000000000E-01      4.176562000000000E+01      4.975891000000000E-01     -1.581563000000000E+02
4840000000.000000      3.471832000000000E-01      4.150195000000000E+01      4.960480000000000E-01     -1.588516000000000E+02
4841000000.000000      3.487701000000000E-01      4.151172000000000E+01      4.948883000000000E-01     -1.597188000000000E+02
4842000000.000000      3.503265000000000E-01      4.118945000000000E+01      4.934845000000000E-01     -1.603906000000000E+02
4843000000.000000      3.521271000000000E-01      4.097070000000000E+01      4.929352000000000E-01     -1.611250000000000E+02
4844000000.000000      3.531647000000000E-01      4.080468000000000E+01      4.906311000000000E-01     -1.618515000000000E+02
4845000000.000000      3.548431000000000E-01      4.077929000000000E+01      4.889984000000000E-01     -1.624687000000000E+02
4846000000.000000      3.569946000000000E-01      4.050195000000000E+01      4.897461000000000E-01     -1.632109000000000E+02
4847000000.000000      3.585663000000000E-01      4.032227000000000E+01      4.860535000000000E-01     -1.636406000000000E+02
4848000000.000000      3.593140000000000E-01      4.004883000000000E+01      4.834442000000000E-01     -1.644531000000000E+02
4849000000.000000      3.610229000000000E-01      3.979297000000000E+01      4.826050000000000E-01     -1.654219000000000E+02
4850000000.000000      3.619537000000000E-01      3.959179000000000E+01      4.803314000000000E-01     -1.660469000000000E+02
4851000000.000000      3.634796000000000E-01      3.947266000000000E+01      4.803009000000000E-01     -1.668203000000000E+02
4852000000.000000      3.653412000000000E-01      3.930078000000000E+01      4.778595000000000E-01     -1.675078000000000E+02
4853000000.000000      3.667145000000000E-01      3.895898000000000E+01      4.732361000000000E-01     -1.680703000000000E+02
4854000000.000000      3.672638000000000E-01      3.868359000000000E+01      4.714813000000000E-01     -1.688281000000000E+02
4855000000.000000      3.685150000000000E-01      3.851953000000000E+01      4.696045000000000E-01     -1.694922000000000E+02
4856000000.000000      3.701172000000000E-01      3.822266000000000E+01      4.676514000000000E-01     -1.702188000000000E+02
4857000000.000000      3.712769000000000E-01      3.802148000000000E+01      4.668121000000000E-01     -1.708047000000000E+02
4858000000.000000      3.715210000000000E-01      3.762695000000000E+01      4.629364000000000E-01     -1.715078000000000E+02
4859000000.000000      3.731689000000000E-01      3.744531000000000E+01      4.607086000000000E-01     -1.723047000000000E+02
4860000000.000000      3.748322000000000E-01      3.731054000000000E+01      4.583435000000000E-01     -1.728672000000000E+02
4861000000.000000      3.739929000000000E-01      3.695508000000000E+01      4.559479000000000E-01     -1.736484000000000E+02
4862000000.000000      3.760529000000000E-01      3.678320000000000E+01      4.529724000000000E-01     -1.743438000000000E+02
4863000000.000000      3.769379000000000E-01      3.653125000000000E+01      4.489746000000000E-01     -1.749922000000000E+02
4864000000.000000      3.781281000000000E-01      3.621484000000000E+01      4.466248000000000E-01     -1.755000000000000E+02
4865000000.000000      3.786469000000000E-01      3.582031000000000E+01      4.438171000000000E-01     -1.760703000000000E+02
4866000000.000000      3.791046000000000E-01      3.567968000000000E+01      4.410858000000000E-01     -1.770859000000000E+02
4867000000.000000      3.796692000000000E-01      3.543164000000000E+01      4.367065000000000E-01     -1.778437000000000E+02
4868000000.000000      3.807220000000000E-01      3.504492000000000E+01      4.351044000000000E-01     -1.781328000000000E+02
4869000000.000000      3.815002000000000E-01      3.488867000000000E+01      4.312439000000000E-01     -1.789687000000000E+02
4870000000.000000      3.815613000000000E-01      3.454297000000000E+01      4.300690000000000E-01     -1.792891000000000E+02
4871000000.000000      3.822937000000000E-01      3.425586000000000E+01      4.242554000000000E-01      1.796953000000000E+02
4872000000.000000      3.836823000000000E-01      3.403320000000000E+01      4.216614000000000E-01      1.793750000000000E+02
4873000000.000000      3.842163000000000E-01      3.376953000000000E+01      4.170380000000000E-01      1.785234000000000E+02
4874000000.000000      3.843842000000000E-01      3.357812000000000E+01      4.150391000000000E-01      1.778359000000000E+02
4875000000.000000      3.846130000000000E-01      3.303320000000000E+01      4.105377000000000E-01      1.774219000000000E+02
4876000000.000000      3.851776000000000E-01      3.306055000000000E+01      4.079742000000000E-01      1.767891000000000E+02
4877000000.000000      3.865356000000000E-01      3.256445000000000E+01      4.050751000000000E-01      1.762500000000000E+02
4878000000.000000      3.851624000000000E-01      3.247265000000000E+01      4.007568000000000E-01      1.756953000000000E+02
4879000000.000000      3.863983000000000E-01      3.216992000000000E+01      3.955688000000000E-01      1.751406000000000E+02
4880000000.000000      3.869324000000000E-01      3.184375000000000E+01      3.931427000000000E-01      1.748047000000000E+02
4881000000.000000      3.870697000000000E-01      3.171387000000000E+01      3.902435000000000E-01      1.742891000000000E+02
4882000000.000000      3.881226000000000E-01      3.146582000000000E+01      3.870697000000000E-01      1.735469000000000E+02
4883000000.000000      3.876343000000000E-01      3.106054000000000E+01      3.820038000000000E-01      1.732188000000000E+02
4884000000.000000      3.882294000000000E-01      3.080371000000000E+01      3.805389000000000E-01      1.726484000000000E+02
4885000000.000000      3.876343000000000E-01      3.070898000000000E+01      3.750763000000000E-01      1.722734000000000E+02
4886000000.000000      3.875275000000000E-01      3.038867000000000E+01      3.723755000000000E-01      1.717813000000000E+02
4887000000.000000      3.876038000000000E-01      3.008008000000000E+01      3.681641000000000E-01      1.711484000000000E+02
4888000000.000000      3.875427000000000E-01      2.968847000000000E+01      3.665771000000000E-01      1.705703000000000E+02
4889000000.000000      3.880615000000000E-01      2.956055000000000E+01      3.600769000000000E-01      1.703047000000000E+02
4890000000.000000      3.870544000000000E-01      2.920507000000000E+01      3.575287000000000E-01      1.695469000000000E+02
4891000000.000000      3.875427000000000E-01      2.915625000000000E+01      3.533173000000000E-01      1.693438000000000E+02
4892000000.000000      3.874664000000000E-01      2.893359000000000E+01      3.516388000000000E-01      1.689609000000000E+02
4893000000.000000      3.892365000000000E-01      2.874414000000000E+01      3.473053000000000E-01      1.681875000000000E+02
4894000000.000000      3.881531000000000E-01      2.832812000000000E+01      3.423462000000000E-01      1.678828000000000E+02
4895000000.000000      3.893585000000000E-01      2.807617000000000E+01      3.416748000000000E-01      1.677266000000000E+02
4896000000.000000      3.867950000000000E-01      2.793457000000000E+01      3.361206000000000E-01      1.672734000000000E+02
4897000000.000000      3.870087000000000E-01      2.764257000000000E+01      3.329926000000000E-01      1.664687000000000E+02
4898000000.000000      3.872528000000000E-01      2.745019000000000E+01      3.295288000000000E-01      1.663125000000000E+02
4899000000.000000      3.867188000000000E-01      2.726758000000000E+01      3.274994000000000E-01      1.656172000000000E+02
4900000000.000000      3.871460000000000E-01      2.690527000000000E+01      3.230896000000000E-01      1.655000000000000E+02
4901000000.000000      3.872070000000000E-01      2.671289000000000E+01      3.195801000000000E-01      1.651953000000000E+02
4902000000.000000      3.872375000000000E-01      2.652050000000000E+01      3.163757000000000E-01      1.646563000000000E+02
4903000000.000000      3.867493000000000E-01      2.644726000000000E+01      3.124695000000000E-01      1.642891000000000E+02
4904000000.000000      3.862762000000000E-01      2.613086000000000E+01      3.091278000000000E-01      1.639688000000000E+02
4905000000.000000      3.861389000000000E-01      2.592285000000000E+01      3.058472000000000E-01      1.634609000000000E+02
4906000000.000000      3.858337000000000E-01      2.579004000000000E+01      3.027039000000000E-01      1.632656000000000E+02
4907000000.000000      3.851929000000000E-01      2.549707000000000E+01      2.997131000000000E-01      1.627656000000000E+02
4908000000.000000      3.849945000000000E-01      2.526562000000000E+01      2.961731000000000E-01      1.622344000000000E+02
4909000000.000000      3.849792000000000E-01      2.505664000000000E+01      2.921448000000000E-01      1.620234000000000E+02
4910000000.000000      3.840179000000000E-01      2.498828000000000E+01      2.885590000000000E-01      1.616172000000000E+02
4911000000.000000      3.846588000000000E-01      2.472656000000000E+01      2.854614000000000E-01      1.613516000000000E+02
4912000000.000000      3.834229000000000E-01      2.460742000000000E+01      2.812653000000000E-01      1.606875000000000E+02
4913000000.000000      3.839722000000000E-01      2.430371000000000E+01      2.779694000000000E-01      1.604219000000000E+02
4914000000.000000      3.845825000000000E-01      2.408398000000000E+01      2.743378000000000E-01      1.602734000000000E+02
4915000000.000000      3.825989000000000E-01      2.392188000000000E+01      2.701569000000000E-01      1.596484000000000E+02
4916000000.000000      3.829041000000000E-01      2.386621000000000E+01      2.672272000000000E-01      1.593203000000000E+02
4917000000.000000      3.825989000000000E-01      2.366309000000000E+01      2.632904000000000E-01      1.591719000000000E+02
4918000000.000000      3.832245000000000E-01      2.337695000000000E+01      2.590027000000000E-01      1.586250000000000E+02
4919000000.000000      3.814087000000000E-01      2.312598000000000E+01      2.560425000000000E-01      1.586406000000000E+02
4920000000.000000      3.825073000000000E-01      2.298535000000000E+01      2.515869000000000E-01      1.581328000000000E+02
4921000000.000000      3.822632000000000E-01      2.293359000000000E+01      2.481308000000000E-01      1.580156000000000E+02
4922000000.000000      3.820190000000000E-01      2.266992000000000E+01      2.443390000000000E-01      1.578672000000000E+02
4923000000.000000      3.820953000000000E-01      2.266016000000000E+01      2.395020000000000E-01      1.575938000000000E+02
4924000000.000000      3.811951000000000E-01      2.231445000000000E+01      2.353821000000000E-01      1.572031000000000E+02
4925000000.000000      3.803558000000000E-01      2.205273000000000E+01      2.320404000000000E-01      1.570078000000000E+02
4926000000.000000      3.806610000000000E-01      2.197070000000000E+01      2.286453000000000E-01      1.568828000000000E+02
4927000000.000000      3.795624000000000E-01      2.162793000000000E+01      2.232513000000000E-01      1.567031000000000E+02
4928000000.000000      3.804626000000000E-01      2.164551000000000E+01      2.202454000000000E-01      1.564766000000000E+02
4929000000.000000      3.797455000000000E-01      2.135937000000000E+01      2.159576000000000E-01      1.564531000000000E+02
4930000000.000000      3.797760000000000E-01      2.126660000000000E+01      2.118912000000000E-01      1.562578000000000E+02
4931000000.000000      3.795624000000000E-01      2.103711000000000E+01      2.082977000000000E-01      1.561406000000000E+02
4932000000.000000      3.790741000000000E-01      2.093164000000000E+01      2.040100000000000E-01      1.561797000000000E+02
4933000000.000000      3.783112000000000E-01      2.072558000000000E+01      1.991501000000000E-01      1.563203000000000E+02
4934000000.000000      3.784485000000000E-01      2.050781000000000E+01      1.956329000000000E-01      1.562344000000000E+02
4935000000.000000      3.791504000000000E-01      2.036231000000000E+01      1.920700000000000E-01      1.563906000000000E+02
4936000000.000000      3.779144000000000E-01      2.016504000000000E+01      1.878738000000000E-01      1.564375000000000E+02
4937000000.000000      3.772888000000000E-01      1.989062000000000E+01      1.838074000000000E-01      1.565625000000000E+02
4938000000.000000      3.766632000000000E-01      1.993945000000000E+01      1.797791000000000E-01      1.568516000000000E+02
4939000000.000000      3.769684000000000E-01      1.972363000000000E+01      1.755829000000000E-01      1.569844000000000E+02
4940000000.000000      3.771362000000000E-01      1.958301000000000E+01      1.716690000000000E-01      1.571875000000000E+02
4941000000.000000      3.764954000000000E-01      1.923926000000000E+01      1.680679000000000E-01      1.577891000000000E+02
4942000000.000000      3.751526000000000E-01      1.919141000000000E+01      1.640625000000000E-01      1.581250000000000E+02
4943000000.000000      3.753357000000000E-01      1.886426000000000E+01      1.605911000000000E-01      1.585781000000000E+02
4944000000.000000      3.750000000000000E-01      1.881348000000000E+01      1.570740000000000E-01      1.590469000000000E+02
4945000000.000000      3.768005000000000E-01      1.867383000000000E+01      1.526566000000000E-01      1.598047000000000E+02
4946000000.000000      3.750458000000000E-01      1.853027000000000E+01      1.498337000000000E-01      1.605625000000000E+02
4947000000.000000      3.748627000000000E-01      1.833008000000000E+01      1.458435000000000E-01      1.611484000000000E+02
4948000000.000000      3.742065000000000E-01      1.811230000000000E+01      1.427612000000000E-01      1.620781000000000E+02
4949000000.000000      3.736267000000000E-01      1.805664000000000E+01      1.397552000000000E-01      1.632266000000000E+02
4950000000.000000      3.736115000000000E-01      1.783008000000000E+01      1.366577000000000E-01      1.640547000000000E+02
4951000000.000000      3.738251000000000E-01      1.763769000000000E+01      1.339417000000000E-01      1.650312000000000E+02
4952000000.000000      3.719788000000000E-01      1.738965000000000E+01      1.306763000000000E-01      1.661953000000000E+02
4953000000.000000      3.726349000000000E-01      1.727930000000000E+01      1.283188000000000E-01      1.676484000000000E+02
4954000000.000000      3.721313000000000E-01      1.692383000000000E+01      1.256714000000000E-01      1.689687000000000E+02
