! Network Analyzer HP8722D
! Hewlett-Packard
! Data name: Linha & Wilkinson
! Saver's name: Rodrigo Anjos
! Comments: Teste da utilização de aquisição
continua pelo VNA HP8722D
! Time and date: 23/5/2025 15:04
!              Frequency                     S11                                                   S21                                                   S12                                                   S22
# HZ  S  MA R 50
4800000000.000000      2.829895000000000E-01      4.002734000000000E+01      4.869385000000000E-01     -1.297188000000000E+02
4801000000.000000      2.835846000000000E-01      4.038671000000000E+01      4.877777000000000E-01     -1.302813000000000E+02
4802000000.000000      2.851105000000000E-01      4.054492000000000E+01      4.899139000000000E-01     -1.309297000000000E+02
4803000000.000000      2.857361000000000E-01      4.075195000000000E+01      4.918213000000000E-01     -1.316641000000000E+02
4804000000.000000      2.871704000000000E-01      4.099999000000000E+01      4.934235000000000E-01     -1.324531000000000E+02
4805000000.000000      2.893066000000000E-01      4.109571000000000E+01      4.945068000000000E-01     -1.332031000000000E+02
4806000000.000000      2.902069000000000E-01      4.129883000000000E+01      4.961090000000000E-01     -1.338359000000000E+02
4807000000.000000      2.912598000000000E-01      4.145703000000000E+01      4.972076000000000E-01     -1.348750000000000E+02
4808000000.000000      2.917786000000000E-01      4.168554000000000E+01      4.975739000000000E-01     -1.353359000000000E+02
4809000000.000000      2.939301000000000E-01      4.195898000000000E+01      4.997864000000000E-01     -1.362031000000000E+02
4810000000.000000      2.955017000000000E-01      4.201562000000000E+01      5.011902000000000E-01     -1.365859000000000E+02
4811000000.000000      2.974243000000000E-01      4.216406000000000E+01      5.025635000000000E-01     -1.376250000000000E+02
4812000000.000000      2.996979000000000E-01      4.234765000000000E+01      5.033875000000000E-01     -1.383281000000000E+02
4813000000.000000      3.001862000000000E-01      4.248242000000000E+01      5.038452000000000E-01     -1.390859000000000E+02
4814000000.000000      3.021545000000000E-01      4.248437000000000E+01      5.055847000000000E-01     -1.397500000000000E+02
4815000000.000000      3.035431000000000E-01      4.259570000000000E+01      5.045166000000000E-01     -1.403984000000000E+02
4816000000.000000      3.060455000000000E-01      4.274414000000000E+01      5.076599000000000E-01     -1.412422000000000E+02
4817000000.000000      3.072205000000000E-01      4.282031000000000E+01      5.071716000000000E-01     -1.419375000000000E+02
4818000000.000000      3.088684000000000E-01      4.277929000000000E+01      5.066833000000000E-01     -1.426875000000000E+02
4819000000.000000      3.110657000000000E-01      4.282227000000000E+01      5.077515000000000E-01     -1.434297000000000E+02
4820000000.000000      3.116760000000000E-01      4.295312000000000E+01      5.074158000000000E-01     -1.441015000000000E+02
4821000000.000000      3.153381000000000E-01      4.297461000000000E+01      5.086975000000000E-01     -1.448984000000000E+02
4822000000.000000      3.156281000000000E-01      4.282031000000000E+01      5.065308000000000E-01     -1.455859000000000E+02
4823000000.000000      3.184967000000000E-01      4.283789000000000E+01      5.078125000000000E-01     -1.463906000000000E+02
4824000000.000000      3.194275000000000E-01      4.297656000000000E+01      5.085144000000000E-01     -1.472422000000000E+02
4825000000.000000      3.215332000000000E-01      4.286133000000000E+01      5.077515000000000E-01     -1.478359000000000E+02
4826000000.000000      3.235931000000000E-01      4.283008000000000E+01      5.071716000000000E-01     -1.488437000000000E+02
4827000000.000000      3.252258000000000E-01      4.276563000000000E+01      5.072327000000000E-01     -1.491406000000000E+02
4828000000.000000      3.273468000000000E-01      4.272461000000000E+01      5.069580000000000E-01     -1.499844000000000E+02
4829000000.000000      3.290405000000000E-01      4.276563000000000E+01      5.065613000000000E-01     -1.507187000000000E+02
4830000000.000000      3.308411000000000E-01      4.255664000000000E+01      5.047913000000000E-01     -1.515078000000000E+02
4831000000.000000      3.328400000000000E-01      4.253125000000000E+01      5.050659000000000E-01     -1.521484000000000E+02
4832000000.000000      3.339844000000000E-01      4.250000000000000E+01      5.032043000000000E-01     -1.528828000000000E+02
4833000000.000000      3.355408000000000E-01      4.234765000000000E+01      5.026245000000000E-01     -1.535391000000000E+02
4834000000.000000      3.374481000000000E-01      4.226563000000000E+01      5.015869000000000E-01     -1.542578000000000E+02
4835000000.000000      3.398590000000000E-01      4.206250000000000E+01      5.020142000000000E-01     -1.550547000000000E+02
4836000000.000000      3.415527000000000E-01      4.201172000000000E+01      5.008545000000000E-01     -1.558125000000000E+02
4837000000.000000      3.430023000000000E-01      4.195117000000000E+01      4.988708000000000E-01     -1.566797000000000E+02
4838000000.000000      3.439484000000000E-01      4.172265000000000E+01      4.993286000000000E-01     -1.571719000000000E+02
4839000000.000000      3.478699000000000E-01      4.163867000000000E+01      4.988556000000000E-01     -1.577969000000000E+02
4840000000.000000      3.483582000000000E-01      4.142578000000000E+01      4.969177000000000E-01     -1.586641000000000E+02
4841000000.000000      3.499146000000000E-01      4.130859000000000E+01      4.961243000000000E-01     -1.593750000000000E+02
4842000000.000000      3.509064000000000E-01      4.110547000000000E+01      4.947357000000000E-01     -1.602109000000000E+02
4843000000.000000      3.540039000000000E-01      4.083203000000000E+01      4.937439000000000E-01     -1.607188000000000E+02
4844000000.000000      3.545380000000000E-01      4.071289000000000E+01      4.907990000000000E-01     -1.614531000000000E+02
4845000000.000000      3.568420000000000E-01      4.064649000000000E+01      4.894562000000000E-01     -1.620625000000000E+02
4846000000.000000      3.583527000000000E-01      4.042578000000000E+01      4.884644000000000E-01     -1.627969000000000E+02
4847000000.000000      3.604431000000000E-01      4.019531000000000E+01      4.865112000000000E-01     -1.635313000000000E+02
4848000000.000000      3.606873000000000E-01      3.994531000000000E+01      4.835663000000000E-01     -1.642500000000000E+02
4849000000.000000      3.624878000000000E-01      3.966406000000000E+01      4.826660000000000E-01     -1.650703000000000E+02
4850000000.000000      3.634644000000000E-01      3.957617000000000E+01      4.808197000000000E-01     -1.657031000000000E+02
4851000000.000000      3.653412000000000E-01      3.940625000000000E+01      4.807434000000000E-01     -1.664766000000000E+02
4852000000.000000      3.661346000000000E-01      3.908789000000000E+01      4.779968000000000E-01     -1.669765000000000E+02
4853000000.000000      3.681030000000000E-01      3.877344000000000E+01      4.738007000000000E-01     -1.674531000000000E+02
4854000000.000000      3.694000000000000E-01      3.859375000000000E+01      4.716797000000000E-01     -1.686563000000000E+02
4855000000.000000      3.704987000000000E-01      3.840234000000000E+01      4.706421000000000E-01     -1.692422000000000E+02
4856000000.000000      3.714600000000000E-01      3.817187000000000E+01      4.678192000000000E-01     -1.699844000000000E+02
4857000000.000000      3.728180000000000E-01      3.802148000000000E+01      4.670563000000000E-01     -1.705781000000000E+02
4858000000.000000      3.741608000000000E-01      3.766992000000000E+01      4.644623000000000E-01     -1.712109000000000E+02
4859000000.000000      3.750305000000000E-01      3.735156000000000E+01      4.625244000000000E-01     -1.721172000000000E+02
4860000000.000000      3.759613000000000E-01      3.732422000000000E+01      4.584656000000000E-01     -1.726328000000000E+02
4861000000.000000      3.768005000000000E-01      3.698242000000000E+01      4.562225000000000E-01     -1.734453000000000E+02
4862000000.000000      3.773041000000000E-01      3.668164000000000E+01      4.548645000000000E-01     -1.738281000000000E+02
4863000000.000000      3.789520000000000E-01      3.639843000000000E+01      4.494171000000000E-01     -1.746641000000000E+02
4864000000.000000      3.803406000000000E-01      3.621679000000000E+01      4.466248000000000E-01     -1.752578000000000E+02
4865000000.000000      3.797455000000000E-01      3.582031000000000E+01      4.448853000000000E-01     -1.757344000000000E+02
4866000000.000000      3.812256000000000E-01      3.559375000000000E+01      4.414825000000000E-01     -1.767031000000000E+02
4867000000.000000      3.807831000000000E-01      3.543750000000000E+01      4.379120000000000E-01     -1.775547000000000E+02
4868000000.000000      3.824921000000000E-01      3.500391000000000E+01      4.364471000000000E-01     -1.780391000000000E+02
4869000000.000000      3.831635000000000E-01      3.478320000000000E+01      4.331665000000000E-01     -1.786016000000000E+02
4870000000.000000      3.837738000000000E-01      3.465820000000000E+01      4.287720000000000E-01     -1.790937000000000E+02
4871000000.000000      3.836975000000000E-01      3.422461000000000E+01      4.247437000000000E-01     -1.796562000000000E+02
4872000000.000000      3.857269000000000E-01      3.402929000000000E+01      4.218445000000000E-01      1.794531000000000E+02
4873000000.000000      3.849335000000000E-01      3.372656000000000E+01      4.185791000000000E-01      1.788516000000000E+02
4874000000.000000      3.862915000000000E-01      3.351171000000000E+01      4.149475000000000E-01      1.781641000000000E+02
4875000000.000000      3.867493000000000E-01      3.313086000000000E+01      4.113617000000000E-01      1.776875000000000E+02
4876000000.000000      3.863220000000000E-01      3.303125000000000E+01      4.086304000000000E-01      1.771016000000000E+02
4877000000.000000      3.881073000000000E-01      3.264257000000000E+01      4.055939000000000E-01      1.764609000000000E+02
4878000000.000000      3.874969000000000E-01      3.239843000000000E+01      4.020081000000000E-01      1.758906000000000E+02
4879000000.000000      3.885498000000000E-01      3.216211000000000E+01      3.967743000000000E-01      1.754609000000000E+02
4880000000.000000      3.887177000000000E-01      3.185742000000000E+01      3.947144000000000E-01      1.747890000000000E+02
4881000000.000000      3.888397000000000E-01      3.175000000000000E+01      3.909912000000000E-01      1.745625000000000E+02
4882000000.000000      3.895264000000000E-01      3.153613000000000E+01      3.872833000000000E-01      1.737969000000000E+02
4883000000.000000      3.892975000000000E-01      3.107129000000000E+01      3.823090000000000E-01      1.730156000000000E+02
4884000000.000000      3.902740000000000E-01      3.090137000000000E+01      3.806458000000000E-01      1.729531000000000E+02
4885000000.000000      3.898773000000000E-01      3.059277000000000E+01      3.755493000000000E-01      1.725234000000000E+02
4886000000.000000      3.906097000000000E-01      3.046093000000000E+01      3.722382000000000E-01      1.719297000000000E+02
4887000000.000000      3.903198000000000E-01      3.016504000000000E+01      3.704834000000000E-01      1.713359000000000E+02
4888000000.000000      3.901672000000000E-01      2.975879000000000E+01      3.668365000000000E-01      1.709297000000000E+02
4889000000.000000      3.904419000000000E-01      2.954980000000000E+01      3.635101000000000E-01      1.705078000000000E+02
4890000000.000000      3.894958000000000E-01      2.926758000000000E+01      3.596039000000000E-01      1.696953000000000E+02
4891000000.000000      3.903961000000000E-01      2.909570000000000E+01      3.550873000000000E-01      1.694453000000000E+02
4892000000.000000      3.902893000000000E-01      2.890039000000000E+01      3.516846000000000E-01      1.691328000000000E+02
4893000000.000000      3.906097000000000E-01      2.865429000000000E+01      3.489532000000000E-01      1.686094000000000E+02
4894000000.000000      3.896637000000000E-01      2.846386000000000E+01      3.453827000000000E-01      1.680469000000000E+02
4895000000.000000      3.909912000000000E-01      2.819140000000000E+01      3.421478000000000E-01      1.678516000000000E+02
4896000000.000000      3.897247000000000E-01      2.795703000000000E+01      3.384247000000000E-01      1.672266000000000E+02
4897000000.000000      3.889771000000000E-01      2.758594000000000E+01      3.342438000000000E-01      1.667891000000000E+02
4898000000.000000      3.900909000000000E-01      2.753808000000000E+01      3.321533000000000E-01      1.665469000000000E+02
4899000000.000000      3.900452000000000E-01      2.725390000000000E+01      3.274841000000000E-01      1.660859000000000E+02
4900000000.000000      3.897400000000000E-01      2.690234000000000E+01      3.244171000000000E-01      1.656719000000000E+02
4901000000.000000      3.895721000000000E-01      2.683398000000000E+01      3.209686000000000E-01      1.653203000000000E+02
4902000000.000000      3.896332000000000E-01      2.656054000000000E+01      3.173218000000000E-01      1.650156000000000E+02
4903000000.000000      3.888245000000000E-01      2.643261000000000E+01      3.131409000000000E-01      1.645156000000000E+02
4904000000.000000      3.887482000000000E-01      2.604297000000000E+01      3.103180000000000E-01      1.640859000000000E+02
4905000000.000000      3.884125000000000E-01      2.605664000000000E+01      3.076935000000000E-01      1.636172000000000E+02
4906000000.000000      3.885345000000000E-01      2.580761000000000E+01      3.040161000000000E-01      1.634844000000000E+02
4907000000.000000      3.873138000000000E-01      2.555371000000000E+01      3.015747000000000E-01      1.627969000000000E+02
4908000000.000000      3.878784000000000E-01      2.527929000000000E+01      2.981720000000000E-01      1.623984000000000E+02
4909000000.000000      3.873444000000000E-01      2.515234000000000E+01      2.929840000000000E-01      1.620859000000000E+02
4910000000.000000      3.864746000000000E-01      2.509375000000000E+01      2.897034000000000E-01      1.617344000000000E+02
4911000000.000000      3.865967000000000E-01      2.474512000000000E+01      2.873383000000000E-01      1.614609000000000E+02
4912000000.000000      3.857422000000000E-01      2.469824000000000E+01      2.834625000000000E-01      1.608828000000000E+02
4913000000.000000      3.865509000000000E-01      2.442871000000000E+01      2.796173000000000E-01      1.605859000000000E+02
4914000000.000000      3.864899000000000E-01      2.416504000000000E+01      2.758636000000000E-01      1.603281000000000E+02
4915000000.000000      3.858643000000000E-01      2.408886000000000E+01      2.720795000000000E-01      1.597188000000000E+02
4916000000.000000      3.863678000000000E-01      2.381054000000000E+01      2.684784000000000E-01      1.594141000000000E+02
4917000000.000000      3.845367000000000E-01      2.362011000000000E+01      2.641754000000000E-01      1.592422000000000E+02
4918000000.000000      3.854523000000000E-01      2.335644000000000E+01      2.606201000000000E-01      1.586875000000000E+02
4919000000.000000      3.844299000000000E-01      2.334375000000000E+01      2.574615000000000E-01      1.588047000000000E+02
4920000000.000000      3.847351000000000E-01      2.311621000000000E+01      2.525024000000000E-01      1.581250000000000E+02
4921000000.000000      3.849182000000000E-01      2.298535000000000E+01      2.499084000000000E-01      1.580781000000000E+02
4922000000.000000      3.845673000000000E-01      2.270703000000000E+01      2.454453000000000E-01      1.580859000000000E+02
4923000000.000000      3.841400000000000E-01      2.269629000000000E+01      2.417831000000000E-01      1.576328000000000E+02
4924000000.000000      3.838043000000000E-01      2.234668000000000E+01      2.372665000000000E-01      1.570859000000000E+02
4925000000.000000      3.827362000000000E-01      2.216211000000000E+01      2.332306000000000E-01      1.569375000000000E+02
4926000000.000000      3.830566000000000E-01      2.201367000000000E+01      2.294312000000000E-01      1.566562000000000E+02
4927000000.000000      3.821106000000000E-01      2.183300000000000E+01      2.258606000000000E-01      1.566719000000000E+02
4928000000.000000      3.825989000000000E-01      2.150000000000000E+01      2.219772000000000E-01      1.564844000000000E+02
4929000000.000000      3.820496000000000E-01      2.138574000000000E+01      2.174454000000000E-01      1.563984000000000E+02
4930000000.000000      3.827209000000000E-01      2.118847000000000E+01      2.135849000000000E-01      1.561016000000000E+02
4931000000.000000      3.815918000000000E-01      2.112109000000000E+01      2.095718000000000E-01      1.561328000000000E+02
4932000000.000000      3.810883000000000E-01      2.090332000000000E+01      2.054443000000000E-01      1.560625000000000E+02
4933000000.000000      3.807373000000000E-01      2.069336000000000E+01      2.007828000000000E-01      1.560937000000000E+02
4934000000.000000      3.811646000000000E-01      2.055371000000000E+01      1.967163000000000E-01      1.561016000000000E+02
4935000000.000000      3.826141000000000E-01      2.039941000000000E+01      1.936798000000000E-01      1.563672000000000E+02
4936000000.000000      3.802490000000000E-01      2.023242000000000E+01      1.885757000000000E-01      1.561875000000000E+02
4937000000.000000      3.805237000000000E-01      2.000683000000000E+01      1.846542000000000E-01      1.565000000000000E+02
4938000000.000000      3.802795000000000E-01      1.983301000000000E+01      1.808548000000000E-01      1.567109000000000E+02
4939000000.000000      3.795776000000000E-01      1.972949000000000E+01      1.768265000000000E-01      1.569297000000000E+02
4940000000.000000      3.789978000000000E-01      1.954102000000000E+01      1.728210000000000E-01      1.570234000000000E+02
4941000000.000000      3.793182000000000E-01      1.925586000000000E+01      1.693115000000000E-01      1.575547000000000E+02
4942000000.000000      3.780212000000000E-01      1.920898000000000E+01      1.654053000000000E-01      1.578594000000000E+02
4943000000.000000      3.787537000000000E-01      1.910742000000000E+01      1.613846000000000E-01      1.583047000000000E+02
4944000000.000000      3.784790000000000E-01      1.869433000000000E+01      1.578751000000000E-01      1.587656000000000E+02
4945000000.000000      3.776855000000000E-01      1.863281000000000E+01      1.531982000000000E-01      1.595078000000000E+02
4946000000.000000      3.780823000000000E-01      1.850781000000000E+01      1.511002000000000E-01      1.599453000000000E+02
4947000000.000000      3.769073000000000E-01      1.845508000000000E+01      1.468124000000000E-01      1.608516000000000E+02
4948000000.000000      3.775940000000000E-01      1.811230000000000E+01      1.439133000000000E-01      1.616250000000000E+02
4949000000.000000      3.763733000000000E-01      1.802930000000000E+01      1.405182000000000E-01      1.625859000000000E+02
4950000000.000000      3.762207000000000E-01      1.789258000000000E+01      1.372681000000000E-01      1.635625000000000E+02
4951000000.000000      3.756409000000000E-01      1.767676000000000E+01      1.343460000000000E-01      1.644687000000000E+02
4952000000.000000      3.757019000000000E-01      1.741797000000000E+01      1.311035000000000E-01      1.656875000000000E+02
4953000000.000000      3.742371000000000E-01      1.730859000000000E+01      1.291122000000000E-01      1.670703000000000E+02
4954000000.000000      3.756256000000000E-01      1.707227000000000E+01      1.261749000000000E-01      1.682422000000000E+02
