! Network Analyzer HP8722D
! Hewlett-Packard
! Data name: Linha & Wilkinson
! Saver's name: Rodrigo Anjos
! Comments: Teste da utilização de aquisição
continua pelo VNA HP8722D
! Time and date: 23/5/2025 14:27
!              Frequency                     S11                                                   S21                                                   S12                                                   S22
# HZ  S  MA R 50
4800000000.000000      2.938690000000000E-01      3.904687000000000E+01      4.802856000000000E-01     -1.289687000000000E+02
4801000000.000000      2.946320000000000E-01      3.934570000000000E+01      4.805298000000000E-01     -1.296406000000000E+02
4802000000.000000      2.959442000000000E-01      3.949023000000000E+01      4.827118000000000E-01     -1.303437000000000E+02
4803000000.000000      2.969666000000000E-01      3.974414000000000E+01      4.852905000000000E-01     -1.310937000000000E+02
4804000000.000000      2.975464000000000E-01      3.996094000000000E+01      4.852600000000000E-01     -1.317734000000000E+02
4805000000.000000      2.998047000000000E-01      4.001172000000000E+01      4.883575000000000E-01     -1.324453000000000E+02
4806000000.000000      3.002014000000000E-01      4.019140000000000E+01      4.897766000000000E-01     -1.330547000000000E+02
4807000000.000000      3.017426000000000E-01      4.051562000000000E+01      4.910889000000000E-01     -1.340703000000000E+02
4808000000.000000      3.024902000000000E-01      4.047461000000000E+01      4.919586000000000E-01     -1.347344000000000E+02
4809000000.000000      3.041687000000000E-01      4.080664000000000E+01      4.949493000000000E-01     -1.354219000000000E+02
4810000000.000000      3.059387000000000E-01      4.098242000000000E+01      4.958038000000000E-01     -1.361641000000000E+02
4811000000.000000      3.075867000000000E-01      4.117773000000000E+01      4.972839000000000E-01     -1.370859000000000E+02
4812000000.000000      3.099670000000000E-01      4.126562000000000E+01      4.967194000000000E-01     -1.377187000000000E+02
4813000000.000000      3.108063000000000E-01      4.138476000000000E+01      4.967499000000000E-01     -1.384297000000000E+02
4814000000.000000      3.118439000000000E-01      4.141406000000000E+01      4.995270000000000E-01     -1.389219000000000E+02
4815000000.000000      3.132324000000000E-01      4.153710000000000E+01      4.988403000000000E-01     -1.398672000000000E+02
4816000000.000000      3.161163000000000E-01      4.163671000000000E+01      4.990387000000000E-01     -1.406016000000000E+02
4817000000.000000      3.168945000000000E-01      4.177148000000000E+01      4.991150000000000E-01     -1.414063000000000E+02
4818000000.000000      3.186798000000000E-01      4.172265000000000E+01      5.004883000000000E-01     -1.420938000000000E+02
4819000000.000000      3.210602000000000E-01      4.181054000000000E+01      5.002747000000000E-01     -1.428047000000000E+02
4820000000.000000      3.217926000000000E-01      4.188477000000000E+01      5.005798000000000E-01     -1.434375000000000E+02
4821000000.000000      3.244629000000000E-01      4.183203000000000E+01      5.013428000000000E-01     -1.443047000000000E+02
4822000000.000000      3.256226000000000E-01      4.180860000000000E+01      5.006104000000000E-01     -1.450547000000000E+02
4823000000.000000      3.272400000000000E-01      4.177734000000000E+01      5.016174000000000E-01     -1.457109000000000E+02
4824000000.000000      3.292847000000000E-01      4.202344000000000E+01      5.002747000000000E-01     -1.464453000000000E+02
4825000000.000000      3.311005000000000E-01      4.175977000000000E+01      5.015869000000000E-01     -1.470859000000000E+02
4826000000.000000      3.323669000000000E-01      4.178906000000000E+01      5.006409000000000E-01     -1.480781000000000E+02
4827000000.000000      3.346100000000000E-01      4.184375000000000E+01      4.997864000000000E-01     -1.485469000000000E+02
4828000000.000000      3.366699000000000E-01      4.176953000000000E+01      5.013733000000000E-01     -1.493047000000000E+02
4829000000.000000      3.375092000000000E-01      4.186523000000000E+01      4.991760000000000E-01     -1.500547000000000E+02
4830000000.000000      3.399353000000000E-01      4.162890000000000E+01      4.985657000000000E-01     -1.507969000000000E+02
4831000000.000000      3.410339000000000E-01      4.158789000000000E+01      4.992676000000000E-01     -1.516562000000000E+02
4832000000.000000      3.429413000000000E-01      4.167969000000000E+01      4.975433000000000E-01     -1.521875000000000E+02
4833000000.000000      3.445587000000000E-01      4.132617000000000E+01      4.968719000000000E-01     -1.528516000000000E+02
4834000000.000000      3.463135000000000E-01      4.142578000000000E+01      4.956360000000000E-01     -1.536406000000000E+02
4835000000.000000      3.482361000000000E-01      4.122266000000000E+01      4.955750000000000E-01     -1.545703000000000E+02
4836000000.000000      3.503113000000000E-01      4.121679000000000E+01      4.942780000000000E-01     -1.550937000000000E+02
4837000000.000000      3.517914000000000E-01      4.096093000000000E+01      4.931183000000000E-01     -1.561172000000000E+02
4838000000.000000      3.525848000000000E-01      4.098046000000000E+01      4.921570000000000E-01     -1.564687000000000E+02
4839000000.000000      3.564453000000000E-01      4.085742000000000E+01      4.919128000000000E-01     -1.573828000000000E+02
4840000000.000000      3.569183000000000E-01      4.057226000000000E+01      4.902802000000000E-01     -1.580391000000000E+02
4841000000.000000      3.588562000000000E-01      4.055664000000000E+01      4.892120000000000E-01     -1.588594000000000E+02
4842000000.000000      3.594666000000000E-01      4.033203000000000E+01      4.876404000000000E-01     -1.594922000000000E+02
4843000000.000000      3.630981000000000E-01      4.001172000000000E+01      4.875183000000000E-01     -1.602500000000000E+02
4844000000.000000      3.630829000000000E-01      3.995703000000000E+01      4.851074000000000E-01     -1.609688000000000E+02
4845000000.000000      3.646240000000000E-01      3.980859000000000E+01      4.830322000000000E-01     -1.616094000000000E+02
4846000000.000000      3.670502000000000E-01      3.955078000000000E+01      4.821014000000000E-01     -1.623281000000000E+02
4847000000.000000      3.684845000000000E-01      3.948437000000000E+01      4.811859000000000E-01     -1.629453000000000E+02
4848000000.000000      3.694458000000000E-01      3.917578000000000E+01      4.781799000000000E-01     -1.636562000000000E+02
4849000000.000000      3.707428000000000E-01      3.896484000000000E+01      4.772644000000000E-01     -1.643906000000000E+02
4850000000.000000      3.715363000000000E-01      3.875586000000000E+01      4.748383000000000E-01     -1.650469000000000E+02
4851000000.000000      3.741608000000000E-01      3.865234000000000E+01      4.748383000000000E-01     -1.657812000000000E+02
4852000000.000000      3.747711000000000E-01      3.841601000000000E+01      4.703369000000000E-01     -1.665937000000000E+02
4853000000.000000      3.759613000000000E-01      3.824804000000000E+01      4.678497000000000E-01     -1.671797000000000E+02
4854000000.000000      3.771667000000000E-01      3.802343000000000E+01      4.665222000000000E-01     -1.678672000000000E+02
4855000000.000000      3.777771000000000E-01      3.772656000000000E+01      4.640808000000000E-01     -1.686172000000000E+02
4856000000.000000      3.794708000000000E-01      3.759180000000000E+01      4.622955000000000E-01     -1.693984000000000E+02
4857000000.000000      3.809967000000000E-01      3.737109000000000E+01      4.604950000000000E-01     -1.698203000000000E+02
4858000000.000000      3.821869000000000E-01      3.702148000000000E+01      4.592896000000000E-01     -1.706640000000000E+02
4859000000.000000      3.832855000000000E-01      3.680664000000000E+01      4.558868000000000E-01     -1.714687000000000E+02
4860000000.000000      3.839722000000000E-01      3.655273000000000E+01      4.514160000000000E-01     -1.719453000000000E+02
4861000000.000000      3.847961000000000E-01      3.637109000000000E+01      4.499664000000000E-01     -1.729844000000000E+02
4862000000.000000      3.850555000000000E-01      3.615234000000000E+01      4.484253000000000E-01     -1.733984000000000E+02
4863000000.000000      3.875427000000000E-01      3.585156000000000E+01      4.451141000000000E-01     -1.741328000000000E+02
4864000000.000000      3.882446000000000E-01      3.565430000000000E+01      4.428406000000000E-01     -1.748359000000000E+02
4865000000.000000      3.883362000000000E-01      3.528515000000000E+01      4.380341000000000E-01     -1.752578000000000E+02
4866000000.000000      3.899536000000000E-01      3.513476000000000E+01      4.353333000000000E-01     -1.761719000000000E+02
4867000000.000000      3.896790000000000E-01      3.488672000000000E+01      4.319000000000000E-01     -1.768594000000000E+02
4868000000.000000      3.904572000000000E-01      3.460156000000000E+01      4.302368000000000E-01     -1.774062000000000E+02
4869000000.000000      3.913422000000000E-01      3.445313000000000E+01      4.266663000000000E-01     -1.782734000000000E+02
4870000000.000000      3.921967000000000E-01      3.420898000000000E+01      4.236298000000000E-01     -1.787500000000000E+02
4871000000.000000      3.923645000000000E-01      3.376758000000000E+01      4.203644000000000E-01     -1.793516000000000E+02
4872000000.000000      3.946686000000000E-01      3.366211000000000E+01      4.173279000000000E-01     -1.799531000000000E+02
4873000000.000000      3.946991000000000E-01      3.338281000000000E+01      4.134979000000000E-01      1.793750000000000E+02
4874000000.000000      3.952789000000000E-01      3.308984000000000E+01      4.099274000000000E-01      1.787891000000000E+02
4875000000.000000      3.958588000000000E-01      3.273046000000000E+01      4.053345000000000E-01      1.784141000000000E+02
4876000000.000000      3.963623000000000E-01      3.277148000000000E+01      4.029999000000000E-01      1.776406000000000E+02
4877000000.000000      3.966217000000000E-01      3.219531000000000E+01      3.999634000000000E-01      1.769140000000000E+02
4878000000.000000      3.963318000000000E-01      3.200781000000000E+01      3.967133000000000E-01      1.763750000000000E+02
4879000000.000000      3.974609000000000E-01      3.189160000000000E+01      3.920288000000000E-01      1.758828000000000E+02
4880000000.000000      3.985596000000000E-01      3.147949000000000E+01      3.892975000000000E-01      1.755469000000000E+02
4881000000.000000      3.975983000000000E-01      3.122851000000000E+01      3.869171000000000E-01      1.751562000000000E+02
4882000000.000000      3.987732000000000E-01      3.112695000000000E+01      3.830414000000000E-01      1.743515000000000E+02
4883000000.000000      3.984070000000000E-01      3.072949000000000E+01      3.785248000000000E-01      1.736641000000000E+02
4884000000.000000      3.980103000000000E-01      3.068750000000000E+01      3.760834000000000E-01      1.733359000000000E+02
4885000000.000000      3.994751000000000E-01      3.040234000000000E+01      3.704529000000000E-01      1.730000000000000E+02
4886000000.000000      3.990479000000000E-01      3.009961000000000E+01      3.695679000000000E-01      1.723828000000000E+02
4887000000.000000      3.992767000000000E-01      2.988379000000000E+01      3.649292000000000E-01      1.721484000000000E+02
4888000000.000000      3.995056000000000E-01      2.956250000000000E+01      3.625183000000000E-01      1.712500000000000E+02
4889000000.000000      3.989716000000000E-01      2.947070000000000E+01      3.560333000000000E-01      1.708984000000000E+02
4890000000.000000      3.986664000000000E-01      2.914258000000000E+01      3.539124000000000E-01      1.703203000000000E+02
4891000000.000000      3.985901000000000E-01      2.885742000000000E+01      3.492432000000000E-01      1.697422000000000E+02
4892000000.000000      3.991394000000000E-01      2.866992000000000E+01      3.474274000000000E-01      1.695625000000000E+02
4893000000.000000      3.993378000000000E-01      2.826855000000000E+01      3.436890000000000E-01      1.689609000000000E+02
4894000000.000000      3.985901000000000E-01      2.820801000000000E+01      3.397980000000000E-01      1.687969000000000E+02
4895000000.000000      4.002991000000000E-01      2.793359000000000E+01      3.376160000000000E-01      1.684141000000000E+02
4896000000.000000      3.991699000000000E-01      2.766308000000000E+01      3.329315000000000E-01      1.677813000000000E+02
4897000000.000000      3.983612000000000E-01      2.758105000000000E+01      3.293304000000000E-01      1.671328000000000E+02
4898000000.000000      3.982239000000000E-01      2.741211000000000E+01      3.273010000000000E-01      1.669688000000000E+02
4899000000.000000      3.990936000000000E-01      2.698339000000000E+01      3.226318000000000E-01      1.666328000000000E+02
4900000000.000000      3.981781000000000E-01      2.690625000000000E+01      3.191071000000000E-01      1.661953000000000E+02
4901000000.000000      3.984528000000000E-01      2.667578000000000E+01      3.166046000000000E-01      1.656875000000000E+02
4902000000.000000      3.988342000000000E-01      2.629492000000000E+01      3.130493000000000E-01      1.653906000000000E+02
4903000000.000000      3.984985000000000E-01      2.625586000000000E+01      3.091125000000000E-01      1.649688000000000E+02
4904000000.000000      3.988647000000000E-01      2.594238000000000E+01      3.058472000000000E-01      1.646016000000000E+02
4905000000.000000      3.973389000000000E-01      2.574023000000000E+01      3.032074000000000E-01      1.640547000000000E+02
4906000000.000000      3.968048000000000E-01      2.565136000000000E+01      2.991943000000000E-01      1.640391000000000E+02
4907000000.000000      3.971863000000000E-01      2.545215000000000E+01      2.958679000000000E-01      1.633672000000000E+02
4908000000.000000      3.968964000000000E-01      2.510839000000000E+01      2.928314000000000E-01      1.628750000000000E+02
4909000000.000000      3.967438000000000E-01      2.504980000000000E+01      2.890930000000000E-01      1.626328000000000E+02
4910000000.000000      3.961945000000000E-01      2.481348000000000E+01      2.848969000000000E-01      1.622578000000000E+02
4911000000.000000      3.969574000000000E-01      2.471484000000000E+01      2.822266000000000E-01      1.620547000000000E+02
4912000000.000000      3.961945000000000E-01      2.443554000000000E+01      2.782440000000000E-01      1.615234000000000E+02
4913000000.000000      3.963318000000000E-01      2.426270000000000E+01      2.751312000000000E-01      1.611172000000000E+02
4914000000.000000      3.947144000000000E-01      2.414355000000000E+01      2.712555000000000E-01      1.609062000000000E+02
4915000000.000000      3.948822000000000E-01      2.399219000000000E+01      2.675018000000000E-01      1.604922000000000E+02
4916000000.000000      3.944855000000000E-01      2.384766000000000E+01      2.640533000000000E-01      1.600000000000000E+02
4917000000.000000      3.947144000000000E-01      2.357324000000000E+01      2.604980000000000E-01      1.598906000000000E+02
4918000000.000000      3.952026000000000E-01      2.337891000000000E+01      2.564240000000000E-01      1.594453000000000E+02
4919000000.000000      3.935394000000000E-01      2.323047000000000E+01      2.530212000000000E-01      1.593281000000000E+02
4920000000.000000      3.943634000000000E-01      2.309375000000000E+01      2.484436000000000E-01      1.587578000000000E+02
4921000000.000000      3.943024000000000E-01      2.289551000000000E+01      2.452621000000000E-01      1.586406000000000E+02
4922000000.000000      3.938904000000000E-01      2.268359000000000E+01      2.414093000000000E-01      1.583828000000000E+02
4923000000.000000      3.935699000000000E-01      2.262695000000000E+01      2.367401000000000E-01      1.582109000000000E+02
4924000000.000000      3.937683000000000E-01      2.228808000000000E+01      2.330017000000000E-01      1.577891000000000E+02
4925000000.000000      3.928528000000000E-01      2.217578000000000E+01      2.292557000000000E-01      1.576641000000000E+02
4926000000.000000      3.921509000000000E-01      2.199121000000000E+01      2.257538000000000E-01      1.573594000000000E+02
4927000000.000000      3.921509000000000E-01      2.182617000000000E+01      2.215042000000000E-01      1.571719000000000E+02
4928000000.000000      3.940125000000000E-01      2.154687000000000E+01      2.174759000000000E-01      1.572500000000000E+02
4929000000.000000      3.913574000000000E-01      2.147461000000000E+01      2.133713000000000E-01      1.571016000000000E+02
4930000000.000000      3.919830000000000E-01      2.129101000000000E+01      2.097168000000000E-01      1.568359000000000E+02
4931000000.000000      3.905334000000000E-01      2.112305000000000E+01      2.059937000000000E-01      1.567656000000000E+02
4932000000.000000      3.903656000000000E-01      2.074414000000000E+01      2.017670000000000E-01      1.566953000000000E+02
4933000000.000000      3.917694000000000E-01      2.073730000000000E+01      1.971893000000000E-01      1.567734000000000E+02
4934000000.000000      3.910828000000000E-01      2.054688000000000E+01      1.934204000000000E-01      1.566484000000000E+02
4935000000.000000      3.916016000000000E-01      2.055664000000000E+01      1.901703000000000E-01      1.569141000000000E+02
4936000000.000000      3.891144000000000E-01      2.028027000000000E+01      1.854858000000000E-01      1.570625000000000E+02
4937000000.000000      3.891296000000000E-01      1.998730000000000E+01      1.815414000000000E-01      1.571875000000000E+02
4938000000.000000      3.894043000000000E-01      2.017480000000000E+01      1.777573000000000E-01      1.573750000000000E+02
4939000000.000000      3.890533000000000E-01      1.986426000000000E+01      1.742706000000000E-01      1.577422000000000E+02
4940000000.000000      3.890991000000000E-01      1.949902000000000E+01      1.698761000000000E-01      1.576562000000000E+02
4941000000.000000      3.890381000000000E-01      1.933789000000000E+01      1.662674000000000E-01      1.582500000000000E+02
4942000000.000000      3.874054000000000E-01      1.934766000000000E+01      1.618118000000000E-01      1.586562000000000E+02
4943000000.000000      3.882751000000000E-01      1.912109000000000E+01      1.584244000000000E-01      1.591094000000000E+02
4944000000.000000      3.879700000000000E-01      1.888476000000000E+01      1.554642000000000E-01      1.595234000000000E+02
4945000000.000000      3.876495000000000E-01      1.866211000000000E+01      1.513214000000000E-01      1.603516000000000E+02
4946000000.000000      3.874817000000000E-01      1.871289000000000E+01      1.480713000000000E-01      1.608750000000000E+02
4947000000.000000      3.873749000000000E-01      1.833887000000000E+01      1.444550000000000E-01      1.618203000000000E+02
4948000000.000000      3.867950000000000E-01      1.834570000000000E+01      1.416092000000000E-01      1.624375000000000E+02
4949000000.000000      3.860626000000000E-01      1.809961000000000E+01      1.379547000000000E-01      1.636172000000000E+02
4950000000.000000      3.868256000000000E-01      1.794824000000000E+01      1.349258000000000E-01      1.643672000000000E+02
4951000000.000000      3.862762000000000E-01      1.782519000000000E+01      1.319199000000000E-01      1.654140000000000E+02
4952000000.000000      3.855591000000000E-01      1.761621000000000E+01      1.291733000000000E-01      1.664063000000000E+02
4953000000.000000      3.842163000000000E-01      1.741699000000000E+01      1.266251000000000E-01      1.678594000000000E+02
4954000000.000000      3.858185000000000E-01      1.732519000000000E+01      1.245079000000000E-01      1.693906000000000E+02
