! Network Analyzer HP8722D
! Hewlett-Packard
! Data name: Linha & Wilkinson
! Saver's name: Rodrigo Anjos
! Comments: Teste da utilização de aquisição
continua pelo VNA HP8722D
! Time and date: 23/5/2025 08:01
!              Frequency                     S11                                                   S21                                                   S12                                                   S22
# HZ  S  MA R 50
4800000000.000000      4.870148000000000E-01      2.307324000000000E+01      4.222565000000000E-01     -1.115820000000000E+02
4801000000.000000      4.872131000000000E-01      2.332910000000000E+01      4.227753000000000E-01     -1.121680000000000E+02
4802000000.000000      4.847565000000000E-01      2.343848000000000E+01      4.252167000000000E-01     -1.126563000000000E+02
4803000000.000000      4.846649000000000E-01      2.333301000000000E+01      4.273376000000000E-01     -1.136016000000000E+02
4804000000.000000      4.840393000000000E-01      2.343359000000000E+01      4.286346000000000E-01     -1.142148000000000E+02
4805000000.000000      4.856873000000000E-01      2.362011000000000E+01      4.298706000000000E-01     -1.150234000000000E+02
4806000000.000000      4.856720000000000E-01      2.367090000000000E+01      4.310608000000000E-01     -1.159141000000000E+02
4807000000.000000      4.824219000000000E-01      2.370703000000000E+01      4.321136000000000E-01     -1.165898000000000E+02
4808000000.000000      4.846497000000000E-01      2.375195000000000E+01      4.335632000000000E-01     -1.174414000000000E+02
4809000000.000000      4.824219000000000E-01      2.411718000000000E+01      4.355011000000000E-01     -1.181250000000000E+02
4810000000.000000      4.844818000000000E-01      2.402832000000000E+01      4.352112000000000E-01     -1.187031000000000E+02
4811000000.000000      4.844666000000000E-01      2.432324000000000E+01      4.362335000000000E-01     -1.196836000000000E+02
4812000000.000000      4.855804000000000E-01      2.433398000000000E+01      4.375000000000000E-01     -1.203047000000000E+02
4813000000.000000      4.845886000000000E-01      2.456543000000000E+01      4.386749000000000E-01     -1.210820000000000E+02
4814000000.000000      4.832611000000000E-01      2.455761000000000E+01      4.384003000000000E-01     -1.216758000000000E+02
4815000000.000000      4.849396000000000E-01      2.466504000000000E+01      4.394531000000000E-01     -1.226719000000000E+02
4816000000.000000      4.848328000000000E-01      2.479004000000000E+01      4.403229000000000E-01     -1.233555000000000E+02
4817000000.000000      4.846039000000000E-01      2.497461000000000E+01      4.389496000000000E-01     -1.240430000000000E+02
4818000000.000000      4.855499000000000E-01      2.492480000000000E+01      4.402924000000000E-01     -1.248242000000000E+02
4819000000.000000      4.853973000000000E-01      2.517773000000000E+01      4.413452000000000E-01     -1.253984000000000E+02
4820000000.000000      4.859467000000000E-01      2.526953000000000E+01      4.418945000000000E-01     -1.259609000000000E+02
4821000000.000000      4.878387000000000E-01      2.531933000000000E+01      4.413452000000000E-01     -1.270937000000000E+02
4822000000.000000      4.863281000000000E-01      2.536328000000000E+01      4.396515000000000E-01     -1.279023000000000E+02
4823000000.000000      4.886475000000000E-01      2.519238000000000E+01      4.420929000000000E-01     -1.285078000000000E+02
4824000000.000000      4.870605000000000E-01      2.570019000000000E+01      4.401245000000000E-01     -1.290000000000000E+02
4825000000.000000      4.899750000000000E-01      2.541113000000000E+01      4.403839000000000E-01     -1.298281000000000E+02
4826000000.000000      4.902496000000000E-01      2.528906000000000E+01      4.410248000000000E-01     -1.306015000000000E+02
4827000000.000000      4.925842000000000E-01      2.550586000000000E+01      4.416046000000000E-01     -1.312813000000000E+02
4828000000.000000      4.930420000000000E-01      2.553223000000000E+01      4.422150000000000E-01     -1.320781000000000E+02
4829000000.000000      4.924011000000000E-01      2.574023000000000E+01      4.407806000000000E-01     -1.328984000000000E+02
4830000000.000000      4.948273000000000E-01      2.564550000000000E+01      4.410248000000000E-01     -1.337812000000000E+02
4831000000.000000      4.950256000000000E-01      2.578320000000000E+01      4.406586000000000E-01     -1.340625000000000E+02
4832000000.000000      4.940796000000000E-01      2.621289000000000E+01      4.391785000000000E-01     -1.349531000000000E+02
4833000000.000000      4.940491000000000E-01      2.615625000000000E+01      4.383087000000000E-01     -1.355547000000000E+02
4834000000.000000      4.966736000000000E-01      2.609472000000000E+01      4.396362000000000E-01     -1.365703000000000E+02
4835000000.000000      4.988403000000000E-01      2.613965000000000E+01      4.390869000000000E-01     -1.370781000000000E+02
4836000000.000000      4.977570000000000E-01      2.620508000000000E+01      4.380035000000000E-01     -1.377969000000000E+02
4837000000.000000      5.001831000000000E-01      2.633886000000000E+01      4.360352000000000E-01     -1.387891000000000E+02
4838000000.000000      5.002136000000000E-01      2.618652000000000E+01      4.360199000000000E-01     -1.393984000000000E+02
4839000000.000000      5.027466000000000E-01      2.628418000000000E+01      4.373932000000000E-01     -1.401484000000000E+02
4840000000.000000      5.027466000000000E-01      2.613867000000000E+01      4.359131000000000E-01     -1.408203000000000E+02
4841000000.000000      5.031128000000000E-01      2.629297000000000E+01      4.351959000000000E-01     -1.418281000000000E+02
4842000000.000000      5.057068000000000E-01      2.627441000000000E+01      4.320679000000000E-01     -1.424687000000000E+02
4843000000.000000      5.086975000000000E-01      2.595508000000000E+01      4.327545000000000E-01     -1.433594000000000E+02
4844000000.000000      5.078735000000000E-01      2.615429000000000E+01      4.314728000000000E-01     -1.439844000000000E+02
4845000000.000000      5.098572000000000E-01      2.641894000000000E+01      4.295654000000000E-01     -1.445234000000000E+02
4846000000.000000      5.120239000000000E-01      2.624609000000000E+01      4.297028000000000E-01     -1.454922000000000E+02
4847000000.000000      5.134277000000000E-01      2.632324000000000E+01      4.279175000000000E-01     -1.460547000000000E+02
4848000000.000000      5.131226000000000E-01      2.613770000000000E+01      4.251556000000000E-01     -1.467500000000000E+02
4849000000.000000      5.148621000000000E-01      2.608007000000000E+01      4.242706000000000E-01     -1.476094000000000E+02
4850000000.000000      5.160522000000000E-01      2.612207000000000E+01      4.231262000000000E-01     -1.485000000000000E+02
4851000000.000000      5.169983000000000E-01      2.608203000000000E+01      4.237061000000000E-01     -1.491719000000000E+02
4852000000.000000      5.204773000000000E-01      2.611133000000000E+01      4.194031000000000E-01     -1.498828000000000E+02
4853000000.000000      5.202637000000000E-01      2.589160000000000E+01      4.176941000000000E-01     -1.508281000000000E+02
4854000000.000000      5.233459000000000E-01      2.600293000000000E+01      4.158325000000000E-01     -1.516719000000000E+02
4855000000.000000      5.239868000000000E-01      2.589844000000000E+01      4.135132000000000E-01     -1.521875000000000E+02
4856000000.000000      5.228577000000000E-01      2.583984000000000E+01      4.127655000000000E-01     -1.530859000000000E+02
4857000000.000000      5.263977000000000E-01      2.586719000000000E+01      4.112244000000000E-01     -1.537500000000000E+02
4858000000.000000      5.258789000000000E-01      2.572851000000000E+01      4.073639000000000E-01     -1.543437000000000E+02
4859000000.000000      5.269165000000000E-01      2.546289000000000E+01      4.058838000000000E-01     -1.551641000000000E+02
4860000000.000000      5.293884000000000E-01      2.556055000000000E+01      4.035645000000000E-01     -1.561328000000000E+02
4861000000.000000      5.282288000000000E-01      2.549219000000000E+01      4.014282000000000E-01     -1.570547000000000E+02
4862000000.000000      5.299683000000000E-01      2.529297000000000E+01      3.983154000000000E-01     -1.575391000000000E+02
4863000000.000000      5.306091000000000E-01      2.526660000000000E+01      3.944092000000000E-01     -1.585391000000000E+02
4864000000.000000      5.335999000000000E-01      2.496973000000000E+01      3.935394000000000E-01     -1.588672000000000E+02
4865000000.000000      5.343323000000000E-01      2.500683000000000E+01      3.895874000000000E-01     -1.598594000000000E+02
4866000000.000000      5.357666000000000E-01      2.503320000000000E+01      3.868866000000000E-01     -1.604687000000000E+02
4867000000.000000      5.357666000000000E-01      2.482324000000000E+01      3.839111000000000E-01     -1.614141000000000E+02
4868000000.000000      5.379639000000000E-01      2.454394000000000E+01      3.823395000000000E-01     -1.619531000000000E+02
4869000000.000000      5.376282000000000E-01      2.458398000000000E+01      3.767242000000000E-01     -1.627656000000000E+02
4870000000.000000      5.389404000000000E-01      2.456738000000000E+01      3.741760000000000E-01     -1.632266000000000E+02
4871000000.000000      5.414429000000000E-01      2.426953000000000E+01      3.710632000000000E-01     -1.640781000000000E+02
4872000000.000000      5.430603000000000E-01      2.422266000000000E+01      3.672485000000000E-01     -1.646328000000000E+02
4873000000.000000      5.430298000000000E-01      2.419238000000000E+01      3.651733000000000E-01     -1.656094000000000E+02
4874000000.000000      5.419312000000000E-01      2.397168000000000E+01      3.607635000000000E-01     -1.659922000000000E+02
4875000000.000000      5.437317000000000E-01      2.376563000000000E+01      3.575897000000000E-01     -1.666250000000000E+02
4876000000.000000      5.454407000000000E-01      2.387305000000000E+01      3.547211000000000E-01     -1.672422000000000E+02
4877000000.000000      5.469971000000000E-01      2.352149000000000E+01      3.494415000000000E-01     -1.681328000000000E+02
4878000000.000000      5.478516000000000E-01      2.344727000000000E+01      3.478394000000000E-01     -1.685390000000000E+02
4879000000.000000      5.483093000000000E-01      2.335351000000000E+01      3.421326000000000E-01     -1.690312000000000E+02
4880000000.000000      5.498962000000000E-01      2.325781000000000E+01      3.400879000000000E-01     -1.697344000000000E+02
4881000000.000000      5.492249000000000E-01      2.307129000000000E+01      3.373566000000000E-01     -1.702969000000000E+02
4882000000.000000      5.523682000000000E-01      2.319531000000000E+01      3.333282000000000E-01     -1.709453000000000E+02
4883000000.000000      5.498047000000000E-01      2.281933000000000E+01      3.286743000000000E-01     -1.717031000000000E+02
4884000000.000000      5.528259000000000E-01      2.270996000000000E+01      3.256836000000000E-01     -1.719766000000000E+02
4885000000.000000      5.511475000000000E-01      2.258984000000000E+01      3.224030000000000E-01     -1.721562000000000E+02
4886000000.000000      5.540161000000000E-01      2.251563000000000E+01      3.204956000000000E-01     -1.728594000000000E+02
4887000000.000000      5.555725000000000E-01      2.237305000000000E+01      3.161011000000000E-01     -1.734219000000000E+02
4888000000.000000      5.533447000000000E-01      2.226563000000000E+01      3.131409000000000E-01     -1.738516000000000E+02
4889000000.000000      5.548401000000000E-01      2.220410000000000E+01      3.091888000000000E-01     -1.741875000000000E+02
4890000000.000000      5.547180000000000E-01      2.212500000000000E+01      3.052063000000000E-01     -1.750469000000000E+02
4891000000.000000      5.562134000000000E-01      2.187012000000000E+01      3.019257000000000E-01     -1.753828000000000E+02
4892000000.000000      5.560303000000000E-01      2.178711000000000E+01      2.991180000000000E-01     -1.753672000000000E+02
4893000000.000000      5.585022000000000E-01      2.153418000000000E+01      2.943726000000000E-01     -1.760391000000000E+02
4894000000.000000      5.564880000000000E-01      2.136425000000000E+01      2.910919000000000E-01     -1.765156000000000E+02
4895000000.000000      5.600586000000000E-01      2.129395000000000E+01      2.887268000000000E-01     -1.768281000000000E+02
4896000000.000000      5.572815000000000E-01      2.096972000000000E+01      2.844696000000000E-01     -1.771172000000000E+02
4897000000.000000      5.592346000000000E-01      2.091309000000000E+01      2.816010000000000E-01     -1.776172000000000E+02
4898000000.000000      5.591125000000000E-01      2.088183000000000E+01      2.785645000000000E-01     -1.777734000000000E+02
4899000000.000000      5.603333000000000E-01      2.086621000000000E+01      2.749481000000000E-01     -1.785156000000000E+02
4900000000.000000      5.621948000000000E-01      2.056641000000000E+01      2.716522000000000E-01     -1.788125000000000E+02
4901000000.000000      5.599365000000000E-01      2.037207000000000E+01      2.687378000000000E-01     -1.789453000000000E+02
4902000000.000000      5.611877000000000E-01      2.026758000000000E+01      2.665863000000000E-01     -1.793203000000000E+02
4903000000.000000      5.609741000000000E-01      2.024707000000000E+01      2.615204000000000E-01     -1.797812000000000E+02
4904000000.000000      5.621948000000000E-01      1.987890000000000E+01      2.588501000000000E-01      1.797734000000000E+02
4905000000.000000      5.630188000000000E-01      1.987695000000000E+01      2.563934000000000E-01      1.794297000000000E+02
4906000000.000000      5.611877000000000E-01      1.967578000000000E+01      2.530060000000000E-01      1.792891000000000E+02
4907000000.000000      5.616455000000000E-01      1.968262000000000E+01      2.504272000000000E-01      1.787578000000000E+02
4908000000.000000      5.623474000000000E-01      1.937012000000000E+01      2.467957000000000E-01      1.782812000000000E+02
4909000000.000000      5.604553000000000E-01      1.926562000000000E+01      2.433929000000000E-01      1.780078000000000E+02
4910000000.000000      5.623779000000000E-01      1.937109000000000E+01      2.406158000000000E-01      1.778437000000000E+02
4911000000.000000      5.637207000000000E-01      1.913379000000000E+01      2.383881000000000E-01      1.774688000000000E+02
4912000000.000000      5.625610000000000E-01      1.907227000000000E+01      2.338104000000000E-01      1.770703000000000E+02
4913000000.000000      5.643921000000000E-01      1.898242000000000E+01      2.310867000000000E-01      1.769531000000000E+02
4914000000.000000      5.625000000000000E-01      1.859766000000000E+01      2.285156000000000E-01      1.765703000000000E+02
4915000000.000000      5.629272000000000E-01      1.868457000000000E+01      2.245102000000000E-01      1.762734000000000E+02
4916000000.000000      5.639954000000000E-01      1.849609000000000E+01      2.211609000000000E-01      1.759609000000000E+02
4917000000.000000      5.650940000000000E-01      1.840137000000000E+01      2.184372000000000E-01      1.757266000000000E+02
4918000000.000000      5.662842000000000E-01      1.809570000000000E+01      2.148590000000000E-01      1.752891000000000E+02
4919000000.000000      5.637207000000000E-01      1.806933000000000E+01      2.116318000000000E-01      1.754844000000000E+02
4920000000.000000      5.657349000000000E-01      1.798242000000000E+01      2.077713000000000E-01      1.748437000000000E+02
4921000000.000000      5.649414000000000E-01      1.788281000000000E+01      2.050629000000000E-01      1.747656000000000E+02
4922000000.000000      5.655518000000000E-01      1.765723000000000E+01      2.017822000000000E-01      1.746641000000000E+02
4923000000.000000      5.651550000000000E-01      1.742383000000000E+01      1.977921000000000E-01      1.744219000000000E+02
4924000000.000000      5.639954000000000E-01      1.754883000000000E+01      1.943130000000000E-01      1.741406000000000E+02
4925000000.000000      5.638123000000000E-01      1.749902000000000E+01      1.915283000000000E-01      1.739922000000000E+02
4926000000.000000      5.649719000000000E-01      1.737890000000000E+01      1.875763000000000E-01      1.738672000000000E+02
4927000000.000000      5.664368000000000E-01      1.700098000000000E+01      1.846771000000000E-01      1.738828000000000E+02
4928000000.000000      5.675049000000000E-01      1.698144000000000E+01      1.811600000000000E-01      1.737266000000000E+02
4929000000.000000      5.659180000000000E-01      1.677832000000000E+01      1.774292000000000E-01      1.737813000000000E+02
4930000000.000000      5.664368000000000E-01      1.681836000000000E+01      1.741409000000000E-01      1.735703000000000E+02
4931000000.000000      5.668030000000000E-01      1.680078000000000E+01      1.712494000000000E-01      1.736875000000000E+02
4932000000.000000      5.651245000000000E-01      1.658789000000000E+01      1.676712000000000E-01      1.736953000000000E+02
4933000000.000000      5.666809000000000E-01      1.621582000000000E+01      1.635132000000000E-01      1.740859000000000E+02
4934000000.000000      5.678101000000000E-01      1.649121000000000E+01      1.603928000000000E-01      1.737969000000000E+02
4935000000.000000      5.671387000000000E-01      1.639258000000000E+01      1.574783000000000E-01      1.742891000000000E+02
4936000000.000000      5.665894000000000E-01      1.583105000000000E+01      1.535339000000000E-01      1.742812000000000E+02
4937000000.000000      5.679626000000000E-01      1.576904000000000E+01      1.503983000000000E-01      1.744688000000000E+02
4938000000.000000      5.684814000000000E-01      1.600000000000000E+01      1.470108000000000E-01      1.747578000000000E+02
4939000000.000000      5.657959000000000E-01      1.583643000000000E+01      1.438675000000000E-01      1.752891000000000E+02
4940000000.000000      5.677490000000000E-01      1.557031000000000E+01      1.401596000000000E-01      1.755391000000000E+02
4941000000.000000      5.679626000000000E-01      1.536572000000000E+01      1.375885000000000E-01      1.762187000000000E+02
4942000000.000000      5.673828000000000E-01      1.544678000000000E+01      1.344070000000000E-01      1.764141000000000E+02
4943000000.000000      5.687256000000000E-01      1.514014000000000E+01      1.312561000000000E-01      1.772969000000000E+02
4944000000.000000      5.687866000000000E-01      1.494238000000000E+01      1.280746000000000E-01      1.778125000000000E+02
4945000000.000000      5.697021000000000E-01      1.502197000000000E+01      1.251907000000000E-01      1.786875000000000E+02
4946000000.000000      5.688782000000000E-01      1.482568000000000E+01      1.224976000000000E-01      1.797969000000000E+02
4947000000.000000      5.680847000000000E-01      1.486816000000000E+01      1.197548000000000E-01     -1.794609000000000E+02
4948000000.000000      5.686646000000000E-01      1.475049000000000E+01      1.173592000000000E-01     -1.788203000000000E+02
4949000000.000000      5.681763000000000E-01      1.461719000000000E+01      1.144943000000000E-01     -1.774141000000000E+02
4950000000.000000      5.701294000000000E-01      1.443604000000000E+01      1.122017000000000E-01     -1.764531000000000E+02
4951000000.000000      5.684814000000000E-01      1.431787000000000E+01      1.100235000000000E-01     -1.752031000000000E+02
4952000000.000000      5.690918000000000E-01      1.415723000000000E+01      1.075401000000000E-01     -1.737813000000000E+02
4953000000.000000      5.687866000000000E-01      1.413525000000000E+01      1.059837000000000E-01     -1.722500000000000E+02
4954000000.000000      5.702209000000000E-01      1.402100000000000E+01      1.038475000000000E-01     -1.711328000000000E+02
