! Network Analyzer HP8722D
! Hewlett-Packard
! Data name: Linha & Wilkinson
! Saver's name: Rodrigo Anjos
! Comments: Teste da utilização de aquisição
continua pelo VNA HP8722D
! Time and date: 23/5/2025 10:25
!              Frequency                     S11                                                   S21                                                   S12                                                   S22
# HZ  S  MA R 50
4800000000.000000      3.173065000000000E-01      3.689453000000000E+01      4.668579000000000E-01     -1.277266000000000E+02
4801000000.000000      3.178711000000000E-01      3.725000000000000E+01      4.682617000000000E-01     -1.283828000000000E+02
4802000000.000000      3.188782000000000E-01      3.739258000000000E+01      4.697266000000000E-01     -1.289922000000000E+02
4803000000.000000      3.197632000000000E-01      3.753515000000000E+01      4.723816000000000E-01     -1.298281000000000E+02
4804000000.000000      3.206635000000000E-01      3.781836000000000E+01      4.741669000000000E-01     -1.305312000000000E+02
4805000000.000000      3.225861000000000E-01      3.777148000000000E+01      4.749756000000000E-01     -1.312734000000000E+02
4806000000.000000      3.228912000000000E-01      3.799609000000000E+01      4.769135000000000E-01     -1.321016000000000E+02
4807000000.000000      3.239441000000000E-01      3.823242000000000E+01      4.776154000000000E-01     -1.329766000000000E+02
4808000000.000000      3.251801000000000E-01      3.834765000000000E+01      4.796143000000000E-01     -1.334297000000000E+02
4809000000.000000      3.262024000000000E-01      3.859766000000000E+01      4.792023000000000E-01     -1.344922000000000E+02
4810000000.000000      3.279877000000000E-01      3.870508000000000E+01      4.817657000000000E-01     -1.349219000000000E+02
4811000000.000000      3.294983000000000E-01      3.888281000000000E+01      4.830017000000000E-01     -1.359844000000000E+02
4812000000.000000      3.313293000000000E-01      3.901562000000000E+01      4.833832000000000E-01     -1.365234000000000E+02
4813000000.000000      3.316345000000000E-01      3.913867000000000E+01      4.845428000000000E-01     -1.372422000000000E+02
4814000000.000000      3.331299000000000E-01      3.915625000000000E+01      4.845734000000000E-01     -1.377109000000000E+02
4815000000.000000      3.340149000000000E-01      3.926758000000000E+01      4.857635000000000E-01     -1.387969000000000E+02
4816000000.000000      3.368835000000000E-01      3.945898000000000E+01      4.857635000000000E-01     -1.393359000000000E+02
4817000000.000000      3.373871000000000E-01      3.947070000000000E+01      4.852905000000000E-01     -1.402656000000000E+02
4818000000.000000      3.393097000000000E-01      3.951757000000000E+01      4.864655000000000E-01     -1.408906000000000E+02
4819000000.000000      3.407288000000000E-01      3.955078000000000E+01      4.862823000000000E-01     -1.416484000000000E+02
4820000000.000000      3.418884000000000E-01      3.965625000000000E+01      4.867706000000000E-01     -1.422812000000000E+02
4821000000.000000      3.442535000000000E-01      3.971875000000000E+01      4.868469000000000E-01     -1.430703000000000E+02
4822000000.000000      3.452759000000000E-01      3.959765000000000E+01      4.859467000000000E-01     -1.439062000000000E+02
4823000000.000000      3.471527000000000E-01      3.966406000000000E+01      4.884186000000000E-01     -1.445781000000000E+02
4824000000.000000      3.485565000000000E-01      3.974414000000000E+01      4.870453000000000E-01     -1.454453000000000E+02
4825000000.000000      3.505554000000000E-01      3.973242000000000E+01      4.860382000000000E-01     -1.459297000000000E+02
4826000000.000000      3.519135000000000E-01      3.967187000000000E+01      4.872589000000000E-01     -1.468750000000000E+02
4827000000.000000      3.540955000000000E-01      3.966601000000000E+01      4.863281000000000E-01     -1.474141000000000E+02
4828000000.000000      3.558807000000000E-01      3.967968000000000E+01      4.870300000000000E-01     -1.482109000000000E+02
4829000000.000000      3.574219000000000E-01      3.966406000000000E+01      4.860840000000000E-01     -1.488906000000000E+02
4830000000.000000      3.590546000000000E-01      3.956445000000000E+01      4.845581000000000E-01     -1.497266000000000E+02
4831000000.000000      3.605652000000000E-01      3.952734000000000E+01      4.853516000000000E-01     -1.504609000000000E+02
4832000000.000000      3.621521000000000E-01      3.950781000000000E+01      4.836273000000000E-01     -1.510078000000000E+02
4833000000.000000      3.634949000000000E-01      3.933203000000000E+01      4.842224000000000E-01     -1.517578000000000E+02
4834000000.000000      3.651123000000000E-01      3.924805000000000E+01      4.832306000000000E-01     -1.525859000000000E+02
4835000000.000000      3.681183000000000E-01      3.916211000000000E+01      4.801788000000000E-01     -1.532266000000000E+02
4836000000.000000      3.689880000000000E-01      3.914648000000000E+01      4.804077000000000E-01     -1.538828000000000E+02
4837000000.000000      3.704376000000000E-01      3.909375000000000E+01      4.795685000000000E-01     -1.550078000000000E+02
4838000000.000000      3.712006000000000E-01      3.892578000000000E+01      4.783173000000000E-01     -1.554297000000000E+02
4839000000.000000      3.753967000000000E-01      3.881054000000000E+01      4.773407000000000E-01     -1.559844000000000E+02
4840000000.000000      3.758240000000000E-01      3.859766000000000E+01      4.755096000000000E-01     -1.568984000000000E+02
4841000000.000000      3.769989000000000E-01      3.863476000000000E+01      4.757538000000000E-01     -1.574844000000000E+02
4842000000.000000      3.785095000000000E-01      3.844336000000000E+01      4.733429000000000E-01     -1.582578000000000E+02
4843000000.000000      3.810425000000000E-01      3.817187000000000E+01      4.731293000000000E-01     -1.589219000000000E+02
4844000000.000000      3.818665000000000E-01      3.814453000000000E+01      4.710999000000000E-01     -1.597031000000000E+02
4845000000.000000      3.837433000000000E-01      3.799414000000000E+01      4.688721000000000E-01     -1.604844000000000E+02
4846000000.000000      3.849792000000000E-01      3.778515000000000E+01      4.681549000000000E-01     -1.611641000000000E+02
4847000000.000000      3.870850000000000E-01      3.775781000000000E+01      4.667816000000000E-01     -1.617500000000000E+02
4848000000.000000      3.869171000000000E-01      3.741796000000000E+01      4.643250000000000E-01     -1.625234000000000E+02
4849000000.000000      3.894806000000000E-01      3.724218000000000E+01      4.633789000000000E-01     -1.633359000000000E+02
4850000000.000000      3.903809000000000E-01      3.710351000000000E+01      4.615784000000000E-01     -1.640078000000000E+02
4851000000.000000      3.923187000000000E-01      3.697851000000000E+01      4.608612000000000E-01     -1.646953000000000E+02
4852000000.000000      3.929138000000000E-01      3.681836000000000E+01      4.570923000000000E-01     -1.652734000000000E+02
4853000000.000000      3.942108000000000E-01      3.651562000000000E+01      4.548492000000000E-01     -1.659844000000000E+02
4854000000.000000      3.958588000000000E-01      3.631640000000000E+01      4.535828000000000E-01     -1.670156000000000E+02
4855000000.000000      3.969421000000000E-01      3.610352000000000E+01      4.517670000000000E-01     -1.675234000000000E+02
4856000000.000000      3.974457000000000E-01      3.592773000000000E+01      4.496307000000000E-01     -1.682656000000000E+02
4857000000.000000      3.994141000000000E-01      3.579297000000000E+01      4.469452000000000E-01     -1.688047000000000E+02
4858000000.000000      4.002380000000000E-01      3.554688000000000E+01      4.445343000000000E-01     -1.696172000000000E+02
4859000000.000000      4.004822000000000E-01      3.533398000000000E+01      4.427643000000000E-01     -1.704609000000000E+02
4860000000.000000      4.017639000000000E-01      3.522070000000000E+01      4.402924000000000E-01     -1.710234000000000E+02
4861000000.000000      4.028320000000000E-01      3.494336000000000E+01      4.368896000000000E-01     -1.717500000000000E+02
4862000000.000000      4.037476000000000E-01      3.463086000000000E+01      4.355164000000000E-01     -1.722812000000000E+02
4863000000.000000      4.051971000000000E-01      3.446484000000000E+01      4.297333000000000E-01     -1.730078000000000E+02
4864000000.000000      4.059753000000000E-01      3.426758000000000E+01      4.297333000000000E-01     -1.736328000000000E+02
4865000000.000000      4.062805000000000E-01      3.390625000000000E+01      4.255219000000000E-01     -1.742891000000000E+02
4866000000.000000      4.074860000000000E-01      3.374023000000000E+01      4.222260000000000E-01     -1.751641000000000E+02
4867000000.000000      4.075470000000000E-01      3.350000000000000E+01      4.201508000000000E-01     -1.758672000000000E+02
4868000000.000000      4.097137000000000E-01      3.332422000000000E+01      4.180603000000000E-01     -1.764297000000000E+02
4869000000.000000      4.092865000000000E-01      3.302148000000000E+01      4.135895000000000E-01     -1.772500000000000E+02
4870000000.000000      4.108124000000000E-01      3.295312000000000E+01      4.112701000000000E-01     -1.775391000000000E+02
4871000000.000000      4.113312000000000E-01      3.255273000000000E+01      4.075165000000000E-01     -1.783125000000000E+02
4872000000.000000      4.124146000000000E-01      3.243164000000000E+01      4.041748000000000E-01     -1.787812000000000E+02
4873000000.000000      4.136810000000000E-01      3.212500000000000E+01      4.006958000000000E-01     -1.796172000000000E+02
4874000000.000000      4.128418000000000E-01      3.203516000000000E+01      3.976593000000000E-01      1.798125000000000E+02
4875000000.000000      4.136505000000000E-01      3.167187000000000E+01      3.917694000000000E-01      1.791797000000000E+02
4876000000.000000      4.142151000000000E-01      3.149023000000000E+01      3.892365000000000E-01      1.787344000000000E+02
4877000000.000000      4.154510000000000E-01      3.109863000000000E+01      3.863220000000000E-01      1.780547000000000E+02
4878000000.000000      4.147034000000000E-01      3.105762000000000E+01      3.823090000000000E-01      1.774453000000000E+02
4879000000.000000      4.163971000000000E-01      3.071875000000000E+01      3.797302000000000E-01      1.771484000000000E+02
4880000000.000000      4.166260000000000E-01      3.046484000000000E+01      3.753357000000000E-01      1.763672000000000E+02
4881000000.000000      4.158783000000000E-01      3.024219000000000E+01      3.740540000000000E-01      1.760078000000000E+02
4882000000.000000      4.171906000000000E-01      3.002832000000000E+01      3.705139000000000E-01      1.753438000000000E+02
4883000000.000000      4.172974000000000E-01      2.981543000000000E+01      3.656464000000000E-01      1.748828000000000E+02
4884000000.000000      4.178314000000000E-01      2.972461000000000E+01      3.630371000000000E-01      1.742656000000000E+02
4885000000.000000      4.176483000000000E-01      2.936426000000000E+01      3.574524000000000E-01      1.740703000000000E+02
4886000000.000000      4.180450000000000E-01      2.929004000000000E+01      3.564758000000000E-01      1.735000000000000E+02
4887000000.000000      4.186554000000000E-01      2.896093000000000E+01      3.516541000000000E-01      1.729453000000000E+02
4888000000.000000      4.175262000000000E-01      2.854883000000000E+01      3.487854000000000E-01      1.723984000000000E+02
4889000000.000000      4.180298000000000E-01      2.857910000000000E+01      3.450775000000000E-01      1.721719000000000E+02
4890000000.000000      4.179535000000000E-01      2.830273000000000E+01      3.405762000000000E-01      1.711406000000000E+02
4891000000.000000      4.186859000000000E-01      2.805078000000000E+01      3.382874000000000E-01      1.710547000000000E+02
4892000000.000000      4.178619000000000E-01      2.780273000000000E+01      3.351440000000000E-01      1.706719000000000E+02
4893000000.000000      4.186859000000000E-01      2.770117000000000E+01      3.305511000000000E-01      1.699766000000000E+02
4894000000.000000      4.186096000000000E-01      2.739160000000000E+01      3.269196000000000E-01      1.697656000000000E+02
4895000000.000000      4.189758000000000E-01      2.710644000000000E+01      3.251190000000000E-01      1.693984000000000E+02
4896000000.000000      4.180908000000000E-01      2.687793000000000E+01      3.211975000000000E-01      1.688984000000000E+02
4897000000.000000      4.176941000000000E-01      2.683496000000000E+01      3.178864000000000E-01      1.683672000000000E+02
4898000000.000000      4.194031000000000E-01      2.663281000000000E+01      3.148956000000000E-01      1.682188000000000E+02
4899000000.000000      4.182739000000000E-01      2.637890000000000E+01      3.105774000000000E-01      1.676094000000000E+02
4900000000.000000      4.179535000000000E-01      2.607812000000000E+01      3.079529000000000E-01      1.673125000000000E+02
4901000000.000000      4.185638000000000E-01      2.589941000000000E+01      3.039551000000000E-01      1.668281000000000E+02
4902000000.000000      4.177246000000000E-01      2.570801000000000E+01      3.008423000000000E-01      1.665156000000000E+02
4903000000.000000      4.185791000000000E-01      2.568262000000000E+01      2.969208000000000E-01      1.661562000000000E+02
4904000000.000000      4.184570000000000E-01      2.538574000000000E+01      2.934570000000000E-01      1.656563000000000E+02
4905000000.000000      4.185181000000000E-01      2.520801000000000E+01      2.910461000000000E-01      1.652578000000000E+02
4906000000.000000      4.173584000000000E-01      2.506445000000000E+01      2.868652000000000E-01      1.650469000000000E+02
4907000000.000000      4.166565000000000E-01      2.478027000000000E+01      2.843781000000000E-01      1.646719000000000E+02
4908000000.000000      4.179382000000000E-01      2.466211000000000E+01      2.807159000000000E-01      1.641094000000000E+02
4909000000.000000      4.167786000000000E-01      2.445117000000000E+01      2.767944000000000E-01      1.638359000000000E+02
4910000000.000000      4.160309000000000E-01      2.440039000000000E+01      2.738495000000000E-01      1.635156000000000E+02
4911000000.000000      4.168243000000000E-01      2.415136000000000E+01      2.705688000000000E-01      1.632500000000000E+02
4912000000.000000      4.165344000000000E-01      2.396777000000000E+01      2.674561000000000E-01      1.627500000000000E+02
4913000000.000000      4.159851000000000E-01      2.363086000000000E+01      2.634888000000000E-01      1.624531000000000E+02
4914000000.000000      4.153748000000000E-01      2.349219000000000E+01      2.598572000000000E-01      1.623516000000000E+02
4915000000.000000      4.158325000000000E-01      2.345508000000000E+01      2.561493000000000E-01      1.618438000000000E+02
4916000000.000000      4.155273000000000E-01      2.326270000000000E+01      2.524414000000000E-01      1.613359000000000E+02
4917000000.000000      4.160004000000000E-01      2.311621000000000E+01      2.491608000000000E-01      1.611484000000000E+02
4918000000.000000      4.150085000000000E-01      2.290039000000000E+01      2.450790000000000E-01      1.609297000000000E+02
4919000000.000000      4.139709000000000E-01      2.277832000000000E+01      2.424698000000000E-01      1.606562000000000E+02
4920000000.000000      4.150085000000000E-01      2.256543000000000E+01      2.383194000000000E-01      1.601953000000000E+02
4921000000.000000      4.143982000000000E-01      2.246973000000000E+01      2.348328000000000E-01      1.601172000000000E+02
4922000000.000000      4.138947000000000E-01      2.227051000000000E+01      2.310867000000000E-01      1.598672000000000E+02
4923000000.000000      4.143372000000000E-01      2.210547000000000E+01      2.269287000000000E-01      1.597031000000000E+02
4924000000.000000      4.140015000000000E-01      2.194434000000000E+01      2.230835000000000E-01      1.592344000000000E+02
4925000000.000000      4.137115000000000E-01      2.183789000000000E+01      2.194977000000000E-01      1.592969000000000E+02
4926000000.000000      4.131775000000000E-01      2.165234000000000E+01      2.158661000000000E-01      1.589062000000000E+02
4927000000.000000      4.130249000000000E-01      2.141016000000000E+01      2.115631000000000E-01      1.587578000000000E+02
4928000000.000000      4.136505000000000E-01      2.121777000000000E+01      2.078629000000000E-01      1.585781000000000E+02
4929000000.000000      4.126892000000000E-01      2.104687000000000E+01      2.034988000000000E-01      1.587969000000000E+02
4930000000.000000      4.123993000000000E-01      2.097656000000000E+01      2.006302000000000E-01      1.585547000000000E+02
4931000000.000000      4.124146000000000E-01      2.074414000000000E+01      1.968536000000000E-01      1.584141000000000E+02
4932000000.000000      4.118805000000000E-01      2.057324000000000E+01      1.924896000000000E-01      1.584844000000000E+02
4933000000.000000      4.128571000000000E-01      2.048633000000000E+01      1.884308000000000E-01      1.587500000000000E+02
4934000000.000000      4.123993000000000E-01      2.010742000000000E+01      1.847687000000000E-01      1.585469000000000E+02
4935000000.000000      4.126892000000000E-01      2.010547000000000E+01      1.813126000000000E-01      1.587812000000000E+02
4936000000.000000      4.112701000000000E-01      1.994824000000000E+01      1.773148000000000E-01      1.587188000000000E+02
4937000000.000000      4.108734000000000E-01      1.973633000000000E+01      1.729431000000000E-01      1.589687000000000E+02
4938000000.000000      4.106598000000000E-01      1.977637000000000E+01      1.694260000000000E-01      1.594141000000000E+02
4939000000.000000      4.101563000000000E-01      1.951367000000000E+01      1.653442000000000E-01      1.595937000000000E+02
4940000000.000000      4.107513000000000E-01      1.939453000000000E+01      1.616592000000000E-01      1.598047000000000E+02
4941000000.000000      4.111633000000000E-01      1.922559000000000E+01      1.584702000000000E-01      1.603203000000000E+02
4942000000.000000      4.100189000000000E-01      1.917871000000000E+01      1.543961000000000E-01      1.607422000000000E+02
4943000000.000000      4.095459000000000E-01      1.896191000000000E+01      1.508865000000000E-01      1.612109000000000E+02
4944000000.000000      4.097137000000000E-01      1.870117000000000E+01      1.482620000000000E-01      1.619453000000000E+02
4945000000.000000      4.105682000000000E-01      1.845410000000000E+01      1.441040000000000E-01      1.626562000000000E+02
4946000000.000000      4.096222000000000E-01      1.843457000000000E+01      1.411819000000000E-01      1.633359000000000E+02
4947000000.000000      4.085999000000000E-01      1.817773000000000E+01      1.380844000000000E-01      1.641016000000000E+02
4948000000.000000      4.095154000000000E-01      1.818848000000000E+01      1.346054000000000E-01      1.648516000000000E+02
4949000000.000000      4.086456000000000E-01      1.790820000000000E+01      1.321411000000000E-01      1.662500000000000E+02
4950000000.000000      4.088593000000000E-01      1.793066000000000E+01      1.287842000000000E-01      1.671094000000000E+02
4951000000.000000      4.081421000000000E-01      1.767090000000000E+01      1.263657000000000E-01      1.680625000000000E+02
4952000000.000000      4.075470000000000E-01      1.756250000000000E+01      1.231766000000000E-01      1.692656000000000E+02
4953000000.000000      4.060669000000000E-01      1.723145000000000E+01      1.211739000000000E-01      1.708359000000000E+02
4954000000.000000      4.073486000000000E-01      1.712598000000000E+01      1.188202000000000E-01      1.723281000000000E+02
