! Network Analyzer HP8722D
! Hewlett-Packard
! Data name: Linha & Wilkinson
! Saver's name: Rodrigo Anjos
! Comments: Teste da utilização de aquisição
continua pelo VNA HP8722D
! Time and date: 23/5/2025 14:56
!              Frequency                     S11                                                   S21                                                   S12                                                   S22
# HZ  S  MA R 50
4800000000.000000      2.836151000000000E-01      3.994531000000000E+01      4.859772000000000E-01     -1.293984000000000E+02
4801000000.000000      2.848206000000000E-01      4.023828000000000E+01      4.856567000000000E-01     -1.300078000000000E+02
4802000000.000000      2.856903000000000E-01      4.039258000000000E+01      4.884033000000000E-01     -1.307578000000000E+02
4803000000.000000      2.866821000000000E-01      4.057031000000000E+01      4.920197000000000E-01     -1.314766000000000E+02
4804000000.000000      2.878876000000000E-01      4.085546000000000E+01      4.917908000000000E-01     -1.322344000000000E+02
4805000000.000000      2.899475000000000E-01      4.090625000000000E+01      4.932556000000000E-01     -1.328281000000000E+02
4806000000.000000      2.909088000000000E-01      4.112500000000000E+01      4.952087000000000E-01     -1.335859000000000E+02
4807000000.000000      2.921295000000000E-01      4.135351000000000E+01      4.956512000000000E-01     -1.343672000000000E+02
4808000000.000000      2.930603000000000E-01      4.149414000000000E+01      4.983063000000000E-01     -1.350000000000000E+02
4809000000.000000      2.949677000000000E-01      4.173633000000000E+01      4.987793000000000E-01     -1.359844000000000E+02
4810000000.000000      2.962952000000000E-01      4.188867000000000E+01      5.000000000000000E-01     -1.364687000000000E+02
4811000000.000000      2.981567000000000E-01      4.203906000000000E+01      5.007629000000000E-01     -1.373203000000000E+02
4812000000.000000      3.004303000000000E-01      4.227539000000000E+01      5.031433000000000E-01     -1.380781000000000E+02
4813000000.000000      3.018341000000000E-01      4.225976000000000E+01      5.018921000000000E-01     -1.387578000000000E+02
4814000000.000000      3.028412000000000E-01      4.238477000000000E+01      5.034180000000000E-01     -1.394297000000000E+02
4815000000.000000      3.045654000000000E-01      4.248047000000000E+01      5.044250000000000E-01     -1.402422000000000E+02
4816000000.000000      3.068695000000000E-01      4.257421000000000E+01      5.036621000000000E-01     -1.409765000000000E+02
4817000000.000000      3.080902000000000E-01      4.263085000000000E+01      5.054932000000000E-01     -1.417891000000000E+02
4818000000.000000      3.096619000000000E-01      4.261719000000000E+01      5.043640000000000E-01     -1.423594000000000E+02
4819000000.000000      3.118134000000000E-01      4.273046000000000E+01      5.057678000000000E-01     -1.433438000000000E+02
4820000000.000000      3.128662000000000E-01      4.284765000000000E+01      5.051880000000000E-01     -1.438359000000000E+02
4821000000.000000      3.157349000000000E-01      4.275976000000000E+01      5.064087000000000E-01     -1.448359000000000E+02
4822000000.000000      3.163300000000000E-01      4.278125000000000E+01      5.058594000000000E-01     -1.452891000000000E+02
4823000000.000000      3.189392000000000E-01      4.270898000000000E+01      5.057983000000000E-01     -1.462265000000000E+02
4824000000.000000      3.202820000000000E-01      4.294922000000000E+01      5.056458000000000E-01     -1.468906000000000E+02
4825000000.000000      3.222198000000000E-01      4.266992000000000E+01      5.063477000000000E-01     -1.474688000000000E+02
4826000000.000000      3.242188000000000E-01      4.269921000000000E+01      5.059814000000000E-01     -1.484531000000000E+02
4827000000.000000      3.264008000000000E-01      4.269921000000000E+01      5.050354000000000E-01     -1.488984000000000E+02
4828000000.000000      3.284912000000000E-01      4.261523000000000E+01      5.046387000000000E-01     -1.497813000000000E+02
4829000000.000000      3.296051000000000E-01      4.262109000000000E+01      5.043945000000000E-01     -1.503438000000000E+02
4830000000.000000      3.311005000000000E-01      4.246094000000000E+01      5.046692000000000E-01     -1.513125000000000E+02
4831000000.000000      3.329926000000000E-01      4.245703000000000E+01      5.041809000000000E-01     -1.520313000000000E+02
4832000000.000000      3.352814000000000E-01      4.243164000000000E+01      5.017090000000000E-01     -1.526250000000000E+02
4833000000.000000      3.361816000000000E-01      4.221484000000000E+01      5.016174000000000E-01     -1.532578000000000E+02
4834000000.000000      3.383942000000000E-01      4.214063000000000E+01      5.015259000000000E-01     -1.540547000000000E+02
4835000000.000000      3.404846000000000E-01      4.196485000000000E+01      5.018921000000000E-01     -1.548359000000000E+02
4836000000.000000      3.424988000000000E-01      4.200195000000000E+01      4.989166000000000E-01     -1.556484000000000E+02
4837000000.000000      3.438110000000000E-01      4.187109000000000E+01      4.973450000000000E-01     -1.563828000000000E+02
4838000000.000000      3.444824000000000E-01      4.168359000000000E+01      4.979706000000000E-01     -1.567812000000000E+02
4839000000.000000      3.484650000000000E-01      4.160352000000000E+01      4.964600000000000E-01     -1.576953000000000E+02
4840000000.000000      3.488770000000000E-01      4.135547000000000E+01      4.961243000000000E-01     -1.583203000000000E+02
4841000000.000000      3.507843000000000E-01      4.133985000000000E+01      4.953613000000000E-01     -1.589062000000000E+02
4842000000.000000      3.518829000000000E-01      4.114648000000000E+01      4.940033000000000E-01     -1.597734000000000E+02
4843000000.000000      3.549194000000000E-01      4.082812000000000E+01      4.919586000000000E-01     -1.606328000000000E+02
4844000000.000000      3.556671000000000E-01      4.054883000000000E+01      4.902802000000000E-01     -1.611875000000000E+02
4845000000.000000      3.571930000000000E-01      4.058594000000000E+01      4.888611000000000E-01     -1.618359000000000E+02
4846000000.000000      3.591156000000000E-01      4.025391000000000E+01      4.866333000000000E-01     -1.627500000000000E+02
4847000000.000000      3.599548000000000E-01      4.022265000000000E+01      4.851837000000000E-01     -1.633203000000000E+02
4848000000.000000      3.613434000000000E-01      3.989062000000000E+01      4.827271000000000E-01     -1.642656000000000E+02
4849000000.000000      3.625183000000000E-01      3.962891000000000E+01      4.817963000000000E-01     -1.648281000000000E+02
4850000000.000000      3.636627000000000E-01      3.937891000000000E+01      4.801025000000000E-01     -1.654219000000000E+02
4851000000.000000      3.657684000000000E-01      3.938086000000000E+01      4.798737000000000E-01     -1.661875000000000E+02
4852000000.000000      3.671722000000000E-01      3.906836000000000E+01      4.778290000000000E-01     -1.667969000000000E+02
4853000000.000000      3.687592000000000E-01      3.887890000000000E+01      4.723816000000000E-01     -1.675781000000000E+02
4854000000.000000      3.698120000000000E-01      3.851367000000000E+01      4.709015000000000E-01     -1.682500000000000E+02
4855000000.000000      3.710938000000000E-01      3.836719000000000E+01      4.688721000000000E-01     -1.689531000000000E+02
4856000000.000000      3.718719000000000E-01      3.817578000000000E+01      4.670258000000000E-01     -1.697187000000000E+02
4857000000.000000      3.738251000000000E-01      3.798242000000000E+01      4.672699000000000E-01     -1.701562000000000E+02
4858000000.000000      3.740540000000000E-01      3.759961000000000E+01      4.632416000000000E-01     -1.709531000000000E+02
4859000000.000000      3.754578000000000E-01      3.728906000000000E+01      4.611206000000000E-01     -1.718047000000000E+02
4860000000.000000      3.767548000000000E-01      3.720312000000000E+01      4.575195000000000E-01     -1.723359000000000E+02
4861000000.000000      3.772888000000000E-01      3.687500000000000E+01      4.541626000000000E-01     -1.734141000000000E+02
4862000000.000000      3.782654000000000E-01      3.663086000000000E+01      4.540710000000000E-01     -1.737109000000000E+02
4863000000.000000      3.793945000000000E-01      3.641797000000000E+01      4.493256000000000E-01     -1.745000000000000E+02
4864000000.000000      3.808441000000000E-01      3.615429000000000E+01      4.476776000000000E-01     -1.751406000000000E+02
4865000000.000000      3.810577000000000E-01      3.588672000000000E+01      4.438629000000000E-01     -1.756094000000000E+02
4866000000.000000      3.821259000000000E-01      3.557031000000000E+01      4.400787000000000E-01     -1.765234000000000E+02
4867000000.000000      3.821106000000000E-01      3.533984000000000E+01      4.371796000000000E-01     -1.772344000000000E+02
4868000000.000000      3.831940000000000E-01      3.505273000000000E+01      4.336700000000000E-01     -1.777891000000000E+02
4869000000.000000      3.840485000000000E-01      3.478516000000000E+01      4.320984000000000E-01     -1.784609000000000E+02
4870000000.000000      3.849030000000000E-01      3.452539000000000E+01      4.293518000000000E-01     -1.789063000000000E+02
4871000000.000000      3.848724000000000E-01      3.412695000000000E+01      4.251862000000000E-01     -1.797422000000000E+02
4872000000.000000      3.860474000000000E-01      3.401367000000000E+01      4.205475000000000E-01      1.797344000000000E+02
4873000000.000000      3.870239000000000E-01      3.381836000000000E+01      4.186554000000000E-01      1.791875000000000E+02
4874000000.000000      3.866425000000000E-01      3.355664000000000E+01      4.149933000000000E-01      1.785000000000000E+02
4875000000.000000      3.870697000000000E-01      3.318554000000000E+01      4.111023000000000E-01      1.778750000000000E+02
4876000000.000000      3.878326000000000E-01      3.309179000000000E+01      4.077606000000000E-01      1.773672000000000E+02
4877000000.000000      3.889923000000000E-01      3.257031000000000E+01      4.044952000000000E-01      1.766484000000000E+02
4878000000.000000      3.887329000000000E-01      3.235742000000000E+01      4.015656000000000E-01      1.760625000000000E+02
4879000000.000000      3.887177000000000E-01      3.217968000000000E+01      3.980408000000000E-01      1.757891000000000E+02
4880000000.000000      3.903198000000000E-01      3.186816000000000E+01      3.947296000000000E-01      1.750781000000000E+02
4881000000.000000      3.903351000000000E-01      3.158203000000000E+01      3.911591000000000E-01      1.747031000000000E+02
4882000000.000000      3.909607000000000E-01      3.139062000000000E+01      3.887634000000000E-01      1.740234000000000E+02
4883000000.000000      3.905792000000000E-01      3.098535000000000E+01      3.829346000000000E-01      1.733438000000000E+02
4884000000.000000      3.907013000000000E-01      3.092090000000000E+01      3.803558000000000E-01      1.730469000000000E+02
4885000000.000000      3.920135000000000E-01      3.059961000000000E+01      3.765411000000000E-01      1.727031000000000E+02
4886000000.000000      3.914032000000000E-01      3.035058000000000E+01      3.737335000000000E-01      1.721250000000000E+02
4887000000.000000      3.912354000000000E-01      3.007715000000000E+01      3.709106000000000E-01      1.717891000000000E+02
4888000000.000000      3.907928000000000E-01      2.980957000000000E+01      3.671570000000000E-01      1.708906000000000E+02
4889000000.000000      3.910828000000000E-01      2.957910000000000E+01      3.620148000000000E-01      1.707891000000000E+02
4890000000.000000      3.914795000000000E-01      2.929004000000000E+01      3.579712000000000E-01      1.700078000000000E+02
4891000000.000000      3.913574000000000E-01      2.911035000000000E+01      3.549042000000000E-01      1.695000000000000E+02
4892000000.000000      3.913727000000000E-01      2.894043000000000E+01      3.519287000000000E-01      1.695313000000000E+02
4893000000.000000      3.913269000000000E-01      2.864941000000000E+01      3.490601000000000E-01      1.684531000000000E+02
4894000000.000000      3.909607000000000E-01      2.854101000000000E+01      3.444672000000000E-01      1.684219000000000E+02
4895000000.000000      3.919830000000000E-01      2.808300000000000E+01      3.423767000000000E-01      1.678828000000000E+02
4896000000.000000      3.915863000000000E-01      2.783594000000000E+01      3.386688000000000E-01      1.674531000000000E+02
4897000000.000000      3.903198000000000E-01      2.772754000000000E+01      3.331604000000000E-01      1.671250000000000E+02
4898000000.000000      3.906097000000000E-01      2.752344000000000E+01      3.324127000000000E-01      1.668203000000000E+02
4899000000.000000      3.907471000000000E-01      2.729687000000000E+01      3.274078000000000E-01      1.661562000000000E+02
4900000000.000000      3.901978000000000E-01      2.695410000000000E+01      3.243256000000000E-01      1.657812000000000E+02
4901000000.000000      3.898773000000000E-01      2.678125000000000E+01      3.203735000000000E-01      1.654922000000000E+02
4902000000.000000      3.907318000000000E-01      2.639257000000000E+01      3.181610000000000E-01      1.649844000000000E+02
4903000000.000000      3.900757000000000E-01      2.630664000000000E+01      3.133545000000000E-01      1.645859000000000E+02
4904000000.000000      3.900909000000000E-01      2.610058000000000E+01      3.103790000000000E-01      1.641797000000000E+02
4905000000.000000      3.894043000000000E-01      2.595605000000000E+01      3.071442000000000E-01      1.637500000000000E+02
4906000000.000000      3.893280000000000E-01      2.578711000000000E+01      3.036804000000000E-01      1.636016000000000E+02
4907000000.000000      3.895111000000000E-01      2.548925000000000E+01      3.004608000000000E-01      1.631016000000000E+02
4908000000.000000      3.890991000000000E-01      2.514160000000000E+01      2.975311000000000E-01      1.625000000000000E+02
4909000000.000000      3.874512000000000E-01      2.518945000000000E+01      2.931824000000000E-01      1.622266000000000E+02
4910000000.000000      3.884430000000000E-01      2.493750000000000E+01      2.897644000000000E-01      1.618672000000000E+02
4911000000.000000      3.888397000000000E-01      2.478516000000000E+01      2.863770000000000E-01      1.615781000000000E+02
4912000000.000000      3.877411000000000E-01      2.461621000000000E+01      2.828217000000000E-01      1.611172000000000E+02
4913000000.000000      3.879852000000000E-01      2.434375000000000E+01      2.792816000000000E-01      1.605781000000000E+02
4914000000.000000      3.888397000000000E-01      2.412304000000000E+01      2.755890000000000E-01      1.605781000000000E+02
4915000000.000000      3.869019000000000E-01      2.403320000000000E+01      2.713776000000000E-01      1.599922000000000E+02
4916000000.000000      3.872681000000000E-01      2.380176000000000E+01      2.677155000000000E-01      1.595391000000000E+02
4917000000.000000      3.860474000000000E-01      2.359082000000000E+01      2.641754000000000E-01      1.593437000000000E+02
4918000000.000000      3.864746000000000E-01      2.347851000000000E+01      2.599182000000000E-01      1.590469000000000E+02
4919000000.000000      3.862305000000000E-01      2.321875000000000E+01      2.572021000000000E-01      1.589141000000000E+02
4920000000.000000      3.857117000000000E-01      2.307519000000000E+01      2.528381000000000E-01      1.582891000000000E+02
4921000000.000000      3.851166000000000E-01      2.292480000000000E+01      2.494354000000000E-01      1.581640000000000E+02
4922000000.000000      3.852844000000000E-01      2.271777000000000E+01      2.450714000000000E-01      1.579609000000000E+02
4923000000.000000      3.845062000000000E-01      2.266113000000000E+01      2.414932000000000E-01      1.575859000000000E+02
4924000000.000000      3.848267000000000E-01      2.239648000000000E+01      2.370682000000000E-01      1.572656000000000E+02
4925000000.000000      3.849945000000000E-01      2.217090000000000E+01      2.337112000000000E-01      1.571406000000000E+02
4926000000.000000      3.839417000000000E-01      2.204883000000000E+01      2.296906000000000E-01      1.569375000000000E+02
4927000000.000000      3.834686000000000E-01      2.171679000000000E+01      2.254181000000000E-01      1.568125000000000E+02
4928000000.000000      3.838806000000000E-01      2.152148000000000E+01      2.217102000000000E-01      1.565078000000000E+02
4929000000.000000      3.829498000000000E-01      2.139160000000000E+01      2.170792000000000E-01      1.564219000000000E+02
4930000000.000000      3.828888000000000E-01      2.133105000000000E+01      2.135391000000000E-01      1.563984000000000E+02
4931000000.000000      3.830109000000000E-01      2.103808000000000E+01      2.099838000000000E-01      1.563125000000000E+02
4932000000.000000      3.825531000000000E-01      2.092285000000000E+01      2.054367000000000E-01      1.561250000000000E+02
4933000000.000000      3.824615000000000E-01      2.070899000000000E+01      2.002792000000000E-01      1.563516000000000E+02
4934000000.000000      3.826904000000000E-01      2.048633000000000E+01      1.967468000000000E-01      1.561094000000000E+02
4935000000.000000      3.831787000000000E-01      2.032715000000000E+01      1.933441000000000E-01      1.563750000000000E+02
4936000000.000000      3.809509000000000E-01      2.015137000000000E+01      1.888733000000000E-01      1.563594000000000E+02
4937000000.000000      3.820190000000000E-01      1.996191000000000E+01      1.846313000000000E-01      1.563906000000000E+02
4938000000.000000      3.806610000000000E-01      1.999707000000000E+01      1.810303000000000E-01      1.567031000000000E+02
4939000000.000000      3.800354000000000E-01      1.992285000000000E+01      1.775589000000000E-01      1.569766000000000E+02
4940000000.000000      3.806305000000000E-01      1.951660000000000E+01      1.725540000000000E-01      1.570625000000000E+02
4941000000.000000      3.808899000000000E-01      1.925488000000000E+01      1.689224000000000E-01      1.575938000000000E+02
4942000000.000000      3.800049000000000E-01      1.920801000000000E+01      1.646500000000000E-01      1.578906000000000E+02
4943000000.000000      3.804169000000000E-01      1.913086000000000E+01      1.617432000000000E-01      1.582656000000000E+02
4944000000.000000      3.795624000000000E-01      1.889355000000000E+01      1.576614000000000E-01      1.588359000000000E+02
4945000000.000000      3.789215000000000E-01      1.862012000000000E+01      1.540070000000000E-01      1.593750000000000E+02
4946000000.000000      3.785706000000000E-01      1.859277000000000E+01      1.507263000000000E-01      1.601094000000000E+02
4947000000.000000      3.778687000000000E-01      1.831055000000000E+01      1.469269000000000E-01      1.608281000000000E+02
4948000000.000000      3.772583000000000E-01      1.817676000000000E+01      1.437225000000000E-01      1.615078000000000E+02
4949000000.000000      3.772583000000000E-01      1.806641000000000E+01      1.403961000000000E-01      1.628359000000000E+02
4950000000.000000      3.774872000000000E-01      1.801855000000000E+01      1.375046000000000E-01      1.635859000000000E+02
4951000000.000000      3.765869000000000E-01      1.761230000000000E+01      1.343918000000000E-01      1.645469000000000E+02
4952000000.000000      3.767548000000000E-01      1.749414000000000E+01      1.310730000000000E-01      1.654766000000000E+02
4953000000.000000      3.760223000000000E-01      1.731152000000000E+01      1.288528000000000E-01      1.669765000000000E+02
4954000000.000000      3.758850000000000E-01      1.716309000000000E+01      1.261368000000000E-01      1.683594000000000E+02
