! Network Analyzer HP8722D
! Hewlett-Packard
! Data name: Linha & Wilkinson
! Saver's name: Rodrigo Anjos
! Comments: Teste da utilização de aquisição
continua pelo VNA HP8722D
! Time and date: 23/5/2025 15:59
!              Frequency                     S11                                                   S21                                                   S12                                                   S22
# HZ  S  MA R 50
4800000000.000000      2.791595000000000E-01      4.059766000000000E+01      4.895325000000000E-01     -1.300234000000000E+02
4801000000.000000      2.802887000000000E-01      4.080664000000000E+01      4.905701000000000E-01     -1.306875000000000E+02
4802000000.000000      2.816925000000000E-01      4.099414000000000E+01      4.914093000000000E-01     -1.313359000000000E+02
4803000000.000000      2.824402000000000E-01      4.117969000000000E+01      4.945984000000000E-01     -1.320000000000000E+02
4804000000.000000      2.840729000000000E-01      4.149804000000000E+01      4.948883000000000E-01     -1.328516000000000E+02
4805000000.000000      2.860870000000000E-01      4.156446000000000E+01      4.965973000000000E-01     -1.334844000000000E+02
4806000000.000000      2.867432000000000E-01      4.168164000000000E+01      4.965820000000000E-01     -1.341406000000000E+02
4807000000.000000      2.878723000000000E-01      4.198242000000000E+01      4.990082000000000E-01     -1.349375000000000E+02
4808000000.000000      2.893372000000000E-01      4.211523000000000E+01      5.015564000000000E-01     -1.356094000000000E+02
4809000000.000000      2.908783000000000E-01      4.237890000000000E+01      5.024414000000000E-01     -1.363672000000000E+02
4810000000.000000      2.924957000000000E-01      4.248632000000000E+01      5.039673000000000E-01     -1.370781000000000E+02
4811000000.000000      2.944641000000000E-01      4.258398000000000E+01      5.052490000000000E-01     -1.378984000000000E+02
4812000000.000000      2.966461000000000E-01      4.278516000000000E+01      5.053711000000000E-01     -1.387969000000000E+02
4813000000.000000      2.974091000000000E-01      4.285352000000000E+01      5.057983000000000E-01     -1.394922000000000E+02
4814000000.000000      2.990570000000000E-01      4.292578000000000E+01      5.062866000000000E-01     -1.400156000000000E+02
4815000000.000000      3.006744000000000E-01      4.303711000000000E+01      5.064697000000000E-01     -1.408047000000000E+02
4816000000.000000      3.033142000000000E-01      4.316015000000000E+01      5.088806000000000E-01     -1.414297000000000E+02
4817000000.000000      3.045349000000000E-01      4.321289000000000E+01      5.081177000000000E-01     -1.424453000000000E+02
4818000000.000000      3.065338000000000E-01      4.319921000000000E+01      5.090027000000000E-01     -1.429766000000000E+02
4819000000.000000      3.083038000000000E-01      4.320898000000000E+01      5.080261000000000E-01     -1.437813000000000E+02
4820000000.000000      3.090363000000000E-01      4.332031000000000E+01      5.091553000000000E-01     -1.444453000000000E+02
4821000000.000000      3.119049000000000E-01      4.328321000000000E+01      5.096436000000000E-01     -1.453359000000000E+02
4822000000.000000      3.130188000000000E-01      4.330664000000000E+01      5.078735000000000E-01     -1.460391000000000E+02
4823000000.000000      3.151398000000000E-01      4.325976000000000E+01      5.099182000000000E-01     -1.467734000000000E+02
4824000000.000000      3.172150000000000E-01      4.333593000000000E+01      5.087585000000000E-01     -1.474922000000000E+02
4825000000.000000      3.188934000000000E-01      4.317578000000000E+01      5.076599000000000E-01     -1.482344000000000E+02
4826000000.000000      3.207550000000000E-01      4.309960000000000E+01      5.082703000000000E-01     -1.490391000000000E+02
4827000000.000000      3.230591000000000E-01      4.315625000000000E+01      5.078125000000000E-01     -1.496328000000000E+02
4828000000.000000      3.249664000000000E-01      4.315039000000000E+01      5.072327000000000E-01     -1.503828000000000E+02
4829000000.000000      3.267975000000000E-01      4.312500000000000E+01      5.087280000000000E-01     -1.509922000000000E+02
4830000000.000000      3.284454000000000E-01      4.286914000000000E+01      5.057373000000000E-01     -1.518125000000000E+02
4831000000.000000      3.298340000000000E-01      4.289453000000000E+01      5.061340000000000E-01     -1.525547000000000E+02
4832000000.000000      3.316498000000000E-01      4.283593000000000E+01      5.055847000000000E-01     -1.531875000000000E+02
4833000000.000000      3.327942000000000E-01      4.260938000000000E+01      5.050964000000000E-01     -1.537656000000000E+02
4834000000.000000      3.347321000000000E-01      4.250781000000000E+01      5.027771000000000E-01     -1.546562000000000E+02
4835000000.000000      3.375702000000000E-01      4.238477000000000E+01      5.040894000000000E-01     -1.554922000000000E+02
4836000000.000000      3.395233000000000E-01      4.239062000000000E+01      5.027771000000000E-01     -1.560313000000000E+02
4837000000.000000      3.406067000000000E-01      4.222461000000000E+01      5.002747000000000E-01     -1.571484000000000E+02
4838000000.000000      3.421021000000000E-01      4.202538000000000E+01      5.004578000000000E-01     -1.574297000000000E+02
4839000000.000000      3.458252000000000E-01      4.183594000000000E+01      4.987640000000000E-01     -1.582109000000000E+02
4840000000.000000      3.463135000000000E-01      4.160156000000000E+01      4.966736000000000E-01     -1.589219000000000E+02
4841000000.000000      3.477783000000000E-01      4.160546000000000E+01      4.963837000000000E-01     -1.598438000000000E+02
4842000000.000000      3.495026000000000E-01      4.133985000000000E+01      4.955139000000000E-01     -1.603281000000000E+02
4843000000.000000      3.514557000000000E-01      4.104882000000000E+01      4.947815000000000E-01     -1.611562000000000E+02
4844000000.000000      3.526154000000000E-01      4.083593000000000E+01      4.925232000000000E-01     -1.618984000000000E+02
4845000000.000000      3.542633000000000E-01      4.073047000000000E+01      4.910431000000000E-01     -1.625156000000000E+02
4846000000.000000      3.558960000000000E-01      4.064062000000000E+01      4.905090000000000E-01     -1.632578000000000E+02
4847000000.000000      3.572693000000000E-01      4.042578000000000E+01      4.877167000000000E-01     -1.636719000000000E+02
4848000000.000000      3.580627000000000E-01      4.015234000000000E+01      4.853973000000000E-01     -1.645234000000000E+02
4849000000.000000      3.596344000000000E-01      3.979101000000000E+01      4.835052000000000E-01     -1.654531000000000E+02
4850000000.000000      3.609161000000000E-01      3.968945000000000E+01      4.806213000000000E-01     -1.660156000000000E+02
4851000000.000000      3.624115000000000E-01      3.961914000000000E+01      4.802094000000000E-01     -1.667891000000000E+02
4852000000.000000      3.641052000000000E-01      3.923437000000000E+01      4.782410000000000E-01     -1.673672000000000E+02
4853000000.000000      3.652191000000000E-01      3.905664000000000E+01      4.743042000000000E-01     -1.680781000000000E+02
4854000000.000000      3.661194000000000E-01      3.879492000000000E+01      4.731598000000000E-01     -1.690000000000000E+02
4855000000.000000      3.668823000000000E-01      3.861133000000000E+01      4.714355000000000E-01     -1.695156000000000E+02
4856000000.000000      3.688049000000000E-01      3.833984000000000E+01      4.679565000000000E-01     -1.702188000000000E+02
4857000000.000000      3.699188000000000E-01      3.807617000000000E+01      4.677582000000000E-01     -1.708594000000000E+02
4858000000.000000      3.710327000000000E-01      3.782812000000000E+01      4.634399000000000E-01     -1.716016000000000E+02
4859000000.000000      3.720398000000000E-01      3.752930000000000E+01      4.609985000000000E-01     -1.723828000000000E+02
4860000000.000000      3.728333000000000E-01      3.741992000000000E+01      4.588623000000000E-01     -1.727109000000000E+02
4861000000.000000      3.737488000000000E-01      3.702343000000000E+01      4.557190000000000E-01     -1.737031000000000E+02
4862000000.000000      3.742371000000000E-01      3.673242000000000E+01      4.541931000000000E-01     -1.742969000000000E+02
4863000000.000000      3.756561000000000E-01      3.659375000000000E+01      4.490051000000000E-01     -1.750391000000000E+02
4864000000.000000      3.770752000000000E-01      3.625195000000000E+01      4.472504000000000E-01     -1.756641000000000E+02
4865000000.000000      3.776703000000000E-01      3.590429000000000E+01      4.456329000000000E-01     -1.762266000000000E+02
4866000000.000000      3.778839000000000E-01      3.562695000000000E+01      4.420013000000000E-01     -1.770234000000000E+02
4867000000.000000      3.785095000000000E-01      3.542578000000000E+01      4.385376000000000E-01     -1.779063000000000E+02
4868000000.000000      3.802032000000000E-01      3.519531000000000E+01      4.347687000000000E-01     -1.782422000000000E+02
4869000000.000000      3.794708000000000E-01      3.487695000000000E+01      4.319458000000000E-01     -1.790000000000000E+02
4870000000.000000      3.813019000000000E-01      3.470312000000000E+01      4.299622000000000E-01     -1.795469000000000E+02
4871000000.000000      3.806305000000000E-01      3.418945000000000E+01      4.269714000000000E-01      1.797578000000000E+02
4872000000.000000      3.821411000000000E-01      3.406641000000000E+01      4.212189000000000E-01      1.794609000000000E+02
4873000000.000000      3.824463000000000E-01      3.385547000000000E+01      4.188690000000000E-01      1.786250000000000E+02
4874000000.000000      3.827362000000000E-01      3.359961000000000E+01      4.156189000000000E-01      1.779609000000000E+02
4875000000.000000      3.834839000000000E-01      3.313281000000000E+01      4.116516000000000E-01      1.773125000000000E+02
4876000000.000000      3.849792000000000E-01      3.308398000000000E+01      4.080811000000000E-01      1.768828000000000E+02
4877000000.000000      3.852081000000000E-01      3.256640000000000E+01      4.050293000000000E-01      1.761484000000000E+02
4878000000.000000      3.842468000000000E-01      3.249609000000000E+01      4.028320000000000E-01      1.758047000000000E+02
4879000000.000000      3.857727000000000E-01      3.209570000000000E+01      3.975372000000000E-01      1.753203000000000E+02
4880000000.000000      3.863678000000000E-01      3.183789000000000E+01      3.943176000000000E-01      1.746875000000000E+02
4881000000.000000      3.861542000000000E-01      3.163281000000000E+01      3.925934000000000E-01      1.743438000000000E+02
4882000000.000000      3.863068000000000E-01      3.163476000000000E+01      3.877563000000000E-01      1.736250000000000E+02
4883000000.000000      3.865051000000000E-01      3.108789000000000E+01      3.838196000000000E-01      1.729844000000000E+02
4884000000.000000      3.867493000000000E-01      3.087695000000000E+01      3.814087000000000E-01      1.726328000000000E+02
4885000000.000000      3.869629000000000E-01      3.069433000000000E+01      3.767853000000000E-01      1.720469000000000E+02
4886000000.000000      3.871765000000000E-01      3.039160000000000E+01      3.745270000000000E-01      1.714687000000000E+02
4887000000.000000      3.871460000000000E-01      3.016699000000000E+01      3.700714000000000E-01      1.711641000000000E+02
4888000000.000000      3.868103000000000E-01      2.989160000000000E+01      3.669739000000000E-01      1.706563000000000E+02
4889000000.000000      3.868561000000000E-01      2.964160000000000E+01      3.630981000000000E-01      1.701719000000000E+02
4890000000.000000      3.861694000000000E-01      2.931543000000000E+01      3.591003000000000E-01      1.693438000000000E+02
4891000000.000000      3.867188000000000E-01      2.928125000000000E+01      3.555298000000000E-01      1.691406000000000E+02
4892000000.000000      3.865967000000000E-01      2.885937000000000E+01      3.531952000000000E-01      1.687891000000000E+02
4893000000.000000      3.873138000000000E-01      2.850781000000000E+01      3.490448000000000E-01      1.682188000000000E+02
4894000000.000000      3.864136000000000E-01      2.847754000000000E+01      3.433075000000000E-01      1.678672000000000E+02
4895000000.000000      3.876648000000000E-01      2.811718000000000E+01      3.411407000000000E-01      1.675313000000000E+02
4896000000.000000      3.868408000000000E-01      2.793750000000000E+01      3.374176000000000E-01      1.669453000000000E+02
4897000000.000000      3.860931000000000E-01      2.769726000000000E+01      3.327637000000000E-01      1.666406000000000E+02
4898000000.000000      3.853302000000000E-01      2.749121000000000E+01      3.307953000000000E-01      1.664766000000000E+02
4899000000.000000      3.863068000000000E-01      2.726758000000000E+01      3.278046000000000E-01      1.656563000000000E+02
4900000000.000000      3.855133000000000E-01      2.694043000000000E+01      3.244476000000000E-01      1.652891000000000E+02
4901000000.000000      3.849487000000000E-01      2.681543000000000E+01      3.213043000000000E-01      1.650000000000000E+02
4902000000.000000      3.864441000000000E-01      2.656836000000000E+01      3.182678000000000E-01      1.647891000000000E+02
4903000000.000000      3.860016000000000E-01      2.641797000000000E+01      3.137512000000000E-01      1.643437000000000E+02
4904000000.000000      3.854370000000000E-01      2.613476000000000E+01      3.105927000000000E-01      1.637344000000000E+02
4905000000.000000      3.851166000000000E-01      2.592187000000000E+01      3.076019000000000E-01      1.633672000000000E+02
4906000000.000000      3.845520000000000E-01      2.576074000000000E+01      3.037720000000000E-01      1.632656000000000E+02
4907000000.000000      3.843842000000000E-01      2.548535000000000E+01      3.008728000000000E-01      1.626250000000000E+02
4908000000.000000      3.846741000000000E-01      2.525879000000000E+01      2.975616000000000E-01      1.621328000000000E+02
4909000000.000000      3.838348000000000E-01      2.500195000000000E+01      2.930450000000000E-01      1.618906000000000E+02
4910000000.000000      3.834229000000000E-01      2.479297000000000E+01      2.899323000000000E-01      1.615703000000000E+02
4911000000.000000      3.834229000000000E-01      2.475195000000000E+01      2.864380000000000E-01      1.612578000000000E+02
4912000000.000000      3.830566000000000E-01      2.449804000000000E+01      2.825012000000000E-01      1.606641000000000E+02
4913000000.000000      3.834381000000000E-01      2.425976000000000E+01      2.789001000000000E-01      1.603672000000000E+02
4914000000.000000      3.832245000000000E-01      2.415430000000000E+01      2.754669000000000E-01      1.601250000000000E+02
4915000000.000000      3.819275000000000E-01      2.396582000000000E+01      2.717896000000000E-01      1.596016000000000E+02
4916000000.000000      3.822327000000000E-01      2.361621000000000E+01      2.681885000000000E-01      1.593047000000000E+02
4917000000.000000      3.820343000000000E-01      2.359375000000000E+01      2.639313000000000E-01      1.591484000000000E+02
4918000000.000000      3.817596000000000E-01      2.345215000000000E+01      2.602234000000000E-01      1.587422000000000E+02
4919000000.000000      3.807983000000000E-01      2.322461000000000E+01      2.567596000000000E-01      1.585938000000000E+02
4920000000.000000      3.816528000000000E-01      2.302148000000000E+01      2.529297000000000E-01      1.580156000000000E+02
4921000000.000000      3.805847000000000E-01      2.292969000000000E+01      2.491837000000000E-01      1.578438000000000E+02
4922000000.000000      3.800049000000000E-01      2.260156000000000E+01      2.450867000000000E-01      1.576719000000000E+02
4923000000.000000      3.796692000000000E-01      2.260840000000000E+01      2.410278000000000E-01      1.575000000000000E+02
4924000000.000000      3.791199000000000E-01      2.224414000000000E+01      2.364578000000000E-01      1.570234000000000E+02
4925000000.000000      3.790283000000000E-01      2.206055000000000E+01      2.324905000000000E-01      1.570000000000000E+02
4926000000.000000      3.797455000000000E-01      2.195703000000000E+01      2.296677000000000E-01      1.567109000000000E+02
4927000000.000000      3.786011000000000E-01      2.171973000000000E+01      2.249603000000000E-01      1.564922000000000E+02
4928000000.000000      3.796387000000000E-01      2.153125000000000E+01      2.218781000000000E-01      1.563125000000000E+02
4929000000.000000      3.781433000000000E-01      2.141308000000000E+01      2.166214000000000E-01      1.563359000000000E+02
4930000000.000000      3.785095000000000E-01      2.109473000000000E+01      2.124939000000000E-01      1.561172000000000E+02
4931000000.000000      3.770752000000000E-01      2.092285000000000E+01      2.092361000000000E-01      1.560313000000000E+02
4932000000.000000      3.771362000000000E-01      2.096680000000000E+01      2.052002000000000E-01      1.560234000000000E+02
4933000000.000000      3.776703000000000E-01      2.062207000000000E+01      2.003479000000000E-01      1.562344000000000E+02
4934000000.000000      3.771820000000000E-01      2.052734000000000E+01      1.962967000000000E-01      1.560156000000000E+02
4935000000.000000      3.776093000000000E-01      2.034668000000000E+01      1.927261000000000E-01      1.562734000000000E+02
4936000000.000000      3.763275000000000E-01      2.012793000000000E+01      1.885300000000000E-01      1.561797000000000E+02
4937000000.000000      3.770294000000000E-01      1.993262000000000E+01      1.844635000000000E-01      1.563047000000000E+02
4938000000.000000      3.760681000000000E-01      1.987793000000000E+01      1.808548000000000E-01      1.567109000000000E+02
4939000000.000000      3.754883000000000E-01      1.971289000000000E+01      1.765442000000000E-01      1.568203000000000E+02
4940000000.000000      3.763580000000000E-01      1.952929000000000E+01      1.724854000000000E-01      1.569766000000000E+02
4941000000.000000      3.750610000000000E-01      1.929297000000000E+01      1.687317000000000E-01      1.575781000000000E+02
4942000000.000000      3.743439000000000E-01      1.918262000000000E+01      1.650925000000000E-01      1.579687000000000E+02
4943000000.000000      3.750153000000000E-01      1.899805000000000E+01      1.612854000000000E-01      1.584297000000000E+02
4944000000.000000      3.736420000000000E-01      1.871191000000000E+01      1.576157000000000E-01      1.589219000000000E+02
4945000000.000000      3.743134000000000E-01      1.851172000000000E+01      1.537781000000000E-01      1.596797000000000E+02
4946000000.000000      3.738403000000000E-01      1.838672000000000E+01      1.500778000000000E-01      1.602813000000000E+02
4947000000.000000      3.738098000000000E-01      1.812793000000000E+01      1.465225000000000E-01      1.610000000000000E+02
4948000000.000000      3.742676000000000E-01      1.820801000000000E+01      1.430893000000000E-01      1.618750000000000E+02
4949000000.000000      3.719940000000000E-01      1.795019000000000E+01      1.403885000000000E-01      1.629297000000000E+02
4950000000.000000      3.721313000000000E-01      1.779004000000000E+01      1.366425000000000E-01      1.638594000000000E+02
4951000000.000000      3.730011000000000E-01      1.753613000000000E+01      1.337967000000000E-01      1.647891000000000E+02
4952000000.000000      3.712769000000000E-01      1.733008000000000E+01      1.311951000000000E-01      1.659844000000000E+02
4953000000.000000      3.720856000000000E-01      1.715723000000000E+01      1.287003000000000E-01      1.673672000000000E+02
4954000000.000000      3.719482000000000E-01      1.700684000000000E+01      1.261597000000000E-01      1.686641000000000E+02
