! Network Analyzer HP8722D
! Hewlett-Packard
! Data name: Linha & Wilkinson
! Saver's name: Rodrigo Anjos
! Comments: Teste da utilização de aquisição
continua pelo VNA HP8722D
! Time and date: 23/5/2025 07:42
!              Frequency                     S11                                                   S21                                                   S12                                                   S22
# HZ  S  MA R 50
4800000000.000000      6.430359000000000E-01      1.067432000000000E+01      4.727631000000000E-01     -9.361328000000000E+01
4801000000.000000      6.409607000000000E-01      1.066748000000000E+01      4.758759000000000E-01     -9.439062000000000E+01
4802000000.000000      6.399231000000000E-01      1.061816000000000E+01      4.759827000000000E-01     -9.520702000000000E+01
4803000000.000000      6.386414000000000E-01      1.065381000000000E+01      4.792175000000000E-01     -9.586718000000000E+01
4804000000.000000      6.359558000000000E-01      1.061816000000000E+01      4.805450000000000E-01     -9.654297000000000E+01
4805000000.000000      6.363525000000000E-01      1.058105000000000E+01      4.828491000000000E-01     -9.741796000000000E+01
4806000000.000000      6.328430000000000E-01      1.064258000000000E+01      4.828644000000000E-01     -9.814842000000000E+01
4807000000.000000      6.313477000000000E-01      1.054395000000000E+01      4.853973000000000E-01     -9.909765000000000E+01
4808000000.000000      6.299744000000000E-01      1.047656000000000E+01      4.867554000000000E-01     -9.964062000000000E+01
4809000000.000000      6.280212000000000E-01      1.070605000000000E+01      4.874268000000000E-01     -1.006875000000000E+02
4810000000.000000      6.287537000000000E-01      1.073486000000000E+01      4.903717000000000E-01     -1.011367000000000E+02
4811000000.000000      6.257629000000000E-01      1.079248000000000E+01      4.910126000000000E-01     -1.020039000000000E+02
4812000000.000000      6.258240000000000E-01      1.093115000000000E+01      4.904022000000000E-01     -1.027695000000000E+02
4813000000.000000      6.240845000000000E-01      1.088867000000000E+01      4.919891000000000E-01     -1.035312000000000E+02
4814000000.000000      6.219788000000000E-01      1.101904000000000E+01      4.942017000000000E-01     -1.041328000000000E+02
4815000000.000000      6.190186000000000E-01      1.112354000000000E+01      4.943237000000000E-01     -1.050859000000000E+02
4816000000.000000      6.205139000000000E-01      1.114941000000000E+01      4.952698000000000E-01     -1.056953000000000E+02
4817000000.000000      6.176453000000000E-01      1.117822000000000E+01      4.940948000000000E-01     -1.065742000000000E+02
4818000000.000000      6.174011000000000E-01      1.117139000000000E+01      4.954834000000000E-01     -1.073242000000000E+02
4819000000.000000      6.156311000000000E-01      1.139551000000000E+01      4.960022000000000E-01     -1.079766000000000E+02
4820000000.000000      6.139526000000000E-01      1.157227000000000E+01      4.971924000000000E-01     -1.086562000000000E+02
4821000000.000000      6.132202000000000E-01      1.165625000000000E+01      4.973602000000000E-01     -1.095742000000000E+02
4822000000.000000      6.116638000000000E-01      1.170313000000000E+01      4.977112000000000E-01     -1.101094000000000E+02
4823000000.000000      6.108704000000000E-01      1.156689000000000E+01      4.974976000000000E-01     -1.110820000000000E+02
4824000000.000000      6.108398000000000E-01      1.177148000000000E+01      4.975281000000000E-01     -1.117461000000000E+02
4825000000.000000      6.094666000000000E-01      1.196240000000000E+01      4.977570000000000E-01     -1.126406000000000E+02
4826000000.000000      6.094055000000000E-01      1.185791000000000E+01      4.986115000000000E-01     -1.135703000000000E+02
4827000000.000000      6.113892000000000E-01      1.223145000000000E+01      4.976349000000000E-01     -1.138515000000000E+02
4828000000.000000      6.097717000000000E-01      1.226758000000000E+01      4.984436000000000E-01     -1.147812000000000E+02
4829000000.000000      6.091614000000000E-01      1.243896000000000E+01      4.995422000000000E-01     -1.155781000000000E+02
4830000000.000000      6.080627000000000E-01      1.247900000000000E+01      4.978180000000000E-01     -1.163398000000000E+02
4831000000.000000      6.083984000000000E-01      1.259277000000000E+01      4.988098000000000E-01     -1.171523000000000E+02
4832000000.000000      6.088562000000000E-01      1.296631000000000E+01      4.986725000000000E-01     -1.179375000000000E+02
4833000000.000000      6.081238000000000E-01      1.277832000000000E+01      4.971008000000000E-01     -1.184883000000000E+02
4834000000.000000      6.076965000000000E-01      1.275488000000000E+01      4.979248000000000E-01     -1.194375000000000E+02
4835000000.000000      6.086731000000000E-01      1.318604000000000E+01      4.980927000000000E-01     -1.202969000000000E+02
4836000000.000000      6.082764000000000E-01      1.314746000000000E+01      4.967346000000000E-01     -1.207305000000000E+02
4837000000.000000      6.087036000000000E-01      1.339063000000000E+01      4.949799000000000E-01     -1.217891000000000E+02
4838000000.000000      6.092224000000000E-01      1.342090000000000E+01      4.964905000000000E-01     -1.222773000000000E+02
4839000000.000000      6.111450000000000E-01      1.364502000000000E+01      4.960480000000000E-01     -1.232383000000000E+02
4840000000.000000      6.090088000000000E-01      1.342529000000000E+01      4.964600000000000E-01     -1.241328000000000E+02
4841000000.000000      6.109924000000000E-01      1.375195000000000E+01      4.946899000000000E-01     -1.250508000000000E+02
4842000000.000000      6.107483000000000E-01      1.382080000000000E+01      4.936371000000000E-01     -1.256680000000000E+02
4843000000.000000      6.145020000000000E-01      1.391553000000000E+01      4.938660000000000E-01     -1.267461000000000E+02
4844000000.000000      6.117554000000000E-01      1.379053000000000E+01      4.915466000000000E-01     -1.275234000000000E+02
4845000000.000000      6.109924000000000E-01      1.420898000000000E+01      4.912415000000000E-01     -1.281641000000000E+02
4846000000.000000      6.148071000000000E-01      1.409668000000000E+01      4.892426000000000E-01     -1.289141000000000E+02
4847000000.000000      6.167297000000000E-01      1.425586000000000E+01      4.886169000000000E-01     -1.296953000000000E+02
4848000000.000000      6.146851000000000E-01      1.444287000000000E+01      4.847717000000000E-01     -1.306172000000000E+02
4849000000.000000      6.153564000000000E-01      1.416797000000000E+01      4.847870000000000E-01     -1.316641000000000E+02
4850000000.000000      6.165161000000000E-01      1.433691000000000E+01      4.825745000000000E-01     -1.323594000000000E+02
4851000000.000000      6.193237000000000E-01      1.451807000000000E+01      4.826660000000000E-01     -1.331016000000000E+02
4852000000.000000      6.187134000000000E-01      1.444531000000000E+01      4.789581000000000E-01     -1.340859000000000E+02
4853000000.000000      6.220703000000000E-01      1.449365000000000E+01      4.772949000000000E-01     -1.348594000000000E+02
4854000000.000000      6.219482000000000E-01      1.466504000000000E+01      4.757233000000000E-01     -1.358125000000000E+02
4855000000.000000      6.222839000000000E-01      1.470508000000000E+01      4.726868000000000E-01     -1.367812000000000E+02
4856000000.000000      6.220398000000000E-01      1.467480000000000E+01      4.691010000000000E-01     -1.374141000000000E+02
4857000000.000000      6.269836000000000E-01      1.464307000000000E+01      4.672546000000000E-01     -1.383437000000000E+02
4858000000.000000      6.252747000000000E-01      1.476416000000000E+01      4.646149000000000E-01     -1.391641000000000E+02
4859000000.000000      6.271667000000000E-01      1.480518000000000E+01      4.627228000000000E-01     -1.399688000000000E+02
4860000000.000000      6.287231000000000E-01      1.474463000000000E+01      4.585419000000000E-01     -1.406641000000000E+02
4861000000.000000      6.287537000000000E-01      1.472168000000000E+01      4.558411000000000E-01     -1.417266000000000E+02
4862000000.000000      6.279602000000000E-01      1.493018000000000E+01      4.522705000000000E-01     -1.423359000000000E+02
4863000000.000000      6.330872000000000E-01      1.470654000000000E+01      4.473114000000000E-01     -1.434453000000000E+02
4864000000.000000      6.331177000000000E-01      1.476660000000000E+01      4.452515000000000E-01     -1.439297000000000E+02
4865000000.000000      6.322632000000000E-01      1.476953000000000E+01      4.413300000000000E-01     -1.447500000000000E+02
4866000000.000000      6.352539000000000E-01      1.474463000000000E+01      4.362183000000000E-01     -1.456875000000000E+02
4867000000.000000      6.347961000000000E-01      1.478760000000000E+01      4.329987000000000E-01     -1.465234000000000E+02
4868000000.000000      6.382446000000000E-01      1.466260000000000E+01      4.291229000000000E-01     -1.472188000000000E+02
4869000000.000000      6.394043000000000E-01      1.459521000000000E+01      4.250336000000000E-01     -1.480547000000000E+02
4870000000.000000      6.414795000000000E-01      1.461426000000000E+01      4.202118000000000E-01     -1.484922000000000E+02
4871000000.000000      6.403809000000000E-01      1.460352000000000E+01      4.164581000000000E-01     -1.492734000000000E+02
4872000000.000000      6.433411000000000E-01      1.451123000000000E+01      4.134064000000000E-01     -1.500234000000000E+02
4873000000.000000      6.442566000000000E-01      1.449902000000000E+01      4.071960000000000E-01     -1.508516000000000E+02
4874000000.000000      6.448059000000000E-01      1.472412000000000E+01      4.025879000000000E-01     -1.514219000000000E+02
4875000000.000000      6.474609000000000E-01      1.436182000000000E+01      3.993378000000000E-01     -1.520703000000000E+02
4876000000.000000      6.466675000000000E-01      1.457715000000000E+01      3.958435000000000E-01     -1.528516000000000E+02
4877000000.000000      6.491699000000000E-01      1.435059000000000E+01      3.907013000000000E-01     -1.533125000000000E+02
4878000000.000000      6.485596000000000E-01      1.418701000000000E+01      3.868713000000000E-01     -1.539687000000000E+02
4879000000.000000      6.527710000000000E-01      1.435352000000000E+01      3.809967000000000E-01     -1.544922000000000E+02
4880000000.000000      6.551514000000000E-01      1.422021000000000E+01      3.781891000000000E-01     -1.550859000000000E+02
4881000000.000000      6.548157000000000E-01      1.424512000000000E+01      3.730927000000000E-01     -1.555547000000000E+02
4882000000.000000      6.551514000000000E-01      1.417334000000000E+01      3.695526000000000E-01     -1.562891000000000E+02
4883000000.000000      6.566467000000000E-01      1.400195000000000E+01      3.643799000000000E-01     -1.567812000000000E+02
4884000000.000000      6.580811000000000E-01      1.402783000000000E+01      3.607635000000000E-01     -1.572891000000000E+02
4885000000.000000      6.592712000000000E-01      1.382617000000000E+01      3.568420000000000E-01     -1.576562000000000E+02
4886000000.000000      6.607361000000000E-01      1.384668000000000E+01      3.520813000000000E-01     -1.581563000000000E+02
4887000000.000000      6.607056000000000E-01      1.374658000000000E+01      3.481293000000000E-01     -1.586328000000000E+02
4888000000.000000      6.624756000000000E-01      1.348535000000000E+01      3.434753000000000E-01     -1.593359000000000E+02
4889000000.000000      6.622314000000000E-01      1.361572000000000E+01      3.397064000000000E-01     -1.595547000000000E+02
4890000000.000000      6.637268000000000E-01      1.343604000000000E+01      3.341980000000000E-01     -1.602813000000000E+02
4891000000.000000      6.648560000000000E-01      1.340186000000000E+01      3.316956000000000E-01     -1.606484000000000E+02
4892000000.000000      6.661072000000000E-01      1.331787000000000E+01      3.260040000000000E-01     -1.606797000000000E+02
4893000000.000000      6.662903000000000E-01      1.332227000000000E+01      3.208466000000000E-01     -1.614219000000000E+02
4894000000.000000      6.682129000000000E-01      1.329346000000000E+01      3.179169000000000E-01     -1.616953000000000E+02
4895000000.000000      6.698914000000000E-01      1.293213000000000E+01      3.163300000000000E-01     -1.619531000000000E+02
4896000000.000000      6.702881000000000E-01      1.279590000000000E+01      3.111420000000000E-01     -1.624141000000000E+02
4897000000.000000      6.699829000000000E-01      1.309668000000000E+01      3.077393000000000E-01     -1.627812000000000E+02
4898000000.000000      6.713867000000000E-01      1.273438000000000E+01      3.041687000000000E-01     -1.629688000000000E+02
4899000000.000000      6.730652000000000E-01      1.274414000000000E+01      3.004608000000000E-01     -1.634219000000000E+02
4900000000.000000      6.737061000000000E-01      1.255420000000000E+01      2.958374000000000E-01     -1.637812000000000E+02
4901000000.000000      6.743164000000000E-01      1.251855000000000E+01      2.931213000000000E-01     -1.638828000000000E+02
4902000000.000000      6.744690000000000E-01      1.250342000000000E+01      2.897034000000000E-01     -1.642500000000000E+02
4903000000.000000      6.745300000000000E-01      1.242529000000000E+01      2.849884000000000E-01     -1.647187000000000E+02
4904000000.000000      6.770325000000000E-01      1.206543000000000E+01      2.817688000000000E-01     -1.651406000000000E+02
4905000000.000000      6.776428000000000E-01      1.205029000000000E+01      2.791443000000000E-01     -1.654531000000000E+02
4906000000.000000      6.781006000000000E-01      1.190918000000000E+01      2.750854000000000E-01     -1.655078000000000E+02
4907000000.000000      6.787109000000000E-01      1.196240000000000E+01      2.718201000000000E-01     -1.660078000000000E+02
4908000000.000000      6.798706000000000E-01      1.180713000000000E+01      2.687378000000000E-01     -1.663281000000000E+02
4909000000.000000      6.806030000000000E-01      1.164258000000000E+01      2.651062000000000E-01     -1.665703000000000E+02
4910000000.000000      6.793518000000000E-01      1.173340000000000E+01      2.611389000000000E-01     -1.668984000000000E+02
4911000000.000000      6.807556000000000E-01      1.149414000000000E+01      2.583313000000000E-01     -1.670156000000000E+02
4912000000.000000      6.805420000000000E-01      1.147900000000000E+01      2.546234000000000E-01     -1.676250000000000E+02
4913000000.000000      6.821899000000000E-01      1.126758000000000E+01      2.510834000000000E-01     -1.677187000000000E+02
4914000000.000000      6.810913000000000E-01      1.120703000000000E+01      2.475815000000000E-01     -1.679844000000000E+02
4915000000.000000      6.834106000000000E-01      1.111377000000000E+01      2.435684000000000E-01     -1.684453000000000E+02
4916000000.000000      6.858215000000000E-01      1.090234000000000E+01      2.398148000000000E-01     -1.687578000000000E+02
4917000000.000000      6.839600000000000E-01      1.082275000000000E+01      2.367249000000000E-01     -1.687813000000000E+02
4918000000.000000      6.870728000000000E-01      1.072803000000000E+01      2.325287000000000E-01     -1.692812000000000E+02
4919000000.000000      6.836243000000000E-01      1.073340000000000E+01      2.296371000000000E-01     -1.691172000000000E+02
4920000000.000000      6.864014000000000E-01      1.049463000000000E+01      2.252884000000000E-01     -1.696016000000000E+02
4921000000.000000      6.856079000000000E-01      1.068115000000000E+01      2.229233000000000E-01     -1.696484000000000E+02
4922000000.000000      6.886902000000000E-01      1.039697000000000E+01      2.189255000000000E-01     -1.697813000000000E+02
4923000000.000000      6.861877000000000E-01      1.045605000000000E+01      2.144394000000000E-01     -1.700234000000000E+02
4924000000.000000      6.878052000000000E-01      1.017725000000000E+01      2.111282000000000E-01     -1.702812000000000E+02
4925000000.000000      6.883240000000000E-01      1.005762000000000E+01      2.075119000000000E-01     -1.703516000000000E+02
4926000000.000000      6.883545000000000E-01      9.945313000000000E+00      2.037506000000000E-01     -1.705703000000000E+02
4927000000.000000      6.889038000000000E-01      9.893066000000000E+00      1.997986000000000E-01     -1.705625000000000E+02
4928000000.000000      6.908264000000000E-01      9.930176000000000E+00      1.968536000000000E-01     -1.706797000000000E+02
4929000000.000000      6.880798000000000E-01      9.585449000000000E+00      1.924667000000000E-01     -1.705312000000000E+02
4930000000.000000      6.914978000000000E-01      9.704590000000000E+00      1.890030000000000E-01     -1.705937000000000E+02
4931000000.000000      6.907654000000000E-01      9.480957000000000E+00      1.854095000000000E-01     -1.707734000000000E+02
4932000000.000000      6.922302000000000E-01      9.478027000000000E+00      1.813507000000000E-01     -1.704922000000000E+02
4933000000.000000      6.909180000000000E-01      9.299805000000000E+00      1.771240000000000E-01     -1.704297000000000E+02
4934000000.000000      6.957397000000000E-01      9.166504000000000E+00      1.738815000000000E-01     -1.705078000000000E+02
4935000000.000000      6.939697000000000E-01      9.178711000000000E+00      1.703873000000000E-01     -1.700547000000000E+02
4936000000.000000      6.940308000000000E-01      9.029297000000000E+00      1.663666000000000E-01     -1.698203000000000E+02
4937000000.000000      6.953430000000000E-01      8.811035000000000E+00      1.630707000000000E-01     -1.697266000000000E+02
4938000000.000000      6.914063000000000E-01      8.886230000000000E+00      1.590118000000000E-01     -1.691719000000000E+02
4939000000.000000      6.939392000000000E-01      8.893066000000000E+00      1.556702000000000E-01     -1.688984000000000E+02
4940000000.000000      6.960144000000000E-01      8.542969000000000E+00      1.514511000000000E-01     -1.686094000000000E+02
4941000000.000000      6.964722000000000E-01      8.583984000000000E+00      1.490402000000000E-01     -1.680000000000000E+02
4942000000.000000      6.969910000000000E-01      8.452148000000000E+00      1.453400000000000E-01     -1.675859000000000E+02
4943000000.000000      6.985779000000000E-01      8.392090000000000E+00      1.425095000000000E-01     -1.669609000000000E+02
4944000000.000000      6.958923000000000E-01      8.343750000000000E+00      1.387024000000000E-01     -1.662578000000000E+02
4945000000.000000      6.960754000000000E-01      8.203613000000000E+00      1.354218000000000E-01     -1.656016000000000E+02
4946000000.000000      7.001953000000000E-01      8.086914000000000E+00      1.327209000000000E-01     -1.647344000000000E+02
4947000000.000000      6.989746000000000E-01      8.142090000000000E+00      1.292648000000000E-01     -1.637969000000000E+02
4948000000.000000      7.005005000000000E-01      8.010254000000000E+00      1.268616000000000E-01     -1.627578000000000E+02
4949000000.000000      6.996460000000000E-01      7.831787000000000E+00      1.241188000000000E-01     -1.614297000000000E+02
4950000000.000000      7.009277000000000E-01      7.702637000000000E+00      1.211624000000000E-01     -1.602890000000000E+02
4951000000.000000      7.020874000000000E-01      7.547607000000000E+00      1.190262000000000E-01     -1.593984000000000E+02
4952000000.000000      7.008057000000000E-01      7.546143000000000E+00      1.165581000000000E-01     -1.578516000000000E+02
4953000000.000000      7.014465000000000E-01      7.536621000000000E+00      1.144905000000000E-01     -1.565234000000000E+02
4954000000.000000      7.022095000000000E-01      7.139648000000000E+00      1.125031000000000E-01     -1.550000000000000E+02
