! Network Analyzer HP8722D
! Hewlett-Packard
! Data name: Linha & Wilkinson
! Saver's name: Rodrigo Anjos
! Comments: Teste da utilização de aquisição
continua pelo VNA HP8722D
! Time and date: 23/5/2025 07:57
!              Frequency                     S11                                                   S21                                                   S12                                                   S22
# HZ  S  MA R 50
4800000000.000000      4.918365000000000E-01      2.283203000000000E+01      4.222870000000000E-01     -1.104688000000000E+02
4801000000.000000      4.913330000000000E-01      2.294629000000000E+01      4.240570000000000E-01     -1.110938000000000E+02
4802000000.000000      4.908752000000000E-01      2.290234000000000E+01      4.249115000000000E-01     -1.116328000000000E+02
4803000000.000000      4.884796000000000E-01      2.305566000000000E+01      4.285126000000000E-01     -1.124687000000000E+02
4804000000.000000      4.893646000000000E-01      2.327148000000000E+01      4.272156000000000E-01     -1.133711000000000E+02
4805000000.000000      4.900360000000000E-01      2.324219000000000E+01      4.297791000000000E-01     -1.140195000000000E+02
4806000000.000000      4.900360000000000E-01      2.340625000000000E+01      4.312592000000000E-01     -1.149101000000000E+02
4807000000.000000      4.901123000000000E-01      2.332715000000000E+01      4.308319000000000E-01     -1.156055000000000E+02
4808000000.000000      4.880829000000000E-01      2.361719000000000E+01      4.338531000000000E-01     -1.162305000000000E+02
4809000000.000000      4.895782000000000E-01      2.376660000000000E+01      4.356537000000000E-01     -1.171172000000000E+02
4810000000.000000      4.879303000000000E-01      2.376269000000000E+01      4.352112000000000E-01     -1.177695000000000E+02
4811000000.000000      4.861145000000000E-01      2.380566000000000E+01      4.376373000000000E-01     -1.184844000000000E+02
4812000000.000000      4.890289000000000E-01      2.405371000000000E+01      4.372406000000000E-01     -1.191758000000000E+02
4813000000.000000      4.884491000000000E-01      2.409570000000000E+01      4.377289000000000E-01     -1.200195000000000E+02
4814000000.000000      4.870300000000000E-01      2.415430000000000E+01      4.385834000000000E-01     -1.208008000000000E+02
4815000000.000000      4.878082000000000E-01      2.429394000000000E+01      4.394684000000000E-01     -1.214375000000000E+02
4816000000.000000      4.893951000000000E-01      2.440039000000000E+01      4.408112000000000E-01     -1.224375000000000E+02
4817000000.000000      4.893951000000000E-01      2.463476000000000E+01      4.406281000000000E-01     -1.231758000000000E+02
4818000000.000000      4.874115000000000E-01      2.448535000000000E+01      4.407959000000000E-01     -1.238711000000000E+02
4819000000.000000      4.909515000000000E-01      2.476269000000000E+01      4.406128000000000E-01     -1.245313000000000E+02
4820000000.000000      4.891663000000000E-01      2.477246000000000E+01      4.416199000000000E-01     -1.250391000000000E+02
4821000000.000000      4.899902000000000E-01      2.502344000000000E+01      4.420624000000000E-01     -1.258828000000000E+02
4822000000.000000      4.903564000000000E-01      2.490918000000000E+01      4.403839000000000E-01     -1.267891000000000E+02
4823000000.000000      4.916229000000000E-01      2.488379000000000E+01      4.423523000000000E-01     -1.276289000000000E+02
4824000000.000000      4.919739000000000E-01      2.519824000000000E+01      4.418488000000000E-01     -1.282500000000000E+02
4825000000.000000      4.914551000000000E-01      2.527734000000000E+01      4.413605000000000E-01     -1.288594000000000E+02
4826000000.000000      4.933167000000000E-01      2.518847000000000E+01      4.422607000000000E-01     -1.297500000000000E+02
4827000000.000000      4.951477000000000E-01      2.519824000000000E+01      4.411316000000000E-01     -1.303437000000000E+02
4828000000.000000      4.957733000000000E-01      2.543262000000000E+01      4.418182000000000E-01     -1.311250000000000E+02
4829000000.000000      4.966736000000000E-01      2.554590000000000E+01      4.411163000000000E-01     -1.318047000000000E+02
4830000000.000000      4.971771000000000E-01      2.546484000000000E+01      4.400940000000000E-01     -1.324375000000000E+02
4831000000.000000      4.975891000000000E-01      2.564453000000000E+01      4.409332000000000E-01     -1.333125000000000E+02
4832000000.000000      4.979248000000000E-01      2.590234000000000E+01      4.408722000000000E-01     -1.340156000000000E+02
4833000000.000000      4.976807000000000E-01      2.568164000000000E+01      4.397736000000000E-01     -1.345937000000000E+02
4834000000.000000      4.985199000000000E-01      2.569531000000000E+01      4.394836000000000E-01     -1.353672000000000E+02
4835000000.000000      5.002441000000000E-01      2.571972000000000E+01      4.378052000000000E-01     -1.362734000000000E+02
4836000000.000000      5.025940000000000E-01      2.591894000000000E+01      4.374084000000000E-01     -1.368515000000000E+02
4837000000.000000      5.032654000000000E-01      2.610156000000000E+01      4.361725000000000E-01     -1.379844000000000E+02
4838000000.000000      5.051575000000000E-01      2.578125000000000E+01      4.358826000000000E-01     -1.384063000000000E+02
4839000000.000000      5.086670000000000E-01      2.612500000000000E+01      4.361115000000000E-01     -1.390547000000000E+02
4840000000.000000      5.079956000000000E-01      2.584668000000000E+01      4.353180000000000E-01     -1.398594000000000E+02
4841000000.000000      5.086670000000000E-01      2.591504000000000E+01      4.346313000000000E-01     -1.407187000000000E+02
4842000000.000000      5.091858000000000E-01      2.593554000000000E+01      4.328918000000000E-01     -1.413203000000000E+02
4843000000.000000      5.115356000000000E-01      2.569336000000000E+01      4.336090000000000E-01     -1.421797000000000E+02
4844000000.000000      5.119934000000000E-01      2.581445000000000E+01      4.317322000000000E-01     -1.430000000000000E+02
4845000000.000000      5.140991000000000E-01      2.596386000000000E+01      4.303589000000000E-01     -1.438359000000000E+02
4846000000.000000      5.148315000000000E-01      2.594629000000000E+01      4.288940000000000E-01     -1.443906000000000E+02
4847000000.000000      5.172729000000000E-01      2.589160000000000E+01      4.282684000000000E-01     -1.451172000000000E+02
4848000000.000000      5.180359000000000E-01      2.571875000000000E+01      4.257202000000000E-01     -1.459531000000000E+02
4849000000.000000      5.179749000000000E-01      2.559473000000000E+01      4.249268000000000E-01     -1.465625000000000E+02
4850000000.000000      5.207825000000000E-01      2.562891000000000E+01      4.238739000000000E-01     -1.475078000000000E+02
4851000000.000000      5.221863000000000E-01      2.571875000000000E+01      4.224548000000000E-01     -1.482422000000000E+02
4852000000.000000      5.230103000000000E-01      2.581640000000000E+01      4.209747000000000E-01     -1.491172000000000E+02
4853000000.000000      5.234680000000000E-01      2.566211000000000E+01      4.171295000000000E-01     -1.497422000000000E+02
4854000000.000000      5.238342000000000E-01      2.564453000000000E+01      4.159546000000000E-01     -1.508047000000000E+02
4855000000.000000      5.242310000000000E-01      2.550390000000000E+01      4.143677000000000E-01     -1.513125000000000E+02
4856000000.000000      5.272217000000000E-01      2.538867000000000E+01      4.123688000000000E-01     -1.521875000000000E+02
4857000000.000000      5.294189000000000E-01      2.542578000000000E+01      4.118805000000000E-01     -1.528203000000000E+02
4858000000.000000      5.295715000000000E-01      2.543652000000000E+01      4.091187000000000E-01     -1.536484000000000E+02
4859000000.000000      5.317078000000000E-01      2.532324000000000E+01      4.068146000000000E-01     -1.544141000000000E+02
4860000000.000000      5.313416000000000E-01      2.532715000000000E+01      4.037933000000000E-01     -1.552891000000000E+02
4861000000.000000      5.338135000000000E-01      2.518847000000000E+01      4.012909000000000E-01     -1.561875000000000E+02
4862000000.000000      5.321350000000000E-01      2.505273000000000E+01      4.005280000000000E-01     -1.566641000000000E+02
4863000000.000000      5.352783000000000E-01      2.503906000000000E+01      3.955078000000000E-01     -1.576094000000000E+02
4864000000.000000      5.355225000000000E-01      2.489062000000000E+01      3.943481000000000E-01     -1.581484000000000E+02
4865000000.000000      5.375977000000000E-01      2.484082000000000E+01      3.899994000000000E-01     -1.587656000000000E+02
4866000000.000000      5.391235000000000E-01      2.460742000000000E+01      3.866730000000000E-01     -1.597422000000000E+02
4867000000.000000      5.384521000000000E-01      2.465137000000000E+01      3.850555000000000E-01     -1.605703000000000E+02
4868000000.000000      5.409241000000000E-01      2.448144000000000E+01      3.820343000000000E-01     -1.612344000000000E+02
4869000000.000000      5.414734000000000E-01      2.428906000000000E+01      3.776245000000000E-01     -1.618906000000000E+02
4870000000.000000      5.411682000000000E-01      2.427832000000000E+01      3.744659000000000E-01     -1.624297000000000E+02
4871000000.000000      5.444031000000000E-01      2.420801000000000E+01      3.714752000000000E-01     -1.632344000000000E+02
4872000000.000000      5.459595000000000E-01      2.413965000000000E+01      3.680878000000000E-01     -1.638515000000000E+02
4873000000.000000      5.446167000000000E-01      2.380566000000000E+01      3.637848000000000E-01     -1.646563000000000E+02
4874000000.000000      5.467224000000000E-01      2.404297000000000E+01      3.611298000000000E-01     -1.652266000000000E+02
4875000000.000000      5.476685000000000E-01      2.351855000000000E+01      3.576355000000000E-01     -1.659531000000000E+02
4876000000.000000      5.505066000000000E-01      2.360547000000000E+01      3.549500000000000E-01     -1.665000000000000E+02
4877000000.000000      5.497437000000000E-01      2.342090000000000E+01      3.508911000000000E-01     -1.670547000000000E+02
4878000000.000000      5.494385000000000E-01      2.323730000000000E+01      3.472748000000000E-01     -1.676484000000000E+02
4879000000.000000      5.510559000000000E-01      2.317773000000000E+01      3.423920000000000E-01     -1.682812000000000E+02
4880000000.000000      5.520020000000000E-01      2.290722000000000E+01      3.396454000000000E-01     -1.688750000000000E+02
4881000000.000000      5.527039000000000E-01      2.301562000000000E+01      3.367462000000000E-01     -1.692656000000000E+02
4882000000.000000      5.551147000000000E-01      2.297558000000000E+01      3.335114000000000E-01     -1.698984000000000E+02
4883000000.000000      5.547485000000000E-01      2.268457000000000E+01      3.285217000000000E-01     -1.708750000000000E+02
4884000000.000000      5.561218000000000E-01      2.258496000000000E+01      3.250580000000000E-01     -1.710938000000000E+02
4885000000.000000      5.567627000000000E-01      2.244824000000000E+01      3.216553000000000E-01     -1.712500000000000E+02
4886000000.000000      5.566406000000000E-01      2.259180000000000E+01      3.194122000000000E-01     -1.718672000000000E+02
4887000000.000000      5.571899000000000E-01      2.220996000000000E+01      3.163910000000000E-01     -1.725156000000000E+02
4888000000.000000      5.570984000000000E-01      2.210938000000000E+01      3.134766000000000E-01     -1.730703000000000E+02
4889000000.000000      5.591125000000000E-01      2.197070000000000E+01      3.082886000000000E-01     -1.733047000000000E+02
4890000000.000000      5.578918000000000E-01      2.199121000000000E+01      3.043823000000000E-01     -1.741328000000000E+02
4891000000.000000      5.595093000000000E-01      2.175293000000000E+01      3.012695000000000E-01     -1.744297000000000E+02
4892000000.000000      5.587158000000000E-01      2.154199000000000E+01      2.983398000000000E-01     -1.746406000000000E+02
4893000000.000000      5.617676000000000E-01      2.143945000000000E+01      2.946625000000000E-01     -1.752656000000000E+02
4894000000.000000      5.611267000000000E-01      2.124121000000000E+01      2.909393000000000E-01     -1.756953000000000E+02
4895000000.000000      5.634766000000000E-01      2.103027000000000E+01      2.885895000000000E-01     -1.760469000000000E+02
4896000000.000000      5.614014000000000E-01      2.107226000000000E+01      2.844696000000000E-01     -1.762812000000000E+02
4897000000.000000      5.625000000000000E-01      2.093262000000000E+01      2.814178000000000E-01     -1.767656000000000E+02
4898000000.000000      5.614014000000000E-01      2.076953000000000E+01      2.781830000000000E-01     -1.771484000000000E+02
4899000000.000000      5.622559000000000E-01      2.045703000000000E+01      2.751770000000000E-01     -1.774922000000000E+02
4900000000.000000      5.646973000000000E-01      2.036523000000000E+01      2.717896000000000E-01     -1.778516000000000E+02
4901000000.000000      5.631104000000000E-01      2.044824000000000E+01      2.684326000000000E-01     -1.782578000000000E+02
4902000000.000000      5.636597000000000E-01      2.019824000000000E+01      2.654724000000000E-01     -1.785938000000000E+02
4903000000.000000      5.630188000000000E-01      2.002246000000000E+01      2.609406000000000E-01     -1.789922000000000E+02
4904000000.000000      5.633850000000000E-01      1.981055000000000E+01      2.588196000000000E-01     -1.793125000000000E+02
4905000000.000000      5.638733000000000E-01      1.989160000000000E+01      2.562256000000000E-01     -1.795625000000000E+02
4906000000.000000      5.645142000000000E-01      1.965430000000000E+01      2.528839000000000E-01     -1.797422000000000E+02
4907000000.000000      5.643921000000000E-01      1.957617000000000E+01      2.501373000000000E-01      1.796641000000000E+02
4908000000.000000      5.647583000000000E-01      1.927246000000000E+01      2.469101000000000E-01      1.794297000000000E+02
4909000000.000000      5.647888000000000E-01      1.917773000000000E+01      2.432632000000000E-01      1.790703000000000E+02
4910000000.000000      5.651550000000000E-01      1.900488000000000E+01      2.406616000000000E-01      1.786562000000000E+02
4911000000.000000      5.663147000000000E-01      1.902637000000000E+01      2.369156000000000E-01      1.784688000000000E+02
4912000000.000000      5.656128000000000E-01      1.884082000000000E+01      2.343674000000000E-01      1.779453000000000E+02
4913000000.000000      5.678406000000000E-01      1.871777000000000E+01      2.310410000000000E-01      1.776016000000000E+02
4914000000.000000      5.673218000000000E-01      1.839746000000000E+01      2.274933000000000E-01      1.775156000000000E+02
4915000000.000000      5.673218000000000E-01      1.843066000000000E+01      2.241592000000000E-01      1.771719000000000E+02
4916000000.000000      5.684814000000000E-01      1.830859000000000E+01      2.212830000000000E-01      1.767500000000000E+02
4917000000.000000      5.674133000000000E-01      1.825586000000000E+01      2.179337000000000E-01      1.765547000000000E+02
4918000000.000000      5.683899000000000E-01      1.831347000000000E+01      2.141724000000000E-01      1.762344000000000E+02
4919000000.000000      5.682983000000000E-01      1.800977000000000E+01      2.118607000000000E-01      1.763438000000000E+02
4920000000.000000      5.690002000000000E-01      1.793164000000000E+01      2.075729000000000E-01      1.756953000000000E+02
4921000000.000000      5.686340000000000E-01      1.774219000000000E+01      2.052994000000000E-01      1.755703000000000E+02
4922000000.000000      5.681458000000000E-01      1.755566000000000E+01      2.012482000000000E-01      1.754297000000000E+02
4923000000.000000      5.700989000000000E-01      1.774609000000000E+01      1.976700000000000E-01      1.753672000000000E+02
4924000000.000000      5.691528000000000E-01      1.733008000000000E+01      1.942291000000000E-01      1.750078000000000E+02
4925000000.000000      5.685730000000000E-01      1.713574000000000E+01      1.908722000000000E-01      1.747578000000000E+02
4926000000.000000      5.685120000000000E-01      1.713379000000000E+01      1.877670000000000E-01      1.747969000000000E+02
4927000000.000000      5.702820000000000E-01      1.707324000000000E+01      1.841583000000000E-01      1.745156000000000E+02
4928000000.000000      5.703430000000000E-01      1.671484000000000E+01      1.804047000000000E-01      1.747266000000000E+02
4929000000.000000      5.693054000000000E-01      1.674023000000000E+01      1.769943000000000E-01      1.744453000000000E+02
4930000000.000000      5.713806000000000E-01      1.669434000000000E+01      1.738129000000000E-01      1.744062000000000E+02
4931000000.000000      5.718994000000000E-01      1.659277000000000E+01      1.712418000000000E-01      1.745859000000000E+02
4932000000.000000      5.711975000000000E-01      1.652734000000000E+01      1.670990000000000E-01      1.745937000000000E+02
4933000000.000000      5.694580000000000E-01      1.619238000000000E+01      1.629791000000000E-01      1.746719000000000E+02
4934000000.000000      5.705872000000000E-01      1.603516000000000E+01      1.602020000000000E-01      1.747344000000000E+02
4935000000.000000      5.706787000000000E-01      1.622656000000000E+01      1.575089000000000E-01      1.751797000000000E+02
4936000000.000000      5.702209000000000E-01      1.590918000000000E+01      1.530457000000000E-01      1.752656000000000E+02
4937000000.000000      5.704956000000000E-01      1.561816000000000E+01      1.501846000000000E-01      1.754766000000000E+02
4938000000.000000      5.694885000000000E-01      1.586523000000000E+01      1.470871000000000E-01      1.757813000000000E+02
4939000000.000000      5.687256000000000E-01      1.568701000000000E+01      1.438293000000000E-01      1.762578000000000E+02
4940000000.000000      5.711975000000000E-01      1.537256000000000E+01      1.405106000000000E-01      1.764531000000000E+02
4941000000.000000      5.718384000000000E-01      1.519238000000000E+01      1.372070000000000E-01      1.771953000000000E+02
4942000000.000000      5.700073000000000E-01      1.538623000000000E+01      1.339722000000000E-01      1.773984000000000E+02
4943000000.000000      5.693970000000000E-01      1.514844000000000E+01      1.310959000000000E-01      1.783984000000000E+02
4944000000.000000      5.715637000000000E-01      1.499072000000000E+01      1.279221000000000E-01      1.787656000000000E+02
4945000000.000000      5.699158000000000E-01      1.499072000000000E+01      1.247559000000000E-01      1.793516000000000E+02
4946000000.000000      5.716858000000000E-01      1.470898000000000E+01      1.224632000000000E-01     -1.794531000000000E+02
4947000000.000000      5.704041000000000E-01      1.460596000000000E+01      1.197014000000000E-01     -1.785469000000000E+02
4948000000.000000      5.716553000000000E-01      1.459912000000000E+01      1.169930000000000E-01     -1.776875000000000E+02
4949000000.000000      5.723267000000000E-01      1.433008000000000E+01      1.148148000000000E-01     -1.765391000000000E+02
4950000000.000000      5.731506000000000E-01      1.436572000000000E+01      1.121902000000000E-01     -1.753906000000000E+02
4951000000.000000      5.735779000000000E-01      1.424072000000000E+01      1.096039000000000E-01     -1.743828000000000E+02
4952000000.000000      5.717163000000000E-01      1.409229000000000E+01      1.075554000000000E-01     -1.725937000000000E+02
4953000000.000000      5.712280000000000E-01      1.390967000000000E+01      1.061554000000000E-01     -1.713516000000000E+02
4954000000.000000      5.715027000000000E-01      1.393750000000000E+01      1.036034000000000E-01     -1.700391000000000E+02
