! Network Analyzer HP8722D
! Hewlett-Packard
! Data name: Linha & Wilkinson
! Saver's name: Rodrigo Anjos
! Comments: Teste da utilização de aquisição
continua pelo VNA HP8722D
! Time and date: 23/5/2025 15:29
!              Frequency                     S11                                                   S21                                                   S12                                                   S22
# HZ  S  MA R 50
4800000000.000000      2.820129000000000E-01      4.010547000000000E+01      4.843903000000000E-01     -1.294062000000000E+02
4801000000.000000      2.827911000000000E-01      4.040625000000000E+01      4.856262000000000E-01     -1.299844000000000E+02
4802000000.000000      2.842102000000000E-01      4.056445000000000E+01      4.883728000000000E-01     -1.307734000000000E+02
4803000000.000000      2.851715000000000E-01      4.073438000000000E+01      4.909210000000000E-01     -1.314531000000000E+02
4804000000.000000      2.861786000000000E-01      4.099805000000000E+01      4.919434000000000E-01     -1.321953000000000E+02
4805000000.000000      2.881165000000000E-01      4.108007000000000E+01      4.941254000000000E-01     -1.330000000000000E+02
4806000000.000000      2.887421000000000E-01      4.135547000000000E+01      4.942780000000000E-01     -1.337656000000000E+02
4807000000.000000      2.903137000000000E-01      4.154882000000000E+01      4.968414000000000E-01     -1.345781000000000E+02
4808000000.000000      2.911224000000000E-01      4.161328000000000E+01      4.981995000000000E-01     -1.352890000000000E+02
4809000000.000000      2.929230000000000E-01      4.197461000000000E+01      5.001526000000000E-01     -1.360000000000000E+02
4810000000.000000      2.949219000000000E-01      4.202538000000000E+01      5.003052000000000E-01     -1.367109000000000E+02
4811000000.000000      2.963257000000000E-01      4.222070000000000E+01      5.022278000000000E-01     -1.374219000000000E+02
4812000000.000000      2.986450000000000E-01      4.236914000000000E+01      5.033264000000000E-01     -1.381562000000000E+02
4813000000.000000      2.998047000000000E-01      4.245117000000000E+01      5.050659000000000E-01     -1.389297000000000E+02
4814000000.000000      3.009644000000000E-01      4.256445000000000E+01      5.055542000000000E-01     -1.394140000000000E+02
4815000000.000000      3.028412000000000E-01      4.262109000000000E+01      5.060120000000000E-01     -1.404297000000000E+02
4816000000.000000      3.051910000000000E-01      4.282227000000000E+01      5.061951000000000E-01     -1.411953000000000E+02
4817000000.000000      3.061981000000000E-01      4.291211000000000E+01      5.060425000000000E-01     -1.417813000000000E+02
4818000000.000000      3.082733000000000E-01      4.294531000000000E+01      5.065918000000000E-01     -1.426094000000000E+02
4819000000.000000      3.102722000000000E-01      4.295898000000000E+01      5.068665000000000E-01     -1.431562000000000E+02
4820000000.000000      3.110046000000000E-01      4.304492000000000E+01      5.072021000000000E-01     -1.439531000000000E+02
4821000000.000000      3.141479000000000E-01      4.292578000000000E+01      5.078430000000000E-01     -1.446797000000000E+02
4822000000.000000      3.153076000000000E-01      4.291406000000000E+01      5.056763000000000E-01     -1.454531000000000E+02
4823000000.000000      3.178558000000000E-01      4.287695000000000E+01      5.083923000000000E-01     -1.462188000000000E+02
4824000000.000000      3.193665000000000E-01      4.303320000000000E+01      5.068665000000000E-01     -1.469766000000000E+02
4825000000.000000      3.212738000000000E-01      4.282031000000000E+01      5.073547000000000E-01     -1.475937000000000E+02
4826000000.000000      3.225250000000000E-01      4.284765000000000E+01      5.075989000000000E-01     -1.485781000000000E+02
4827000000.000000      3.250580000000000E-01      4.281836000000000E+01      5.062866000000000E-01     -1.490234000000000E+02
4828000000.000000      3.265076000000000E-01      4.275781000000000E+01      5.073242000000000E-01     -1.499063000000000E+02
4829000000.000000      3.287659000000000E-01      4.281054000000000E+01      5.061951000000000E-01     -1.504219000000000E+02
4830000000.000000      3.297577000000000E-01      4.274219000000000E+01      5.050354000000000E-01     -1.513281000000000E+02
4831000000.000000      3.316650000000000E-01      4.255078000000000E+01      5.048523000000000E-01     -1.520234000000000E+02
4832000000.000000      3.334656000000000E-01      4.261132000000000E+01      5.046082000000000E-01     -1.526641000000000E+02
4833000000.000000      3.350372000000000E-01      4.241015000000000E+01      5.038147000000000E-01     -1.534219000000000E+02
4834000000.000000      3.370972000000000E-01      4.239062000000000E+01      5.025024000000000E-01     -1.542266000000000E+02
4835000000.000000      3.389587000000000E-01      4.216406000000000E+01      5.014648000000000E-01     -1.548437000000000E+02
4836000000.000000      3.409576000000000E-01      4.213672000000000E+01      5.000610000000000E-01     -1.555703000000000E+02
4837000000.000000      3.419647000000000E-01      4.197851000000000E+01      4.989929000000000E-01     -1.564922000000000E+02
4838000000.000000      3.429871000000000E-01      4.185742000000000E+01      4.995880000000000E-01     -1.570313000000000E+02
4839000000.000000      3.468323000000000E-01      4.175000000000000E+01      4.983063000000000E-01     -1.576797000000000E+02
4840000000.000000      3.476715000000000E-01      4.134961000000000E+01      4.982910000000000E-01     -1.583281000000000E+02
4841000000.000000      3.495026000000000E-01      4.141797000000000E+01      4.953766000000000E-01     -1.592813000000000E+02
4842000000.000000      3.506012000000000E-01      4.120117000000000E+01      4.947510000000000E-01     -1.599297000000000E+02
4843000000.000000      3.532867000000000E-01      4.092382000000000E+01      4.930878000000000E-01     -1.605937000000000E+02
4844000000.000000      3.542633000000000E-01      4.087304000000000E+01      4.922791000000000E-01     -1.614687000000000E+02
4845000000.000000      3.557434000000000E-01      4.075781000000000E+01      4.902649000000000E-01     -1.618750000000000E+02
4846000000.000000      3.578644000000000E-01      4.044726000000000E+01      4.873810000000000E-01     -1.625313000000000E+02
4847000000.000000      3.590698000000000E-01      4.034180000000000E+01      4.864807000000000E-01     -1.633906000000000E+02
4848000000.000000      3.599854000000000E-01      4.000196000000000E+01      4.852295000000000E-01     -1.640000000000000E+02
4849000000.000000      3.617554000000000E-01      3.980859000000000E+01      4.829712000000000E-01     -1.646719000000000E+02
4850000000.000000      3.625031000000000E-01      3.953516000000000E+01      4.809113000000000E-01     -1.655781000000000E+02
4851000000.000000      3.647766000000000E-01      3.962305000000000E+01      4.804840000000000E-01     -1.660469000000000E+02
4852000000.000000      3.658142000000000E-01      3.922070000000000E+01      4.769440000000000E-01     -1.669922000000000E+02
4853000000.000000      3.667145000000000E-01      3.896484000000000E+01      4.754028000000000E-01     -1.675078000000000E+02
4854000000.000000      3.679810000000000E-01      3.870312000000000E+01      4.738007000000000E-01     -1.685000000000000E+02
4855000000.000000      3.696594000000000E-01      3.850000000000000E+01      4.713440000000000E-01     -1.690703000000000E+02
4856000000.000000      3.708496000000000E-01      3.820313000000000E+01      4.692078000000000E-01     -1.697344000000000E+02
4857000000.000000      3.724365000000000E-01      3.808984000000000E+01      4.669189000000000E-01     -1.703438000000000E+02
4858000000.000000      3.731842000000000E-01      3.783984000000000E+01      4.635620000000000E-01     -1.710234000000000E+02
4859000000.000000      3.736877000000000E-01      3.756054000000000E+01      4.614563000000000E-01     -1.718984000000000E+02
4860000000.000000      3.751831000000000E-01      3.735742000000000E+01      4.582825000000000E-01     -1.723906000000000E+02
4861000000.000000      3.761597000000000E-01      3.709179000000000E+01      4.572906000000000E-01     -1.732578000000000E+02
4862000000.000000      3.760681000000000E-01      3.685156000000000E+01      4.547272000000000E-01     -1.739531000000000E+02
4863000000.000000      3.776245000000000E-01      3.650000000000000E+01      4.500122000000000E-01     -1.744531000000000E+02
4864000000.000000      3.787079000000000E-01      3.616796000000000E+01      4.501343000000000E-01     -1.750469000000000E+02
4865000000.000000      3.792725000000000E-01      3.592382000000000E+01      4.454346000000000E-01     -1.756562000000000E+02
4866000000.000000      3.806915000000000E-01      3.562304000000000E+01      4.420319000000000E-01     -1.765703000000000E+02
4867000000.000000      3.811798000000000E-01      3.538867000000000E+01      4.390564000000000E-01     -1.772734000000000E+02
4868000000.000000      3.822784000000000E-01      3.519922000000000E+01      4.359894000000000E-01     -1.780234000000000E+02
4869000000.000000      3.825989000000000E-01      3.481250000000000E+01      4.320984000000000E-01     -1.785547000000000E+02
4870000000.000000      3.838501000000000E-01      3.457812000000000E+01      4.289856000000000E-01     -1.790078000000000E+02
4871000000.000000      3.840790000000000E-01      3.425000000000000E+01      4.273529000000000E-01     -1.797266000000000E+02
4872000000.000000      3.848114000000000E-01      3.415430000000000E+01      4.224701000000000E-01      1.797891000000000E+02
4873000000.000000      3.850861000000000E-01      3.388086000000000E+01      4.193268000000000E-01      1.791875000000000E+02
4874000000.000000      3.859558000000000E-01      3.365625000000000E+01      4.167175000000000E-01      1.784844000000000E+02
4875000000.000000      3.865204000000000E-01      3.325000000000000E+01      4.119568000000000E-01      1.779297000000000E+02
4876000000.000000      3.873596000000000E-01      3.311914000000000E+01      4.105072000000000E-01      1.773281000000000E+02
4877000000.000000      3.871460000000000E-01      3.264648000000000E+01      4.048004000000000E-01      1.767422000000000E+02
4878000000.000000      3.874207000000000E-01      3.247461000000000E+01      4.011536000000000E-01      1.761484000000000E+02
4879000000.000000      3.886414000000000E-01      3.236133000000000E+01      3.981934000000000E-01      1.756875000000000E+02
4880000000.000000      3.887787000000000E-01      3.189844000000000E+01      3.954468000000000E-01      1.750547000000000E+02
4881000000.000000      3.885651000000000E-01      3.168457000000000E+01      3.924713000000000E-01      1.745937000000000E+02
4882000000.000000      3.889465000000000E-01      3.158691000000000E+01      3.898315000000000E-01      1.741406000000000E+02
4883000000.000000      3.892822000000000E-01      3.120898000000000E+01      3.843842000000000E-01      1.733906000000000E+02
4884000000.000000      3.894806000000000E-01      3.102930000000000E+01      3.815918000000000E-01      1.728047000000000E+02
4885000000.000000      3.888855000000000E-01      3.068457000000000E+01      3.778076000000000E-01      1.726172000000000E+02
4886000000.000000      3.895721000000000E-01      3.054590000000000E+01      3.744507000000000E-01      1.720469000000000E+02
4887000000.000000      3.898315000000000E-01      3.020117000000000E+01      3.706207000000000E-01      1.716563000000000E+02
4888000000.000000      3.898010000000000E-01      2.982617000000000E+01      3.680420000000000E-01      1.708594000000000E+02
4889000000.000000      3.899078000000000E-01      2.973828000000000E+01      3.625031000000000E-01      1.706328000000000E+02
4890000000.000000      3.888702000000000E-01      2.941308000000000E+01      3.594666000000000E-01      1.698594000000000E+02
4891000000.000000      3.900299000000000E-01      2.918359000000000E+01      3.569641000000000E-01      1.696250000000000E+02
4892000000.000000      3.897247000000000E-01      2.896679000000000E+01      3.527527000000000E-01      1.693984000000000E+02
4893000000.000000      3.904114000000000E-01      2.862597000000000E+01      3.482971000000000E-01      1.686797000000000E+02
4894000000.000000      3.893433000000000E-01      2.853613000000000E+01      3.448792000000000E-01      1.682266000000000E+02
4895000000.000000      3.902893000000000E-01      2.826757000000000E+01      3.420563000000000E-01      1.677734000000000E+02
4896000000.000000      3.903656000000000E-01      2.802832000000000E+01      3.378296000000000E-01      1.673594000000000E+02
4897000000.000000      3.892822000000000E-01      2.787500000000000E+01      3.348541000000000E-01      1.667578000000000E+02
4898000000.000000      3.896027000000000E-01      2.764551000000000E+01      3.312073000000000E-01      1.668672000000000E+02
4899000000.000000      3.898773000000000E-01      2.721582000000000E+01      3.288879000000000E-01      1.659688000000000E+02
4900000000.000000      3.887482000000000E-01      2.707226000000000E+01      3.243408000000000E-01      1.657109000000000E+02
4901000000.000000      3.895569000000000E-01      2.681543000000000E+01      3.219452000000000E-01      1.654063000000000E+02
4902000000.000000      3.889160000000000E-01      2.657227000000000E+01      3.186493000000000E-01      1.650859000000000E+02
4903000000.000000      3.888397000000000E-01      2.651758000000000E+01      3.146820000000000E-01      1.644609000000000E+02
4904000000.000000      3.882599000000000E-01      2.615234000000000E+01      3.113708000000000E-01      1.641953000000000E+02
4905000000.000000      3.880920000000000E-01      2.604394000000000E+01      3.084106000000000E-01      1.636875000000000E+02
4906000000.000000      3.872223000000000E-01      2.582031000000000E+01      3.050079000000000E-01      1.634766000000000E+02
4907000000.000000      3.873444000000000E-01      2.546191000000000E+01      3.019562000000000E-01      1.629141000000000E+02
4908000000.000000      3.872375000000000E-01      2.532324000000000E+01      2.985535000000000E-01      1.624531000000000E+02
4909000000.000000      3.867798000000000E-01      2.505078000000000E+01      2.940216000000000E-01      1.621953000000000E+02
4910000000.000000      3.869629000000000E-01      2.494922000000000E+01      2.913208000000000E-01      1.617188000000000E+02
4911000000.000000      3.868408000000000E-01      2.491113000000000E+01      2.879486000000000E-01      1.614531000000000E+02
4912000000.000000      3.861694000000000E-01      2.462011000000000E+01      2.834167000000000E-01      1.609688000000000E+02
4913000000.000000      3.861694000000000E-01      2.440039000000000E+01      2.803345000000000E-01      1.606875000000000E+02
4914000000.000000      3.856201000000000E-01      2.403320000000000E+01      2.767181000000000E-01      1.604375000000000E+02
4915000000.000000      3.855286000000000E-01      2.404492000000000E+01      2.729950000000000E-01      1.599609000000000E+02
4916000000.000000      3.855286000000000E-01      2.391113000000000E+01      2.694397000000000E-01      1.596172000000000E+02
4917000000.000000      3.851929000000000E-01      2.376465000000000E+01      2.657318000000000E-01      1.592813000000000E+02
4918000000.000000      3.854370000000000E-01      2.353125000000000E+01      2.612610000000000E-01      1.589766000000000E+02
4919000000.000000      3.835144000000000E-01      2.331347000000000E+01      2.581787000000000E-01      1.588672000000000E+02
4920000000.000000      3.845062000000000E-01      2.291992000000000E+01      2.528839000000000E-01      1.581640000000000E+02
4921000000.000000      3.833923000000000E-01      2.307324000000000E+01      2.505798000000000E-01      1.580703000000000E+02
4922000000.000000      3.841858000000000E-01      2.276172000000000E+01      2.463760000000000E-01      1.579609000000000E+02
4923000000.000000      3.830109000000000E-01      2.258789000000000E+01      2.419052000000000E-01      1.577734000000000E+02
4924000000.000000      3.837585000000000E-01      2.235840000000000E+01      2.375183000000000E-01      1.571953000000000E+02
4925000000.000000      3.826904000000000E-01      2.209961000000000E+01      2.340469000000000E-01      1.570547000000000E+02
4926000000.000000      3.832092000000000E-01      2.208301000000000E+01      2.307816000000000E-01      1.567812000000000E+02
4927000000.000000      3.821564000000000E-01      2.180176000000000E+01      2.264175000000000E-01      1.566015000000000E+02
4928000000.000000      3.829041000000000E-01      2.160937000000000E+01      2.222900000000000E-01      1.564062000000000E+02
4929000000.000000      3.807831000000000E-01      2.139160000000000E+01      2.178574000000000E-01      1.563984000000000E+02
4930000000.000000      3.819885000000000E-01      2.125000000000000E+01      2.143097000000000E-01      1.562109000000000E+02
4931000000.000000      3.808746000000000E-01      2.116992000000000E+01      2.101364000000000E-01      1.561953000000000E+02
4932000000.000000      3.813477000000000E-01      2.107715000000000E+01      2.060776000000000E-01      1.560937000000000E+02
4933000000.000000      3.813629000000000E-01      2.079394000000000E+01      2.014084000000000E-01      1.562344000000000E+02
4934000000.000000      3.803406000000000E-01      2.064453000000000E+01      1.978302000000000E-01      1.559922000000000E+02
4935000000.000000      3.815002000000000E-01      2.036035000000000E+01      1.943588000000000E-01      1.563125000000000E+02
4936000000.000000      3.795929000000000E-01      2.027344000000000E+01      1.893692000000000E-01      1.562500000000000E+02
4937000000.000000      3.796234000000000E-01      2.003711000000000E+01      1.862335000000000E-01      1.561797000000000E+02
4938000000.000000      3.791351000000000E-01      1.997266000000000E+01      1.818771000000000E-01      1.565000000000000E+02
4939000000.000000      3.794556000000000E-01      1.968164000000000E+01      1.779022000000000E-01      1.568438000000000E+02
4940000000.000000      3.785095000000000E-01      1.952246000000000E+01      1.735764000000000E-01      1.568438000000000E+02
4941000000.000000      3.787231000000000E-01      1.924316000000000E+01      1.699524000000000E-01      1.574687000000000E+02
4942000000.000000      3.770142000000000E-01      1.927734000000000E+01      1.657104000000000E-01      1.575625000000000E+02
4943000000.000000      3.775482000000000E-01      1.912500000000000E+01      1.626129000000000E-01      1.581719000000000E+02
4944000000.000000      3.776398000000000E-01      1.886328000000000E+01      1.583786000000000E-01      1.586797000000000E+02
4945000000.000000      3.782349000000000E-01      1.875000000000000E+01      1.544113000000000E-01      1.592500000000000E+02
4946000000.000000      3.766632000000000E-01      1.858594000000000E+01      1.513824000000000E-01      1.600078000000000E+02
4947000000.000000      3.767700000000000E-01      1.822949000000000E+01      1.474533000000000E-01      1.606094000000000E+02
4948000000.000000      3.779144000000000E-01      1.824805000000000E+01      1.443176000000000E-01      1.614297000000000E+02
4949000000.000000      3.755798000000000E-01      1.796582000000000E+01      1.413040000000000E-01      1.623281000000000E+02
4950000000.000000      3.762207000000000E-01      1.787305000000000E+01      1.377411000000000E-01      1.633594000000000E+02
4951000000.000000      3.757477000000000E-01      1.773535000000000E+01      1.349564000000000E-01      1.642344000000000E+02
4952000000.000000      3.749390000000000E-01      1.751074000000000E+01      1.315155000000000E-01      1.654531000000000E+02
4953000000.000000      3.751526000000000E-01      1.742383000000000E+01      1.295166000000000E-01      1.667344000000000E+02
4954000000.000000      3.747559000000000E-01      1.712305000000000E+01      1.264648000000000E-01      1.680078000000000E+02
