! Network Analyzer HP8722D
! Hewlett-Packard
! Data name: Linha & Wilkinson
! Saver's name: Rodrigo Anjos
! Comments: Teste da utilização de aquisição
continua pelo VNA HP8722D
! Time and date: 23/5/2025 14:15
!              Frequency                     S11                                                   S21                                                   S12                                                   S22
# HZ  S  MA R 50
4800000000.000000      2.940674000000000E-01      3.934375000000000E+01      4.817505000000000E-01     -1.298359000000000E+02
4801000000.000000      2.952728000000000E-01      3.965234000000000E+01      4.823456000000000E-01     -1.304453000000000E+02
4802000000.000000      2.962494000000000E-01      3.982812000000000E+01      4.831238000000000E-01     -1.311719000000000E+02
4803000000.000000      2.975159000000000E-01      4.000196000000000E+01      4.875488000000000E-01     -1.318281000000000E+02
4804000000.000000      2.986908000000000E-01      4.022461000000000E+01      4.891357000000000E-01     -1.325078000000000E+02
4805000000.000000      3.003693000000000E-01      4.020117000000000E+01      4.894104000000000E-01     -1.333672000000000E+02
4806000000.000000      3.012238000000000E-01      4.048437000000000E+01      4.915009000000000E-01     -1.341328000000000E+02
4807000000.000000      3.028564000000000E-01      4.065039000000000E+01      4.925995000000000E-01     -1.349297000000000E+02
4808000000.000000      3.032837000000000E-01      4.074804000000000E+01      4.928131000000000E-01     -1.353516000000000E+02
4809000000.000000      3.050232000000000E-01      4.106250000000000E+01      4.937286000000000E-01     -1.363359000000000E+02
4810000000.000000      3.067322000000000E-01      4.112500000000000E+01      4.957123000000000E-01     -1.368438000000000E+02
4811000000.000000      3.085632000000000E-01      4.126758000000000E+01      4.974365000000000E-01     -1.377187000000000E+02
4812000000.000000      3.108978000000000E-01      4.143164000000000E+01      4.973755000000000E-01     -1.384766000000000E+02
4813000000.000000      3.119812000000000E-01      4.153516000000000E+01      4.982758000000000E-01     -1.391719000000000E+02
4814000000.000000      3.130951000000000E-01      4.157227000000000E+01      4.987946000000000E-01     -1.399062000000000E+02
4815000000.000000      3.150330000000000E-01      4.162890000000000E+01      4.979706000000000E-01     -1.406875000000000E+02
4816000000.000000      3.168640000000000E-01      4.183789000000000E+01      5.005493000000000E-01     -1.413437000000000E+02
4817000000.000000      3.179169000000000E-01      4.179883000000000E+01      5.001221000000000E-01     -1.421328000000000E+02
4818000000.000000      3.197174000000000E-01      4.177930000000000E+01      5.006104000000000E-01     -1.429531000000000E+02
4819000000.000000      3.213654000000000E-01      4.191406000000000E+01      4.996643000000000E-01     -1.435781000000000E+02
4820000000.000000      3.223114000000000E-01      4.190430000000000E+01      5.005188000000000E-01     -1.442656000000000E+02
4821000000.000000      3.255310000000000E-01      4.192773000000000E+01      5.020447000000000E-01     -1.450234000000000E+02
4822000000.000000      3.258820000000000E-01      4.184960000000000E+01      5.004272000000000E-01     -1.458516000000000E+02
4823000000.000000      3.280792000000000E-01      4.182422000000000E+01      5.003357000000000E-01     -1.465000000000000E+02
4824000000.000000      3.304443000000000E-01      4.194921000000000E+01      4.990387000000000E-01     -1.473906000000000E+02
4825000000.000000      3.320465000000000E-01      4.188086000000000E+01      5.006714000000000E-01     -1.479531000000000E+02
4826000000.000000      3.333282000000000E-01      4.174024000000000E+01      4.998627000000000E-01     -1.487500000000000E+02
4827000000.000000      3.358459000000000E-01      4.172071000000000E+01      4.993744000000000E-01     -1.492812000000000E+02
4828000000.000000      3.377075000000000E-01      4.177148000000000E+01      4.988098000000000E-01     -1.500937000000000E+02
4829000000.000000      3.394775000000000E-01      4.169726000000000E+01      4.975281000000000E-01     -1.508984000000000E+02
4830000000.000000      3.408966000000000E-01      4.154687000000000E+01      4.973297000000000E-01     -1.515781000000000E+02
4831000000.000000      3.423767000000000E-01      4.147070000000000E+01      4.979858000000000E-01     -1.524453000000000E+02
4832000000.000000      3.441620000000000E-01      4.152539000000000E+01      4.954834000000000E-01     -1.531016000000000E+02
4833000000.000000      3.457184000000000E-01      4.130664000000000E+01      4.956207000000000E-01     -1.538750000000000E+02
4834000000.000000      3.479156000000000E-01      4.124413000000000E+01      4.936981000000000E-01     -1.543672000000000E+02
4835000000.000000      3.497467000000000E-01      4.111133000000000E+01      4.948730000000000E-01     -1.552500000000000E+02
4836000000.000000      3.510132000000000E-01      4.107226000000000E+01      4.923248000000000E-01     -1.560078000000000E+02
4837000000.000000      3.528137000000000E-01      4.097852000000000E+01      4.928284000000000E-01     -1.568594000000000E+02
4838000000.000000      3.536530000000000E-01      4.073047000000000E+01      4.922638000000000E-01     -1.572734000000000E+02
4839000000.000000      3.574677000000000E-01      4.063672000000000E+01      4.896545000000000E-01     -1.580234000000000E+02
4840000000.000000      3.585205000000000E-01      4.040429000000000E+01      4.891663000000000E-01     -1.586641000000000E+02
4841000000.000000      3.596802000000000E-01      4.041992000000000E+01      4.878540000000000E-01     -1.596250000000000E+02
4842000000.000000      3.607635000000000E-01      4.004492000000000E+01      4.857635000000000E-01     -1.602344000000000E+02
4843000000.000000      3.633575000000000E-01      3.978125000000000E+01      4.853210000000000E-01     -1.608906000000000E+02
4844000000.000000      3.644867000000000E-01      3.970898000000000E+01      4.826355000000000E-01     -1.616641000000000E+02
4845000000.000000      3.658295000000000E-01      3.972265000000000E+01      4.826508000000000E-01     -1.623437000000000E+02
4846000000.000000      3.676300000000000E-01      3.945703000000000E+01      4.812012000000000E-01     -1.630391000000000E+02
4847000000.000000      3.691254000000000E-01      3.928515000000000E+01      4.786072000000000E-01     -1.637187000000000E+02
4848000000.000000      3.691711000000000E-01      3.902344000000000E+01      4.745026000000000E-01     -1.643906000000000E+02
4849000000.000000      3.713837000000000E-01      3.882421000000000E+01      4.745789000000000E-01     -1.651250000000000E+02
4850000000.000000      3.725128000000000E-01      3.860352000000000E+01      4.718628000000000E-01     -1.658516000000000E+02
4851000000.000000      3.745117000000000E-01      3.840429000000000E+01      4.711456000000000E-01     -1.665313000000000E+02
4852000000.000000      3.754883000000000E-01      3.815039000000000E+01      4.691772000000000E-01     -1.673906000000000E+02
4853000000.000000      3.770447000000000E-01      3.800000000000000E+01      4.651031000000000E-01     -1.681094000000000E+02
4854000000.000000      3.781281000000000E-01      3.777344000000000E+01      4.625092000000000E-01     -1.687813000000000E+02
4855000000.000000      3.789825000000000E-01      3.758594000000000E+01      4.614716000000000E-01     -1.695078000000000E+02
4856000000.000000      3.804474000000000E-01      3.728906000000000E+01      4.588470000000000E-01     -1.700234000000000E+02
4857000000.000000      3.810730000000000E-01      3.708008000000000E+01      4.571838000000000E-01     -1.706797000000000E+02
4858000000.000000      3.827209000000000E-01      3.678320000000000E+01      4.547119000000000E-01     -1.715391000000000E+02
4859000000.000000      3.832550000000000E-01      3.650195000000000E+01      4.525909000000000E-01     -1.722422000000000E+02
4860000000.000000      3.838959000000000E-01      3.638672000000000E+01      4.508057000000000E-01     -1.728203000000000E+02
4861000000.000000      3.860321000000000E-01      3.615234000000000E+01      4.458923000000000E-01     -1.734922000000000E+02
4862000000.000000      3.854218000000000E-01      3.596484000000000E+01      4.448853000000000E-01     -1.741172000000000E+02
4863000000.000000      3.864746000000000E-01      3.560937000000000E+01      4.406586000000000E-01     -1.748281000000000E+02
4864000000.000000      3.881531000000000E-01      3.548047000000000E+01      4.375458000000000E-01     -1.753672000000000E+02
4865000000.000000      3.884583000000000E-01      3.507031000000000E+01      4.348755000000000E-01     -1.760156000000000E+02
4866000000.000000      3.898773000000000E-01      3.474804000000000E+01      4.309998000000000E-01     -1.766562000000000E+02
4867000000.000000      3.891754000000000E-01      3.465625000000000E+01      4.296417000000000E-01     -1.775469000000000E+02
4868000000.000000      3.911591000000000E-01      3.431836000000000E+01      4.259949000000000E-01     -1.781016000000000E+02
4869000000.000000      3.905029000000000E-01      3.406445000000000E+01      4.221802000000000E-01     -1.787969000000000E+02
4870000000.000000      3.921661000000000E-01      3.385937000000000E+01      4.190521000000000E-01     -1.793359000000000E+02
4871000000.000000      3.922577000000000E-01      3.363867000000000E+01      4.154205000000000E-01     -1.800000000000000E+02
4872000000.000000      3.934784000000000E-01      3.328906000000000E+01      4.128265000000000E-01      1.795469000000000E+02
4873000000.000000      3.938293000000000E-01      3.316406000000000E+01      4.097290000000000E-01      1.786797000000000E+02
4874000000.000000      3.943634000000000E-01      3.292578000000000E+01      4.050446000000000E-01      1.780313000000000E+02
4875000000.000000      3.943024000000000E-01      3.258594000000000E+01      4.024963000000000E-01      1.776094000000000E+02
4876000000.000000      3.958282000000000E-01      3.239648000000000E+01      4.000854000000000E-01      1.772422000000000E+02
4877000000.000000      3.957367000000000E-01      3.198437000000000E+01      3.956757000000000E-01      1.763594000000000E+02
4878000000.000000      3.959656000000000E-01      3.172949000000000E+01      3.920593000000000E-01      1.759297000000000E+02
4879000000.000000      3.961182000000000E-01      3.161230000000000E+01      3.871460000000000E-01      1.754297000000000E+02
4880000000.000000      3.968506000000000E-01      3.123730000000000E+01      3.850403000000000E-01      1.750547000000000E+02
4881000000.000000      3.960419000000000E-01      3.107031000000000E+01      3.820801000000000E-01      1.742891000000000E+02
4882000000.000000      3.975067000000000E-01      3.093847000000000E+01      3.787689000000000E-01      1.737578000000000E+02
4883000000.000000      3.967438000000000E-01      3.046191000000000E+01      3.740845000000000E-01      1.732812000000000E+02
4884000000.000000      3.979950000000000E-01      3.033594000000000E+01      3.703003000000000E-01      1.727969000000000E+02
4885000000.000000      3.985748000000000E-01      3.005371000000000E+01      3.666534000000000E-01      1.725547000000000E+02
4886000000.000000      3.983459000000000E-01      3.005859000000000E+01      3.636475000000000E-01      1.719531000000000E+02
4887000000.000000      3.986511000000000E-01      2.962109000000000E+01      3.608398000000000E-01      1.713594000000000E+02
4888000000.000000      3.988037000000000E-01      2.927832000000000E+01      3.581696000000000E-01      1.709453000000000E+02
4889000000.000000      3.981476000000000E-01      2.918848000000000E+01      3.532562000000000E-01      1.705937000000000E+02
4890000000.000000      3.971252000000000E-01      2.893847000000000E+01      3.489227000000000E-01      1.696875000000000E+02
4891000000.000000      3.981781000000000E-01      2.867969000000000E+01      3.453827000000000E-01      1.692812000000000E+02
4892000000.000000      3.979492000000000E-01      2.845312000000000E+01      3.413544000000000E-01      1.691250000000000E+02
4893000000.000000      3.986053000000000E-01      2.811718000000000E+01      3.384399000000000E-01      1.685156000000000E+02
4894000000.000000      3.973083000000000E-01      2.801855000000000E+01      3.356476000000000E-01      1.682188000000000E+02
4895000000.000000      3.991852000000000E-01      2.773438000000000E+01      3.326874000000000E-01      1.678672000000000E+02
4896000000.000000      3.981476000000000E-01      2.743750000000000E+01      3.276520000000000E-01      1.674219000000000E+02
4897000000.000000      3.980408000000000E-01      2.736133000000000E+01      3.249969000000000E-01      1.668594000000000E+02
4898000000.000000      3.981476000000000E-01      2.698730000000000E+01      3.222961000000000E-01      1.666797000000000E+02
4899000000.000000      3.979645000000000E-01      2.685742000000000E+01      3.187561000000000E-01      1.660781000000000E+02
4900000000.000000      3.974609000000000E-01      2.652734000000000E+01      3.149872000000000E-01      1.658047000000000E+02
4901000000.000000      3.976440000000000E-01      2.648926000000000E+01      3.121948000000000E-01      1.653828000000000E+02
4902000000.000000      3.977509000000000E-01      2.634375000000000E+01      3.091278000000000E-01      1.651797000000000E+02
4903000000.000000      3.974152000000000E-01      2.611719000000000E+01      3.043671000000000E-01      1.647109000000000E+02
4904000000.000000      3.971710000000000E-01      2.576269000000000E+01      3.011627000000000E-01      1.641719000000000E+02
4905000000.000000      3.966370000000000E-01      2.565234000000000E+01      2.984772000000000E-01      1.637812000000000E+02
4906000000.000000      3.959808000000000E-01      2.553711000000000E+01      2.944489000000000E-01      1.636953000000000E+02
4907000000.000000      3.959656000000000E-01      2.518555000000000E+01      2.917328000000000E-01      1.630312000000000E+02
4908000000.000000      3.955231000000000E-01      2.505957000000000E+01      2.880096000000000E-01      1.627422000000000E+02
4909000000.000000      3.950958000000000E-01      2.484961000000000E+01      2.843475000000000E-01      1.624531000000000E+02
4910000000.000000      3.952789000000000E-01      2.469531000000000E+01      2.811432000000000E-01      1.621562000000000E+02
4911000000.000000      3.950806000000000E-01      2.457226000000000E+01      2.773895000000000E-01      1.618515000000000E+02
4912000000.000000      3.953552000000000E-01      2.421875000000000E+01      2.741241000000000E-01      1.614297000000000E+02
4913000000.000000      3.952026000000000E-01      2.391797000000000E+01      2.701721000000000E-01      1.611016000000000E+02
4914000000.000000      3.944397000000000E-01      2.376953000000000E+01      2.665405000000000E-01      1.608750000000000E+02
4915000000.000000      3.940735000000000E-01      2.373535000000000E+01      2.624359000000000E-01      1.602969000000000E+02
4916000000.000000      3.936462000000000E-01      2.351465000000000E+01      2.597961000000000E-01      1.598828000000000E+02
4917000000.000000      3.937531000000000E-01      2.331347000000000E+01      2.556915000000000E-01      1.596719000000000E+02
4918000000.000000      3.938293000000000E-01      2.320801000000000E+01      2.514038000000000E-01      1.594375000000000E+02
4919000000.000000      3.923950000000000E-01      2.310351000000000E+01      2.483292000000000E-01      1.592813000000000E+02
4920000000.000000      3.923187000000000E-01      2.278125000000000E+01      2.441254000000000E-01      1.587422000000000E+02
4921000000.000000      3.927460000000000E-01      2.274512000000000E+01      2.405396000000000E-01      1.586562000000000E+02
4922000000.000000      3.931580000000000E-01      2.236328000000000E+01      2.367630000000000E-01      1.584453000000000E+02
4923000000.000000      3.930206000000000E-01      2.241015000000000E+01      2.326813000000000E-01      1.582109000000000E+02
4924000000.000000      3.917236000000000E-01      2.212305000000000E+01      2.288818000000000E-01      1.580156000000000E+02
4925000000.000000      3.907928000000000E-01      2.192676000000000E+01      2.250977000000000E-01      1.577031000000000E+02
4926000000.000000      3.907623000000000E-01      2.175000000000000E+01      2.216415000000000E-01      1.576406000000000E+02
4927000000.000000      3.909912000000000E-01      2.152050000000000E+01      2.169189000000000E-01      1.574922000000000E+02
4928000000.000000      3.917389000000000E-01      2.134766000000000E+01      2.132797000000000E-01      1.574531000000000E+02
4929000000.000000      3.904572000000000E-01      2.123340000000000E+01      2.089233000000000E-01      1.572734000000000E+02
4930000000.000000      3.903809000000000E-01      2.115137000000000E+01      2.050552000000000E-01      1.571016000000000E+02
4931000000.000000      3.896637000000000E-01      2.083106000000000E+01      2.019043000000000E-01      1.571719000000000E+02
4932000000.000000      3.894196000000000E-01      2.068652000000000E+01      1.971970000000000E-01      1.571563000000000E+02
4933000000.000000      3.897705000000000E-01      2.053809000000000E+01      1.928101000000000E-01      1.572891000000000E+02
4934000000.000000      3.895721000000000E-01      2.034766000000000E+01      1.893311000000000E-01      1.572578000000000E+02
4935000000.000000      3.903351000000000E-01      2.026269000000000E+01      1.863632000000000E-01      1.576797000000000E+02
4936000000.000000      3.888855000000000E-01      2.002051000000000E+01      1.814499000000000E-01      1.576094000000000E+02
4937000000.000000      3.889465000000000E-01      1.978320000000000E+01      1.774750000000000E-01      1.577266000000000E+02
4938000000.000000      3.882294000000000E-01      1.983496000000000E+01      1.738510000000000E-01      1.581484000000000E+02
4939000000.000000      3.880768000000000E-01      1.962402000000000E+01      1.698456000000000E-01      1.584766000000000E+02
4940000000.000000      3.872223000000000E-01      1.939062000000000E+01      1.658554000000000E-01      1.585938000000000E+02
4941000000.000000      3.884583000000000E-01      1.935059000000000E+01      1.625443000000000E-01      1.592734000000000E+02
4942000000.000000      3.872375000000000E-01      1.912695000000000E+01      1.586456000000000E-01      1.595391000000000E+02
4943000000.000000      3.869629000000000E-01      1.899316000000000E+01      1.551514000000000E-01      1.601016000000000E+02
4944000000.000000      3.873138000000000E-01      1.855566000000000E+01      1.518707000000000E-01      1.608672000000000E+02
4945000000.000000      3.872986000000000E-01      1.860742000000000E+01      1.479874000000000E-01      1.613750000000000E+02
4946000000.000000      3.865509000000000E-01      1.829687000000000E+01      1.447220000000000E-01      1.621484000000000E+02
4947000000.000000      3.859100000000000E-01      1.822851000000000E+01      1.415329000000000E-01      1.629453000000000E+02
4948000000.000000      3.863983000000000E-01      1.803906000000000E+01      1.384964000000000E-01      1.637500000000000E+02
4949000000.000000      3.850403000000000E-01      1.796777000000000E+01      1.354828000000000E-01      1.651953000000000E+02
4950000000.000000      3.856201000000000E-01      1.784375000000000E+01      1.323090000000000E-01      1.658906000000000E+02
4951000000.000000      3.852234000000000E-01      1.759961000000000E+01      1.296997000000000E-01      1.668750000000000E+02
4952000000.000000      3.844299000000000E-01      1.742285000000000E+01      1.269913000000000E-01      1.685078000000000E+02
4953000000.000000      3.845673000000000E-01      1.723340000000000E+01      1.245499000000000E-01      1.698125000000000E+02
4954000000.000000      3.846588000000000E-01      1.711328000000000E+01      1.223755000000000E-01      1.712265000000000E+02
