! Network Analyzer HP8722D
! Hewlett-Packard
! Data name: Linha & Wilkinson
! Saver's name: Rodrigo Anjos
! Comments: Teste da utilização de aquisição
continua pelo VNA HP8722D
! Time and date: 23/5/2025 13:40
!              Frequency                     S11                                                   S21                                                   S12                                                   S22
# HZ  S  MA R 50
4800000000.000000      2.916718000000000E-01      3.947070000000000E+01      4.818726000000000E-01     -1.296328000000000E+02
4801000000.000000      2.926483000000000E-01      3.972070000000000E+01      4.845123000000000E-01     -1.303594000000000E+02
4802000000.000000      2.937622000000000E-01      3.984961000000000E+01      4.845734000000000E-01     -1.310156000000000E+02
4803000000.000000      2.945862000000000E-01      4.014453000000000E+01      4.892426000000000E-01     -1.316953000000000E+02
4804000000.000000      2.957611000000000E-01      4.036914000000000E+01      4.892578000000000E-01     -1.322734000000000E+02
4805000000.000000      2.979584000000000E-01      4.033984000000000E+01      4.917145000000000E-01     -1.331875000000000E+02
4806000000.000000      2.984772000000000E-01      4.063086000000000E+01      4.919281000000000E-01     -1.339375000000000E+02
4807000000.000000      2.995453000000000E-01      4.081250000000000E+01      4.936676000000000E-01     -1.347891000000000E+02
4808000000.000000      3.004608000000000E-01      4.092969000000000E+01      4.945984000000000E-01     -1.352109000000000E+02
4809000000.000000      3.023376000000000E-01      4.123437000000000E+01      4.967499000000000E-01     -1.362187000000000E+02
4810000000.000000      3.042450000000000E-01      4.127930000000000E+01      4.971161000000000E-01     -1.367656000000000E+02
4811000000.000000      3.055267000000000E-01      4.141602000000000E+01      4.980774000000000E-01     -1.376641000000000E+02
4812000000.000000      3.081207000000000E-01      4.166211000000000E+01      4.987640000000000E-01     -1.382969000000000E+02
4813000000.000000      3.085327000000000E-01      4.174218000000000E+01      4.993591000000000E-01     -1.390312000000000E+02
4814000000.000000      3.099670000000000E-01      4.175195000000000E+01      5.012817000000000E-01     -1.398359000000000E+02
4815000000.000000      3.118591000000000E-01      4.184960000000000E+01      5.010681000000000E-01     -1.405156000000000E+02
4816000000.000000      3.141785000000000E-01      4.192578000000000E+01      5.026245000000000E-01     -1.412656000000000E+02
4817000000.000000      3.154907000000000E-01      4.200585000000000E+01      5.003967000000000E-01     -1.421328000000000E+02
4818000000.000000      3.170929000000000E-01      4.205274000000000E+01      5.015564000000000E-01     -1.427109000000000E+02
4819000000.000000      3.191681000000000E-01      4.210156000000000E+01      5.022888000000000E-01     -1.433516000000000E+02
4820000000.000000      3.199005000000000E-01      4.211719000000000E+01      5.026855000000000E-01     -1.439844000000000E+02
4821000000.000000      3.229675000000000E-01      4.211914000000000E+01      5.023193000000000E-01     -1.448125000000000E+02
4822000000.000000      3.236694000000000E-01      4.208203000000000E+01      5.005798000000000E-01     -1.456406000000000E+02
4823000000.000000      3.255615000000000E-01      4.204687000000000E+01      5.019836000000000E-01     -1.462734000000000E+02
4824000000.000000      3.278198000000000E-01      4.225390000000000E+01      5.021362000000000E-01     -1.471094000000000E+02
4825000000.000000      3.292542000000000E-01      4.213281000000000E+01      5.018616000000000E-01     -1.479063000000000E+02
4826000000.000000      3.311615000000000E-01      4.195508000000000E+01      5.015564000000000E-01     -1.487344000000000E+02
4827000000.000000      3.332367000000000E-01      4.202148000000000E+01      5.002441000000000E-01     -1.492578000000000E+02
4828000000.000000      3.353119000000000E-01      4.191796000000000E+01      4.999237000000000E-01     -1.500156000000000E+02
4829000000.000000      3.363190000000000E-01      4.199023000000000E+01      5.005188000000000E-01     -1.506484000000000E+02
4830000000.000000      3.384857000000000E-01      4.176367000000000E+01      5.000916000000000E-01     -1.514297000000000E+02
4831000000.000000      3.399658000000000E-01      4.180273000000000E+01      4.993134000000000E-01     -1.522891000000000E+02
4832000000.000000      3.420258000000000E-01      4.172265000000000E+01      4.980011000000000E-01     -1.528203000000000E+02
4833000000.000000      3.431549000000000E-01      4.155859000000000E+01      4.983368000000000E-01     -1.536094000000000E+02
4834000000.000000      3.448792000000000E-01      4.133985000000000E+01      4.972076000000000E-01     -1.543594000000000E+02
4835000000.000000      3.470001000000000E-01      4.127343000000000E+01      4.974213000000000E-01     -1.552031000000000E+02
4836000000.000000      3.491669000000000E-01      4.125390000000000E+01      4.951324000000000E-01     -1.558281000000000E+02
4837000000.000000      3.502045000000000E-01      4.113477000000000E+01      4.934692000000000E-01     -1.566328000000000E+02
4838000000.000000      3.519287000000000E-01      4.092773000000000E+01      4.928436000000000E-01     -1.570156000000000E+02
4839000000.000000      3.550873000000000E-01      4.087695000000000E+01      4.910736000000000E-01     -1.579609000000000E+02
4840000000.000000      3.553772000000000E-01      4.068164000000000E+01      4.904327000000000E-01     -1.584609000000000E+02
4841000000.000000      3.575439000000000E-01      4.055078000000000E+01      4.896545000000000E-01     -1.593203000000000E+02
4842000000.000000      3.589630000000000E-01      4.038281000000000E+01      4.884338000000000E-01     -1.600234000000000E+02
4843000000.000000      3.616791000000000E-01      4.006055000000000E+01      4.869080000000000E-01     -1.608594000000000E+02
4844000000.000000      3.618164000000000E-01      3.993359000000000E+01      4.844055000000000E-01     -1.615000000000000E+02
4845000000.000000      3.640594000000000E-01      3.985937000000000E+01      4.834595000000000E-01     -1.619766000000000E+02
4846000000.000000      3.653259000000000E-01      3.964453000000000E+01      4.833984000000000E-01     -1.628984000000000E+02
4847000000.000000      3.671265000000000E-01      3.950976000000000E+01      4.812775000000000E-01     -1.634844000000000E+02
4848000000.000000      3.671265000000000E-01      3.917969000000000E+01      4.771271000000000E-01     -1.643125000000000E+02
4849000000.000000      3.699493000000000E-01      3.899219000000000E+01      4.776154000000000E-01     -1.649531000000000E+02
4850000000.000000      3.698425000000000E-01      3.879101000000000E+01      4.747925000000000E-01     -1.657109000000000E+02
4851000000.000000      3.720703000000000E-01      3.866211000000000E+01      4.733276000000000E-01     -1.664063000000000E+02
4852000000.000000      3.732605000000000E-01      3.840820000000000E+01      4.707642000000000E-01     -1.671094000000000E+02
4853000000.000000      3.748474000000000E-01      3.822656000000000E+01      4.664612000000000E-01     -1.675781000000000E+02
4854000000.000000      3.756714000000000E-01      3.792187000000000E+01      4.654541000000000E-01     -1.686016000000000E+02
4855000000.000000      3.765869000000000E-01      3.777344000000000E+01      4.643097000000000E-01     -1.691406000000000E+02
4856000000.000000      3.783264000000000E-01      3.745898000000000E+01      4.620819000000000E-01     -1.699453000000000E+02
4857000000.000000      3.793030000000000E-01      3.729297000000000E+01      4.600677000000000E-01     -1.704531000000000E+02
4858000000.000000      3.801270000000000E-01      3.708203000000000E+01      4.568634000000000E-01     -1.712734000000000E+02
4859000000.000000      3.816681000000000E-01      3.674219000000000E+01      4.557190000000000E-01     -1.721719000000000E+02
4860000000.000000      3.824768000000000E-01      3.654882000000000E+01      4.519043000000000E-01     -1.727344000000000E+02
4861000000.000000      3.824768000000000E-01      3.633398000000000E+01      4.492035000000000E-01     -1.734609000000000E+02
4862000000.000000      3.830261000000000E-01      3.606250000000000E+01      4.465179000000000E-01     -1.740469000000000E+02
4863000000.000000      3.856506000000000E-01      3.584179000000000E+01      4.429169000000000E-01     -1.747969000000000E+02
4864000000.000000      3.860474000000000E-01      3.549805000000000E+01      4.410553000000000E-01     -1.750781000000000E+02
4865000000.000000      3.863983000000000E-01      3.525976000000000E+01      4.377594000000000E-01     -1.760234000000000E+02
4866000000.000000      3.872986000000000E-01      3.494531000000000E+01      4.347687000000000E-01     -1.767187000000000E+02
4867000000.000000      3.876495000000000E-01      3.474023000000000E+01      4.316864000000000E-01     -1.774688000000000E+02
4868000000.000000      3.892365000000000E-01      3.463672000000000E+01      4.287109000000000E-01     -1.780781000000000E+02
4869000000.000000      3.907166000000000E-01      3.425390000000000E+01      4.252777000000000E-01     -1.786484000000000E+02
4870000000.000000      3.900299000000000E-01      3.398828000000000E+01      4.222870000000000E-01     -1.792656000000000E+02
4871000000.000000      3.904877000000000E-01      3.375000000000000E+01      4.182434000000000E-01     -1.799375000000000E+02
4872000000.000000      3.918610000000000E-01      3.346484000000000E+01      4.151459000000000E-01      1.797109000000000E+02
4873000000.000000      3.923187000000000E-01      3.325586000000000E+01      4.126892000000000E-01      1.788047000000000E+02
4874000000.000000      3.926239000000000E-01      3.304883000000000E+01      4.096527000000000E-01      1.782266000000000E+02
4875000000.000000      3.929749000000000E-01      3.274219000000000E+01      4.051056000000000E-01      1.777031000000000E+02
4876000000.000000      3.938293000000000E-01      3.260937000000000E+01      4.025726000000000E-01      1.769922000000000E+02
4877000000.000000      3.944244000000000E-01      3.216601000000000E+01      3.976288000000000E-01      1.766172000000000E+02
4878000000.000000      3.936615000000000E-01      3.189550000000000E+01      3.955078000000000E-01      1.760625000000000E+02
4879000000.000000      3.956757000000000E-01      3.173925000000000E+01      3.908386000000000E-01      1.755391000000000E+02
4880000000.000000      3.956909000000000E-01      3.147949000000000E+01      3.880157000000000E-01      1.749609000000000E+02
4881000000.000000      3.955078000000000E-01      3.116406000000000E+01      3.838959000000000E-01      1.746562000000000E+02
4882000000.000000      3.951569000000000E-01      3.100293000000000E+01      3.808594000000000E-01      1.739453000000000E+02
4883000000.000000      3.961945000000000E-01      3.061523000000000E+01      3.771973000000000E-01      1.732422000000000E+02
4884000000.000000      3.972931000000000E-01      3.045117000000000E+01      3.744202000000000E-01      1.728750000000000E+02
4885000000.000000      3.965454000000000E-01      3.021289000000000E+01      3.687134000000000E-01      1.724062000000000E+02
4886000000.000000      3.969879000000000E-01      3.001855000000000E+01      3.665924000000000E-01      1.720078000000000E+02
4887000000.000000      3.956604000000000E-01      2.983301000000000E+01      3.630371000000000E-01      1.715625000000000E+02
4888000000.000000      3.967438000000000E-01      2.937793000000000E+01      3.600616000000000E-01      1.708984000000000E+02
4889000000.000000      3.967896000000000E-01      2.918164000000000E+01      3.565521000000000E-01      1.707422000000000E+02
4890000000.000000      3.966980000000000E-01      2.893164000000000E+01      3.526306000000000E-01      1.699687000000000E+02
4891000000.000000      3.964386000000000E-01      2.873535000000000E+01      3.485870000000000E-01      1.696563000000000E+02
4892000000.000000      3.961334000000000E-01      2.856445000000000E+01      3.462830000000000E-01      1.692188000000000E+02
4893000000.000000      3.977203000000000E-01      2.825098000000000E+01      3.421478000000000E-01      1.686406000000000E+02
4894000000.000000      3.969574000000000E-01      2.806543000000000E+01      3.388824000000000E-01      1.683516000000000E+02
4895000000.000000      3.978729000000000E-01      2.765625000000000E+01      3.359985000000000E-01      1.677266000000000E+02
4896000000.000000      3.965759000000000E-01      2.761523000000000E+01      3.305817000000000E-01      1.674141000000000E+02
4897000000.000000      3.964081000000000E-01      2.741406000000000E+01      3.276062000000000E-01      1.667969000000000E+02
4898000000.000000      3.961182000000000E-01      2.722754000000000E+01      3.251190000000000E-01      1.666797000000000E+02
4899000000.000000      3.968811000000000E-01      2.692871000000000E+01      3.209839000000000E-01      1.661641000000000E+02
4900000000.000000      3.963165000000000E-01      2.664844000000000E+01      3.177795000000000E-01      1.659297000000000E+02
4901000000.000000      3.963013000000000E-01      2.647656000000000E+01      3.144379000000000E-01      1.654766000000000E+02
4902000000.000000      3.956757000000000E-01      2.629492000000000E+01      3.116608000000000E-01      1.651094000000000E+02
4903000000.000000      3.949432000000000E-01      2.621875000000000E+01      3.068237000000000E-01      1.646641000000000E+02
4904000000.000000      3.956146000000000E-01      2.593945000000000E+01      3.035889000000000E-01      1.642734000000000E+02
4905000000.000000      3.958893000000000E-01      2.572363000000000E+01      3.013306000000000E-01      1.637656000000000E+02
4906000000.000000      3.951263000000000E-01      2.545312000000000E+01      2.969818000000000E-01      1.636484000000000E+02
4907000000.000000      3.948822000000000E-01      2.521191000000000E+01      2.937469000000000E-01      1.632031000000000E+02
4908000000.000000      3.948059000000000E-01      2.506445000000000E+01      2.907867000000000E-01      1.625703000000000E+02
4909000000.000000      3.945465000000000E-01      2.495312000000000E+01      2.862549000000000E-01      1.623125000000000E+02
4910000000.000000      3.935547000000000E-01      2.473242000000000E+01      2.827454000000000E-01      1.620000000000000E+02
4911000000.000000      3.940735000000000E-01      2.444433000000000E+01      2.797241000000000E-01      1.616719000000000E+02
4912000000.000000      3.935089000000000E-01      2.437988000000000E+01      2.762146000000000E-01      1.611328000000000E+02
4913000000.000000      3.931885000000000E-01      2.402344000000000E+01      2.733459000000000E-01      1.610234000000000E+02
4914000000.000000      3.935699000000000E-01      2.383399000000000E+01      2.695770000000000E-01      1.607344000000000E+02
4915000000.000000      3.917542000000000E-01      2.374804000000000E+01      2.653351000000000E-01      1.601875000000000E+02
4916000000.000000      3.929901000000000E-01      2.364941000000000E+01      2.622070000000000E-01      1.597656000000000E+02
4917000000.000000      3.919830000000000E-01      2.336719000000000E+01      2.587433000000000E-01      1.596172000000000E+02
4918000000.000000      3.920898000000000E-01      2.327832000000000E+01      2.539215000000000E-01      1.592344000000000E+02
4919000000.000000      3.914948000000000E-01      2.306347000000000E+01      2.513580000000000E-01      1.592813000000000E+02
4920000000.000000      3.915253000000000E-01      2.290722000000000E+01      2.468872000000000E-01      1.588047000000000E+02
4921000000.000000      3.913574000000000E-01      2.272851000000000E+01      2.433853000000000E-01      1.584219000000000E+02
4922000000.000000      3.909760000000000E-01      2.246680000000000E+01      2.388611000000000E-01      1.582734000000000E+02
4923000000.000000      3.917389000000000E-01      2.242383000000000E+01      2.353287000000000E-01      1.580703000000000E+02
4924000000.000000      3.907013000000000E-01      2.214942000000000E+01      2.315750000000000E-01      1.577188000000000E+02
4925000000.000000      3.896637000000000E-01      2.196387000000000E+01      2.276154000000000E-01      1.575234000000000E+02
4926000000.000000      3.904572000000000E-01      2.179199000000000E+01      2.238159000000000E-01      1.573516000000000E+02
4927000000.000000      3.890533000000000E-01      2.166602000000000E+01      2.192688000000000E-01      1.570469000000000E+02
4928000000.000000      3.892517000000000E-01      2.137500000000000E+01      2.164764000000000E-01      1.571172000000000E+02
4929000000.000000      3.894348000000000E-01      2.122949000000000E+01      2.111511000000000E-01      1.570156000000000E+02
4930000000.000000      3.891144000000000E-01      2.127148000000000E+01      2.074814000000000E-01      1.569453000000000E+02
4931000000.000000      3.887939000000000E-01      2.089844000000000E+01      2.042999000000000E-01      1.567109000000000E+02
4932000000.000000      3.895264000000000E-01      2.082812000000000E+01      1.999512000000000E-01      1.568125000000000E+02
4933000000.000000      3.883362000000000E-01      2.058203000000000E+01      1.951904000000000E-01      1.569297000000000E+02
4934000000.000000      3.875122000000000E-01      2.037207000000000E+01      1.916275000000000E-01      1.568516000000000E+02
4935000000.000000      3.886108000000000E-01      2.030371000000000E+01      1.878052000000000E-01      1.570000000000000E+02
4936000000.000000      3.867950000000000E-01      2.004101000000000E+01      1.836166000000000E-01      1.572266000000000E+02
4937000000.000000      3.872375000000000E-01      1.981152000000000E+01      1.795578000000000E-01      1.573672000000000E+02
4938000000.000000      3.867188000000000E-01      1.991113000000000E+01      1.757431000000000E-01      1.574922000000000E+02
4939000000.000000      3.863983000000000E-01      1.961523000000000E+01      1.724243000000000E-01      1.578281000000000E+02
4940000000.000000      3.860321000000000E-01      1.942383000000000E+01      1.685486000000000E-01      1.581719000000000E+02
4941000000.000000      3.860626000000000E-01      1.917773000000000E+01      1.648254000000000E-01      1.586719000000000E+02
4942000000.000000      3.850861000000000E-01      1.915527000000000E+01      1.605988000000000E-01      1.589453000000000E+02
4943000000.000000      3.856964000000000E-01      1.894922000000000E+01      1.573410000000000E-01      1.595312000000000E+02
4944000000.000000      3.855591000000000E-01      1.876953000000000E+01      1.536713000000000E-01      1.600937000000000E+02
4945000000.000000      3.851471000000000E-01      1.855859000000000E+01      1.494064000000000E-01      1.605703000000000E+02
4946000000.000000      3.846893000000000E-01      1.844141000000000E+01      1.462784000000000E-01      1.614219000000000E+02
4947000000.000000      3.843231000000000E-01      1.809082000000000E+01      1.425247000000000E-01      1.622656000000000E+02
4948000000.000000      3.835297000000000E-01      1.812988000000000E+01      1.398926000000000E-01      1.631016000000000E+02
4949000000.000000      3.842773000000000E-01      1.796191000000000E+01      1.369934000000000E-01      1.643281000000000E+02
4950000000.000000      3.829651000000000E-01      1.783887000000000E+01      1.338425000000000E-01      1.651406000000000E+02
4951000000.000000      3.836670000000000E-01      1.758887000000000E+01      1.310196000000000E-01      1.662422000000000E+02
4952000000.000000      3.820953000000000E-01      1.737695000000000E+01      1.278687000000000E-01      1.673594000000000E+02
4953000000.000000      3.821411000000000E-01      1.723535000000000E+01      1.259842000000000E-01      1.687734000000000E+02
4954000000.000000      3.821259000000000E-01      1.716406000000000E+01      1.235008000000000E-01      1.700625000000000E+02
