! Network Analyzer HP8722D
! Hewlett-Packard
! Data name: Linha & Wilkinson
! Saver's name: Rodrigo Anjos
! Comments: Teste da utilização de aquisição
continua pelo VNA HP8722D
! Time and date: 23/5/2025 09:37
!              Frequency                     S11                                                   S21                                                   S12                                                   S22
# HZ  S  MA R 50
4800000000.000000      3.208313000000000E-01      3.648242000000000E+01      4.654388000000000E-01     -1.272109000000000E+02
4801000000.000000      3.219299000000000E-01      3.673828000000000E+01      4.676971000000000E-01     -1.280234000000000E+02
4802000000.000000      3.227692000000000E-01      3.688086000000000E+01      4.695740000000000E-01     -1.287188000000000E+02
4803000000.000000      3.231812000000000E-01      3.702343000000000E+01      4.722443000000000E-01     -1.292891000000000E+02
4804000000.000000      3.243103000000000E-01      3.730078000000000E+01      4.724579000000000E-01     -1.300703000000000E+02
4805000000.000000      3.263397000000000E-01      3.725390000000000E+01      4.733734000000000E-01     -1.308672000000000E+02
4806000000.000000      3.265991000000000E-01      3.747461000000000E+01      4.750671000000000E-01     -1.315234000000000E+02
4807000000.000000      3.268585000000000E-01      3.768359000000000E+01      4.769135000000000E-01     -1.323984000000000E+02
4808000000.000000      3.281097000000000E-01      3.779297000000000E+01      4.775848000000000E-01     -1.329297000000000E+02
4809000000.000000      3.289795000000000E-01      3.807031000000000E+01      4.803314000000000E-01     -1.336562000000000E+02
4810000000.000000      3.306427000000000E-01      3.817383000000000E+01      4.813538000000000E-01     -1.345234000000000E+02
4811000000.000000      3.322296000000000E-01      3.833203000000000E+01      4.809265000000000E-01     -1.354453000000000E+02
4812000000.000000      3.348236000000000E-01      3.846289000000000E+01      4.834747000000000E-01     -1.360312000000000E+02
4813000000.000000      3.348389000000000E-01      3.855078000000000E+01      4.827423000000000E-01     -1.367344000000000E+02
4814000000.000000      3.357849000000000E-01      3.863476000000000E+01      4.850616000000000E-01     -1.374063000000000E+02
4815000000.000000      3.371887000000000E-01      3.872265000000000E+01      4.844360000000000E-01     -1.382500000000000E+02
4816000000.000000      3.393707000000000E-01      3.888867000000000E+01      4.858704000000000E-01     -1.389531000000000E+02
4817000000.000000      3.405914000000000E-01      3.894726000000000E+01      4.848328000000000E-01     -1.397187000000000E+02
4818000000.000000      3.419189000000000E-01      3.895898000000000E+01      4.862518000000000E-01     -1.404375000000000E+02
4819000000.000000      3.440094000000000E-01      3.906836000000000E+01      4.861145000000000E-01     -1.412734000000000E+02
4820000000.000000      3.443756000000000E-01      3.918359000000000E+01      4.861450000000000E-01     -1.416953000000000E+02
4821000000.000000      3.467560000000000E-01      3.921289000000000E+01      4.868622000000000E-01     -1.426641000000000E+02
4822000000.000000      3.476257000000000E-01      3.913867000000000E+01      4.861603000000000E-01     -1.432891000000000E+02
4823000000.000000      3.496094000000000E-01      3.921289000000000E+01      4.876556000000000E-01     -1.440312000000000E+02
4824000000.000000      3.512878000000000E-01      3.933594000000000E+01      4.857635000000000E-01     -1.448672000000000E+02
4825000000.000000      3.532562000000000E-01      3.926562000000000E+01      4.854736000000000E-01     -1.455156000000000E+02
4826000000.000000      3.539734000000000E-01      3.916601000000000E+01      4.868469000000000E-01     -1.463984000000000E+02
4827000000.000000      3.567505000000000E-01      3.926953000000000E+01      4.864960000000000E-01     -1.469063000000000E+02
4828000000.000000      3.586731000000000E-01      3.918359000000000E+01      4.859772000000000E-01     -1.476172000000000E+02
4829000000.000000      3.595886000000000E-01      3.932226000000000E+01      4.853210000000000E-01     -1.484609000000000E+02
4830000000.000000      3.617859000000000E-01      3.908594000000000E+01      4.852142000000000E-01     -1.491562000000000E+02
4831000000.000000      3.630371000000000E-01      3.911328000000000E+01      4.841003000000000E-01     -1.498594000000000E+02
4832000000.000000      3.645630000000000E-01      3.920312000000000E+01      4.835052000000000E-01     -1.506641000000000E+02
4833000000.000000      3.661346000000000E-01      3.890429000000000E+01      4.831390000000000E-01     -1.512969000000000E+02
4834000000.000000      3.678589000000000E-01      3.890625000000000E+01      4.825134000000000E-01     -1.520234000000000E+02
4835000000.000000      3.697510000000000E-01      3.881054000000000E+01      4.815369000000000E-01     -1.526797000000000E+02
4836000000.000000      3.711853000000000E-01      3.880078000000000E+01      4.795685000000000E-01     -1.534609000000000E+02
4837000000.000000      3.727570000000000E-01      3.875781000000000E+01      4.797211000000000E-01     -1.543828000000000E+02
4838000000.000000      3.740692000000000E-01      3.858984000000000E+01      4.797668000000000E-01     -1.548594000000000E+02
4839000000.000000      3.771515000000000E-01      3.856054000000000E+01      4.780884000000000E-01     -1.555938000000000E+02
4840000000.000000      3.785248000000000E-01      3.832422000000000E+01      4.767914000000000E-01     -1.562656000000000E+02
4841000000.000000      3.792725000000000E-01      3.834765000000000E+01      4.759827000000000E-01     -1.569609000000000E+02
4842000000.000000      3.811798000000000E-01      3.816601000000000E+01      4.741364000000000E-01     -1.574844000000000E+02
4843000000.000000      3.833466000000000E-01      3.787890000000000E+01      4.743195000000000E-01     -1.584063000000000E+02
4844000000.000000      3.841095000000000E-01      3.774219000000000E+01      4.716034000000000E-01     -1.590391000000000E+02
4845000000.000000      3.859100000000000E-01      3.770312000000000E+01      4.696350000000000E-01     -1.598516000000000E+02
4846000000.000000      3.877411000000000E-01      3.757421000000000E+01      4.699554000000000E-01     -1.604766000000000E+02
4847000000.000000      3.891296000000000E-01      3.746289000000000E+01      4.688721000000000E-01     -1.610781000000000E+02
4848000000.000000      3.899231000000000E-01      3.728320000000000E+01      4.657898000000000E-01     -1.618047000000000E+02
4849000000.000000      3.912811000000000E-01      3.702539000000000E+01      4.631042000000000E-01     -1.625781000000000E+02
4850000000.000000      3.927917000000000E-01      3.685351000000000E+01      4.615936000000000E-01     -1.634063000000000E+02
4851000000.000000      3.949280000000000E-01      3.669726000000000E+01      4.621887000000000E-01     -1.641719000000000E+02
4852000000.000000      3.955688000000000E-01      3.656250000000000E+01      4.597473000000000E-01     -1.647812000000000E+02
4853000000.000000      3.969574000000000E-01      3.643555000000000E+01      4.553375000000000E-01     -1.655391000000000E+02
4854000000.000000      3.985596000000000E-01      3.608007000000000E+01      4.544525000000000E-01     -1.662969000000000E+02
4855000000.000000      3.989716000000000E-01      3.601171000000000E+01      4.514923000000000E-01     -1.670312000000000E+02
4856000000.000000      4.007263000000000E-01      3.580273000000000E+01      4.511719000000000E-01     -1.677031000000000E+02
4857000000.000000      4.022827000000000E-01      3.566015000000000E+01      4.487915000000000E-01     -1.683906000000000E+02
4858000000.000000      4.029083000000000E-01      3.538281000000000E+01      4.457550000000000E-01     -1.691562000000000E+02
4859000000.000000      4.046478000000000E-01      3.511914000000000E+01      4.436493000000000E-01     -1.699687000000000E+02
4860000000.000000      4.057312000000000E-01      3.502148000000000E+01      4.399719000000000E-01     -1.702734000000000E+02
4861000000.000000      4.056854000000000E-01      3.481250000000000E+01      4.382172000000000E-01     -1.712578000000000E+02
4862000000.000000      4.065704000000000E-01      3.454883000000000E+01      4.371033000000000E-01     -1.718359000000000E+02
4863000000.000000      4.080811000000000E-01      3.435742000000000E+01      4.328308000000000E-01     -1.725625000000000E+02
4864000000.000000      4.091187000000000E-01      3.412304000000000E+01      4.304962000000000E-01     -1.731875000000000E+02
4865000000.000000      4.090271000000000E-01      3.387304000000000E+01      4.270325000000000E-01     -1.736719000000000E+02
4866000000.000000      4.101868000000000E-01      3.360156000000000E+01      4.226990000000000E-01     -1.746719000000000E+02
4867000000.000000      4.109192000000000E-01      3.351758000000000E+01      4.219055000000000E-01     -1.754375000000000E+02
4868000000.000000      4.126434000000000E-01      3.314258000000000E+01      4.188843000000000E-01     -1.758437000000000E+02
4869000000.000000      4.130402000000000E-01      3.301562000000000E+01      4.149017000000000E-01     -1.766172000000000E+02
4870000000.000000      4.141693000000000E-01      3.279882000000000E+01      4.118042000000000E-01     -1.771563000000000E+02
4871000000.000000      4.147034000000000E-01      3.245898000000000E+01      4.091949000000000E-01     -1.779609000000000E+02
4872000000.000000      4.164886000000000E-01      3.230469000000000E+01      4.054718000000000E-01     -1.783828000000000E+02
4873000000.000000      4.152985000000000E-01      3.212500000000000E+01      4.021149000000000E-01     -1.790469000000000E+02
4874000000.000000      4.157104000000000E-01      3.193652000000000E+01      3.979187000000000E-01     -1.796875000000000E+02
4875000000.000000      4.168243000000000E-01      3.159472000000000E+01      3.951874000000000E-01      1.797734000000000E+02
4876000000.000000      4.174194000000000E-01      3.148046000000000E+01      3.925171000000000E-01      1.790703000000000E+02
4877000000.000000      4.183960000000000E-01      3.102246000000000E+01      3.871613000000000E-01      1.784531000000000E+02
4878000000.000000      4.188690000000000E-01      3.087109000000000E+01      3.855438000000000E-01      1.780000000000000E+02
4879000000.000000      4.185944000000000E-01      3.074316000000000E+01      3.807983000000000E-01      1.775625000000000E+02
4880000000.000000      4.193878000000000E-01      3.048340000000000E+01      3.792114000000000E-01      1.770547000000000E+02
4881000000.000000      4.199677000000000E-01      3.026367000000000E+01      3.749390000000000E-01      1.763047000000000E+02
4882000000.000000      4.210052000000000E-01      3.010254000000000E+01      3.726044000000000E-01      1.755156000000000E+02
4883000000.000000      4.201660000000000E-01      2.972070000000000E+01      3.678284000000000E-01      1.751484000000000E+02
4884000000.000000      4.227753000000000E-01      2.964648000000000E+01      3.642731000000000E-01      1.747422000000000E+02
4885000000.000000      4.213715000000000E-01      2.938965000000000E+01      3.608551000000000E-01      1.743515000000000E+02
4886000000.000000      4.215698000000000E-01      2.912988000000000E+01      3.576050000000000E-01      1.739063000000000E+02
4887000000.000000      4.219360000000000E-01      2.894531000000000E+01      3.545532000000000E-01      1.731875000000000E+02
4888000000.000000      4.218292000000000E-01      2.867969000000000E+01      3.509979000000000E-01      1.727344000000000E+02
4889000000.000000      4.220581000000000E-01      2.845019000000000E+01      3.463593000000000E-01      1.724141000000000E+02
4890000000.000000      4.205170000000000E-01      2.819043000000000E+01      3.434296000000000E-01      1.716328000000000E+02
4891000000.000000      4.218292000000000E-01      2.811035000000000E+01      3.394928000000000E-01      1.713906000000000E+02
4892000000.000000      4.221191000000000E-01      2.785937000000000E+01      3.362122000000000E-01      1.712422000000000E+02
4893000000.000000      4.231720000000000E-01      2.757226000000000E+01      3.334045000000000E-01      1.700938000000000E+02
4894000000.000000      4.222870000000000E-01      2.740234000000000E+01      3.292236000000000E-01      1.699297000000000E+02
4895000000.000000      4.232635000000000E-01      2.717187000000000E+01      3.267822000000000E-01      1.697422000000000E+02
4896000000.000000      4.228363000000000E-01      2.691211000000000E+01      3.233490000000000E-01      1.694062000000000E+02
4897000000.000000      4.223480000000000E-01      2.676465000000000E+01      3.195496000000000E-01      1.688203000000000E+02
4898000000.000000      4.215851000000000E-01      2.655859000000000E+01      3.159637000000000E-01      1.684219000000000E+02
4899000000.000000      4.220886000000000E-01      2.627734000000000E+01      3.131714000000000E-01      1.679062000000000E+02
4900000000.000000      4.222260000000000E-01      2.616308000000000E+01      3.093262000000000E-01      1.675625000000000E+02
4901000000.000000      4.227295000000000E-01      2.595508000000000E+01      3.060150000000000E-01      1.671250000000000E+02
4902000000.000000      4.219208000000000E-01      2.582422000000000E+01      3.037415000000000E-01      1.669062000000000E+02
4903000000.000000      4.220581000000000E-01      2.562500000000000E+01      2.985992000000000E-01      1.663516000000000E+02
4904000000.000000      4.213715000000000E-01      2.531347000000000E+01      2.959442000000000E-01      1.660469000000000E+02
4905000000.000000      4.208527000000000E-01      2.518945000000000E+01      2.932281000000000E-01      1.654687000000000E+02
4906000000.000000      4.218140000000000E-01      2.500977000000000E+01      2.904663000000000E-01      1.655469000000000E+02
4907000000.000000      4.209900000000000E-01      2.473633000000000E+01      2.866516000000000E-01      1.647578000000000E+02
4908000000.000000      4.214783000000000E-01      2.459668000000000E+01      2.830963000000000E-01      1.644375000000000E+02
4909000000.000000      4.215851000000000E-01      2.449902000000000E+01      2.794189000000000E-01      1.640312000000000E+02
4910000000.000000      4.201965000000000E-01      2.427148000000000E+01      2.766266000000000E-01      1.638281000000000E+02
4911000000.000000      4.200897000000000E-01      2.409375000000000E+01      2.730865000000000E-01      1.634297000000000E+02
4912000000.000000      4.204407000000000E-01      2.393555000000000E+01      2.698822000000000E-01      1.630312000000000E+02
4913000000.000000      4.212646000000000E-01      2.369141000000000E+01      2.659454000000000E-01      1.626328000000000E+02
4914000000.000000      4.210510000000000E-01      2.346386000000000E+01      2.620087000000000E-01      1.623750000000000E+02
4915000000.000000      4.200439000000000E-01      2.348242000000000E+01      2.584991000000000E-01      1.617422000000000E+02
4916000000.000000      4.193878000000000E-01      2.317285000000000E+01      2.552490000000000E-01      1.616172000000000E+02
4917000000.000000      4.197845000000000E-01      2.313965000000000E+01      2.516022000000000E-01      1.613672000000000E+02
4918000000.000000      4.201202000000000E-01      2.294824000000000E+01      2.476959000000000E-01      1.608750000000000E+02
4919000000.000000      4.181824000000000E-01      2.268457000000000E+01      2.446747000000000E-01      1.608672000000000E+02
4920000000.000000      4.189606000000000E-01      2.251758000000000E+01      2.400589000000000E-01      1.602890000000000E+02
4921000000.000000      4.187622000000000E-01      2.248437000000000E+01      2.369766000000000E-01      1.601563000000000E+02
4922000000.000000      4.190521000000000E-01      2.219727000000000E+01      2.331390000000000E-01      1.599453000000000E+02
4923000000.000000      4.184723000000000E-01      2.213574000000000E+01      2.292633000000000E-01      1.597188000000000E+02
4924000000.000000      4.181976000000000E-01      2.201074000000000E+01      2.258453000000000E-01      1.592109000000000E+02
4925000000.000000      4.173737000000000E-01      2.174805000000000E+01      2.220535000000000E-01      1.592500000000000E+02
4926000000.000000      4.171448000000000E-01      2.150977000000000E+01      2.184601000000000E-01      1.588984000000000E+02
4927000000.000000      4.174652000000000E-01      2.153125000000000E+01      2.137527000000000E-01      1.589062000000000E+02
4928000000.000000      4.183960000000000E-01      2.127148000000000E+01      2.100372000000000E-01      1.584766000000000E+02
4929000000.000000      4.167480000000000E-01      2.093164000000000E+01      2.063828000000000E-01      1.587188000000000E+02
4930000000.000000      4.174805000000000E-01      2.117969000000000E+01      2.025909000000000E-01      1.583594000000000E+02
4931000000.000000      4.167480000000000E-01      2.077832000000000E+01      1.988144000000000E-01      1.584687000000000E+02
4932000000.000000      4.169769000000000E-01      2.078418000000000E+01      1.946411000000000E-01      1.583594000000000E+02
4933000000.000000      4.164124000000000E-01      2.044238000000000E+01      1.903763000000000E-01      1.584766000000000E+02
4934000000.000000      4.165497000000000E-01      2.035840000000000E+01      1.868439000000000E-01      1.584766000000000E+02
4935000000.000000      4.166107000000000E-01      2.022168000000000E+01      1.836090000000000E-01      1.585156000000000E+02
4936000000.000000      4.156342000000000E-01      1.989453000000000E+01      1.793137000000000E-01      1.585625000000000E+02
4937000000.000000      4.160461000000000E-01      1.975390000000000E+01      1.754684000000000E-01      1.586016000000000E+02
4938000000.000000      4.151764000000000E-01      1.969434000000000E+01      1.717758000000000E-01      1.589609000000000E+02
4939000000.000000      4.160767000000000E-01      1.969922000000000E+01      1.678925000000000E-01      1.594453000000000E+02
4940000000.000000      4.154816000000000E-01      1.939746000000000E+01      1.640930000000000E-01      1.595000000000000E+02
4941000000.000000      4.155121000000000E-01      1.920410000000000E+01      1.601791000000000E-01      1.600312000000000E+02
4942000000.000000      4.132538000000000E-01      1.908984000000000E+01      1.567230000000000E-01      1.603984000000000E+02
4943000000.000000      4.140167000000000E-01      1.894140000000000E+01      1.531982000000000E-01      1.609141000000000E+02
4944000000.000000      4.131470000000000E-01      1.870508000000000E+01      1.499329000000000E-01      1.615078000000000E+02
4945000000.000000      4.136200000000000E-01      1.854492000000000E+01      1.458588000000000E-01      1.618515000000000E+02
4946000000.000000      4.139709000000000E-01      1.838086000000000E+01      1.424789000000000E-01      1.627500000000000E+02
4947000000.000000      4.130554000000000E-01      1.824219000000000E+01      1.392746000000000E-01      1.636016000000000E+02
4948000000.000000      4.133759000000000E-01      1.830664000000000E+01      1.368103000000000E-01      1.642891000000000E+02
4949000000.000000      4.119415000000000E-01      1.798828000000000E+01      1.335068000000000E-01      1.653828000000000E+02
4950000000.000000      4.129028000000000E-01      1.787402000000000E+01      1.302185000000000E-01      1.663750000000000E+02
4951000000.000000      4.127808000000000E-01      1.771484000000000E+01      1.277084000000000E-01      1.671641000000000E+02
4952000000.000000      4.112396000000000E-01      1.747070000000000E+01      1.245956000000000E-01      1.686719000000000E+02
4953000000.000000      4.120331000000000E-01      1.733008000000000E+01      1.223259000000000E-01      1.699062000000000E+02
4954000000.000000      4.122314000000000E-01      1.727246000000000E+01      1.200562000000000E-01      1.712188000000000E+02
