! Network Analyzer HP8722D
! Hewlett-Packard
! Data name: Linha & Wilkinson
! Saver's name: Rodrigo Anjos
! Comments: Teste da utilização de aquisição
continua pelo VNA HP8722D
! Time and date: 23/5/2025 12:15
!              Frequency                     S11                                                   S21                                                   S12                                                   S22
# HZ  S  MA R 50
4800000000.000000      2.986145000000000E-01      3.855078000000000E+01      4.788666000000000E-01     -1.290000000000000E+02
4801000000.000000      2.991943000000000E-01      3.891797000000000E+01      4.797363000000000E-01     -1.295781000000000E+02
4802000000.000000      3.006592000000000E-01      3.900976000000000E+01      4.810638000000000E-01     -1.302969000000000E+02
4803000000.000000      3.009949000000000E-01      3.916601000000000E+01      4.834137000000000E-01     -1.308203000000000E+02
4804000000.000000      3.024597000000000E-01      3.945703000000000E+01      4.834137000000000E-01     -1.316484000000000E+02
4805000000.000000      3.047333000000000E-01      3.955469000000000E+01      4.853973000000000E-01     -1.325391000000000E+02
4806000000.000000      3.056183000000000E-01      3.971680000000000E+01      4.878693000000000E-01     -1.331875000000000E+02
4807000000.000000      3.068542000000000E-01      3.983789000000000E+01      4.882355000000000E-01     -1.340234000000000E+02
4808000000.000000      3.074493000000000E-01      4.007813000000000E+01      4.897919000000000E-01     -1.345859000000000E+02
4809000000.000000      3.090363000000000E-01      4.031446000000000E+01      4.917145000000000E-01     -1.355000000000000E+02
4810000000.000000      3.103485000000000E-01      4.040625000000000E+01      4.929657000000000E-01     -1.361797000000000E+02
4811000000.000000      3.124390000000000E-01      4.058203000000000E+01      4.938812000000000E-01     -1.370078000000000E+02
4812000000.000000      3.139648000000000E-01      4.077344000000000E+01      4.955292000000000E-01     -1.375859000000000E+02
4813000000.000000      3.147278000000000E-01      4.094140000000000E+01      4.957275000000000E-01     -1.382891000000000E+02
4814000000.000000      3.156738000000000E-01      4.099999000000000E+01      4.964752000000000E-01     -1.389453000000000E+02
4815000000.000000      3.174896000000000E-01      4.103516000000000E+01      4.967651000000000E-01     -1.397266000000000E+02
4816000000.000000      3.197021000000000E-01      4.107031000000000E+01      4.983978000000000E-01     -1.405625000000000E+02
4817000000.000000      3.208466000000000E-01      4.122460000000000E+01      4.976959000000000E-01     -1.412031000000000E+02
4818000000.000000      3.224945000000000E-01      4.121484000000000E+01      4.976501000000000E-01     -1.420859000000000E+02
4819000000.000000      3.245697000000000E-01      4.125196000000000E+01      4.977875000000000E-01     -1.427266000000000E+02
4820000000.000000      3.251801000000000E-01      4.136328000000000E+01      4.982758000000000E-01     -1.432656000000000E+02
4821000000.000000      3.282166000000000E-01      4.146484000000000E+01      4.997406000000000E-01     -1.442109000000000E+02
4822000000.000000      3.290253000000000E-01      4.133008000000000E+01      4.971924000000000E-01     -1.448672000000000E+02
4823000000.000000      3.313904000000000E-01      4.135351000000000E+01      5.007935000000000E-01     -1.455859000000000E+02
4824000000.000000      3.332672000000000E-01      4.154687000000000E+01      4.991302000000000E-01     -1.464922000000000E+02
4825000000.000000      3.346405000000000E-01      4.137891000000000E+01      4.984131000000000E-01     -1.472188000000000E+02
4826000000.000000      3.361053000000000E-01      4.128515000000000E+01      4.983521000000000E-01     -1.479844000000000E+02
4827000000.000000      3.383179000000000E-01      4.132617000000000E+01      4.975433000000000E-01     -1.485312000000000E+02
4828000000.000000      3.404236000000000E-01      4.130273000000000E+01      4.978027000000000E-01     -1.493125000000000E+02
4829000000.000000      3.418884000000000E-01      4.138085000000000E+01      4.980621000000000E-01     -1.499844000000000E+02
4830000000.000000      3.434143000000000E-01      4.117773000000000E+01      4.976654000000000E-01     -1.509219000000000E+02
4831000000.000000      3.454285000000000E-01      4.116796000000000E+01      4.971924000000000E-01     -1.515000000000000E+02
4832000000.000000      3.467560000000000E-01      4.114843000000000E+01      4.957581000000000E-01     -1.520937000000000E+02
4833000000.000000      3.482971000000000E-01      4.097461000000000E+01      4.941864000000000E-01     -1.527891000000000E+02
4834000000.000000      3.503113000000000E-01      4.092578000000000E+01      4.942627000000000E-01     -1.536016000000000E+02
4835000000.000000      3.526764000000000E-01      4.072461000000000E+01      4.931030000000000E-01     -1.542969000000000E+02
4836000000.000000      3.541260000000000E-01      4.069140000000000E+01      4.914551000000000E-01     -1.549844000000000E+02
4837000000.000000      3.555298000000000E-01      4.066015000000000E+01      4.898529000000000E-01     -1.558594000000000E+02
4838000000.000000      3.569336000000000E-01      4.041406000000000E+01      4.898376000000000E-01     -1.565156000000000E+02
4839000000.000000      3.598633000000000E-01      4.035546000000000E+01      4.891205000000000E-01     -1.570703000000000E+02
4840000000.000000      3.607941000000000E-01      4.014844000000000E+01      4.876556000000000E-01     -1.577891000000000E+02
4841000000.000000      3.624268000000000E-01      4.005664000000000E+01      4.883270000000000E-01     -1.586484000000000E+02
4842000000.000000      3.640747000000000E-01      3.985742000000000E+01      4.852142000000000E-01     -1.594453000000000E+02
4843000000.000000      3.659363000000000E-01      3.960156000000000E+01      4.852448000000000E-01     -1.601250000000000E+02
4844000000.000000      3.674011000000000E-01      3.944336000000000E+01      4.837494000000000E-01     -1.608672000000000E+02
4845000000.000000      3.689270000000000E-01      3.938867000000000E+01      4.815216000000000E-01     -1.613594000000000E+02
4846000000.000000      3.705750000000000E-01      3.922266000000000E+01      4.803772000000000E-01     -1.619922000000000E+02
4847000000.000000      3.725128000000000E-01      3.902929000000000E+01      4.785614000000000E-01     -1.628438000000000E+02
4848000000.000000      3.726959000000000E-01      3.881836000000000E+01      4.764404000000000E-01     -1.635078000000000E+02
4849000000.000000      3.749847000000000E-01      3.856445000000000E+01      4.741669000000000E-01     -1.642812000000000E+02
4850000000.000000      3.757324000000000E-01      3.842968000000000E+01      4.722290000000000E-01     -1.648750000000000E+02
4851000000.000000      3.774567000000000E-01      3.833398000000000E+01      4.714355000000000E-01     -1.656953000000000E+02
4852000000.000000      3.780975000000000E-01      3.807031000000000E+01      4.685211000000000E-01     -1.663672000000000E+02
4853000000.000000      3.802795000000000E-01      3.775586000000000E+01      4.654846000000000E-01     -1.670703000000000E+02
4854000000.000000      3.814087000000000E-01      3.759961000000000E+01      4.636993000000000E-01     -1.678828000000000E+02
4855000000.000000      3.822021000000000E-01      3.746289000000000E+01      4.629517000000000E-01     -1.686406000000000E+02
4856000000.000000      3.827515000000000E-01      3.714062000000000E+01      4.605255000000000E-01     -1.693125000000000E+02
4857000000.000000      3.849182000000000E-01      3.704883000000000E+01      4.581757000000000E-01     -1.697344000000000E+02
4858000000.000000      3.856354000000000E-01      3.665234000000000E+01      4.550323000000000E-01     -1.704922000000000E+02
4859000000.000000      3.866577000000000E-01      3.637109000000000E+01      4.525452000000000E-01     -1.712578000000000E+02
4860000000.000000      3.874512000000000E-01      3.627930000000000E+01      4.501648000000000E-01     -1.719609000000000E+02
4861000000.000000      3.890381000000000E-01      3.602930000000000E+01      4.478149000000000E-01     -1.727813000000000E+02
4862000000.000000      3.893127000000000E-01      3.580664000000000E+01      4.463959000000000E-01     -1.732656000000000E+02
4863000000.000000      3.907776000000000E-01      3.556641000000000E+01      4.421234000000000E-01     -1.740937000000000E+02
4864000000.000000      3.921509000000000E-01      3.527344000000000E+01      4.392853000000000E-01     -1.742891000000000E+02
4865000000.000000      3.921204000000000E-01      3.504883000000000E+01      4.360046000000000E-01     -1.753203000000000E+02
4866000000.000000      3.931885000000000E-01      3.482812000000000E+01      4.337616000000000E-01     -1.759922000000000E+02
4867000000.000000      3.936005000000000E-01      3.441015000000000E+01      4.312439000000000E-01     -1.767578000000000E+02
4868000000.000000      3.950958000000000E-01      3.426172000000000E+01      4.280701000000000E-01     -1.773672000000000E+02
4869000000.000000      3.955994000000000E-01      3.407031000000000E+01      4.248199000000000E-01     -1.779922000000000E+02
4870000000.000000      3.962402000000000E-01      3.382813000000000E+01      4.217377000000000E-01     -1.785625000000000E+02
4871000000.000000      3.963928000000000E-01      3.357422000000000E+01      4.192200000000000E-01     -1.792344000000000E+02
4872000000.000000      3.976135000000000E-01      3.325000000000000E+01      4.151611000000000E-01     -1.797656000000000E+02
4873000000.000000      3.988495000000000E-01      3.309570000000000E+01      4.117432000000000E-01      1.793437000000000E+02
4874000000.000000      3.987732000000000E-01      3.283008000000000E+01      4.089355000000000E-01      1.788750000000000E+02
4875000000.000000      3.987579000000000E-01      3.240625000000000E+01      4.040833000000000E-01      1.782812000000000E+02
4876000000.000000      4.002991000000000E-01      3.235156000000000E+01      4.020844000000000E-01      1.777187000000000E+02
4877000000.000000      4.006653000000000E-01      3.196191000000000E+01      3.984680000000000E-01      1.771172000000000E+02
4878000000.000000      4.001465000000000E-01      3.172363000000000E+01      3.951874000000000E-01      1.766875000000000E+02
4879000000.000000      4.011688000000000E-01      3.153125000000000E+01      3.896179000000000E-01      1.761953000000000E+02
4880000000.000000      4.021759000000000E-01      3.120996000000000E+01      3.883514000000000E-01      1.755156000000000E+02
4881000000.000000      4.020386000000000E-01      3.107812000000000E+01      3.843079000000000E-01      1.752109000000000E+02
4882000000.000000      4.018097000000000E-01      3.088086000000000E+01      3.822632000000000E-01      1.743594000000000E+02
4883000000.000000      4.028778000000000E-01      3.052246000000000E+01      3.767090000000000E-01      1.738516000000000E+02
4884000000.000000      4.028931000000000E-01      3.031445000000000E+01      3.736877000000000E-01      1.735469000000000E+02
4885000000.000000      4.032135000000000E-01      3.010742000000000E+01      3.694000000000000E-01      1.730859000000000E+02
4886000000.000000      4.031982000000000E-01      2.992383000000000E+01      3.654022000000000E-01      1.724688000000000E+02
4887000000.000000      4.039307000000000E-01      2.960449000000000E+01      3.637695000000000E-01      1.722500000000000E+02
4888000000.000000      4.028015000000000E-01      2.929688000000000E+01      3.596802000000000E-01      1.714687000000000E+02
4889000000.000000      4.037476000000000E-01      2.910742000000000E+01      3.564148000000000E-01      1.710078000000000E+02
4890000000.000000      4.022827000000000E-01      2.883984000000000E+01      3.531189000000000E-01      1.702734000000000E+02
4891000000.000000      4.030762000000000E-01      2.871387000000000E+01      3.490448000000000E-01      1.701015000000000E+02
4892000000.000000      4.029541000000000E-01      2.843652000000000E+01      3.465118000000000E-01      1.696953000000000E+02
4893000000.000000      4.036713000000000E-01      2.812207000000000E+01      3.404083000000000E-01      1.691875000000000E+02
4894000000.000000      4.028931000000000E-01      2.792578000000000E+01      3.375244000000000E-01      1.687109000000000E+02
4895000000.000000      4.036713000000000E-01      2.776367000000000E+01      3.349304000000000E-01      1.682656000000000E+02
4896000000.000000      4.041595000000000E-01      2.749316000000000E+01      3.309479000000000E-01      1.679062000000000E+02
4897000000.000000      4.031067000000000E-01      2.741894000000000E+01      3.276367000000000E-01      1.675547000000000E+02
4898000000.000000      4.025726000000000E-01      2.714941000000000E+01      3.243561000000000E-01      1.672109000000000E+02
4899000000.000000      4.031677000000000E-01      2.692578000000000E+01      3.208466000000000E-01      1.665937000000000E+02
4900000000.000000      4.025726000000000E-01      2.662109000000000E+01      3.174133000000000E-01      1.662266000000000E+02
4901000000.000000      4.027405000000000E-01      2.648242000000000E+01      3.144989000000000E-01      1.659922000000000E+02
4902000000.000000      4.025421000000000E-01      2.615137000000000E+01      3.115845000000000E-01      1.656719000000000E+02
4903000000.000000      4.030457000000000E-01      2.613086000000000E+01      3.062134000000000E-01      1.650469000000000E+02
4904000000.000000      4.023132000000000E-01      2.583984000000000E+01      3.033142000000000E-01      1.647109000000000E+02
4905000000.000000      4.014435000000000E-01      2.569140000000000E+01      3.008728000000000E-01      1.641719000000000E+02
4906000000.000000      4.012756000000000E-01      2.545996000000000E+01      2.975616000000000E-01      1.641953000000000E+02
4907000000.000000      4.021301000000000E-01      2.518164000000000E+01      2.948608000000000E-01      1.634766000000000E+02
4908000000.000000      4.019775000000000E-01      2.499023000000000E+01      2.915802000000000E-01      1.629219000000000E+02
4909000000.000000      4.018250000000000E-01      2.489062000000000E+01      2.874908000000000E-01      1.626328000000000E+02
4910000000.000000      4.002075000000000E-01      2.470410000000000E+01      2.832947000000000E-01      1.623281000000000E+02
4911000000.000000      4.012299000000000E-01      2.445801000000000E+01      2.801666000000000E-01      1.620703000000000E+02
4912000000.000000      4.008179000000000E-01      2.435742000000000E+01      2.769165000000000E-01      1.616719000000000E+02
4913000000.000000      4.010925000000000E-01      2.425293000000000E+01      2.739258000000000E-01      1.612266000000000E+02
4914000000.000000      4.004211000000000E-01      2.382617000000000E+01      2.694244000000000E-01      1.609375000000000E+02
4915000000.000000      4.007263000000000E-01      2.380664000000000E+01      2.658539000000000E-01      1.604141000000000E+02
4916000000.000000      4.005737000000000E-01      2.346386000000000E+01      2.621613000000000E-01      1.601953000000000E+02
4917000000.000000      3.998871000000000E-01      2.354199000000000E+01      2.584991000000000E-01      1.600469000000000E+02
4918000000.000000      4.002991000000000E-01      2.327246000000000E+01      2.545929000000000E-01      1.595156000000000E+02
4919000000.000000      3.986816000000000E-01      2.301856000000000E+01      2.516937000000000E-01      1.595156000000000E+02
4920000000.000000      3.992920000000000E-01      2.288769000000000E+01      2.469711000000000E-01      1.588984000000000E+02
4921000000.000000      3.978577000000000E-01      2.290722000000000E+01      2.443161000000000E-01      1.587812000000000E+02
4922000000.000000      3.983612000000000E-01      2.264941000000000E+01      2.400742000000000E-01      1.586172000000000E+02
4923000000.000000      3.982697000000000E-01      2.248828000000000E+01      2.359161000000000E-01      1.583203000000000E+02
4924000000.000000      3.985291000000000E-01      2.228418000000000E+01      2.316895000000000E-01      1.578438000000000E+02
4925000000.000000      3.975525000000000E-01      2.204199000000000E+01      2.276611000000000E-01      1.576641000000000E+02
4926000000.000000      3.974762000000000E-01      2.182617000000000E+01      2.241898000000000E-01      1.575391000000000E+02
4927000000.000000      3.981323000000000E-01      2.162304000000000E+01      2.197495000000000E-01      1.573750000000000E+02
4928000000.000000      3.980255000000000E-01      2.141699000000000E+01      2.162857000000000E-01      1.572578000000000E+02
4929000000.000000      3.959961000000000E-01      2.127734000000000E+01      2.124710000000000E-01      1.570156000000000E+02
4930000000.000000      3.966217000000000E-01      2.117969000000000E+01      2.084351000000000E-01      1.568438000000000E+02
4931000000.000000      3.955536000000000E-01      2.089844000000000E+01      2.049026000000000E-01      1.570313000000000E+02
4932000000.000000      3.956146000000000E-01      2.079980000000000E+01      2.002869000000000E-01      1.568047000000000E+02
4933000000.000000      3.954773000000000E-01      2.066992000000000E+01      1.954727000000000E-01      1.570937000000000E+02
4934000000.000000      3.961334000000000E-01      2.040820000000000E+01      1.917114000000000E-01      1.570625000000000E+02
4935000000.000000      3.959351000000000E-01      2.031641000000000E+01      1.888657000000000E-01      1.572422000000000E+02
4936000000.000000      3.952637000000000E-01      2.020996000000000E+01      1.842117000000000E-01      1.572266000000000E+02
4937000000.000000      3.940430000000000E-01      1.984082000000000E+01      1.802216000000000E-01      1.573594000000000E+02
4938000000.000000      3.945770000000000E-01      1.984668000000000E+01      1.770096000000000E-01      1.575703000000000E+02
4939000000.000000      3.937988000000000E-01      1.964746000000000E+01      1.727142000000000E-01      1.579297000000000E+02
4940000000.000000      3.940735000000000E-01      1.944433000000000E+01      1.685181000000000E-01      1.579687000000000E+02
4941000000.000000      3.938904000000000E-01      1.931250000000000E+01      1.650772000000000E-01      1.584609000000000E+02
4942000000.000000      3.941803000000000E-01      1.931250000000000E+01      1.610336000000000E-01      1.587188000000000E+02
4943000000.000000      3.932953000000000E-01      1.899609000000000E+01      1.578674000000000E-01      1.593906000000000E+02
4944000000.000000      3.934937000000000E-01      1.902832000000000E+01      1.538773000000000E-01      1.599062000000000E+02
4945000000.000000      3.923645000000000E-01      1.874902000000000E+01      1.503525000000000E-01      1.603906000000000E+02
4946000000.000000      3.936310000000000E-01      1.858887000000000E+01      1.469955000000000E-01      1.610937000000000E+02
4947000000.000000      3.926086000000000E-01      1.842187000000000E+01      1.434097000000000E-01      1.619453000000000E+02
4948000000.000000      3.919067000000000E-01      1.827832000000000E+01      1.402283000000000E-01      1.628125000000000E+02
4949000000.000000      3.914642000000000E-01      1.799414000000000E+01      1.373215000000000E-01      1.638672000000000E+02
4950000000.000000      3.917389000000000E-01      1.791992000000000E+01      1.338043000000000E-01      1.645547000000000E+02
4951000000.000000      3.915558000000000E-01      1.764746000000000E+01      1.313324000000000E-01      1.656250000000000E+02
4952000000.000000      3.912354000000000E-01      1.759668000000000E+01      1.283798000000000E-01      1.668906000000000E+02
4953000000.000000      3.908386000000000E-01      1.740039000000000E+01      1.259460000000000E-01      1.683984000000000E+02
4954000000.000000      3.908539000000000E-01      1.722656000000000E+01      1.237717000000000E-01      1.697656000000000E+02
