! Network Analyzer HP8722D
! Hewlett-Packard
! Data name: Linha & Wilkinson
! Saver's name: Rodrigo Anjos
! Comments: Teste da utilização de aquisição
continua pelo VNA HP8722D
! Time and date: 23/5/2025 09:29
!              Frequency                     S11                                                   S21                                                   S12                                                   S22
# HZ  S  MA R 50
4800000000.000000      3.248444000000000E-01      3.602930000000000E+01      4.624023000000000E-01     -1.269570000000000E+02
4801000000.000000      3.254852000000000E-01      3.632031000000000E+01      4.664764000000000E-01     -1.275742000000000E+02
4802000000.000000      3.264160000000000E-01      3.647851000000000E+01      4.662323000000000E-01     -1.283828000000000E+02
4803000000.000000      3.273163000000000E-01      3.654882000000000E+01      4.694366000000000E-01     -1.288672000000000E+02
4804000000.000000      3.278656000000000E-01      3.683984000000000E+01      4.692688000000000E-01     -1.297734000000000E+02
4805000000.000000      3.297729000000000E-01      3.692187000000000E+01      4.719696000000000E-01     -1.304609000000000E+02
4806000000.000000      3.303375000000000E-01      3.707422000000000E+01      4.743195000000000E-01     -1.312266000000000E+02
4807000000.000000      3.310547000000000E-01      3.731054000000000E+01      4.732971000000000E-01     -1.320391000000000E+02
4808000000.000000      3.315887000000000E-01      3.740820000000000E+01      4.757996000000000E-01     -1.325391000000000E+02
4809000000.000000      3.331604000000000E-01      3.770703000000000E+01      4.770508000000000E-01     -1.333984000000000E+02
4810000000.000000      3.347626000000000E-01      3.773633000000000E+01      4.790192000000000E-01     -1.340937000000000E+02
4811000000.000000      3.360443000000000E-01      3.784961000000000E+01      4.785004000000000E-01     -1.348984000000000E+02
4812000000.000000      3.382721000000000E-01      3.806250000000000E+01      4.797821000000000E-01     -1.356016000000000E+02
4813000000.000000      3.386230000000000E-01      3.823828000000000E+01      4.805450000000000E-01     -1.363594000000000E+02
4814000000.000000      3.396759000000000E-01      3.820898000000000E+01      4.820099000000000E-01     -1.370391000000000E+02
4815000000.000000      3.411255000000000E-01      3.841015000000000E+01      4.830627000000000E-01     -1.378203000000000E+02
4816000000.000000      3.433380000000000E-01      3.848828000000000E+01      4.832611000000000E-01     -1.383906000000000E+02
4817000000.000000      3.439178000000000E-01      3.863867000000000E+01      4.834290000000000E-01     -1.392344000000000E+02
4818000000.000000      3.455658000000000E-01      3.853125000000000E+01      4.833832000000000E-01     -1.400625000000000E+02
4819000000.000000      3.475952000000000E-01      3.870117000000000E+01      4.842377000000000E-01     -1.408672000000000E+02
4820000000.000000      3.479156000000000E-01      3.874218000000000E+01      4.834442000000000E-01     -1.413203000000000E+02
4821000000.000000      3.505707000000000E-01      3.882226000000000E+01      4.846344000000000E-01     -1.420859000000000E+02
4822000000.000000      3.513031000000000E-01      3.873047000000000E+01      4.826202000000000E-01     -1.430625000000000E+02
4823000000.000000      3.531342000000000E-01      3.871484000000000E+01      4.842682000000000E-01     -1.435156000000000E+02
4824000000.000000      3.548584000000000E-01      3.894140000000000E+01      4.831696000000000E-01     -1.445234000000000E+02
4825000000.000000      3.570557000000000E-01      3.885742000000000E+01      4.833527000000000E-01     -1.451406000000000E+02
4826000000.000000      3.578644000000000E-01      3.880468000000000E+01      4.839478000000000E-01     -1.458672000000000E+02
4827000000.000000      3.596344000000000E-01      3.880859000000000E+01      4.840546000000000E-01     -1.465625000000000E+02
4828000000.000000      3.619385000000000E-01      3.883008000000000E+01      4.840698000000000E-01     -1.472891000000000E+02
4829000000.000000      3.637085000000000E-01      3.894726000000000E+01      4.818878000000000E-01     -1.481172000000000E+02
4830000000.000000      3.645935000000000E-01      3.879687000000000E+01      4.816132000000000E-01     -1.487813000000000E+02
4831000000.000000      3.662262000000000E-01      3.870898000000000E+01      4.804688000000000E-01     -1.494922000000000E+02
4832000000.000000      3.679657000000000E-01      3.878320000000000E+01      4.811554000000000E-01     -1.501172000000000E+02
4833000000.000000      3.690186000000000E-01      3.861133000000000E+01      4.803009000000000E-01     -1.508672000000000E+02
4834000000.000000      3.713074000000000E-01      3.847851000000000E+01      4.798431000000000E-01     -1.516562000000000E+02
4835000000.000000      3.730164000000000E-01      3.850390000000000E+01      4.795685000000000E-01     -1.523984000000000E+02
4836000000.000000      3.745880000000000E-01      3.848633000000000E+01      4.768829000000000E-01     -1.529219000000000E+02
4837000000.000000      3.761902000000000E-01      3.837500000000000E+01      4.763184000000000E-01     -1.539531000000000E+02
4838000000.000000      3.774719000000000E-01      3.823242000000000E+01      4.759064000000000E-01     -1.544375000000000E+02
4839000000.000000      3.806915000000000E-01      3.823242000000000E+01      4.755554000000000E-01     -1.551563000000000E+02
4840000000.000000      3.807983000000000E-01      3.796289000000000E+01      4.753113000000000E-01     -1.559062000000000E+02
4841000000.000000      3.832855000000000E-01      3.794336000000000E+01      4.732513000000000E-01     -1.565938000000000E+02
4842000000.000000      3.838348000000000E-01      3.788476000000000E+01      4.718323000000000E-01     -1.574609000000000E+02
4843000000.000000      3.866882000000000E-01      3.752148000000000E+01      4.706879000000000E-01     -1.581719000000000E+02
4844000000.000000      3.874969000000000E-01      3.752734000000000E+01      4.691162000000000E-01     -1.587734000000000E+02
4845000000.000000      3.886414000000000E-01      3.748828000000000E+01      4.669342000000000E-01     -1.594453000000000E+02
4846000000.000000      3.912964000000000E-01      3.725976000000000E+01      4.659576000000000E-01     -1.602890000000000E+02
4847000000.000000      3.925476000000000E-01      3.719141000000000E+01      4.650726000000000E-01     -1.610234000000000E+02
4848000000.000000      3.930359000000000E-01      3.700586000000000E+01      4.618378000000000E-01     -1.616016000000000E+02
4849000000.000000      3.945770000000000E-01      3.676367000000000E+01      4.612885000000000E-01     -1.622578000000000E+02
4850000000.000000      3.959198000000000E-01      3.663476000000000E+01      4.592133000000000E-01     -1.630391000000000E+02
4851000000.000000      3.973083000000000E-01      3.654687000000000E+01      4.598541000000000E-01     -1.639141000000000E+02
4852000000.000000      3.987274000000000E-01      3.632031000000000E+01      4.555206000000000E-01     -1.644297000000000E+02
4853000000.000000      3.997498000000000E-01      3.606054000000000E+01      4.537811000000000E-01     -1.651406000000000E+02
4854000000.000000      4.013214000000000E-01      3.585938000000000E+01      4.512329000000000E-01     -1.659531000000000E+02
4855000000.000000      4.023132000000000E-01      3.579492000000000E+01      4.506226000000000E-01     -1.665703000000000E+02
4856000000.000000      4.042053000000000E-01      3.552148000000000E+01      4.479523000000000E-01     -1.672500000000000E+02
4857000000.000000      4.051056000000000E-01      3.546875000000000E+01      4.459839000000000E-01     -1.681172000000000E+02
4858000000.000000      4.063110000000000E-01      3.521093000000000E+01      4.444122000000000E-01     -1.687187000000000E+02
4859000000.000000      4.069977000000000E-01      3.490039000000000E+01      4.420471000000000E-01     -1.694219000000000E+02
4860000000.000000      4.078827000000000E-01      3.485156000000000E+01      4.390259000000000E-01     -1.701797000000000E+02
4861000000.000000      4.089355000000000E-01      3.462305000000000E+01      4.359589000000000E-01     -1.708516000000000E+02
4862000000.000000      4.102020000000000E-01      3.435937000000000E+01      4.342499000000000E-01     -1.715391000000000E+02
4863000000.000000      4.114532000000000E-01      3.417969000000000E+01      4.299774000000000E-01     -1.724062000000000E+02
4864000000.000000      4.127808000000000E-01      3.387695000000000E+01      4.307556000000000E-01     -1.728047000000000E+02
4865000000.000000      4.126282000000000E-01      3.359961000000000E+01      4.248352000000000E-01     -1.733984000000000E+02
4866000000.000000      4.137573000000000E-01      3.339062000000000E+01      4.210205000000000E-01     -1.743047000000000E+02
4867000000.000000      4.147034000000000E-01      3.320313000000000E+01      4.180298000000000E-01     -1.748750000000000E+02
4868000000.000000      4.158325000000000E-01      3.289063000000000E+01      4.170685000000000E-01     -1.758047000000000E+02
4869000000.000000      4.158936000000000E-01      3.283008000000000E+01      4.127045000000000E-01     -1.763125000000000E+02
4870000000.000000      4.182129000000000E-01      3.261523000000000E+01      4.104919000000000E-01     -1.765938000000000E+02
4871000000.000000      4.172821000000000E-01      3.229687000000000E+01      4.081421000000000E-01     -1.776172000000000E+02
4872000000.000000      4.193115000000000E-01      3.214062000000000E+01      4.028778000000000E-01     -1.781094000000000E+02
4873000000.000000      4.184418000000000E-01      3.190527000000000E+01      4.000854000000000E-01     -1.787188000000000E+02
4874000000.000000      4.200439000000000E-01      3.175390000000000E+01      3.962402000000000E-01     -1.796094000000000E+02
4875000000.000000      4.200134000000000E-01      3.135742000000000E+01      3.930511000000000E-01     -1.798359000000000E+02
4876000000.000000      4.208679000000000E-01      3.126660000000000E+01      3.911896000000000E-01      1.794375000000000E+02
4877000000.000000      4.222870000000000E-01      3.087402000000000E+01      3.878021000000000E-01      1.787969000000000E+02
4878000000.000000      4.212036000000000E-01      3.082715000000000E+01      3.836060000000000E-01      1.781953000000000E+02
4879000000.000000      4.231567000000000E-01      3.052929000000000E+01      3.795624000000000E-01      1.779609000000000E+02
4880000000.000000      4.237366000000000E-01      3.022461000000000E+01      3.758850000000000E-01      1.772891000000000E+02
4881000000.000000      4.228058000000000E-01      3.011133000000000E+01      3.743286000000000E-01      1.767031000000000E+02
4882000000.000000      4.241791000000000E-01      2.996582000000000E+01      3.700256000000000E-01      1.760937000000000E+02
4883000000.000000      4.233246000000000E-01      2.965527000000000E+01      3.667603000000000E-01      1.755234000000000E+02
4884000000.000000      4.253540000000000E-01      2.947754000000000E+01      3.619537000000000E-01      1.749844000000000E+02
4885000000.000000      4.246826000000000E-01      2.921582000000000E+01      3.608246000000000E-01      1.745781000000000E+02
4886000000.000000      4.254303000000000E-01      2.910742000000000E+01      3.552399000000000E-01      1.742656000000000E+02
4887000000.000000      4.243622000000000E-01      2.877930000000000E+01      3.531189000000000E-01      1.735937000000000E+02
4888000000.000000      4.251556000000000E-01      2.846191000000000E+01      3.494263000000000E-01      1.730625000000000E+02
4889000000.000000      4.259491000000000E-01      2.826855000000000E+01      3.449097000000000E-01      1.726641000000000E+02
4890000000.000000      4.248047000000000E-01      2.793750000000000E+01      3.414917000000000E-01      1.720625000000000E+02
4891000000.000000      4.263306000000000E-01      2.792089000000000E+01      3.380585000000000E-01      1.716250000000000E+02
4892000000.000000      4.251251000000000E-01      2.767675000000000E+01      3.344421000000000E-01      1.710625000000000E+02
4893000000.000000      4.261627000000000E-01      2.743359000000000E+01      3.325043000000000E-01      1.707031000000000E+02
4894000000.000000      4.260254000000000E-01      2.727734000000000E+01      3.275909000000000E-01      1.704375000000000E+02
4895000000.000000      4.259491000000000E-01      2.705566000000000E+01      3.251495000000000E-01      1.699687000000000E+02
4896000000.000000      4.262543000000000E-01      2.675781000000000E+01      3.215027000000000E-01      1.695937000000000E+02
4897000000.000000      4.253387000000000E-01      2.670605000000000E+01      3.176727000000000E-01      1.690625000000000E+02
4898000000.000000      4.263306000000000E-01      2.652050000000000E+01      3.148956000000000E-01      1.687187000000000E+02
4899000000.000000      4.260101000000000E-01      2.629687000000000E+01      3.107758000000000E-01      1.681328000000000E+02
4900000000.000000      4.262695000000000E-01      2.607031000000000E+01      3.078003000000000E-01      1.678828000000000E+02
4901000000.000000      4.260864000000000E-01      2.588574000000000E+01      3.049927000000000E-01      1.676094000000000E+02
4902000000.000000      4.258423000000000E-01      2.561035000000000E+01      3.017273000000000E-01      1.671719000000000E+02
4903000000.000000      4.256744000000000E-01      2.553906000000000E+01      2.970886000000000E-01      1.666406000000000E+02
4904000000.000000      4.259491000000000E-01      2.527050000000000E+01      2.936707000000000E-01      1.662500000000000E+02
4905000000.000000      4.257202000000000E-01      2.513769000000000E+01      2.909851000000000E-01      1.658203000000000E+02
4906000000.000000      4.242859000000000E-01      2.490820000000000E+01      2.880096000000000E-01      1.654844000000000E+02
4907000000.000000      4.248810000000000E-01      2.480664000000000E+01      2.844696000000000E-01      1.651641000000000E+02
4908000000.000000      4.256439000000000E-01      2.452148000000000E+01      2.817535000000000E-01      1.647344000000000E+02
4909000000.000000      4.244995000000000E-01      2.437988000000000E+01      2.773132000000000E-01      1.644922000000000E+02
4910000000.000000      4.236908000000000E-01      2.433691000000000E+01      2.741089000000000E-01      1.641094000000000E+02
4911000000.000000      4.246979000000000E-01      2.403613000000000E+01      2.713470000000000E-01      1.636719000000000E+02
4912000000.000000      4.244690000000000E-01      2.390625000000000E+01      2.677612000000000E-01      1.633203000000000E+02
4913000000.000000      4.239807000000000E-01      2.365625000000000E+01      2.646332000000000E-01      1.630000000000000E+02
4914000000.000000      4.246216000000000E-01      2.349219000000000E+01      2.615204000000000E-01      1.626719000000000E+02
4915000000.000000      4.235077000000000E-01      2.342676000000000E+01      2.569275000000000E-01      1.621641000000000E+02
4916000000.000000      4.228058000000000E-01      2.317090000000000E+01      2.537689000000000E-01      1.617656000000000E+02
4917000000.000000      4.236450000000000E-01      2.302832000000000E+01      2.499084000000000E-01      1.615156000000000E+02
4918000000.000000      4.237976000000000E-01      2.282324000000000E+01      2.460709000000000E-01      1.612500000000000E+02
4919000000.000000      4.234314000000000E-01      2.279101000000000E+01      2.429810000000000E-01      1.612266000000000E+02
4920000000.000000      4.219971000000000E-01      2.250781000000000E+01      2.387009000000000E-01      1.607265000000000E+02
4921000000.000000      4.226074000000000E-01      2.250098000000000E+01      2.354126000000000E-01      1.603906000000000E+02
4922000000.000000      4.222260000000000E-01      2.222363000000000E+01      2.317123000000000E-01      1.602500000000000E+02
4923000000.000000      4.227448000000000E-01      2.207812000000000E+01      2.277069000000000E-01      1.600781000000000E+02
4924000000.000000      4.230042000000000E-01      2.190234000000000E+01      2.241669000000000E-01      1.597265000000000E+02
4925000000.000000      4.222565000000000E-01      2.170312000000000E+01      2.202530000000000E-01      1.593516000000000E+02
4926000000.000000      4.216614000000000E-01      2.158789000000000E+01      2.165146000000000E-01      1.592813000000000E+02
4927000000.000000      4.213562000000000E-01      2.140332000000000E+01      2.121201000000000E-01      1.592266000000000E+02
4928000000.000000      4.224396000000000E-01      2.110547000000000E+01      2.089462000000000E-01      1.589531000000000E+02
4929000000.000000      4.209900000000000E-01      2.105762000000000E+01      2.046661000000000E-01      1.588281000000000E+02
4930000000.000000      4.213715000000000E-01      2.098340000000000E+01      2.009659000000000E-01      1.587031000000000E+02
4931000000.000000      4.203796000000000E-01      2.084863000000000E+01      1.974258000000000E-01      1.585312000000000E+02
4932000000.000000      4.200439000000000E-01      2.068359000000000E+01      1.934509000000000E-01      1.586719000000000E+02
4933000000.000000      4.200287000000000E-01      2.039160000000000E+01      1.892700000000000E-01      1.588828000000000E+02
4934000000.000000      4.209137000000000E-01      2.022656000000000E+01      1.856155000000000E-01      1.587656000000000E+02
4935000000.000000      4.204559000000000E-01      2.005469000000000E+01      1.819992000000000E-01      1.589062000000000E+02
4936000000.000000      4.192963000000000E-01      2.003711000000000E+01      1.777954000000000E-01      1.590312000000000E+02
4937000000.000000      4.198303000000000E-01      1.970117000000000E+01      1.740875000000000E-01      1.590078000000000E+02
4938000000.000000      4.182739000000000E-01      1.975195000000000E+01      1.706314000000000E-01      1.593906000000000E+02
4939000000.000000      4.198608000000000E-01      1.957617000000000E+01      1.662216000000000E-01      1.596953000000000E+02
4940000000.000000      4.190369000000000E-01      1.946973000000000E+01      1.624451000000000E-01      1.597344000000000E+02
4941000000.000000      4.201660000000000E-01      1.906348000000000E+01      1.592484000000000E-01      1.604609000000000E+02
4942000000.000000      4.185028000000000E-01      1.917187000000000E+01      1.556168000000000E-01      1.606250000000000E+02
4943000000.000000      4.182892000000000E-01      1.884668000000000E+01      1.515198000000000E-01      1.611719000000000E+02
4944000000.000000      4.178925000000000E-01      1.869726000000000E+01      1.487885000000000E-01      1.616094000000000E+02
4945000000.000000      4.185333000000000E-01      1.856543000000000E+01      1.451111000000000E-01      1.622734000000000E+02
4946000000.000000      4.175415000000000E-01      1.856641000000000E+01      1.418991000000000E-01      1.631797000000000E+02
4947000000.000000      4.183350000000000E-01      1.820117000000000E+01      1.385345000000000E-01      1.639062000000000E+02
4948000000.000000      4.167480000000000E-01      1.823828000000000E+01      1.351624000000000E-01      1.646875000000000E+02
4949000000.000000      4.163055000000000E-01      1.797070000000000E+01      1.326599000000000E-01      1.655937000000000E+02
4950000000.000000      4.156952000000000E-01      1.788672000000000E+01      1.290054000000000E-01      1.666484000000000E+02
4951000000.000000      4.170532000000000E-01      1.763281000000000E+01      1.261444000000000E-01      1.675859000000000E+02
4952000000.000000      4.167328000000000E-01      1.751953000000000E+01      1.239624000000000E-01      1.688359000000000E+02
4953000000.000000      4.151611000000000E-01      1.722168000000000E+01      1.216736000000000E-01      1.702578000000000E+02
4954000000.000000      4.152679000000000E-01      1.734570000000000E+01      1.188698000000000E-01      1.714687000000000E+02
