! Network Analyzer HP8722D
! Hewlett-Packard
! Data name: Linha & Wilkinson
! Saver's name: Rodrigo Anjos
! Comments: Teste da utilização de aquisição
continua pelo VNA HP8722D
! Time and date: 23/5/2025 14:37
!              Frequency                     S11                                                   S21                                                   S12                                                   S22
# HZ  S  MA R 50
4800000000.000000      2.899475000000000E-01      3.940234000000000E+01      4.824371000000000E-01     -1.290937000000000E+02
4801000000.000000      2.916107000000000E-01      3.963672000000000E+01      4.835815000000000E-01     -1.298984000000000E+02
4802000000.000000      2.920990000000000E-01      3.978711000000000E+01      4.855042000000000E-01     -1.305078000000000E+02
4803000000.000000      2.930450000000000E-01      4.005273000000000E+01      4.880524000000000E-01     -1.312187000000000E+02
4804000000.000000      2.940521000000000E-01      4.028125000000000E+01      4.886017000000000E-01     -1.318359000000000E+02
4805000000.000000      2.960358000000000E-01      4.034375000000000E+01      4.895020000000000E-01     -1.325938000000000E+02
4806000000.000000      2.968140000000000E-01      4.055860000000000E+01      4.929047000000000E-01     -1.334844000000000E+02
4807000000.000000      2.982635000000000E-01      4.072851000000000E+01      4.919128000000000E-01     -1.341953000000000E+02
4808000000.000000      2.992249000000000E-01      4.094140000000000E+01      4.940491000000000E-01     -1.348203000000000E+02
4809000000.000000      3.007965000000000E-01      4.115820000000000E+01      4.948883000000000E-01     -1.357578000000000E+02
4810000000.000000      3.024597000000000E-01      4.119141000000000E+01      4.963684000000000E-01     -1.362344000000000E+02
4811000000.000000      3.040466000000000E-01      4.138672000000000E+01      4.987183000000000E-01     -1.370469000000000E+02
4812000000.000000      3.064270000000000E-01      4.151563000000000E+01      4.985352000000000E-01     -1.379219000000000E+02
4813000000.000000      3.073273000000000E-01      4.169141000000000E+01      5.003662000000000E-01     -1.385703000000000E+02
4814000000.000000      3.081818000000000E-01      4.175977000000000E+01      5.011292000000000E-01     -1.392578000000000E+02
4815000000.000000      3.099365000000000E-01      4.185351000000000E+01      5.008850000000000E-01     -1.399609000000000E+02
4816000000.000000      3.123474000000000E-01      4.199609000000000E+01      5.018311000000000E-01     -1.406563000000000E+02
4817000000.000000      3.131104000000000E-01      4.208398000000000E+01      5.015259000000000E-01     -1.414766000000000E+02
4818000000.000000      3.149261000000000E-01      4.207421000000000E+01      5.021362000000000E-01     -1.421016000000000E+02
4819000000.000000      3.171692000000000E-01      4.214844000000000E+01      5.022278000000000E-01     -1.428203000000000E+02
4820000000.000000      3.177490000000000E-01      4.219922000000000E+01      5.031738000000000E-01     -1.433906000000000E+02
4821000000.000000      3.204651000000000E-01      4.225781000000000E+01      5.028076000000000E-01     -1.444922000000000E+02
4822000000.000000      3.217926000000000E-01      4.215234000000000E+01      5.021362000000000E-01     -1.451172000000000E+02
4823000000.000000      3.243256000000000E-01      4.220117000000000E+01      5.037537000000000E-01     -1.458828000000000E+02
4824000000.000000      3.262787000000000E-01      4.221875000000000E+01      5.028076000000000E-01     -1.466484000000000E+02
4825000000.000000      3.281403000000000E-01      4.213281000000000E+01      5.016174000000000E-01     -1.473047000000000E+02
4826000000.000000      3.291016000000000E-01      4.210742000000000E+01      5.027161000000000E-01     -1.482266000000000E+02
4827000000.000000      3.313599000000000E-01      4.219531000000000E+01      5.017090000000000E-01     -1.487031000000000E+02
4828000000.000000      3.332062000000000E-01      4.214844000000000E+01      5.014954000000000E-01     -1.493203000000000E+02
4829000000.000000      3.351440000000000E-01      4.213476000000000E+01      5.018005000000000E-01     -1.502422000000000E+02
4830000000.000000      3.367004000000000E-01      4.199219000000000E+01      5.005493000000000E-01     -1.508984000000000E+02
4831000000.000000      3.384094000000000E-01      4.189453000000000E+01      5.005798000000000E-01     -1.518125000000000E+02
4832000000.000000      3.400879000000000E-01      4.189453000000000E+01      4.987183000000000E-01     -1.523125000000000E+02
4833000000.000000      3.412781000000000E-01      4.172852000000000E+01      4.971466000000000E-01     -1.528906000000000E+02
4834000000.000000      3.433075000000000E-01      4.162695000000000E+01      4.982452000000000E-01     -1.538672000000000E+02
4835000000.000000      3.456879000000000E-01      4.149219000000000E+01      4.979553000000000E-01     -1.546406000000000E+02
4836000000.000000      3.472137000000000E-01      4.145508000000000E+01      4.963989000000000E-01     -1.553359000000000E+02
4837000000.000000      3.487854000000000E-01      4.142383000000000E+01      4.950867000000000E-01     -1.562266000000000E+02
4838000000.000000      3.498993000000000E-01      4.119141000000000E+01      4.946289000000000E-01     -1.566562000000000E+02
4839000000.000000      3.531799000000000E-01      4.102539000000000E+01      4.946289000000000E-01     -1.571797000000000E+02
4840000000.000000      3.538208000000000E-01      4.079102000000000E+01      4.933319000000000E-01     -1.579844000000000E+02
4841000000.000000      3.556366000000000E-01      4.082617000000000E+01      4.910736000000000E-01     -1.588203000000000E+02
4842000000.000000      3.569031000000000E-01      4.060547000000000E+01      4.885254000000000E-01     -1.595156000000000E+02
4843000000.000000      3.598328000000000E-01      4.028906000000000E+01      4.888153000000000E-01     -1.603906000000000E+02
4844000000.000000      3.602600000000000E-01      4.014453000000000E+01      4.867706000000000E-01     -1.610625000000000E+02
4845000000.000000      3.620911000000000E-01      4.009961000000000E+01      4.864044000000000E-01     -1.615547000000000E+02
4846000000.000000      3.642731000000000E-01      3.989258000000000E+01      4.831238000000000E-01     -1.623281000000000E+02
4847000000.000000      3.657684000000000E-01      3.977930000000000E+01      4.827728000000000E-01     -1.630859000000000E+02
4848000000.000000      3.657074000000000E-01      3.945703000000000E+01      4.796143000000000E-01     -1.636875000000000E+02
4849000000.000000      3.678284000000000E-01      3.924023000000000E+01      4.785767000000000E-01     -1.645391000000000E+02
4850000000.000000      3.697052000000000E-01      3.901367000000000E+01      4.773560000000000E-01     -1.653125000000000E+02
4851000000.000000      3.710175000000000E-01      3.897070000000000E+01      4.749146000000000E-01     -1.660469000000000E+02
4852000000.000000      3.717499000000000E-01      3.868945000000000E+01      4.733734000000000E-01     -1.665625000000000E+02
4853000000.000000      3.730316000000000E-01      3.849609000000000E+01      4.706573000000000E-01     -1.674141000000000E+02
4854000000.000000      3.746490000000000E-01      3.817968000000000E+01      4.684143000000000E-01     -1.682188000000000E+02
4855000000.000000      3.752136000000000E-01      3.803515000000000E+01      4.670715000000000E-01     -1.687891000000000E+02
4856000000.000000      3.769226000000000E-01      3.776367000000000E+01      4.647064000000000E-01     -1.694687000000000E+02
4857000000.000000      3.784332000000000E-01      3.753320000000000E+01      4.624939000000000E-01     -1.699844000000000E+02
4858000000.000000      3.789825000000000E-01      3.725976000000000E+01      4.598083000000000E-01     -1.707813000000000E+02
4859000000.000000      3.803101000000000E-01      3.701953000000000E+01      4.577942000000000E-01     -1.714453000000000E+02
4860000000.000000      3.813934000000000E-01      3.693945000000000E+01      4.552612000000000E-01     -1.721094000000000E+02
4861000000.000000      3.824158000000000E-01      3.657812000000000E+01      4.528046000000000E-01     -1.728359000000000E+02
4862000000.000000      3.827515000000000E-01      3.635351000000000E+01      4.505920000000000E-01     -1.733047000000000E+02
4863000000.000000      3.840027000000000E-01      3.609766000000000E+01      4.451141000000000E-01     -1.742344000000000E+02
4864000000.000000      3.848267000000000E-01      3.580664000000000E+01      4.434967000000000E-01     -1.748672000000000E+02
4865000000.000000      3.862000000000000E-01      3.555273000000000E+01      4.412537000000000E-01     -1.754141000000000E+02
4866000000.000000      3.865204000000000E-01      3.538671000000000E+01      4.369965000000000E-01     -1.762578000000000E+02
4867000000.000000      3.867340000000000E-01      3.503906000000000E+01      4.342194000000000E-01     -1.770078000000000E+02
4868000000.000000      3.883209000000000E-01      3.476367000000000E+01      4.308929000000000E-01     -1.775312000000000E+02
4869000000.000000      3.884277000000000E-01      3.455078000000000E+01      4.282227000000000E-01     -1.781563000000000E+02
4870000000.000000      3.893280000000000E-01      3.433008000000000E+01      4.265594000000000E-01     -1.787500000000000E+02
4871000000.000000      3.898773000000000E-01      3.396093000000000E+01      4.226837000000000E-01     -1.796406000000000E+02
4872000000.000000      3.914337000000000E-01      3.371484000000000E+01      4.191895000000000E-01     -1.799922000000000E+02
4873000000.000000      3.915558000000000E-01      3.362890000000000E+01      4.152222000000000E-01      1.794453000000000E+02
4874000000.000000      3.915405000000000E-01      3.331055000000000E+01      4.123993000000000E-01      1.787969000000000E+02
4875000000.000000      3.921204000000000E-01      3.297656000000000E+01      4.072723000000000E-01      1.780391000000000E+02
4876000000.000000      3.928528000000000E-01      3.280468000000000E+01      4.062500000000000E-01      1.776719000000000E+02
4877000000.000000      3.933716000000000E-01      3.228711000000000E+01      4.008026000000000E-01      1.768203000000000E+02
4878000000.000000      3.933411000000000E-01      3.219531000000000E+01      3.985291000000000E-01      1.762734000000000E+02
4879000000.000000      3.944397000000000E-01      3.203320000000000E+01      3.943787000000000E-01      1.758516000000000E+02
4880000000.000000      3.943939000000000E-01      3.159472000000000E+01      3.909149000000000E-01      1.753438000000000E+02
4881000000.000000      3.945465000000000E-01      3.145605000000000E+01      3.889313000000000E-01      1.748437000000000E+02
4882000000.000000      3.954773000000000E-01      3.121679000000000E+01      3.851013000000000E-01      1.742734000000000E+02
4883000000.000000      3.952179000000000E-01      3.079297000000000E+01      3.797913000000000E-01      1.737813000000000E+02
4884000000.000000      3.957367000000000E-01      3.074707000000000E+01      3.765564000000000E-01      1.730781000000000E+02
4885000000.000000      3.963623000000000E-01      3.043164000000000E+01      3.739471000000000E-01      1.728125000000000E+02
4886000000.000000      3.974915000000000E-01      3.019433000000000E+01      3.693848000000000E-01      1.721797000000000E+02
4887000000.000000      3.957825000000000E-01      3.002636000000000E+01      3.666382000000000E-01      1.717031000000000E+02
4888000000.000000      3.963623000000000E-01      2.962109000000000E+01      3.647003000000000E-01      1.710391000000000E+02
4889000000.000000      3.957062000000000E-01      2.953320000000000E+01      3.605957000000000E-01      1.708828000000000E+02
4890000000.000000      3.955078000000000E-01      2.912793000000000E+01      3.563232000000000E-01      1.701641000000000E+02
4891000000.000000      3.960724000000000E-01      2.901269000000000E+01      3.517303000000000E-01      1.696640000000000E+02
4892000000.000000      3.952789000000000E-01      2.867773000000000E+01      3.490295000000000E-01      1.695391000000000E+02
4893000000.000000      3.957977000000000E-01      2.849902000000000E+01      3.444977000000000E-01      1.688984000000000E+02
4894000000.000000      3.964081000000000E-01      2.824707000000000E+01      3.416290000000000E-01      1.685313000000000E+02
4895000000.000000      3.969574000000000E-01      2.800097000000000E+01      3.385468000000000E-01      1.682344000000000E+02
4896000000.000000      3.966522000000000E-01      2.783300000000000E+01      3.352051000000000E-01      1.677187000000000E+02
4897000000.000000      3.960266000000000E-01      2.764160000000000E+01      3.313904000000000E-01      1.673750000000000E+02
4898000000.000000      3.954620000000000E-01      2.734179000000000E+01      3.291931000000000E-01      1.668984000000000E+02
4899000000.000000      3.953400000000000E-01      2.719043000000000E+01      3.247375000000000E-01      1.664219000000000E+02
4900000000.000000      3.950806000000000E-01      2.681738000000000E+01      3.213043000000000E-01      1.659688000000000E+02
4901000000.000000      3.955994000000000E-01      2.679785000000000E+01      3.182526000000000E-01      1.656719000000000E+02
4902000000.000000      3.954468000000000E-01      2.645898000000000E+01      3.144226000000000E-01      1.654609000000000E+02
4903000000.000000      3.955383000000000E-01      2.637793000000000E+01      3.105469000000000E-01      1.647656000000000E+02
4904000000.000000      3.947296000000000E-01      2.602636000000000E+01      3.075867000000000E-01      1.644375000000000E+02
4905000000.000000      3.939056000000000E-01      2.570996000000000E+01      3.046570000000000E-01      1.640703000000000E+02
4906000000.000000      3.942719000000000E-01      2.559668000000000E+01      3.013153000000000E-01      1.638438000000000E+02
4907000000.000000      3.941498000000000E-01      2.536328000000000E+01      2.985077000000000E-01      1.632891000000000E+02
4908000000.000000      3.943939000000000E-01      2.514551000000000E+01      2.946472000000000E-01      1.628047000000000E+02
4909000000.000000      3.930969000000000E-01      2.503418000000000E+01      2.903442000000000E-01      1.624219000000000E+02
4910000000.000000      3.933716000000000E-01      2.488770000000000E+01      2.867584000000000E-01      1.621719000000000E+02
4911000000.000000      3.940582000000000E-01      2.464062000000000E+01      2.841187000000000E-01      1.617422000000000E+02
4912000000.000000      3.922729000000000E-01      2.460351000000000E+01      2.799530000000000E-01      1.612734000000000E+02
4913000000.000000      3.930817000000000E-01      2.423144000000000E+01      2.762451000000000E-01      1.610859000000000E+02
4914000000.000000      3.927155000000000E-01      2.408984000000000E+01      2.729034000000000E-01      1.607344000000000E+02
4915000000.000000      3.920898000000000E-01      2.398926000000000E+01      2.690277000000000E-01      1.602422000000000E+02
4916000000.000000      3.923950000000000E-01      2.362988000000000E+01      2.656403000000000E-01      1.598672000000000E+02
4917000000.000000      3.923798000000000E-01      2.373730000000000E+01      2.618408000000000E-01      1.596484000000000E+02
4918000000.000000      3.913269000000000E-01      2.340430000000000E+01      2.576599000000000E-01      1.591797000000000E+02
4919000000.000000      3.908081000000000E-01      2.322754000000000E+01      2.548828000000000E-01      1.591172000000000E+02
4920000000.000000      3.907928000000000E-01      2.303906000000000E+01      2.501373000000000E-01      1.585781000000000E+02
4921000000.000000      3.899994000000000E-01      2.293945000000000E+01      2.472687000000000E-01      1.582813000000000E+02
4922000000.000000      3.913422000000000E-01      2.255078000000000E+01      2.430344000000000E-01      1.582344000000000E+02
4923000000.000000      3.902283000000000E-01      2.257519000000000E+01      2.388306000000000E-01      1.580937000000000E+02
4924000000.000000      3.907776000000000E-01      2.236230000000000E+01      2.353058000000000E-01      1.575469000000000E+02
4925000000.000000      3.891144000000000E-01      2.205078000000000E+01      2.309113000000000E-01      1.573750000000000E+02
4926000000.000000      3.896332000000000E-01      2.209668000000000E+01      2.277298000000000E-01      1.572578000000000E+02
4927000000.000000      3.900604000000000E-01      2.174316000000000E+01      2.230988000000000E-01      1.570313000000000E+02
4928000000.000000      3.894958000000000E-01      2.153418000000000E+01      2.192154000000000E-01      1.569844000000000E+02
4929000000.000000      3.883057000000000E-01      2.148633000000000E+01      2.150345000000000E-01      1.567578000000000E+02
4930000000.000000      3.885803000000000E-01      2.125391000000000E+01      2.113953000000000E-01      1.564844000000000E+02
4931000000.000000      3.883057000000000E-01      2.098437000000000E+01      2.076721000000000E-01      1.566250000000000E+02
4932000000.000000      3.876038000000000E-01      2.094629000000000E+01      2.035751000000000E-01      1.565703000000000E+02
4933000000.000000      3.878784000000000E-01      2.063183000000000E+01      1.982346000000000E-01      1.566015000000000E+02
4934000000.000000      3.875885000000000E-01      2.053320000000000E+01      1.948471000000000E-01      1.564687000000000E+02
4935000000.000000      3.883514000000000E-01      2.036523000000000E+01      1.914825000000000E-01      1.566484000000000E+02
4936000000.000000      3.865204000000000E-01      2.022559000000000E+01      1.868820000000000E-01      1.568906000000000E+02
4937000000.000000      3.872070000000000E-01      1.996191000000000E+01      1.828918000000000E-01      1.568984000000000E+02
4938000000.000000      3.856964000000000E-01      1.986426000000000E+01      1.788712000000000E-01      1.572031000000000E+02
4939000000.000000      3.857574000000000E-01      1.980957000000000E+01      1.750412000000000E-01      1.574531000000000E+02
4940000000.000000      3.858032000000000E-01      1.954102000000000E+01      1.712799000000000E-01      1.575156000000000E+02
4941000000.000000      3.861389000000000E-01      1.937500000000000E+01      1.676483000000000E-01      1.578906000000000E+02
4942000000.000000      3.852386000000000E-01      1.926367000000000E+01      1.633530000000000E-01      1.583281000000000E+02
4943000000.000000      3.854218000000000E-01      1.914160000000000E+01      1.600037000000000E-01      1.587422000000000E+02
4944000000.000000      3.847961000000000E-01      1.883594000000000E+01      1.561661000000000E-01      1.592187000000000E+02
4945000000.000000      3.836212000000000E-01      1.871191000000000E+01      1.523972000000000E-01      1.599297000000000E+02
4946000000.000000      3.852539000000000E-01      1.855566000000000E+01      1.489563000000000E-01      1.603906000000000E+02
4947000000.000000      3.850098000000000E-01      1.833301000000000E+01      1.452713000000000E-01      1.613906000000000E+02
4948000000.000000      3.858795000000000E-01      1.826172000000000E+01      1.422424000000000E-01      1.620625000000000E+02
4949000000.000000      3.830261000000000E-01      1.809668000000000E+01      1.386490000000000E-01      1.633594000000000E+02
4950000000.000000      3.831635000000000E-01      1.802832000000000E+01      1.360550000000000E-01      1.640703000000000E+02
4951000000.000000      3.826752000000000E-01      1.772363000000000E+01      1.328506000000000E-01      1.650703000000000E+02
4952000000.000000      3.815765000000000E-01      1.761426000000000E+01      1.298828000000000E-01      1.661250000000000E+02
4953000000.000000      3.815155000000000E-01      1.749707000000000E+01      1.273880000000000E-01      1.675469000000000E+02
4954000000.000000      3.817749000000000E-01      1.723828000000000E+01      1.246071000000000E-01      1.689297000000000E+02
