! Network Analyzer HP8722D
! Hewlett-Packard
! Data name: Linha & Wilkinson
! Saver's name: Rodrigo Anjos
! Comments: Teste da utilização de aquisição
continua pelo VNA HP8722D
! Time and date: 23/5/2025 16:31
!              Frequency                     S11                                                   S21                                                   S12                                                   S22
# HZ  S  MA R 50
4800000000.000000      2.797546000000000E-01      4.058007000000000E+01      4.887085000000000E-01     -1.302031000000000E+02
4801000000.000000      2.810211000000000E-01      4.087891000000000E+01      4.900208000000000E-01     -1.308438000000000E+02
4802000000.000000      2.825317000000000E-01      4.106835000000000E+01      4.911041000000000E-01     -1.314766000000000E+02
4803000000.000000      2.832642000000000E-01      4.117773000000000E+01      4.954529000000000E-01     -1.320234000000000E+02
4804000000.000000      2.847137000000000E-01      4.149023000000000E+01      4.944916000000000E-01     -1.328516000000000E+02
4805000000.000000      2.861938000000000E-01      4.151563000000000E+01      4.973602000000000E-01     -1.335469000000000E+02
4806000000.000000      2.877350000000000E-01      4.172265000000000E+01      4.979858000000000E-01     -1.343516000000000E+02
4807000000.000000      2.891388000000000E-01      4.190820000000000E+01      4.988403000000000E-01     -1.350312000000000E+02
4808000000.000000      2.901764000000000E-01      4.215820000000000E+01      5.010071000000000E-01     -1.358672000000000E+02
4809000000.000000      2.917938000000000E-01      4.238477000000000E+01      5.021973000000000E-01     -1.367109000000000E+02
4810000000.000000      2.935028000000000E-01      4.242188000000000E+01      5.035095000000000E-01     -1.372500000000000E+02
4811000000.000000      2.955475000000000E-01      4.261523000000000E+01      5.053406000000000E-01     -1.382578000000000E+02
4812000000.000000      2.973175000000000E-01      4.287305000000000E+01      5.041199000000000E-01     -1.388906000000000E+02
4813000000.000000      2.981873000000000E-01      4.288281000000000E+01      5.056458000000000E-01     -1.395313000000000E+02
4814000000.000000      2.997589000000000E-01      4.294531000000000E+01      5.061646000000000E-01     -1.400859000000000E+02
4815000000.000000      3.018036000000000E-01      4.298633000000000E+01      5.078735000000000E-01     -1.411562000000000E+02
4816000000.000000      3.043213000000000E-01      4.313086000000000E+01      5.087891000000000E-01     -1.415781000000000E+02
4817000000.000000      3.052216000000000E-01      4.322461000000000E+01      5.089111000000000E-01     -1.425390000000000E+02
4818000000.000000      3.072052000000000E-01      4.316992000000000E+01      5.074463000000000E-01     -1.432812000000000E+02
4819000000.000000      3.094635000000000E-01      4.322266000000000E+01      5.079041000000000E-01     -1.440312000000000E+02
4820000000.000000      3.104248000000000E-01      4.324804000000000E+01      5.100708000000000E-01     -1.444375000000000E+02
4821000000.000000      3.128510000000000E-01      4.335156000000000E+01      5.088196000000000E-01     -1.454453000000000E+02
4822000000.000000      3.138733000000000E-01      4.321679000000000E+01      5.085449000000000E-01     -1.461328000000000E+02
4823000000.000000      3.161621000000000E-01      4.325000000000000E+01      5.091553000000000E-01     -1.470625000000000E+02
4824000000.000000      3.177032000000000E-01      4.331445000000000E+01      5.081177000000000E-01     -1.477969000000000E+02
4825000000.000000      3.195343000000000E-01      4.312109000000000E+01      5.080261000000000E-01     -1.482500000000000E+02
4826000000.000000      3.213348000000000E-01      4.314453000000000E+01      5.096436000000000E-01     -1.492344000000000E+02
4827000000.000000      3.242188000000000E-01      4.308594000000000E+01      5.071106000000000E-01     -1.496562000000000E+02
4828000000.000000      3.259125000000000E-01      4.298047000000000E+01      5.071716000000000E-01     -1.505625000000000E+02
4829000000.000000      3.273010000000000E-01      4.313086000000000E+01      5.065613000000000E-01     -1.512344000000000E+02
4830000000.000000      3.288879000000000E-01      4.287499000000000E+01      5.072021000000000E-01     -1.519297000000000E+02
4831000000.000000      3.304596000000000E-01      4.273242000000000E+01      5.067444000000000E-01     -1.527969000000000E+02
4832000000.000000      3.325806000000000E-01      4.275195000000000E+01      5.036316000000000E-01     -1.534141000000000E+02
4833000000.000000      3.339691000000000E-01      4.249609000000000E+01      5.059814000000000E-01     -1.541328000000000E+02
4834000000.000000      3.357544000000000E-01      4.241992000000000E+01      5.028687000000000E-01     -1.549766000000000E+02
4835000000.000000      3.383331000000000E-01      4.232226000000000E+01      5.025940000000000E-01     -1.556328000000000E+02
4836000000.000000      3.403015000000000E-01      4.230664000000000E+01      5.008545000000000E-01     -1.563125000000000E+02
4837000000.000000      3.413086000000000E-01      4.217969000000000E+01      5.001831000000000E-01     -1.572187000000000E+02
4838000000.000000      3.425446000000000E-01      4.191796000000000E+01      5.000305000000000E-01     -1.576562000000000E+02
4839000000.000000      3.456726000000000E-01      4.176367000000000E+01      4.976349000000000E-01     -1.583203000000000E+02
4840000000.000000      3.470917000000000E-01      4.155469000000000E+01      4.991302000000000E-01     -1.591172000000000E+02
4841000000.000000      3.485260000000000E-01      4.152734000000000E+01      4.964294000000000E-01     -1.598984000000000E+02
4842000000.000000      3.499603000000000E-01      4.128711000000000E+01      4.932556000000000E-01     -1.606328000000000E+02
4843000000.000000      3.524017000000000E-01      4.099218000000000E+01      4.934235000000000E-01     -1.612031000000000E+02
4844000000.000000      3.530426000000000E-01      4.083593000000000E+01      4.925385000000000E-01     -1.619062000000000E+02
4845000000.000000      3.550262000000000E-01      4.070898000000000E+01      4.887543000000000E-01     -1.626562000000000E+02
4846000000.000000      3.568878000000000E-01      4.049805000000000E+01      4.888916000000000E-01     -1.633516000000000E+02
4847000000.000000      3.580170000000000E-01      4.037695000000000E+01      4.869843000000000E-01     -1.639609000000000E+02
4848000000.000000      3.584900000000000E-01      4.008789000000000E+01      4.847717000000000E-01     -1.647266000000000E+02
4849000000.000000      3.606567000000000E-01      3.968359000000000E+01      4.820557000000000E-01     -1.654687000000000E+02
4850000000.000000      3.618317000000000E-01      3.958203000000000E+01      4.811707000000000E-01     -1.662031000000000E+02
4851000000.000000      3.631592000000000E-01      3.953320000000000E+01      4.799652000000000E-01     -1.669453000000000E+02
4852000000.000000      3.642731000000000E-01      3.922070000000000E+01      4.779510000000000E-01     -1.675313000000000E+02
4853000000.000000      3.660583000000000E-01      3.900000000000000E+01      4.742126000000000E-01     -1.684219000000000E+02
4854000000.000000      3.672028000000000E-01      3.876953000000000E+01      4.727783000000000E-01     -1.692031000000000E+02
4855000000.000000      3.684692000000000E-01      3.855664000000000E+01      4.697723000000000E-01     -1.697344000000000E+02
4856000000.000000      3.696289000000000E-01      3.825586000000000E+01      4.692993000000000E-01     -1.703125000000000E+02
4857000000.000000      3.710785000000000E-01      3.806836000000000E+01      4.664154000000000E-01     -1.709922000000000E+02
4858000000.000000      3.717957000000000E-01      3.780273000000000E+01      4.638214000000000E-01     -1.717187000000000E+02
4859000000.000000      3.730469000000000E-01      3.745508000000000E+01      4.611664000000000E-01     -1.725781000000000E+02
4860000000.000000      3.735046000000000E-01      3.719922000000000E+01      4.583740000000000E-01     -1.732109000000000E+02
4861000000.000000      3.750458000000000E-01      3.702148000000000E+01      4.562378000000000E-01     -1.740625000000000E+02
4862000000.000000      3.750610000000000E-01      3.674609000000000E+01      4.539948000000000E-01     -1.745547000000000E+02
4863000000.000000      3.767090000000000E-01      3.656836000000000E+01      4.503479000000000E-01     -1.753750000000000E+02
4864000000.000000      3.770752000000000E-01      3.622265000000000E+01      4.465637000000000E-01     -1.757500000000000E+02
4865000000.000000      3.779449000000000E-01      3.597851000000000E+01      4.448395000000000E-01     -1.763047000000000E+02
4866000000.000000      3.792725000000000E-01      3.562695000000000E+01      4.407654000000000E-01     -1.770078000000000E+02
4867000000.000000      3.781281000000000E-01      3.542383000000000E+01      4.378204000000000E-01     -1.780625000000000E+02
4868000000.000000      3.799133000000000E-01      3.499609000000000E+01      4.356689000000000E-01     -1.783828000000000E+02
4869000000.000000      3.807983000000000E-01      3.480078000000000E+01      4.324036000000000E-01     -1.791406000000000E+02
4870000000.000000      3.813477000000000E-01      3.450390000000000E+01      4.279785000000000E-01     -1.796328000000000E+02
4871000000.000000      3.818359000000000E-01      3.422070000000000E+01      4.249878000000000E-01      1.797344000000000E+02
4872000000.000000      3.835907000000000E-01      3.395508000000000E+01      4.208832000000000E-01      1.790937000000000E+02
4873000000.000000      3.833313000000000E-01      3.386523000000000E+01      4.178009000000000E-01      1.785859000000000E+02
4874000000.000000      3.835602000000000E-01      3.346484000000000E+01      4.147186000000000E-01      1.776328000000000E+02
4875000000.000000      3.838043000000000E-01      3.327343000000000E+01      4.117279000000000E-01      1.773672000000000E+02
4876000000.000000      3.855743000000000E-01      3.301172000000000E+01      4.075470000000000E-01      1.767266000000000E+02
4877000000.000000      3.855896000000000E-01      3.256250000000000E+01      4.044952000000000E-01      1.762109000000000E+02
4878000000.000000      3.848114000000000E-01      3.240625000000000E+01      4.019928000000000E-01      1.754688000000000E+02
4879000000.000000      3.860474000000000E-01      3.221289000000000E+01      3.954773000000000E-01      1.749063000000000E+02
4880000000.000000      3.867340000000000E-01      3.191601000000000E+01      3.945618000000000E-01      1.743594000000000E+02
4881000000.000000      3.858490000000000E-01      3.170507000000000E+01      3.914948000000000E-01      1.742266000000000E+02
4882000000.000000      3.872833000000000E-01      3.151562000000000E+01      3.876648000000000E-01      1.735234000000000E+02
4883000000.000000      3.869019000000000E-01      3.103027000000000E+01      3.831024000000000E-01      1.728984000000000E+02
4884000000.000000      3.879242000000000E-01      3.083105000000000E+01      3.790283000000000E-01      1.723828000000000E+02
4885000000.000000      3.879242000000000E-01      3.068457000000000E+01      3.758392000000000E-01      1.719766000000000E+02
4886000000.000000      3.876343000000000E-01      3.043164000000000E+01      3.728638000000000E-01      1.716563000000000E+02
4887000000.000000      3.877106000000000E-01      3.003320000000000E+01      3.688965000000000E-01      1.709531000000000E+02
4888000000.000000      3.871460000000000E-01      2.971582000000000E+01      3.665466000000000E-01      1.706328000000000E+02
4889000000.000000      3.873138000000000E-01      2.958398000000000E+01      3.613892000000000E-01      1.702500000000000E+02
4890000000.000000      3.866882000000000E-01      2.927441000000000E+01      3.579102000000000E-01      1.692656000000000E+02
4891000000.000000      3.886414000000000E-01      2.905957000000000E+01      3.544617000000000E-01      1.692109000000000E+02
4892000000.000000      3.871307000000000E-01      2.885254000000000E+01      3.510437000000000E-01      1.688125000000000E+02
4893000000.000000      3.878021000000000E-01      2.867480000000000E+01      3.478241000000000E-01      1.680703000000000E+02
4894000000.000000      3.868103000000000E-01      2.852246000000000E+01      3.430481000000000E-01      1.678516000000000E+02
4895000000.000000      3.876038000000000E-01      2.806152000000000E+01      3.412018000000000E-01      1.674844000000000E+02
4896000000.000000      3.883209000000000E-01      2.780957000000000E+01      3.368073000000000E-01      1.670234000000000E+02
4897000000.000000      3.860168000000000E-01      2.774414000000000E+01      3.336334000000000E-01      1.664063000000000E+02
4898000000.000000      3.860321000000000E-01      2.756445000000000E+01      3.304443000000000E-01      1.663281000000000E+02
4899000000.000000      3.869629000000000E-01      2.719238000000000E+01      3.262482000000000E-01      1.656484000000000E+02
4900000000.000000      3.869934000000000E-01      2.695215000000000E+01      3.236694000000000E-01      1.653594000000000E+02
4901000000.000000      3.864594000000000E-01      2.685449000000000E+01      3.197479000000000E-01      1.649609000000000E+02
4902000000.000000      3.865051000000000E-01      2.648730000000000E+01      3.168793000000000E-01      1.645000000000000E+02
4903000000.000000      3.858032000000000E-01      2.637793000000000E+01      3.123169000000000E-01      1.642031000000000E+02
4904000000.000000      3.865509000000000E-01      2.605957000000000E+01      3.091888000000000E-01      1.637266000000000E+02
4905000000.000000      3.861389000000000E-01      2.582324000000000E+01      3.063202000000000E-01      1.631719000000000E+02
4906000000.000000      3.849030000000000E-01      2.555371000000000E+01      3.027954000000000E-01      1.631953000000000E+02
4907000000.000000      3.850708000000000E-01      2.545996000000000E+01      2.999725000000000E-01      1.626875000000000E+02
4908000000.000000      3.854523000000000E-01      2.531347000000000E+01      2.961426000000000E-01      1.620781000000000E+02
4909000000.000000      3.835144000000000E-01      2.492188000000000E+01      2.919006000000000E-01      1.617734000000000E+02
4910000000.000000      3.845520000000000E-01      2.481054000000000E+01      2.892456000000000E-01      1.615625000000000E+02
4911000000.000000      3.834534000000000E-01      2.478027000000000E+01      2.853088000000000E-01      1.611328000000000E+02
4912000000.000000      3.831482000000000E-01      2.466113000000000E+01      2.812500000000000E-01      1.606953000000000E+02
4913000000.000000      3.834686000000000E-01      2.432714000000000E+01      2.780914000000000E-01      1.603125000000000E+02
4914000000.000000      3.831329000000000E-01      2.413476000000000E+01      2.742615000000000E-01      1.601250000000000E+02
4915000000.000000      3.830414000000000E-01      2.387109000000000E+01      2.706909000000000E-01      1.595781000000000E+02
4916000000.000000      3.825836000000000E-01      2.372754000000000E+01      2.671051000000000E-01      1.592578000000000E+02
4917000000.000000      3.818207000000000E-01      2.352246000000000E+01      2.629700000000000E-01      1.589922000000000E+02
4918000000.000000      3.817291000000000E-01      2.341992000000000E+01      2.588043000000000E-01      1.586250000000000E+02
4919000000.000000      3.815308000000000E-01      2.315332000000000E+01      2.557373000000000E-01      1.586016000000000E+02
4920000000.000000      3.818512000000000E-01      2.304785000000000E+01      2.513275000000000E-01      1.580781000000000E+02
4921000000.000000      3.801727000000000E-01      2.287598000000000E+01      2.482910000000000E-01      1.578594000000000E+02
4922000000.000000      3.808746000000000E-01      2.265234000000000E+01      2.446594000000000E-01      1.576641000000000E+02
4923000000.000000      3.804626000000000E-01      2.248828000000000E+01      2.398605000000000E-01      1.575312000000000E+02
4924000000.000000      3.810425000000000E-01      2.228027000000000E+01      2.357407000000000E-01      1.569687000000000E+02
4925000000.000000      3.789978000000000E-01      2.200195000000000E+01      2.318497000000000E-01      1.568594000000000E+02
4926000000.000000      3.794098000000000E-01      2.194238000000000E+01      2.288742000000000E-01      1.567891000000000E+02
4927000000.000000      3.795319000000000E-01      2.161914000000000E+01      2.239456000000000E-01      1.565469000000000E+02
4928000000.000000      3.791809000000000E-01      2.154883000000000E+01      2.207718000000000E-01      1.564062000000000E+02
4929000000.000000      3.797913000000000E-01      2.119922000000000E+01      2.159576000000000E-01      1.562813000000000E+02
4930000000.000000      3.792267000000000E-01      2.121094000000000E+01      2.121124000000000E-01      1.561094000000000E+02
4931000000.000000      3.783569000000000E-01      2.090137000000000E+01      2.082520000000000E-01      1.561406000000000E+02
4932000000.000000      3.786621000000000E-01      2.082715000000000E+01      2.036972000000000E-01      1.560469000000000E+02
4933000000.000000      3.772125000000000E-01      2.062500000000000E+01      1.987762000000000E-01      1.563125000000000E+02
4934000000.000000      3.764191000000000E-01      2.045020000000000E+01      1.953354000000000E-01      1.558281000000000E+02
4935000000.000000      3.784027000000000E-01      2.029101000000000E+01      1.919022000000000E-01      1.565000000000000E+02
4936000000.000000      3.762054000000000E-01      2.011523000000000E+01      1.877823000000000E-01      1.564062000000000E+02
4937000000.000000      3.769531000000000E-01      1.984179000000000E+01      1.834412000000000E-01      1.565781000000000E+02
4938000000.000000      3.763580000000000E-01      1.982129000000000E+01      1.797104000000000E-01      1.568203000000000E+02
4939000000.000000      3.758087000000000E-01      1.971582000000000E+01      1.759720000000000E-01      1.570156000000000E+02
4940000000.000000      3.766022000000000E-01      1.951172000000000E+01      1.714249000000000E-01      1.571797000000000E+02
4941000000.000000      3.765564000000000E-01      1.920801000000000E+01      1.685104000000000E-01      1.577812000000000E+02
4942000000.000000      3.739624000000000E-01      1.913476000000000E+01      1.640854000000000E-01      1.582656000000000E+02
4943000000.000000      3.757935000000000E-01      1.896875000000000E+01      1.603165000000000E-01      1.586641000000000E+02
4944000000.000000      3.748169000000000E-01      1.871875000000000E+01      1.565933000000000E-01      1.591172000000000E+02
4945000000.000000      3.737793000000000E-01      1.859082000000000E+01      1.527100000000000E-01      1.597500000000000E+02
4946000000.000000      3.751678000000000E-01      1.837598000000000E+01      1.496582000000000E-01      1.604922000000000E+02
4947000000.000000      3.743286000000000E-01      1.810254000000000E+01      1.458206000000000E-01      1.611953000000000E+02
4948000000.000000      3.740997000000000E-01      1.818359000000000E+01      1.432037000000000E-01      1.619844000000000E+02
4949000000.000000      3.730164000000000E-01      1.788281000000000E+01      1.396866000000000E-01      1.633203000000000E+02
4950000000.000000      3.739777000000000E-01      1.786914000000000E+01      1.365128000000000E-01      1.641172000000000E+02
4951000000.000000      3.729095000000000E-01      1.752148000000000E+01      1.334457000000000E-01      1.649688000000000E+02
4952000000.000000      3.718109000000000E-01      1.747559000000000E+01      1.306000000000000E-01      1.662266000000000E+02
4953000000.000000      3.714447000000000E-01      1.717773000000000E+01      1.282959000000000E-01      1.676641000000000E+02
4954000000.000000      3.725128000000000E-01      1.712988000000000E+01      1.255569000000000E-01      1.690547000000000E+02
