! Network Analyzer HP8722D
! Hewlett-Packard
! Data name: Linha & Wilkinson
! Saver's name: Rodrigo Anjos
! Comments: Teste da utilização de aquisição
continua pelo VNA HP8722D
! Time and date: 23/5/2025 14:24
!              Frequency                     S11                                                   S21                                                   S12                                                   S22
# HZ  S  MA R 50
4800000000.000000      2.952728000000000E-01      3.896679000000000E+01      4.788361000000000E-01     -1.289531000000000E+02
4801000000.000000      2.956238000000000E-01      3.930469000000000E+01      4.812164000000000E-01     -1.296172000000000E+02
4802000000.000000      2.971497000000000E-01      3.948047000000000E+01      4.828491000000000E-01     -1.304062000000000E+02
4803000000.000000      2.980347000000000E-01      3.962109000000000E+01      4.844208000000000E-01     -1.310625000000000E+02
4804000000.000000      2.992706000000000E-01      3.991601000000000E+01      4.856110000000000E-01     -1.317891000000000E+02
4805000000.000000      3.007507000000000E-01      3.987890000000000E+01      4.888153000000000E-01     -1.324609000000000E+02
4806000000.000000      3.015442000000000E-01      4.017968000000000E+01      4.888916000000000E-01     -1.330781000000000E+02
4807000000.000000      3.028717000000000E-01      4.034180000000000E+01      4.891815000000000E-01     -1.341250000000000E+02
4808000000.000000      3.038940000000000E-01      4.054101000000000E+01      4.900818000000000E-01     -1.347969000000000E+02
4809000000.000000      3.058929000000000E-01      4.073438000000000E+01      4.927368000000000E-01     -1.355781000000000E+02
4810000000.000000      3.071442000000000E-01      4.090820000000000E+01      4.944000000000000E-01     -1.363281000000000E+02
4811000000.000000      3.086395000000000E-01      4.093750000000000E+01      4.951782000000000E-01     -1.370234000000000E+02
4812000000.000000      3.114319000000000E-01      4.116796000000000E+01      4.957275000000000E-01     -1.378672000000000E+02
4813000000.000000      3.117981000000000E-01      4.121875000000000E+01      4.973450000000000E-01     -1.384453000000000E+02
4814000000.000000      3.126526000000000E-01      4.126172000000000E+01      4.987946000000000E-01     -1.391562000000000E+02
4815000000.000000      3.146362000000000E-01      4.147656000000000E+01      4.978333000000000E-01     -1.399922000000000E+02
4816000000.000000      3.173523000000000E-01      4.156054000000000E+01      4.992676000000000E-01     -1.405313000000000E+02
4817000000.000000      3.181000000000000E-01      4.158984000000000E+01      4.994507000000000E-01     -1.412734000000000E+02
4818000000.000000      3.199463000000000E-01      4.164063000000000E+01      4.986725000000000E-01     -1.420781000000000E+02
4819000000.000000      3.217773000000000E-01      4.162695000000000E+01      5.002441000000000E-01     -1.429297000000000E+02
4820000000.000000      3.227844000000000E-01      4.186719000000000E+01      5.013123000000000E-01     -1.433594000000000E+02
4821000000.000000      3.256378000000000E-01      4.185351000000000E+01      5.005188000000000E-01     -1.443750000000000E+02
4822000000.000000      3.262177000000000E-01      4.177734000000000E+01      4.988861000000000E-01     -1.449219000000000E+02
4823000000.000000      3.287201000000000E-01      4.171875000000000E+01      5.007629000000000E-01     -1.457656000000000E+02
4824000000.000000      3.301086000000000E-01      4.184766000000000E+01      4.993591000000000E-01     -1.465625000000000E+02
4825000000.000000      3.317871000000000E-01      4.168945000000000E+01      5.000610000000000E-01     -1.471250000000000E+02
4826000000.000000      3.332062000000000E-01      4.173242000000000E+01      5.000610000000000E-01     -1.480469000000000E+02
4827000000.000000      3.352814000000000E-01      4.176953000000000E+01      5.001221000000000E-01     -1.486953000000000E+02
4828000000.000000      3.375549000000000E-01      4.160742000000000E+01      5.003357000000000E-01     -1.493594000000000E+02
4829000000.000000      3.393707000000000E-01      4.171484000000000E+01      4.988251000000000E-01     -1.501016000000000E+02
4830000000.000000      3.409119000000000E-01      4.144140000000000E+01      4.968719000000000E-01     -1.509140000000000E+02
4831000000.000000      3.422852000000000E-01      4.151757000000000E+01      4.975586000000000E-01     -1.517266000000000E+02
4832000000.000000      3.441162000000000E-01      4.149219000000000E+01      4.977417000000000E-01     -1.521875000000000E+02
4833000000.000000      3.455811000000000E-01      4.127930000000000E+01      4.969025000000000E-01     -1.528906000000000E+02
4834000000.000000      3.473816000000000E-01      4.113671000000000E+01      4.938507000000000E-01     -1.536016000000000E+02
4835000000.000000      3.496552000000000E-01      4.109179000000000E+01      4.951782000000000E-01     -1.543359000000000E+02
4836000000.000000      3.516693000000000E-01      4.098437000000000E+01      4.937439000000000E-01     -1.551719000000000E+02
4837000000.000000      3.525238000000000E-01      4.096093000000000E+01      4.917297000000000E-01     -1.559922000000000E+02
4838000000.000000      3.539581000000000E-01      4.073438000000000E+01      4.915771000000000E-01     -1.565469000000000E+02
4839000000.000000      3.575745000000000E-01      4.079102000000000E+01      4.900970000000000E-01     -1.572187000000000E+02
4840000000.000000      3.581696000000000E-01      4.041992000000000E+01      4.901886000000000E-01     -1.579375000000000E+02
4841000000.000000      3.603668000000000E-01      4.041992000000000E+01      4.885864000000000E-01     -1.587734000000000E+02
4842000000.000000      3.611908000000000E-01      4.019336000000000E+01      4.862213000000000E-01     -1.593594000000000E+02
4843000000.000000      3.636475000000000E-01      3.988281000000000E+01      4.862366000000000E-01     -1.601875000000000E+02
4844000000.000000      3.640137000000000E-01      3.982226000000000E+01      4.841156000000000E-01     -1.610156000000000E+02
4845000000.000000      3.654938000000000E-01      3.970312000000000E+01      4.817963000000000E-01     -1.616797000000000E+02
4846000000.000000      3.676300000000000E-01      3.959961000000000E+01      4.800262000000000E-01     -1.623281000000000E+02
4847000000.000000      3.692932000000000E-01      3.935351000000000E+01      4.791412000000000E-01     -1.628828000000000E+02
4848000000.000000      3.705902000000000E-01      3.902539000000000E+01      4.760895000000000E-01     -1.636719000000000E+02
4849000000.000000      3.716736000000000E-01      3.882617000000000E+01      4.760590000000000E-01     -1.645234000000000E+02
4850000000.000000      3.729706000000000E-01      3.867773000000000E+01      4.737701000000000E-01     -1.650547000000000E+02
4851000000.000000      3.750916000000000E-01      3.858398000000000E+01      4.738159000000000E-01     -1.657578000000000E+02
4852000000.000000      3.757019000000000E-01      3.831055000000000E+01      4.710999000000000E-01     -1.664609000000000E+02
4853000000.000000      3.770447000000000E-01      3.808789000000000E+01      4.678345000000000E-01     -1.671641000000000E+02
4854000000.000000      3.782349000000000E-01      3.787109000000000E+01      4.660339000000000E-01     -1.679297000000000E+02
4855000000.000000      3.795929000000000E-01      3.761328000000000E+01      4.631348000000000E-01     -1.686094000000000E+02
4856000000.000000      3.802032000000000E-01      3.746289000000000E+01      4.613495000000000E-01     -1.692188000000000E+02
4857000000.000000      3.825684000000000E-01      3.724609000000000E+01      4.596100000000000E-01     -1.698672000000000E+02
4858000000.000000      3.828888000000000E-01      3.699414000000000E+01      4.560852000000000E-01     -1.706172000000000E+02
4859000000.000000      3.846436000000000E-01      3.662109000000000E+01      4.541626000000000E-01     -1.714531000000000E+02
4860000000.000000      3.847198000000000E-01      3.662109000000000E+01      4.512177000000000E-01     -1.721250000000000E+02
4861000000.000000      3.866119000000000E-01      3.625195000000000E+01      4.491882000000000E-01     -1.728906000000000E+02
4862000000.000000      3.862915000000000E-01      3.597461000000000E+01      4.475098000000000E-01     -1.734375000000000E+02
4863000000.000000      3.883667000000000E-01      3.583593000000000E+01      4.432220000000000E-01     -1.741953000000000E+02
4864000000.000000      3.893890000000000E-01      3.546679000000000E+01      4.417725000000000E-01     -1.747344000000000E+02
4865000000.000000      3.887177000000000E-01      3.523438000000000E+01      4.369507000000000E-01     -1.753750000000000E+02
4866000000.000000      3.903503000000000E-01      3.489648000000000E+01      4.350891000000000E-01     -1.762891000000000E+02
4867000000.000000      3.907318000000000E-01      3.474218000000000E+01      4.321136000000000E-01     -1.767656000000000E+02
4868000000.000000      3.914032000000000E-01      3.443554000000000E+01      4.296722000000000E-01     -1.775938000000000E+02
4869000000.000000      3.926239000000000E-01      3.416601000000000E+01      4.258118000000000E-01     -1.780859000000000E+02
4870000000.000000      3.933258000000000E-01      3.406445000000000E+01      4.228973000000000E-01     -1.786250000000000E+02
4871000000.000000      3.941803000000000E-01      3.360352000000000E+01      4.192352000000000E-01     -1.793203000000000E+02
4872000000.000000      3.953552000000000E-01      3.359570000000000E+01      4.146423000000000E-01     -1.797578000000000E+02
4873000000.000000      3.950806000000000E-01      3.322461000000000E+01      4.125977000000000E-01      1.793672000000000E+02
4874000000.000000      3.958588000000000E-01      3.302929000000000E+01      4.081116000000000E-01      1.788047000000000E+02
4875000000.000000      3.967133000000000E-01      3.258789000000000E+01      4.040070000000000E-01      1.781875000000000E+02
4876000000.000000      3.962097000000000E-01      3.250781000000000E+01      4.022064000000000E-01      1.775469000000000E+02
4877000000.000000      3.975372000000000E-01      3.219922000000000E+01      3.990326000000000E-01      1.770781000000000E+02
4878000000.000000      3.965149000000000E-01      3.196582000000000E+01      3.952637000000000E-01      1.765078000000000E+02
4879000000.000000      3.984222000000000E-01      3.175781000000000E+01      3.903961000000000E-01      1.761172000000000E+02
4880000000.000000      3.985138000000000E-01      3.155371000000000E+01      3.889008000000000E-01      1.753906000000000E+02
4881000000.000000      3.991241000000000E-01      3.122363000000000E+01      3.853607000000000E-01      1.749609000000000E+02
4882000000.000000      3.992615000000000E-01      3.104785000000000E+01      3.816223000000000E-01      1.743594000000000E+02
4883000000.000000      3.986816000000000E-01      3.078027000000000E+01      3.771973000000000E-01      1.738594000000000E+02
4884000000.000000      4.004059000000000E-01      3.059473000000000E+01      3.735962000000000E-01      1.732500000000000E+02
4885000000.000000      3.999176000000000E-01      3.029590000000000E+01      3.703156000000000E-01      1.728594000000000E+02
4886000000.000000      3.997040000000000E-01      3.012109000000000E+01      3.665771000000000E-01      1.726719000000000E+02
4887000000.000000      4.000244000000000E-01      2.986133000000000E+01      3.633118000000000E-01      1.718750000000000E+02
4888000000.000000      4.000244000000000E-01      2.937402000000000E+01      3.605347000000000E-01      1.713906000000000E+02
4889000000.000000      3.999176000000000E-01      2.922363000000000E+01      3.564148000000000E-01      1.710781000000000E+02
4890000000.000000      3.985443000000000E-01      2.907227000000000E+01      3.534088000000000E-01      1.704219000000000E+02
4891000000.000000      4.001007000000000E-01      2.890722000000000E+01      3.499603000000000E-01      1.698125000000000E+02
4892000000.000000      3.995819000000000E-01      2.860937000000000E+01      3.454590000000000E-01      1.694922000000000E+02
4893000000.000000      4.003143000000000E-01      2.837305000000000E+01      3.427887000000000E-01      1.690859000000000E+02
4894000000.000000      3.997498000000000E-01      2.810937000000000E+01      3.379517000000000E-01      1.687578000000000E+02
4895000000.000000      4.005890000000000E-01      2.787207000000000E+01      3.357239000000000E-01      1.684844000000000E+02
4896000000.000000      3.994904000000000E-01      2.771289000000000E+01      3.311005000000000E-01      1.681094000000000E+02
4897000000.000000      3.994293000000000E-01      2.748047000000000E+01      3.276520000000000E-01      1.675390000000000E+02
4898000000.000000      3.991547000000000E-01      2.718554000000000E+01      3.242950000000000E-01      1.670547000000000E+02
4899000000.000000      3.995514000000000E-01      2.699804000000000E+01      3.218231000000000E-01      1.664766000000000E+02
4900000000.000000      3.986664000000000E-01      2.680371000000000E+01      3.180695000000000E-01      1.662891000000000E+02
4901000000.000000      3.995361000000000E-01      2.658398000000000E+01      3.153229000000000E-01      1.658594000000000E+02
4902000000.000000      3.991089000000000E-01      2.639257000000000E+01      3.121948000000000E-01      1.654063000000000E+02
4903000000.000000      3.992462000000000E-01      2.622656000000000E+01      3.077545000000000E-01      1.649922000000000E+02
4904000000.000000      3.993530000000000E-01      2.582031000000000E+01      3.046112000000000E-01      1.645391000000000E+02
4905000000.000000      3.982544000000000E-01      2.562012000000000E+01      3.014374000000000E-01      1.642500000000000E+02
4906000000.000000      3.968048000000000E-01      2.558300000000000E+01      2.983704000000000E-01      1.640547000000000E+02
4907000000.000000      3.980560000000000E-01      2.538476000000000E+01      2.953186000000000E-01      1.634531000000000E+02
4908000000.000000      3.981323000000000E-01      2.511328000000000E+01      2.912445000000000E-01      1.630156000000000E+02
4909000000.000000      3.973694000000000E-01      2.507324000000000E+01      2.871094000000000E-01      1.626641000000000E+02
4910000000.000000      3.966370000000000E-01      2.485742000000000E+01      2.842560000000000E-01      1.622969000000000E+02
4911000000.000000      3.972321000000000E-01      2.469727000000000E+01      2.811890000000000E-01      1.620937000000000E+02
4912000000.000000      3.961029000000000E-01      2.441406000000000E+01      2.771454000000000E-01      1.616797000000000E+02
4913000000.000000      3.978577000000000E-01      2.417187000000000E+01      2.734833000000000E-01      1.613203000000000E+02
4914000000.000000      3.966522000000000E-01      2.399902000000000E+01      2.707977000000000E-01      1.611016000000000E+02
4915000000.000000      3.965454000000000E-01      2.379981000000000E+01      2.662048000000000E-01      1.604922000000000E+02
4916000000.000000      3.961487000000000E-01      2.370410000000000E+01      2.626953000000000E-01      1.600859000000000E+02
4917000000.000000      3.961182000000000E-01      2.352832000000000E+01      2.594147000000000E-01      1.599609000000000E+02
4918000000.000000      3.962250000000000E-01      2.324219000000000E+01      2.553864000000000E-01      1.594766000000000E+02
4919000000.000000      3.948975000000000E-01      2.318457000000000E+01      2.520142000000000E-01      1.595625000000000E+02
4920000000.000000      3.952942000000000E-01      2.283886000000000E+01      2.476959000000000E-01      1.589531000000000E+02
4921000000.000000      3.944092000000000E-01      2.294140000000000E+01      2.444000000000000E-01      1.587656000000000E+02
4922000000.000000      3.940887000000000E-01      2.261523000000000E+01      2.409210000000000E-01      1.585156000000000E+02
4923000000.000000      3.941650000000000E-01      2.247656000000000E+01      2.362213000000000E-01      1.583125000000000E+02
4924000000.000000      3.944244000000000E-01      2.223047000000000E+01      2.323532000000000E-01      1.579766000000000E+02
4925000000.000000      3.932648000000000E-01      2.206445000000000E+01      2.287064000000000E-01      1.578203000000000E+02
4926000000.000000      3.929291000000000E-01      2.194434000000000E+01      2.249374000000000E-01      1.574766000000000E+02
4927000000.000000      3.929596000000000E-01      2.173633000000000E+01      2.205048000000000E-01      1.573828000000000E+02
4928000000.000000      3.925781000000000E-01      2.157227000000000E+01      2.170563000000000E-01      1.571797000000000E+02
4929000000.000000      3.925629000000000E-01      2.141016000000000E+01      2.122345000000000E-01      1.571328000000000E+02
4930000000.000000      3.928528000000000E-01      2.141699000000000E+01      2.086182000000000E-01      1.569766000000000E+02
4931000000.000000      3.922119000000000E-01      2.103320000000000E+01      2.054214000000000E-01      1.568984000000000E+02
4932000000.000000      3.911133000000000E-01      2.085938000000000E+01      2.012787000000000E-01      1.569531000000000E+02
4933000000.000000      3.912659000000000E-01      2.072754000000000E+01      1.962128000000000E-01      1.570547000000000E+02
4934000000.000000      3.923950000000000E-01      2.051270000000000E+01      1.921997000000000E-01      1.568203000000000E+02
4935000000.000000      3.916931000000000E-01      2.044140000000000E+01      1.892929000000000E-01      1.571875000000000E+02
4936000000.000000      3.908997000000000E-01      2.025097000000000E+01      1.851425000000000E-01      1.571797000000000E+02
4937000000.000000      3.912811000000000E-01      1.998730000000000E+01      1.811981000000000E-01      1.572266000000000E+02
4938000000.000000      3.900299000000000E-01      1.995508000000000E+01      1.767731000000000E-01      1.574844000000000E+02
4939000000.000000      3.897858000000000E-01      1.972558000000000E+01      1.730499000000000E-01      1.577500000000000E+02
4940000000.000000      3.908539000000000E-01      1.961719000000000E+01      1.689911000000000E-01      1.578516000000000E+02
4941000000.000000      3.903198000000000E-01      1.926367000000000E+01      1.656342000000000E-01      1.585156000000000E+02
4942000000.000000      3.884125000000000E-01      1.923340000000000E+01      1.611938000000000E-01      1.586875000000000E+02
4943000000.000000      3.890991000000000E-01      1.901855000000000E+01      1.578445000000000E-01      1.592266000000000E+02
4944000000.000000      3.890991000000000E-01      1.885644000000000E+01      1.545105000000000E-01      1.598750000000000E+02
4945000000.000000      3.886108000000000E-01      1.871094000000000E+01      1.510162000000000E-01      1.603359000000000E+02
4946000000.000000      3.886871000000000E-01      1.857715000000000E+01      1.471786000000000E-01      1.610781000000000E+02
4947000000.000000      3.881683000000000E-01      1.826562000000000E+01      1.435471000000000E-01      1.618906000000000E+02
4948000000.000000      3.883820000000000E-01      1.831640000000000E+01      1.401062000000000E-01      1.627422000000000E+02
4949000000.000000      3.871307000000000E-01      1.807519000000000E+01      1.379089000000000E-01      1.637812000000000E+02
4950000000.000000      3.877716000000000E-01      1.798730000000000E+01      1.341324000000000E-01      1.648047000000000E+02
4951000000.000000      3.876648000000000E-01      1.779004000000000E+01      1.315002000000000E-01      1.656563000000000E+02
4952000000.000000      3.869171000000000E-01      1.751953000000000E+01      1.283493000000000E-01      1.669922000000000E+02
4953000000.000000      3.863220000000000E-01      1.736719000000000E+01      1.262131000000000E-01      1.684687000000000E+02
4954000000.000000      3.860168000000000E-01      1.727246000000000E+01      1.238594000000000E-01      1.695313000000000E+02
