! Network Analyzer HP8722D
! Hewlett-Packard
! Data name: Linha & Wilkinson
! Saver's name: Rodrigo Anjos
! Comments: Teste da utilização de aquisição
continua pelo VNA HP8722D
! Time and date: 23/5/2025 13:44
!              Frequency                     S11                                                   S21                                                   S12                                                   S22
# HZ  S  MA R 50
4800000000.000000      2.908325000000000E-01      3.937500000000000E+01      4.824219000000000E-01     -1.292813000000000E+02
4801000000.000000      2.915344000000000E-01      3.965625000000000E+01      4.823456000000000E-01     -1.300078000000000E+02
4802000000.000000      2.932129000000000E-01      3.980664000000000E+01      4.853363000000000E-01     -1.305234000000000E+02
4803000000.000000      2.935028000000000E-01      3.995312000000000E+01      4.880066000000000E-01     -1.312813000000000E+02
4804000000.000000      2.950592000000000E-01      4.022461000000000E+01      4.891205000000000E-01     -1.319766000000000E+02
4805000000.000000      2.967224000000000E-01      4.028906000000000E+01      4.903870000000000E-01     -1.328438000000000E+02
4806000000.000000      2.977448000000000E-01      4.050781000000000E+01      4.917908000000000E-01     -1.334531000000000E+02
4807000000.000000      2.987518000000000E-01      4.069921000000000E+01      4.925537000000000E-01     -1.343359000000000E+02
4808000000.000000      2.996368000000000E-01      4.089063000000000E+01      4.956055000000000E-01     -1.348672000000000E+02
4809000000.000000      3.016968000000000E-01      4.108007000000000E+01      4.959412000000000E-01     -1.357188000000000E+02
4810000000.000000      3.030396000000000E-01      4.120117000000000E+01      4.968414000000000E-01     -1.363359000000000E+02
4811000000.000000      3.047791000000000E-01      4.139062000000000E+01      4.977264000000000E-01     -1.374297000000000E+02
4812000000.000000      3.070831000000000E-01      4.152539000000000E+01      4.991302000000000E-01     -1.377891000000000E+02
4813000000.000000      3.077698000000000E-01      4.165429000000000E+01      4.996948000000000E-01     -1.386797000000000E+02
4814000000.000000      3.092194000000000E-01      4.169726000000000E+01      4.995270000000000E-01     -1.394375000000000E+02
4815000000.000000      3.106537000000000E-01      4.181445000000000E+01      5.017090000000000E-01     -1.401562000000000E+02
4816000000.000000      3.128510000000000E-01      4.198828000000000E+01      5.024109000000000E-01     -1.408828000000000E+02
4817000000.000000      3.141022000000000E-01      4.200391000000000E+01      5.024719000000000E-01     -1.415703000000000E+02
4818000000.000000      3.159943000000000E-01      4.201953000000000E+01      5.019836000000000E-01     -1.423594000000000E+02
4819000000.000000      3.181458000000000E-01      4.205664000000000E+01      5.024414000000000E-01     -1.431641000000000E+02
4820000000.000000      3.188934000000000E-01      4.212304000000000E+01      5.030823000000000E-01     -1.436563000000000E+02
4821000000.000000      3.216095000000000E-01      4.212500000000000E+01      5.038147000000000E-01     -1.445078000000000E+02
4822000000.000000      3.228607000000000E-01      4.213281000000000E+01      5.021057000000000E-01     -1.452656000000000E+02
4823000000.000000      3.245392000000000E-01      4.212500000000000E+01      5.014038000000000E-01     -1.459531000000000E+02
4824000000.000000      3.267212000000000E-01      4.225195000000000E+01      5.034790000000000E-01     -1.468047000000000E+02
4825000000.000000      3.280792000000000E-01      4.206250000000000E+01      5.012817000000000E-01     -1.473125000000000E+02
4826000000.000000      3.298187000000000E-01      4.197851000000000E+01      5.023804000000000E-01     -1.481484000000000E+02
4827000000.000000      3.322449000000000E-01      4.200585000000000E+01      5.006409000000000E-01     -1.488750000000000E+02
4828000000.000000      3.344421000000000E-01      4.202538000000000E+01      5.018311000000000E-01     -1.495859000000000E+02
4829000000.000000      3.357391000000000E-01      4.203515000000000E+01      5.001526000000000E-01     -1.502422000000000E+02
4830000000.000000      3.372192000000000E-01      4.185742000000000E+01      5.011902000000000E-01     -1.510703000000000E+02
4831000000.000000      3.387756000000000E-01      4.179688000000000E+01      5.010376000000000E-01     -1.518984000000000E+02
4832000000.000000      3.412170000000000E-01      4.177930000000000E+01      4.983673000000000E-01     -1.523359000000000E+02
4833000000.000000      3.416748000000000E-01      4.158789000000000E+01      4.975891000000000E-01     -1.531172000000000E+02
4834000000.000000      3.444061000000000E-01      4.144921000000000E+01      4.969330000000000E-01     -1.539141000000000E+02
4835000000.000000      3.459625000000000E-01      4.139648000000000E+01      4.969025000000000E-01     -1.547344000000000E+02
4836000000.000000      3.480072000000000E-01      4.132226000000000E+01      4.958191000000000E-01     -1.554609000000000E+02
4837000000.000000      3.493195000000000E-01      4.127343000000000E+01      4.944305000000000E-01     -1.562578000000000E+02
4838000000.000000      3.502350000000000E-01      4.108007000000000E+01      4.938049000000000E-01     -1.567578000000000E+02
4839000000.000000      3.536987000000000E-01      4.101171000000000E+01      4.930267000000000E-01     -1.574453000000000E+02
4840000000.000000      3.545837000000000E-01      4.072461000000000E+01      4.902802000000000E-01     -1.581640000000000E+02
4841000000.000000      3.558502000000000E-01      4.066602000000000E+01      4.899902000000000E-01     -1.590937000000000E+02
4842000000.000000      3.578186000000000E-01      4.045312000000000E+01      4.879913000000000E-01     -1.596484000000000E+02
4843000000.000000      3.602295000000000E-01      4.016015000000000E+01      4.885864000000000E-01     -1.606016000000000E+02
4844000000.000000      3.607941000000000E-01      4.005859000000000E+01      4.861298000000000E-01     -1.611328000000000E+02
4845000000.000000      3.628845000000000E-01      3.999414000000000E+01      4.839325000000000E-01     -1.618438000000000E+02
4846000000.000000      3.643341000000000E-01      3.971094000000000E+01      4.832916000000000E-01     -1.625313000000000E+02
4847000000.000000      3.656921000000000E-01      3.966015000000000E+01      4.824677000000000E-01     -1.631797000000000E+02
4848000000.000000      3.672180000000000E-01      3.936328000000000E+01      4.785919000000000E-01     -1.637656000000000E+02
4849000000.000000      3.685303000000000E-01      3.902929000000000E+01      4.776306000000000E-01     -1.646797000000000E+02
4850000000.000000      3.695221000000000E-01      3.896484000000000E+01      4.756775000000000E-01     -1.652891000000000E+02
4851000000.000000      3.712006000000000E-01      3.878711000000000E+01      4.755859000000000E-01     -1.661328000000000E+02
4852000000.000000      3.725128000000000E-01      3.852930000000000E+01      4.723969000000000E-01     -1.666328000000000E+02
4853000000.000000      3.739319000000000E-01      3.834375000000000E+01      4.690399000000000E-01     -1.674297000000000E+02
4854000000.000000      3.754883000000000E-01      3.804492000000000E+01      4.680939000000000E-01     -1.680312000000000E+02
4855000000.000000      3.767700000000000E-01      3.780273000000000E+01      4.663086000000000E-01     -1.688750000000000E+02
4856000000.000000      3.773499000000000E-01      3.762890000000000E+01      4.637756000000000E-01     -1.695469000000000E+02
4857000000.000000      3.788147000000000E-01      3.743164000000000E+01      4.621277000000000E-01     -1.702578000000000E+02
4858000000.000000      3.798981000000000E-01      3.713672000000000E+01      4.605255000000000E-01     -1.708594000000000E+02
4859000000.000000      3.808441000000000E-01      3.685937000000000E+01      4.561005000000000E-01     -1.716094000000000E+02
4860000000.000000      3.822632000000000E-01      3.672266000000000E+01      4.539185000000000E-01     -1.723203000000000E+02
4861000000.000000      3.831177000000000E-01      3.652929000000000E+01      4.516144000000000E-01     -1.730234000000000E+02
4862000000.000000      3.829193000000000E-01      3.620117000000000E+01      4.481201000000000E-01     -1.735312000000000E+02
4863000000.000000      3.847809000000000E-01      3.595117000000000E+01      4.443817000000000E-01     -1.744453000000000E+02
4864000000.000000      3.857727000000000E-01      3.572851000000000E+01      4.440308000000000E-01     -1.750547000000000E+02
4865000000.000000      3.859100000000000E-01      3.540625000000000E+01      4.392242000000000E-01     -1.754844000000000E+02
4866000000.000000      3.871765000000000E-01      3.520117000000000E+01      4.359436000000000E-01     -1.762891000000000E+02
4867000000.000000      3.875275000000000E-01      3.490625000000000E+01      4.343414000000000E-01     -1.771250000000000E+02
4868000000.000000      3.889160000000000E-01      3.461523000000000E+01      4.312286000000000E-01     -1.777422000000000E+02
4869000000.000000      3.891907000000000E-01      3.436523000000000E+01      4.266052000000000E-01     -1.785000000000000E+02
4870000000.000000      3.894958000000000E-01      3.413281000000000E+01      4.235535000000000E-01     -1.787109000000000E+02
4871000000.000000      3.907623000000000E-01      3.388281000000000E+01      4.222260000000000E-01     -1.795703000000000E+02
4872000000.000000      3.913116000000000E-01      3.367969000000000E+01      4.189453000000000E-01      1.799141000000000E+02
4873000000.000000      3.923187000000000E-01      3.333984000000000E+01      4.145660000000000E-01      1.792266000000000E+02
4874000000.000000      3.923035000000000E-01      3.304883000000000E+01      4.114990000000000E-01      1.785547000000000E+02
4875000000.000000      3.931580000000000E-01      3.288867000000000E+01      4.069672000000000E-01      1.780703000000000E+02
4876000000.000000      3.934174000000000E-01      3.277734000000000E+01      4.053650000000000E-01      1.776250000000000E+02
4877000000.000000      3.947144000000000E-01      3.227344000000000E+01      4.008942000000000E-01      1.769063000000000E+02
4878000000.000000      3.939514000000000E-01      3.197363000000000E+01      3.991547000000000E-01      1.761641000000000E+02
4879000000.000000      3.950958000000000E-01      3.188086000000000E+01      3.935699000000000E-01      1.758984000000000E+02
4880000000.000000      3.955994000000000E-01      3.160058000000000E+01      3.911591000000000E-01      1.751328000000000E+02
4881000000.000000      3.949585000000000E-01      3.134180000000000E+01      3.869629000000000E-01      1.747578000000000E+02
4882000000.000000      3.957367000000000E-01      3.115918000000000E+01      3.835754000000000E-01      1.741719000000000E+02
4883000000.000000      3.955383000000000E-01      3.064550000000000E+01      3.796539000000000E-01      1.735469000000000E+02
4884000000.000000      3.960419000000000E-01      3.056250000000000E+01      3.773956000000000E-01      1.731406000000000E+02
4885000000.000000      3.966217000000000E-01      3.029297000000000E+01      3.720398000000000E-01      1.726094000000000E+02
4886000000.000000      3.973236000000000E-01      3.013184000000000E+01      3.688812000000000E-01      1.723906000000000E+02
4887000000.000000      3.971405000000000E-01      2.984277000000000E+01      3.652954000000000E-01      1.717969000000000E+02
4888000000.000000      3.962402000000000E-01      2.950976000000000E+01      3.636932000000000E-01      1.710547000000000E+02
4889000000.000000      3.967743000000000E-01      2.938672000000000E+01      3.581238000000000E-01      1.708203000000000E+02
4890000000.000000      3.962097000000000E-01      2.908691000000000E+01      3.543091000000000E-01      1.699766000000000E+02
4891000000.000000      3.976440000000000E-01      2.892773000000000E+01      3.502197000000000E-01      1.696484000000000E+02
4892000000.000000      3.956757000000000E-01      2.872559000000000E+01      3.461914000000000E-01      1.695078000000000E+02
4893000000.000000      3.972015000000000E-01      2.836523000000000E+01      3.440704000000000E-01      1.689844000000000E+02
4894000000.000000      3.955841000000000E-01      2.824023000000000E+01      3.401337000000000E-01      1.684531000000000E+02
4895000000.000000      3.975372000000000E-01      2.789648000000000E+01      3.386993000000000E-01      1.680156000000000E+02
4896000000.000000      3.969421000000000E-01      2.766699000000000E+01      3.338623000000000E-01      1.676016000000000E+02
4897000000.000000      3.960266000000000E-01      2.749121000000000E+01      3.287201000000000E-01      1.672734000000000E+02
4898000000.000000      3.959045000000000E-01      2.738672000000000E+01      3.261566000000000E-01      1.669531000000000E+02
4899000000.000000      3.957062000000000E-01      2.708203000000000E+01      3.244934000000000E-01      1.661406000000000E+02
4900000000.000000      3.963318000000000E-01      2.683887000000000E+01      3.204041000000000E-01      1.660547000000000E+02
4901000000.000000      3.952637000000000E-01      2.670019000000000E+01      3.168640000000000E-01      1.655859000000000E+02
4902000000.000000      3.959045000000000E-01      2.642187000000000E+01      3.145142000000000E-01      1.652812000000000E+02
4903000000.000000      3.954773000000000E-01      2.612597000000000E+01      3.096619000000000E-01      1.648828000000000E+02
4904000000.000000      3.951874000000000E-01      2.588183000000000E+01      3.064423000000000E-01      1.643672000000000E+02
4905000000.000000      3.952942000000000E-01      2.574023000000000E+01      3.032837000000000E-01      1.640234000000000E+02
4906000000.000000      3.947601000000000E-01      2.550683000000000E+01      3.003235000000000E-01      1.638515000000000E+02
4907000000.000000      3.948822000000000E-01      2.545117000000000E+01      2.971344000000000E-01      1.633906000000000E+02
4908000000.000000      3.943176000000000E-01      2.523535000000000E+01      2.934418000000000E-01      1.628203000000000E+02
4909000000.000000      3.945465000000000E-01      2.489062000000000E+01      2.895660000000000E-01      1.623984000000000E+02
4910000000.000000      3.927460000000000E-01      2.486133000000000E+01      2.861023000000000E-01      1.620859000000000E+02
4911000000.000000      3.936462000000000E-01      2.467773000000000E+01      2.829590000000000E-01      1.617188000000000E+02
4912000000.000000      3.927765000000000E-01      2.452148000000000E+01      2.787933000000000E-01      1.613672000000000E+02
4913000000.000000      3.930664000000000E-01      2.419043000000000E+01      2.760162000000000E-01      1.610391000000000E+02
4914000000.000000      3.939972000000000E-01      2.400586000000000E+01      2.714844000000000E-01      1.607656000000000E+02
4915000000.000000      3.929443000000000E-01      2.381250000000000E+01      2.676239000000000E-01      1.603437000000000E+02
4916000000.000000      3.925934000000000E-01      2.374218000000000E+01      2.651367000000000E-01      1.598906000000000E+02
4917000000.000000      3.928223000000000E-01      2.349512000000000E+01      2.603455000000000E-01      1.597265000000000E+02
4918000000.000000      3.919373000000000E-01      2.326270000000000E+01      2.567596000000000E-01      1.593125000000000E+02
4919000000.000000      3.915863000000000E-01      2.314453000000000E+01      2.538300000000000E-01      1.593594000000000E+02
4920000000.000000      3.922729000000000E-01      2.291406000000000E+01      2.493973000000000E-01      1.587188000000000E+02
4921000000.000000      3.912659000000000E-01      2.280176000000000E+01      2.459946000000000E-01      1.584609000000000E+02
4922000000.000000      3.914185000000000E-01      2.265723000000000E+01      2.415848000000000E-01      1.582187000000000E+02
4923000000.000000      3.913269000000000E-01      2.245410000000000E+01      2.379227000000000E-01      1.581719000000000E+02
4924000000.000000      3.907318000000000E-01      2.221484000000000E+01      2.337799000000000E-01      1.576641000000000E+02
4925000000.000000      3.906860000000000E-01      2.199707000000000E+01      2.301254000000000E-01      1.576250000000000E+02
4926000000.000000      3.904419000000000E-01      2.197070000000000E+01      2.263107000000000E-01      1.572969000000000E+02
4927000000.000000      3.889465000000000E-01      2.174414000000000E+01      2.217865000000000E-01      1.571328000000000E+02
4928000000.000000      3.896332000000000E-01      2.154004000000000E+01      2.183533000000000E-01      1.568203000000000E+02
4929000000.000000      3.897400000000000E-01      2.138476000000000E+01      2.141647000000000E-01      1.567656000000000E+02
4930000000.000000      3.889465000000000E-01      2.124707000000000E+01      2.105865000000000E-01      1.567812000000000E+02
4931000000.000000      3.894043000000000E-01      2.088281000000000E+01      2.063904000000000E-01      1.566015000000000E+02
4932000000.000000      3.890839000000000E-01      2.071875000000000E+01      2.025604000000000E-01      1.566250000000000E+02
4933000000.000000      3.885345000000000E-01      2.074414000000000E+01      1.973877000000000E-01      1.567031000000000E+02
4934000000.000000      3.882599000000000E-01      2.050976000000000E+01      1.941757000000000E-01      1.565703000000000E+02
4935000000.000000      3.885651000000000E-01      2.037402000000000E+01      1.908188000000000E-01      1.568203000000000E+02
4936000000.000000      3.877563000000000E-01      2.012890000000000E+01      1.858063000000000E-01      1.569766000000000E+02
4937000000.000000      3.871613000000000E-01      1.991601000000000E+01      1.823273000000000E-01      1.570547000000000E+02
4938000000.000000      3.868866000000000E-01      1.984473000000000E+01      1.783142000000000E-01      1.573047000000000E+02
4939000000.000000      3.868561000000000E-01      1.969824000000000E+01      1.743622000000000E-01      1.575156000000000E+02
4940000000.000000      3.863525000000000E-01      1.948828000000000E+01      1.701736000000000E-01      1.577500000000000E+02
4941000000.000000      3.864746000000000E-01      1.917090000000000E+01      1.667633000000000E-01      1.581094000000000E+02
4942000000.000000      3.859558000000000E-01      1.916016000000000E+01      1.624908000000000E-01      1.585469000000000E+02
4943000000.000000      3.857574000000000E-01      1.898828000000000E+01      1.590652000000000E-01      1.590312000000000E+02
4944000000.000000      3.855743000000000E-01      1.879980000000000E+01      1.554642000000000E-01      1.596250000000000E+02
4945000000.000000      3.841248000000000E-01      1.868066000000000E+01      1.514816000000000E-01      1.600156000000000E+02
4946000000.000000      3.846741000000000E-01      1.848535000000000E+01      1.479950000000000E-01      1.607188000000000E+02
4947000000.000000      3.844147000000000E-01      1.828125000000000E+01      1.445999000000000E-01      1.614297000000000E+02
4948000000.000000      3.845215000000000E-01      1.816308000000000E+01      1.415482000000000E-01      1.622422000000000E+02
4949000000.000000      3.833618000000000E-01      1.798926000000000E+01      1.381989000000000E-01      1.635000000000000E+02
4950000000.000000      3.836517000000000E-01      1.802148000000000E+01      1.352234000000000E-01      1.641875000000000E+02
4951000000.000000      3.839111000000000E-01      1.769727000000000E+01      1.323318000000000E-01      1.651250000000000E+02
4952000000.000000      3.836670000000000E-01      1.753906000000000E+01      1.290741000000000E-01      1.664687000000000E+02
4953000000.000000      3.824463000000000E-01      1.739941000000000E+01      1.275482000000000E-01      1.678359000000000E+02
4954000000.000000      3.828583000000000E-01      1.710351000000000E+01      1.243286000000000E-01      1.692969000000000E+02
