! Network Analyzer HP8722D
! Hewlett-Packard
! Data name: Linha & Wilkinson
! Saver's name: Rodrigo Anjos
! Comments: Teste da utilização de aquisição
continua pelo VNA HP8722D
! Time and date: 23/5/2025 13:11
!              Frequency                     S11                                                   S21                                                   S12                                                   S22
# HZ  S  MA R 50
4800000000.000000      2.862854000000000E-01      3.960351000000000E+01      4.849396000000000E-01     -1.294375000000000E+02
4801000000.000000      2.874603000000000E-01      4.001758000000000E+01      4.854889000000000E-01     -1.301641000000000E+02
4802000000.000000      2.884216000000000E-01      4.004492000000000E+01      4.879150000000000E-01     -1.307109000000000E+02
4803000000.000000      2.890778000000000E-01      4.030859000000000E+01      4.911346000000000E-01     -1.314922000000000E+02
4804000000.000000      2.904358000000000E-01      4.063672000000000E+01      4.903870000000000E-01     -1.322656000000000E+02
4805000000.000000      2.927551000000000E-01      4.064258000000000E+01      4.935913000000000E-01     -1.329297000000000E+02
4806000000.000000      2.932587000000000E-01      4.085742000000000E+01      4.937897000000000E-01     -1.338281000000000E+02
4807000000.000000      2.946014000000000E-01      4.112890000000000E+01      4.960022000000000E-01     -1.345547000000000E+02
4808000000.000000      2.955780000000000E-01      4.125977000000000E+01      4.968719000000000E-01     -1.351563000000000E+02
4809000000.000000      2.974701000000000E-01      4.150976000000000E+01      4.986572000000000E-01     -1.359688000000000E+02
4810000000.000000      2.988434000000000E-01      4.160156000000000E+01      4.993286000000000E-01     -1.365703000000000E+02
4811000000.000000      3.004913000000000E-01      4.171875000000000E+01      4.992371000000000E-01     -1.374063000000000E+02
4812000000.000000      3.032532000000000E-01      4.194531000000000E+01      4.997406000000000E-01     -1.380078000000000E+02
4813000000.000000      3.036652000000000E-01      4.207227000000000E+01      5.014648000000000E-01     -1.388750000000000E+02
4814000000.000000      3.053436000000000E-01      4.203515000000000E+01      5.025940000000000E-01     -1.396406000000000E+02
4815000000.000000      3.066101000000000E-01      4.216601000000000E+01      5.032349000000000E-01     -1.403594000000000E+02
4816000000.000000      3.098145000000000E-01      4.232812000000000E+01      5.027771000000000E-01     -1.409844000000000E+02
4817000000.000000      3.101349000000000E-01      4.244141000000000E+01      5.039978000000000E-01     -1.418125000000000E+02
4818000000.000000      3.122101000000000E-01      4.237695000000000E+01      5.043945000000000E-01     -1.425781000000000E+02
4819000000.000000      3.144379000000000E-01      4.242578000000000E+01      5.054321000000000E-01     -1.432422000000000E+02
4820000000.000000      3.154449000000000E-01      4.244726000000000E+01      5.043945000000000E-01     -1.439219000000000E+02
4821000000.000000      3.181152000000000E-01      4.246875000000000E+01      5.055237000000000E-01     -1.446640000000000E+02
4822000000.000000      3.190155000000000E-01      4.243945000000000E+01      5.036316000000000E-01     -1.454531000000000E+02
4823000000.000000      3.209839000000000E-01      4.249023000000000E+01      5.057373000000000E-01     -1.461406000000000E+02
4824000000.000000      3.228149000000000E-01      4.262304000000000E+01      5.052185000000000E-01     -1.468750000000000E+02
4825000000.000000      3.250122000000000E-01      4.242383000000000E+01      5.052490000000000E-01     -1.476172000000000E+02
4826000000.000000      3.263702000000000E-01      4.231641000000000E+01      5.057983000000000E-01     -1.484531000000000E+02
4827000000.000000      3.280182000000000E-01      4.240234000000000E+01      5.053711000000000E-01     -1.490391000000000E+02
4828000000.000000      3.307495000000000E-01      4.231445000000000E+01      5.034485000000000E-01     -1.497813000000000E+02
4829000000.000000      3.325348000000000E-01      4.237109000000000E+01      5.034790000000000E-01     -1.505078000000000E+02
4830000000.000000      3.338776000000000E-01      4.225390000000000E+01      5.032959000000000E-01     -1.512578000000000E+02
4831000000.000000      3.352203000000000E-01      4.209374000000000E+01      5.021057000000000E-01     -1.520625000000000E+02
4832000000.000000      3.374023000000000E-01      4.213086000000000E+01      5.009766000000000E-01     -1.526562000000000E+02
4833000000.000000      3.385010000000000E-01      4.198242000000000E+01      5.007935000000000E-01     -1.534062000000000E+02
4834000000.000000      3.398895000000000E-01      4.187696000000000E+01      5.000305000000000E-01     -1.540390000000000E+02
4835000000.000000      3.423767000000000E-01      4.164063000000000E+01      4.996033000000000E-01     -1.549844000000000E+02
4836000000.000000      3.442535000000000E-01      4.159375000000000E+01      4.982758000000000E-01     -1.555938000000000E+02
4837000000.000000      3.459167000000000E-01      4.159375000000000E+01      4.962616000000000E-01     -1.566015000000000E+02
4838000000.000000      3.475494000000000E-01      4.143555000000000E+01      4.962616000000000E-01     -1.569609000000000E+02
4839000000.000000      3.502655000000000E-01      4.129687000000000E+01      4.952087000000000E-01     -1.575469000000000E+02
4840000000.000000      3.509827000000000E-01      4.106835000000000E+01      4.954681000000000E-01     -1.583594000000000E+02
4841000000.000000      3.531952000000000E-01      4.094531000000000E+01      4.936523000000000E-01     -1.590859000000000E+02
4842000000.000000      3.544769000000000E-01      4.070117000000000E+01      4.919586000000000E-01     -1.597734000000000E+02
4843000000.000000      3.569336000000000E-01      4.045117000000000E+01      4.911194000000000E-01     -1.606484000000000E+02
4844000000.000000      3.576813000000000E-01      4.025391000000000E+01      4.891815000000000E-01     -1.613906000000000E+02
4845000000.000000      3.594208000000000E-01      4.031836000000000E+01      4.877014000000000E-01     -1.618203000000000E+02
4846000000.000000      3.616028000000000E-01      4.003906000000000E+01      4.859314000000000E-01     -1.627578000000000E+02
4847000000.000000      3.630676000000000E-01      3.995898000000000E+01      4.834137000000000E-01     -1.634140000000000E+02
4848000000.000000      3.642426000000000E-01      3.956640000000000E+01      4.815369000000000E-01     -1.640156000000000E+02
4849000000.000000      3.649597000000000E-01      3.930664000000000E+01      4.806519000000000E-01     -1.647812000000000E+02
4850000000.000000      3.668213000000000E-01      3.917383000000000E+01      4.792328000000000E-01     -1.655937000000000E+02
4851000000.000000      3.684235000000000E-01      3.906836000000000E+01      4.774628000000000E-01     -1.663047000000000E+02
4852000000.000000      3.692322000000000E-01      3.880859000000000E+01      4.759216000000000E-01     -1.670156000000000E+02
4853000000.000000      3.706665000000000E-01      3.864258000000000E+01      4.713287000000000E-01     -1.675625000000000E+02
4854000000.000000      3.718872000000000E-01      3.834765000000000E+01      4.697723000000000E-01     -1.684375000000000E+02
4855000000.000000      3.732758000000000E-01      3.809570000000000E+01      4.681702000000000E-01     -1.689766000000000E+02
4856000000.000000      3.743896000000000E-01      3.788086000000000E+01      4.659882000000000E-01     -1.697187000000000E+02
4857000000.000000      3.758545000000000E-01      3.769922000000000E+01      4.652863000000000E-01     -1.703359000000000E+02
4858000000.000000      3.756409000000000E-01      3.737305000000000E+01      4.619751000000000E-01     -1.710547000000000E+02
4859000000.000000      3.780670000000000E-01      3.700586000000000E+01      4.591675000000000E-01     -1.717969000000000E+02
4860000000.000000      3.785553000000000E-01      3.692187000000000E+01      4.569855000000000E-01     -1.723984000000000E+02
4861000000.000000      3.784180000000000E-01      3.660742000000000E+01      4.538879000000000E-01     -1.732109000000000E+02
4862000000.000000      3.800354000000000E-01      3.640429000000000E+01      4.516602000000000E-01     -1.738906000000000E+02
4863000000.000000      3.817902000000000E-01      3.616406000000000E+01      4.482574000000000E-01     -1.744609000000000E+02
4864000000.000000      3.832092000000000E-01      3.592968000000000E+01      4.458923000000000E-01     -1.750547000000000E+02
4865000000.000000      3.825989000000000E-01      3.572266000000000E+01      4.429321000000000E-01     -1.756719000000000E+02
4866000000.000000      3.845215000000000E-01      3.527929000000000E+01      4.400177000000000E-01     -1.766016000000000E+02
4867000000.000000      3.842773000000000E-01      3.518359000000000E+01      4.376373000000000E-01     -1.772500000000000E+02
4868000000.000000      3.858032000000000E-01      3.483984000000000E+01      4.344177000000000E-01     -1.779453000000000E+02
4869000000.000000      3.865814000000000E-01      3.459570000000000E+01      4.305420000000000E-01     -1.785234000000000E+02
4870000000.000000      3.869629000000000E-01      3.427734000000000E+01      4.274445000000000E-01     -1.789922000000000E+02
4871000000.000000      3.874054000000000E-01      3.387304000000000E+01      4.230652000000000E-01     -1.799453000000000E+02
4872000000.000000      3.889618000000000E-01      3.373632000000000E+01      4.206390000000000E-01      1.797812000000000E+02
4873000000.000000      3.881226000000000E-01      3.355273000000000E+01      4.185333000000000E-01      1.791172000000000E+02
4874000000.000000      3.886108000000000E-01      3.336133000000000E+01      4.136658000000000E-01      1.783516000000000E+02
4875000000.000000      3.897705000000000E-01      3.294336000000000E+01      4.094543000000000E-01      1.778047000000000E+02
4876000000.000000      3.905640000000000E-01      3.279492000000000E+01      4.074249000000000E-01      1.772578000000000E+02
4877000000.000000      3.904419000000000E-01      3.236914000000000E+01      4.023895000000000E-01      1.767734000000000E+02
4878000000.000000      3.908386000000000E-01      3.205859000000000E+01      3.999329000000000E-01      1.759531000000000E+02
4879000000.000000      3.912811000000000E-01      3.203320000000000E+01      3.960724000000000E-01      1.757578000000000E+02
4880000000.000000      3.921051000000000E-01      3.175781000000000E+01      3.932190000000000E-01      1.749141000000000E+02
4881000000.000000      3.918152000000000E-01      3.137207000000000E+01      3.879089000000000E-01      1.745703000000000E+02
4882000000.000000      3.930054000000000E-01      3.119824000000000E+01      3.863220000000000E-01      1.740391000000000E+02
4883000000.000000      3.926239000000000E-01      3.091894000000000E+01      3.826294000000000E-01      1.735000000000000E+02
4884000000.000000      3.932953000000000E-01      3.074023000000000E+01      3.782806000000000E-01      1.727734000000000E+02
4885000000.000000      3.937836000000000E-01      3.045605000000000E+01      3.752136000000000E-01      1.725078000000000E+02
4886000000.000000      3.939667000000000E-01      3.027637000000000E+01      3.708496000000000E-01      1.719297000000000E+02
4887000000.000000      3.935089000000000E-01      2.982324000000000E+01      3.703003000000000E-01      1.716797000000000E+02
4888000000.000000      3.934479000000000E-01      2.953613000000000E+01      3.657074000000000E-01      1.709297000000000E+02
4889000000.000000      3.930054000000000E-01      2.942480000000000E+01      3.600922000000000E-01      1.707656000000000E+02
4890000000.000000      3.929901000000000E-01      2.920117000000000E+01      3.573608000000000E-01      1.698906000000000E+02
4891000000.000000      3.938751000000000E-01      2.896679000000000E+01      3.534546000000000E-01      1.693906000000000E+02
4892000000.000000      3.931580000000000E-01      2.876953000000000E+01      3.503876000000000E-01      1.691719000000000E+02
4893000000.000000      3.939362000000000E-01      2.852148000000000E+01      3.461609000000000E-01      1.686875000000000E+02
4894000000.000000      3.930359000000000E-01      2.824804000000000E+01      3.427734000000000E-01      1.682344000000000E+02
4895000000.000000      3.946228000000000E-01      2.801465000000000E+01      3.403625000000000E-01      1.678437000000000E+02
4896000000.000000      3.930969000000000E-01      2.777539000000000E+01      3.368835000000000E-01      1.674062000000000E+02
4897000000.000000      3.925018000000000E-01      2.757910000000000E+01      3.319092000000000E-01      1.670391000000000E+02
4898000000.000000      3.925171000000000E-01      2.736230000000000E+01      3.302612000000000E-01      1.666875000000000E+02
4899000000.000000      3.923187000000000E-01      2.709179000000000E+01      3.246918000000000E-01      1.659375000000000E+02
4900000000.000000      3.923187000000000E-01      2.706152000000000E+01      3.225555000000000E-01      1.658828000000000E+02
4901000000.000000      3.921509000000000E-01      2.675000000000000E+01      3.189697000000000E-01      1.653906000000000E+02
4902000000.000000      3.924408000000000E-01      2.639453000000000E+01      3.162231000000000E-01      1.650078000000000E+02
4903000000.000000      3.926544000000000E-01      2.639843000000000E+01      3.126678000000000E-01      1.646250000000000E+02
4904000000.000000      3.921814000000000E-01      2.599609000000000E+01      3.089600000000000E-01      1.639922000000000E+02
4905000000.000000      3.911438000000000E-01      2.581152000000000E+01      3.058319000000000E-01      1.638594000000000E+02
4906000000.000000      3.911591000000000E-01      2.566504000000000E+01      3.018341000000000E-01      1.635547000000000E+02
4907000000.000000      3.922577000000000E-01      2.531738000000000E+01      2.990723000000000E-01      1.630391000000000E+02
4908000000.000000      3.917999000000000E-01      2.521679000000000E+01      2.961273000000000E-01      1.625781000000000E+02
4909000000.000000      3.907471000000000E-01      2.501269000000000E+01      2.919464000000000E-01      1.623906000000000E+02
4910000000.000000      3.899994000000000E-01      2.497949000000000E+01      2.881165000000000E-01      1.617969000000000E+02
4911000000.000000      3.910675000000000E-01      2.465820000000000E+01      2.850189000000000E-01      1.615469000000000E+02
4912000000.000000      3.898621000000000E-01      2.451953000000000E+01      2.821045000000000E-01      1.611250000000000E+02
4913000000.000000      3.896027000000000E-01      2.434961000000000E+01      2.779694000000000E-01      1.607656000000000E+02
4914000000.000000      3.906708000000000E-01      2.404199000000000E+01      2.743683000000000E-01      1.605078000000000E+02
4915000000.000000      3.886108000000000E-01      2.397070000000000E+01      2.704163000000000E-01      1.599688000000000E+02
4916000000.000000      3.887787000000000E-01      2.362305000000000E+01      2.668152000000000E-01      1.595703000000000E+02
4917000000.000000      3.887634000000000E-01      2.347070000000000E+01      2.629700000000000E-01      1.594219000000000E+02
4918000000.000000      3.884125000000000E-01      2.331641000000000E+01      2.586975000000000E-01      1.589766000000000E+02
4919000000.000000      3.877258000000000E-01      2.316308000000000E+01      2.556305000000000E-01      1.588828000000000E+02
4920000000.000000      3.890839000000000E-01      2.284961000000000E+01      2.517242000000000E-01      1.583516000000000E+02
4921000000.000000      3.871155000000000E-01      2.283496000000000E+01      2.480087000000000E-01      1.581875000000000E+02
4922000000.000000      3.879700000000000E-01      2.255176000000000E+01      2.442474000000000E-01      1.579844000000000E+02
4923000000.000000      3.870697000000000E-01      2.245605000000000E+01      2.396317000000000E-01      1.578203000000000E+02
4924000000.000000      3.878021000000000E-01      2.228906000000000E+01      2.356567000000000E-01      1.572891000000000E+02
4925000000.000000      3.868866000000000E-01      2.213965000000000E+01      2.319183000000000E-01      1.572578000000000E+02
4926000000.000000      3.860016000000000E-01      2.203711000000000E+01      2.285385000000000E-01      1.569453000000000E+02
4927000000.000000      3.860321000000000E-01      2.165722000000000E+01      2.240067000000000E-01      1.567500000000000E+02
4928000000.000000      3.861847000000000E-01      2.146387000000000E+01      2.201614000000000E-01      1.566406000000000E+02
4929000000.000000      3.853302000000000E-01      2.124121000000000E+01      2.156601000000000E-01      1.565312000000000E+02
4930000000.000000      3.842163000000000E-01      2.129199000000000E+01      2.119064000000000E-01      1.564609000000000E+02
4931000000.000000      3.844299000000000E-01      2.093164000000000E+01      2.084198000000000E-01      1.563516000000000E+02
4932000000.000000      3.845673000000000E-01      2.079297000000000E+01      2.040939000000000E-01      1.562578000000000E+02
4933000000.000000      3.843842000000000E-01      2.059473000000000E+01      1.994171000000000E-01      1.564766000000000E+02
4934000000.000000      3.842621000000000E-01      2.048047000000000E+01      1.956940000000000E-01      1.562500000000000E+02
4935000000.000000      3.847656000000000E-01      2.036914000000000E+01      1.922684000000000E-01      1.564297000000000E+02
4936000000.000000      3.845673000000000E-01      2.019629000000000E+01      1.874695000000000E-01      1.564453000000000E+02
4937000000.000000      3.839111000000000E-01      1.990527000000000E+01      1.842422000000000E-01      1.564297000000000E+02
4938000000.000000      3.831940000000000E-01      1.987012000000000E+01      1.798553000000000E-01      1.568125000000000E+02
4939000000.000000      3.822937000000000E-01      1.976758000000000E+01      1.759644000000000E-01      1.570078000000000E+02
4940000000.000000      3.827057000000000E-01      1.950586000000000E+01      1.724014000000000E-01      1.572109000000000E+02
4941000000.000000      3.832397000000000E-01      1.935156000000000E+01      1.686630000000000E-01      1.576797000000000E+02
4942000000.000000      3.811493000000000E-01      1.918262000000000E+01      1.643600000000000E-01      1.580234000000000E+02
4943000000.000000      3.813934000000000E-01      1.906250000000000E+01      1.605301000000000E-01      1.585312000000000E+02
4944000000.000000      3.810272000000000E-01      1.883691000000000E+01      1.569672000000000E-01      1.590859000000000E+02
4945000000.000000      3.813782000000000E-01      1.865430000000000E+01      1.535797000000000E-01      1.596719000000000E+02
4946000000.000000      3.816681000000000E-01      1.850879000000000E+01      1.495056000000000E-01      1.602344000000000E+02
4947000000.000000      3.803558000000000E-01      1.835644000000000E+01      1.460953000000000E-01      1.610000000000000E+02
4948000000.000000      3.806458000000000E-01      1.815820000000000E+01      1.431046000000000E-01      1.618438000000000E+02
4949000000.000000      3.795929000000000E-01      1.797363000000000E+01      1.397400000000000E-01      1.629453000000000E+02
4950000000.000000      3.797760000000000E-01      1.795898000000000E+01      1.364212000000000E-01      1.636094000000000E+02
4951000000.000000      3.799438000000000E-01      1.760742000000000E+01      1.336288000000000E-01      1.648125000000000E+02
4952000000.000000      3.789520000000000E-01      1.746484000000000E+01      1.304550000000000E-01      1.659922000000000E+02
4953000000.000000      3.791504000000000E-01      1.736035000000000E+01      1.283722000000000E-01      1.673750000000000E+02
4954000000.000000      3.780823000000000E-01      1.699121000000000E+01      1.255035000000000E-01      1.686875000000000E+02
