! Network Analyzer HP8722D
! Hewlett-Packard
! Data name: Linha & Wilkinson
! Saver's name: Rodrigo Anjos
! Comments: Teste da utilização de aquisição
continua pelo VNA HP8722D
! Time and date: 23/5/2025 16:06
!              Frequency                     S11                                                   S21                                                   S12                                                   S22
# HZ  S  MA R 50
4800000000.000000      2.806549000000000E-01      4.027929000000000E+01      4.867706000000000E-01     -1.295781000000000E+02
4801000000.000000      2.814636000000000E-01      4.055664000000000E+01      4.889069000000000E-01     -1.303750000000000E+02
4802000000.000000      2.826843000000000E-01      4.081250000000000E+01      4.910583000000000E-01     -1.309687000000000E+02
4803000000.000000      2.833862000000000E-01      4.093359000000000E+01      4.936829000000000E-01     -1.317344000000000E+02
4804000000.000000      2.847443000000000E-01      4.119531000000000E+01      4.950409000000000E-01     -1.323437000000000E+02
4805000000.000000      2.866974000000000E-01      4.129296000000000E+01      4.964142000000000E-01     -1.331016000000000E+02
4806000000.000000      2.877045000000000E-01      4.156640000000000E+01      4.980469000000000E-01     -1.338828000000000E+02
4807000000.000000      2.892609000000000E-01      4.173242000000000E+01      4.980927000000000E-01     -1.347188000000000E+02
4808000000.000000      2.899628000000000E-01      4.183203000000000E+01      5.005493000000000E-01     -1.352813000000000E+02
4809000000.000000      2.917023000000000E-01      4.217187000000000E+01      5.021057000000000E-01     -1.361797000000000E+02
4810000000.000000      2.933960000000000E-01      4.226758000000000E+01      5.025635000000000E-01     -1.368672000000000E+02
4811000000.000000      2.951508000000000E-01      4.239062000000000E+01      5.033264000000000E-01     -1.375078000000000E+02
4812000000.000000      2.975006000000000E-01      4.260742000000000E+01      5.040588000000000E-01     -1.384453000000000E+02
4813000000.000000      2.984467000000000E-01      4.274219000000000E+01      5.061340000000000E-01     -1.389062000000000E+02
4814000000.000000      2.995300000000000E-01      4.271874000000000E+01      5.065308000000000E-01     -1.398594000000000E+02
4815000000.000000      3.010712000000000E-01      4.283984000000000E+01      5.065308000000000E-01     -1.404297000000000E+02
4816000000.000000      3.035889000000000E-01      4.294531000000000E+01      5.080261000000000E-01     -1.412031000000000E+02
4817000000.000000      3.050995000000000E-01      4.307031000000000E+01      5.087585000000000E-01     -1.420312000000000E+02
4818000000.000000      3.066864000000000E-01      4.304101000000000E+01      5.068665000000000E-01     -1.427031000000000E+02
4819000000.000000      3.089600000000000E-01      4.311132000000000E+01      5.083008000000000E-01     -1.433828000000000E+02
4820000000.000000      3.093109000000000E-01      4.320898000000000E+01      5.090027000000000E-01     -1.439922000000000E+02
4821000000.000000      3.124084000000000E-01      4.316796000000000E+01      5.088806000000000E-01     -1.451016000000000E+02
4822000000.000000      3.137817000000000E-01      4.314062000000000E+01      5.082703000000000E-01     -1.457734000000000E+02
4823000000.000000      3.159180000000000E-01      4.304688000000000E+01      5.094910000000000E-01     -1.462656000000000E+02
4824000000.000000      3.176575000000000E-01      4.327538000000000E+01      5.083923000000000E-01     -1.472109000000000E+02
4825000000.000000      3.195038000000000E-01      4.304492000000000E+01      5.087585000000000E-01     -1.479375000000000E+02
4826000000.000000      3.211365000000000E-01      4.306641000000000E+01      5.083008000000000E-01     -1.486797000000000E+02
4827000000.000000      3.231201000000000E-01      4.299218000000000E+01      5.072937000000000E-01     -1.491875000000000E+02
4828000000.000000      3.252106000000000E-01      4.298633000000000E+01      5.077515000000000E-01     -1.501172000000000E+02
4829000000.000000      3.270721000000000E-01      4.302930000000000E+01      5.070801000000000E-01     -1.505625000000000E+02
4830000000.000000      3.291473000000000E-01      4.275391000000000E+01      5.073547000000000E-01     -1.513672000000000E+02
4831000000.000000      3.303986000000000E-01      4.271680000000000E+01      5.068054000000000E-01     -1.522969000000000E+02
4832000000.000000      3.325500000000000E-01      4.276953000000000E+01      5.054321000000000E-01     -1.530000000000000E+02
4833000000.000000      3.336945000000000E-01      4.257421000000000E+01      5.047913000000000E-01     -1.536016000000000E+02
4834000000.000000      3.349609000000000E-01      4.241796000000000E+01      5.032349000000000E-01     -1.542812000000000E+02
4835000000.000000      3.383942000000000E-01      4.230859000000000E+01      5.035095000000000E-01     -1.550390000000000E+02
4836000000.000000      3.398285000000000E-01      4.222656000000000E+01      5.017395000000000E-01     -1.558125000000000E+02
4837000000.000000      3.404694000000000E-01      4.219140000000000E+01      5.006409000000000E-01     -1.565781000000000E+02
4838000000.000000      3.418579000000000E-01      4.195117000000000E+01      5.001526000000000E-01     -1.570625000000000E+02
4839000000.000000      3.460083000000000E-01      4.186328000000000E+01      4.989929000000000E-01     -1.577969000000000E+02
4840000000.000000      3.465424000000000E-01      4.156054000000000E+01      4.982758000000000E-01     -1.586797000000000E+02
4841000000.000000      3.484039000000000E-01      4.148633000000000E+01      4.968719000000000E-01     -1.594922000000000E+02
4842000000.000000      3.492584000000000E-01      4.132813000000000E+01      4.951324000000000E-01     -1.601563000000000E+02
4843000000.000000      3.519135000000000E-01      4.107617000000000E+01      4.940948000000000E-01     -1.607265000000000E+02
4844000000.000000      3.524475000000000E-01      4.084180000000000E+01      4.917603000000000E-01     -1.616172000000000E+02
4845000000.000000      3.541565000000000E-01      4.080859000000000E+01      4.911499000000000E-01     -1.621016000000000E+02
4846000000.000000      3.563232000000000E-01      4.054883000000000E+01      4.900055000000000E-01     -1.630312000000000E+02
4847000000.000000      3.581696000000000E-01      4.049609000000000E+01      4.883575000000000E-01     -1.634375000000000E+02
4848000000.000000      3.586426000000000E-01      4.015625000000000E+01      4.848938000000000E-01     -1.643594000000000E+02
4849000000.000000      3.601685000000000E-01      3.990820000000000E+01      4.843903000000000E-01     -1.650703000000000E+02
4850000000.000000      3.613739000000000E-01      3.962305000000000E+01      4.825134000000000E-01     -1.655937000000000E+02
4851000000.000000      3.631439000000000E-01      3.952929000000000E+01      4.815674000000000E-01     -1.664531000000000E+02
4852000000.000000      3.644409000000000E-01      3.922461000000000E+01      4.785309000000000E-01     -1.671250000000000E+02
4853000000.000000      3.660278000000000E-01      3.909570000000000E+01      4.756927000000000E-01     -1.677891000000000E+02
4854000000.000000      3.669891000000000E-01      3.875977000000000E+01      4.739990000000000E-01     -1.685703000000000E+02
4855000000.000000      3.683014000000000E-01      3.867578000000000E+01      4.712372000000000E-01     -1.692344000000000E+02
4856000000.000000      3.691101000000000E-01      3.839258000000000E+01      4.687500000000000E-01     -1.699609000000000E+02
4857000000.000000      3.704987000000000E-01      3.814453000000000E+01      4.682312000000000E-01     -1.704844000000000E+02
4858000000.000000      3.711548000000000E-01      3.784375000000000E+01      4.644318000000000E-01     -1.712891000000000E+02
4859000000.000000      3.725281000000000E-01      3.753320000000000E+01      4.638062000000000E-01     -1.720078000000000E+02
4860000000.000000      3.733521000000000E-01      3.740625000000000E+01      4.598694000000000E-01     -1.726328000000000E+02
4861000000.000000      3.741608000000000E-01      3.714453000000000E+01      4.573212000000000E-01     -1.734297000000000E+02
4862000000.000000      3.745270000000000E-01      3.686523000000000E+01      4.570313000000000E-01     -1.739375000000000E+02
4863000000.000000      3.768768000000000E-01      3.669531000000000E+01      4.522095000000000E-01     -1.747890000000000E+02
4864000000.000000      3.777008000000000E-01      3.629883000000000E+01      4.509888000000000E-01     -1.752344000000000E+02
4865000000.000000      3.784943000000000E-01      3.599804000000000E+01      4.460144000000000E-01     -1.758125000000000E+02
4866000000.000000      3.785095000000000E-01      3.574414000000000E+01      4.424591000000000E-01     -1.766328000000000E+02
4867000000.000000      3.792419000000000E-01      3.557422000000000E+01      4.396515000000000E-01     -1.775000000000000E+02
4868000000.000000      3.812103000000000E-01      3.509961000000000E+01      4.356232000000000E-01     -1.781875000000000E+02
4869000000.000000      3.810120000000000E-01      3.489648000000000E+01      4.328918000000000E-01     -1.786797000000000E+02
4870000000.000000      3.816833000000000E-01      3.476953000000000E+01      4.301453000000000E-01     -1.789297000000000E+02
4871000000.000000      3.825073000000000E-01      3.435742000000000E+01      4.278412000000000E-01     -1.798437000000000E+02
4872000000.000000      3.836060000000000E-01      3.412304000000000E+01      4.236298000000000E-01      1.796172000000000E+02
4873000000.000000      3.842926000000000E-01      3.397070000000000E+01      4.210205000000000E-01      1.788437000000000E+02
4874000000.000000      3.842010000000000E-01      3.367383000000000E+01      4.172821000000000E-01      1.781328000000000E+02
4875000000.000000      3.847046000000000E-01      3.329687000000000E+01      4.130707000000000E-01      1.777109000000000E+02
4876000000.000000      3.852386000000000E-01      3.315234000000000E+01      4.100037000000000E-01      1.770156000000000E+02
4877000000.000000      3.862457000000000E-01      3.270508000000000E+01      4.063416000000000E-01      1.766328000000000E+02
4878000000.000000      3.852234000000000E-01      3.258789000000000E+01      4.028168000000000E-01      1.761562000000000E+02
4879000000.000000      3.865967000000000E-01      3.229101000000000E+01      3.991241000000000E-01      1.755469000000000E+02
4880000000.000000      3.872833000000000E-01      3.203711000000000E+01      3.962860000000000E-01      1.748828000000000E+02
4881000000.000000      3.868866000000000E-01      3.173047000000000E+01      3.927307000000000E-01      1.744375000000000E+02
4882000000.000000      3.885956000000000E-01      3.159765000000000E+01      3.904266000000000E-01      1.736172000000000E+02
4883000000.000000      3.870239000000000E-01      3.116406000000000E+01      3.850250000000000E-01      1.734219000000000E+02
4884000000.000000      3.878632000000000E-01      3.087891000000000E+01      3.814697000000000E-01      1.727422000000000E+02
4885000000.000000      3.875732000000000E-01      3.073633000000000E+01      3.771210000000000E-01      1.724219000000000E+02
4886000000.000000      3.881073000000000E-01      3.042773000000000E+01      3.760529000000000E-01      1.718125000000000E+02
4887000000.000000      3.876038000000000E-01      3.035449000000000E+01      3.719025000000000E-01      1.712344000000000E+02
4888000000.000000      3.875580000000000E-01      2.991113000000000E+01      3.693542000000000E-01      1.709063000000000E+02
4889000000.000000      3.877869000000000E-01      2.978222000000000E+01      3.642731000000000E-01      1.703281000000000E+02
4890000000.000000      3.875275000000000E-01      2.942090000000000E+01      3.610382000000000E-01      1.698281000000000E+02
4891000000.000000      3.880920000000000E-01      2.915625000000000E+01      3.588867000000000E-01      1.691641000000000E+02
4892000000.000000      3.879242000000000E-01      2.900879000000000E+01      3.529968000000000E-01      1.690156000000000E+02
4893000000.000000      3.886719000000000E-01      2.871387000000000E+01      3.500519000000000E-01      1.683984000000000E+02
4894000000.000000      3.888702000000000E-01      2.849218000000000E+01      3.468475000000000E-01      1.681328000000000E+02
4895000000.000000      3.878174000000000E-01      2.826367000000000E+01      3.433990000000000E-01      1.677187000000000E+02
4896000000.000000      3.879395000000000E-01      2.793359000000000E+01      3.400879000000000E-01      1.673516000000000E+02
4897000000.000000      3.876495000000000E-01      2.775683000000000E+01      3.354645000000000E-01      1.667500000000000E+02
4898000000.000000      3.873596000000000E-01      2.762598000000000E+01      3.328705000000000E-01      1.664766000000000E+02
4899000000.000000      3.878174000000000E-01      2.727539000000000E+01      3.284607000000000E-01      1.659531000000000E+02
4900000000.000000      3.871002000000000E-01      2.706055000000000E+01      3.257446000000000E-01      1.655391000000000E+02
4901000000.000000      3.870544000000000E-01      2.682910000000000E+01      3.222351000000000E-01      1.652187000000000E+02
4902000000.000000      3.871460000000000E-01      2.655664000000000E+01      3.196106000000000E-01      1.648906000000000E+02
4903000000.000000      3.871460000000000E-01      2.648242000000000E+01      3.148193000000000E-01      1.644766000000000E+02
4904000000.000000      3.870850000000000E-01      2.615625000000000E+01      3.122406000000000E-01      1.639609000000000E+02
4905000000.000000      3.871613000000000E-01      2.609082000000000E+01      3.090210000000000E-01      1.635078000000000E+02
4906000000.000000      3.858185000000000E-01      2.583691000000000E+01      3.046112000000000E-01      1.633594000000000E+02
4907000000.000000      3.862915000000000E-01      2.555469000000000E+01      3.025055000000000E-01      1.628047000000000E+02
4908000000.000000      3.859711000000000E-01      2.530762000000000E+01      2.987061000000000E-01      1.623828000000000E+02
4909000000.000000      3.851471000000000E-01      2.517578000000000E+01      2.946014000000000E-01      1.621094000000000E+02
4910000000.000000      3.838501000000000E-01      2.499902000000000E+01      2.913971000000000E-01      1.616484000000000E+02
4911000000.000000      3.837738000000000E-01      2.478906000000000E+01      2.880707000000000E-01      1.613828000000000E+02
4912000000.000000      3.843689000000000E-01      2.467773000000000E+01      2.845306000000000E-01      1.609062000000000E+02
4913000000.000000      3.851624000000000E-01      2.438965000000000E+01      2.806091000000000E-01      1.604687000000000E+02
4914000000.000000      3.842926000000000E-01      2.408886000000000E+01      2.769928000000000E-01      1.603437000000000E+02
4915000000.000000      3.840942000000000E-01      2.385644000000000E+01      2.736816000000000E-01      1.597656000000000E+02
4916000000.000000      3.834381000000000E-01      2.378125000000000E+01      2.699432000000000E-01      1.592734000000000E+02
4917000000.000000      3.833618000000000E-01      2.373145000000000E+01      2.663116000000000E-01      1.591953000000000E+02
4918000000.000000      3.834991000000000E-01      2.345801000000000E+01      2.618408000000000E-01      1.587656000000000E+02
4919000000.000000      3.831329000000000E-01      2.333301000000000E+01      2.586670000000000E-01      1.586719000000000E+02
4920000000.000000      3.831024000000000E-01      2.304297000000000E+01      2.534637000000000E-01      1.579844000000000E+02
4921000000.000000      3.819275000000000E-01      2.300391000000000E+01      2.509308000000000E-01      1.579922000000000E+02
4922000000.000000      3.824158000000000E-01      2.276465000000000E+01      2.467651000000000E-01      1.578672000000000E+02
4923000000.000000      3.810730000000000E-01      2.267578000000000E+01      2.427368000000000E-01      1.575703000000000E+02
4924000000.000000      3.818512000000000E-01      2.244141000000000E+01      2.379456000000000E-01      1.570391000000000E+02
4925000000.000000      3.816833000000000E-01      2.216211000000000E+01      2.347336000000000E-01      1.567266000000000E+02
4926000000.000000      3.804474000000000E-01      2.202343000000000E+01      2.310257000000000E-01      1.566719000000000E+02
4927000000.000000      3.810425000000000E-01      2.176465000000000E+01      2.259903000000000E-01      1.565469000000000E+02
4928000000.000000      3.818054000000000E-01      2.149316000000000E+01      2.227936000000000E-01      1.562266000000000E+02
4929000000.000000      3.798981000000000E-01      2.149121000000000E+01      2.184906000000000E-01      1.562187000000000E+02
4930000000.000000      3.790588000000000E-01      2.134277000000000E+01      2.147369000000000E-01      1.559453000000000E+02
4931000000.000000      3.796539000000000E-01      2.106738000000000E+01      2.107391000000000E-01      1.560234000000000E+02
4932000000.000000      3.781128000000000E-01      2.083398000000000E+01      2.063065000000000E-01      1.558906000000000E+02
4933000000.000000      3.798676000000000E-01      2.059375000000000E+01      2.015305000000000E-01      1.560937000000000E+02
4934000000.000000      3.790588000000000E-01      2.048926000000000E+01      1.978455000000000E-01      1.559687000000000E+02
4935000000.000000      3.790894000000000E-01      2.037793000000000E+01      1.942978000000000E-01      1.560469000000000E+02
4936000000.000000      3.783875000000000E-01      2.011719000000000E+01      1.899796000000000E-01      1.562109000000000E+02
4937000000.000000      3.780212000000000E-01      2.000977000000000E+01      1.857147000000000E-01      1.562656000000000E+02
4938000000.000000      3.771362000000000E-01      1.996973000000000E+01      1.820450000000000E-01      1.563672000000000E+02
4939000000.000000      3.778839000000000E-01      1.980664000000000E+01      1.778412000000000E-01      1.567188000000000E+02
4940000000.000000      3.773041000000000E-01      1.953711000000000E+01      1.738434000000000E-01      1.568828000000000E+02
4941000000.000000      3.773041000000000E-01      1.939746000000000E+01      1.704636000000000E-01      1.572969000000000E+02
4942000000.000000      3.753815000000000E-01      1.932617000000000E+01      1.665039000000000E-01      1.575703000000000E+02
4943000000.000000      3.765717000000000E-01      1.898438000000000E+01      1.625443000000000E-01      1.580625000000000E+02
4944000000.000000      3.759155000000000E-01      1.876660000000000E+01      1.589890000000000E-01      1.585000000000000E+02
4945000000.000000      3.754120000000000E-01      1.865527000000000E+01      1.549683000000000E-01      1.591484000000000E+02
4946000000.000000      3.761597000000000E-01      1.848828000000000E+01      1.509933000000000E-01      1.596094000000000E+02
4947000000.000000      3.750916000000000E-01      1.828516000000000E+01      1.478424000000000E-01      1.604297000000000E+02
4948000000.000000      3.744507000000000E-01      1.821191000000000E+01      1.446686000000000E-01      1.613594000000000E+02
4949000000.000000      3.741608000000000E-01      1.794336000000000E+01      1.407776000000000E-01      1.622734000000000E+02
4950000000.000000      3.753815000000000E-01      1.801270000000000E+01      1.377182000000000E-01      1.632734000000000E+02
4951000000.000000      3.742676000000000E-01      1.765332000000000E+01      1.353683000000000E-01      1.643437000000000E+02
4952000000.000000      3.734589000000000E-01      1.739941000000000E+01      1.321182000000000E-01      1.652812000000000E+02
4953000000.000000      3.727417000000000E-01      1.736523000000000E+01      1.296768000000000E-01      1.667500000000000E+02
4954000000.000000      3.724060000000000E-01      1.713281000000000E+01      1.268845000000000E-01      1.679297000000000E+02
