! Network Analyzer HP8722D
! Hewlett-Packard
! Data name: Linha & Wilkinson
! Saver's name: Rodrigo Anjos
! Comments: Teste da utilização de aquisição
continua pelo VNA HP8722D
! Time and date: 23/5/2025 16:29
!              Frequency                     S11                                                   S21                                                   S12                                                   S22
# HZ  S  MA R 50
4800000000.000000      2.792206000000000E-01      4.061913000000000E+01      4.892426000000000E-01     -1.302656000000000E+02
4801000000.000000      2.806549000000000E-01      4.091992000000000E+01      4.903107000000000E-01     -1.308125000000000E+02
4802000000.000000      2.816772000000000E-01      4.101563000000000E+01      4.910736000000000E-01     -1.314844000000000E+02
4803000000.000000      2.827148000000000E-01      4.121094000000000E+01      4.964905000000000E-01     -1.322578000000000E+02
4804000000.000000      2.842865000000000E-01      4.145898000000000E+01      4.963837000000000E-01     -1.327891000000000E+02
4805000000.000000      2.861176000000000E-01      4.157031000000000E+01      4.971619000000000E-01     -1.337422000000000E+02
4806000000.000000      2.872620000000000E-01      4.180664000000000E+01      4.981842000000000E-01     -1.343281000000000E+02
4807000000.000000      2.882996000000000E-01      4.194531000000000E+01      5.003967000000000E-01     -1.353125000000000E+02
4808000000.000000      2.890320000000000E-01      4.205274000000000E+01      5.025024000000000E-01     -1.358203000000000E+02
4809000000.000000      2.914886000000000E-01      4.243164000000000E+01      5.018616000000000E-01     -1.368359000000000E+02
4810000000.000000      2.927399000000000E-01      4.253515000000000E+01      5.038452000000000E-01     -1.372734000000000E+02
4811000000.000000      2.944641000000000E-01      4.265821000000000E+01      5.052185000000000E-01     -1.383984000000000E+02
4812000000.000000      2.969971000000000E-01      4.279297000000000E+01      5.057983000000000E-01     -1.388125000000000E+02
4813000000.000000      2.979736000000000E-01      4.293359000000000E+01      5.071716000000000E-01     -1.396172000000000E+02
4814000000.000000      2.991791000000000E-01      4.289063000000000E+01      5.065308000000000E-01     -1.401094000000000E+02
4815000000.000000      3.014526000000000E-01      4.308007000000000E+01      5.075684000000000E-01     -1.410469000000000E+02
4816000000.000000      3.035126000000000E-01      4.317968000000000E+01      5.089111000000000E-01     -1.417656000000000E+02
4817000000.000000      3.048859000000000E-01      4.323438000000000E+01      5.086365000000000E-01     -1.425156000000000E+02
4818000000.000000      3.064728000000000E-01      4.318164000000000E+01      5.087891000000000E-01     -1.432266000000000E+02
4819000000.000000      3.087463000000000E-01      4.326953000000000E+01      5.097046000000000E-01     -1.441328000000000E+02
4820000000.000000      3.099518000000000E-01      4.337500000000000E+01      5.098877000000000E-01     -1.445469000000000E+02
4821000000.000000      3.125610000000000E-01      4.334765000000000E+01      5.091553000000000E-01     -1.455156000000000E+02
4822000000.000000      3.137207000000000E-01      4.316211000000000E+01      5.090027000000000E-01     -1.461641000000000E+02
4823000000.000000      3.160248000000000E-01      4.319140000000000E+01      5.102234000000000E-01     -1.470391000000000E+02
4824000000.000000      3.179474000000000E-01      4.331445000000000E+01      5.093994000000000E-01     -1.477813000000000E+02
4825000000.000000      3.193665000000000E-01      4.316015000000000E+01      5.097351000000000E-01     -1.482500000000000E+02
4826000000.000000      3.209991000000000E-01      4.301953000000000E+01      5.099792000000000E-01     -1.493438000000000E+02
4827000000.000000      3.232117000000000E-01      4.312890000000000E+01      5.083313000000000E-01     -1.498359000000000E+02
4828000000.000000      3.255615000000000E-01      4.314258000000000E+01      5.078430000000000E-01     -1.505000000000000E+02
4829000000.000000      3.266907000000000E-01      4.317578000000000E+01      5.079956000000000E-01     -1.513594000000000E+02
4830000000.000000      3.286896000000000E-01      4.287499000000000E+01      5.073853000000000E-01     -1.520078000000000E+02
4831000000.000000      3.305206000000000E-01      4.276563000000000E+01      5.068665000000000E-01     -1.526641000000000E+02
4832000000.000000      3.323059000000000E-01      4.282422000000000E+01      5.049438000000000E-01     -1.535078000000000E+02
4833000000.000000      3.334198000000000E-01      4.260938000000000E+01      5.045776000000000E-01     -1.541016000000000E+02
4834000000.000000      3.348083000000000E-01      4.255273000000000E+01      5.051880000000000E-01     -1.549062000000000E+02
4835000000.000000      3.376770000000000E-01      4.229297000000000E+01      5.038147000000000E-01     -1.555625000000000E+02
4836000000.000000      3.391266000000000E-01      4.229882000000000E+01      5.022278000000000E-01     -1.562500000000000E+02
4837000000.000000      3.409576000000000E-01      4.221289000000000E+01      4.996033000000000E-01     -1.571640000000000E+02
4838000000.000000      3.423615000000000E-01      4.196679000000000E+01      4.996490000000000E-01     -1.576953000000000E+02
4839000000.000000      3.450165000000000E-01      4.192383000000000E+01      4.988708000000000E-01     -1.584453000000000E+02
4840000000.000000      3.459320000000000E-01      4.164453000000000E+01      4.973907000000000E-01     -1.590625000000000E+02
4841000000.000000      3.473816000000000E-01      4.166211000000000E+01      4.964752000000000E-01     -1.598672000000000E+02
4842000000.000000      3.495789000000000E-01      4.136719000000000E+01      4.944000000000000E-01     -1.605625000000000E+02
4843000000.000000      3.519897000000000E-01      4.100586000000000E+01      4.946289000000000E-01     -1.613672000000000E+02
4844000000.000000      3.524780000000000E-01      4.086914000000000E+01      4.915161000000000E-01     -1.620859000000000E+02
4845000000.000000      3.536377000000000E-01      4.068164000000000E+01      4.915924000000000E-01     -1.627031000000000E+02
4846000000.000000      3.563538000000000E-01      4.048047000000000E+01      4.892120000000000E-01     -1.634609000000000E+02
4847000000.000000      3.572235000000000E-01      4.039258000000000E+01      4.867554000000000E-01     -1.640625000000000E+02
4848000000.000000      3.584442000000000E-01      4.010156000000000E+01      4.843903000000000E-01     -1.646172000000000E+02
4849000000.000000      3.597565000000000E-01      3.990625000000000E+01      4.822693000000000E-01     -1.654766000000000E+02
4850000000.000000      3.607941000000000E-01      3.964258000000000E+01      4.809570000000000E-01     -1.662109000000000E+02
4851000000.000000      3.629303000000000E-01      3.941992000000000E+01      4.801025000000000E-01     -1.670078000000000E+02
4852000000.000000      3.636780000000000E-01      3.925976000000000E+01      4.769897000000000E-01     -1.676172000000000E+02
4853000000.000000      3.659210000000000E-01      3.906054000000000E+01      4.746094000000000E-01     -1.683906000000000E+02
4854000000.000000      3.664398000000000E-01      3.865234000000000E+01      4.721985000000000E-01     -1.690859000000000E+02
4855000000.000000      3.682251000000000E-01      3.851367000000000E+01      4.698486000000000E-01     -1.697422000000000E+02
4856000000.000000      3.683014000000000E-01      3.833984000000000E+01      4.674530000000000E-01     -1.705000000000000E+02
4857000000.000000      3.706055000000000E-01      3.797656000000000E+01      4.674530000000000E-01     -1.710234000000000E+02
4858000000.000000      3.702850000000000E-01      3.777929000000000E+01      4.642181000000000E-01     -1.717969000000000E+02
4859000000.000000      3.720856000000000E-01      3.743164000000000E+01      4.622498000000000E-01     -1.723984000000000E+02
4860000000.000000      3.731537000000000E-01      3.742969000000000E+01      4.588776000000000E-01     -1.730703000000000E+02
4861000000.000000      3.739624000000000E-01      3.707422000000000E+01      4.550934000000000E-01     -1.739219000000000E+02
4862000000.000000      3.741455000000000E-01      3.670507000000000E+01      4.529877000000000E-01     -1.746406000000000E+02
4863000000.000000      3.757172000000000E-01      3.657617000000000E+01      4.497223000000000E-01     -1.753515000000000E+02
4864000000.000000      3.763733000000000E-01      3.616211000000000E+01      4.477234000000000E-01     -1.757109000000000E+02
4865000000.000000      3.775177000000000E-01      3.595117000000000E+01      4.445343000000000E-01     -1.764688000000000E+02
4866000000.000000      3.776855000000000E-01      3.568750000000000E+01      4.400024000000000E-01     -1.770000000000000E+02
4867000000.000000      3.780670000000000E-01      3.540039000000000E+01      4.378510000000000E-01     -1.777812000000000E+02
4868000000.000000      3.799438000000000E-01      3.501953000000000E+01      4.338074000000000E-01     -1.784922000000000E+02
4869000000.000000      3.798828000000000E-01      3.494336000000000E+01      4.327545000000000E-01     -1.792187000000000E+02
4870000000.000000      3.808289000000000E-01      3.463086000000000E+01      4.293518000000000E-01     -1.795469000000000E+02
4871000000.000000      3.808441000000000E-01      3.434375000000000E+01      4.247742000000000E-01      1.796953000000000E+02
4872000000.000000      3.830872000000000E-01      3.399023000000000E+01      4.220276000000000E-01      1.790859000000000E+02
4873000000.000000      3.826752000000000E-01      3.384961000000000E+01      4.180450000000000E-01      1.783750000000000E+02
4874000000.000000      3.824768000000000E-01      3.355078000000000E+01      4.148254000000000E-01      1.778516000000000E+02
4875000000.000000      3.832245000000000E-01      3.308789000000000E+01      4.110413000000000E-01      1.773047000000000E+02
4876000000.000000      3.844147000000000E-01      3.305469000000000E+01      4.085388000000000E-01      1.766250000000000E+02
4877000000.000000      3.848877000000000E-01      3.261914000000000E+01      4.060822000000000E-01      1.759219000000000E+02
4878000000.000000      3.841858000000000E-01      3.242188000000000E+01      4.017639000000000E-01      1.755156000000000E+02
4879000000.000000      3.855896000000000E-01      3.222461000000000E+01      3.975372000000000E-01      1.751172000000000E+02
4880000000.000000      3.855591000000000E-01      3.191797000000000E+01      3.939514000000000E-01      1.746406000000000E+02
4881000000.000000      3.852997000000000E-01      3.170215000000000E+01      3.923340000000000E-01      1.740703000000000E+02
4882000000.000000      3.857727000000000E-01      3.142480000000000E+01      3.881836000000000E-01      1.733594000000000E+02
4883000000.000000      3.854980000000000E-01      3.111425000000000E+01      3.838806000000000E-01      1.727890000000000E+02
4884000000.000000      3.869324000000000E-01      3.080761000000000E+01      3.793182000000000E-01      1.722656000000000E+02
4885000000.000000      3.869171000000000E-01      3.073535000000000E+01      3.766022000000000E-01      1.721328000000000E+02
4886000000.000000      3.865509000000000E-01      3.041016000000000E+01      3.726044000000000E-01      1.715312000000000E+02
4887000000.000000      3.866730000000000E-01      3.026269000000000E+01      3.694611000000000E-01      1.710078000000000E+02
4888000000.000000      3.867645000000000E-01      2.975293000000000E+01      3.671722000000000E-01      1.703203000000000E+02
4889000000.000000      3.869171000000000E-01      2.967382000000000E+01      3.617554000000000E-01      1.701328000000000E+02
4890000000.000000      3.858795000000000E-01      2.922558000000000E+01      3.578796000000000E-01      1.693281000000000E+02
4891000000.000000      3.869934000000000E-01      2.905957000000000E+01      3.544006000000000E-01      1.689844000000000E+02
4892000000.000000      3.863678000000000E-01      2.887304000000000E+01      3.512421000000000E-01      1.686953000000000E+02
4893000000.000000      3.869476000000000E-01      2.850195000000000E+01      3.480225000000000E-01      1.680078000000000E+02
4894000000.000000      3.866272000000000E-01      2.847168000000000E+01      3.442688000000000E-01      1.678047000000000E+02
4895000000.000000      3.880615000000000E-01      2.810156000000000E+01      3.424988000000000E-01      1.673672000000000E+02
4896000000.000000      3.865204000000000E-01      2.796289000000000E+01      3.369446000000000E-01      1.668281000000000E+02
4897000000.000000      3.860931000000000E-01      2.775488000000000E+01      3.334503000000000E-01      1.665000000000000E+02
4898000000.000000      3.858643000000000E-01      2.746582000000000E+01      3.310089000000000E-01      1.661172000000000E+02
4899000000.000000      3.857269000000000E-01      2.711914000000000E+01      3.268738000000000E-01      1.653984000000000E+02
4900000000.000000      3.854828000000000E-01      2.690234000000000E+01      3.222046000000000E-01      1.651797000000000E+02
4901000000.000000      3.852539000000000E-01      2.676270000000000E+01      3.207245000000000E-01      1.650156000000000E+02
4902000000.000000      3.854523000000000E-01      2.651953000000000E+01      3.173828000000000E-01      1.646016000000000E+02
4903000000.000000      3.851318000000000E-01      2.638086000000000E+01      3.129883000000000E-01      1.641875000000000E+02
4904000000.000000      3.856049000000000E-01      2.611230000000000E+01      3.096161000000000E-01      1.637578000000000E+02
4905000000.000000      3.846436000000000E-01      2.597558000000000E+01      3.064880000000000E-01      1.631562000000000E+02
4906000000.000000      3.843994000000000E-01      2.564062000000000E+01      3.031769000000000E-01      1.631719000000000E+02
4907000000.000000      3.844910000000000E-01      2.553223000000000E+01      3.004913000000000E-01      1.624922000000000E+02
4908000000.000000      3.836975000000000E-01      2.527246000000000E+01      2.971039000000000E-01      1.620625000000000E+02
4909000000.000000      3.831635000000000E-01      2.507813000000000E+01      2.927094000000000E-01      1.617578000000000E+02
4910000000.000000      3.829498000000000E-01      2.482617000000000E+01      2.888947000000000E-01      1.615391000000000E+02
4911000000.000000      3.835449000000000E-01      2.475879000000000E+01      2.859955000000000E-01      1.613516000000000E+02
4912000000.000000      3.834839000000000E-01      2.457226000000000E+01      2.824554000000000E-01      1.606484000000000E+02
4913000000.000000      3.831787000000000E-01      2.425293000000000E+01      2.785034000000000E-01      1.604219000000000E+02
4914000000.000000      3.831329000000000E-01      2.394531000000000E+01      2.745209000000000E-01      1.600547000000000E+02
4915000000.000000      3.818359000000000E-01      2.392188000000000E+01      2.711487000000000E-01      1.596016000000000E+02
4916000000.000000      3.817139000000000E-01      2.362597000000000E+01      2.677155000000000E-01      1.592344000000000E+02
4917000000.000000      3.811646000000000E-01      2.359570000000000E+01      2.639923000000000E-01      1.590234000000000E+02
4918000000.000000      3.822632000000000E-01      2.341992000000000E+01      2.593842000000000E-01      1.585703000000000E+02
4919000000.000000      3.804779000000000E-01      2.316016000000000E+01      2.561646000000000E-01      1.585156000000000E+02
4920000000.000000      3.810730000000000E-01      2.296777000000000E+01      2.513275000000000E-01      1.579531000000000E+02
4921000000.000000      3.804779000000000E-01      2.279199000000000E+01      2.489014000000000E-01      1.578359000000000E+02
4922000000.000000      3.806000000000000E-01      2.258887000000000E+01      2.439499000000000E-01      1.577734000000000E+02
4923000000.000000      3.797913000000000E-01      2.240039000000000E+01      2.400513000000000E-01      1.574141000000000E+02
4924000000.000000      3.798370000000000E-01      2.231934000000000E+01      2.359238000000000E-01      1.569844000000000E+02
4925000000.000000      3.786316000000000E-01      2.215527000000000E+01      2.326965000000000E-01      1.568594000000000E+02
4926000000.000000      3.799591000000000E-01      2.181543000000000E+01      2.279510000000000E-01      1.566875000000000E+02
4927000000.000000      3.788910000000000E-01      2.167187000000000E+01      2.243042000000000E-01      1.564922000000000E+02
4928000000.000000      3.798523000000000E-01      2.146387000000000E+01      2.209015000000000E-01      1.563828000000000E+02
4929000000.000000      3.773956000000000E-01      2.144922000000000E+01      2.157822000000000E-01      1.563203000000000E+02
4930000000.000000      3.779144000000000E-01      2.128125000000000E+01      2.119751000000000E-01      1.560469000000000E+02
4931000000.000000      3.778381000000000E-01      2.090137000000000E+01      2.089081000000000E-01      1.560937000000000E+02
4932000000.000000      3.776703000000000E-01      2.086426000000000E+01      2.041626000000000E-01      1.561328000000000E+02
4933000000.000000      3.774261000000000E-01      2.067676000000000E+01      1.995392000000000E-01      1.563281000000000E+02
4934000000.000000      3.769989000000000E-01      2.058105000000000E+01      1.958313000000000E-01      1.560937000000000E+02
4935000000.000000      3.773499000000000E-01      2.034766000000000E+01      1.923676000000000E-01      1.563516000000000E+02
4936000000.000000      3.764191000000000E-01      2.000293000000000E+01      1.877823000000000E-01      1.563203000000000E+02
4937000000.000000      3.760986000000000E-01      1.994141000000000E+01      1.842880000000000E-01      1.564531000000000E+02
4938000000.000000      3.755951000000000E-01      1.986816000000000E+01      1.798553000000000E-01      1.567891000000000E+02
4939000000.000000      3.748779000000000E-01      1.970508000000000E+01      1.762238000000000E-01      1.570625000000000E+02
4940000000.000000      3.748627000000000E-01      1.943066000000000E+01      1.717758000000000E-01      1.570469000000000E+02
4941000000.000000      3.759308000000000E-01      1.925879000000000E+01      1.681747000000000E-01      1.576797000000000E+02
4942000000.000000      3.743286000000000E-01      1.915234000000000E+01      1.643066000000000E-01      1.580547000000000E+02
4943000000.000000      3.749390000000000E-01      1.900000000000000E+01      1.604843000000000E-01      1.586797000000000E+02
4944000000.000000      3.740692000000000E-01      1.874512000000000E+01      1.569977000000000E-01      1.590625000000000E+02
4945000000.000000      3.742523000000000E-01      1.849609000000000E+01      1.531982000000000E-01      1.598203000000000E+02
4946000000.000000      3.737946000000000E-01      1.837793000000000E+01      1.494827000000000E-01      1.603906000000000E+02
4947000000.000000      3.737183000000000E-01      1.814648000000000E+01      1.465836000000000E-01      1.612422000000000E+02
4948000000.000000      3.728485000000000E-01      1.821191000000000E+01      1.427994000000000E-01      1.620781000000000E+02
4949000000.000000      3.723145000000000E-01      1.794434000000000E+01      1.395340000000000E-01      1.632187000000000E+02
4950000000.000000      3.727722000000000E-01      1.785254000000000E+01      1.366043000000000E-01      1.640234000000000E+02
4951000000.000000      3.727417000000000E-01      1.759570000000000E+01      1.336899000000000E-01      1.649922000000000E+02
4952000000.000000      3.708038000000000E-01      1.736523000000000E+01      1.310806000000000E-01      1.661875000000000E+02
4953000000.000000      3.704987000000000E-01      1.726074000000000E+01      1.284866000000000E-01      1.677422000000000E+02
4954000000.000000      3.712158000000000E-01      1.705957000000000E+01      1.259613000000000E-01      1.688672000000000E+02
