! Network Analyzer HP8722D
! Hewlett-Packard
! Data name: Linha & Wilkinson
! Saver's name: Rodrigo Anjos
! Comments: Teste da utilização de aquisição
continua pelo VNA HP8722D
! Time and date: 23/5/2025 12:55
!              Frequency                     S11                                                   S21                                                   S12                                                   S22
# HZ  S  MA R 50
4800000000.000000      2.890167000000000E-01      3.957812000000000E+01      4.830322000000000E-01     -1.296719000000000E+02
4801000000.000000      2.903595000000000E-01      3.983593000000000E+01      4.846954000000000E-01     -1.302969000000000E+02
4802000000.000000      2.911987000000000E-01      3.999023000000000E+01      4.850922000000000E-01     -1.309375000000000E+02
4803000000.000000      2.922058000000000E-01      4.019727000000000E+01      4.874878000000000E-01     -1.314766000000000E+02
4804000000.000000      2.932892000000000E-01      4.052539000000000E+01      4.882965000000000E-01     -1.323672000000000E+02
4805000000.000000      2.952271000000000E-01      4.057031000000000E+01      4.901276000000000E-01     -1.329141000000000E+02
4806000000.000000      2.964783000000000E-01      4.076172000000000E+01      4.925232000000000E-01     -1.336953000000000E+02
4807000000.000000      2.973938000000000E-01      4.085351000000000E+01      4.930267000000000E-01     -1.347265000000000E+02
4808000000.000000      2.984009000000000E-01      4.105859000000000E+01      4.951782000000000E-01     -1.352969000000000E+02
4809000000.000000      3.003235000000000E-01      4.124804000000000E+01      4.966431000000000E-01     -1.361094000000000E+02
4810000000.000000      3.017883000000000E-01      4.141406000000000E+01      4.976196000000000E-01     -1.368594000000000E+02
4811000000.000000      3.036652000000000E-01      4.158203000000000E+01      4.986572000000000E-01     -1.377969000000000E+02
4812000000.000000      3.058319000000000E-01      4.171288000000000E+01      4.990540000000000E-01     -1.383594000000000E+02
4813000000.000000      3.066101000000000E-01      4.189062000000000E+01      4.997559000000000E-01     -1.389766000000000E+02
4814000000.000000      3.078308000000000E-01      4.191211000000000E+01      5.004272000000000E-01     -1.396563000000000E+02
4815000000.000000      3.091431000000000E-01      4.201757000000000E+01      5.000305000000000E-01     -1.405391000000000E+02
4816000000.000000      3.122101000000000E-01      4.211133000000000E+01      5.032043000000000E-01     -1.411797000000000E+02
4817000000.000000      3.130493000000000E-01      4.216797000000000E+01      5.025635000000000E-01     -1.420156000000000E+02
4818000000.000000      3.149261000000000E-01      4.210938000000000E+01      5.030823000000000E-01     -1.427031000000000E+02
4819000000.000000      3.170624000000000E-01      4.220508000000000E+01      5.029297000000000E-01     -1.435781000000000E+02
4820000000.000000      3.179932000000000E-01      4.227929000000000E+01      5.033569000000000E-01     -1.439219000000000E+02
4821000000.000000      3.210754000000000E-01      4.231445000000000E+01      5.043335000000000E-01     -1.449063000000000E+02
4822000000.000000      3.217010000000000E-01      4.220508000000000E+01      5.038452000000000E-01     -1.455469000000000E+02
4823000000.000000      3.237152000000000E-01      4.227735000000000E+01      5.034790000000000E-01     -1.462422000000000E+02
4824000000.000000      3.254700000000000E-01      4.238477000000000E+01      5.044250000000000E-01     -1.470859000000000E+02
4825000000.000000      3.274689000000000E-01      4.217773000000000E+01      5.029907000000000E-01     -1.478750000000000E+02
4826000000.000000      3.286285000000000E-01      4.213086000000000E+01      5.033875000000000E-01     -1.485859000000000E+02
4827000000.000000      3.308868000000000E-01      4.209374000000000E+01      5.034485000000000E-01     -1.492734000000000E+02
4828000000.000000      3.334656000000000E-01      4.212695000000000E+01      5.020752000000000E-01     -1.498750000000000E+02
4829000000.000000      3.346405000000000E-01      4.215039000000000E+01      5.013733000000000E-01     -1.506875000000000E+02
4830000000.000000      3.363495000000000E-01      4.193555000000000E+01      5.011292000000000E-01     -1.514844000000000E+02
4831000000.000000      3.380585000000000E-01      4.181445000000000E+01      5.011597000000000E-01     -1.521641000000000E+02
4832000000.000000      3.398285000000000E-01      4.189258000000000E+01      5.003357000000000E-01     -1.528594000000000E+02
4833000000.000000      3.411713000000000E-01      4.169922000000000E+01      4.995117000000000E-01     -1.534922000000000E+02
4834000000.000000      3.430023000000000E-01      4.163671000000000E+01      4.973450000000000E-01     -1.541953000000000E+02
4835000000.000000      3.446503000000000E-01      4.143359000000000E+01      4.972229000000000E-01     -1.550937000000000E+02
4836000000.000000      3.469543000000000E-01      4.138672000000000E+01      4.953156000000000E-01     -1.556797000000000E+02
4837000000.000000      3.489227000000000E-01      4.135742000000000E+01      4.942322000000000E-01     -1.566406000000000E+02
4838000000.000000      3.497009000000000E-01      4.113281000000000E+01      4.938507000000000E-01     -1.571797000000000E+02
4839000000.000000      3.529053000000000E-01      4.101953000000000E+01      4.933014000000000E-01     -1.577266000000000E+02
4840000000.000000      3.533020000000000E-01      4.074804000000000E+01      4.918976000000000E-01     -1.586016000000000E+02
4841000000.000000      3.555298000000000E-01      4.066015000000000E+01      4.907837000000000E-01     -1.594297000000000E+02
4842000000.000000      3.565216000000000E-01      4.054883000000000E+01      4.893494000000000E-01     -1.600469000000000E+02
4843000000.000000      3.593597000000000E-01      4.020703000000000E+01      4.887238000000000E-01     -1.608438000000000E+02
4844000000.000000      3.600159000000000E-01      4.006055000000000E+01      4.864960000000000E-01     -1.614922000000000E+02
4845000000.000000      3.613434000000000E-01      4.000977000000000E+01      4.845428000000000E-01     -1.620937000000000E+02
4846000000.000000      3.635712000000000E-01      3.977734000000000E+01      4.841003000000000E-01     -1.628047000000000E+02
4847000000.000000      3.643494000000000E-01      3.961523000000000E+01      4.818573000000000E-01     -1.634844000000000E+02
4848000000.000000      3.657074000000000E-01      3.931445000000000E+01      4.782104000000000E-01     -1.643203000000000E+02
4849000000.000000      3.674774000000000E-01      3.912695000000000E+01      4.788666000000000E-01     -1.649609000000000E+02
4850000000.000000      3.685150000000000E-01      3.895703000000000E+01      4.763794000000000E-01     -1.655625000000000E+02
4851000000.000000      3.706512000000000E-01      3.881250000000000E+01      4.749146000000000E-01     -1.665156000000000E+02
4852000000.000000      3.715973000000000E-01      3.859375000000000E+01      4.731293000000000E-01     -1.670156000000000E+02
4853000000.000000      3.731232000000000E-01      3.838476000000000E+01      4.692230000000000E-01     -1.677578000000000E+02
4854000000.000000      3.745117000000000E-01      3.798242000000000E+01      4.680786000000000E-01     -1.684844000000000E+02
4855000000.000000      3.750153000000000E-01      3.783594000000000E+01      4.649658000000000E-01     -1.691328000000000E+02
4856000000.000000      3.765259000000000E-01      3.763281000000000E+01      4.628448000000000E-01     -1.696953000000000E+02
4857000000.000000      3.776703000000000E-01      3.747070000000000E+01      4.615173000000000E-01     -1.703828000000000E+02
4858000000.000000      3.781128000000000E-01      3.707031000000000E+01      4.593353000000000E-01     -1.713359000000000E+02
4859000000.000000      3.801880000000000E-01      3.674805000000000E+01      4.570465000000000E-01     -1.718516000000000E+02
4860000000.000000      3.806458000000000E-01      3.672656000000000E+01      4.532623000000000E-01     -1.726172000000000E+02
4861000000.000000      3.819580000000000E-01      3.640820000000000E+01      4.510040000000000E-01     -1.733125000000000E+02
4862000000.000000      3.824463000000000E-01      3.613672000000000E+01      4.500732000000000E-01     -1.740703000000000E+02
4863000000.000000      3.831329000000000E-01      3.595117000000000E+01      4.435577000000000E-01     -1.746406000000000E+02
4864000000.000000      3.843994000000000E-01      3.571875000000000E+01      4.437408000000000E-01     -1.751641000000000E+02
4865000000.000000      3.847504000000000E-01      3.533594000000000E+01      4.388275000000000E-01     -1.759453000000000E+02
4866000000.000000      3.862152000000000E-01      3.511914000000000E+01      4.365234000000000E-01     -1.766562000000000E+02
4867000000.000000      3.865204000000000E-01      3.500000000000000E+01      4.322510000000000E-01     -1.774375000000000E+02
4868000000.000000      3.869629000000000E-01      3.466015000000000E+01      4.308472000000000E-01     -1.780781000000000E+02
4869000000.000000      3.880615000000000E-01      3.429688000000000E+01      4.268188000000000E-01     -1.786328000000000E+02
4870000000.000000      3.883209000000000E-01      3.406445000000000E+01      4.236755000000000E-01     -1.789844000000000E+02
4871000000.000000      3.888550000000000E-01      3.380078000000000E+01      4.212494000000000E-01     -1.799141000000000E+02
4872000000.000000      3.904114000000000E-01      3.355273000000000E+01      4.180298000000000E-01      1.796172000000000E+02
4873000000.000000      3.910065000000000E-01      3.337695000000000E+01      4.138184000000000E-01      1.789141000000000E+02
4874000000.000000      3.909149000000000E-01      3.310547000000000E+01      4.103394000000000E-01      1.783516000000000E+02
4875000000.000000      3.915253000000000E-01      3.275000000000000E+01      4.071503000000000E-01      1.776562000000000E+02
4876000000.000000      3.920898000000000E-01      3.265625000000000E+01      4.046783000000000E-01      1.772031000000000E+02
4877000000.000000      3.932800000000000E-01      3.222265000000000E+01      4.007416000000000E-01      1.763828000000000E+02
4878000000.000000      3.923645000000000E-01      3.206055000000000E+01      3.970184000000000E-01      1.759063000000000E+02
4879000000.000000      3.939209000000000E-01      3.168848000000000E+01      3.926239000000000E-01      1.754609000000000E+02
4880000000.000000      3.947296000000000E-01      3.139843000000000E+01      3.893433000000000E-01      1.750078000000000E+02
4881000000.000000      3.935852000000000E-01      3.130273000000000E+01      3.861389000000000E-01      1.745000000000000E+02
4882000000.000000      3.957672000000000E-01      3.096972000000000E+01      3.835297000000000E-01      1.737734000000000E+02
4883000000.000000      3.939819000000000E-01      3.075000000000000E+01      3.789978000000000E-01      1.733125000000000E+02
4884000000.000000      3.957520000000000E-01      3.055078000000000E+01      3.758698000000000E-01      1.729063000000000E+02
4885000000.000000      3.950500000000000E-01      3.029199000000000E+01      3.729553000000000E-01      1.724453000000000E+02
4886000000.000000      3.951874000000000E-01      3.011328000000000E+01      3.686676000000000E-01      1.722656000000000E+02
4887000000.000000      3.952026000000000E-01      2.980859000000000E+01      3.658142000000000E-01      1.714844000000000E+02
4888000000.000000      3.959351000000000E-01      2.936914000000000E+01      3.616638000000000E-01      1.709922000000000E+02
4889000000.000000      3.947906000000000E-01      2.925293000000000E+01      3.584290000000000E-01      1.704609000000000E+02
4890000000.000000      3.948669000000000E-01      2.900781000000000E+01      3.532867000000000E-01      1.697656000000000E+02
4891000000.000000      3.955078000000000E-01      2.879101000000000E+01      3.503876000000000E-01      1.696406000000000E+02
4892000000.000000      3.954773000000000E-01      2.852539000000000E+01      3.471985000000000E-01      1.691250000000000E+02
4893000000.000000      3.951416000000000E-01      2.832520000000000E+01      3.441315000000000E-01      1.686094000000000E+02
4894000000.000000      3.944550000000000E-01      2.802734000000000E+01      3.410492000000000E-01      1.682266000000000E+02
4895000000.000000      3.952179000000000E-01      2.787890000000000E+01      3.364563000000000E-01      1.678437000000000E+02
4896000000.000000      3.954315000000000E-01      2.769726000000000E+01      3.328400000000000E-01      1.672422000000000E+02
4897000000.000000      3.944092000000000E-01      2.749023000000000E+01      3.296051000000000E-01      1.670703000000000E+02
4898000000.000000      3.942108000000000E-01      2.727051000000000E+01      3.263092000000000E-01      1.665859000000000E+02
4899000000.000000      3.942261000000000E-01      2.700390000000000E+01      3.229218000000000E-01      1.660781000000000E+02
4900000000.000000      3.945313000000000E-01      2.660937000000000E+01      3.204803000000000E-01      1.657500000000000E+02
4901000000.000000      3.937683000000000E-01      2.652637000000000E+01      3.162994000000000E-01      1.653984000000000E+02
4902000000.000000      3.933411000000000E-01      2.634863000000000E+01      3.136597000000000E-01      1.649922000000000E+02
4903000000.000000      3.943481000000000E-01      2.611230000000000E+01      3.090363000000000E-01      1.646719000000000E+02
4904000000.000000      3.941193000000000E-01      2.589746000000000E+01      3.060913000000000E-01      1.641875000000000E+02
4905000000.000000      3.941193000000000E-01      2.574414000000000E+01      3.035583000000000E-01      1.636562000000000E+02
4906000000.000000      3.923035000000000E-01      2.549609000000000E+01      2.996979000000000E-01      1.635937000000000E+02
4907000000.000000      3.931274000000000E-01      2.537500000000000E+01      2.967224000000000E-01      1.629688000000000E+02
4908000000.000000      3.929291000000000E-01      2.517285000000000E+01      2.927399000000000E-01      1.625234000000000E+02
4909000000.000000      3.923492000000000E-01      2.496777000000000E+01      2.891693000000000E-01      1.622813000000000E+02
4910000000.000000      3.920441000000000E-01      2.472168000000000E+01      2.850037000000000E-01      1.618672000000000E+02
4911000000.000000      3.926239000000000E-01      2.451172000000000E+01      2.817535000000000E-01      1.615469000000000E+02
4912000000.000000      3.916016000000000E-01      2.441895000000000E+01      2.784729000000000E-01      1.610469000000000E+02
4913000000.000000      3.922119000000000E-01      2.406347000000000E+01      2.747192000000000E-01      1.608203000000000E+02
4914000000.000000      3.915558000000000E-01      2.394531000000000E+01      2.708893000000000E-01      1.605781000000000E+02
4915000000.000000      3.909302000000000E-01      2.379590000000000E+01      2.674866000000000E-01      1.600312000000000E+02
4916000000.000000      3.912811000000000E-01      2.360254000000000E+01      2.639465000000000E-01      1.596875000000000E+02
4917000000.000000      3.906708000000000E-01      2.340723000000000E+01      2.598572000000000E-01      1.594375000000000E+02
4918000000.000000      3.901825000000000E-01      2.318066000000000E+01      2.558594000000000E-01      1.590703000000000E+02
4919000000.000000      3.891144000000000E-01      2.310547000000000E+01      2.527008000000000E-01      1.590391000000000E+02
4920000000.000000      3.902283000000000E-01      2.284668000000000E+01      2.484131000000000E-01      1.584297000000000E+02
4921000000.000000      3.890076000000000E-01      2.268359000000000E+01      2.455521000000000E-01      1.584609000000000E+02
4922000000.000000      3.891449000000000E-01      2.246484000000000E+01      2.413635000000000E-01      1.581875000000000E+02
4923000000.000000      3.892365000000000E-01      2.237695000000000E+01      2.372208000000000E-01      1.579062000000000E+02
4924000000.000000      3.892212000000000E-01      2.230469000000000E+01      2.326965000000000E-01      1.574766000000000E+02
4925000000.000000      3.870392000000000E-01      2.194043000000000E+01      2.289200000000000E-01      1.574297000000000E+02
4926000000.000000      3.880463000000000E-01      2.192383000000000E+01      2.256012000000000E-01      1.571406000000000E+02
4927000000.000000      3.876801000000000E-01      2.162109000000000E+01      2.211685000000000E-01      1.570781000000000E+02
4928000000.000000      3.881683000000000E-01      2.139843000000000E+01      2.179260000000000E-01      1.569609000000000E+02
4929000000.000000      3.872833000000000E-01      2.138574000000000E+01      2.134628000000000E-01      1.567344000000000E+02
4930000000.000000      3.869019000000000E-01      2.121387000000000E+01      2.090912000000000E-01      1.566094000000000E+02
4931000000.000000      3.871918000000000E-01      2.092187000000000E+01      2.058640000000000E-01      1.565234000000000E+02
4932000000.000000      3.863220000000000E-01      2.072754000000000E+01      2.013016000000000E-01      1.566719000000000E+02
4933000000.000000      3.858795000000000E-01      2.059375000000000E+01      1.963501000000000E-01      1.568125000000000E+02
4934000000.000000      3.861389000000000E-01      2.034180000000000E+01      1.933517000000000E-01      1.564609000000000E+02
4935000000.000000      3.864746000000000E-01      2.020703000000000E+01      1.895905000000000E-01      1.568828000000000E+02
4936000000.000000      3.850403000000000E-01      2.000586000000000E+01      1.853180000000000E-01      1.568594000000000E+02
4937000000.000000      3.857422000000000E-01      1.974707000000000E+01      1.821442000000000E-01      1.570781000000000E+02
4938000000.000000      3.844910000000000E-01      1.976563000000000E+01      1.775055000000000E-01      1.573516000000000E+02
4939000000.000000      3.850098000000000E-01      1.968554000000000E+01      1.735229000000000E-01      1.574844000000000E+02
4940000000.000000      3.842010000000000E-01      1.947168000000000E+01      1.695328000000000E-01      1.576797000000000E+02
4941000000.000000      3.840637000000000E-01      1.926953000000000E+01      1.654968000000000E-01      1.583516000000000E+02
4942000000.000000      3.837433000000000E-01      1.923535000000000E+01      1.618958000000000E-01      1.586875000000000E+02
4943000000.000000      3.833923000000000E-01      1.899121000000000E+01      1.585541000000000E-01      1.592344000000000E+02
4944000000.000000      3.831024000000000E-01      1.869922000000000E+01      1.547623000000000E-01      1.596719000000000E+02
4945000000.000000      3.833160000000000E-01      1.860352000000000E+01      1.515045000000000E-01      1.603281000000000E+02
4946000000.000000      3.832092000000000E-01      1.838965000000000E+01      1.476822000000000E-01      1.609141000000000E+02
4947000000.000000      3.825989000000000E-01      1.829297000000000E+01      1.441803000000000E-01      1.618125000000000E+02
4948000000.000000      3.830566000000000E-01      1.821387000000000E+01      1.410141000000000E-01      1.626016000000000E+02
4949000000.000000      3.821411000000000E-01      1.799121000000000E+01      1.377563000000000E-01      1.637656000000000E+02
4950000000.000000      3.821564000000000E-01      1.788281000000000E+01      1.348495000000000E-01      1.644609000000000E+02
4951000000.000000      3.822021000000000E-01      1.757813000000000E+01      1.320419000000000E-01      1.656719000000000E+02
4952000000.000000      3.808899000000000E-01      1.737305000000000E+01      1.288452000000000E-01      1.667500000000000E+02
4953000000.000000      3.802185000000000E-01      1.722461000000000E+01      1.269455000000000E-01      1.684219000000000E+02
4954000000.000000      3.811035000000000E-01      1.708203000000000E+01      1.240921000000000E-01      1.695234000000000E+02
