! Network Analyzer HP8722D
! Hewlett-Packard
! Data name: Linha & Wilkinson
! Saver's name: Rodrigo Anjos
! Comments: Teste da utilização de aquisição
continua pelo VNA HP8722D
! Time and date: 23/5/2025 15:52
!              Frequency                     S11                                                   S21                                                   S12                                                   S22
# HZ  S  MA R 50
4800000000.000000      2.801819000000000E-01      4.040625000000000E+01      4.883728000000000E-01     -1.299062000000000E+02
4801000000.000000      2.810822000000000E-01      4.071289000000000E+01      4.897003000000000E-01     -1.307969000000000E+02
4802000000.000000      2.823181000000000E-01      4.097852000000000E+01      4.903259000000000E-01     -1.311953000000000E+02
4803000000.000000      2.831268000000000E-01      4.112305000000000E+01      4.941711000000000E-01     -1.321094000000000E+02
4804000000.000000      2.843781000000000E-01      4.135742000000000E+01      4.956207000000000E-01     -1.326094000000000E+02
4805000000.000000      2.866821000000000E-01      4.132421000000000E+01      4.963379000000000E-01     -1.334219000000000E+02
4806000000.000000      2.873993000000000E-01      4.167188000000000E+01      4.974060000000000E-01     -1.343672000000000E+02
4807000000.000000      2.890625000000000E-01      4.189453000000000E+01      4.989929000000000E-01     -1.349375000000000E+02
4808000000.000000      2.898865000000000E-01      4.201953000000000E+01      5.011292000000000E-01     -1.355937000000000E+02
4809000000.000000      2.915344000000000E-01      4.225976000000000E+01      5.012207000000000E-01     -1.365781000000000E+02
4810000000.000000      2.930450000000000E-01      4.233984000000000E+01      5.030518000000000E-01     -1.371406000000000E+02
4811000000.000000      2.956848000000000E-01      4.242969000000000E+01      5.034485000000000E-01     -1.378672000000000E+02
4812000000.000000      2.974396000000000E-01      4.264844000000000E+01      5.057068000000000E-01     -1.386563000000000E+02
4813000000.000000      2.984467000000000E-01      4.276953000000000E+01      5.062866000000000E-01     -1.394844000000000E+02
4814000000.000000      2.999725000000000E-01      4.278710000000000E+01      5.067749000000000E-01     -1.398828000000000E+02
4815000000.000000      3.013611000000000E-01      4.292578000000000E+01      5.069885000000000E-01     -1.409141000000000E+02
4816000000.000000      3.036957000000000E-01      4.302930000000000E+01      5.079956000000000E-01     -1.416094000000000E+02
4817000000.000000      3.050385000000000E-01      4.315820000000000E+01      5.069275000000000E-01     -1.423281000000000E+02
4818000000.000000      3.067322000000000E-01      4.313477000000000E+01      5.081482000000000E-01     -1.430234000000000E+02
4819000000.000000      3.089142000000000E-01      4.313867000000000E+01      5.083008000000000E-01     -1.437734000000000E+02
4820000000.000000      3.099365000000000E-01      4.320898000000000E+01      5.091553000000000E-01     -1.444687000000000E+02
4821000000.000000      3.126373000000000E-01      4.325000000000000E+01      5.097961000000000E-01     -1.453047000000000E+02
4822000000.000000      3.137970000000000E-01      4.318945000000000E+01      5.081177000000000E-01     -1.460469000000000E+02
4823000000.000000      3.160400000000000E-01      4.314453000000000E+01      5.094604000000000E-01     -1.466797000000000E+02
4824000000.000000      3.176270000000000E-01      4.332031000000000E+01      5.091248000000000E-01     -1.474922000000000E+02
4825000000.000000      3.196411000000000E-01      4.311913000000000E+01      5.083618000000000E-01     -1.480313000000000E+02
4826000000.000000      3.208771000000000E-01      4.317187000000000E+01      5.083008000000000E-01     -1.489766000000000E+02
4827000000.000000      3.230896000000000E-01      4.309179000000000E+01      5.088501000000000E-01     -1.495469000000000E+02
4828000000.000000      3.256073000000000E-01      4.300000000000000E+01      5.080566000000000E-01     -1.502891000000000E+02
4829000000.000000      3.268433000000000E-01      4.301367000000000E+01      5.065613000000000E-01     -1.510859000000000E+02
4830000000.000000      3.291931000000000E-01      4.290039000000000E+01      5.070190000000000E-01     -1.518359000000000E+02
4831000000.000000      3.301697000000000E-01      4.279101000000000E+01      5.058594000000000E-01     -1.524922000000000E+02
4832000000.000000      3.321533000000000E-01      4.279687000000000E+01      5.040283000000000E-01     -1.531719000000000E+02
4833000000.000000      3.335266000000000E-01      4.258008000000000E+01      5.050659000000000E-01     -1.538437000000000E+02
4834000000.000000      3.355865000000000E-01      4.248242000000000E+01      5.037231000000000E-01     -1.545469000000000E+02
4835000000.000000      3.374939000000000E-01      4.232031000000000E+01      5.033875000000000E-01     -1.554062000000000E+02
4836000000.000000      3.399811000000000E-01      4.229297000000000E+01      5.011292000000000E-01     -1.561641000000000E+02
4837000000.000000      3.405457000000000E-01      4.215820000000000E+01      4.999542000000000E-01     -1.570547000000000E+02
4838000000.000000      3.420258000000000E-01      4.199609000000000E+01      4.994049000000000E-01     -1.575078000000000E+02
4839000000.000000      3.456879000000000E-01      4.187109000000000E+01      4.983978000000000E-01     -1.581484000000000E+02
4840000000.000000      3.459625000000000E-01      4.152539000000000E+01      4.988098000000000E-01     -1.587265000000000E+02
4841000000.000000      3.483887000000000E-01      4.157617000000000E+01      4.972534000000000E-01     -1.596797000000000E+02
4842000000.000000      3.495941000000000E-01      4.132617000000000E+01      4.955750000000000E-01     -1.604453000000000E+02
4843000000.000000      3.517456000000000E-01      4.097461000000000E+01      4.965820000000000E-01     -1.612266000000000E+02
4844000000.000000      3.525543000000000E-01      4.083203000000000E+01      4.922638000000000E-01     -1.618047000000000E+02
4845000000.000000      3.544006000000000E-01      4.079492000000000E+01      4.902191000000000E-01     -1.623672000000000E+02
4846000000.000000      3.558960000000000E-01      4.062696000000000E+01      4.894714000000000E-01     -1.631719000000000E+02
4847000000.000000      3.576660000000000E-01      4.046875000000000E+01      4.877472000000000E-01     -1.638438000000000E+02
4848000000.000000      3.589020000000000E-01      4.009766000000000E+01      4.842529000000000E-01     -1.646797000000000E+02
4849000000.000000      3.597260000000000E-01      3.984570000000000E+01      4.832306000000000E-01     -1.651953000000000E+02
4850000000.000000      3.611908000000000E-01      3.967187000000000E+01      4.810638000000000E-01     -1.659531000000000E+02
4851000000.000000      3.630371000000000E-01      3.955469000000000E+01      4.809875000000000E-01     -1.666172000000000E+02
4852000000.000000      3.642120000000000E-01      3.925390000000000E+01      4.784241000000000E-01     -1.673125000000000E+02
4853000000.000000      3.655548000000000E-01      3.899023000000000E+01      4.744263000000000E-01     -1.680156000000000E+02
4854000000.000000      3.667908000000000E-01      3.874218000000000E+01      4.727783000000000E-01     -1.688672000000000E+02
4855000000.000000      3.677826000000000E-01      3.852734000000000E+01      4.720306000000000E-01     -1.694922000000000E+02
4856000000.000000      3.689880000000000E-01      3.829102000000000E+01      4.679565000000000E-01     -1.701328000000000E+02
4857000000.000000      3.706512000000000E-01      3.813867000000000E+01      4.666138000000000E-01     -1.709609000000000E+02
4858000000.000000      3.706360000000000E-01      3.778125000000000E+01      4.638519000000000E-01     -1.715312000000000E+02
4859000000.000000      3.720551000000000E-01      3.744141000000000E+01      4.627533000000000E-01     -1.723281000000000E+02
4860000000.000000      3.731384000000000E-01      3.735547000000000E+01      4.590912000000000E-01     -1.730469000000000E+02
4861000000.000000      3.740692000000000E-01      3.714062000000000E+01      4.556885000000000E-01     -1.738359000000000E+02
4862000000.000000      3.749542000000000E-01      3.679296000000000E+01      4.541168000000000E-01     -1.742188000000000E+02
4863000000.000000      3.757782000000000E-01      3.649414000000000E+01      4.496765000000000E-01     -1.750391000000000E+02
4864000000.000000      3.771210000000000E-01      3.619336000000000E+01      4.489594000000000E-01     -1.754844000000000E+02
4865000000.000000      3.771210000000000E-01      3.599414000000000E+01      4.443054000000000E-01     -1.761953000000000E+02
4866000000.000000      3.788757000000000E-01      3.563086000000000E+01      4.423676000000000E-01     -1.768906000000000E+02
4867000000.000000      3.781586000000000E-01      3.552539000000000E+01      4.390717000000000E-01     -1.777812000000000E+02
4868000000.000000      3.799744000000000E-01      3.514062000000000E+01      4.362183000000000E-01     -1.782891000000000E+02
4869000000.000000      3.805847000000000E-01      3.491796000000000E+01      4.330597000000000E-01     -1.789375000000000E+02
4870000000.000000      3.811340000000000E-01      3.472070000000000E+01      4.290009000000000E-01     -1.793672000000000E+02
4871000000.000000      3.814392000000000E-01      3.435937000000000E+01      4.256897000000000E-01      1.796562000000000E+02
4872000000.000000      3.826599000000000E-01      3.409765000000000E+01      4.229279000000000E-01      1.793359000000000E+02
4873000000.000000      3.827972000000000E-01      3.382031000000000E+01      4.174042000000000E-01      1.786406000000000E+02
4874000000.000000      3.835297000000000E-01      3.366406000000000E+01      4.159698000000000E-01      1.779766000000000E+02
4875000000.000000      3.838348000000000E-01      3.326953000000000E+01      4.113312000000000E-01      1.773984000000000E+02
4876000000.000000      3.846130000000000E-01      3.304101000000000E+01      4.092407000000000E-01      1.767109000000000E+02
4877000000.000000      3.849792000000000E-01      3.269140000000000E+01      4.050293000000000E-01      1.761953000000000E+02
4878000000.000000      3.846283000000000E-01      3.248242000000000E+01      4.017639000000000E-01      1.757969000000000E+02
4879000000.000000      3.860321000000000E-01      3.232031000000000E+01      3.974915000000000E-01      1.751797000000000E+02
4880000000.000000      3.867188000000000E-01      3.186914000000000E+01      3.952332000000000E-01      1.746484000000000E+02
4881000000.000000      3.861084000000000E-01      3.170605000000000E+01      3.918152000000000E-01      1.740859000000000E+02
4882000000.000000      3.877411000000000E-01      3.141602000000000E+01      3.883209000000000E-01      1.735312000000000E+02
4883000000.000000      3.864594000000000E-01      3.106054000000000E+01      3.834686000000000E-01      1.730547000000000E+02
4884000000.000000      3.878937000000000E-01      3.097558000000000E+01      3.802185000000000E-01      1.726875000000000E+02
4885000000.000000      3.880768000000000E-01      3.066113000000000E+01      3.763580000000000E-01      1.722500000000000E+02
4886000000.000000      3.877258000000000E-01      3.033008000000000E+01      3.731232000000000E-01      1.717891000000000E+02
4887000000.000000      3.865356000000000E-01      3.022851000000000E+01      3.703918000000000E-01      1.712265000000000E+02
4888000000.000000      3.872681000000000E-01      2.977344000000000E+01      3.664093000000000E-01      1.704844000000000E+02
4889000000.000000      3.876190000000000E-01      2.958301000000000E+01      3.629456000000000E-01      1.701641000000000E+02
4890000000.000000      3.864136000000000E-01      2.945117000000000E+01      3.592682000000000E-01      1.694375000000000E+02
4891000000.000000      3.876801000000000E-01      2.917480000000000E+01      3.548279000000000E-01      1.689844000000000E+02
4892000000.000000      3.872528000000000E-01      2.884863000000000E+01      3.521729000000000E-01      1.690078000000000E+02
4893000000.000000      3.879852000000000E-01      2.862988000000000E+01      3.494873000000000E-01      1.681484000000000E+02
4894000000.000000      3.868103000000000E-01      2.842480000000000E+01      3.444214000000000E-01      1.676797000000000E+02
4895000000.000000      3.873138000000000E-01      2.811523000000000E+01      3.439636000000000E-01      1.675781000000000E+02
4896000000.000000      3.871307000000000E-01      2.791992000000000E+01      3.378143000000000E-01      1.671875000000000E+02
4897000000.000000      3.869629000000000E-01      2.771777000000000E+01      3.344879000000000E-01      1.665313000000000E+02
4898000000.000000      3.871155000000000E-01      2.744043000000000E+01      3.313446000000000E-01      1.662266000000000E+02
4899000000.000000      3.874664000000000E-01      2.731738000000000E+01      3.268585000000000E-01      1.658281000000000E+02
4900000000.000000      3.873596000000000E-01      2.707520000000000E+01      3.245544000000000E-01      1.653359000000000E+02
4901000000.000000      3.863525000000000E-01      2.673242000000000E+01      3.208771000000000E-01      1.650391000000000E+02
4902000000.000000      3.856506000000000E-01      2.661621000000000E+01      3.179016000000000E-01      1.648359000000000E+02
4903000000.000000      3.865967000000000E-01      2.632813000000000E+01      3.135681000000000E-01      1.642109000000000E+02
4904000000.000000      3.865662000000000E-01      2.613867000000000E+01      3.102722000000000E-01      1.637969000000000E+02
4905000000.000000      3.859863000000000E-01      2.585840000000000E+01      3.077087000000000E-01      1.634687000000000E+02
4906000000.000000      3.851318000000000E-01      2.557129000000000E+01      3.041229000000000E-01      1.631562000000000E+02
4907000000.000000      3.852692000000000E-01      2.548828000000000E+01      3.005066000000000E-01      1.626953000000000E+02
4908000000.000000      3.862305000000000E-01      2.513476000000000E+01      2.973175000000000E-01      1.623203000000000E+02
4909000000.000000      3.842010000000000E-01      2.516504000000000E+01      2.936401000000000E-01      1.618281000000000E+02
4910000000.000000      3.842926000000000E-01      2.487793000000000E+01      2.897491000000000E-01      1.615547000000000E+02
4911000000.000000      3.842010000000000E-01      2.462305000000000E+01      2.863159000000000E-01      1.613750000000000E+02
4912000000.000000      3.845978000000000E-01      2.452246000000000E+01      2.835388000000000E-01      1.608750000000000E+02
4913000000.000000      3.843384000000000E-01      2.420507000000000E+01      2.790375000000000E-01      1.604609000000000E+02
4914000000.000000      3.841705000000000E-01      2.414063000000000E+01      2.758026000000000E-01      1.601797000000000E+02
4915000000.000000      3.827362000000000E-01      2.389160000000000E+01      2.714386000000000E-01      1.595859000000000E+02
4916000000.000000      3.835907000000000E-01      2.368652000000000E+01      2.680969000000000E-01      1.594453000000000E+02
4917000000.000000      3.823700000000000E-01      2.352637000000000E+01      2.644806000000000E-01      1.591484000000000E+02
4918000000.000000      3.822327000000000E-01      2.320313000000000E+01      2.608337000000000E-01      1.587188000000000E+02
4919000000.000000      3.812866000000000E-01      2.326758000000000E+01      2.571411000000000E-01      1.586328000000000E+02
4920000000.000000      3.820648000000000E-01      2.303906000000000E+01      2.526398000000000E-01      1.579453000000000E+02
4921000000.000000      3.809814000000000E-01      2.304297000000000E+01      2.496796000000000E-01      1.579766000000000E+02
4922000000.000000      3.816223000000000E-01      2.256543000000000E+01      2.455292000000000E-01      1.576875000000000E+02
4923000000.000000      3.807373000000000E-01      2.255176000000000E+01      2.407761000000000E-01      1.574531000000000E+02
4924000000.000000      3.811188000000000E-01      2.244336000000000E+01      2.365952000000000E-01      1.571016000000000E+02
4925000000.000000      3.801880000000000E-01      2.213379000000000E+01      2.337570000000000E-01      1.568594000000000E+02
4926000000.000000      3.794403000000000E-01      2.190625000000000E+01      2.291641000000000E-01      1.566562000000000E+02
4927000000.000000      3.788452000000000E-01      2.187695000000000E+01      2.249222000000000E-01      1.565234000000000E+02
4928000000.000000      3.790131000000000E-01      2.143945000000000E+01      2.210617000000000E-01      1.563516000000000E+02
4929000000.000000      3.787384000000000E-01      2.136230000000000E+01      2.166977000000000E-01      1.562891000000000E+02
4930000000.000000      3.782654000000000E-01      2.130371000000000E+01      2.133179000000000E-01      1.561094000000000E+02
4931000000.000000      3.777313000000000E-01      2.097949000000000E+01      2.095032000000000E-01      1.558750000000000E+02
4932000000.000000      3.785248000000000E-01      2.086133000000000E+01      2.056732000000000E-01      1.561016000000000E+02
4933000000.000000      3.785553000000000E-01      2.068652000000000E+01      2.000580000000000E-01      1.561250000000000E+02
4934000000.000000      3.789063000000000E-01      2.052441000000000E+01      1.970901000000000E-01      1.559609000000000E+02
4935000000.000000      3.790741000000000E-01      2.032031000000000E+01      1.930847000000000E-01      1.561484000000000E+02
4936000000.000000      3.762360000000000E-01      2.020996000000000E+01      1.886215000000000E-01      1.563281000000000E+02
4937000000.000000      3.769379000000000E-01      1.989551000000000E+01      1.848068000000000E-01      1.562969000000000E+02
4938000000.000000      3.769836000000000E-01      1.988477000000000E+01      1.807175000000000E-01      1.566328000000000E+02
4939000000.000000      3.759003000000000E-01      1.984668000000000E+01      1.769943000000000E-01      1.569141000000000E+02
4940000000.000000      3.763275000000000E-01      1.949609000000000E+01      1.729050000000000E-01      1.569062000000000E+02
4941000000.000000      3.752441000000000E-01      1.929590000000000E+01      1.686783000000000E-01      1.575938000000000E+02
4942000000.000000      3.759155000000000E-01      1.920801000000000E+01      1.651230000000000E-01      1.577109000000000E+02
4943000000.000000      3.749390000000000E-01      1.898633000000000E+01      1.612015000000000E-01      1.583437000000000E+02
4944000000.000000      3.742676000000000E-01      1.878222000000000E+01      1.576309000000000E-01      1.587969000000000E+02
4945000000.000000      3.742676000000000E-01      1.851563000000000E+01      1.541061000000000E-01      1.594297000000000E+02
4946000000.000000      3.741302000000000E-01      1.852246000000000E+01      1.510696000000000E-01      1.600781000000000E+02
4947000000.000000      3.740082000000000E-01      1.824414000000000E+01      1.465988000000000E-01      1.609844000000000E+02
4948000000.000000      3.748169000000000E-01      1.816113000000000E+01      1.432877000000000E-01      1.618515000000000E+02
4949000000.000000      3.736420000000000E-01      1.794336000000000E+01      1.404495000000000E-01      1.630391000000000E+02
4950000000.000000      3.738251000000000E-01      1.781250000000000E+01      1.372147000000000E-01      1.635078000000000E+02
4951000000.000000      3.731995000000000E-01      1.764258000000000E+01      1.341782000000000E-01      1.645469000000000E+02
4952000000.000000      3.723602000000000E-01      1.734375000000000E+01      1.314926000000000E-01      1.657969000000000E+02
4953000000.000000      3.719330000000000E-01      1.727246000000000E+01      1.289978000000000E-01      1.672188000000000E+02
4954000000.000000      3.721924000000000E-01      1.713867000000000E+01      1.264267000000000E-01      1.686016000000000E+02
