! Network Analyzer HP8722D
! Hewlett-Packard
! Data name: Linha & Wilkinson
! Saver's name: Rodrigo Anjos
! Comments: Teste da utilização de aquisição
continua pelo VNA HP8722D
! Time and date: 23/5/2025 07:38
!              Frequency                     S11                                                   S21                                                   S12                                                   S22
# HZ  S  MA R 50
4800000000.000000      6.412964000000000E-01      1.060303000000000E+01      4.733887000000000E-01     -9.357813000000000E+01
4801000000.000000      6.405945000000000E-01      1.085303000000000E+01      4.725647000000000E-01     -9.433985000000000E+01
4802000000.000000      6.392212000000000E-01      1.067432000000000E+01      4.774323000000000E-01     -9.488281000000000E+01
4803000000.000000      6.364136000000000E-01      1.063721000000000E+01      4.795074000000000E-01     -9.577343000000000E+01
4804000000.000000      6.344910000000000E-01      1.055615000000000E+01      4.797363000000000E-01     -9.678514000000000E+01
4805000000.000000      6.338806000000000E-01      1.066455000000000E+01      4.810028000000000E-01     -9.730469000000000E+01
4806000000.000000      6.326294000000000E-01      1.067725000000000E+01      4.817505000000000E-01     -9.807421000000000E+01
4807000000.000000      6.303406000000000E-01      1.065918000000000E+01      4.836578000000000E-01     -9.907030000000000E+01
4808000000.000000      6.287842000000000E-01      1.067041000000000E+01      4.842072000000000E-01     -9.964062000000000E+01
4809000000.000000      6.266785000000000E-01      1.070850000000000E+01      4.874115000000000E-01     -1.005664000000000E+02
4810000000.000000      6.253967000000000E-01      1.080762000000000E+01      4.885254000000000E-01     -1.012226000000000E+02
4811000000.000000      6.242981000000000E-01      1.080322000000000E+01      4.896851000000000E-01     -1.019531000000000E+02
4812000000.000000      6.240540000000000E-01      1.102588000000000E+01      4.891663000000000E-01     -1.026836000000000E+02
4813000000.000000      6.210327000000000E-01      1.110010000000000E+01      4.915924000000000E-01     -1.035820000000000E+02
4814000000.000000      6.195679000000000E-01      1.108496000000000E+01      4.915009000000000E-01     -1.042266000000000E+02
4815000000.000000      6.177673000000000E-01      1.108887000000000E+01      4.929047000000000E-01     -1.049922000000000E+02
4816000000.000000      6.178284000000000E-01      1.126074000000000E+01      4.947052000000000E-01     -1.057500000000000E+02
4817000000.000000      6.171265000000000E-01      1.140234000000000E+01      4.953308000000000E-01     -1.064883000000000E+02
4818000000.000000      6.160583000000000E-01      1.116064000000000E+01      4.948730000000000E-01     -1.073086000000000E+02
4819000000.000000      6.135559000000000E-01      1.139404000000000E+01      4.943085000000000E-01     -1.080117000000000E+02
4820000000.000000      6.137390000000000E-01      1.155859000000000E+01      4.959564000000000E-01     -1.087656000000000E+02
4821000000.000000      6.123657000000000E-01      1.158496000000000E+01      4.968414000000000E-01     -1.096992000000000E+02
4822000000.000000      6.105042000000000E-01      1.168799000000000E+01      4.948120000000000E-01     -1.101680000000000E+02
4823000000.000000      6.116028000000000E-01      1.166016000000000E+01      4.972076000000000E-01     -1.111523000000000E+02
4824000000.000000      6.089172000000000E-01      1.186230000000000E+01      4.977112000000000E-01     -1.116836000000000E+02
4825000000.000000      6.095581000000000E-01      1.191992000000000E+01      4.967499000000000E-01     -1.124609000000000E+02
4826000000.000000      6.082153000000000E-01      1.185547000000000E+01      4.971924000000000E-01     -1.135352000000000E+02
4827000000.000000      6.079712000000000E-01      1.218359000000000E+01      4.976654000000000E-01     -1.140000000000000E+02
4828000000.000000      6.095581000000000E-01      1.239258000000000E+01      4.984589000000000E-01     -1.148555000000000E+02
4829000000.000000      6.083374000000000E-01      1.267920000000000E+01      5.003052000000000E-01     -1.154844000000000E+02
4830000000.000000      6.080017000000000E-01      1.245947000000000E+01      4.984894000000000E-01     -1.164101000000000E+02
4831000000.000000      6.067505000000000E-01      1.269580000000000E+01      4.989319000000000E-01     -1.171172000000000E+02
4832000000.000000      6.072083000000000E-01      1.278223000000000E+01      4.979401000000000E-01     -1.176563000000000E+02
4833000000.000000      6.059265000000000E-01      1.288818000000000E+01      4.969788000000000E-01     -1.185273000000000E+02
4834000000.000000      6.080933000000000E-01      1.302393000000000E+01      4.976959000000000E-01     -1.193164000000000E+02
4835000000.000000      6.081543000000000E-01      1.303516000000000E+01      4.985352000000000E-01     -1.201211000000000E+02
4836000000.000000      6.083679000000000E-01      1.327539000000000E+01      4.955597000000000E-01     -1.208945000000000E+02
4837000000.000000      6.071167000000000E-01      1.331104000000000E+01      4.965363000000000E-01     -1.219062000000000E+02
4838000000.000000      6.067505000000000E-01      1.346191000000000E+01      4.955597000000000E-01     -1.224531000000000E+02
4839000000.000000      6.101074000000000E-01      1.367773000000000E+01      4.952240000000000E-01     -1.233047000000000E+02
4840000000.000000      6.092224000000000E-01      1.369287000000000E+01      4.950256000000000E-01     -1.239883000000000E+02
4841000000.000000      6.115417000000000E-01      1.394434000000000E+01      4.925385000000000E-01     -1.249141000000000E+02
4842000000.000000      6.096497000000000E-01      1.398389000000000E+01      4.919739000000000E-01     -1.256562000000000E+02
4843000000.000000      6.129761000000000E-01      1.371631000000000E+01      4.933929000000000E-01     -1.266406000000000E+02
4844000000.000000      6.108093000000000E-01      1.389893000000000E+01      4.904480000000000E-01     -1.275508000000000E+02
4845000000.000000      6.113281000000000E-01      1.416113000000000E+01      4.903717000000000E-01     -1.281328000000000E+02
4846000000.000000      6.150818000000000E-01      1.430420000000000E+01      4.892273000000000E-01     -1.289922000000000E+02
4847000000.000000      6.146545000000000E-01      1.439600000000000E+01      4.884491000000000E-01     -1.298281000000000E+02
4848000000.000000      6.144714000000000E-01      1.439063000000000E+01      4.843292000000000E-01     -1.305781000000000E+02
4849000000.000000      6.155396000000000E-01      1.438086000000000E+01      4.838562000000000E-01     -1.316953000000000E+02
4850000000.000000      6.167603000000000E-01      1.433984000000000E+01      4.810791000000000E-01     -1.325312000000000E+02
4851000000.000000      6.188965000000000E-01      1.455811000000000E+01      4.810638000000000E-01     -1.333594000000000E+02
4852000000.000000      6.194153000000000E-01      1.461182000000000E+01      4.783478000000000E-01     -1.340937000000000E+02
4853000000.000000      6.193542000000000E-01      1.464307000000000E+01      4.748840000000000E-01     -1.349219000000000E+02
4854000000.000000      6.194763000000000E-01      1.472168000000000E+01      4.735565000000000E-01     -1.358594000000000E+02
4855000000.000000      6.199036000000000E-01      1.475049000000000E+01      4.715424000000000E-01     -1.364766000000000E+02
4856000000.000000      6.210632000000000E-01      1.472168000000000E+01      4.696503000000000E-01     -1.373828000000000E+02
4857000000.000000      6.245117000000000E-01      1.477490000000000E+01      4.677429000000000E-01     -1.382422000000000E+02
4858000000.000000      6.243286000000000E-01      1.473779000000000E+01      4.648590000000000E-01     -1.393437000000000E+02
4859000000.000000      6.249390000000000E-01      1.472021000000000E+01      4.622192000000000E-01     -1.399375000000000E+02
4860000000.000000      6.271362000000000E-01      1.496191000000000E+01      4.573517000000000E-01     -1.408516000000000E+02
4861000000.000000      6.271667000000000E-01      1.488086000000000E+01      4.558105000000000E-01     -1.416094000000000E+02
4862000000.000000      6.273193000000000E-01      1.488086000000000E+01      4.522705000000000E-01     -1.423594000000000E+02
4863000000.000000      6.300049000000000E-01      1.484375000000000E+01      4.472198000000000E-01     -1.434375000000000E+02
4864000000.000000      6.319580000000000E-01      1.470752000000000E+01      4.445648000000000E-01     -1.438984000000000E+02
4865000000.000000      6.327515000000000E-01      1.481201000000000E+01      4.404297000000000E-01     -1.446563000000000E+02
4866000000.000000      6.355286000000000E-01      1.474219000000000E+01      4.366608000000000E-01     -1.456875000000000E+02
4867000000.000000      6.333313000000000E-01      1.497266000000000E+01      4.319458000000000E-01     -1.465000000000000E+02
4868000000.000000      6.348572000000000E-01      1.457178000000000E+01      4.288788000000000E-01     -1.472656000000000E+02
4869000000.000000      6.384583000000000E-01      1.475830000000000E+01      4.251099000000000E-01     -1.480469000000000E+02
4870000000.000000      6.369324000000000E-01      1.480127000000000E+01      4.201660000000000E-01     -1.485469000000000E+02
4871000000.000000      6.385803000000000E-01      1.463477000000000E+01      4.168549000000000E-01     -1.493203000000000E+02
4872000000.000000      6.414795000000000E-01      1.459229000000000E+01      4.128113000000000E-01     -1.499375000000000E+02
4873000000.000000      6.416626000000000E-01      1.468555000000000E+01      4.078827000000000E-01     -1.509063000000000E+02
4874000000.000000      6.441040000000000E-01      1.472412000000000E+01      4.029236000000000E-01     -1.515391000000000E+02
4875000000.000000      6.472778000000000E-01      1.453857000000000E+01      3.984680000000000E-01     -1.522344000000000E+02
4876000000.000000      6.465759000000000E-01      1.458545000000000E+01      3.955231000000000E-01     -1.528437000000000E+02
4877000000.000000      6.477051000000000E-01      1.428760000000000E+01      3.887329000000000E-01     -1.534062000000000E+02
4878000000.000000      6.488037000000000E-01      1.428760000000000E+01      3.859558000000000E-01     -1.539063000000000E+02
4879000000.000000      6.511536000000000E-01      1.436182000000000E+01      3.804932000000000E-01     -1.544844000000000E+02
4880000000.000000      6.546326000000000E-01      1.429297000000000E+01      3.771057000000000E-01     -1.551094000000000E+02
4881000000.000000      6.537170000000000E-01      1.419434000000000E+01      3.729706000000000E-01     -1.555703000000000E+02
4882000000.000000      6.561279000000000E-01      1.431348000000000E+01      3.697205000000000E-01     -1.563359000000000E+02
4883000000.000000      6.559448000000000E-01      1.410205000000000E+01      3.632965000000000E-01     -1.567344000000000E+02
4884000000.000000      6.572876000000000E-01      1.404736000000000E+01      3.596802000000000E-01     -1.574141000000000E+02
4885000000.000000      6.587830000000000E-01      1.415137000000000E+01      3.555145000000000E-01     -1.574766000000000E+02
4886000000.000000      6.594543000000000E-01      1.381787000000000E+01      3.521271000000000E-01     -1.579531000000000E+02
4887000000.000000      6.596069000000000E-01      1.393457000000000E+01      3.476105000000000E-01     -1.585078000000000E+02
4888000000.000000      6.635742000000000E-01      1.369434000000000E+01      3.431244000000000E-01     -1.590234000000000E+02
4889000000.000000      6.616821000000000E-01      1.364355000000000E+01      3.399506000000000E-01     -1.596406000000000E+02
4890000000.000000      6.611328000000000E-01      1.344580000000000E+01      3.340454000000000E-01     -1.603828000000000E+02
4891000000.000000      6.622925000000000E-01      1.341113000000000E+01      3.300781000000000E-01     -1.605078000000000E+02
4892000000.000000      6.651001000000000E-01      1.356250000000000E+01      3.261871000000000E-01     -1.607812000000000E+02
4893000000.000000      6.664429000000000E-01      1.333984000000000E+01      3.224335000000000E-01     -1.613750000000000E+02
4894000000.000000      6.676331000000000E-01      1.318750000000000E+01      3.170624000000000E-01     -1.615391000000000E+02
4895000000.000000      6.698608000000000E-01      1.308838000000000E+01      3.151398000000000E-01     -1.619766000000000E+02
4896000000.000000      6.711426000000000E-01      1.310107000000000E+01      3.111420000000000E-01     -1.623516000000000E+02
4897000000.000000      6.690979000000000E-01      1.292090000000000E+01      3.071594000000000E-01     -1.628125000000000E+02
4898000000.000000      6.730957000000000E-01      1.296777000000000E+01      3.032074000000000E-01     -1.630312000000000E+02
4899000000.000000      6.720886000000000E-01      1.277686000000000E+01      2.996216000000000E-01     -1.634297000000000E+02
4900000000.000000      6.736145000000000E-01      1.268066000000000E+01      2.957611000000000E-01     -1.636875000000000E+02
4901000000.000000      6.728210000000000E-01      1.250781000000000E+01      2.924805000000000E-01     -1.640391000000000E+02
4902000000.000000      6.774292000000000E-01      1.255029000000000E+01      2.893982000000000E-01     -1.642969000000000E+02
4903000000.000000      6.756287000000000E-01      1.241992000000000E+01      2.850342000000000E-01     -1.646484000000000E+02
4904000000.000000      6.751709000000000E-01      1.224951000000000E+01      2.817230000000000E-01     -1.650391000000000E+02
4905000000.000000      6.762085000000000E-01      1.219043000000000E+01      2.792511000000000E-01     -1.654531000000000E+02
4906000000.000000      6.794434000000000E-01      1.228125000000000E+01      2.747650000000000E-01     -1.654297000000000E+02
4907000000.000000      6.785583000000000E-01      1.201758000000000E+01      2.718048000000000E-01     -1.660000000000000E+02
4908000000.000000      6.814575000000000E-01      1.188965000000000E+01      2.687836000000000E-01     -1.662969000000000E+02
4909000000.000000      6.794739000000000E-01      1.176465000000000E+01      2.641754000000000E-01     -1.665703000000000E+02
4910000000.000000      6.800232000000000E-01      1.172607000000000E+01      2.608795000000000E-01     -1.667734000000000E+02
4911000000.000000      6.818542000000000E-01      1.160693000000000E+01      2.587128000000000E-01     -1.672109000000000E+02
4912000000.000000      6.812744000000000E-01      1.149023000000000E+01      2.536926000000000E-01     -1.676250000000000E+02
4913000000.000000      6.828003000000000E-01      1.135156000000000E+01      2.506104000000000E-01     -1.677266000000000E+02
4914000000.000000      6.825256000000000E-01      1.124170000000000E+01      2.473755000000000E-01     -1.679062000000000E+02
4915000000.000000      6.819153000000000E-01      1.119873000000000E+01      2.431793000000000E-01     -1.684219000000000E+02
4916000000.000000      6.846008000000000E-01      1.106836000000000E+01      2.401047000000000E-01     -1.685937000000000E+02
4917000000.000000      6.815796000000000E-01      1.093652000000000E+01      2.359695000000000E-01     -1.687734000000000E+02
4918000000.000000      6.845703000000000E-01      1.082422000000000E+01      2.325897000000000E-01     -1.690859000000000E+02
4919000000.000000      6.828918000000000E-01      1.059082000000000E+01      2.290421000000000E-01     -1.692188000000000E+02
4920000000.000000      6.866150000000000E-01      1.062646000000000E+01      2.256088000000000E-01     -1.696094000000000E+02
4921000000.000000      6.845703000000000E-01      1.055908000000000E+01      2.223129000000000E-01     -1.697109000000000E+02
4922000000.000000      6.875610000000000E-01      1.045166000000000E+01      2.179718000000000E-01     -1.697187000000000E+02
4923000000.000000      6.870117000000000E-01      1.046436000000000E+01      2.146149000000000E-01     -1.699687000000000E+02
4924000000.000000      6.869507000000000E-01      1.036963000000000E+01      2.108536000000000E-01     -1.703672000000000E+02
4925000000.000000      6.861572000000000E-01      1.021973000000000E+01      2.070236000000000E-01     -1.703438000000000E+02
4926000000.000000      6.889343000000000E-01      9.902344000000000E+00      2.032623000000000E-01     -1.705859000000000E+02
4927000000.000000      6.893921000000000E-01      9.873535000000000E+00      1.999664000000000E-01     -1.706016000000000E+02
4928000000.000000      6.900940000000000E-01      9.854492000000000E+00      1.962967000000000E-01     -1.706484000000000E+02
4929000000.000000      6.899414000000000E-01      9.605957000000000E+00      1.915131000000000E-01     -1.706640000000000E+02
4930000000.000000      6.898804000000000E-01      9.712891000000000E+00      1.886749000000000E-01     -1.705547000000000E+02
4931000000.000000      6.907959000000000E-01      9.552246000000000E+00      1.855850000000000E-01     -1.707031000000000E+02
4932000000.000000      6.911011000000000E-01      9.402832000000000E+00      1.808243000000000E-01     -1.706016000000000E+02
4933000000.000000      6.915588000000000E-01      9.353027000000000E+00      1.769104000000000E-01     -1.703359000000000E+02
4934000000.000000      6.935730000000000E-01      9.288574000000000E+00      1.738434000000000E-01     -1.704609000000000E+02
4935000000.000000      6.941528000000000E-01      9.070313000000000E+00      1.702652000000000E-01     -1.699609000000000E+02
4936000000.000000      6.932373000000000E-01      9.082520000000000E+00      1.659241000000000E-01     -1.699062000000000E+02
4937000000.000000      6.936951000000000E-01      8.911133000000000E+00      1.629562000000000E-01     -1.697344000000000E+02
4938000000.000000      6.932068000000000E-01      9.041504000000000E+00      1.591339000000000E-01     -1.692578000000000E+02
4939000000.000000      6.939697000000000E-01      8.899902000000000E+00      1.558762000000000E-01     -1.689453000000000E+02
4940000000.000000      6.954346000000000E-01      8.636230000000000E+00      1.515808000000000E-01     -1.686016000000000E+02
4941000000.000000      6.953430000000000E-01      8.495117000000000E+00      1.490021000000000E-01     -1.678750000000000E+02
4942000000.000000      6.961670000000000E-01      8.674805000000000E+00      1.450806000000000E-01     -1.673828000000000E+02
4943000000.000000      6.957092000000000E-01      8.461914000000000E+00      1.419601000000000E-01     -1.668984000000000E+02
4944000000.000000      6.981506000000000E-01      8.430176000000000E+00      1.388016000000000E-01     -1.664531000000000E+02
4945000000.000000      6.954956000000000E-01      7.926514000000000E+00      1.351471000000000E-01     -1.655469000000000E+02
4946000000.000000      6.991882000000000E-01      8.054199000000000E+00      1.324234000000000E-01     -1.646641000000000E+02
4947000000.000000      6.985779000000000E-01      8.007324000000000E+00      1.291809000000000E-01     -1.635313000000000E+02
4948000000.000000      6.990356000000000E-01      7.881104000000000E+00      1.265182000000000E-01     -1.627734000000000E+02
4949000000.000000      6.991577000000000E-01      7.698486000000000E+00      1.243515000000000E-01     -1.613203000000000E+02
4950000000.000000      6.998901000000000E-01      7.899170000000000E+00      1.213989000000000E-01     -1.604063000000000E+02
4951000000.000000      7.019348000000000E-01      7.647705000000000E+00      1.190720000000000E-01     -1.594297000000000E+02
4952000000.000000      6.995850000000000E-01      7.503662000000000E+00      1.162834000000000E-01     -1.581875000000000E+02
4953000000.000000      6.974792000000000E-01      7.602539000000000E+00      1.143188000000000E-01     -1.563437000000000E+02
4954000000.000000      7.017517000000000E-01      7.338867000000000E+00      1.122856000000000E-01     -1.550078000000000E+02
