! Network Analyzer HP8722D
! Hewlett-Packard
! Data name: Linha & Wilkinson
! Saver's name: Rodrigo Anjos
! Comments: Teste da utilização de aquisição
continua pelo VNA HP8722D
! Time and date: 23/5/2025 15:09
!              Frequency                     S11                                                   S21                                                   S12                                                   S22
# HZ  S  MA R 50
4800000000.000000      2.818604000000000E-01      4.014844000000000E+01      4.879456000000000E-01     -1.296953000000000E+02
4801000000.000000      2.827606000000000E-01      4.033984000000000E+01      4.882507000000000E-01     -1.304453000000000E+02
4802000000.000000      2.842865000000000E-01      4.065234000000000E+01      4.911194000000000E-01     -1.310000000000000E+02
4803000000.000000      2.851410000000000E-01      4.079883000000000E+01      4.922791000000000E-01     -1.317891000000000E+02
4804000000.000000      2.861023000000000E-01      4.111133000000000E+01      4.932556000000000E-01     -1.324687000000000E+02
4805000000.000000      2.886047000000000E-01      4.110547000000000E+01      4.952240000000000E-01     -1.332656000000000E+02
4806000000.000000      2.891388000000000E-01      4.128515000000000E+01      4.965820000000000E-01     -1.338047000000000E+02
4807000000.000000      2.906189000000000E-01      4.159961000000000E+01      4.972382000000000E-01     -1.348281000000000E+02
4808000000.000000      2.915955000000000E-01      4.170898000000000E+01      4.991455000000000E-01     -1.352734000000000E+02
4809000000.000000      2.938232000000000E-01      4.202538000000000E+01      4.999237000000000E-01     -1.361328000000000E+02
4810000000.000000      2.947693000000000E-01      4.207421000000000E+01      5.017090000000000E-01     -1.367969000000000E+02
4811000000.000000      2.966614000000000E-01      4.217773000000000E+01      5.040588000000000E-01     -1.376562000000000E+02
4812000000.000000      2.994385000000000E-01      4.244336000000000E+01      5.043335000000000E-01     -1.384297000000000E+02
4813000000.000000      3.005981000000000E-01      4.248437000000000E+01      5.047607000000000E-01     -1.390547000000000E+02
4814000000.000000      3.016052000000000E-01      4.248047000000000E+01      5.060730000000000E-01     -1.397812000000000E+02
4815000000.000000      3.032074000000000E-01      4.272461000000000E+01      5.042419000000000E-01     -1.405781000000000E+02
4816000000.000000      3.056183000000000E-01      4.278906000000000E+01      5.075989000000000E-01     -1.412188000000000E+02
4817000000.000000      3.066101000000000E-01      4.284765000000000E+01      5.070496000000000E-01     -1.422266000000000E+02
4818000000.000000      3.079987000000000E-01      4.284765000000000E+01      5.074463000000000E-01     -1.426875000000000E+02
4819000000.000000      3.105774000000000E-01      4.288476000000000E+01      5.093689000000000E-01     -1.435469000000000E+02
4820000000.000000      3.114929000000000E-01      4.300586000000000E+01      5.068665000000000E-01     -1.441172000000000E+02
4821000000.000000      3.144226000000000E-01      4.304688000000000E+01      5.095825000000000E-01     -1.450469000000000E+02
4822000000.000000      3.152161000000000E-01      4.284375000000000E+01      5.082092000000000E-01     -1.457344000000000E+02
4823000000.000000      3.173065000000000E-01      4.297265000000000E+01      5.076904000000000E-01     -1.464141000000000E+02
4824000000.000000      3.193665000000000E-01      4.307226000000000E+01      5.068054000000000E-01     -1.472188000000000E+02
4825000000.000000      3.208771000000000E-01      4.283008000000000E+01      5.064087000000000E-01     -1.478984000000000E+02
4826000000.000000      3.227997000000000E-01      4.283984000000000E+01      5.074158000000000E-01     -1.487422000000000E+02
4827000000.000000      3.251190000000000E-01      4.285546000000000E+01      5.072327000000000E-01     -1.494609000000000E+02
4828000000.000000      3.271484000000000E-01      4.278516000000000E+01      5.084229000000000E-01     -1.500313000000000E+02
4829000000.000000      3.286591000000000E-01      4.285742000000000E+01      5.075684000000000E-01     -1.507891000000000E+02
4830000000.000000      3.307495000000000E-01      4.264648000000000E+01      5.068054000000000E-01     -1.517109000000000E+02
4831000000.000000      3.319702000000000E-01      4.252343000000000E+01      5.048828000000000E-01     -1.522891000000000E+02
4832000000.000000      3.340912000000000E-01      4.264062000000000E+01      5.049133000000000E-01     -1.529922000000000E+02
4833000000.000000      3.351135000000000E-01      4.237695000000000E+01      5.033264000000000E-01     -1.537500000000000E+02
4834000000.000000      3.372650000000000E-01      4.232031000000000E+01      5.026245000000000E-01     -1.546172000000000E+02
4835000000.000000      3.394775000000000E-01      4.210546000000000E+01      5.021667000000000E-01     -1.551172000000000E+02
4836000000.000000      3.414612000000000E-01      4.213086000000000E+01      5.000000000000000E-01     -1.557266000000000E+02
4837000000.000000      3.424683000000000E-01      4.201953000000000E+01      4.990845000000000E-01     -1.568281000000000E+02
4838000000.000000      3.439789000000000E-01      4.176562000000000E+01      4.996338000000000E-01     -1.572109000000000E+02
4839000000.000000      3.472748000000000E-01      4.169531000000000E+01      4.976959000000000E-01     -1.578359000000000E+02
4840000000.000000      3.479767000000000E-01      4.146093000000000E+01      4.972534000000000E-01     -1.585781000000000E+02
4841000000.000000      3.493958000000000E-01      4.136132000000000E+01      4.953613000000000E-01     -1.594375000000000E+02
4842000000.000000      3.509064000000000E-01      4.116601000000000E+01      4.949188000000000E-01     -1.601953000000000E+02
4843000000.000000      3.540344000000000E-01      4.089844000000000E+01      4.926910000000000E-01     -1.607891000000000E+02
4844000000.000000      3.546906000000000E-01      4.073632000000000E+01      4.902191000000000E-01     -1.615469000000000E+02
4845000000.000000      3.561401000000000E-01      4.061328000000000E+01      4.903259000000000E-01     -1.621016000000000E+02
4846000000.000000      3.586426000000000E-01      4.038671000000000E+01      4.886322000000000E-01     -1.628594000000000E+02
4847000000.000000      3.594818000000000E-01      4.034375000000000E+01      4.869385000000000E-01     -1.635156000000000E+02
4848000000.000000      3.604431000000000E-01      3.994726000000000E+01      4.860840000000000E-01     -1.643359000000000E+02
4849000000.000000      3.617706000000000E-01      3.970703000000000E+01      4.840088000000000E-01     -1.649765000000000E+02
4850000000.000000      3.636932000000000E-01      3.958789000000000E+01      4.809418000000000E-01     -1.657969000000000E+02
4851000000.000000      3.650055000000000E-01      3.936914000000000E+01      4.791260000000000E-01     -1.663594000000000E+02
4852000000.000000      3.663177000000000E-01      3.913281000000000E+01      4.778900000000000E-01     -1.671406000000000E+02
4853000000.000000      3.674774000000000E-01      3.886328000000000E+01      4.737549000000000E-01     -1.678594000000000E+02
4854000000.000000      3.686066000000000E-01      3.866601000000000E+01      4.736176000000000E-01     -1.684609000000000E+02
4855000000.000000      3.696594000000000E-01      3.850000000000000E+01      4.717255000000000E-01     -1.690703000000000E+02
4856000000.000000      3.707581000000000E-01      3.823242000000000E+01      4.694061000000000E-01     -1.698750000000000E+02
4857000000.000000      3.720245000000000E-01      3.800390000000000E+01      4.683533000000000E-01     -1.705391000000000E+02
4858000000.000000      3.731995000000000E-01      3.760742000000000E+01      4.638367000000000E-01     -1.711953000000000E+02
4859000000.000000      3.744659000000000E-01      3.732226000000000E+01      4.626923000000000E-01     -1.720781000000000E+02
4860000000.000000      3.747406000000000E-01      3.721289000000000E+01      4.584503000000000E-01     -1.727656000000000E+02
4861000000.000000      3.763275000000000E-01      3.694921000000000E+01      4.559937000000000E-01     -1.734375000000000E+02
4862000000.000000      3.761749000000000E-01      3.668554000000000E+01      4.539795000000000E-01     -1.740469000000000E+02
4863000000.000000      3.779297000000000E-01      3.652344000000000E+01      4.506531000000000E-01     -1.750156000000000E+02
4864000000.000000      3.794861000000000E-01      3.617383000000000E+01      4.486084000000000E-01     -1.753125000000000E+02
4865000000.000000      3.793945000000000E-01      3.587109000000000E+01      4.458008000000000E-01     -1.760000000000000E+02
4866000000.000000      3.807220000000000E-01      3.553515000000000E+01      4.412079000000000E-01     -1.767656000000000E+02
4867000000.000000      3.807831000000000E-01      3.535937000000000E+01      4.372559000000000E-01     -1.775156000000000E+02
4868000000.000000      3.816681000000000E-01      3.501172000000000E+01      4.355316000000000E-01     -1.781953000000000E+02
4869000000.000000      3.824768000000000E-01      3.484961000000000E+01      4.328613000000000E-01     -1.787266000000000E+02
4870000000.000000      3.839264000000000E-01      3.460351000000000E+01      4.294281000000000E-01     -1.792031000000000E+02
4871000000.000000      3.840332000000000E-01      3.416797000000000E+01      4.247437000000000E-01     -1.799844000000000E+02
4872000000.000000      3.849030000000000E-01      3.392187000000000E+01      4.230194000000000E-01      1.794297000000000E+02
4873000000.000000      3.847961000000000E-01      3.388867000000000E+01      4.186707000000000E-01      1.789531000000000E+02
4874000000.000000      3.853302000000000E-01      3.355078000000000E+01      4.148712000000000E-01      1.783359000000000E+02
4875000000.000000      3.858795000000000E-01      3.315625000000000E+01      4.113464000000000E-01      1.775938000000000E+02
4876000000.000000      3.872223000000000E-01      3.303125000000000E+01      4.085541000000000E-01      1.770391000000000E+02
4877000000.000000      3.878021000000000E-01      3.250391000000000E+01      4.055634000000000E-01      1.764922000000000E+02
4878000000.000000      3.870850000000000E-01      3.239453000000000E+01      4.017029000000000E-01      1.759687000000000E+02
4879000000.000000      3.883362000000000E-01      3.221484000000000E+01      3.983612000000000E-01      1.755078000000000E+02
4880000000.000000      3.890533000000000E-01      3.179980000000000E+01      3.959503000000000E-01      1.746875000000000E+02
4881000000.000000      3.881989000000000E-01      3.167187000000000E+01      3.924866000000000E-01      1.743906000000000E+02
4882000000.000000      3.894348000000000E-01      3.140137000000000E+01      3.882904000000000E-01      1.738125000000000E+02
4883000000.000000      3.889618000000000E-01      3.101074000000000E+01      3.852386000000000E-01      1.734609000000000E+02
4884000000.000000      3.892212000000000E-01      3.081055000000000E+01      3.797302000000000E-01      1.728047000000000E+02
4885000000.000000      3.893433000000000E-01      3.065527000000000E+01      3.775940000000000E-01      1.722969000000000E+02
4886000000.000000      3.901672000000000E-01      3.049902000000000E+01      3.747101000000000E-01      1.719219000000000E+02
4887000000.000000      3.896942000000000E-01      3.023926000000000E+01      3.710938000000000E-01      1.713750000000000E+02
4888000000.000000      3.899994000000000E-01      2.976660000000000E+01      3.675385000000000E-01      1.707109000000000E+02
4889000000.000000      3.899536000000000E-01      2.952929000000000E+01      3.625946000000000E-01      1.703047000000000E+02
4890000000.000000      3.882751000000000E-01      2.933300000000000E+01      3.602295000000000E-01      1.697031000000000E+02
4891000000.000000      3.891449000000000E-01      2.916308000000000E+01      3.562469000000000E-01      1.693203000000000E+02
4892000000.000000      3.891754000000000E-01      2.896875000000000E+01      3.528900000000000E-01      1.690156000000000E+02
4893000000.000000      3.902283000000000E-01      2.860840000000000E+01      3.481903000000000E-01      1.684922000000000E+02
4894000000.000000      3.887177000000000E-01      2.836621000000000E+01      3.447876000000000E-01      1.678984000000000E+02
4895000000.000000      3.901825000000000E-01      2.799707000000000E+01      3.418732000000000E-01      1.678906000000000E+02
4896000000.000000      3.885193000000000E-01      2.797852000000000E+01      3.385773000000000E-01      1.672031000000000E+02
4897000000.000000      3.887634000000000E-01      2.760449000000000E+01      3.350677000000000E-01      1.666797000000000E+02
4898000000.000000      3.884430000000000E-01      2.744629000000000E+01      3.317413000000000E-01      1.665156000000000E+02
4899000000.000000      3.890228000000000E-01      2.721972000000000E+01      3.289795000000000E-01      1.660234000000000E+02
4900000000.000000      3.884583000000000E-01      2.689648000000000E+01      3.241577000000000E-01      1.656563000000000E+02
4901000000.000000      3.883362000000000E-01      2.676074000000000E+01      3.210144000000000E-01      1.651719000000000E+02
4902000000.000000      3.886261000000000E-01      2.656836000000000E+01      3.178711000000000E-01      1.648984000000000E+02
4903000000.000000      3.893738000000000E-01      2.648340000000000E+01      3.139801000000000E-01      1.644140000000000E+02
4904000000.000000      3.882294000000000E-01      2.612500000000000E+01      3.112335000000000E-01      1.639141000000000E+02
4905000000.000000      3.880005000000000E-01      2.593164000000000E+01      3.078766000000000E-01      1.636094000000000E+02
4906000000.000000      3.870239000000000E-01      2.566406000000000E+01      3.038788000000000E-01      1.633359000000000E+02
4907000000.000000      3.879547000000000E-01      2.546875000000000E+01      3.009949000000000E-01      1.628750000000000E+02
4908000000.000000      3.884277000000000E-01      2.532422000000000E+01      2.982483000000000E-01      1.624531000000000E+02
4909000000.000000      3.864288000000000E-01      2.516504000000000E+01      2.933960000000000E-01      1.619375000000000E+02
4910000000.000000      3.868561000000000E-01      2.502050000000000E+01      2.907410000000000E-01      1.615703000000000E+02
4911000000.000000      3.856659000000000E-01      2.474902000000000E+01      2.873535000000000E-01      1.613828000000000E+02
4912000000.000000      3.859406000000000E-01      2.464355000000000E+01      2.831879000000000E-01      1.608828000000000E+02
4913000000.000000      3.855438000000000E-01      2.427343000000000E+01      2.796478000000000E-01      1.604297000000000E+02
4914000000.000000      3.861237000000000E-01      2.406543000000000E+01      2.767181000000000E-01      1.603516000000000E+02
4915000000.000000      3.853912000000000E-01      2.397461000000000E+01      2.718658000000000E-01      1.598359000000000E+02
4916000000.000000      3.852081000000000E-01      2.378320000000000E+01      2.689056000000000E-01      1.594766000000000E+02
4917000000.000000      3.848572000000000E-01      2.365332000000000E+01      2.647400000000000E-01      1.591875000000000E+02
4918000000.000000      3.854370000000000E-01      2.342676000000000E+01      2.606354000000000E-01      1.588281000000000E+02
4919000000.000000      3.842010000000000E-01      2.325488000000000E+01      2.574310000000000E-01      1.586094000000000E+02
4920000000.000000      3.835907000000000E-01      2.301562000000000E+01      2.535095000000000E-01      1.580937000000000E+02
4921000000.000000      3.838654000000000E-01      2.298438000000000E+01      2.498245000000000E-01      1.579922000000000E+02
4922000000.000000      3.834686000000000E-01      2.271777000000000E+01      2.452621000000000E-01      1.578672000000000E+02
4923000000.000000      3.833313000000000E-01      2.251367000000000E+01      2.417603000000000E-01      1.575312000000000E+02
4924000000.000000      3.827209000000000E-01      2.233496000000000E+01      2.373123000000000E-01      1.571797000000000E+02
4925000000.000000      3.825836000000000E-01      2.214062000000000E+01      2.337036000000000E-01      1.569687000000000E+02
4926000000.000000      3.818817000000000E-01      2.199121000000000E+01      2.304077000000000E-01      1.567422000000000E+02
4927000000.000000      3.827057000000000E-01      2.167383000000000E+01      2.252579000000000E-01      1.564844000000000E+02
4928000000.000000      3.828888000000000E-01      2.154199000000000E+01      2.217026000000000E-01      1.563828000000000E+02
4929000000.000000      3.810425000000000E-01      2.143945000000000E+01      2.173691000000000E-01      1.563594000000000E+02
4930000000.000000      3.814392000000000E-01      2.115332000000000E+01      2.139282000000000E-01      1.561016000000000E+02
4931000000.000000      3.804321000000000E-01      2.106445000000000E+01      2.100372000000000E-01      1.560937000000000E+02
4932000000.000000      3.805389000000000E-01      2.096289000000000E+01      2.053757000000000E-01      1.558750000000000E+02
4933000000.000000      3.815460000000000E-01      2.066211000000000E+01      2.007751000000000E-01      1.562969000000000E+02
4934000000.000000      3.810120000000000E-01      2.042969000000000E+01      1.970901000000000E-01      1.560703000000000E+02
4935000000.000000      3.803253000000000E-01      2.046875000000000E+01      1.934204000000000E-01      1.562734000000000E+02
4936000000.000000      3.792267000000000E-01      2.017871000000000E+01      1.889648000000000E-01      1.563828000000000E+02
4937000000.000000      3.801575000000000E-01      1.992480000000000E+01      1.851196000000000E-01      1.564219000000000E+02
4938000000.000000      3.797302000000000E-01      1.987695000000000E+01      1.810760000000000E-01      1.565859000000000E+02
4939000000.000000      3.791656000000000E-01      1.969922000000000E+01      1.774139000000000E-01      1.567734000000000E+02
4940000000.000000      3.784943000000000E-01      1.953711000000000E+01      1.728516000000000E-01      1.569062000000000E+02
4941000000.000000      3.784637000000000E-01      1.928906000000000E+01      1.695404000000000E-01      1.574375000000000E+02
4942000000.000000      3.773956000000000E-01      1.913769000000000E+01      1.655502000000000E-01      1.576953000000000E+02
4943000000.000000      3.782349000000000E-01      1.897461000000000E+01      1.617737000000000E-01      1.582266000000000E+02
4944000000.000000      3.773956000000000E-01      1.873828000000000E+01      1.577759000000000E-01      1.587344000000000E+02
4945000000.000000      3.775024000000000E-01      1.866113000000000E+01      1.538773000000000E-01      1.594063000000000E+02
4946000000.000000      3.774872000000000E-01      1.859277000000000E+01      1.503296000000000E-01      1.599141000000000E+02
4947000000.000000      3.767242000000000E-01      1.825488000000000E+01      1.470261000000000E-01      1.608047000000000E+02
4948000000.000000      3.771667000000000E-01      1.821094000000000E+01      1.439362000000000E-01      1.616328000000000E+02
4949000000.000000      3.756561000000000E-01      1.803125000000000E+01      1.408463000000000E-01      1.628203000000000E+02
4950000000.000000      3.763275000000000E-01      1.782324000000000E+01      1.373520000000000E-01      1.634297000000000E+02
4951000000.000000      3.749847000000000E-01      1.772851000000000E+01      1.345215000000000E-01      1.643437000000000E+02
4952000000.000000      3.748322000000000E-01      1.749121000000000E+01      1.317673000000000E-01      1.657031000000000E+02
4953000000.000000      3.744354000000000E-01      1.748144000000000E+01      1.289291000000000E-01      1.669219000000000E+02
4954000000.000000      3.744659000000000E-01      1.716406000000000E+01      1.263275000000000E-01      1.684609000000000E+02
