! Network Analyzer HP8722D
! Hewlett-Packard
! Data name: Linha & Wilkinson
! Saver's name: Rodrigo Anjos
! Comments: Teste da utilização de aquisição
continua pelo VNA HP8722D
! Time and date: 23/5/2025 16:18
!              Frequency                     S11                                                   S21                                                   S12                                                   S22
# HZ  S  MA R 50
4800000000.000000      2.789612000000000E-01      4.033593000000000E+01      4.880524000000000E-01     -1.295078000000000E+02
4801000000.000000      2.797852000000000E-01      4.068945000000000E+01      4.902802000000000E-01     -1.301016000000000E+02
4802000000.000000      2.811279000000000E-01      4.083593000000000E+01      4.901581000000000E-01     -1.309141000000000E+02
4803000000.000000      2.819672000000000E-01      4.104101000000000E+01      4.937134000000000E-01     -1.316953000000000E+02
4804000000.000000      2.835846000000000E-01      4.126562000000000E+01      4.935150000000000E-01     -1.323047000000000E+02
4805000000.000000      2.858276000000000E-01      4.134766000000000E+01      4.963531000000000E-01     -1.331875000000000E+02
4806000000.000000      2.864532000000000E-01      4.152929000000000E+01      4.979858000000000E-01     -1.336875000000000E+02
4807000000.000000      2.877350000000000E-01      4.178320000000000E+01      4.987793000000000E-01     -1.346641000000000E+02
4808000000.000000      2.886505000000000E-01      4.191406000000000E+01      4.995575000000000E-01     -1.353125000000000E+02
4809000000.000000      2.902069000000000E-01      4.226563000000000E+01      5.013733000000000E-01     -1.361094000000000E+02
4810000000.000000      2.917480000000000E-01      4.246484000000000E+01      5.037537000000000E-01     -1.367734000000000E+02
4811000000.000000      2.939911000000000E-01      4.253906000000000E+01      5.039673000000000E-01     -1.377344000000000E+02
4812000000.000000      2.962646000000000E-01      4.261328000000000E+01      5.050354000000000E-01     -1.383516000000000E+02
4813000000.000000      2.973633000000000E-01      4.284765000000000E+01      5.058594000000000E-01     -1.388203000000000E+02
4814000000.000000      2.980042000000000E-01      4.285937000000000E+01      5.063171000000000E-01     -1.398047000000000E+02
4815000000.000000      3.003998000000000E-01      4.291211000000000E+01      5.062866000000000E-01     -1.404453000000000E+02
4816000000.000000      3.024292000000000E-01      4.300390000000000E+01      5.095825000000000E-01     -1.412344000000000E+02
4817000000.000000      3.038788000000000E-01      4.314453000000000E+01      5.080261000000000E-01     -1.421641000000000E+02
4818000000.000000      3.058014000000000E-01      4.313086000000000E+01      5.079346000000000E-01     -1.426172000000000E+02
4819000000.000000      3.078766000000000E-01      4.318359000000000E+01      5.085449000000000E-01     -1.435234000000000E+02
4820000000.000000      3.086243000000000E-01      4.336133000000000E+01      5.095215000000000E-01     -1.438750000000000E+02
4821000000.000000      3.115234000000000E-01      4.327148000000000E+01      5.087891000000000E-01     -1.447578000000000E+02
4822000000.000000      3.125763000000000E-01      4.319726000000000E+01      5.086365000000000E-01     -1.456719000000000E+02
4823000000.000000      3.148193000000000E-01      4.319336000000000E+01      5.092163000000000E-01     -1.461797000000000E+02
4824000000.000000      3.169098000000000E-01      4.336523000000000E+01      5.088196000000000E-01     -1.470625000000000E+02
4825000000.000000      3.179474000000000E-01      4.313867000000000E+01      5.087585000000000E-01     -1.478516000000000E+02
4826000000.000000      3.197784000000000E-01      4.320898000000000E+01      5.093994000000000E-01     -1.487813000000000E+02
4827000000.000000      3.219910000000000E-01      4.318164000000000E+01      5.090332000000000E-01     -1.491719000000000E+02
4828000000.000000      3.239899000000000E-01      4.316992000000000E+01      5.092468000000000E-01     -1.499453000000000E+02
4829000000.000000      3.255310000000000E-01      4.310937000000000E+01      5.067444000000000E-01     -1.505547000000000E+02
4830000000.000000      3.280487000000000E-01      4.292382000000000E+01      5.077209000000000E-01     -1.514766000000000E+02
4831000000.000000      3.295898000000000E-01      4.296288000000000E+01      5.064087000000000E-01     -1.522578000000000E+02
4832000000.000000      3.312531000000000E-01      4.292578000000000E+01      5.067139000000000E-01     -1.529063000000000E+02
4833000000.000000      3.325806000000000E-01      4.261523000000000E+01      5.054626000000000E-01     -1.533672000000000E+02
4834000000.000000      3.347626000000000E-01      4.258398000000000E+01      5.049744000000000E-01     -1.543281000000000E+02
4835000000.000000      3.370361000000000E-01      4.241796000000000E+01      5.047302000000000E-01     -1.550156000000000E+02
4836000000.000000      3.383789000000000E-01      4.239843000000000E+01      5.020752000000000E-01     -1.556797000000000E+02
4837000000.000000      3.399963000000000E-01      4.230273000000000E+01      5.006104000000000E-01     -1.566797000000000E+02
4838000000.000000      3.410950000000000E-01      4.211719000000000E+01      5.004883000000000E-01     -1.572187000000000E+02
4839000000.000000      3.444519000000000E-01      4.200000000000000E+01      4.996033000000000E-01     -1.579219000000000E+02
4840000000.000000      3.453217000000000E-01      4.174218000000000E+01      5.006104000000000E-01     -1.584766000000000E+02
4841000000.000000      3.468323000000000E-01      4.166797000000000E+01      4.973907000000000E-01     -1.594063000000000E+02
4842000000.000000      3.478546000000000E-01      4.148438000000000E+01      4.970703000000000E-01     -1.600391000000000E+02
4843000000.000000      3.510895000000000E-01      4.113281000000000E+01      4.958191000000000E-01     -1.608906000000000E+02
4844000000.000000      3.518524000000000E-01      4.102539000000000E+01      4.930420000000000E-01     -1.613984000000000E+02
4845000000.000000      3.538818000000000E-01      4.086914000000000E+01      4.923859000000000E-01     -1.620625000000000E+02
4846000000.000000      3.554688000000000E-01      4.070117000000000E+01      4.908295000000000E-01     -1.627734000000000E+02
4847000000.000000      3.559570000000000E-01      4.062500000000000E+01      4.888153000000000E-01     -1.635078000000000E+02
4848000000.000000      3.573456000000000E-01      4.025781000000000E+01      4.866943000000000E-01     -1.642891000000000E+02
4849000000.000000      3.595276000000000E-01      4.001172000000000E+01      4.850311000000000E-01     -1.649765000000000E+02
4850000000.000000      3.610382000000000E-01      3.978516000000000E+01      4.818726000000000E-01     -1.657969000000000E+02
4851000000.000000      3.626862000000000E-01      3.970117000000000E+01      4.807129000000000E-01     -1.663125000000000E+02
4852000000.000000      3.639984000000000E-01      3.941797000000000E+01      4.790497000000000E-01     -1.670312000000000E+02
4853000000.000000      3.651581000000000E-01      3.911523000000000E+01      4.764557000000000E-01     -1.676484000000000E+02
4854000000.000000      3.665314000000000E-01      3.887695000000000E+01      4.745941000000000E-01     -1.684219000000000E+02
4855000000.000000      3.677368000000000E-01      3.870312000000000E+01      4.722900000000000E-01     -1.692422000000000E+02
4856000000.000000      3.685608000000000E-01      3.837500000000000E+01      4.706421000000000E-01     -1.697891000000000E+02
4857000000.000000      3.702240000000000E-01      3.824414000000000E+01      4.683075000000000E-01     -1.705859000000000E+02
4858000000.000000      3.710785000000000E-01      3.793750000000000E+01      4.655609000000000E-01     -1.712578000000000E+02
4859000000.000000      3.720703000000000E-01      3.761133000000000E+01      4.636993000000000E-01     -1.719375000000000E+02
4860000000.000000      3.724976000000000E-01      3.759570000000000E+01      4.608612000000000E-01     -1.725391000000000E+02
4861000000.000000      3.728790000000000E-01      3.721875000000000E+01      4.579926000000000E-01     -1.734609000000000E+02
4862000000.000000      3.735199000000000E-01      3.694531000000000E+01      4.559937000000000E-01     -1.740234000000000E+02
4863000000.000000      3.757477000000000E-01      3.668359000000000E+01      4.512177000000000E-01     -1.746797000000000E+02
4864000000.000000      3.768768000000000E-01      3.640039000000000E+01      4.498901000000000E-01     -1.753750000000000E+02
4865000000.000000      3.767700000000000E-01      3.607812000000000E+01      4.466858000000000E-01     -1.759453000000000E+02
4866000000.000000      3.777771000000000E-01      3.577929000000000E+01      4.444122000000000E-01     -1.766172000000000E+02
4867000000.000000      3.780670000000000E-01      3.556055000000000E+01      4.412689000000000E-01     -1.774062000000000E+02
4868000000.000000      3.795624000000000E-01      3.529687000000000E+01      4.376678000000000E-01     -1.778906000000000E+02
4869000000.000000      3.800964000000000E-01      3.498047000000000E+01      4.353638000000000E-01     -1.786250000000000E+02
4870000000.000000      3.810883000000000E-01      3.473633000000000E+01      4.317169000000000E-01     -1.791797000000000E+02
4871000000.000000      3.811493000000000E-01      3.453125000000000E+01      4.282227000000000E-01     -1.799219000000000E+02
4872000000.000000      3.830414000000000E-01      3.426367000000000E+01      4.245605000000000E-01      1.797109000000000E+02
4873000000.000000      3.831177000000000E-01      3.397461000000000E+01      4.222412000000000E-01      1.787344000000000E+02
4874000000.000000      3.832397000000000E-01      3.376367000000000E+01      4.175873000000000E-01      1.783672000000000E+02
4875000000.000000      3.837433000000000E-01      3.338086000000000E+01      4.143524000000000E-01      1.778047000000000E+02
4876000000.000000      3.845367000000000E-01      3.330859000000000E+01      4.116974000000000E-01      1.771484000000000E+02
4877000000.000000      3.845367000000000E-01      3.279882000000000E+01      4.081268000000000E-01      1.765391000000000E+02
4878000000.000000      3.845062000000000E-01      3.260742000000000E+01      4.042816000000000E-01      1.760313000000000E+02
4879000000.000000      3.858795000000000E-01      3.242773000000000E+01      4.002075000000000E-01      1.755547000000000E+02
4880000000.000000      3.867340000000000E-01      3.207031000000000E+01      3.978424000000000E-01      1.749219000000000E+02
4881000000.000000      3.859558000000000E-01      3.181738000000000E+01      3.937225000000000E-01      1.744375000000000E+02
4882000000.000000      3.858337000000000E-01      3.157812000000000E+01      3.892059000000000E-01      1.739063000000000E+02
4883000000.000000      3.857727000000000E-01      3.120117000000000E+01      3.850861000000000E-01      1.733281000000000E+02
4884000000.000000      3.868256000000000E-01      3.108007000000000E+01      3.827972000000000E-01      1.728203000000000E+02
4885000000.000000      3.865662000000000E-01      3.079785000000000E+01      3.792419000000000E-01      1.725000000000000E+02
4886000000.000000      3.863831000000000E-01      3.054590000000000E+01      3.753052000000000E-01      1.720312000000000E+02
4887000000.000000      3.871460000000000E-01      3.028515000000000E+01      3.718414000000000E-01      1.715156000000000E+02
4888000000.000000      3.870544000000000E-01      3.000195000000000E+01      3.687286000000000E-01      1.707422000000000E+02
4889000000.000000      3.879547000000000E-01      2.975195000000000E+01      3.658600000000000E-01      1.703828000000000E+02
4890000000.000000      3.870392000000000E-01      2.954297000000000E+01      3.609924000000000E-01      1.696797000000000E+02
4891000000.000000      3.875885000000000E-01      2.931836000000000E+01      3.576355000000000E-01      1.694766000000000E+02
4892000000.000000      3.872528000000000E-01      2.888379000000000E+01      3.542023000000000E-01      1.691953000000000E+02
4893000000.000000      3.884888000000000E-01      2.878515000000000E+01      3.500671000000000E-01      1.685156000000000E+02
4894000000.000000      3.872833000000000E-01      2.849707000000000E+01      3.471527000000000E-01      1.678672000000000E+02
4895000000.000000      3.878021000000000E-01      2.829590000000000E+01      3.440399000000000E-01      1.677109000000000E+02
4896000000.000000      3.879242000000000E-01      2.807617000000000E+01      3.397064000000000E-01      1.673281000000000E+02
4897000000.000000      3.865051000000000E-01      2.786133000000000E+01      3.361359000000000E-01      1.669297000000000E+02
4898000000.000000      3.863373000000000E-01      2.760156000000000E+01      3.338623000000000E-01      1.666563000000000E+02
4899000000.000000      3.865051000000000E-01      2.740527000000000E+01      3.298340000000000E-01      1.659297000000000E+02
4900000000.000000      3.869324000000000E-01      2.708203000000000E+01      3.257599000000000E-01      1.656406000000000E+02
4901000000.000000      3.867493000000000E-01      2.692968000000000E+01      3.237305000000000E-01      1.652656000000000E+02
4902000000.000000      3.865051000000000E-01      2.658886000000000E+01      3.204956000000000E-01      1.649453000000000E+02
4903000000.000000      3.865509000000000E-01      2.655078000000000E+01      3.160858000000000E-01      1.644140000000000E+02
4904000000.000000      3.868408000000000E-01      2.626074000000000E+01      3.124847000000000E-01      1.639766000000000E+02
4905000000.000000      3.852234000000000E-01      2.599414000000000E+01      3.097229000000000E-01      1.635625000000000E+02
4906000000.000000      3.846741000000000E-01      2.586230000000000E+01      3.060150000000000E-01      1.633906000000000E+02
4907000000.000000      3.854065000000000E-01      2.560351000000000E+01      3.037415000000000E-01      1.628438000000000E+02
4908000000.000000      3.852539000000000E-01      2.535742000000000E+01      2.992249000000000E-01      1.623125000000000E+02
4909000000.000000      3.841400000000000E-01      2.520605000000000E+01      2.959290000000000E-01      1.619453000000000E+02
4910000000.000000      3.841553000000000E-01      2.503906000000000E+01      2.926331000000000E-01      1.617344000000000E+02
4911000000.000000      3.843536000000000E-01      2.492383000000000E+01      2.891846000000000E-01      1.614141000000000E+02
4912000000.000000      3.836670000000000E-01      2.471972000000000E+01      2.851257000000000E-01      1.608906000000000E+02
4913000000.000000      3.842621000000000E-01      2.445508000000000E+01      2.818909000000000E-01      1.605469000000000E+02
4914000000.000000      3.840790000000000E-01      2.418554000000000E+01      2.776642000000000E-01      1.603672000000000E+02
4915000000.000000      3.833466000000000E-01      2.407617000000000E+01      2.741699000000000E-01      1.597188000000000E+02
4916000000.000000      3.825226000000000E-01      2.381640000000000E+01      2.702637000000000E-01      1.594766000000000E+02
4917000000.000000      3.814697000000000E-01      2.366699000000000E+01      2.668915000000000E-01      1.592422000000000E+02
4918000000.000000      3.825684000000000E-01      2.353906000000000E+01      2.624512000000000E-01      1.588438000000000E+02
4919000000.000000      3.813934000000000E-01      2.327148000000000E+01      2.595367000000000E-01      1.586406000000000E+02
4920000000.000000      3.817596000000000E-01      2.297852000000000E+01      2.548370000000000E-01      1.581172000000000E+02
4921000000.000000      3.807831000000000E-01      2.307617000000000E+01      2.514801000000000E-01      1.580625000000000E+02
4922000000.000000      3.814850000000000E-01      2.271777000000000E+01      2.473068000000000E-01      1.577266000000000E+02
4923000000.000000      3.810577000000000E-01      2.263574000000000E+01      2.434082000000000E-01      1.574297000000000E+02
4924000000.000000      3.815613000000000E-01      2.249414000000000E+01      2.385864000000000E-01      1.569375000000000E+02
4925000000.000000      3.801880000000000E-01      2.219922000000000E+01      2.352524000000000E-01      1.568750000000000E+02
4926000000.000000      3.804016000000000E-01      2.200684000000000E+01      2.317429000000000E-01      1.566797000000000E+02
4927000000.000000      3.800812000000000E-01      2.190039000000000E+01      2.271347000000000E-01      1.564922000000000E+02
4928000000.000000      3.811340000000000E-01      2.151660000000000E+01      2.231522000000000E-01      1.561953000000000E+02
4929000000.000000      3.789368000000000E-01      2.151660000000000E+01      2.196655000000000E-01      1.562891000000000E+02
4930000000.000000      3.789520000000000E-01      2.122363000000000E+01      2.154922000000000E-01      1.560859000000000E+02
4931000000.000000      3.783112000000000E-01      2.104980000000000E+01      2.119446000000000E-01      1.561094000000000E+02
4932000000.000000      3.783417000000000E-01      2.092871000000000E+01      2.072983000000000E-01      1.559141000000000E+02
4933000000.000000      3.782654000000000E-01      2.075293000000000E+01      2.017593000000000E-01      1.558906000000000E+02
4934000000.000000      3.782654000000000E-01      2.060742000000000E+01      1.987457000000000E-01      1.557188000000000E+02
4935000000.000000      3.794556000000000E-01      2.049023000000000E+01      1.949692000000000E-01      1.561641000000000E+02
4936000000.000000      3.779602000000000E-01      2.022168000000000E+01      1.905060000000000E-01      1.560390000000000E+02
4937000000.000000      3.777008000000000E-01      1.993652000000000E+01      1.867599000000000E-01      1.562578000000000E+02
4938000000.000000      3.765411000000000E-01      1.995215000000000E+01      1.829681000000000E-01      1.563125000000000E+02
4939000000.000000      3.764954000000000E-01      1.975586000000000E+01      1.787186000000000E-01      1.565156000000000E+02
4940000000.000000      3.768005000000000E-01      1.955762000000000E+01      1.746292000000000E-01      1.565703000000000E+02
4941000000.000000      3.764038000000000E-01      1.932031000000000E+01      1.706238000000000E-01      1.570937000000000E+02
4942000000.000000      3.759613000000000E-01      1.929688000000000E+01      1.668777000000000E-01      1.576953000000000E+02
4943000000.000000      3.765106000000000E-01      1.907324000000000E+01      1.627350000000000E-01      1.579844000000000E+02
4944000000.000000      3.761444000000000E-01      1.891406000000000E+01      1.598740000000000E-01      1.584531000000000E+02
4945000000.000000      3.752747000000000E-01      1.872851000000000E+01      1.550369000000000E-01      1.591016000000000E+02
4946000000.000000      3.747101000000000E-01      1.856641000000000E+01      1.522522000000000E-01      1.595703000000000E+02
4947000000.000000      3.738861000000000E-01      1.826465000000000E+01      1.481171000000000E-01      1.602187000000000E+02
4948000000.000000      3.738556000000000E-01      1.820508000000000E+01      1.447678000000000E-01      1.610312000000000E+02
4949000000.000000      3.737335000000000E-01      1.799414000000000E+01      1.419449000000000E-01      1.622422000000000E+02
4950000000.000000      3.739166000000000E-01      1.792383000000000E+01      1.384888000000000E-01      1.629531000000000E+02
4951000000.000000      3.735352000000000E-01      1.768847000000000E+01      1.354904000000000E-01      1.640000000000000E+02
4952000000.000000      3.728638000000000E-01      1.753125000000000E+01      1.326447000000000E-01      1.649844000000000E+02
4953000000.000000      3.722076000000000E-01      1.738281000000000E+01      1.299438000000000E-01      1.664219000000000E+02
4954000000.000000      3.720703000000000E-01      1.711328000000000E+01      1.271057000000000E-01      1.676328000000000E+02
