! Network Analyzer HP8722D
! Hewlett-Packard
! Data name: Linha & Wilkinson
! Saver's name: Rodrigo Anjos
! Comments: Teste da utilização de aquisição
continua pelo VNA HP8722D
! Time and date: 23/5/2025 15:46
!              Frequency                     S11                                                   S21                                                   S12                                                   S22
# HZ  S  MA R 50
4800000000.000000      2.820282000000000E-01      4.018359000000000E+01      4.868927000000000E-01     -1.297031000000000E+02
4801000000.000000      2.830200000000000E-01      4.044726000000000E+01      4.879303000000000E-01     -1.304453000000000E+02
4802000000.000000      2.842255000000000E-01      4.063086000000000E+01      4.899292000000000E-01     -1.310469000000000E+02
4803000000.000000      2.854919000000000E-01      4.086914000000000E+01      4.919739000000000E-01     -1.317578000000000E+02
4804000000.000000      2.866058000000000E-01      4.112695000000000E+01      4.934540000000000E-01     -1.324687000000000E+02
4805000000.000000      2.886200000000000E-01      4.121484000000000E+01      4.954529000000000E-01     -1.334687000000000E+02
4806000000.000000      2.895355000000000E-01      4.136719000000000E+01      4.954834000000000E-01     -1.338906000000000E+02
4807000000.000000      2.908630000000000E-01      4.165429000000000E+01      4.977875000000000E-01     -1.348203000000000E+02
4808000000.000000      2.918549000000000E-01      4.178124000000000E+01      4.993134000000000E-01     -1.354922000000000E+02
4809000000.000000      2.941284000000000E-01      4.202929000000000E+01      5.008850000000000E-01     -1.363047000000000E+02
4810000000.000000      2.951813000000000E-01      4.217187000000000E+01      5.008850000000000E-01     -1.369609000000000E+02
4811000000.000000      2.970123000000000E-01      4.228320000000000E+01      5.027771000000000E-01     -1.376016000000000E+02
4812000000.000000      2.993622000000000E-01      4.241796000000000E+01      5.035095000000000E-01     -1.386563000000000E+02
4813000000.000000      3.004761000000000E-01      4.256055000000000E+01      5.046387000000000E-01     -1.391953000000000E+02
4814000000.000000      3.017426000000000E-01      4.256445000000000E+01      5.061951000000000E-01     -1.398359000000000E+02
4815000000.000000      3.034363000000000E-01      4.266992000000000E+01      5.045776000000000E-01     -1.406719000000000E+02
4816000000.000000      3.057709000000000E-01      4.288671000000000E+01      5.052490000000000E-01     -1.414141000000000E+02
4817000000.000000      3.070068000000000E-01      4.290820000000000E+01      5.061340000000000E-01     -1.421641000000000E+02
4818000000.000000      3.088074000000000E-01      4.291797000000000E+01      5.067749000000000E-01     -1.428672000000000E+02
4819000000.000000      3.106842000000000E-01      4.301953000000000E+01      5.085754000000000E-01     -1.434531000000000E+02
4820000000.000000      3.117371000000000E-01      4.296875000000000E+01      5.077820000000000E-01     -1.443281000000000E+02
4821000000.000000      3.149109000000000E-01      4.300586000000000E+01      5.077209000000000E-01     -1.450312000000000E+02
4822000000.000000      3.153534000000000E-01      4.295312000000000E+01      5.069885000000000E-01     -1.458594000000000E+02
4823000000.000000      3.173981000000000E-01      4.298242000000000E+01      5.078125000000000E-01     -1.466016000000000E+02
4824000000.000000      3.196564000000000E-01      4.305664000000000E+01      5.079346000000000E-01     -1.472656000000000E+02
4825000000.000000      3.213043000000000E-01      4.289648000000000E+01      5.070801000000000E-01     -1.479297000000000E+02
4826000000.000000      3.230286000000000E-01      4.284375000000000E+01      5.080872000000000E-01     -1.487969000000000E+02
4827000000.000000      3.248138000000000E-01      4.291992000000000E+01      5.074768000000000E-01     -1.493125000000000E+02
4828000000.000000      3.273621000000000E-01      4.278710000000000E+01      5.059509000000000E-01     -1.500937000000000E+02
4829000000.000000      3.282013000000000E-01      4.290820000000000E+01      5.060730000000000E-01     -1.507969000000000E+02
4830000000.000000      3.306274000000000E-01      4.261132000000000E+01      5.050659000000000E-01     -1.515000000000000E+02
4831000000.000000      3.318634000000000E-01      4.259961000000000E+01      5.058594000000000E-01     -1.522812000000000E+02
4832000000.000000      3.341370000000000E-01      4.253320000000000E+01      5.041199000000000E-01     -1.529609000000000E+02
4833000000.000000      3.357849000000000E-01      4.240039000000000E+01      5.031128000000000E-01     -1.536172000000000E+02
4834000000.000000      3.370361000000000E-01      4.228711000000000E+01      5.018616000000000E-01     -1.545312000000000E+02
4835000000.000000      3.394928000000000E-01      4.219336000000000E+01      5.025024000000000E-01     -1.551797000000000E+02
4836000000.000000      3.414307000000000E-01      4.205664000000000E+01      5.002747000000000E-01     -1.558672000000000E+02
4837000000.000000      3.432159000000000E-01      4.208398000000000E+01      4.980927000000000E-01     -1.567812000000000E+02
4838000000.000000      3.439636000000000E-01      4.186913000000000E+01      4.979401000000000E-01     -1.572969000000000E+02
4839000000.000000      3.471832000000000E-01      4.172461000000000E+01      4.978790000000000E-01     -1.580000000000000E+02
4840000000.000000      3.480530000000000E-01      4.141406000000000E+01      4.974060000000000E-01     -1.586484000000000E+02
4841000000.000000      3.499146000000000E-01      4.135938000000000E+01      4.954224000000000E-01     -1.596562000000000E+02
4842000000.000000      3.507385000000000E-01      4.115039000000000E+01      4.932709000000000E-01     -1.601484000000000E+02
4843000000.000000      3.538666000000000E-01      4.089648000000000E+01      4.933624000000000E-01     -1.610156000000000E+02
4844000000.000000      3.540955000000000E-01      4.078125000000000E+01      4.911804000000000E-01     -1.616953000000000E+02
4845000000.000000      3.561096000000000E-01      4.063086000000000E+01      4.879303000000000E-01     -1.621172000000000E+02
4846000000.000000      3.583832000000000E-01      4.042382000000000E+01      4.872894000000000E-01     -1.630391000000000E+02
4847000000.000000      3.595581000000000E-01      4.026953000000000E+01      4.869690000000000E-01     -1.636719000000000E+02
4848000000.000000      3.599243000000000E-01      3.994531000000000E+01      4.834290000000000E-01     -1.643906000000000E+02
4849000000.000000      3.621368000000000E-01      3.979883000000000E+01      4.821167000000000E-01     -1.649609000000000E+02
4850000000.000000      3.627319000000000E-01      3.951367000000000E+01      4.796906000000000E-01     -1.658750000000000E+02
4851000000.000000      3.652802000000000E-01      3.939453000000000E+01      4.794159000000000E-01     -1.665234000000000E+02
4852000000.000000      3.657684000000000E-01      3.907812000000000E+01      4.767761000000000E-01     -1.671719000000000E+02
4853000000.000000      3.676300000000000E-01      3.883203000000000E+01      4.729767000000000E-01     -1.678984000000000E+02
4854000000.000000      3.685913000000000E-01      3.868750000000000E+01      4.710388000000000E-01     -1.686328000000000E+02
4855000000.000000      3.699341000000000E-01      3.842968000000000E+01      4.702454000000000E-01     -1.693359000000000E+02
4856000000.000000      3.711853000000000E-01      3.818750000000000E+01      4.671478000000000E-01     -1.700938000000000E+02
4857000000.000000      3.724823000000000E-01      3.802539000000000E+01      4.660645000000000E-01     -1.706016000000000E+02
4858000000.000000      3.727112000000000E-01      3.765234000000000E+01      4.638824000000000E-01     -1.713906000000000E+02
4859000000.000000      3.742218000000000E-01      3.739843000000000E+01      4.609528000000000E-01     -1.719844000000000E+02
4860000000.000000      3.750153000000000E-01      3.724023000000000E+01      4.568481000000000E-01     -1.728359000000000E+02
4861000000.000000      3.766327000000000E-01      3.694921000000000E+01      4.557037000000000E-01     -1.734688000000000E+02
4862000000.000000      3.762360000000000E-01      3.674414000000000E+01      4.540558000000000E-01     -1.739531000000000E+02
4863000000.000000      3.782043000000000E-01      3.646875000000000E+01      4.500427000000000E-01     -1.749531000000000E+02
4864000000.000000      3.788452000000000E-01      3.611133000000000E+01      4.484406000000000E-01     -1.754766000000000E+02
4865000000.000000      3.796234000000000E-01      3.591797000000000E+01      4.445496000000000E-01     -1.759219000000000E+02
4866000000.000000      3.807678000000000E-01      3.560937000000000E+01      4.401245000000000E-01     -1.767891000000000E+02
4867000000.000000      3.802032000000000E-01      3.525195000000000E+01      4.378815000000000E-01     -1.775391000000000E+02
4868000000.000000      3.822174000000000E-01      3.509961000000000E+01      4.358215000000000E-01     -1.780703000000000E+02
4869000000.000000      3.830872000000000E-01      3.480664000000000E+01      4.313507000000000E-01     -1.787812000000000E+02
4870000000.000000      3.831940000000000E-01      3.455859000000000E+01      4.292297000000000E-01     -1.792344000000000E+02
4871000000.000000      3.837433000000000E-01      3.420312000000000E+01      4.260864000000000E-01     -1.799453000000000E+02
4872000000.000000      3.847809000000000E-01      3.403125000000000E+01      4.225159000000000E-01      1.795625000000000E+02
4873000000.000000      3.852081000000000E-01      3.384180000000000E+01      4.186401000000000E-01      1.789063000000000E+02
4874000000.000000      3.855743000000000E-01      3.359570000000000E+01      4.152985000000000E-01      1.781406000000000E+02
4875000000.000000      3.857727000000000E-01      3.320508000000000E+01      4.110718000000000E-01      1.776953000000000E+02
4876000000.000000      3.870850000000000E-01      3.307226000000000E+01      4.082336000000000E-01      1.769531000000000E+02
4877000000.000000      3.871613000000000E-01      3.259180000000000E+01      4.067993000000000E-01      1.763672000000000E+02
4878000000.000000      3.872375000000000E-01      3.233203000000000E+01      4.020233000000000E-01      1.760234000000000E+02
4879000000.000000      3.886566000000000E-01      3.217382000000000E+01      3.975525000000000E-01      1.754297000000000E+02
4880000000.000000      3.886566000000000E-01      3.188477000000000E+01      3.941803000000000E-01      1.749531000000000E+02
4881000000.000000      3.877869000000000E-01      3.169238000000000E+01      3.905640000000000E-01      1.744531000000000E+02
4882000000.000000      3.898315000000000E-01      3.140234000000000E+01      3.874207000000000E-01      1.736641000000000E+02
4883000000.000000      3.881378000000000E-01      3.111133000000000E+01      3.832855000000000E-01      1.731562000000000E+02
4884000000.000000      3.897705000000000E-01      3.093554000000000E+01      3.795166000000000E-01      1.726953000000000E+02
4885000000.000000      3.897247000000000E-01      3.070605000000000E+01      3.770599000000000E-01      1.724375000000000E+02
4886000000.000000      3.900909000000000E-01      3.046972000000000E+01      3.728333000000000E-01      1.718437000000000E+02
4887000000.000000      3.892212000000000E-01      3.008301000000000E+01      3.692627000000000E-01      1.713125000000000E+02
4888000000.000000      3.896942000000000E-01      2.980859000000000E+01      3.673248000000000E-01      1.706797000000000E+02
4889000000.000000      3.892975000000000E-01      2.965039000000000E+01      3.623505000000000E-01      1.704922000000000E+02
4890000000.000000      3.886414000000000E-01      2.933887000000000E+01      3.579102000000000E-01      1.696406000000000E+02
4891000000.000000      3.895416000000000E-01      2.912988000000000E+01      3.553009000000000E-01      1.692656000000000E+02
4892000000.000000      3.897705000000000E-01      2.882910000000000E+01      3.522644000000000E-01      1.690312000000000E+02
4893000000.000000      3.899536000000000E-01      2.860644000000000E+01      3.481293000000000E-01      1.682969000000000E+02
4894000000.000000      3.889618000000000E-01      2.846386000000000E+01      3.438416000000000E-01      1.680156000000000E+02
4895000000.000000      3.892670000000000E-01      2.806250000000000E+01      3.424530000000000E-01      1.676406000000000E+02
4896000000.000000      3.882141000000000E-01      2.781836000000000E+01      3.371429000000000E-01      1.673750000000000E+02
4897000000.000000      3.888550000000000E-01      2.777441000000000E+01      3.339233000000000E-01      1.669844000000000E+02
4898000000.000000      3.890228000000000E-01      2.747265000000000E+01      3.311920000000000E-01      1.665234000000000E+02
4899000000.000000      3.877411000000000E-01      2.713476000000000E+01      3.267975000000000E-01      1.661016000000000E+02
4900000000.000000      3.891907000000000E-01      2.690234000000000E+01      3.237610000000000E-01      1.656016000000000E+02
4901000000.000000      3.889160000000000E-01      2.684277000000000E+01      3.205261000000000E-01      1.652344000000000E+02
4902000000.000000      3.886719000000000E-01      2.654004000000000E+01      3.175659000000000E-01      1.648359000000000E+02
4903000000.000000      3.886414000000000E-01      2.635937000000000E+01      3.126831000000000E-01      1.644140000000000E+02
4904000000.000000      3.881989000000000E-01      2.609179000000000E+01      3.094482000000000E-01      1.639844000000000E+02
4905000000.000000      3.880920000000000E-01      2.594922000000000E+01      3.070526000000000E-01      1.635625000000000E+02
4906000000.000000      3.880463000000000E-01      2.574707000000000E+01      3.029633000000000E-01      1.633594000000000E+02
4907000000.000000      3.874512000000000E-01      2.552343000000000E+01      3.003235000000000E-01      1.630156000000000E+02
4908000000.000000      3.872375000000000E-01      2.543848000000000E+01      2.968903000000000E-01      1.624531000000000E+02
4909000000.000000      3.862152000000000E-01      2.511719000000000E+01      2.923279000000000E-01      1.620703000000000E+02
4910000000.000000      3.863373000000000E-01      2.509277000000000E+01      2.893677000000000E-01      1.616719000000000E+02
4911000000.000000      3.865356000000000E-01      2.468262000000000E+01      2.861328000000000E-01      1.613125000000000E+02
4912000000.000000      3.860168000000000E-01      2.460449000000000E+01      2.823486000000000E-01      1.608125000000000E+02
4913000000.000000      3.864746000000000E-01      2.430176000000000E+01      2.787933000000000E-01      1.605469000000000E+02
4914000000.000000      3.860016000000000E-01      2.413769000000000E+01      2.754974000000000E-01      1.603437000000000E+02
4915000000.000000      3.856201000000000E-01      2.397461000000000E+01      2.715759000000000E-01      1.598359000000000E+02
4916000000.000000      3.852844000000000E-01      2.372851000000000E+01      2.676697000000000E-01      1.595859000000000E+02
4917000000.000000      3.848267000000000E-01      2.348145000000000E+01      2.640686000000000E-01      1.591640000000000E+02
4918000000.000000      3.848724000000000E-01      2.333887000000000E+01      2.600403000000000E-01      1.588281000000000E+02
4919000000.000000      3.837585000000000E-01      2.324805000000000E+01      2.565460000000000E-01      1.587812000000000E+02
4920000000.000000      3.841400000000000E-01      2.290722000000000E+01      2.520905000000000E-01      1.580703000000000E+02
4921000000.000000      3.836975000000000E-01      2.297461000000000E+01      2.490082000000000E-01      1.578203000000000E+02
4922000000.000000      3.837433000000000E-01      2.266016000000000E+01      2.451172000000000E-01      1.577500000000000E+02
4923000000.000000      3.836670000000000E-01      2.253808000000000E+01      2.408295000000000E-01      1.576406000000000E+02
4924000000.000000      3.828430000000000E-01      2.241601000000000E+01      2.369919000000000E-01      1.571250000000000E+02
4925000000.000000      3.826447000000000E-01      2.211816000000000E+01      2.327423000000000E-01      1.570625000000000E+02
4926000000.000000      3.818817000000000E-01      2.200684000000000E+01      2.288284000000000E-01      1.568203000000000E+02
4927000000.000000      3.824463000000000E-01      2.179785000000000E+01      2.242279000000000E-01      1.566250000000000E+02
4928000000.000000      3.819275000000000E-01      2.156250000000000E+01      2.211075000000000E-01      1.562734000000000E+02
4929000000.000000      3.810425000000000E-01      2.132715000000000E+01      2.166061000000000E-01      1.564375000000000E+02
4930000000.000000      3.813629000000000E-01      2.118359000000000E+01      2.122879000000000E-01      1.563672000000000E+02
4931000000.000000      3.801727000000000E-01      2.103027000000000E+01      2.094040000000000E-01      1.561094000000000E+02
4932000000.000000      3.805695000000000E-01      2.085156000000000E+01      2.042007000000000E-01      1.561719000000000E+02
4933000000.000000      3.809052000000000E-01      2.051465000000000E+01      2.000046000000000E-01      1.562344000000000E+02
4934000000.000000      3.797607000000000E-01      2.042969000000000E+01      1.961060000000000E-01      1.560937000000000E+02
4935000000.000000      3.807678000000000E-01      2.033789000000000E+01      1.929932000000000E-01      1.562969000000000E+02
4936000000.000000      3.788300000000000E-01      2.017871000000000E+01      1.883087000000000E-01      1.564687000000000E+02
4937000000.000000      3.792877000000000E-01      1.999902000000000E+01      1.845016000000000E-01      1.563672000000000E+02
4938000000.000000      3.787994000000000E-01      1.998340000000000E+01      1.802673000000000E-01      1.567109000000000E+02
4939000000.000000      3.785248000000000E-01      1.980371000000000E+01      1.763992000000000E-01      1.570391000000000E+02
4940000000.000000      3.781586000000000E-01      1.954297000000000E+01      1.722412000000000E-01      1.569453000000000E+02
4941000000.000000      3.776093000000000E-01      1.928320000000000E+01      1.688080000000000E-01      1.576719000000000E+02
4942000000.000000      3.770447000000000E-01      1.920801000000000E+01      1.645279000000000E-01      1.578828000000000E+02
4943000000.000000      3.779297000000000E-01      1.901953000000000E+01      1.610107000000000E-01      1.584922000000000E+02
4944000000.000000      3.770905000000000E-01      1.882715000000000E+01      1.575012000000000E-01      1.590547000000000E+02
4945000000.000000      3.770752000000000E-01      1.859766000000000E+01      1.533737000000000E-01      1.595781000000000E+02
4946000000.000000      3.771210000000000E-01      1.858594000000000E+01      1.503296000000000E-01      1.602266000000000E+02
4947000000.000000      3.765259000000000E-01      1.829590000000000E+01      1.463013000000000E-01      1.609141000000000E+02
4948000000.000000      3.767853000000000E-01      1.809277000000000E+01      1.434250000000000E-01      1.617812000000000E+02
4949000000.000000      3.755646000000000E-01      1.795898000000000E+01      1.404419000000000E-01      1.630391000000000E+02
4950000000.000000      3.760223000000000E-01      1.781641000000000E+01      1.368561000000000E-01      1.637578000000000E+02
4951000000.000000      3.759155000000000E-01      1.763769000000000E+01      1.342850000000000E-01      1.647656000000000E+02
4952000000.000000      3.747406000000000E-01      1.739648000000000E+01      1.308441000000000E-01      1.660312000000000E+02
4953000000.000000      3.742371000000000E-01      1.725879000000000E+01      1.285934000000000E-01      1.672812000000000E+02
4954000000.000000      3.742676000000000E-01      1.708594000000000E+01      1.258087000000000E-01      1.685313000000000E+02
