! Network Analyzer HP8722D
! Hewlett-Packard
! Data name: Linha & Wilkinson
! Saver's name: Rodrigo Anjos
! Comments: Teste da utilização de aquisição
continua pelo VNA HP8722D
! Time and date: 23/5/2025 08:35
!              Frequency                     S11                                                   S21                                                   S12                                                   S22
# HZ  S  MA R 50
4800000000.000000      3.777466000000000E-01      3.166894000000000E+01      4.418945000000000E-01     -1.224805000000000E+02
4801000000.000000      3.778839000000000E-01      3.186914000000000E+01      4.435272000000000E-01     -1.231680000000000E+02
4802000000.000000      3.783722000000000E-01      3.195508000000000E+01      4.441071000000000E-01     -1.237695000000000E+02
4803000000.000000      3.785248000000000E-01      3.211328000000000E+01      4.479980000000000E-01     -1.245391000000000E+02
4804000000.000000      3.782501000000000E-01      3.232422000000000E+01      4.486237000000000E-01     -1.253008000000000E+02
4805000000.000000      3.801880000000000E-01      3.234570000000000E+01      4.496002000000000E-01     -1.260703000000000E+02
4806000000.000000      3.803711000000000E-01      3.257813000000000E+01      4.504700000000000E-01     -1.266836000000000E+02
4807000000.000000      3.804169000000000E-01      3.272265000000000E+01      4.526215000000000E-01     -1.275625000000000E+02
4808000000.000000      3.809662000000000E-01      3.281641000000000E+01      4.544220000000000E-01     -1.282266000000000E+02
4809000000.000000      3.822174000000000E-01      3.303320000000000E+01      4.530334000000000E-01     -1.291406000000000E+02
4810000000.000000      3.824463000000000E-01      3.311914000000000E+01      4.554901000000000E-01     -1.298203000000000E+02
4811000000.000000      3.838806000000000E-01      3.324804000000000E+01      4.568024000000000E-01     -1.304531000000000E+02
4812000000.000000      3.853607000000000E-01      3.342773000000000E+01      4.577789000000000E-01     -1.312578000000000E+02
4813000000.000000      3.855133000000000E-01      3.350000000000000E+01      4.578857000000000E-01     -1.320703000000000E+02
4814000000.000000      3.861389000000000E-01      3.356836000000000E+01      4.609222000000000E-01     -1.327031000000000E+02
4815000000.000000      3.867493000000000E-01      3.373632000000000E+01      4.599762000000000E-01     -1.333984000000000E+02
4816000000.000000      3.896027000000000E-01      3.394922000000000E+01      4.608459000000000E-01     -1.341250000000000E+02
4817000000.000000      3.894958000000000E-01      3.399805000000000E+01      4.595795000000000E-01     -1.350625000000000E+02
4818000000.000000      3.912964000000000E-01      3.394922000000000E+01      4.604950000000000E-01     -1.357266000000000E+02
4819000000.000000      3.923340000000000E-01      3.407812000000000E+01      4.623871000000000E-01     -1.363594000000000E+02
4820000000.000000      3.930359000000000E-01      3.424414000000000E+01      4.600677000000000E-01     -1.369531000000000E+02
4821000000.000000      3.953705000000000E-01      3.433008000000000E+01      4.617462000000000E-01     -1.379062000000000E+02
4822000000.000000      3.950195000000000E-01      3.421484000000000E+01      4.616089000000000E-01     -1.385469000000000E+02
4823000000.000000      3.964996000000000E-01      3.419726000000000E+01      4.625244000000000E-01     -1.392891000000000E+02
4824000000.000000      3.982239000000000E-01      3.447070000000000E+01      4.614258000000000E-01     -1.402734000000000E+02
4825000000.000000      4.000702000000000E-01      3.438281000000000E+01      4.624786000000000E-01     -1.408125000000000E+02
4826000000.000000      4.008331000000000E-01      3.437891000000000E+01      4.629669000000000E-01     -1.416328000000000E+02
4827000000.000000      4.026031000000000E-01      3.452343000000000E+01      4.626312000000000E-01     -1.421797000000000E+02
4828000000.000000      4.041901000000000E-01      3.453125000000000E+01      4.608307000000000E-01     -1.429062000000000E+02
4829000000.000000      4.047241000000000E-01      3.467773000000000E+01      4.615021000000000E-01     -1.435156000000000E+02
4830000000.000000      4.066467000000000E-01      3.454883000000000E+01      4.600525000000000E-01     -1.444531000000000E+02
4831000000.000000      4.073639000000000E-01      3.452539000000000E+01      4.603882000000000E-01     -1.450781000000000E+02
4832000000.000000      4.090881000000000E-01      3.470703000000000E+01      4.591980000000000E-01     -1.458672000000000E+02
4833000000.000000      4.105988000000000E-01      3.449414000000000E+01      4.593658000000000E-01     -1.464219000000000E+02
4834000000.000000      4.124451000000000E-01      3.456836000000000E+01      4.581909000000000E-01     -1.472734000000000E+02
4835000000.000000      4.138336000000000E-01      3.445703000000000E+01      4.589233000000000E-01     -1.478906000000000E+02
4836000000.000000      4.155426000000000E-01      3.452539000000000E+01      4.564362000000000E-01     -1.487422000000000E+02
4837000000.000000      4.167633000000000E-01      3.451172000000000E+01      4.554138000000000E-01     -1.496250000000000E+02
4838000000.000000      4.172363000000000E-01      3.437695000000000E+01      4.564362000000000E-01     -1.499609000000000E+02
4839000000.000000      4.210358000000000E-01      3.433008000000000E+01      4.548645000000000E-01     -1.508437000000000E+02
4840000000.000000      4.214172000000000E-01      3.420703000000000E+01      4.534302000000000E-01     -1.515391000000000E+02
4841000000.000000      4.228973000000000E-01      3.435547000000000E+01      4.535065000000000E-01     -1.525625000000000E+02
4842000000.000000      4.239349000000000E-01      3.410156000000000E+01      4.516754000000000E-01     -1.528750000000000E+02
4843000000.000000      4.268341000000000E-01      3.395703000000000E+01      4.507751000000000E-01     -1.536875000000000E+02
4844000000.000000      4.275208000000000E-01      3.386719000000000E+01      4.501953000000000E-01     -1.545781000000000E+02
4845000000.000000      4.281921000000000E-01      3.387500000000000E+01      4.481049000000000E-01     -1.551484000000000E+02
4846000000.000000      4.307098000000000E-01      3.371289000000000E+01      4.462433000000000E-01     -1.558906000000000E+02
4847000000.000000      4.317932000000000E-01      3.375781000000000E+01      4.452057000000000E-01     -1.565469000000000E+02
4848000000.000000      4.329529000000000E-01      3.349414000000000E+01      4.432526000000000E-01     -1.571563000000000E+02
4849000000.000000      4.345093000000000E-01      3.341797000000000E+01      4.426117000000000E-01     -1.579297000000000E+02
4850000000.000000      4.356537000000000E-01      3.334179000000000E+01      4.402466000000000E-01     -1.586953000000000E+02
4851000000.000000      4.375610000000000E-01      3.329883000000000E+01      4.406433000000000E-01     -1.593047000000000E+02
4852000000.000000      4.384766000000000E-01      3.309570000000000E+01      4.373779000000000E-01     -1.601953000000000E+02
4853000000.000000      4.406738000000000E-01      3.303711000000000E+01      4.334412000000000E-01     -1.609844000000000E+02
4854000000.000000      4.411316000000000E-01      3.279687000000000E+01      4.336853000000000E-01     -1.618750000000000E+02
4855000000.000000      4.419098000000000E-01      3.276758000000000E+01      4.303894000000000E-01     -1.625547000000000E+02
4856000000.000000      4.435120000000000E-01      3.264062000000000E+01      4.297485000000000E-01     -1.632578000000000E+02
4857000000.000000      4.450684000000000E-01      3.249414000000000E+01      4.281311000000000E-01     -1.639766000000000E+02
4858000000.000000      4.457550000000000E-01      3.233789000000000E+01      4.261475000000000E-01     -1.645156000000000E+02
4859000000.000000      4.478302000000000E-01      3.205664000000000E+01      4.232025000000000E-01     -1.652891000000000E+02
4860000000.000000      4.483643000000000E-01      3.205078000000000E+01      4.215088000000000E-01     -1.660234000000000E+02
4861000000.000000      4.491577000000000E-01      3.195605000000000E+01      4.169769000000000E-01     -1.668672000000000E+02
4862000000.000000      4.492645000000000E-01      3.165820000000000E+01      4.170227000000000E-01     -1.676406000000000E+02
4863000000.000000      4.510040000000000E-01      3.150000000000000E+01      4.128876000000000E-01     -1.682266000000000E+02
4864000000.000000      4.520111000000000E-01      3.128613000000000E+01      4.096222000000000E-01     -1.686406000000000E+02
4865000000.000000      4.528351000000000E-01      3.118164000000000E+01      4.068146000000000E-01     -1.694453000000000E+02
4866000000.000000      4.537201000000000E-01      3.082129000000000E+01      4.052429000000000E-01     -1.702812000000000E+02
4867000000.000000      4.550476000000000E-01      3.071875000000000E+01      4.023132000000000E-01     -1.711875000000000E+02
4868000000.000000      4.577484000000000E-01      3.055273000000000E+01      3.997955000000000E-01     -1.718125000000000E+02
4869000000.000000      4.574127000000000E-01      3.033789000000000E+01      3.971252000000000E-01     -1.724141000000000E+02
4870000000.000000      4.571686000000000E-01      3.036035000000000E+01      3.930359000000000E-01     -1.727422000000000E+02
4871000000.000000      4.582977000000000E-01      2.999902000000000E+01      3.900604000000000E-01     -1.737187000000000E+02
4872000000.000000      4.597626000000000E-01      2.995605000000000E+01      3.864746000000000E-01     -1.744844000000000E+02
4873000000.000000      4.612274000000000E-01      2.984082000000000E+01      3.830261000000000E-01     -1.749687000000000E+02
4874000000.000000      4.596863000000000E-01      2.960449000000000E+01      3.805389000000000E-01     -1.756953000000000E+02
4875000000.000000      4.624329000000000E-01      2.939648000000000E+01      3.760376000000000E-01     -1.762812000000000E+02
4876000000.000000      4.631653000000000E-01      2.914941000000000E+01      3.739166000000000E-01     -1.768594000000000E+02
4877000000.000000      4.635010000000000E-01      2.891992000000000E+01      3.697662000000000E-01     -1.773203000000000E+02
4878000000.000000      4.617615000000000E-01      2.879590000000000E+01      3.663635000000000E-01     -1.780078000000000E+02
4879000000.000000      4.645538000000000E-01      2.849707000000000E+01      3.635559000000000E-01     -1.783516000000000E+02
4880000000.000000      4.646149000000000E-01      2.825195000000000E+01      3.593445000000000E-01     -1.792500000000000E+02
4881000000.000000      4.655304000000000E-01      2.819629000000000E+01      3.576202000000000E-01     -1.796641000000000E+02
4882000000.000000      4.674377000000000E-01      2.800000000000000E+01      3.541718000000000E-01      1.795625000000000E+02
4883000000.000000      4.671478000000000E-01      2.770020000000000E+01      3.501129000000000E-01      1.792109000000000E+02
4884000000.000000      4.673309000000000E-01      2.756543000000000E+01      3.466797000000000E-01      1.787109000000000E+02
4885000000.000000      4.676819000000000E-01      2.734179000000000E+01      3.417664000000000E-01      1.782891000000000E+02
4886000000.000000      4.689941000000000E-01      2.718750000000000E+01      3.388977000000000E-01      1.776719000000000E+02
4887000000.000000      4.690247000000000E-01      2.717285000000000E+01      3.356476000000000E-01      1.772891000000000E+02
4888000000.000000      4.694519000000000E-01      2.671582000000000E+01      3.324890000000000E-01      1.768125000000000E+02
4889000000.000000      4.692383000000000E-01      2.681152000000000E+01      3.285828000000000E-01      1.764219000000000E+02
4890000000.000000      4.682159000000000E-01      2.643652000000000E+01      3.252563000000000E-01      1.756406000000000E+02
4891000000.000000      4.700165000000000E-01      2.641113000000000E+01      3.223572000000000E-01      1.749687000000000E+02
4892000000.000000      4.701538000000000E-01      2.611133000000000E+01      3.190613000000000E-01      1.750391000000000E+02
4893000000.000000      4.723206000000000E-01      2.615918000000000E+01      3.145599000000000E-01      1.743281000000000E+02
4894000000.000000      4.709930000000000E-01      2.565625000000000E+01      3.108978000000000E-01      1.740391000000000E+02
4895000000.000000      4.698334000000000E-01      2.548925000000000E+01      3.091278000000000E-01      1.735703000000000E+02
4896000000.000000      4.702454000000000E-01      2.551953000000000E+01      3.055267000000000E-01      1.731328000000000E+02
4897000000.000000      4.700165000000000E-01      2.544238000000000E+01      3.017578000000000E-01      1.726953000000000E+02
4898000000.000000      4.700012000000000E-01      2.503613000000000E+01      2.990570000000000E-01      1.723047000000000E+02
4899000000.000000      4.690552000000000E-01      2.502734000000000E+01      2.957306000000000E-01      1.717109000000000E+02
4900000000.000000      4.721985000000000E-01      2.466699000000000E+01      2.925720000000000E-01      1.714687000000000E+02
4901000000.000000      4.697876000000000E-01      2.435644000000000E+01      2.893677000000000E-01      1.711250000000000E+02
4902000000.000000      4.712524000000000E-01      2.420898000000000E+01      2.863617000000000E-01      1.707578000000000E+02
4903000000.000000      4.705353000000000E-01      2.437695000000000E+01      2.821503000000000E-01      1.703828000000000E+02
4904000000.000000      4.712982000000000E-01      2.408594000000000E+01      2.794189000000000E-01      1.699141000000000E+02
4905000000.000000      4.702301000000000E-01      2.385058000000000E+01      2.766266000000000E-01      1.694219000000000E+02
4906000000.000000      4.693604000000000E-01      2.386425000000000E+01      2.725372000000000E-01      1.693828000000000E+02
4907000000.000000      4.708710000000000E-01      2.348047000000000E+01      2.702789000000000E-01      1.687266000000000E+02
4908000000.000000      4.711304000000000E-01      2.337695000000000E+01      2.668762000000000E-01      1.684297000000000E+02
4909000000.000000      4.705963000000000E-01      2.312988000000000E+01      2.634430000000000E-01      1.680625000000000E+02
4910000000.000000      4.688110000000000E-01      2.310254000000000E+01      2.601624000000000E-01      1.677422000000000E+02
4911000000.000000      4.712372000000000E-01      2.306836000000000E+01      2.575684000000000E-01      1.673672000000000E+02
4912000000.000000      4.711151000000000E-01      2.276465000000000E+01      2.533112000000000E-01      1.669765000000000E+02
4913000000.000000      4.699097000000000E-01      2.268457000000000E+01      2.509155000000000E-01      1.665469000000000E+02
4914000000.000000      4.706421000000000E-01      2.226758000000000E+01      2.461777000000000E-01      1.663906000000000E+02
4915000000.000000      4.687805000000000E-01      2.237988000000000E+01      2.428818000000000E-01      1.660078000000000E+02
4916000000.000000      4.716492000000000E-01      2.209668000000000E+01      2.400513000000000E-01      1.657734000000000E+02
4917000000.000000      4.678802000000000E-01      2.192969000000000E+01      2.364197000000000E-01      1.653906000000000E+02
4918000000.000000      4.713287000000000E-01      2.206152000000000E+01      2.327652000000000E-01      1.651094000000000E+02
4919000000.000000      4.692688000000000E-01      2.183300000000000E+01      2.299957000000000E-01      1.649765000000000E+02
4920000000.000000      4.699249000000000E-01      2.162304000000000E+01      2.256699000000000E-01      1.644844000000000E+02
4921000000.000000      4.707489000000000E-01      2.155176000000000E+01      2.229462000000000E-01      1.644453000000000E+02
4922000000.000000      4.688721000000000E-01      2.132715000000000E+01      2.189407000000000E-01      1.641406000000000E+02
4923000000.000000      4.699554000000000E-01      2.131152000000000E+01      2.151642000000000E-01      1.640000000000000E+02
4924000000.000000      4.697723000000000E-01      2.108398000000000E+01      2.115173000000000E-01      1.635625000000000E+02
4925000000.000000      4.690094000000000E-01      2.089258000000000E+01      2.085190000000000E-01      1.634375000000000E+02
4926000000.000000      4.700317000000000E-01      2.070019000000000E+01      2.049637000000000E-01      1.630703000000000E+02
4927000000.000000      4.681854000000000E-01      2.042480000000000E+01      2.010574000000000E-01      1.628281000000000E+02
4928000000.000000      4.703827000000000E-01      2.049414000000000E+01      1.976166000000000E-01      1.630312000000000E+02
4929000000.000000      4.693146000000000E-01      2.013086000000000E+01      1.936035000000000E-01      1.629219000000000E+02
4930000000.000000      4.691620000000000E-01      2.010449000000000E+01      1.900024000000000E-01      1.624922000000000E+02
4931000000.000000      4.698029000000000E-01      2.013184000000000E+01      1.865997000000000E-01      1.628125000000000E+02
4932000000.000000      4.697418000000000E-01      1.994141000000000E+01      1.828461000000000E-01      1.625391000000000E+02
4933000000.000000      4.684601000000000E-01      1.967969000000000E+01      1.781998000000000E-01      1.628203000000000E+02
4934000000.000000      4.688263000000000E-01      1.976367000000000E+01      1.750565000000000E-01      1.626406000000000E+02
4935000000.000000      4.702301000000000E-01      1.934277000000000E+01      1.720886000000000E-01      1.631016000000000E+02
4936000000.000000      4.678192000000000E-01      1.925293000000000E+01      1.674576000000000E-01      1.629141000000000E+02
4937000000.000000      4.700470000000000E-01      1.920898000000000E+01      1.644287000000000E-01      1.631406000000000E+02
4938000000.000000      4.677582000000000E-01      1.915527000000000E+01      1.614990000000000E-01      1.634375000000000E+02
4939000000.000000      4.679871000000000E-01      1.876269000000000E+01      1.573563000000000E-01      1.638203000000000E+02
4940000000.000000      4.691925000000000E-01      1.875977000000000E+01      1.538620000000000E-01      1.638203000000000E+02
4941000000.000000      4.692078000000000E-01      1.863770000000000E+01      1.502991000000000E-01      1.644531000000000E+02
4942000000.000000      4.682465000000000E-01      1.870508000000000E+01      1.467590000000000E-01      1.648828000000000E+02
4943000000.000000      4.686127000000000E-01      1.846582000000000E+01      1.435394000000000E-01      1.651406000000000E+02
4944000000.000000      4.662781000000000E-01      1.836328000000000E+01      1.402512000000000E-01      1.658516000000000E+02
4945000000.000000      4.674377000000000E-01      1.796582000000000E+01      1.366119000000000E-01      1.665234000000000E+02
4946000000.000000      4.670563000000000E-01      1.789941000000000E+01      1.340332000000000E-01      1.672656000000000E+02
4947000000.000000      4.665222000000000E-01      1.784961000000000E+01      1.307068000000000E-01      1.681406000000000E+02
4948000000.000000      4.673157000000000E-01      1.758984000000000E+01      1.274948000000000E-01      1.689687000000000E+02
4949000000.000000      4.667053000000000E-01      1.748828000000000E+01      1.248779000000000E-01      1.700234000000000E+02
4950000000.000000      4.683685000000000E-01      1.740234000000000E+01      1.221619000000000E-01      1.710000000000000E+02
4951000000.000000      4.670258000000000E-01      1.725390000000000E+01      1.197548000000000E-01      1.718437000000000E+02
4952000000.000000      4.654999000000000E-01      1.701172000000000E+01      1.166878000000000E-01      1.732891000000000E+02
4953000000.000000      4.669037000000000E-01      1.707617000000000E+01      1.148605000000000E-01      1.746406000000000E+02
4954000000.000000      4.653625000000000E-01      1.694140000000000E+01      1.128693000000000E-01      1.760234000000000E+02
