! Network Analyzer HP8722D
! Hewlett-Packard
! Data name: Linha & Wilkinson
! Saver's name: Rodrigo Anjos
! Comments: Teste da utilização de aquisição
continua pelo VNA HP8722D
! Time and date: 23/5/2025 14:59
!              Frequency                     S11                                                   S21                                                   S12                                                   S22
# HZ  S  MA R 50
4800000000.000000      2.836609000000000E-01      3.999804000000000E+01      4.855499000000000E-01     -1.295234000000000E+02
4801000000.000000      2.842560000000000E-01      4.021680000000000E+01      4.879608000000000E-01     -1.300390000000000E+02
4802000000.000000      2.857208000000000E-01      4.043945000000000E+01      4.879913000000000E-01     -1.307109000000000E+02
4803000000.000000      2.863312000000000E-01      4.060351000000000E+01      4.912109000000000E-01     -1.314297000000000E+02
4804000000.000000      2.882843000000000E-01      4.086133000000000E+01      4.908752000000000E-01     -1.321250000000000E+02
4805000000.000000      2.900696000000000E-01      4.095508000000000E+01      4.939423000000000E-01     -1.330078000000000E+02
4806000000.000000      2.908173000000000E-01      4.113281000000000E+01      4.950104000000000E-01     -1.337031000000000E+02
4807000000.000000      2.919769000000000E-01      4.138085000000000E+01      4.964905000000000E-01     -1.344297000000000E+02
4808000000.000000      2.930145000000000E-01      4.157812000000000E+01      4.984741000000000E-01     -1.352266000000000E+02
4809000000.000000      2.946777000000000E-01      4.177539000000000E+01      5.007935000000000E-01     -1.359766000000000E+02
4810000000.000000      2.963867000000000E-01      4.190039000000000E+01      5.021667000000000E-01     -1.365703000000000E+02
4811000000.000000      2.979736000000000E-01      4.200781000000000E+01      5.016785000000000E-01     -1.373906000000000E+02
4812000000.000000      3.006134000000000E-01      4.218750000000000E+01      5.029297000000000E-01     -1.382500000000000E+02
4813000000.000000      3.014679000000000E-01      4.239843000000000E+01      5.022583000000000E-01     -1.389766000000000E+02
4814000000.000000      3.022308000000000E-01      4.238477000000000E+01      5.052490000000000E-01     -1.396094000000000E+02
4815000000.000000      3.039093000000000E-01      4.251367000000000E+01      5.034790000000000E-01     -1.403594000000000E+02
4816000000.000000      3.065643000000000E-01      4.260742000000000E+01      5.062256000000000E-01     -1.410938000000000E+02
4817000000.000000      3.075714000000000E-01      4.269727000000000E+01      5.055542000000000E-01     -1.418203000000000E+02
4818000000.000000      3.094330000000000E-01      4.272851000000000E+01      5.075684000000000E-01     -1.423750000000000E+02
4819000000.000000      3.120575000000000E-01      4.278516000000000E+01      5.058289000000000E-01     -1.431875000000000E+02
4820000000.000000      3.129272000000000E-01      4.275586000000000E+01      5.059814000000000E-01     -1.438437000000000E+02
4821000000.000000      3.153381000000000E-01      4.291406000000000E+01      5.071716000000000E-01     -1.447578000000000E+02
4822000000.000000      3.161163000000000E-01      4.282031000000000E+01      5.065308000000000E-01     -1.453750000000000E+02
4823000000.000000      3.188019000000000E-01      4.274219000000000E+01      5.081482000000000E-01     -1.462812000000000E+02
4824000000.000000      3.207703000000000E-01      4.289453000000000E+01      5.063171000000000E-01     -1.470469000000000E+02
4825000000.000000      3.220062000000000E-01      4.275391000000000E+01      5.057068000000000E-01     -1.475469000000000E+02
4826000000.000000      3.239288000000000E-01      4.276953000000000E+01      5.062866000000000E-01     -1.485469000000000E+02
4827000000.000000      3.259125000000000E-01      4.273242000000000E+01      5.063782000000000E-01     -1.490625000000000E+02
4828000000.000000      3.284760000000000E-01      4.260351000000000E+01      5.057373000000000E-01     -1.496797000000000E+02
4829000000.000000      3.297119000000000E-01      4.274219000000000E+01      5.052490000000000E-01     -1.505156000000000E+02
4830000000.000000      3.320313000000000E-01      4.248047000000000E+01      5.052185000000000E-01     -1.513672000000000E+02
4831000000.000000      3.329163000000000E-01      4.239843000000000E+01      5.040894000000000E-01     -1.521250000000000E+02
4832000000.000000      3.347473000000000E-01      4.240820000000000E+01      5.044250000000000E-01     -1.525625000000000E+02
4833000000.000000      3.364716000000000E-01      4.225976000000000E+01      5.014954000000000E-01     -1.532578000000000E+02
4834000000.000000      3.383789000000000E-01      4.216992000000000E+01      5.017700000000000E-01     -1.540859000000000E+02
4835000000.000000      3.402100000000000E-01      4.202734000000000E+01      5.012207000000000E-01     -1.549375000000000E+02
4836000000.000000      3.417969000000000E-01      4.194726000000000E+01      5.000610000000000E-01     -1.555312000000000E+02
4837000000.000000      3.435516000000000E-01      4.194531000000000E+01      4.978790000000000E-01     -1.564141000000000E+02
4838000000.000000      3.446960000000000E-01      4.175390000000000E+01      4.980469000000000E-01     -1.569687000000000E+02
4839000000.000000      3.479767000000000E-01      4.160352000000000E+01      4.959717000000000E-01     -1.575312000000000E+02
4840000000.000000      3.487244000000000E-01      4.132031000000000E+01      4.961700000000000E-01     -1.582891000000000E+02
4841000000.000000      3.510284000000000E-01      4.133985000000000E+01      4.959106000000000E-01     -1.591875000000000E+02
4842000000.000000      3.521881000000000E-01      4.102929000000000E+01      4.932404000000000E-01     -1.598828000000000E+02
4843000000.000000      3.549652000000000E-01      4.080274000000000E+01      4.916077000000000E-01     -1.604219000000000E+02
4844000000.000000      3.554840000000000E-01      4.062696000000000E+01      4.914246000000000E-01     -1.613906000000000E+02
4845000000.000000      3.572998000000000E-01      4.055078000000000E+01      4.895477000000000E-01     -1.617656000000000E+02
4846000000.000000      3.591461000000000E-01      4.033203000000000E+01      4.884949000000000E-01     -1.626953000000000E+02
4847000000.000000      3.599701000000000E-01      4.027148000000000E+01      4.864502000000000E-01     -1.633516000000000E+02
4848000000.000000      3.616638000000000E-01      3.992969000000000E+01      4.840393000000000E-01     -1.641172000000000E+02
4849000000.000000      3.627014000000000E-01      3.965039000000000E+01      4.814606000000000E-01     -1.648750000000000E+02
4850000000.000000      3.641052000000000E-01      3.947070000000000E+01      4.793396000000000E-01     -1.656328000000000E+02
4851000000.000000      3.657074000000000E-01      3.934570000000000E+01      4.791565000000000E-01     -1.663359000000000E+02
4852000000.000000      3.675232000000000E-01      3.909765000000000E+01      4.769745000000000E-01     -1.669141000000000E+02
4853000000.000000      3.684540000000000E-01      3.882617000000000E+01      4.733276000000000E-01     -1.675469000000000E+02
4854000000.000000      3.697052000000000E-01      3.862109000000000E+01      4.720001000000000E-01     -1.683672000000000E+02
4855000000.000000      3.702240000000000E-01      3.841992000000000E+01      4.709167000000000E-01     -1.690859000000000E+02
4856000000.000000      3.710022000000000E-01      3.824414000000000E+01      4.669037000000000E-01     -1.697891000000000E+02
4857000000.000000      3.728790000000000E-01      3.798828000000000E+01      4.657898000000000E-01     -1.702812000000000E+02
4858000000.000000      3.737640000000000E-01      3.751172000000000E+01      4.639893000000000E-01     -1.709609000000000E+02
4859000000.000000      3.752899000000000E-01      3.735742000000000E+01      4.619904000000000E-01     -1.717734000000000E+02
4860000000.000000      3.763733000000000E-01      3.726563000000000E+01      4.586029000000000E-01     -1.723203000000000E+02
4861000000.000000      3.767548000000000E-01      3.691797000000000E+01      4.555969000000000E-01     -1.731875000000000E+02
4862000000.000000      3.775330000000000E-01      3.668359000000000E+01      4.533386000000000E-01     -1.737422000000000E+02
4863000000.000000      3.789368000000000E-01      3.642773000000000E+01      4.494781000000000E-01     -1.746328000000000E+02
4864000000.000000      3.797607000000000E-01      3.612109000000000E+01      4.473877000000000E-01     -1.750234000000000E+02
4865000000.000000      3.800812000000000E-01      3.581836000000000E+01      4.442291000000000E-01     -1.758672000000000E+02
4866000000.000000      3.806152000000000E-01      3.562500000000000E+01      4.405365000000000E-01     -1.763672000000000E+02
4867000000.000000      3.815460000000000E-01      3.532227000000000E+01      4.382629000000000E-01     -1.773516000000000E+02
4868000000.000000      3.834686000000000E-01      3.507421000000000E+01      4.357758000000000E-01     -1.779063000000000E+02
4869000000.000000      3.841248000000000E-01      3.485547000000000E+01      4.319305000000000E-01     -1.783047000000000E+02
4870000000.000000      3.838959000000000E-01      3.452539000000000E+01      4.289246000000000E-01     -1.788672000000000E+02
4871000000.000000      3.844604000000000E-01      3.415625000000000E+01      4.255981000000000E-01     -1.797344000000000E+02
4872000000.000000      3.868256000000000E-01      3.401953000000000E+01      4.222870000000000E-01      1.799219000000000E+02
4873000000.000000      3.865814000000000E-01      3.376367000000000E+01      4.191895000000000E-01      1.791641000000000E+02
4874000000.000000      3.870239000000000E-01      3.351953000000000E+01      4.140320000000000E-01      1.785156000000000E+02
4875000000.000000      3.867798000000000E-01      3.310156000000000E+01      4.120789000000000E-01      1.779766000000000E+02
4876000000.000000      3.872986000000000E-01      3.298047000000000E+01      4.085236000000000E-01      1.772656000000000E+02
4877000000.000000      3.885651000000000E-01      3.264648000000000E+01      4.054260000000000E-01      1.765859000000000E+02
4878000000.000000      3.881073000000000E-01      3.249804000000000E+01      4.017792000000000E-01      1.760625000000000E+02
4879000000.000000      3.897095000000000E-01      3.227344000000000E+01      3.981323000000000E-01      1.757734000000000E+02
4880000000.000000      3.901672000000000E-01      3.196191000000000E+01      3.952179000000000E-01      1.752656000000000E+02
4881000000.000000      3.897400000000000E-01      3.162109000000000E+01      3.915405000000000E-01      1.746953000000000E+02
4882000000.000000      3.905945000000000E-01      3.148046000000000E+01      3.879089000000000E-01      1.741562000000000E+02
4883000000.000000      3.899078000000000E-01      3.113379000000000E+01      3.838959000000000E-01      1.734531000000000E+02
4884000000.000000      3.907471000000000E-01      3.091211000000000E+01      3.807983000000000E-01      1.730625000000000E+02
4885000000.000000      3.908386000000000E-01      3.062402000000000E+01      3.761292000000000E-01      1.725078000000000E+02
4886000000.000000      3.905945000000000E-01      3.047266000000000E+01      3.736572000000000E-01      1.720391000000000E+02
4887000000.000000      3.912201000000000E-01      3.018066000000000E+01      3.707275000000000E-01      1.714141000000000E+02
4888000000.000000      3.901520000000000E-01      2.979004000000000E+01      3.672028000000000E-01      1.710078000000000E+02
4889000000.000000      3.907318000000000E-01      2.961328000000000E+01      3.628387000000000E-01      1.704922000000000E+02
4890000000.000000      3.897552000000000E-01      2.937109000000000E+01      3.593292000000000E-01      1.699141000000000E+02
4891000000.000000      3.910370000000000E-01      2.912012000000000E+01      3.560791000000000E-01      1.694141000000000E+02
4892000000.000000      3.908997000000000E-01      2.893359000000000E+01      3.521881000000000E-01      1.691172000000000E+02
4893000000.000000      3.910675000000000E-01      2.860840000000000E+01      3.477325000000000E-01      1.686328000000000E+02
4894000000.000000      3.899231000000000E-01      2.841309000000000E+01      3.440399000000000E-01      1.684375000000000E+02
4895000000.000000      3.918457000000000E-01      2.809473000000000E+01      3.428192000000000E-01      1.677969000000000E+02
4896000000.000000      3.904419000000000E-01      2.795703000000000E+01      3.390503000000000E-01      1.674219000000000E+02
4897000000.000000      3.896179000000000E-01      2.773633000000000E+01      3.337708000000000E-01      1.668672000000000E+02
4898000000.000000      3.904114000000000E-01      2.748340000000000E+01      3.308868000000000E-01      1.665547000000000E+02
4899000000.000000      3.901367000000000E-01      2.724121000000000E+01      3.270264000000000E-01      1.659922000000000E+02
4900000000.000000      3.904572000000000E-01      2.707520000000000E+01      3.244476000000000E-01      1.658594000000000E+02
4901000000.000000      3.898926000000000E-01      2.667578000000000E+01      3.213806000000000E-01      1.653437000000000E+02
4902000000.000000      3.901978000000000E-01      2.657422000000000E+01      3.179779000000000E-01      1.649531000000000E+02
4903000000.000000      3.895264000000000E-01      2.639648000000000E+01      3.138580000000000E-01      1.644687000000000E+02
4904000000.000000      3.896332000000000E-01      2.632813000000000E+01      3.098602000000000E-01      1.643047000000000E+02
4905000000.000000      3.900299000000000E-01      2.593945000000000E+01      3.082886000000000E-01      1.636953000000000E+02
4906000000.000000      3.889618000000000E-01      2.579297000000000E+01      3.042450000000000E-01      1.635078000000000E+02
4907000000.000000      3.886414000000000E-01      2.558984000000000E+01      3.008118000000000E-01      1.629062000000000E+02
4908000000.000000      3.895721000000000E-01      2.536523000000000E+01      2.975006000000000E-01      1.625859000000000E+02
4909000000.000000      3.877106000000000E-01      2.521679000000000E+01      2.935638000000000E-01      1.621953000000000E+02
4910000000.000000      3.874054000000000E-01      2.497265000000000E+01      2.908325000000000E-01      1.618984000000000E+02
4911000000.000000      3.880157000000000E-01      2.475683000000000E+01      2.868652000000000E-01      1.614297000000000E+02
4912000000.000000      3.877411000000000E-01      2.449316000000000E+01      2.828827000000000E-01      1.610781000000000E+02
4913000000.000000      3.871460000000000E-01      2.436035000000000E+01      2.794342000000000E-01      1.607422000000000E+02
4914000000.000000      3.868408000000000E-01      2.411133000000000E+01      2.760620000000000E-01      1.604766000000000E+02
4915000000.000000      3.867798000000000E-01      2.410645000000000E+01      2.720795000000000E-01      1.600469000000000E+02
4916000000.000000      3.866730000000000E-01      2.379199000000000E+01      2.687073000000000E-01      1.596094000000000E+02
4917000000.000000      3.863220000000000E-01      2.361719000000000E+01      2.650146000000000E-01      1.594219000000000E+02
4918000000.000000      3.864288000000000E-01      2.341309000000000E+01      2.606812000000000E-01      1.590234000000000E+02
4919000000.000000      3.853760000000000E-01      2.327246000000000E+01      2.574463000000000E-01      1.588906000000000E+02
4920000000.000000      3.859253000000000E-01      2.300097000000000E+01      2.526093000000000E-01      1.582969000000000E+02
4921000000.000000      3.847809000000000E-01      2.288769000000000E+01      2.498627000000000E-01      1.580547000000000E+02
4922000000.000000      3.850708000000000E-01      2.277050000000000E+01      2.452545000000000E-01      1.579766000000000E+02
4923000000.000000      3.852844000000000E-01      2.256445000000000E+01      2.408829000000000E-01      1.576406000000000E+02
4924000000.000000      3.849030000000000E-01      2.237695000000000E+01      2.372742000000000E-01      1.573125000000000E+02
4925000000.000000      3.837891000000000E-01      2.217578000000000E+01      2.332840000000000E-01      1.572031000000000E+02
4926000000.000000      3.834534000000000E-01      2.211328000000000E+01      2.296524000000000E-01      1.568516000000000E+02
4927000000.000000      3.839569000000000E-01      2.178711000000000E+01      2.254791000000000E-01      1.567266000000000E+02
4928000000.000000      3.847656000000000E-01      2.160156000000000E+01      2.216187000000000E-01      1.565469000000000E+02
4929000000.000000      3.827362000000000E-01      2.148633000000000E+01      2.175064000000000E-01      1.563984000000000E+02
4930000000.000000      3.832855000000000E-01      2.127344000000000E+01      2.137756000000000E-01      1.562344000000000E+02
4931000000.000000      3.823547000000000E-01      2.113965000000000E+01      2.104416000000000E-01      1.562109000000000E+02
4932000000.000000      3.822937000000000E-01      2.091309000000000E+01      2.047958000000000E-01      1.561953000000000E+02
4933000000.000000      3.826599000000000E-01      2.094043000000000E+01      2.010574000000000E-01      1.562187000000000E+02
4934000000.000000      3.821411000000000E-01      2.048926000000000E+01      1.968536000000000E-01      1.561328000000000E+02
4935000000.000000      3.831940000000000E-01      2.032129000000000E+01      1.933441000000000E-01      1.562891000000000E+02
4936000000.000000      3.814392000000000E-01      2.023535000000000E+01      1.886520000000000E-01      1.563594000000000E+02
4937000000.000000      3.810120000000000E-01      1.997168000000000E+01      1.852112000000000E-01      1.563594000000000E+02
4938000000.000000      3.808441000000000E-01      2.002246000000000E+01      1.812744000000000E-01      1.567812000000000E+02
4939000000.000000      3.808289000000000E-01      1.986719000000000E+01      1.769104000000000E-01      1.568984000000000E+02
4940000000.000000      3.809509000000000E-01      1.951562000000000E+01      1.725922000000000E-01      1.570313000000000E+02
4941000000.000000      3.811340000000000E-01      1.925586000000000E+01      1.693192000000000E-01      1.574687000000000E+02
4942000000.000000      3.791199000000000E-01      1.919434000000000E+01      1.650314000000000E-01      1.579453000000000E+02
4943000000.000000      3.796692000000000E-01      1.919434000000000E+01      1.615372000000000E-01      1.582891000000000E+02
4944000000.000000      3.794250000000000E-01      1.886035000000000E+01      1.581345000000000E-01      1.588359000000000E+02
4945000000.000000      3.789063000000000E-01      1.880957000000000E+01      1.541748000000000E-01      1.593750000000000E+02
4946000000.000000      3.786926000000000E-01      1.852832000000000E+01      1.510468000000000E-01      1.600547000000000E+02
4947000000.000000      3.782501000000000E-01      1.824609000000000E+01      1.469040000000000E-01      1.607969000000000E+02
4948000000.000000      3.792725000000000E-01      1.823730000000000E+01      1.436386000000000E-01      1.616094000000000E+02
4949000000.000000      3.774719000000000E-01      1.813379000000000E+01      1.407623000000000E-01      1.625703000000000E+02
4950000000.000000      3.780365000000000E-01      1.786328000000000E+01      1.373291000000000E-01      1.634219000000000E+02
4951000000.000000      3.772125000000000E-01      1.769433000000000E+01      1.345215000000000E-01      1.644453000000000E+02
4952000000.000000      3.771515000000000E-01      1.753418000000000E+01      1.313782000000000E-01      1.656875000000000E+02
4953000000.000000      3.764496000000000E-01      1.729980000000000E+01      1.292496000000000E-01      1.669453000000000E+02
4954000000.000000      3.761139000000000E-01      1.724902000000000E+01      1.263657000000000E-01      1.682188000000000E+02
