! Network Analyzer HP8722D
! Hewlett-Packard
! Data name: Linha & Wilkinson
! Saver's name: Rodrigo Anjos
! Comments: Teste da utilização de aquisição
continua pelo VNA HP8722D
! Time and date: 23/5/2025 11:46
!              Frequency                     S11                                                   S21                                                   S12                                                   S22
# HZ  S  MA R 50
4800000000.000000      3.083954000000000E-01      3.765234000000000E+01      4.718475000000000E-01     -1.279688000000000E+02
4801000000.000000      3.093109000000000E-01      3.797266000000000E+01      4.753113000000000E-01     -1.289141000000000E+02
4802000000.000000      3.105316000000000E-01      3.808594000000000E+01      4.760132000000000E-01     -1.293906000000000E+02
4803000000.000000      3.113251000000000E-01      3.825586000000000E+01      4.781342000000000E-01     -1.301172000000000E+02
4804000000.000000      3.121643000000000E-01      3.849023000000000E+01      4.792633000000000E-01     -1.309297000000000E+02
4805000000.000000      3.142700000000000E-01      3.858984000000000E+01      4.800415000000000E-01     -1.315703000000000E+02
4806000000.000000      3.150940000000000E-01      3.869922000000000E+01      4.823151000000000E-01     -1.321797000000000E+02
4807000000.000000      3.156586000000000E-01      3.887890000000000E+01      4.833069000000000E-01     -1.332187000000000E+02
4808000000.000000      3.164520000000000E-01      3.907031000000000E+01      4.850311000000000E-01     -1.335859000000000E+02
4809000000.000000      3.177948000000000E-01      3.933398000000000E+01      4.863892000000000E-01     -1.345781000000000E+02
4810000000.000000      3.192749000000000E-01      3.950976000000000E+01      4.875336000000000E-01     -1.353203000000000E+02
4811000000.000000      3.210602000000000E-01      3.959765000000000E+01      4.890289000000000E-01     -1.359766000000000E+02
4812000000.000000      3.232880000000000E-01      3.978516000000000E+01      4.884338000000000E-01     -1.367812000000000E+02
4813000000.000000      3.238068000000000E-01      3.981250000000000E+01      4.900208000000000E-01     -1.374609000000000E+02
4814000000.000000      3.251495000000000E-01      3.991601000000000E+01      4.905396000000000E-01     -1.383125000000000E+02
4815000000.000000      3.262024000000000E-01      4.006445000000000E+01      4.899445000000000E-01     -1.390312000000000E+02
4816000000.000000      3.287811000000000E-01      4.014844000000000E+01      4.934387000000000E-01     -1.395078000000000E+02
4817000000.000000      3.294830000000000E-01      4.028516000000000E+01      4.920654000000000E-01     -1.404063000000000E+02
4818000000.000000      3.309784000000000E-01      4.033203000000000E+01      4.923096000000000E-01     -1.411094000000000E+02
4819000000.000000      3.328094000000000E-01      4.037305000000000E+01      4.929810000000000E-01     -1.418203000000000E+02
4820000000.000000      3.338470000000000E-01      4.043750000000000E+01      4.936981000000000E-01     -1.425547000000000E+02
4821000000.000000      3.365173000000000E-01      4.041992000000000E+01      4.942780000000000E-01     -1.432500000000000E+02
4822000000.000000      3.377075000000000E-01      4.041797000000000E+01      4.925385000000000E-01     -1.440859000000000E+02
4823000000.000000      3.395386000000000E-01      4.042382000000000E+01      4.931793000000000E-01     -1.448672000000000E+02
4824000000.000000      3.407745000000000E-01      4.052539000000000E+01      4.931335000000000E-01     -1.456484000000000E+02
4825000000.000000      3.428192000000000E-01      4.046679000000000E+01      4.927216000000000E-01     -1.463438000000000E+02
4826000000.000000      3.446960000000000E-01      4.038671000000000E+01      4.925232000000000E-01     -1.470625000000000E+02
4827000000.000000      3.462982000000000E-01      4.045117000000000E+01      4.928436000000000E-01     -1.475625000000000E+02
4828000000.000000      3.483582000000000E-01      4.036914000000000E+01      4.932098000000000E-01     -1.485000000000000E+02
4829000000.000000      3.495178000000000E-01      4.047071000000000E+01      4.913025000000000E-01     -1.491484000000000E+02
4830000000.000000      3.512421000000000E-01      4.032227000000000E+01      4.911957000000000E-01     -1.499063000000000E+02
4831000000.000000      3.531189000000000E-01      4.018750000000000E+01      4.912109000000000E-01     -1.507109000000000E+02
4832000000.000000      3.551025000000000E-01      4.026563000000000E+01      4.892120000000000E-01     -1.513594000000000E+02
4833000000.000000      3.559113000000000E-01      3.996875000000000E+01      4.892426000000000E-01     -1.520156000000000E+02
4834000000.000000      3.574982000000000E-01      4.008985000000000E+01      4.886322000000000E-01     -1.527187000000000E+02
4835000000.000000      3.604889000000000E-01      3.999218000000000E+01      4.878845000000000E-01     -1.536172000000000E+02
4836000000.000000      3.618317000000000E-01      3.986914000000000E+01      4.864197000000000E-01     -1.542422000000000E+02
4837000000.000000      3.631134000000000E-01      3.982617000000000E+01      4.864960000000000E-01     -1.551953000000000E+02
4838000000.000000      3.640747000000000E-01      3.972070000000000E+01      4.852448000000000E-01     -1.555625000000000E+02
4839000000.000000      3.678741000000000E-01      3.954883000000000E+01      4.843140000000000E-01     -1.563828000000000E+02
4840000000.000000      3.683319000000000E-01      3.929883000000000E+01      4.837494000000000E-01     -1.569922000000000E+02
4841000000.000000      3.700867000000000E-01      3.930273000000000E+01      4.821014000000000E-01     -1.578359000000000E+02
4842000000.000000      3.718414000000000E-01      3.914258000000000E+01      4.803772000000000E-01     -1.584844000000000E+02
4843000000.000000      3.742065000000000E-01      3.891992000000000E+01      4.801178000000000E-01     -1.592344000000000E+02
4844000000.000000      3.744812000000000E-01      3.877930000000000E+01      4.779205000000000E-01     -1.600469000000000E+02
4845000000.000000      3.766632000000000E-01      3.880859000000000E+01      4.769440000000000E-01     -1.604609000000000E+02
4846000000.000000      3.781891000000000E-01      3.857226000000000E+01      4.748077000000000E-01     -1.613281000000000E+02
4847000000.000000      3.799744000000000E-01      3.845117000000000E+01      4.733734000000000E-01     -1.620078000000000E+02
4848000000.000000      3.807220000000000E-01      3.808789000000000E+01      4.707489000000000E-01     -1.626016000000000E+02
4849000000.000000      3.823547000000000E-01      3.794922000000000E+01      4.700928000000000E-01     -1.635313000000000E+02
4850000000.000000      3.836212000000000E-01      3.773633000000000E+01      4.681549000000000E-01     -1.641641000000000E+02
4851000000.000000      3.852997000000000E-01      3.774219000000000E+01      4.677277000000000E-01     -1.649844000000000E+02
4852000000.000000      3.862762000000000E-01      3.744922000000000E+01      4.646149000000000E-01     -1.654063000000000E+02
4853000000.000000      3.876038000000000E-01      3.726563000000000E+01      4.616547000000000E-01     -1.663125000000000E+02
4854000000.000000      3.883057000000000E-01      3.710351000000000E+01      4.607086000000000E-01     -1.671406000000000E+02
4855000000.000000      3.898010000000000E-01      3.679101000000000E+01      4.576874000000000E-01     -1.678437000000000E+02
4856000000.000000      3.917389000000000E-01      3.667773000000000E+01      4.550476000000000E-01     -1.683672000000000E+02
4857000000.000000      3.927765000000000E-01      3.643750000000000E+01      4.543304000000000E-01     -1.691641000000000E+02
4858000000.000000      3.935394000000000E-01      3.611719000000000E+01      4.512177000000000E-01     -1.698437000000000E+02
4859000000.000000      3.951111000000000E-01      3.585938000000000E+01      4.486237000000000E-01     -1.705703000000000E+02
4860000000.000000      3.957825000000000E-01      3.581250000000000E+01      4.459991000000000E-01     -1.712891000000000E+02
4861000000.000000      3.961487000000000E-01      3.562304000000000E+01      4.429016000000000E-01     -1.720000000000000E+02
4862000000.000000      3.974457000000000E-01      3.531445000000000E+01      4.419250000000000E-01     -1.725859000000000E+02
4863000000.000000      3.989868000000000E-01      3.510547000000000E+01      4.376068000000000E-01     -1.734531000000000E+02
4864000000.000000      3.992310000000000E-01      3.479492000000000E+01      4.358826000000000E-01     -1.737734000000000E+02
4865000000.000000      4.004517000000000E-01      3.463867000000000E+01      4.330750000000000E-01     -1.745312000000000E+02
4866000000.000000      4.018707000000000E-01      3.433398000000000E+01      4.296417000000000E-01     -1.752969000000000E+02
4867000000.000000      4.019012000000000E-01      3.412304000000000E+01      4.274139000000000E-01     -1.760234000000000E+02
4868000000.000000      4.030914000000000E-01      3.387109000000000E+01      4.233704000000000E-01     -1.766797000000000E+02
4869000000.000000      4.031525000000000E-01      3.366211000000000E+01      4.203796000000000E-01     -1.772266000000000E+02
4870000000.000000      4.045105000000000E-01      3.342382000000000E+01      4.178925000000000E-01     -1.779219000000000E+02
4871000000.000000      4.048920000000000E-01      3.310547000000000E+01      4.138336000000000E-01     -1.784531000000000E+02
4872000000.000000      4.058533000000000E-01      3.289844000000000E+01      4.098053000000000E-01     -1.791328000000000E+02
4873000000.000000      4.062347000000000E-01      3.276172000000000E+01      4.068756000000000E-01     -1.797266000000000E+02
4874000000.000000      4.070740000000000E-01      3.247656000000000E+01      4.043732000000000E-01      1.796562000000000E+02
4875000000.000000      4.077759000000000E-01      3.216797000000000E+01      4.006805000000000E-01      1.789766000000000E+02
4876000000.000000      4.079590000000000E-01      3.202929000000000E+01      3.982849000000000E-01      1.785156000000000E+02
4877000000.000000      4.096832000000000E-01      3.161133000000000E+01      3.937073000000000E-01      1.778750000000000E+02
4878000000.000000      4.083557000000000E-01      3.147168000000000E+01      3.913116000000000E-01      1.772969000000000E+02
4879000000.000000      4.098816000000000E-01      3.127050000000000E+01      3.876953000000000E-01      1.767500000000000E+02
4880000000.000000      4.098511000000000E-01      3.099902000000000E+01      3.841858000000000E-01      1.762656000000000E+02
4881000000.000000      4.094696000000000E-01      3.082031000000000E+01      3.793182000000000E-01      1.757344000000000E+02
4882000000.000000      4.109650000000000E-01      3.063769000000000E+01      3.782043000000000E-01      1.749766000000000E+02
4883000000.000000      4.103394000000000E-01      3.028906000000000E+01      3.723450000000000E-01      1.745547000000000E+02
4884000000.000000      4.107666000000000E-01      3.011719000000000E+01      3.680420000000000E-01      1.739844000000000E+02
4885000000.000000      4.113007000000000E-01      2.989746000000000E+01      3.662872000000000E-01      1.735625000000000E+02
4886000000.000000      4.114380000000000E-01      2.969922000000000E+01      3.624420000000000E-01      1.730469000000000E+02
4887000000.000000      4.109039000000000E-01      2.940625000000000E+01      3.588257000000000E-01      1.725547000000000E+02
4888000000.000000      4.119110000000000E-01      2.908203000000000E+01      3.565674000000000E-01      1.721875000000000E+02
4889000000.000000      4.123840000000000E-01      2.888574000000000E+01      3.513184000000000E-01      1.717813000000000E+02
4890000000.000000      4.115448000000000E-01      2.871777000000000E+01      3.476563000000000E-01      1.709844000000000E+02
4891000000.000000      4.123535000000000E-01      2.854980000000000E+01      3.451233000000000E-01      1.705781000000000E+02
4892000000.000000      4.107971000000000E-01      2.826562000000000E+01      3.418121000000000E-01      1.705000000000000E+02
4893000000.000000      4.124908000000000E-01      2.797754000000000E+01      3.370209000000000E-01      1.697813000000000E+02
4894000000.000000      4.120636000000000E-01      2.781933000000000E+01      3.355865000000000E-01      1.692266000000000E+02
4895000000.000000      4.124908000000000E-01      2.760254000000000E+01      3.311768000000000E-01      1.690234000000000E+02
4896000000.000000      4.115601000000000E-01      2.733887000000000E+01      3.284912000000000E-01      1.686953000000000E+02
4897000000.000000      4.113617000000000E-01      2.719043000000000E+01      3.239746000000000E-01      1.682344000000000E+02
4898000000.000000      4.111786000000000E-01      2.697363000000000E+01      3.212738000000000E-01      1.677813000000000E+02
4899000000.000000      4.112701000000000E-01      2.691504000000000E+01      3.177948000000000E-01      1.672266000000000E+02
4900000000.000000      4.116821000000000E-01      2.653515000000000E+01      3.150787000000000E-01      1.668516000000000E+02
4901000000.000000      4.120789000000000E-01      2.635156000000000E+01      3.104401000000000E-01      1.665937000000000E+02
4902000000.000000      4.120789000000000E-01      2.616113000000000E+01      3.078461000000000E-01      1.662188000000000E+02
4903000000.000000      4.109650000000000E-01      2.601563000000000E+01      3.036957000000000E-01      1.657891000000000E+02
4904000000.000000      4.112549000000000E-01      2.575000000000000E+01      3.008881000000000E-01      1.653750000000000E+02
4905000000.000000      4.105072000000000E-01      2.554394000000000E+01      2.985535000000000E-01      1.647969000000000E+02
4906000000.000000      4.114227000000000E-01      2.518750000000000E+01      2.941895000000000E-01      1.647578000000000E+02
4907000000.000000      4.105072000000000E-01      2.517773000000000E+01      2.909393000000000E-01      1.643203000000000E+02
4908000000.000000      4.112244000000000E-01      2.486328000000000E+01      2.875519000000000E-01      1.637344000000000E+02
4909000000.000000      4.094696000000000E-01      2.470410000000000E+01      2.840576000000000E-01      1.633359000000000E+02
4910000000.000000      4.096069000000000E-01      2.471289000000000E+01      2.799072000000000E-01      1.630703000000000E+02
4911000000.000000      4.096222000000000E-01      2.444921000000000E+01      2.762756000000000E-01      1.627187000000000E+02
4912000000.000000      4.082031000000000E-01      2.439453000000000E+01      2.735901000000000E-01      1.622187000000000E+02
4913000000.000000      4.099731000000000E-01      2.414160000000000E+01      2.705536000000000E-01      1.618984000000000E+02
4914000000.000000      4.096985000000000E-01      2.377246000000000E+01      2.668610000000000E-01      1.617422000000000E+02
4915000000.000000      4.092560000000000E-01      2.367383000000000E+01      2.629395000000000E-01      1.612266000000000E+02
4916000000.000000      4.088745000000000E-01      2.356543000000000E+01      2.598419000000000E-01      1.610000000000000E+02
4917000000.000000      4.083862000000000E-01      2.333887000000000E+01      2.555847000000000E-01      1.605469000000000E+02
4918000000.000000      4.077301000000000E-01      2.320117000000000E+01      2.516785000000000E-01      1.602266000000000E+02
4919000000.000000      4.077606000000000E-01      2.299511000000000E+01      2.488251000000000E-01      1.601250000000000E+02
4920000000.000000      4.088898000000000E-01      2.282129000000000E+01      2.444000000000000E-01      1.595234000000000E+02
4921000000.000000      4.076538000000000E-01      2.278223000000000E+01      2.408829000000000E-01      1.593750000000000E+02
4922000000.000000      4.082794000000000E-01      2.257910000000000E+01      2.368240000000000E-01      1.592344000000000E+02
4923000000.000000      4.070740000000000E-01      2.234668000000000E+01      2.329636000000000E-01      1.590234000000000E+02
4924000000.000000      4.072723000000000E-01      2.209961000000000E+01      2.285385000000000E-01      1.586172000000000E+02
4925000000.000000      4.056091000000000E-01      2.191016000000000E+01      2.254028000000000E-01      1.584609000000000E+02
4926000000.000000      4.066925000000000E-01      2.191016000000000E+01      2.216187000000000E-01      1.582344000000000E+02
4927000000.000000      4.068146000000000E-01      2.163867000000000E+01      2.174988000000000E-01      1.579922000000000E+02
4928000000.000000      4.071655000000000E-01      2.134277000000000E+01      2.138748000000000E-01      1.578281000000000E+02
4929000000.000000      4.058075000000000E-01      2.142285000000000E+01      2.095490000000000E-01      1.576172000000000E+02
4930000000.000000      4.062805000000000E-01      2.116504000000000E+01      2.054367000000000E-01      1.577734000000000E+02
4931000000.000000      4.057312000000000E-01      2.097656000000000E+01      2.023773000000000E-01      1.575938000000000E+02
4932000000.000000      4.055939000000000E-01      2.085156000000000E+01      1.983719000000000E-01      1.574687000000000E+02
4933000000.000000      4.051666000000000E-01      2.063477000000000E+01      1.935043000000000E-01      1.576015000000000E+02
4934000000.000000      4.057312000000000E-01      2.048926000000000E+01      1.899261000000000E-01      1.575078000000000E+02
4935000000.000000      4.057007000000000E-01      2.029297000000000E+01      1.862411000000000E-01      1.577812000000000E+02
4936000000.000000      4.035797000000000E-01      2.013574000000000E+01      1.820450000000000E-01      1.578281000000000E+02
4937000000.000000      4.046021000000000E-01      1.997266000000000E+01      1.782455000000000E-01      1.580078000000000E+02
4938000000.000000      4.033356000000000E-01      1.988183000000000E+01      1.748962000000000E-01      1.582500000000000E+02
4939000000.000000      4.035645000000000E-01      1.970508000000000E+01      1.700516000000000E-01      1.584687000000000E+02
4940000000.000000      4.038544000000000E-01      1.958789000000000E+01      1.665421000000000E-01      1.586406000000000E+02
4941000000.000000      4.029999000000000E-01      1.936035000000000E+01      1.631317000000000E-01      1.591094000000000E+02
4942000000.000000      4.025269000000000E-01      1.923144000000000E+01      1.591721000000000E-01      1.595078000000000E+02
4943000000.000000      4.036102000000000E-01      1.904199000000000E+01      1.561432000000000E-01      1.598750000000000E+02
4944000000.000000      4.020844000000000E-01      1.894140000000000E+01      1.523972000000000E-01      1.604297000000000E+02
4945000000.000000      4.012451000000000E-01      1.857715000000000E+01      1.484909000000000E-01      1.611250000000000E+02
4946000000.000000      4.020996000000000E-01      1.858105000000000E+01      1.448822000000000E-01      1.619141000000000E+02
4947000000.000000      4.020996000000000E-01      1.838965000000000E+01      1.416168000000000E-01      1.626172000000000E+02
4948000000.000000      4.020386000000000E-01      1.832520000000000E+01      1.385422000000000E-01      1.632344000000000E+02
4949000000.000000      4.015503000000000E-01      1.808594000000000E+01      1.359329000000000E-01      1.647031000000000E+02
4950000000.000000      4.010773000000000E-01      1.800781000000000E+01      1.325760000000000E-01      1.653594000000000E+02
4951000000.000000      4.019775000000000E-01      1.776269000000000E+01      1.295395000000000E-01      1.663594000000000E+02
4952000000.000000      4.007111000000000E-01      1.764355000000000E+01      1.269302000000000E-01      1.674531000000000E+02
4953000000.000000      4.000244000000000E-01      1.750879000000000E+01      1.243439000000000E-01      1.689062000000000E+02
4954000000.000000      3.995209000000000E-01      1.725195000000000E+01      1.219215000000000E-01      1.702188000000000E+02
