! Network Analyzer HP8722D
! Hewlett-Packard
! Data name: Linha & Wilkinson
! Saver's name: Rodrigo Anjos
! Comments: Teste da utilização de aquisição
continua pelo VNA HP8722D
! Time and date: 23/5/2025 08:58
!              Frequency                     S11                                                   S21                                                   S12                                                   S22
# HZ  S  MA R 50
4800000000.000000      3.421631000000000E-01      3.458203000000000E+01      4.559021000000000E-01     -1.255937000000000E+02
4801000000.000000      3.429718000000000E-01      3.482226000000000E+01      4.561310000000000E-01     -1.264180000000000E+02
4802000000.000000      3.435059000000000E-01      3.489648000000000E+01      4.596405000000000E-01     -1.266836000000000E+02
4803000000.000000      3.442383000000000E-01      3.512304000000000E+01      4.623718000000000E-01     -1.276719000000000E+02
4804000000.000000      3.451385000000000E-01      3.521484000000000E+01      4.619598000000000E-01     -1.284609000000000E+02
4805000000.000000      3.465729000000000E-01      3.541016000000000E+01      4.641418000000000E-01     -1.291484000000000E+02
4806000000.000000      3.460083000000000E-01      3.549609000000000E+01      4.648743000000000E-01     -1.299297000000000E+02
4807000000.000000      3.472595000000000E-01      3.567968000000000E+01      4.658813000000000E-01     -1.306797000000000E+02
4808000000.000000      3.478699000000000E-01      3.584179000000000E+01      4.676819000000000E-01     -1.312422000000000E+02
4809000000.000000      3.498230000000000E-01      3.605859000000000E+01      4.691620000000000E-01     -1.321719000000000E+02
4810000000.000000      3.506775000000000E-01      3.620508000000000E+01      4.702759000000000E-01     -1.326562000000000E+02
4811000000.000000      3.524323000000000E-01      3.638476000000000E+01      4.716339000000000E-01     -1.335000000000000E+02
4812000000.000000      3.535004000000000E-01      3.651953000000000E+01      4.728546000000000E-01     -1.343672000000000E+02
4813000000.000000      3.542175000000000E-01      3.658789000000000E+01      4.731903000000000E-01     -1.350469000000000E+02
4814000000.000000      3.550262000000000E-01      3.664453000000000E+01      4.730072000000000E-01     -1.358203000000000E+02
4815000000.000000      3.562164000000000E-01      3.679688000000000E+01      4.730835000000000E-01     -1.364531000000000E+02
4816000000.000000      3.587646000000000E-01      3.687695000000000E+01      4.754486000000000E-01     -1.372109000000000E+02
4817000000.000000      3.591461000000000E-01      3.703125000000000E+01      4.745178000000000E-01     -1.380000000000000E+02
4818000000.000000      3.607330000000000E-01      3.702929000000000E+01      4.748230000000000E-01     -1.387656000000000E+02
4819000000.000000      3.628693000000000E-01      3.717773000000000E+01      4.759216000000000E-01     -1.394063000000000E+02
4820000000.000000      3.630066000000000E-01      3.727930000000000E+01      4.756012000000000E-01     -1.399922000000000E+02
4821000000.000000      3.655090000000000E-01      3.725586000000000E+01      4.760590000000000E-01     -1.409375000000000E+02
4822000000.000000      3.665924000000000E-01      3.721094000000000E+01      4.761200000000000E-01     -1.415390000000000E+02
4823000000.000000      3.683929000000000E-01      3.728906000000000E+01      4.763489000000000E-01     -1.423828000000000E+02
4824000000.000000      3.697510000000000E-01      3.741015000000000E+01      4.762115000000000E-01     -1.431484000000000E+02
4825000000.000000      3.699646000000000E-01      3.739062000000000E+01      4.750214000000000E-01     -1.438437000000000E+02
4826000000.000000      3.718872000000000E-01      3.735352000000000E+01      4.763031000000000E-01     -1.446797000000000E+02
4827000000.000000      3.737640000000000E-01      3.742773000000000E+01      4.754181000000000E-01     -1.451797000000000E+02
4828000000.000000      3.759003000000000E-01      3.742578000000000E+01      4.768219000000000E-01     -1.459375000000000E+02
4829000000.000000      3.773041000000000E-01      3.750586000000000E+01      4.739685000000000E-01     -1.467109000000000E+02
4830000000.000000      3.780518000000000E-01      3.742578000000000E+01      4.748077000000000E-01     -1.475234000000000E+02
4831000000.000000      3.793182000000000E-01      3.727930000000000E+01      4.740906000000000E-01     -1.482969000000000E+02
4832000000.000000      3.812561000000000E-01      3.744531000000000E+01      4.734802000000000E-01     -1.488594000000000E+02
4833000000.000000      3.823853000000000E-01      3.733203000000000E+01      4.722748000000000E-01     -1.495078000000000E+02
4834000000.000000      3.843689000000000E-01      3.719727000000000E+01      4.715881000000000E-01     -1.502656000000000E+02
4835000000.000000      3.866730000000000E-01      3.715820000000000E+01      4.722595000000000E-01     -1.511797000000000E+02
4836000000.000000      3.880615000000000E-01      3.713086000000000E+01      4.707336000000000E-01     -1.517422000000000E+02
4837000000.000000      3.892059000000000E-01      3.721094000000000E+01      4.692230000000000E-01     -1.526719000000000E+02
4838000000.000000      3.900299000000000E-01      3.701172000000000E+01      4.684601000000000E-01     -1.530781000000000E+02
4839000000.000000      3.937225000000000E-01      3.697266000000000E+01      4.670563000000000E-01     -1.538828000000000E+02
4840000000.000000      3.941650000000000E-01      3.679688000000000E+01      4.676666000000000E-01     -1.545469000000000E+02
4841000000.000000      3.961182000000000E-01      3.672852000000000E+01      4.661865000000000E-01     -1.554922000000000E+02
4842000000.000000      3.971405000000000E-01      3.654297000000000E+01      4.651184000000000E-01     -1.562344000000000E+02
4843000000.000000      3.998871000000000E-01      3.641992000000000E+01      4.647827000000000E-01     -1.566719000000000E+02
4844000000.000000      3.999939000000000E-01      3.628906000000000E+01      4.628296000000000E-01     -1.574531000000000E+02
4845000000.000000      4.017029000000000E-01      3.630273000000000E+01      4.609222000000000E-01     -1.581875000000000E+02
4846000000.000000      4.037933000000000E-01      3.609766000000000E+01      4.595184000000000E-01     -1.589297000000000E+02
4847000000.000000      4.053497000000000E-01      3.609179000000000E+01      4.585876000000000E-01     -1.594687000000000E+02
4848000000.000000      4.058380000000000E-01      3.587305000000000E+01      4.560089000000000E-01     -1.603281000000000E+02
4849000000.000000      4.071503000000000E-01      3.562304000000000E+01      4.537659000000000E-01     -1.612500000000000E+02
4850000000.000000      4.086456000000000E-01      3.551758000000000E+01      4.519806000000000E-01     -1.618438000000000E+02
4851000000.000000      4.102020000000000E-01      3.549414000000000E+01      4.526367000000000E-01     -1.625391000000000E+02
4852000000.000000      4.118347000000000E-01      3.525391000000000E+01      4.488678000000000E-01     -1.631406000000000E+02
4853000000.000000      4.133606000000000E-01      3.512695000000000E+01      4.469452000000000E-01     -1.639453000000000E+02
4854000000.000000      4.145050000000000E-01      3.491211000000000E+01      4.444275000000000E-01     -1.647500000000000E+02
4855000000.000000      4.158173000000000E-01      3.476563000000000E+01      4.425507000000000E-01     -1.654609000000000E+02
4856000000.000000      4.160309000000000E-01      3.459570000000000E+01      4.416351000000000E-01     -1.661172000000000E+02
4857000000.000000      4.178314000000000E-01      3.452343000000000E+01      4.396667000000000E-01     -1.667578000000000E+02
4858000000.000000      4.186096000000000E-01      3.411523000000000E+01      4.368744000000000E-01     -1.674766000000000E+02
4859000000.000000      4.193573000000000E-01      3.394726000000000E+01      4.360046000000000E-01     -1.682188000000000E+02
4860000000.000000      4.215546000000000E-01      3.386523000000000E+01      4.331970000000000E-01     -1.689375000000000E+02
4861000000.000000      4.220276000000000E-01      3.367188000000000E+01      4.294891000000000E-01     -1.697578000000000E+02
4862000000.000000      4.227142000000000E-01      3.344531000000000E+01      4.278870000000000E-01     -1.702812000000000E+02
4863000000.000000      4.236298000000000E-01      3.323633000000000E+01      4.240112000000000E-01     -1.710703000000000E+02
4864000000.000000      4.252472000000000E-01      3.295703000000000E+01      4.221039000000000E-01     -1.716563000000000E+02
4865000000.000000      4.252319000000000E-01      3.284961000000000E+01      4.189758000000000E-01     -1.723047000000000E+02
4866000000.000000      4.272614000000000E-01      3.254492000000000E+01      4.171448000000000E-01     -1.730937000000000E+02
4867000000.000000      4.265289000000000E-01      3.241211000000000E+01      4.133606000000000E-01     -1.738672000000000E+02
4868000000.000000      4.289551000000000E-01      3.216797000000000E+01      4.109802000000000E-01     -1.745078000000000E+02
4869000000.000000      4.292297000000000E-01      3.210742000000000E+01      4.077606000000000E-01     -1.751094000000000E+02
4870000000.000000      4.305878000000000E-01      3.188086000000000E+01      4.035339000000000E-01     -1.756250000000000E+02
4871000000.000000      4.304047000000000E-01      3.152734000000000E+01      4.005280000000000E-01     -1.765234000000000E+02
4872000000.000000      4.324951000000000E-01      3.144336000000000E+01      3.962097000000000E-01     -1.769297000000000E+02
4873000000.000000      4.326324000000000E-01      3.127050000000000E+01      3.946686000000000E-01     -1.777187000000000E+02
4874000000.000000      4.324799000000000E-01      3.097949000000000E+01      3.905334000000000E-01     -1.784219000000000E+02
4875000000.000000      4.336548000000000E-01      3.065820000000000E+01      3.883362000000000E-01     -1.788359000000000E+02
4876000000.000000      4.344177000000000E-01      3.067773000000000E+01      3.839111000000000E-01     -1.793672000000000E+02
4877000000.000000      4.352264000000000E-01      3.020801000000000E+01      3.815918000000000E-01      1.798047000000000E+02
4878000000.000000      4.355469000000000E-01      3.014648000000000E+01      3.773193000000000E-01      1.792734000000000E+02
4879000000.000000      4.366302000000000E-01      2.998242000000000E+01      3.729706000000000E-01      1.787812000000000E+02
4880000000.000000      4.368896000000000E-01      2.964746000000000E+01      3.711090000000000E-01      1.780703000000000E+02
4881000000.000000      4.371643000000000E-01      2.952637000000000E+01      3.673553000000000E-01      1.777187000000000E+02
4882000000.000000      4.381714000000000E-01      2.927832000000000E+01      3.645325000000000E-01      1.771563000000000E+02
4883000000.000000      4.377136000000000E-01      2.903125000000000E+01      3.597565000000000E-01      1.765781000000000E+02
4884000000.000000      4.385681000000000E-01      2.898438000000000E+01      3.565216000000000E-01      1.758437000000000E+02
4885000000.000000      4.392090000000000E-01      2.875586000000000E+01      3.533630000000000E-01      1.757422000000000E+02
4886000000.000000      4.389343000000000E-01      2.854297000000000E+01      3.501434000000000E-01      1.750859000000000E+02
4887000000.000000      4.395142000000000E-01      2.829785000000000E+01      3.466797000000000E-01      1.746562000000000E+02
4888000000.000000      4.390564000000000E-01      2.795703000000000E+01      3.438568000000000E-01      1.739219000000000E+02
4889000000.000000      4.397278000000000E-01      2.787500000000000E+01      3.389130000000000E-01      1.736016000000000E+02
4890000000.000000      4.401855000000000E-01      2.757226000000000E+01      3.357239000000000E-01      1.727109000000000E+02
4891000000.000000      4.407196000000000E-01      2.735449000000000E+01      3.316650000000000E-01      1.726484000000000E+02
4892000000.000000      4.393005000000000E-01      2.734179000000000E+01      3.288879000000000E-01      1.724141000000000E+02
4893000000.000000      4.414368000000000E-01      2.695313000000000E+01      3.256226000000000E-01      1.717734000000000E+02
4894000000.000000      4.401398000000000E-01      2.687500000000000E+01      3.216553000000000E-01      1.713984000000000E+02
4895000000.000000      4.415588000000000E-01      2.654394000000000E+01      3.197327000000000E-01      1.710781000000000E+02
4896000000.000000      4.417114000000000E-01      2.647558000000000E+01      3.162231000000000E-01      1.706328000000000E+02
4897000000.000000      4.405975000000000E-01      2.622754000000000E+01      3.120270000000000E-01      1.701094000000000E+02
4898000000.000000      4.395294000000000E-01      2.617188000000000E+01      3.095703000000000E-01      1.699141000000000E+02
4899000000.000000      4.396820000000000E-01      2.580371000000000E+01      3.059540000000000E-01      1.692188000000000E+02
4900000000.000000      4.403076000000000E-01      2.536426000000000E+01      3.029327000000000E-01      1.688906000000000E+02
4901000000.000000      4.409332000000000E-01      2.540039000000000E+01      2.995911000000000E-01      1.685000000000000E+02
4902000000.000000      4.405975000000000E-01      2.523242000000000E+01      2.958984000000000E-01      1.682031000000000E+02
4903000000.000000      4.419098000000000E-01      2.525293000000000E+01      2.921448000000000E-01      1.678828000000000E+02
4904000000.000000      4.401855000000000E-01      2.488379000000000E+01      2.891846000000000E-01      1.671875000000000E+02
4905000000.000000      4.408417000000000E-01      2.472656000000000E+01      2.858887000000000E-01      1.670234000000000E+02
4906000000.000000      4.394684000000000E-01      2.457715000000000E+01      2.824860000000000E-01      1.668828000000000E+02
4907000000.000000      4.401245000000000E-01      2.430273000000000E+01      2.800598000000000E-01      1.662266000000000E+02
4908000000.000000      4.388580000000000E-01      2.412012000000000E+01      2.766724000000000E-01      1.659219000000000E+02
4909000000.000000      4.395599000000000E-01      2.422754000000000E+01      2.725830000000000E-01      1.654766000000000E+02
4910000000.000000      4.390106000000000E-01      2.386230000000000E+01      2.695465000000000E-01      1.650156000000000E+02
4911000000.000000      4.408722000000000E-01      2.373047000000000E+01      2.658691000000000E-01      1.647500000000000E+02
4912000000.000000      4.404297000000000E-01      2.354199000000000E+01      2.628632000000000E-01      1.643984000000000E+02
4913000000.000000      4.398041000000000E-01      2.322168000000000E+01      2.595978000000000E-01      1.641250000000000E+02
4914000000.000000      4.388123000000000E-01      2.306250000000000E+01      2.556763000000000E-01      1.638906000000000E+02
4915000000.000000      4.394531000000000E-01      2.304297000000000E+01      2.522583000000000E-01      1.633203000000000E+02
4916000000.000000      4.389496000000000E-01      2.280859000000000E+01      2.485733000000000E-01      1.628594000000000E+02
4917000000.000000      4.384003000000000E-01      2.267773000000000E+01      2.451859000000000E-01      1.628750000000000E+02
4918000000.000000      4.385376000000000E-01      2.253613000000000E+01      2.409973000000000E-01      1.625000000000000E+02
4919000000.000000      4.359283000000000E-01      2.253516000000000E+01      2.384949000000000E-01      1.623359000000000E+02
4920000000.000000      4.395447000000000E-01      2.227734000000000E+01      2.343140000000000E-01      1.618281000000000E+02
4921000000.000000      4.364166000000000E-01      2.216309000000000E+01      2.311020000000000E-01      1.616641000000000E+02
4922000000.000000      4.386292000000000E-01      2.221777000000000E+01      2.271881000000000E-01      1.613437000000000E+02
4923000000.000000      4.373627000000000E-01      2.187012000000000E+01      2.230835000000000E-01      1.611953000000000E+02
4924000000.000000      4.381866000000000E-01      2.163672000000000E+01      2.197952000000000E-01      1.607188000000000E+02
4925000000.000000      4.375458000000000E-01      2.140137000000000E+01      2.159271000000000E-01      1.607891000000000E+02
4926000000.000000      4.365845000000000E-01      2.150683000000000E+01      2.129211000000000E-01      1.603984000000000E+02
4927000000.000000      4.374084000000000E-01      2.123242000000000E+01      2.081146000000000E-01      1.602734000000000E+02
4928000000.000000      4.373322000000000E-01      2.093164000000000E+01      2.048798000000000E-01      1.601250000000000E+02
4929000000.000000      4.361877000000000E-01      2.099707000000000E+01      2.006531000000000E-01      1.601016000000000E+02
4930000000.000000      4.360352000000000E-01      2.073437000000000E+01      1.972427000000000E-01      1.599688000000000E+02
4931000000.000000      4.366608000000000E-01      2.045996000000000E+01      1.939621000000000E-01      1.599844000000000E+02
4932000000.000000      4.352112000000000E-01      2.042285000000000E+01      1.892776000000000E-01      1.598672000000000E+02
4933000000.000000      4.353485000000000E-01      2.035547000000000E+01      1.848907000000000E-01      1.601641000000000E+02
4934000000.000000      4.375763000000000E-01      2.005664000000000E+01      1.816711000000000E-01      1.599141000000000E+02
4935000000.000000      4.370117000000000E-01      2.005078000000000E+01      1.785507000000000E-01      1.602656000000000E+02
4936000000.000000      4.357758000000000E-01      1.982812000000000E+01      1.741562000000000E-01      1.601797000000000E+02
4937000000.000000      4.359589000000000E-01      1.949512000000000E+01      1.707535000000000E-01      1.604922000000000E+02
4938000000.000000      4.346161000000000E-01      1.943848000000000E+01      1.670532000000000E-01      1.605703000000000E+02
4939000000.000000      4.362183000000000E-01      1.952637000000000E+01      1.635132000000000E-01      1.606641000000000E+02
4940000000.000000      4.364471000000000E-01      1.949512000000000E+01      1.594849000000000E-01      1.609922000000000E+02
4941000000.000000      4.352570000000000E-01      1.908301000000000E+01      1.560364000000000E-01      1.614141000000000E+02
4942000000.000000      4.333954000000000E-01      1.911133000000000E+01      1.525955000000000E-01      1.618984000000000E+02
4943000000.000000      4.339447000000000E-01      1.903906000000000E+01      1.489792000000000E-01      1.623516000000000E+02
4944000000.000000      4.342499000000000E-01      1.864648000000000E+01      1.459045000000000E-01      1.630078000000000E+02
4945000000.000000      4.344025000000000E-01      1.833887000000000E+01      1.417618000000000E-01      1.636562000000000E+02
4946000000.000000      4.352264000000000E-01      1.826953000000000E+01      1.387405000000000E-01      1.643594000000000E+02
4947000000.000000      4.328156000000000E-01      1.821777000000000E+01      1.355209000000000E-01      1.651719000000000E+02
4948000000.000000      4.329224000000000E-01      1.804688000000000E+01      1.326981000000000E-01      1.659375000000000E+02
4949000000.000000      4.326782000000000E-01      1.786035000000000E+01      1.297226000000000E-01      1.671328000000000E+02
4950000000.000000      4.330597000000000E-01      1.794726000000000E+01      1.268005000000000E-01      1.678672000000000E+02
4951000000.000000      4.334259000000000E-01      1.769043000000000E+01      1.241302000000000E-01      1.688828000000000E+02
4952000000.000000      4.309235000000000E-01      1.751172000000000E+01      1.212730000000000E-01      1.703125000000000E+02
4953000000.000000      4.325104000000000E-01      1.743164000000000E+01      1.192474000000000E-01      1.716016000000000E+02
4954000000.000000      4.303589000000000E-01      1.728808000000000E+01      1.168556000000000E-01      1.730469000000000E+02
