! Network Analyzer HP8722D
! Hewlett-Packard
! Data name: Linha & Wilkinson
! Saver's name: Rodrigo Anjos
! Comments: Teste da utilização de aquisição
continua pelo VNA HP8722D
! Time and date: 23/5/2025 09:39
!              Frequency                     S11                                                   S21                                                   S12                                                   S22
# HZ  S  MA R 50
4800000000.000000      3.183899000000000E-01      3.659570000000000E+01      4.682617000000000E-01     -1.275547000000000E+02
4801000000.000000      3.192444000000000E-01      3.686328000000000E+01      4.697571000000000E-01     -1.281719000000000E+02
4802000000.000000      3.203583000000000E-01      3.708008000000000E+01      4.698792000000000E-01     -1.289922000000000E+02
4803000000.000000      3.214569000000000E-01      3.719922000000000E+01      4.743805000000000E-01     -1.296172000000000E+02
4804000000.000000      3.218994000000000E-01      3.750977000000000E+01      4.737854000000000E-01     -1.302813000000000E+02
4805000000.000000      3.239136000000000E-01      3.751953000000000E+01      4.757080000000000E-01     -1.312187000000000E+02
4806000000.000000      3.242340000000000E-01      3.775000000000000E+01      4.766998000000000E-01     -1.316015000000000E+02
4807000000.000000      3.253326000000000E-01      3.784765000000000E+01      4.776306000000000E-01     -1.327734000000000E+02
4808000000.000000      3.255615000000000E-01      3.812500000000000E+01      4.803772000000000E-01     -1.332422000000000E+02
4809000000.000000      3.275146000000000E-01      3.832226000000000E+01      4.804688000000000E-01     -1.340703000000000E+02
4810000000.000000      3.284760000000000E-01      3.839258000000000E+01      4.817047000000000E-01     -1.346797000000000E+02
4811000000.000000      3.306122000000000E-01      3.857226000000000E+01      4.827118000000000E-01     -1.355391000000000E+02
4812000000.000000      3.325043000000000E-01      3.865625000000000E+01      4.835358000000000E-01     -1.363672000000000E+02
4813000000.000000      3.330078000000000E-01      3.889843000000000E+01      4.843750000000000E-01     -1.371094000000000E+02
4814000000.000000      3.339386000000000E-01      3.882813000000000E+01      4.850311000000000E-01     -1.378359000000000E+02
4815000000.000000      3.353271000000000E-01      3.897656000000000E+01      4.849091000000000E-01     -1.385781000000000E+02
4816000000.000000      3.377380000000000E-01      3.911914000000000E+01      4.865417000000000E-01     -1.392578000000000E+02
4817000000.000000      3.381653000000000E-01      3.921484000000000E+01      4.858093000000000E-01     -1.399375000000000E+02
4818000000.000000      3.401031000000000E-01      3.914648000000000E+01      4.875641000000000E-01     -1.407109000000000E+02
4819000000.000000      3.416138000000000E-01      3.926953000000000E+01      4.865417000000000E-01     -1.413984000000000E+02
4820000000.000000      3.426208000000000E-01      3.933789000000000E+01      4.868011000000000E-01     -1.421172000000000E+02
4821000000.000000      3.455658000000000E-01      3.937500000000000E+01      4.882355000000000E-01     -1.428828000000000E+02
4822000000.000000      3.458099000000000E-01      3.931445000000000E+01      4.865723000000000E-01     -1.437031000000000E+02
4823000000.000000      3.479462000000000E-01      3.941797000000000E+01      4.882050000000000E-01     -1.443203000000000E+02
4824000000.000000      3.494720000000000E-01      3.954102000000000E+01      4.881134000000000E-01     -1.450469000000000E+02
4825000000.000000      3.509979000000000E-01      3.936328000000000E+01      4.873657000000000E-01     -1.456563000000000E+02
4826000000.000000      3.527069000000000E-01      3.936523000000000E+01      4.874573000000000E-01     -1.465703000000000E+02
4827000000.000000      3.544769000000000E-01      3.947656000000000E+01      4.875336000000000E-01     -1.472500000000000E+02
4828000000.000000      3.570251000000000E-01      3.938672000000000E+01      4.876709000000000E-01     -1.479375000000000E+02
4829000000.000000      3.581848000000000E-01      3.948047000000000E+01      4.859314000000000E-01     -1.486875000000000E+02
4830000000.000000      3.598022000000000E-01      3.931250000000000E+01      4.852448000000000E-01     -1.495547000000000E+02
4831000000.000000      3.609314000000000E-01      3.930273000000000E+01      4.852753000000000E-01     -1.501562000000000E+02
4832000000.000000      3.632202000000000E-01      3.935547000000000E+01      4.837189000000000E-01     -1.506484000000000E+02
4833000000.000000      3.637543000000000E-01      3.916992000000000E+01      4.831390000000000E-01     -1.515156000000000E+02
4834000000.000000      3.657227000000000E-01      3.914648000000000E+01      4.835358000000000E-01     -1.522891000000000E+02
4835000000.000000      3.678589000000000E-01      3.892969000000000E+01      4.820862000000000E-01     -1.530313000000000E+02
4836000000.000000      3.699799000000000E-01      3.897656000000000E+01      4.804840000000000E-01     -1.537500000000000E+02
4837000000.000000      3.709106000000000E-01      3.896679000000000E+01      4.799652000000000E-01     -1.545547000000000E+02
4838000000.000000      3.722229000000000E-01      3.871484000000000E+01      4.796600000000000E-01     -1.551016000000000E+02
4839000000.000000      3.757935000000000E-01      3.870703000000000E+01      4.775543000000000E-01     -1.558359000000000E+02
4840000000.000000      3.768005000000000E-01      3.840234000000000E+01      4.775391000000000E-01     -1.564922000000000E+02
4841000000.000000      3.786163000000000E-01      3.853125000000000E+01      4.765472000000000E-01     -1.572656000000000E+02
4842000000.000000      3.791962000000000E-01      3.832617000000000E+01      4.753113000000000E-01     -1.578516000000000E+02
4843000000.000000      3.819885000000000E-01      3.805664000000000E+01      4.742279000000000E-01     -1.587812000000000E+02
4844000000.000000      3.826904000000000E-01      3.794531000000000E+01      4.729614000000000E-01     -1.594141000000000E+02
4845000000.000000      3.840942000000000E-01      3.783008000000000E+01      4.704895000000000E-01     -1.601563000000000E+02
4846000000.000000      3.859863000000000E-01      3.765234000000000E+01      4.702911000000000E-01     -1.609375000000000E+02
4847000000.000000      3.875122000000000E-01      3.761133000000000E+01      4.687805000000000E-01     -1.616875000000000E+02
4848000000.000000      3.879395000000000E-01      3.732422000000000E+01      4.647675000000000E-01     -1.622578000000000E+02
4849000000.000000      3.899841000000000E-01      3.704102000000000E+01      4.647217000000000E-01     -1.629844000000000E+02
4850000000.000000      3.910980000000000E-01      3.699023000000000E+01      4.628448000000000E-01     -1.636406000000000E+02
4851000000.000000      3.926849000000000E-01      3.687109000000000E+01      4.618073000000000E-01     -1.643828000000000E+02
4852000000.000000      3.941803000000000E-01      3.665625000000000E+01      4.601288000000000E-01     -1.650156000000000E+02
4853000000.000000      3.959503000000000E-01      3.648828000000000E+01      4.557190000000000E-01     -1.658984000000000E+02
4854000000.000000      3.966675000000000E-01      3.623632000000000E+01      4.545746000000000E-01     -1.666016000000000E+02
4855000000.000000      3.972473000000000E-01      3.608203000000000E+01      4.521637000000000E-01     -1.673203000000000E+02
4856000000.000000      3.980560000000000E-01      3.588476000000000E+01      4.501495000000000E-01     -1.678906000000000E+02
4857000000.000000      3.999939000000000E-01      3.566406000000000E+01      4.505005000000000E-01     -1.684922000000000E+02
4858000000.000000      4.009705000000000E-01      3.538671000000000E+01      4.473419000000000E-01     -1.692812000000000E+02
4859000000.000000      4.018860000000000E-01      3.524609000000000E+01      4.458923000000000E-01     -1.700859000000000E+02
4860000000.000000      4.029846000000000E-01      3.505078000000000E+01      4.410400000000000E-01     -1.707422000000000E+02
4861000000.000000      4.042816000000000E-01      3.487695000000000E+01      4.400177000000000E-01     -1.714766000000000E+02
4862000000.000000      4.045105000000000E-01      3.466601000000000E+01      4.376068000000000E-01     -1.721094000000000E+02
4863000000.000000      4.062195000000000E-01      3.441601000000000E+01      4.331818000000000E-01     -1.729766000000000E+02
4864000000.000000      4.072113000000000E-01      3.416992000000000E+01      4.320526000000000E-01     -1.734375000000000E+02
4865000000.000000      4.075775000000000E-01      3.393945000000000E+01      4.278717000000000E-01     -1.741797000000000E+02
4866000000.000000      4.091034000000000E-01      3.370703000000000E+01      4.239655000000000E-01     -1.748125000000000E+02
4867000000.000000      4.091187000000000E-01      3.350000000000000E+01      4.222717000000000E-01     -1.757031000000000E+02
4868000000.000000      4.104156000000000E-01      3.325000000000000E+01      4.189758000000000E-01     -1.762031000000000E+02
4869000000.000000      4.122314000000000E-01      3.303711000000000E+01      4.149628000000000E-01     -1.768359000000000E+02
4870000000.000000      4.123688000000000E-01      3.282422000000000E+01      4.131317000000000E-01     -1.772266000000000E+02
4871000000.000000      4.128723000000000E-01      3.248632000000000E+01      4.088440000000000E-01     -1.781406000000000E+02
4872000000.000000      4.139252000000000E-01      3.244922000000000E+01      4.051666000000000E-01     -1.787109000000000E+02
4873000000.000000      4.136353000000000E-01      3.210742000000000E+01      4.034576000000000E-01     -1.795000000000000E+02
4874000000.000000      4.146423000000000E-01      3.193359000000000E+01      3.998566000000000E-01     -1.799297000000000E+02
4875000000.000000      4.145050000000000E-01      3.171679000000000E+01      3.948975000000000E-01      1.797344000000000E+02
4876000000.000000      4.155273000000000E-01      3.162500000000000E+01      3.916168000000000E-01      1.788359000000000E+02
4877000000.000000      4.168396000000000E-01      3.114746000000000E+01      3.884583000000000E-01      1.782891000000000E+02
4878000000.000000      4.168243000000000E-01      3.087402000000000E+01      3.856506000000000E-01      1.778203000000000E+02
4879000000.000000      4.169769000000000E-01      3.066504000000000E+01      3.814697000000000E-01      1.772812000000000E+02
4880000000.000000      4.182281000000000E-01      3.052539000000000E+01      3.796539000000000E-01      1.766016000000000E+02
4881000000.000000      4.176331000000000E-01      3.015722000000000E+01      3.757019000000000E-01      1.762969000000000E+02
4882000000.000000      4.182434000000000E-01      3.019043000000000E+01      3.724213000000000E-01      1.754219000000000E+02
4883000000.000000      4.186249000000000E-01      2.972949000000000E+01      3.677673000000000E-01      1.748906000000000E+02
4884000000.000000      4.190521000000000E-01      2.968750000000000E+01      3.654785000000000E-01      1.744922000000000E+02
4885000000.000000      4.196014000000000E-01      2.936718000000000E+01      3.607330000000000E-01      1.740625000000000E+02
4886000000.000000      4.203339000000000E-01      2.919531000000000E+01      3.571472000000000E-01      1.737734000000000E+02
4887000000.000000      4.196320000000000E-01      2.896191000000000E+01      3.555450000000000E-01      1.731172000000000E+02
4888000000.000000      4.206390000000000E-01      2.865039000000000E+01      3.510742000000000E-01      1.725312000000000E+02
4889000000.000000      4.197998000000000E-01      2.856152000000000E+01      3.462524000000000E-01      1.722656000000000E+02
4890000000.000000      4.195709000000000E-01      2.819824000000000E+01      3.428802000000000E-01      1.713281000000000E+02
4891000000.000000      4.197083000000000E-01      2.815039000000000E+01      3.384705000000000E-01      1.710234000000000E+02
4892000000.000000      4.193878000000000E-01      2.790234000000000E+01      3.373413000000000E-01      1.708359000000000E+02
4893000000.000000      4.203186000000000E-01      2.758886000000000E+01      3.329468000000000E-01      1.704375000000000E+02
4894000000.000000      4.197845000000000E-01      2.737793000000000E+01      3.278809000000000E-01      1.698516000000000E+02
4895000000.000000      4.213409000000000E-01      2.716992000000000E+01      3.264465000000000E-01      1.692344000000000E+02
4896000000.000000      4.203949000000000E-01      2.688183000000000E+01      3.232880000000000E-01      1.690781000000000E+02
4897000000.000000      4.204712000000000E-01      2.673633000000000E+01      3.190460000000000E-01      1.685313000000000E+02
4898000000.000000      4.203033000000000E-01      2.665527000000000E+01      3.171387000000000E-01      1.681875000000000E+02
4899000000.000000      4.199066000000000E-01      2.635742000000000E+01      3.127441000000000E-01      1.675625000000000E+02
4900000000.000000      4.205627000000000E-01      2.613574000000000E+01      3.094177000000000E-01      1.674687000000000E+02
4901000000.000000      4.202881000000000E-01      2.586816000000000E+01      3.061829000000000E-01      1.669062000000000E+02
4902000000.000000      4.198303000000000E-01      2.570313000000000E+01      3.030548000000000E-01      1.666797000000000E+02
4903000000.000000      4.198608000000000E-01      2.565527000000000E+01      2.992096000000000E-01      1.661641000000000E+02
4904000000.000000      4.197235000000000E-01      2.532324000000000E+01      2.962952000000000E-01      1.659375000000000E+02
4905000000.000000      4.194794000000000E-01      2.531054000000000E+01      2.926178000000000E-01      1.652656000000000E+02
4906000000.000000      4.186707000000000E-01      2.502636000000000E+01      2.894440000000000E-01      1.653047000000000E+02
4907000000.000000      4.201050000000000E-01      2.479297000000000E+01      2.859802000000000E-01      1.645469000000000E+02
4908000000.000000      4.200287000000000E-01      2.451269000000000E+01      2.828674000000000E-01      1.643203000000000E+02
4909000000.000000      4.185486000000000E-01      2.441015000000000E+01      2.793274000000000E-01      1.638594000000000E+02
4910000000.000000      4.176788000000000E-01      2.440332000000000E+01      2.764130000000000E-01      1.634922000000000E+02
4911000000.000000      4.187469000000000E-01      2.415722000000000E+01      2.733154000000000E-01      1.632578000000000E+02
4912000000.000000      4.176331000000000E-01      2.410254000000000E+01      2.689514000000000E-01      1.626719000000000E+02
4913000000.000000      4.191742000000000E-01      2.364941000000000E+01      2.658234000000000E-01      1.623125000000000E+02
4914000000.000000      4.180145000000000E-01      2.354492000000000E+01      2.627106000000000E-01      1.622187000000000E+02
4915000000.000000      4.179993000000000E-01      2.343652000000000E+01      2.586517000000000E-01      1.618047000000000E+02
4916000000.000000      4.182434000000000E-01      2.325195000000000E+01      2.554016000000000E-01      1.613750000000000E+02
4917000000.000000      4.175415000000000E-01      2.315332000000000E+01      2.512817000000000E-01      1.611250000000000E+02
4918000000.000000      4.177399000000000E-01      2.283301000000000E+01      2.473755000000000E-01      1.607656000000000E+02
4919000000.000000      4.163971000000000E-01      2.290234000000000E+01      2.447357000000000E-01      1.605703000000000E+02
4920000000.000000      4.170685000000000E-01      2.249414000000000E+01      2.398911000000000E-01      1.601641000000000E+02
4921000000.000000      4.166412000000000E-01      2.239258000000000E+01      2.371674000000000E-01      1.600703000000000E+02
4922000000.000000      4.166107000000000E-01      2.220801000000000E+01      2.329559000000000E-01      1.597891000000000E+02
4923000000.000000      4.162598000000000E-01      2.218652000000000E+01      2.283936000000000E-01      1.597422000000000E+02
4924000000.000000      4.168854000000000E-01      2.202051000000000E+01      2.248917000000000E-01      1.591797000000000E+02
4925000000.000000      4.147644000000000E-01      2.185645000000000E+01      2.218552000000000E-01      1.590859000000000E+02
4926000000.000000      4.143524000000000E-01      2.162500000000000E+01      2.172775000000000E-01      1.588828000000000E+02
4927000000.000000      4.158936000000000E-01      2.141504000000000E+01      2.136688000000000E-01      1.587031000000000E+02
4928000000.000000      4.159698000000000E-01      2.120215000000000E+01      2.106247000000000E-01      1.585156000000000E+02
4929000000.000000      4.155579000000000E-01      2.104004000000000E+01      2.057953000000000E-01      1.585078000000000E+02
4930000000.000000      4.144745000000000E-01      2.088477000000000E+01      2.022400000000000E-01      1.583750000000000E+02
4931000000.000000      4.144897000000000E-01      2.078418000000000E+01      1.987000000000000E-01      1.583281000000000E+02
4932000000.000000      4.141235000000000E-01      2.064160000000000E+01      1.943741000000000E-01      1.581875000000000E+02
4933000000.000000      4.147186000000000E-01      2.042578000000000E+01      1.901093000000000E-01      1.584063000000000E+02
4934000000.000000      4.148560000000000E-01      2.016211000000000E+01      1.864014000000000E-01      1.583281000000000E+02
4935000000.000000      4.148712000000000E-01      2.017871000000000E+01      1.831665000000000E-01      1.586953000000000E+02
4936000000.000000      4.132996000000000E-01      1.999023000000000E+01      1.783676000000000E-01      1.585781000000000E+02
4937000000.000000      4.134521000000000E-01      1.978027000000000E+01      1.749802000000000E-01      1.585859000000000E+02
4938000000.000000      4.129333000000000E-01      1.967969000000000E+01      1.714172000000000E-01      1.588594000000000E+02
4939000000.000000      4.131012000000000E-01      1.960449000000000E+01      1.677856000000000E-01      1.591094000000000E+02
4940000000.000000      4.127045000000000E-01      1.927246000000000E+01      1.634598000000000E-01      1.593594000000000E+02
4941000000.000000      4.127045000000000E-01      1.917871000000000E+01      1.600266000000000E-01      1.598672000000000E+02
4942000000.000000      4.116516000000000E-01      1.912109000000000E+01      1.561813000000000E-01      1.603047000000000E+02
4943000000.000000      4.123230000000000E-01      1.898633000000000E+01      1.527176000000000E-01      1.606875000000000E+02
4944000000.000000      4.115906000000000E-01      1.866699000000000E+01      1.498642000000000E-01      1.612813000000000E+02
4945000000.000000      4.111633000000000E-01      1.852539000000000E+01      1.459656000000000E-01      1.619531000000000E+02
4946000000.000000      4.120483000000000E-01      1.843848000000000E+01      1.423798000000000E-01      1.626875000000000E+02
4947000000.000000      4.110718000000000E-01      1.822949000000000E+01      1.391220000000000E-01      1.633828000000000E+02
4948000000.000000      4.104462000000000E-01      1.810547000000000E+01      1.363220000000000E-01      1.640781000000000E+02
4949000000.000000      4.103851000000000E-01      1.800879000000000E+01      1.332321000000000E-01      1.653281000000000E+02
4950000000.000000      4.105530000000000E-01      1.795703000000000E+01      1.302414000000000E-01      1.662734000000000E+02
4951000000.000000      4.104767000000000E-01      1.775488000000000E+01      1.273041000000000E-01      1.673516000000000E+02
4952000000.000000      4.099579000000000E-01      1.748730000000000E+01      1.246567000000000E-01      1.683672000000000E+02
4953000000.000000      4.085999000000000E-01      1.736719000000000E+01      1.223831000000000E-01      1.699609000000000E+02
4954000000.000000      4.091644000000000E-01      1.711523000000000E+01      1.198311000000000E-01      1.713125000000000E+02
