! Network Analyzer HP8722D
! Hewlett-Packard
! Data name: Linha & Wilkinson
! Saver's name: Rodrigo Anjos
! Comments: Teste da utilização de aquisição
continua pelo VNA HP8722D
! Time and date: 23/5/2025 11:26
!              Frequency                     S11                                                   S21                                                   S12                                                   S22
# HZ  S  MA R 50
4800000000.000000      3.132172000000000E-01      3.732422000000000E+01      4.708557000000000E-01     -1.278594000000000E+02
4801000000.000000      3.141632000000000E-01      3.755078000000000E+01      4.720154000000000E-01     -1.284219000000000E+02
4802000000.000000      3.150787000000000E-01      3.773242000000000E+01      4.729767000000000E-01     -1.292969000000000E+02
4803000000.000000      3.156281000000000E-01      3.787890000000000E+01      4.747772000000000E-01     -1.300234000000000E+02
4804000000.000000      3.162537000000000E-01      3.811523000000000E+01      4.765320000000000E-01     -1.307734000000000E+02
4805000000.000000      3.186646000000000E-01      3.822266000000000E+01      4.780731000000000E-01     -1.315312000000000E+02
4806000000.000000      3.188782000000000E-01      3.833593000000000E+01      4.793091000000000E-01     -1.321016000000000E+02
4807000000.000000      3.198242000000000E-01      3.851367000000000E+01      4.803772000000000E-01     -1.328047000000000E+02
4808000000.000000      3.207550000000000E-01      3.867188000000000E+01      4.825439000000000E-01     -1.335547000000000E+02
4809000000.000000      3.224640000000000E-01      3.891992000000000E+01      4.825745000000000E-01     -1.345703000000000E+02
4810000000.000000      3.238068000000000E-01      3.901172000000000E+01      4.854736000000000E-01     -1.349531000000000E+02
4811000000.000000      3.255615000000000E-01      3.916601000000000E+01      4.854279000000000E-01     -1.357969000000000E+02
4812000000.000000      3.275757000000000E-01      3.935547000000000E+01      4.858856000000000E-01     -1.366172000000000E+02
4813000000.000000      3.282471000000000E-01      3.944726000000000E+01      4.875031000000000E-01     -1.372891000000000E+02
4814000000.000000      3.287354000000000E-01      3.947461000000000E+01      4.877625000000000E-01     -1.379375000000000E+02
4815000000.000000      3.307648000000000E-01      3.963672000000000E+01      4.883118000000000E-01     -1.386875000000000E+02
4816000000.000000      3.330231000000000E-01      3.976171000000000E+01      4.902344000000000E-01     -1.394063000000000E+02
4817000000.000000      3.337250000000000E-01      3.979101000000000E+01      4.895935000000000E-01     -1.402031000000000E+02
4818000000.000000      3.352814000000000E-01      3.984766000000000E+01      4.890594000000000E-01     -1.409609000000000E+02
4819000000.000000      3.375702000000000E-01      3.997070000000000E+01      4.897308000000000E-01     -1.417187000000000E+02
4820000000.000000      3.378448000000000E-01      4.007421000000000E+01      4.902649000000000E-01     -1.422578000000000E+02
4821000000.000000      3.412018000000000E-01      4.002149000000000E+01      4.901276000000000E-01     -1.431875000000000E+02
4822000000.000000      3.417969000000000E-01      3.995703000000000E+01      4.901276000000000E-01     -1.438672000000000E+02
4823000000.000000      3.434906000000000E-01      4.005859000000000E+01      4.904785000000000E-01     -1.448125000000000E+02
4824000000.000000      3.448639000000000E-01      4.020312000000000E+01      4.904938000000000E-01     -1.453750000000000E+02
4825000000.000000      3.471832000000000E-01      4.005468000000000E+01      4.898224000000000E-01     -1.460547000000000E+02
4826000000.000000      3.486633000000000E-01      4.002539000000000E+01      4.892731000000000E-01     -1.469141000000000E+02
4827000000.000000      3.500671000000000E-01      4.003515000000000E+01      4.900513000000000E-01     -1.474531000000000E+02
4828000000.000000      3.524628000000000E-01      4.008985000000000E+01      4.907837000000000E-01     -1.482344000000000E+02
4829000000.000000      3.540344000000000E-01      4.013867000000000E+01      4.886932000000000E-01     -1.489297000000000E+02
4830000000.000000      3.554077000000000E-01      3.988281000000000E+01      4.879456000000000E-01     -1.499063000000000E+02
4831000000.000000      3.565826000000000E-01      3.983984000000000E+01      4.879303000000000E-01     -1.505000000000000E+02
4832000000.000000      3.587799000000000E-01      3.987890000000000E+01      4.872742000000000E-01     -1.511875000000000E+02
4833000000.000000      3.598785000000000E-01      3.973047000000000E+01      4.857941000000000E-01     -1.518672000000000E+02
4834000000.000000      3.615875000000000E-01      3.965039000000000E+01      4.853058000000000E-01     -1.526094000000000E+02
4835000000.000000      3.642883000000000E-01      3.947461000000000E+01      4.850159000000000E-01     -1.533203000000000E+02
4836000000.000000      3.655243000000000E-01      3.953711000000000E+01      4.812164000000000E-01     -1.541250000000000E+02
4837000000.000000      3.667603000000000E-01      3.950781000000000E+01      4.818115000000000E-01     -1.548437000000000E+02
4838000000.000000      3.684082000000000E-01      3.923047000000000E+01      4.811707000000000E-01     -1.554766000000000E+02
4839000000.000000      3.715363000000000E-01      3.925390000000000E+01      4.801636000000000E-01     -1.561328000000000E+02
4840000000.000000      3.716125000000000E-01      3.895703000000000E+01      4.792175000000000E-01     -1.567812000000000E+02
4841000000.000000      3.737183000000000E-01      3.899219000000000E+01      4.795227000000000E-01     -1.575781000000000E+02
4842000000.000000      3.750458000000000E-01      3.886523000000000E+01      4.765320000000000E-01     -1.583984000000000E+02
4843000000.000000      3.780212000000000E-01      3.857617000000000E+01      4.762268000000000E-01     -1.589922000000000E+02
4844000000.000000      3.785095000000000E-01      3.844336000000000E+01      4.738922000000000E-01     -1.599219000000000E+02
4845000000.000000      3.796082000000000E-01      3.837109000000000E+01      4.730682000000000E-01     -1.605469000000000E+02
4846000000.000000      3.815765000000000E-01      3.821289000000000E+01      4.715424000000000E-01     -1.611016000000000E+02
4847000000.000000      3.832092000000000E-01      3.807422000000000E+01      4.700165000000000E-01     -1.617031000000000E+02
4848000000.000000      3.838806000000000E-01      3.778125000000000E+01      4.659729000000000E-01     -1.627109000000000E+02
4849000000.000000      3.857422000000000E-01      3.753711000000000E+01      4.666138000000000E-01     -1.632500000000000E+02
4850000000.000000      3.868408000000000E-01      3.745898000000000E+01      4.651489000000000E-01     -1.639453000000000E+02
4851000000.000000      3.883514000000000E-01      3.743164000000000E+01      4.628448000000000E-01     -1.645859000000000E+02
4852000000.000000      3.894196000000000E-01      3.712500000000000E+01      4.616089000000000E-01     -1.655859000000000E+02
4853000000.000000      3.909760000000000E-01      3.691406000000000E+01      4.572601000000000E-01     -1.661562000000000E+02
4854000000.000000      3.920746000000000E-01      3.669140000000000E+01      4.557648000000000E-01     -1.669062000000000E+02
4855000000.000000      3.935852000000000E-01      3.658398000000000E+01      4.544525000000000E-01     -1.675937000000000E+02
4856000000.000000      3.946228000000000E-01      3.621289000000000E+01      4.522705000000000E-01     -1.681094000000000E+02
4857000000.000000      3.961334000000000E-01      3.610156000000000E+01      4.512482000000000E-01     -1.687422000000000E+02
4858000000.000000      3.964081000000000E-01      3.584961000000000E+01      4.477997000000000E-01     -1.695625000000000E+02
4859000000.000000      3.973389000000000E-01      3.558984000000000E+01      4.460602000000000E-01     -1.704453000000000E+02
4860000000.000000      3.990173000000000E-01      3.558594000000000E+01      4.433899000000000E-01     -1.710156000000000E+02
4861000000.000000      4.003601000000000E-01      3.523438000000000E+01      4.415741000000000E-01     -1.718047000000000E+02
4862000000.000000      4.002228000000000E-01      3.500781000000000E+01      4.383392000000000E-01     -1.725000000000000E+02
4863000000.000000      4.017487000000000E-01      3.487695000000000E+01      4.344177000000000E-01     -1.731016000000000E+02
4864000000.000000      4.031525000000000E-01      3.455469000000000E+01      4.319000000000000E-01     -1.738203000000000E+02
4865000000.000000      4.034424000000000E-01      3.432226000000000E+01      4.301453000000000E-01     -1.742578000000000E+02
4866000000.000000      4.046936000000000E-01      3.408203000000000E+01      4.269714000000000E-01     -1.752031000000000E+02
4867000000.000000      4.051819000000000E-01      3.396875000000000E+01      4.232330000000000E-01     -1.758984000000000E+02
4868000000.000000      4.059601000000000E-01      3.359961000000000E+01      4.205170000000000E-01     -1.766016000000000E+02
4869000000.000000      4.071198000000000E-01      3.336914000000000E+01      4.175262000000000E-01     -1.772734000000000E+02
4870000000.000000      4.080658000000000E-01      3.312695000000000E+01      4.149323000000000E-01     -1.775938000000000E+02
4871000000.000000      4.078827000000000E-01      3.288281000000000E+01      4.106750000000000E-01     -1.784765000000000E+02
4872000000.000000      4.092255000000000E-01      3.262500000000000E+01      4.078522000000000E-01     -1.789063000000000E+02
4873000000.000000      4.102936000000000E-01      3.255468000000000E+01      4.046326000000000E-01     -1.797578000000000E+02
4874000000.000000      4.098358000000000E-01      3.211133000000000E+01      4.017029000000000E-01      1.798594000000000E+02
4875000000.000000      4.106598000000000E-01      3.199414000000000E+01      3.962708000000000E-01      1.793359000000000E+02
4876000000.000000      4.109955000000000E-01      3.179394000000000E+01      3.948517000000000E-01      1.787266000000000E+02
4877000000.000000      4.121552000000000E-01      3.145605000000000E+01      3.913116000000000E-01      1.778750000000000E+02
4878000000.000000      4.111328000000000E-01      3.136425000000000E+01      3.867340000000000E-01      1.775391000000000E+02
4879000000.000000      4.129639000000000E-01      3.092090000000000E+01      3.845367000000000E-01      1.767969000000000E+02
4880000000.000000      4.134216000000000E-01      3.080566000000000E+01      3.809967000000000E-01      1.764141000000000E+02
4881000000.000000      4.130707000000000E-01      3.060742000000000E+01      3.782043000000000E-01      1.757891000000000E+02
4882000000.000000      4.147644000000000E-01      3.031250000000000E+01      3.741608000000000E-01      1.754922000000000E+02
4883000000.000000      4.137115000000000E-01      3.010449000000000E+01      3.696136000000000E-01      1.748672000000000E+02
4884000000.000000      4.148407000000000E-01      2.987793000000000E+01      3.656616000000000E-01      1.742891000000000E+02
4885000000.000000      4.153595000000000E-01      2.961914000000000E+01      3.620148000000000E-01      1.740937000000000E+02
4886000000.000000      4.145050000000000E-01      2.942090000000000E+01      3.587494000000000E-01      1.736172000000000E+02
4887000000.000000      4.150391000000000E-01      2.911230000000000E+01      3.563995000000000E-01      1.727187000000000E+02
4888000000.000000      4.149323000000000E-01      2.883203000000000E+01      3.528137000000000E-01      1.723906000000000E+02
4889000000.000000      4.147339000000000E-01      2.883594000000000E+01      3.478546000000000E-01      1.719453000000000E+02
4890000000.000000      4.144440000000000E-01      2.842480000000000E+01      3.445740000000000E-01      1.710234000000000E+02
4891000000.000000      4.151154000000000E-01      2.831445000000000E+01      3.409729000000000E-01      1.707734000000000E+02
4892000000.000000      4.153290000000000E-01      2.806836000000000E+01      3.378906000000000E-01      1.704687000000000E+02
4893000000.000000      4.149628000000000E-01      2.790039000000000E+01      3.339233000000000E-01      1.699062000000000E+02
4894000000.000000      4.144287000000000E-01      2.766699000000000E+01      3.302155000000000E-01      1.694766000000000E+02
4895000000.000000      4.162750000000000E-01      2.736328000000000E+01      3.288879000000000E-01      1.692109000000000E+02
4896000000.000000      4.153900000000000E-01      2.724707000000000E+01      3.237457000000000E-01      1.688281000000000E+02
4897000000.000000      4.159393000000000E-01      2.693359000000000E+01      3.208466000000000E-01      1.682500000000000E+02
4898000000.000000      4.140930000000000E-01      2.693554000000000E+01      3.182831000000000E-01      1.679922000000000E+02
4899000000.000000      4.152832000000000E-01      2.660742000000000E+01      3.144379000000000E-01      1.673750000000000E+02
4900000000.000000      4.143524000000000E-01      2.638476000000000E+01      3.112488000000000E-01      1.671953000000000E+02
4901000000.000000      4.154510000000000E-01      2.619922000000000E+01      3.079071000000000E-01      1.667734000000000E+02
4902000000.000000      4.154816000000000E-01      2.600586000000000E+01      3.046875000000000E-01      1.663672000000000E+02
4903000000.000000      4.144745000000000E-01      2.572851000000000E+01      3.003845000000000E-01      1.659453000000000E+02
4904000000.000000      4.148712000000000E-01      2.563086000000000E+01      2.972870000000000E-01      1.654297000000000E+02
4905000000.000000      4.141998000000000E-01      2.541406000000000E+01      2.947998000000000E-01      1.651875000000000E+02
4906000000.000000      4.138489000000000E-01      2.518457000000000E+01      2.906952000000000E-01      1.650078000000000E+02
4907000000.000000      4.141388000000000E-01      2.505371000000000E+01      2.879181000000000E-01      1.643906000000000E+02
4908000000.000000      4.155121000000000E-01      2.472851000000000E+01      2.853088000000000E-01      1.638984000000000E+02
4909000000.000000      4.124603000000000E-01      2.453613000000000E+01      2.804718000000000E-01      1.636094000000000E+02
4910000000.000000      4.131012000000000E-01      2.438477000000000E+01      2.772675000000000E-01      1.633984000000000E+02
4911000000.000000      4.138794000000000E-01      2.419140000000000E+01      2.743378000000000E-01      1.630547000000000E+02
4912000000.000000      4.123535000000000E-01      2.408203000000000E+01      2.704010000000000E-01      1.625078000000000E+02
4913000000.000000      4.140015000000000E-01      2.381348000000000E+01      2.674866000000000E-01      1.622031000000000E+02
4914000000.000000      4.124908000000000E-01      2.364356000000000E+01      2.639618000000000E-01      1.618984000000000E+02
4915000000.000000      4.127960000000000E-01      2.364356000000000E+01      2.596741000000000E-01      1.614297000000000E+02
4916000000.000000      4.125824000000000E-01      2.333203000000000E+01      2.568054000000000E-01      1.609609000000000E+02
4917000000.000000      4.123840000000000E-01      2.323437000000000E+01      2.532196000000000E-01      1.609375000000000E+02
4918000000.000000      4.111938000000000E-01      2.306836000000000E+01      2.483139000000000E-01      1.605859000000000E+02
4919000000.000000      4.108124000000000E-01      2.292969000000000E+01      2.459106000000000E-01      1.604531000000000E+02
4920000000.000000      4.117737000000000E-01      2.273438000000000E+01      2.415466000000000E-01      1.597891000000000E+02
4921000000.000000      4.109802000000000E-01      2.253613000000000E+01      2.381821000000000E-01      1.597422000000000E+02
4922000000.000000      4.107361000000000E-01      2.237597000000000E+01      2.339096000000000E-01      1.595156000000000E+02
4923000000.000000      4.108429000000000E-01      2.219629000000000E+01      2.307281000000000E-01      1.593516000000000E+02
4924000000.000000      4.104614000000000E-01      2.205761000000000E+01      2.262115000000000E-01      1.589297000000000E+02
4925000000.000000      4.103241000000000E-01      2.196289000000000E+01      2.226639000000000E-01      1.586562000000000E+02
4926000000.000000      4.091644000000000E-01      2.169629000000000E+01      2.193680000000000E-01      1.586016000000000E+02
4927000000.000000      4.107056000000000E-01      2.156933000000000E+01      2.146683000000000E-01      1.583828000000000E+02
4928000000.000000      4.112396000000000E-01      2.132715000000000E+01      2.112274000000000E-01      1.584063000000000E+02
4929000000.000000      4.094696000000000E-01      2.122070000000000E+01      2.068710000000000E-01      1.583437000000000E+02
4930000000.000000      4.089203000000000E-01      2.105371000000000E+01      2.029419000000000E-01      1.581406000000000E+02
4931000000.000000      4.083405000000000E-01      2.086524000000000E+01      2.000504000000000E-01      1.580703000000000E+02
4932000000.000000      4.089355000000000E-01      2.077343000000000E+01      1.953354000000000E-01      1.580859000000000E+02
4933000000.000000      4.089355000000000E-01      2.062793000000000E+01      1.911621000000000E-01      1.582344000000000E+02
4934000000.000000      4.095001000000000E-01      2.038769000000000E+01      1.874161000000000E-01      1.579375000000000E+02
4935000000.000000      4.083405000000000E-01      2.031836000000000E+01      1.841431000000000E-01      1.583984000000000E+02
4936000000.000000      4.071198000000000E-01      2.012695000000000E+01      1.792755000000000E-01      1.583672000000000E+02
4937000000.000000      4.082031000000000E-01      1.990430000000000E+01      1.758499000000000E-01      1.585156000000000E+02
4938000000.000000      4.065094000000000E-01      1.983984000000000E+01      1.722107000000000E-01      1.586641000000000E+02
4939000000.000000      4.078827000000000E-01      1.970605000000000E+01      1.686554000000000E-01      1.591328000000000E+02
4940000000.000000      4.069519000000000E-01      1.942480000000000E+01      1.643829000000000E-01      1.592031000000000E+02
4941000000.000000      4.064331000000000E-01      1.926660000000000E+01      1.616898000000000E-01      1.595391000000000E+02
4942000000.000000      4.062347000000000E-01      1.921289000000000E+01      1.570511000000000E-01      1.600781000000000E+02
4943000000.000000      4.066315000000000E-01      1.899902000000000E+01      1.537094000000000E-01      1.605781000000000E+02
4944000000.000000      4.057465000000000E-01      1.887305000000000E+01      1.502228000000000E-01      1.610312000000000E+02
4945000000.000000      4.065704000000000E-01      1.870117000000000E+01      1.462402000000000E-01      1.617500000000000E+02
4946000000.000000      4.068298000000000E-01      1.860742000000000E+01      1.436844000000000E-01      1.624375000000000E+02
4947000000.000000      4.049988000000000E-01      1.834375000000000E+01      1.399460000000000E-01      1.632656000000000E+02
4948000000.000000      4.048462000000000E-01      1.821094000000000E+01      1.366653000000000E-01      1.641484000000000E+02
4949000000.000000      4.041443000000000E-01      1.802930000000000E+01      1.339035000000000E-01      1.650703000000000E+02
4950000000.000000      4.047241000000000E-01      1.789258000000000E+01      1.305542000000000E-01      1.661250000000000E+02
4951000000.000000      4.047852000000000E-01      1.777637000000000E+01      1.283951000000000E-01      1.672578000000000E+02
4952000000.000000      4.041901000000000E-01      1.759961000000000E+01      1.256638000000000E-01      1.683516000000000E+02
4953000000.000000      4.035339000000000E-01      1.737597000000000E+01      1.235199000000000E-01      1.697734000000000E+02
4954000000.000000      4.043274000000000E-01      1.721191000000000E+01      1.203346000000000E-01      1.710781000000000E+02
