! Network Analyzer HP8722D
! Hewlett-Packard
! Data name: Linha & Wilkinson
! Saver's name: Rodrigo Anjos
! Comments: Teste da utilização de aquisição
continua pelo VNA HP8722D
! Time and date: 23/5/2025 11:57
!              Frequency                     S11                                                   S21                                                   S12                                                   S22
# HZ  S  MA R 50
4800000000.000000      3.002167000000000E-01      3.837891000000000E+01      4.754181000000000E-01     -1.283672000000000E+02
4801000000.000000      3.013611000000000E-01      3.865625000000000E+01      4.777679000000000E-01     -1.290703000000000E+02
4802000000.000000      3.026276000000000E-01      3.876953000000000E+01      4.777527000000000E-01     -1.298672000000000E+02
4803000000.000000      3.031769000000000E-01      3.897461000000000E+01      4.815979000000000E-01     -1.304688000000000E+02
4804000000.000000      3.044891000000000E-01      3.915234000000000E+01      4.831085000000000E-01     -1.312969000000000E+02
4805000000.000000      3.065033000000000E-01      3.930078000000000E+01      4.837036000000000E-01     -1.320469000000000E+02
4806000000.000000      3.067627000000000E-01      3.947070000000000E+01      4.842529000000000E-01     -1.326953000000000E+02
4807000000.000000      3.081665000000000E-01      3.960938000000000E+01      4.865265000000000E-01     -1.334922000000000E+02
4808000000.000000      3.086853000000000E-01      3.989843000000000E+01      4.872437000000000E-01     -1.341563000000000E+02
4809000000.000000      3.105774000000000E-01      4.009179000000000E+01      4.882507000000000E-01     -1.351875000000000E+02
4810000000.000000      3.120575000000000E-01      4.012891000000000E+01      4.912109000000000E-01     -1.356328000000000E+02
4811000000.000000      3.136902000000000E-01      4.031836000000000E+01      4.924164000000000E-01     -1.364531000000000E+02
4812000000.000000      3.158264000000000E-01      4.050390000000000E+01      4.924011000000000E-01     -1.371797000000000E+02
4813000000.000000      3.170013000000000E-01      4.070898000000000E+01      4.936218000000000E-01     -1.378515000000000E+02
4814000000.000000      3.179321000000000E-01      4.066992000000000E+01      4.934235000000000E-01     -1.384687000000000E+02
4815000000.000000      3.191528000000000E-01      4.071875000000000E+01      4.934692000000000E-01     -1.394140000000000E+02
4816000000.000000      3.216705000000000E-01      4.090820000000000E+01      4.948578000000000E-01     -1.401562000000000E+02
4817000000.000000      3.226013000000000E-01      4.105859000000000E+01      4.951324000000000E-01     -1.408672000000000E+02
4818000000.000000      3.247070000000000E-01      4.097265000000000E+01      4.965210000000000E-01     -1.416563000000000E+02
4819000000.000000      3.267517000000000E-01      4.107812000000000E+01      4.953766000000000E-01     -1.424297000000000E+02
4820000000.000000      3.270721000000000E-01      4.117383000000000E+01      4.954224000000000E-01     -1.430547000000000E+02
4821000000.000000      3.300629000000000E-01      4.111914000000000E+01      4.969940000000000E-01     -1.436719000000000E+02
4822000000.000000      3.309784000000000E-01      4.110937000000000E+01      4.959259000000000E-01     -1.444844000000000E+02
4823000000.000000      3.335266000000000E-01      4.101953000000000E+01      4.964752000000000E-01     -1.453594000000000E+02
4824000000.000000      3.352356000000000E-01      4.116406000000000E+01      4.964752000000000E-01     -1.460234000000000E+02
4825000000.000000      3.365936000000000E-01      4.109571000000000E+01      4.972382000000000E-01     -1.467422000000000E+02
4826000000.000000      3.381042000000000E-01      4.110547000000000E+01      4.960480000000000E-01     -1.474844000000000E+02
4827000000.000000      3.404694000000000E-01      4.105664000000000E+01      4.961548000000000E-01     -1.480781000000000E+02
4828000000.000000      3.423309000000000E-01      4.108594000000000E+01      4.952240000000000E-01     -1.487344000000000E+02
4829000000.000000      3.433228000000000E-01      4.112890000000000E+01      4.954834000000000E-01     -1.495625000000000E+02
4830000000.000000      3.451080000000000E-01      4.089648000000000E+01      4.949341000000000E-01     -1.502891000000000E+02
4831000000.000000      3.467255000000000E-01      4.078515000000000E+01      4.942169000000000E-01     -1.510781000000000E+02
4832000000.000000      3.484955000000000E-01      4.087891000000000E+01      4.939575000000000E-01     -1.517812000000000E+02
4833000000.000000      3.493805000000000E-01      4.075195000000000E+01      4.922028000000000E-01     -1.523438000000000E+02
4834000000.000000      3.523560000000000E-01      4.070313000000000E+01      4.919281000000000E-01     -1.532187000000000E+02
4835000000.000000      3.540802000000000E-01      4.052734000000000E+01      4.909668000000000E-01     -1.538984000000000E+02
4836000000.000000      3.558350000000000E-01      4.054688000000000E+01      4.887848000000000E-01     -1.545391000000000E+02
4837000000.000000      3.569489000000000E-01      4.043164000000000E+01      4.872742000000000E-01     -1.555156000000000E+02
4838000000.000000      3.582153000000000E-01      4.024023000000000E+01      4.885406000000000E-01     -1.560313000000000E+02
4839000000.000000      3.617859000000000E-01      4.018555000000000E+01      4.884338000000000E-01     -1.567344000000000E+02
4840000000.000000      3.620758000000000E-01      3.997461000000000E+01      4.855499000000000E-01     -1.573203000000000E+02
4841000000.000000      3.641510000000000E-01      3.996679000000000E+01      4.846344000000000E-01     -1.582969000000000E+02
4842000000.000000      3.649597000000000E-01      3.972265000000000E+01      4.829254000000000E-01     -1.589766000000000E+02
4843000000.000000      3.675995000000000E-01      3.940625000000000E+01      4.831543000000000E-01     -1.595391000000000E+02
4844000000.000000      3.685455000000000E-01      3.930273000000000E+01      4.812775000000000E-01     -1.604063000000000E+02
4845000000.000000      3.700562000000000E-01      3.924414000000000E+01      4.788971000000000E-01     -1.609062000000000E+02
4846000000.000000      3.719025000000000E-01      3.912500000000000E+01      4.780884000000000E-01     -1.616641000000000E+02
4847000000.000000      3.733978000000000E-01      3.892383000000000E+01      4.771423000000000E-01     -1.624375000000000E+02
4848000000.000000      3.751068000000000E-01      3.872656000000000E+01      4.741211000000000E-01     -1.630859000000000E+02
4849000000.000000      3.756714000000000E-01      3.842578000000000E+01      4.738617000000000E-01     -1.637734000000000E+02
4850000000.000000      3.772278000000000E-01      3.831445000000000E+01      4.711456000000000E-01     -1.646250000000000E+02
4851000000.000000      3.791351000000000E-01      3.821680000000000E+01      4.710236000000000E-01     -1.653672000000000E+02
4852000000.000000      3.800507000000000E-01      3.789844000000000E+01      4.671631000000000E-01     -1.659219000000000E+02
4853000000.000000      3.814697000000000E-01      3.770898000000000E+01      4.643097000000000E-01     -1.667109000000000E+02
4854000000.000000      3.827057000000000E-01      3.739453000000000E+01      4.623718000000000E-01     -1.674609000000000E+02
4855000000.000000      3.834839000000000E-01      3.723047000000000E+01      4.599609000000000E-01     -1.681641000000000E+02
4856000000.000000      3.853455000000000E-01      3.696875000000000E+01      4.575348000000000E-01     -1.688594000000000E+02
4857000000.000000      3.859863000000000E-01      3.689062000000000E+01      4.573212000000000E-01     -1.694531000000000E+02
4858000000.000000      3.872986000000000E-01      3.661133000000000E+01      4.552765000000000E-01     -1.701562000000000E+02
4859000000.000000      3.883972000000000E-01      3.639062000000000E+01      4.517975000000000E-01     -1.710391000000000E+02
4860000000.000000      3.891296000000000E-01      3.628906000000000E+01      4.495239000000000E-01     -1.716719000000000E+02
4861000000.000000      3.901672000000000E-01      3.595508000000000E+01      4.463043000000000E-01     -1.722969000000000E+02
4862000000.000000      3.906555000000000E-01      3.568750000000000E+01      4.455414000000000E-01     -1.730391000000000E+02
4863000000.000000      3.924408000000000E-01      3.553906000000000E+01      4.416046000000000E-01     -1.737344000000000E+02
4864000000.000000      3.941040000000000E-01      3.520703000000000E+01      4.394836000000000E-01     -1.742344000000000E+02
4865000000.000000      3.936462000000000E-01      3.493359000000000E+01      4.359436000000000E-01     -1.749766000000000E+02
4866000000.000000      3.945465000000000E-01      3.466406000000000E+01      4.323425000000000E-01     -1.758516000000000E+02
4867000000.000000      3.952179000000000E-01      3.452343000000000E+01      4.290314000000000E-01     -1.763438000000000E+02
4868000000.000000      3.969116000000000E-01      3.410351000000000E+01      4.267883000000000E-01     -1.770781000000000E+02
4869000000.000000      3.974915000000000E-01      3.393750000000000E+01      4.234772000000000E-01     -1.775938000000000E+02
4870000000.000000      3.982239000000000E-01      3.364258000000000E+01      4.205322000000000E-01     -1.780703000000000E+02
4871000000.000000      3.990021000000000E-01      3.337891000000000E+01      4.170074000000000E-01     -1.788359000000000E+02
4872000000.000000      4.007721000000000E-01      3.315234000000000E+01      4.126434000000000E-01     -1.792422000000000E+02
4873000000.000000      3.995056000000000E-01      3.299219000000000E+01      4.115906000000000E-01      1.798359000000000E+02
4874000000.000000      4.007111000000000E-01      3.280859000000000E+01      4.081573000000000E-01      1.792266000000000E+02
4875000000.000000      4.008026000000000E-01      3.248828000000000E+01      4.021606000000000E-01      1.785703000000000E+02
4876000000.000000      4.017792000000000E-01      3.231836000000000E+01      4.001007000000000E-01      1.781797000000000E+02
4877000000.000000      4.022217000000000E-01      3.183789000000000E+01      3.966522000000000E-01      1.775469000000000E+02
4878000000.000000      4.026031000000000E-01      3.172852000000000E+01      3.934784000000000E-01      1.769766000000000E+02
4879000000.000000      4.032745000000000E-01      3.153613000000000E+01      3.894043000000000E-01      1.765391000000000E+02
4880000000.000000      4.047546000000000E-01      3.122559000000000E+01      3.865509000000000E-01      1.759140000000000E+02
4881000000.000000      4.038086000000000E-01      3.095898000000000E+01      3.823090000000000E-01      1.753359000000000E+02
4882000000.000000      4.045105000000000E-01      3.078906000000000E+01      3.805847000000000E-01      1.748437000000000E+02
4883000000.000000      4.050598000000000E-01      3.047949000000000E+01      3.753204000000000E-01      1.743125000000000E+02
4884000000.000000      4.053955000000000E-01      3.030273000000000E+01      3.727875000000000E-01      1.737031000000000E+02
4885000000.000000      4.056549000000000E-01      3.011719000000000E+01      3.692169000000000E-01      1.733594000000000E+02
4886000000.000000      4.057617000000000E-01      2.986816000000000E+01      3.648224000000000E-01      1.729453000000000E+02
4887000000.000000      4.054260000000000E-01      2.959375000000000E+01      3.623810000000000E-01      1.724375000000000E+02
4888000000.000000      4.049683000000000E-01      2.920801000000000E+01      3.589325000000000E-01      1.715703000000000E+02
4889000000.000000      4.041901000000000E-01      2.913281000000000E+01      3.538971000000000E-01      1.713828000000000E+02
4890000000.000000      4.039612000000000E-01      2.888672000000000E+01      3.505554000000000E-01      1.706016000000000E+02
4891000000.000000      4.055634000000000E-01      2.862011000000000E+01      3.466492000000000E-01      1.702031000000000E+02
4892000000.000000      4.051514000000000E-01      2.848437000000000E+01      3.439636000000000E-01      1.701172000000000E+02
4893000000.000000      4.057922000000000E-01      2.816113000000000E+01      3.397827000000000E-01      1.697734000000000E+02
4894000000.000000      4.050293000000000E-01      2.801465000000000E+01      3.378143000000000E-01      1.689687000000000E+02
4895000000.000000      4.058990000000000E-01      2.771387000000000E+01      3.347473000000000E-01      1.688281000000000E+02
4896000000.000000      4.057312000000000E-01      2.753711000000000E+01      3.297882000000000E-01      1.682422000000000E+02
4897000000.000000      4.055939000000000E-01      2.731934000000000E+01      3.264008000000000E-01      1.677734000000000E+02
4898000000.000000      4.046783000000000E-01      2.719238000000000E+01      3.234863000000000E-01      1.673516000000000E+02
4899000000.000000      4.051056000000000E-01      2.685449000000000E+01      3.205109000000000E-01      1.666797000000000E+02
4900000000.000000      4.048157000000000E-01      2.663965000000000E+01      3.166656000000000E-01      1.664922000000000E+02
4901000000.000000      4.043579000000000E-01      2.633398000000000E+01      3.135376000000000E-01      1.661484000000000E+02
4902000000.000000      4.049835000000000E-01      2.618261000000000E+01      3.104095000000000E-01      1.658906000000000E+02
4903000000.000000      4.048615000000000E-01      2.610058000000000E+01      3.064270000000000E-01      1.655469000000000E+02
4904000000.000000      4.052734000000000E-01      2.581347000000000E+01      3.028564000000000E-01      1.650391000000000E+02
4905000000.000000      4.033661000000000E-01      2.561132000000000E+01      3.002319000000000E-01      1.645937000000000E+02
4906000000.000000      4.040222000000000E-01      2.537109000000000E+01      2.969208000000000E-01      1.643437000000000E+02
4907000000.000000      4.044037000000000E-01      2.530664000000000E+01      2.933960000000000E-01      1.637969000000000E+02
4908000000.000000      4.043732000000000E-01      2.497949000000000E+01      2.907257000000000E-01      1.633359000000000E+02
4909000000.000000      4.040527000000000E-01      2.474804000000000E+01      2.864532000000000E-01      1.629297000000000E+02
4910000000.000000      4.018555000000000E-01      2.465137000000000E+01      2.822723000000000E-01      1.627344000000000E+02
4911000000.000000      4.034729000000000E-01      2.454687000000000E+01      2.797089000000000E-01      1.624453000000000E+02
4912000000.000000      4.021606000000000E-01      2.442187000000000E+01      2.759247000000000E-01      1.619531000000000E+02
4913000000.000000      4.031677000000000E-01      2.406250000000000E+01      2.716522000000000E-01      1.616172000000000E+02
4914000000.000000      4.029083000000000E-01      2.386035000000000E+01      2.689514000000000E-01      1.612344000000000E+02
4915000000.000000      4.016418000000000E-01      2.368847000000000E+01      2.650909000000000E-01      1.607734000000000E+02
4916000000.000000      4.021454000000000E-01      2.360547000000000E+01      2.607727000000000E-01      1.605625000000000E+02
4917000000.000000      4.011841000000000E-01      2.348828000000000E+01      2.572479000000000E-01      1.600781000000000E+02
4918000000.000000      4.010010000000000E-01      2.321484000000000E+01      2.534027000000000E-01      1.597656000000000E+02
4919000000.000000      4.010468000000000E-01      2.311230000000000E+01      2.507935000000000E-01      1.598203000000000E+02
4920000000.000000      4.009094000000000E-01      2.279883000000000E+01      2.467804000000000E-01      1.592344000000000E+02
4921000000.000000      4.003448000000000E-01      2.271484000000000E+01      2.433395000000000E-01      1.590625000000000E+02
4922000000.000000      4.008484000000000E-01      2.255176000000000E+01      2.386169000000000E-01      1.589062000000000E+02
4923000000.000000      3.996887000000000E-01      2.238965000000000E+01      2.352753000000000E-01      1.586484000000000E+02
4924000000.000000      3.998108000000000E-01      2.222168000000000E+01      2.317047000000000E-01      1.581953000000000E+02
4925000000.000000      3.993988000000000E-01      2.192969000000000E+01      2.276840000000000E-01      1.580937000000000E+02
4926000000.000000      3.993835000000000E-01      2.181738000000000E+01      2.236404000000000E-01      1.577500000000000E+02
4927000000.000000      3.988495000000000E-01      2.175293000000000E+01      2.196884000000000E-01      1.576641000000000E+02
4928000000.000000      3.997040000000000E-01      2.145410000000000E+01      2.161407000000000E-01      1.574219000000000E+02
4929000000.000000      3.991852000000000E-01      2.122070000000000E+01      2.112122000000000E-01      1.573906000000000E+02
4930000000.000000      3.985901000000000E-01      2.124023000000000E+01      2.079468000000000E-01      1.572578000000000E+02
4931000000.000000      3.985596000000000E-01      2.100586000000000E+01      2.044907000000000E-01      1.572734000000000E+02
4932000000.000000      3.988647000000000E-01      2.077734000000000E+01      1.997681000000000E-01      1.571094000000000E+02
4933000000.000000      3.978424000000000E-01      2.064648000000000E+01      1.952362000000000E-01      1.571953000000000E+02
4934000000.000000      3.992310000000000E-01      2.036914000000000E+01      1.918030000000000E-01      1.571406000000000E+02
4935000000.000000      3.994446000000000E-01      2.044238000000000E+01      1.879196000000000E-01      1.574453000000000E+02
4936000000.000000      3.969879000000000E-01      2.015625000000000E+01      1.840134000000000E-01      1.575781000000000E+02
4937000000.000000      3.971252000000000E-01      1.995312000000000E+01      1.800156000000000E-01      1.575391000000000E+02
4938000000.000000      3.968811000000000E-01      2.002246000000000E+01      1.764069000000000E-01      1.577500000000000E+02
4939000000.000000      3.967743000000000E-01      1.982715000000000E+01      1.726837000000000E-01      1.580234000000000E+02
4940000000.000000      3.963318000000000E-01      1.951660000000000E+01      1.678772000000000E-01      1.582344000000000E+02
4941000000.000000      3.959503000000000E-01      1.937695000000000E+01      1.647949000000000E-01      1.586094000000000E+02
4942000000.000000      3.959351000000000E-01      1.922266000000000E+01      1.605225000000000E-01      1.591094000000000E+02
4943000000.000000      3.956451000000000E-01      1.917187000000000E+01      1.569138000000000E-01      1.596484000000000E+02
4944000000.000000      3.955841000000000E-01      1.886133000000000E+01      1.540070000000000E-01      1.599453000000000E+02
4945000000.000000      3.947296000000000E-01      1.862793000000000E+01      1.501083000000000E-01      1.606016000000000E+02
4946000000.000000      3.955078000000000E-01      1.860352000000000E+01      1.461792000000000E-01      1.613203000000000E+02
4947000000.000000      3.950806000000000E-01      1.839648000000000E+01      1.427460000000000E-01      1.622500000000000E+02
4948000000.000000      3.947906000000000E-01      1.821094000000000E+01      1.396866000000000E-01      1.628906000000000E+02
4949000000.000000      3.928833000000000E-01      1.802930000000000E+01      1.368484000000000E-01      1.640391000000000E+02
4950000000.000000      3.937836000000000E-01      1.802930000000000E+01      1.339340000000000E-01      1.647500000000000E+02
4951000000.000000      3.945618000000000E-01      1.781934000000000E+01      1.308670000000000E-01      1.658828000000000E+02
4952000000.000000      3.928986000000000E-01      1.757031000000000E+01      1.282349000000000E-01      1.670312000000000E+02
4953000000.000000      3.925323000000000E-01      1.747559000000000E+01      1.255112000000000E-01      1.684609000000000E+02
4954000000.000000      3.927002000000000E-01      1.719727000000000E+01      1.231346000000000E-01      1.696484000000000E+02
