! Network Analyzer HP8722D
! Hewlett-Packard
! Data name: Linha & Wilkinson
! Saver's name: Rodrigo Anjos
! Comments: Teste da utilização de aquisição
continua pelo VNA HP8722D
! Time and date: 23/5/2025 12:41
!              Frequency                     S11                                                   S21                                                   S12                                                   S22
# HZ  S  MA R 50
4800000000.000000      2.884064000000000E-01      3.954492000000000E+01      4.837952000000000E-01     -1.296172000000000E+02
4801000000.000000      2.893829000000000E-01      3.980469000000000E+01      4.844666000000000E-01     -1.302500000000000E+02
4802000000.000000      2.909698000000000E-01      4.002343000000000E+01      4.845428000000000E-01     -1.308438000000000E+02
4803000000.000000      2.916718000000000E-01      4.021680000000000E+01      4.895782000000000E-01     -1.315234000000000E+02
4804000000.000000      2.925110000000000E-01      4.043750000000000E+01      4.897156000000000E-01     -1.323203000000000E+02
4805000000.000000      2.946930000000000E-01      4.059960000000000E+01      4.911804000000000E-01     -1.331250000000000E+02
4806000000.000000      2.953491000000000E-01      4.081250000000000E+01      4.939270000000000E-01     -1.338672000000000E+02
4807000000.000000      2.967072000000000E-01      4.089844000000000E+01      4.955902000000000E-01     -1.346875000000000E+02
4808000000.000000      2.976074000000000E-01      4.111133000000000E+01      4.977417000000000E-01     -1.352344000000000E+02
4809000000.000000      2.998505000000000E-01      4.131055000000000E+01      4.977722000000000E-01     -1.361719000000000E+02
4810000000.000000      3.010254000000000E-01      4.138672000000000E+01      4.973907000000000E-01     -1.366016000000000E+02
4811000000.000000      3.029175000000000E-01      4.154101000000000E+01      4.999542000000000E-01     -1.375781000000000E+02
4812000000.000000      3.046265000000000E-01      4.164648000000000E+01      4.992676000000000E-01     -1.382344000000000E+02
4813000000.000000      3.057556000000000E-01      4.189649000000000E+01      5.010376000000000E-01     -1.389297000000000E+02
4814000000.000000      3.071136000000000E-01      4.193164000000000E+01      5.015259000000000E-01     -1.396797000000000E+02
4815000000.000000      3.086243000000000E-01      4.206640000000000E+01      5.031128000000000E-01     -1.403047000000000E+02
4816000000.000000      3.111420000000000E-01      4.212500000000000E+01      5.031738000000000E-01     -1.409765000000000E+02
4817000000.000000      3.124695000000000E-01      4.216016000000000E+01      5.021057000000000E-01     -1.419141000000000E+02
4818000000.000000      3.137512000000000E-01      4.216406000000000E+01      5.032043000000000E-01     -1.426797000000000E+02
4819000000.000000      3.161316000000000E-01      4.216992000000000E+01      5.034485000000000E-01     -1.434219000000000E+02
4820000000.000000      3.171082000000000E-01      4.225586000000000E+01      5.044556000000000E-01     -1.439609000000000E+02
4821000000.000000      3.199921000000000E-01      4.239843000000000E+01      5.054321000000000E-01     -1.446640000000000E+02
4822000000.000000      3.206482000000000E-01      4.221875000000000E+01      5.035400000000000E-01     -1.455781000000000E+02
4823000000.000000      3.225708000000000E-01      4.222265000000000E+01      5.029297000000000E-01     -1.463125000000000E+02
4824000000.000000      3.250580000000000E-01      4.237695000000000E+01      5.029907000000000E-01     -1.470000000000000E+02
4825000000.000000      3.266602000000000E-01      4.232031000000000E+01      5.028076000000000E-01     -1.476953000000000E+02
4826000000.000000      3.287201000000000E-01      4.223046000000000E+01      5.034790000000000E-01     -1.485078000000000E+02
4827000000.000000      3.306122000000000E-01      4.225195000000000E+01      5.029297000000000E-01     -1.491719000000000E+02
4828000000.000000      3.323669000000000E-01      4.215234000000000E+01      5.029602000000000E-01     -1.498984000000000E+02
4829000000.000000      3.337708000000000E-01      4.227148000000000E+01      5.017700000000000E-01     -1.505781000000000E+02
4830000000.000000      3.356476000000000E-01      4.198828000000000E+01      5.015259000000000E-01     -1.514062000000000E+02
4831000000.000000      3.372345000000000E-01      4.196094000000000E+01      5.008850000000000E-01     -1.522734000000000E+02
4832000000.000000      3.391876000000000E-01      4.199023000000000E+01      4.994812000000000E-01     -1.528906000000000E+02
4833000000.000000      3.404694000000000E-01      4.178320000000000E+01      4.994354000000000E-01     -1.534688000000000E+02
4834000000.000000      3.422546000000000E-01      4.158008000000000E+01      4.984436000000000E-01     -1.542109000000000E+02
4835000000.000000      3.445740000000000E-01      4.154882000000000E+01      4.987335000000000E-01     -1.550234000000000E+02
4836000000.000000      3.461914000000000E-01      4.157227000000000E+01      4.964294000000000E-01     -1.556015000000000E+02
4837000000.000000      3.478241000000000E-01      4.134179000000000E+01      4.961243000000000E-01     -1.565312000000000E+02
4838000000.000000      3.486481000000000E-01      4.113086000000000E+01      4.950256000000000E-01     -1.571484000000000E+02
4839000000.000000      3.521423000000000E-01      4.108788000000000E+01      4.937286000000000E-01     -1.576797000000000E+02
4840000000.000000      3.533173000000000E-01      4.081640000000000E+01      4.942322000000000E-01     -1.583672000000000E+02
4841000000.000000      3.547974000000000E-01      4.084570000000000E+01      4.921417000000000E-01     -1.593672000000000E+02
4842000000.000000      3.564911000000000E-01      4.062500000000000E+01      4.904480000000000E-01     -1.598750000000000E+02
4843000000.000000      3.588257000000000E-01      4.018945000000000E+01      4.898071000000000E-01     -1.607031000000000E+02
4844000000.000000      3.594666000000000E-01      4.011719000000000E+01      4.871521000000000E-01     -1.614063000000000E+02
4845000000.000000      3.607178000000000E-01      4.000586000000000E+01      4.855042000000000E-01     -1.620234000000000E+02
4846000000.000000      3.628998000000000E-01      3.988476000000000E+01      4.853668000000000E-01     -1.626953000000000E+02
4847000000.000000      3.639679000000000E-01      3.968359000000000E+01      4.840546000000000E-01     -1.632813000000000E+02
4848000000.000000      3.653870000000000E-01      3.952539000000000E+01      4.791565000000000E-01     -1.641797000000000E+02
4849000000.000000      3.659210000000000E-01      3.920703000000000E+01      4.793549000000000E-01     -1.649141000000000E+02
4850000000.000000      3.685150000000000E-01      3.902539000000000E+01      4.767303000000000E-01     -1.656484000000000E+02
4851000000.000000      3.698273000000000E-01      3.894531000000000E+01      4.751740000000000E-01     -1.663750000000000E+02
4852000000.000000      3.709259000000000E-01      3.863867000000000E+01      4.738464000000000E-01     -1.670625000000000E+02
4853000000.000000      3.726044000000000E-01      3.838086000000000E+01      4.699402000000000E-01     -1.677109000000000E+02
4854000000.000000      3.733673000000000E-01      3.812695000000000E+01      4.686584000000000E-01     -1.684375000000000E+02
4855000000.000000      3.746643000000000E-01      3.807226000000000E+01      4.668884000000000E-01     -1.691250000000000E+02
4856000000.000000      3.757324000000000E-01      3.771289000000000E+01      4.648895000000000E-01     -1.697500000000000E+02
4857000000.000000      3.772430000000000E-01      3.750781000000000E+01      4.629211000000000E-01     -1.704297000000000E+02
4858000000.000000      3.779297000000000E-01      3.717773000000000E+01      4.600372000000000E-01     -1.710938000000000E+02
4859000000.000000      3.786469000000000E-01      3.693359000000000E+01      4.581757000000000E-01     -1.719531000000000E+02
4860000000.000000      3.800201000000000E-01      3.680273000000000E+01      4.539490000000000E-01     -1.726250000000000E+02
4861000000.000000      3.812866000000000E-01      3.648828000000000E+01      4.523621000000000E-01     -1.733672000000000E+02
4862000000.000000      3.814850000000000E-01      3.625586000000000E+01      4.499359000000000E-01     -1.738203000000000E+02
4863000000.000000      3.831940000000000E-01      3.603320000000000E+01      4.457550000000000E-01     -1.746094000000000E+02
4864000000.000000      3.840179000000000E-01      3.571484000000000E+01      4.442444000000000E-01     -1.751562000000000E+02
4865000000.000000      3.845062000000000E-01      3.538671000000000E+01      4.402924000000000E-01     -1.758594000000000E+02
4866000000.000000      3.854370000000000E-01      3.512890000000000E+01      4.371948000000000E-01     -1.765156000000000E+02
4867000000.000000      3.856964000000000E-01      3.486328000000000E+01      4.336853000000000E-01     -1.772969000000000E+02
4868000000.000000      3.871765000000000E-01      3.462305000000000E+01      4.323425000000000E-01     -1.779609000000000E+02
4869000000.000000      3.869476000000000E-01      3.441601000000000E+01      4.286041000000000E-01     -1.787500000000000E+02
4870000000.000000      3.886414000000000E-01      3.422266000000000E+01      4.261780000000000E-01     -1.790156000000000E+02
4871000000.000000      3.882141000000000E-01      3.380078000000000E+01      4.218597000000000E-01     -1.798906000000000E+02
4872000000.000000      3.902893000000000E-01      3.368164000000000E+01      4.195099000000000E-01      1.795859000000000E+02
4873000000.000000      3.898468000000000E-01      3.352734000000000E+01      4.155884000000000E-01      1.788750000000000E+02
4874000000.000000      3.898621000000000E-01      3.318750000000000E+01      4.122009000000000E-01      1.783437000000000E+02
4875000000.000000      3.909607000000000E-01      3.277734000000000E+01      4.087524000000000E-01      1.777266000000000E+02
4876000000.000000      3.917542000000000E-01      3.269726000000000E+01      4.054108000000000E-01      1.773281000000000E+02
4877000000.000000      3.920898000000000E-01      3.229101000000000E+01      4.014587000000000E-01      1.765312000000000E+02
4878000000.000000      3.922424000000000E-01      3.201953000000000E+01      3.994141000000000E-01      1.760234000000000E+02
4879000000.000000      3.934479000000000E-01      3.185156000000000E+01      3.940735000000000E-01      1.754688000000000E+02
4880000000.000000      3.940277000000000E-01      3.156836000000000E+01      3.904877000000000E-01      1.749297000000000E+02
4881000000.000000      3.929138000000000E-01      3.132715000000000E+01      3.886871000000000E-01      1.744219000000000E+02
4882000000.000000      3.939972000000000E-01      3.109375000000000E+01      3.856964000000000E-01      1.740078000000000E+02
4883000000.000000      3.932953000000000E-01      3.079297000000000E+01      3.809509000000000E-01      1.734141000000000E+02
4884000000.000000      3.947296000000000E-01      3.063183000000000E+01      3.769684000000000E-01      1.727500000000000E+02
4885000000.000000      3.943787000000000E-01      3.031738000000000E+01      3.732758000000000E-01      1.725859000000000E+02
4886000000.000000      3.951874000000000E-01      3.013184000000000E+01      3.690186000000000E-01      1.721406000000000E+02
4887000000.000000      3.947144000000000E-01      2.981934000000000E+01      3.665009000000000E-01      1.713672000000000E+02
4888000000.000000      3.944855000000000E-01      2.949121000000000E+01      3.638458000000000E-01      1.709531000000000E+02
4889000000.000000      3.945923000000000E-01      2.937597000000000E+01      3.595886000000000E-01      1.705469000000000E+02
4890000000.000000      3.940430000000000E-01      2.912012000000000E+01      3.561401000000000E-01      1.697656000000000E+02
4891000000.000000      3.942719000000000E-01      2.899902000000000E+01      3.515167000000000E-01      1.693906000000000E+02
4892000000.000000      3.948975000000000E-01      2.865723000000000E+01      3.479004000000000E-01      1.691015000000000E+02
4893000000.000000      3.953094000000000E-01      2.849804000000000E+01      3.449707000000000E-01      1.686328000000000E+02
4894000000.000000      3.943176000000000E-01      2.811230000000000E+01      3.411255000000000E-01      1.682422000000000E+02
4895000000.000000      3.956604000000000E-01      2.788379000000000E+01      3.386078000000000E-01      1.679297000000000E+02
4896000000.000000      3.947754000000000E-01      2.767675000000000E+01      3.349915000000000E-01      1.674219000000000E+02
4897000000.000000      3.947449000000000E-01      2.745800000000000E+01      3.297729000000000E-01      1.670156000000000E+02
4898000000.000000      3.946075000000000E-01      2.730566000000000E+01      3.279572000000000E-01      1.667187000000000E+02
4899000000.000000      3.940735000000000E-01      2.709473000000000E+01      3.238525000000000E-01      1.659922000000000E+02
4900000000.000000      3.944244000000000E-01      2.679492000000000E+01      3.216553000000000E-01      1.658281000000000E+02
4901000000.000000      3.937225000000000E-01      2.660058000000000E+01      3.177490000000000E-01      1.654375000000000E+02
4902000000.000000      3.938599000000000E-01      2.634082000000000E+01      3.141785000000000E-01      1.650703000000000E+02
4903000000.000000      3.940735000000000E-01      2.626660000000000E+01      3.104858000000000E-01      1.646484000000000E+02
4904000000.000000      3.937225000000000E-01      2.590625000000000E+01      3.068237000000000E-01      1.642031000000000E+02
4905000000.000000      3.937225000000000E-01      2.568457000000000E+01      3.044128000000000E-01      1.637891000000000E+02
4906000000.000000      3.930817000000000E-01      2.554101000000000E+01      3.005371000000000E-01      1.636016000000000E+02
4907000000.000000      3.928833000000000E-01      2.531347000000000E+01      2.976685000000000E-01      1.628906000000000E+02
4908000000.000000      3.930817000000000E-01      2.512402000000000E+01      2.942657000000000E-01      1.626328000000000E+02
4909000000.000000      3.913269000000000E-01      2.494238000000000E+01      2.903137000000000E-01      1.622734000000000E+02
4910000000.000000      3.921661000000000E-01      2.479297000000000E+01      2.871246000000000E-01      1.619766000000000E+02
4911000000.000000      3.924866000000000E-01      2.465332000000000E+01      2.835999000000000E-01      1.616250000000000E+02
4912000000.000000      3.910522000000000E-01      2.452343000000000E+01      2.799225000000000E-01      1.610547000000000E+02
4913000000.000000      3.917999000000000E-01      2.413476000000000E+01      2.762604000000000E-01      1.607265000000000E+02
4914000000.000000      3.912048000000000E-01      2.398438000000000E+01      2.725677000000000E-01      1.604687000000000E+02
4915000000.000000      3.905640000000000E-01      2.385937000000000E+01      2.684937000000000E-01      1.600312000000000E+02
4916000000.000000      3.905182000000000E-01      2.363672000000000E+01      2.647095000000000E-01      1.596172000000000E+02
4917000000.000000      3.892822000000000E-01      2.350098000000000E+01      2.615356000000000E-01      1.593906000000000E+02
4918000000.000000      3.909454000000000E-01      2.328320000000000E+01      2.571106000000000E-01      1.592344000000000E+02
4919000000.000000      3.892517000000000E-01      2.319434000000000E+01      2.542114000000000E-01      1.589062000000000E+02
4920000000.000000      3.896332000000000E-01      2.296093000000000E+01      2.497559000000000E-01      1.583437000000000E+02
4921000000.000000      3.894653000000000E-01      2.291406000000000E+01      2.464905000000000E-01      1.581719000000000E+02
4922000000.000000      3.897095000000000E-01      2.253222000000000E+01      2.423172000000000E-01      1.581640000000000E+02
4923000000.000000      3.893127000000000E-01      2.237305000000000E+01      2.380600000000000E-01      1.577031000000000E+02
4924000000.000000      3.880615000000000E-01      2.227832000000000E+01      2.343979000000000E-01      1.575625000000000E+02
4925000000.000000      3.876343000000000E-01      2.202734000000000E+01      2.301636000000000E-01      1.572109000000000E+02
4926000000.000000      3.876801000000000E-01      2.187304000000000E+01      2.267456000000000E-01      1.570781000000000E+02
4927000000.000000      3.873138000000000E-01      2.155468000000000E+01      2.224197000000000E-01      1.566328000000000E+02
4928000000.000000      3.885345000000000E-01      2.142188000000000E+01      2.186737000000000E-01      1.568672000000000E+02
4929000000.000000      3.871307000000000E-01      2.125000000000000E+01      2.143250000000000E-01      1.566328000000000E+02
4930000000.000000      3.873138000000000E-01      2.122363000000000E+01      2.104950000000000E-01      1.566015000000000E+02
4931000000.000000      3.860931000000000E-01      2.084179000000000E+01      2.066650000000000E-01      1.564219000000000E+02
4932000000.000000      3.866119000000000E-01      2.086230000000000E+01      2.028275000000000E-01      1.563750000000000E+02
4933000000.000000      3.860779000000000E-01      2.059180000000000E+01      1.983414000000000E-01      1.566172000000000E+02
4934000000.000000      3.864594000000000E-01      2.035449000000000E+01      1.939468000000000E-01      1.564141000000000E+02
4935000000.000000      3.859253000000000E-01      2.046582000000000E+01      1.903229000000000E-01      1.566328000000000E+02
4936000000.000000      3.847656000000000E-01      2.008008000000000E+01      1.863022000000000E-01      1.568047000000000E+02
4937000000.000000      3.862152000000000E-01      1.986133000000000E+01      1.821518000000000E-01      1.567891000000000E+02
4938000000.000000      3.848877000000000E-01      1.980762000000000E+01      1.781998000000000E-01      1.569141000000000E+02
4939000000.000000      3.838501000000000E-01      1.977637000000000E+01      1.744766000000000E-01      1.573672000000000E+02
4940000000.000000      3.854218000000000E-01      1.945117000000000E+01      1.702576000000000E-01      1.573828000000000E+02
4941000000.000000      3.842468000000000E-01      1.922559000000000E+01      1.670532000000000E-01      1.579375000000000E+02
4942000000.000000      3.831787000000000E-01      1.923242000000000E+01      1.627274000000000E-01      1.582891000000000E+02
4943000000.000000      3.835297000000000E-01      1.905664000000000E+01      1.593018000000000E-01      1.590625000000000E+02
4944000000.000000      3.836823000000000E-01      1.877344000000000E+01      1.552963000000000E-01      1.593984000000000E+02
4945000000.000000      3.830566000000000E-01      1.867480000000000E+01      1.515579000000000E-01      1.599219000000000E+02
4946000000.000000      3.829193000000000E-01      1.847754000000000E+01      1.484833000000000E-01      1.605781000000000E+02
4947000000.000000      3.830261000000000E-01      1.822266000000000E+01      1.446762000000000E-01      1.613516000000000E+02
4948000000.000000      3.827972000000000E-01      1.808008000000000E+01      1.415558000000000E-01      1.621250000000000E+02
4949000000.000000      3.806000000000000E-01      1.793066000000000E+01      1.384964000000000E-01      1.634297000000000E+02
4950000000.000000      3.813171000000000E-01      1.782910000000000E+01      1.353760000000000E-01      1.643594000000000E+02
4951000000.000000      3.817749000000000E-01      1.763086000000000E+01      1.327515000000000E-01      1.651172000000000E+02
4952000000.000000      3.807068000000000E-01      1.749023000000000E+01      1.295700000000000E-01      1.664687000000000E+02
4953000000.000000      3.798523000000000E-01      1.731445000000000E+01      1.270981000000000E-01      1.677187000000000E+02
4954000000.000000      3.805237000000000E-01      1.721191000000000E+01      1.247940000000000E-01      1.690391000000000E+02
