! Network Analyzer HP8722D
! Hewlett-Packard
! Data name: Linha & Wilkinson
! Saver's name: Rodrigo Anjos
! Comments: Teste da utilização de aquisição
continua pelo VNA HP8722D
! Time and date: 23/5/2025 13:03
!              Frequency                     S11                                                   S21                                                   S12                                                   S22
# HZ  S  MA R 50
4800000000.000000      2.860260000000000E-01      3.970703000000000E+01      4.848785000000000E-01     -1.295938000000000E+02
4801000000.000000      2.869415000000000E-01      4.004102000000000E+01      4.850769000000000E-01     -1.302109000000000E+02
4802000000.000000      2.880859000000000E-01      4.017383000000000E+01      4.877930000000000E-01     -1.308906000000000E+02
4803000000.000000      2.890625000000000E-01      4.039648000000000E+01      4.910278000000000E-01     -1.316641000000000E+02
4804000000.000000      2.902985000000000E-01      4.058594000000000E+01      4.914703000000000E-01     -1.322969000000000E+02
4805000000.000000      2.925415000000000E-01      4.068359000000000E+01      4.939880000000000E-01     -1.330781000000000E+02
4806000000.000000      2.933502000000000E-01      4.088281000000000E+01      4.945526000000000E-01     -1.339219000000000E+02
4807000000.000000      2.946625000000000E-01      4.108594000000000E+01      4.949036000000000E-01     -1.347031000000000E+02
4808000000.000000      2.952576000000000E-01      4.130078000000000E+01      4.975433000000000E-01     -1.354922000000000E+02
4809000000.000000      2.971497000000000E-01      4.152929000000000E+01      4.980316000000000E-01     -1.361641000000000E+02
4810000000.000000      2.994385000000000E-01      4.165429000000000E+01      4.992981000000000E-01     -1.368125000000000E+02
4811000000.000000      3.003998000000000E-01      4.175781000000000E+01      5.024414000000000E-01     -1.373750000000000E+02
4812000000.000000      3.026581000000000E-01      4.192968000000000E+01      5.017395000000000E-01     -1.381719000000000E+02
4813000000.000000      3.039093000000000E-01      4.204687000000000E+01      5.021362000000000E-01     -1.390234000000000E+02
4814000000.000000      3.055420000000000E-01      4.210742000000000E+01      5.019531000000000E-01     -1.396484000000000E+02
4815000000.000000      3.069611000000000E-01      4.225195000000000E+01      5.031433000000000E-01     -1.404766000000000E+02
4816000000.000000      3.090668000000000E-01      4.231250000000000E+01      5.049133000000000E-01     -1.411641000000000E+02
4817000000.000000      3.097076000000000E-01      4.247851000000000E+01      5.039673000000000E-01     -1.418984000000000E+02
4818000000.000000      3.117218000000000E-01      4.235352000000000E+01      5.046387000000000E-01     -1.427500000000000E+02
4819000000.000000      3.141174000000000E-01      4.244531000000000E+01      5.054932000000000E-01     -1.435234000000000E+02
4820000000.000000      3.146210000000000E-01      4.252343000000000E+01      5.050049000000000E-01     -1.439297000000000E+02
4821000000.000000      3.177643000000000E-01      4.259375000000000E+01      5.060730000000000E-01     -1.449687000000000E+02
4822000000.000000      3.188782000000000E-01      4.240820000000000E+01      5.048828000000000E-01     -1.456875000000000E+02
4823000000.000000      3.210754000000000E-01      4.245117000000000E+01      5.077515000000000E-01     -1.463359000000000E+02
4824000000.000000      3.228455000000000E-01      4.257421000000000E+01      5.034790000000000E-01     -1.471953000000000E+02
4825000000.000000      3.249054000000000E-01      4.250000000000000E+01      5.056152000000000E-01     -1.476641000000000E+02
4826000000.000000      3.264160000000000E-01      4.234375000000000E+01      5.057373000000000E-01     -1.485234000000000E+02
4827000000.000000      3.279266000000000E-01      4.243360000000000E+01      5.037842000000000E-01     -1.491875000000000E+02
4828000000.000000      3.306580000000000E-01      4.233984000000000E+01      5.043335000000000E-01     -1.500313000000000E+02
4829000000.000000      3.318024000000000E-01      4.238867000000000E+01      5.041809000000000E-01     -1.506484000000000E+02
4830000000.000000      3.338623000000000E-01      4.216406000000000E+01      5.041199000000000E-01     -1.514766000000000E+02
4831000000.000000      3.350220000000000E-01      4.216016000000000E+01      5.031128000000000E-01     -1.521719000000000E+02
4832000000.000000      3.371735000000000E-01      4.211914000000000E+01      5.012817000000000E-01     -1.529609000000000E+02
4833000000.000000      3.385010000000000E-01      4.199804000000000E+01      5.005188000000000E-01     -1.534297000000000E+02
4834000000.000000      3.404083000000000E-01      4.189453000000000E+01      5.006104000000000E-01     -1.541719000000000E+02
4835000000.000000      3.427277000000000E-01      4.176758000000000E+01      4.996796000000000E-01     -1.550390000000000E+02
4836000000.000000      3.443451000000000E-01      4.162890000000000E+01      4.978790000000000E-01     -1.556953000000000E+02
4837000000.000000      3.456726000000000E-01      4.166992000000000E+01      4.960632000000000E-01     -1.566094000000000E+02
4838000000.000000      3.466644000000000E-01      4.132226000000000E+01      4.966888000000000E-01     -1.570469000000000E+02
4839000000.000000      3.505859000000000E-01      4.135742000000000E+01      4.951324000000000E-01     -1.578203000000000E+02
4840000000.000000      3.514099000000000E-01      4.104101000000000E+01      4.947510000000000E-01     -1.585156000000000E+02
4841000000.000000      3.528595000000000E-01      4.096484000000000E+01      4.925537000000000E-01     -1.594063000000000E+02
4842000000.000000      3.541870000000000E-01      4.072266000000000E+01      4.923553000000000E-01     -1.599766000000000E+02
4843000000.000000      3.569794000000000E-01      4.049805000000000E+01      4.906769000000000E-01     -1.607265000000000E+02
4844000000.000000      3.573608000000000E-01      4.024610000000000E+01      4.888763000000000E-01     -1.613359000000000E+02
4845000000.000000      3.588715000000000E-01      4.018359000000000E+01      4.873352000000000E-01     -1.621953000000000E+02
4846000000.000000      3.610992000000000E-01      3.994726000000000E+01      4.865570000000000E-01     -1.628203000000000E+02
4847000000.000000      3.629608000000000E-01      3.986523000000000E+01      4.847870000000000E-01     -1.634922000000000E+02
4848000000.000000      3.631897000000000E-01      3.957812000000000E+01      4.833679000000000E-01     -1.641484000000000E+02
4849000000.000000      3.648529000000000E-01      3.932617000000000E+01      4.817657000000000E-01     -1.649922000000000E+02
4850000000.000000      3.662109000000000E-01      3.914648000000000E+01      4.786072000000000E-01     -1.655703000000000E+02
4851000000.000000      3.680115000000000E-01      3.904101000000000E+01      4.767303000000000E-01     -1.663437000000000E+02
4852000000.000000      3.694611000000000E-01      3.875391000000000E+01      4.751892000000000E-01     -1.671641000000000E+02
4853000000.000000      3.704376000000000E-01      3.856054000000000E+01      4.709473000000000E-01     -1.678047000000000E+02
4854000000.000000      3.718872000000000E-01      3.826953000000000E+01      4.703064000000000E-01     -1.686016000000000E+02
4855000000.000000      3.721924000000000E-01      3.814844000000000E+01      4.676208000000000E-01     -1.691641000000000E+02
4856000000.000000      3.743744000000000E-01      3.787109000000000E+01      4.654388000000000E-01     -1.699219000000000E+02
4857000000.000000      3.748932000000000E-01      3.771289000000000E+01      4.632568000000000E-01     -1.704531000000000E+02
4858000000.000000      3.759918000000000E-01      3.732617000000000E+01      4.602509000000000E-01     -1.712969000000000E+02
4859000000.000000      3.776093000000000E-01      3.702343000000000E+01      4.592590000000000E-01     -1.720078000000000E+02
4860000000.000000      3.778381000000000E-01      3.691601000000000E+01      4.559631000000000E-01     -1.725859000000000E+02
4861000000.000000      3.788147000000000E-01      3.664258000000000E+01      4.540100000000000E-01     -1.733047000000000E+02
4862000000.000000      3.800659000000000E-01      3.633789000000000E+01      4.509430000000000E-01     -1.738281000000000E+02
4863000000.000000      3.810730000000000E-01      3.616406000000000E+01      4.478302000000000E-01     -1.747031000000000E+02
4864000000.000000      3.818817000000000E-01      3.591015000000000E+01      4.449463000000000E-01     -1.751953000000000E+02
4865000000.000000      3.823700000000000E-01      3.548828000000000E+01      4.415283000000000E-01     -1.759140000000000E+02
4866000000.000000      3.835754000000000E-01      3.533203000000000E+01      4.398346000000000E-01     -1.765234000000000E+02
4867000000.000000      3.837738000000000E-01      3.504297000000000E+01      4.350433000000000E-01     -1.773359000000000E+02
4868000000.000000      3.852692000000000E-01      3.484570000000000E+01      4.322510000000000E-01     -1.779922000000000E+02
4869000000.000000      3.855743000000000E-01      3.463281000000000E+01      4.288635000000000E-01     -1.785859000000000E+02
4870000000.000000      3.861542000000000E-01      3.422852000000000E+01      4.288788000000000E-01     -1.789297000000000E+02
4871000000.000000      3.864899000000000E-01      3.388867000000000E+01      4.231415000000000E-01     -1.799375000000000E+02
4872000000.000000      3.878784000000000E-01      3.376758000000000E+01      4.195862000000000E-01      1.796250000000000E+02
4873000000.000000      3.879089000000000E-01      3.351953000000000E+01      4.160767000000000E-01      1.788984000000000E+02
4874000000.000000      3.881531000000000E-01      3.327343000000000E+01      4.126282000000000E-01      1.784922000000000E+02
4875000000.000000      3.888702000000000E-01      3.302929000000000E+01      4.085541000000000E-01      1.777812000000000E+02
4876000000.000000      3.900604000000000E-01      3.281445000000000E+01      4.055786000000000E-01      1.771484000000000E+02
4877000000.000000      3.912048000000000E-01      3.234570000000000E+01      4.041138000000000E-01      1.764688000000000E+02
4878000000.000000      3.900909000000000E-01      3.221094000000000E+01      3.994446000000000E-01      1.761328000000000E+02
4879000000.000000      3.917847000000000E-01      3.197754000000000E+01      3.949738000000000E-01      1.755703000000000E+02
4880000000.000000      3.922882000000000E-01      3.164844000000000E+01      3.927460000000000E-01      1.748125000000000E+02
4881000000.000000      3.916321000000000E-01      3.145020000000000E+01      3.896790000000000E-01      1.744375000000000E+02
4882000000.000000      3.920746000000000E-01      3.122265000000000E+01      3.869019000000000E-01      1.740547000000000E+02
4883000000.000000      3.916626000000000E-01      3.092090000000000E+01      3.801880000000000E-01      1.732031000000000E+02
4884000000.000000      3.922424000000000E-01      3.068262000000000E+01      3.776398000000000E-01      1.728203000000000E+02
4885000000.000000      3.932190000000000E-01      3.034472000000000E+01      3.751068000000000E-01      1.725703000000000E+02
4886000000.000000      3.931274000000000E-01      3.012695000000000E+01      3.715515000000000E-01      1.718281000000000E+02
4887000000.000000      3.923187000000000E-01      2.982422000000000E+01      3.680267000000000E-01      1.714844000000000E+02
4888000000.000000      3.931732000000000E-01      2.955859000000000E+01      3.650055000000000E-01      1.707813000000000E+02
4889000000.000000      3.928070000000000E-01      2.943554000000000E+01      3.598785000000000E-01      1.704219000000000E+02
4890000000.000000      3.916931000000000E-01      2.914453000000000E+01      3.570557000000000E-01      1.698516000000000E+02
4891000000.000000      3.934021000000000E-01      2.893359000000000E+01      3.533020000000000E-01      1.693125000000000E+02
4892000000.000000      3.923798000000000E-01      2.871094000000000E+01      3.506317000000000E-01      1.689687000000000E+02
4893000000.000000      3.927612000000000E-01      2.841113000000000E+01      3.459015000000000E-01      1.686484000000000E+02
4894000000.000000      3.919830000000000E-01      2.831152000000000E+01      3.431549000000000E-01      1.681250000000000E+02
4895000000.000000      3.937225000000000E-01      2.791308000000000E+01      3.406677000000000E-01      1.676016000000000E+02
4896000000.000000      3.929596000000000E-01      2.771484000000000E+01      3.361206000000000E-01      1.672266000000000E+02
4897000000.000000      3.926697000000000E-01      2.761621000000000E+01      3.317566000000000E-01      1.667812000000000E+02
4898000000.000000      3.914795000000000E-01      2.728125000000000E+01      3.294067000000000E-01      1.665625000000000E+02
4899000000.000000      3.919067000000000E-01      2.712207000000000E+01      3.263855000000000E-01      1.658906000000000E+02
4900000000.000000      3.912354000000000E-01      2.679101000000000E+01      3.226929000000000E-01      1.657344000000000E+02
4901000000.000000      3.920288000000000E-01      2.666308000000000E+01      3.194275000000000E-01      1.654219000000000E+02
4902000000.000000      3.925171000000000E-01      2.647754000000000E+01      3.161926000000000E-01      1.651250000000000E+02
4903000000.000000      3.919220000000000E-01      2.617871000000000E+01      3.121185000000000E-01      1.644766000000000E+02
4904000000.000000      3.916626000000000E-01      2.603125000000000E+01      3.082428000000000E-01      1.641562000000000E+02
4905000000.000000      3.907471000000000E-01      2.586035000000000E+01      3.052063000000000E-01      1.636797000000000E+02
4906000000.000000      3.904877000000000E-01      2.559473000000000E+01      3.020020000000000E-01      1.634922000000000E+02
4907000000.000000      3.905334000000000E-01      2.538769000000000E+01      2.993317000000000E-01      1.628906000000000E+02
4908000000.000000      3.907166000000000E-01      2.512402000000000E+01      2.951660000000000E-01      1.626094000000000E+02
4909000000.000000      3.901520000000000E-01      2.490039000000000E+01      2.913818000000000E-01      1.622422000000000E+02
4910000000.000000      3.898163000000000E-01      2.469922000000000E+01      2.879486000000000E-01      1.618828000000000E+02
4911000000.000000      3.900909000000000E-01      2.456738000000000E+01      2.844696000000000E-01      1.614297000000000E+02
4912000000.000000      3.891449000000000E-01      2.453711000000000E+01      2.805328000000000E-01      1.610547000000000E+02
4913000000.000000      3.893890000000000E-01      2.414648000000000E+01      2.781830000000000E-01      1.607344000000000E+02
4914000000.000000      3.896332000000000E-01      2.400781000000000E+01      2.743378000000000E-01      1.603516000000000E+02
4915000000.000000      3.889160000000000E-01      2.392676000000000E+01      2.699127000000000E-01      1.599766000000000E+02
4916000000.000000      3.882294000000000E-01      2.366113000000000E+01      2.667389000000000E-01      1.594844000000000E+02
4917000000.000000      3.880157000000000E-01      2.344433000000000E+01      2.629547000000000E-01      1.593750000000000E+02
4918000000.000000      3.881378000000000E-01      2.324902000000000E+01      2.590942000000000E-01      1.588125000000000E+02
4919000000.000000      3.877106000000000E-01      2.315430000000000E+01      2.556458000000000E-01      1.588125000000000E+02
4920000000.000000      3.868713000000000E-01      2.285547000000000E+01      2.506256000000000E-01      1.583359000000000E+02
4921000000.000000      3.863220000000000E-01      2.281543000000000E+01      2.478104000000000E-01      1.580312000000000E+02
4922000000.000000      3.874207000000000E-01      2.253613000000000E+01      2.436142000000000E-01      1.580391000000000E+02
4923000000.000000      3.869934000000000E-01      2.242969000000000E+01      2.394180000000000E-01      1.577344000000000E+02
4924000000.000000      3.859558000000000E-01      2.226855000000000E+01      2.352066000000000E-01      1.572891000000000E+02
4925000000.000000      3.863220000000000E-01      2.198340000000000E+01      2.321167000000000E-01      1.571172000000000E+02
4926000000.000000      3.859863000000000E-01      2.195410000000000E+01      2.274857000000000E-01      1.570234000000000E+02
4927000000.000000      3.850555000000000E-01      2.168262000000000E+01      2.236328000000000E-01      1.566953000000000E+02
4928000000.000000      3.855591000000000E-01      2.150097000000000E+01      2.196808000000000E-01      1.565078000000000E+02
4929000000.000000      3.845825000000000E-01      2.124609000000000E+01      2.162704000000000E-01      1.563984000000000E+02
4930000000.000000      3.849487000000000E-01      2.141016000000000E+01      2.117310000000000E-01      1.563125000000000E+02
4931000000.000000      3.843994000000000E-01      2.091992000000000E+01      2.081604000000000E-01      1.562969000000000E+02
4932000000.000000      3.836212000000000E-01      2.075390000000000E+01      2.036057000000000E-01      1.564062000000000E+02
4933000000.000000      3.841858000000000E-01      2.072266000000000E+01      1.993256000000000E-01      1.563047000000000E+02
4934000000.000000      3.842010000000000E-01      2.052246000000000E+01      1.956558000000000E-01      1.562578000000000E+02
4935000000.000000      3.848572000000000E-01      2.031054000000000E+01      1.921997000000000E-01      1.565312000000000E+02
4936000000.000000      3.828430000000000E-01      2.018457000000000E+01      1.873779000000000E-01      1.565156000000000E+02
4937000000.000000      3.831635000000000E-01      1.992969000000000E+01      1.830292000000000E-01      1.566562000000000E+02
4938000000.000000      3.822632000000000E-01      1.988379000000000E+01      1.796494000000000E-01      1.569219000000000E+02
4939000000.000000      3.813934000000000E-01      1.959961000000000E+01      1.755524000000000E-01      1.570313000000000E+02
4940000000.000000      3.827820000000000E-01      1.939160000000000E+01      1.714172000000000E-01      1.572578000000000E+02
4941000000.000000      3.818817000000000E-01      1.921191000000000E+01      1.678925000000000E-01      1.577109000000000E+02
4942000000.000000      3.814545000000000E-01      1.907227000000000E+01      1.635361000000000E-01      1.581328000000000E+02
4943000000.000000      3.812561000000000E-01      1.901953000000000E+01      1.599960000000000E-01      1.587812000000000E+02
4944000000.000000      3.810120000000000E-01      1.883301000000000E+01      1.566467000000000E-01      1.591953000000000E+02
4945000000.000000      3.802490000000000E-01      1.853906000000000E+01      1.525803000000000E-01      1.597734000000000E+02
4946000000.000000      3.801270000000000E-01      1.847949000000000E+01      1.493607000000000E-01      1.605703000000000E+02
4947000000.000000      3.791809000000000E-01      1.825098000000000E+01      1.453934000000000E-01      1.612187000000000E+02
4948000000.000000      3.805389000000000E-01      1.809082000000000E+01      1.424408000000000E-01      1.620391000000000E+02
4949000000.000000      3.797760000000000E-01      1.794726000000000E+01      1.398239000000000E-01      1.632969000000000E+02
4950000000.000000      3.796539000000000E-01      1.780176000000000E+01      1.363602000000000E-01      1.640469000000000E+02
4951000000.000000      3.790741000000000E-01      1.762012000000000E+01      1.337128000000000E-01      1.648594000000000E+02
4952000000.000000      3.784943000000000E-01      1.740234000000000E+01      1.305847000000000E-01      1.660391000000000E+02
4953000000.000000      3.775024000000000E-01      1.724902000000000E+01      1.280975000000000E-01      1.675234000000000E+02
4954000000.000000      3.785858000000000E-01      1.713086000000000E+01      1.254959000000000E-01      1.688203000000000E+02
