! Network Analyzer HP8722D
! Hewlett-Packard
! Data name: Linha & Wilkinson
! Saver's name: Rodrigo Anjos
! Comments: Teste da utilização de aquisição
continua pelo VNA HP8722D
! Time and date: 23/5/2025 16:43
!              Frequency                     S11                                                   S21                                                   S12                                                   S22
# HZ  S  MA R 50
4800000000.000000      2.814178000000000E-01      4.017187000000000E+01      4.869995000000000E-01     -1.296953000000000E+02
4801000000.000000      2.823181000000000E-01      4.054883000000000E+01      4.871979000000000E-01     -1.305000000000000E+02
4802000000.000000      2.839813000000000E-01      4.071485000000000E+01      4.887695000000000E-01     -1.310625000000000E+02
4803000000.000000      2.846680000000000E-01      4.089648000000000E+01      4.940186000000000E-01     -1.317188000000000E+02
4804000000.000000      2.861481000000000E-01      4.117383000000000E+01      4.951477000000000E-01     -1.325625000000000E+02
4805000000.000000      2.880402000000000E-01      4.122070000000000E+01      4.957733000000000E-01     -1.330703000000000E+02
4806000000.000000      2.889099000000000E-01      4.145898000000000E+01      4.964905000000000E-01     -1.339531000000000E+02
4807000000.000000      2.902527000000000E-01      4.169531000000000E+01      4.975128000000000E-01     -1.347734000000000E+02
4808000000.000000      2.909851000000000E-01      4.182031000000000E+01      4.999084000000000E-01     -1.355078000000000E+02
4809000000.000000      2.929993000000000E-01      4.211914000000000E+01      5.001221000000000E-01     -1.362890000000000E+02
4810000000.000000      2.944946000000000E-01      4.220508000000000E+01      5.027466000000000E-01     -1.368828000000000E+02
4811000000.000000      2.965546000000000E-01      4.239843000000000E+01      5.033264000000000E-01     -1.376719000000000E+02
4812000000.000000      2.984772000000000E-01      4.249219000000000E+01      5.052490000000000E-01     -1.385000000000000E+02
4813000000.000000      2.993927000000000E-01      4.258985000000000E+01      5.046082000000000E-01     -1.390312000000000E+02
4814000000.000000      3.015747000000000E-01      4.268164000000000E+01      5.054626000000000E-01     -1.398125000000000E+02
4815000000.000000      3.027802000000000E-01      4.277734000000000E+01      5.066833000000000E-01     -1.405859000000000E+02
4816000000.000000      3.052979000000000E-01      4.282617000000000E+01      5.085449000000000E-01     -1.412656000000000E+02
4817000000.000000      3.058624000000000E-01      4.293554000000000E+01      5.072021000000000E-01     -1.421719000000000E+02
4818000000.000000      3.080444000000000E-01      4.296875000000000E+01      5.061035000000000E-01     -1.427891000000000E+02
4819000000.000000      3.101196000000000E-01      4.300977000000000E+01      5.072632000000000E-01     -1.433906000000000E+02
4820000000.000000      3.109436000000000E-01      4.312500000000000E+01      5.082397000000000E-01     -1.440859000000000E+02
4821000000.000000      3.138275000000000E-01      4.303320000000000E+01      5.094604000000000E-01     -1.451016000000000E+02
4822000000.000000      3.152008000000000E-01      4.297852000000000E+01      5.072632000000000E-01     -1.456484000000000E+02
4823000000.000000      3.172150000000000E-01      4.298633000000000E+01      5.084839000000000E-01     -1.464609000000000E+02
4824000000.000000      3.193359000000000E-01      4.311523000000000E+01      5.077820000000000E-01     -1.472109000000000E+02
4825000000.000000      3.214417000000000E-01      4.295117000000000E+01      5.091553000000000E-01     -1.480703000000000E+02
4826000000.000000      3.230743000000000E-01      4.287109000000000E+01      5.075684000000000E-01     -1.486797000000000E+02
4827000000.000000      3.243256000000000E-01      4.287890000000000E+01      5.075989000000000E-01     -1.493828000000000E+02
4828000000.000000      3.267059000000000E-01      4.287305000000000E+01      5.071411000000000E-01     -1.500625000000000E+02
4829000000.000000      3.282623000000000E-01      4.285742000000000E+01      5.076904000000000E-01     -1.507969000000000E+02
4830000000.000000      3.298492000000000E-01      4.270508000000000E+01      5.060425000000000E-01     -1.515781000000000E+02
4831000000.000000      3.319702000000000E-01      4.263476000000000E+01      5.058594000000000E-01     -1.523359000000000E+02
4832000000.000000      3.338013000000000E-01      4.269531000000000E+01      5.050354000000000E-01     -1.529687000000000E+02
4833000000.000000      3.345795000000000E-01      4.235547000000000E+01      5.035400000000000E-01     -1.536484000000000E+02
4834000000.000000      3.368835000000000E-01      4.234375000000000E+01      5.040283000000000E-01     -1.543828000000000E+02
4835000000.000000      3.391266000000000E-01      4.214648000000000E+01      5.028381000000000E-01     -1.551484000000000E+02
4836000000.000000      3.410034000000000E-01      4.225976000000000E+01      5.008240000000000E-01     -1.557891000000000E+02
4837000000.000000      3.421478000000000E-01      4.208008000000000E+01      4.997864000000000E-01     -1.567969000000000E+02
4838000000.000000      3.441467000000000E-01      4.182031000000000E+01      4.990845000000000E-01     -1.571719000000000E+02
4839000000.000000      3.467865000000000E-01      4.168164000000000E+01      4.982147000000000E-01     -1.579922000000000E+02
4840000000.000000      3.478699000000000E-01      4.150976000000000E+01      4.971313000000000E-01     -1.585000000000000E+02
4841000000.000000      3.493652000000000E-01      4.147851000000000E+01      4.957886000000000E-01     -1.593516000000000E+02
4842000000.000000      3.505096000000000E-01      4.112305000000000E+01      4.942780000000000E-01     -1.601328000000000E+02
4843000000.000000      3.531189000000000E-01      4.091601000000000E+01      4.928131000000000E-01     -1.610234000000000E+02
4844000000.000000      3.532562000000000E-01      4.070117000000000E+01      4.913940000000000E-01     -1.615156000000000E+02
4845000000.000000      3.549347000000000E-01      4.059179000000000E+01      4.895935000000000E-01     -1.622656000000000E+02
4846000000.000000      3.577118000000000E-01      4.044922000000000E+01      4.886169000000000E-01     -1.630156000000000E+02
4847000000.000000      3.589020000000000E-01      4.034570000000000E+01      4.873352000000000E-01     -1.637891000000000E+02
4848000000.000000      3.596802000000000E-01      4.009570000000000E+01      4.843750000000000E-01     -1.642734000000000E+02
4849000000.000000      3.609924000000000E-01      3.973437000000000E+01      4.839935000000000E-01     -1.652031000000000E+02
4850000000.000000      3.623810000000000E-01      3.966601000000000E+01      4.810028000000000E-01     -1.657187000000000E+02
4851000000.000000      3.644104000000000E-01      3.941601000000000E+01      4.804077000000000E-01     -1.666406000000000E+02
4852000000.000000      3.647766000000000E-01      3.918164000000000E+01      4.770966000000000E-01     -1.671641000000000E+02
4853000000.000000      3.667145000000000E-01      3.899609000000000E+01      4.738922000000000E-01     -1.678828000000000E+02
4854000000.000000      3.680267000000000E-01      3.870312000000000E+01      4.735413000000000E-01     -1.687656000000000E+02
4855000000.000000      3.692932000000000E-01      3.848047000000000E+01      4.712067000000000E-01     -1.692578000000000E+02
4856000000.000000      3.704071000000000E-01      3.828711000000000E+01      4.682770000000000E-01     -1.699687000000000E+02
4857000000.000000      3.719330000000000E-01      3.803711000000000E+01      4.662781000000000E-01     -1.706484000000000E+02
4858000000.000000      3.729706000000000E-01      3.769140000000000E+01      4.641876000000000E-01     -1.713359000000000E+02
4859000000.000000      3.738861000000000E-01      3.740820000000000E+01      4.612732000000000E-01     -1.721328000000000E+02
4860000000.000000      3.746033000000000E-01      3.731054000000000E+01      4.581604000000000E-01     -1.726797000000000E+02
4861000000.000000      3.757477000000000E-01      3.700390000000000E+01      4.565582000000000E-01     -1.737344000000000E+02
4862000000.000000      3.761139000000000E-01      3.674219000000000E+01      4.537048000000000E-01     -1.741562000000000E+02
4863000000.000000      3.772125000000000E-01      3.656445000000000E+01      4.503479000000000E-01     -1.750078000000000E+02
4864000000.000000      3.789063000000000E-01      3.625586000000000E+01      4.483337000000000E-01     -1.753594000000000E+02
4865000000.000000      3.787537000000000E-01      3.585546000000000E+01      4.444580000000000E-01     -1.759766000000000E+02
4866000000.000000      3.804779000000000E-01      3.565039000000000E+01      4.410400000000000E-01     -1.769219000000000E+02
4867000000.000000      3.800201000000000E-01      3.543359000000000E+01      4.378662000000000E-01     -1.775312000000000E+02
4868000000.000000      3.821106000000000E-01      3.515625000000000E+01      4.347992000000000E-01     -1.780391000000000E+02
4869000000.000000      3.818665000000000E-01      3.491992000000000E+01      4.322205000000000E-01     -1.787891000000000E+02
4870000000.000000      3.835297000000000E-01      3.462305000000000E+01      4.277039000000000E-01     -1.792266000000000E+02
4871000000.000000      3.826599000000000E-01      3.423047000000000E+01      4.271545000000000E-01     -1.798906000000000E+02
4872000000.000000      3.847961000000000E-01      3.410742000000000E+01      4.218903000000000E-01      1.795703000000000E+02
4873000000.000000      3.850555000000000E-01      3.385156000000000E+01      4.181976000000000E-01      1.786328000000000E+02
4874000000.000000      3.851624000000000E-01      3.366992000000000E+01      4.154053000000000E-01      1.783359000000000E+02
4875000000.000000      3.855133000000000E-01      3.326367000000000E+01      4.116058000000000E-01      1.777891000000000E+02
4876000000.000000      3.865204000000000E-01      3.312500000000000E+01      4.089813000000000E-01      1.771016000000000E+02
4877000000.000000      3.868713000000000E-01      3.256054000000000E+01      4.058380000000000E-01      1.764453000000000E+02
4878000000.000000      3.862762000000000E-01      3.241796000000000E+01      4.021149000000000E-01      1.760313000000000E+02
4879000000.000000      3.879242000000000E-01      3.226953000000000E+01      3.980103000000000E-01      1.754297000000000E+02
4880000000.000000      3.885956000000000E-01      3.186230000000000E+01      3.944702000000000E-01      1.748828000000000E+02
4881000000.000000      3.875580000000000E-01      3.163867000000000E+01      3.915863000000000E-01      1.744453000000000E+02
4882000000.000000      3.883667000000000E-01      3.152344000000000E+01      3.880768000000000E-01      1.736875000000000E+02
4883000000.000000      3.881989000000000E-01      3.121679000000000E+01      3.843842000000000E-01      1.731172000000000E+02
4884000000.000000      3.890839000000000E-01      3.090723000000000E+01      3.803406000000000E-01      1.727500000000000E+02
4885000000.000000      3.891907000000000E-01      3.069921000000000E+01      3.775482000000000E-01      1.725000000000000E+02
4886000000.000000      3.899689000000000E-01      3.045898000000000E+01      3.730011000000000E-01      1.717656000000000E+02
4887000000.000000      3.890991000000000E-01      3.005273000000000E+01      3.713379000000000E-01      1.713594000000000E+02
4888000000.000000      3.886566000000000E-01      2.977636000000000E+01      3.674622000000000E-01      1.707422000000000E+02
4889000000.000000      3.888397000000000E-01      2.967871000000000E+01      3.619537000000000E-01      1.705156000000000E+02
4890000000.000000      3.883820000000000E-01      2.930371000000000E+01      3.593597000000000E-01      1.697031000000000E+02
4891000000.000000      3.889923000000000E-01      2.919726000000000E+01      3.552551000000000E-01      1.694375000000000E+02
4892000000.000000      3.896332000000000E-01      2.886621000000000E+01      3.526001000000000E-01      1.693984000000000E+02
4893000000.000000      3.893585000000000E-01      2.864355000000000E+01      3.489838000000000E-01      1.683984000000000E+02
4894000000.000000      3.896332000000000E-01      2.844629000000000E+01      3.453369000000000E-01      1.680312000000000E+02
4895000000.000000      3.898163000000000E-01      2.823828000000000E+01      3.414307000000000E-01      1.677813000000000E+02
4896000000.000000      3.894348000000000E-01      2.783105000000000E+01      3.389435000000000E-01      1.672344000000000E+02
4897000000.000000      3.877716000000000E-01      2.770605000000000E+01      3.343506000000000E-01      1.667891000000000E+02
4898000000.000000      3.884125000000000E-01      2.752441000000000E+01      3.306427000000000E-01      1.663516000000000E+02
4899000000.000000      3.879547000000000E-01      2.747265000000000E+01      3.290405000000000E-01      1.657500000000000E+02
4900000000.000000      3.888397000000000E-01      2.699609000000000E+01      3.258362000000000E-01      1.655000000000000E+02
4901000000.000000      3.887939000000000E-01      2.668652000000000E+01      3.211823000000000E-01      1.652734000000000E+02
4902000000.000000      3.881226000000000E-01      2.656054000000000E+01      3.182526000000000E-01      1.649688000000000E+02
4903000000.000000      3.886566000000000E-01      2.649609000000000E+01      3.138275000000000E-01      1.643750000000000E+02
4904000000.000000      3.874969000000000E-01      2.617188000000000E+01      3.107452000000000E-01      1.640781000000000E+02
4905000000.000000      3.867798000000000E-01      2.599707000000000E+01      3.081207000000000E-01      1.635078000000000E+02
4906000000.000000      3.870392000000000E-01      2.573339000000000E+01      3.036957000000000E-01      1.634766000000000E+02
4907000000.000000      3.857269000000000E-01      2.551562000000000E+01      3.013458000000000E-01      1.629062000000000E+02
4908000000.000000      3.870392000000000E-01      2.526269000000000E+01      2.978210000000000E-01      1.624609000000000E+02
4909000000.000000      3.862000000000000E-01      2.516602000000000E+01      2.934113000000000E-01      1.620547000000000E+02
4910000000.000000      3.856964000000000E-01      2.504101000000000E+01      2.903137000000000E-01      1.616797000000000E+02
4911000000.000000      3.866577000000000E-01      2.479589000000000E+01      2.869415000000000E-01      1.613906000000000E+02
4912000000.000000      3.852081000000000E-01      2.465429000000000E+01      2.828064000000000E-01      1.609219000000000E+02
4913000000.000000      3.856354000000000E-01      2.445605000000000E+01      2.796173000000000E-01      1.606094000000000E+02
4914000000.000000      3.847961000000000E-01      2.406933000000000E+01      2.756958000000000E-01      1.603203000000000E+02
4915000000.000000      3.852844000000000E-01      2.399609000000000E+01      2.723083000000000E-01      1.597500000000000E+02
4916000000.000000      3.840942000000000E-01      2.375293000000000E+01      2.687836000000000E-01      1.593906000000000E+02
4917000000.000000      3.842926000000000E-01      2.368457000000000E+01      2.649689000000000E-01      1.593203000000000E+02
4918000000.000000      3.842468000000000E-01      2.346484000000000E+01      2.606506000000000E-01      1.588359000000000E+02
4919000000.000000      3.825531000000000E-01      2.326562000000000E+01      2.575684000000000E-01      1.587109000000000E+02
4920000000.000000      3.830414000000000E-01      2.307617000000000E+01      2.526398000000000E-01      1.581797000000000E+02
4921000000.000000      3.827362000000000E-01      2.301758000000000E+01      2.496338000000000E-01      1.578438000000000E+02
4922000000.000000      3.824921000000000E-01      2.286328000000000E+01      2.461700000000000E-01      1.577969000000000E+02
4923000000.000000      3.824005000000000E-01      2.265039000000000E+01      2.410965000000000E-01      1.575938000000000E+02
4924000000.000000      3.818970000000000E-01      2.250781000000000E+01      2.373199000000000E-01      1.572344000000000E+02
4925000000.000000      3.822174000000000E-01      2.216895000000000E+01      2.338333000000000E-01      1.569375000000000E+02
4926000000.000000      3.821411000000000E-01      2.209961000000000E+01      2.297363000000000E-01      1.567656000000000E+02
4927000000.000000      3.810272000000000E-01      2.174511000000000E+01      2.256012000000000E-01      1.566094000000000E+02
4928000000.000000      3.820190000000000E-01      2.152442000000000E+01      2.218323000000000E-01      1.564844000000000E+02
4929000000.000000      3.798065000000000E-01      2.141308000000000E+01      2.169647000000000E-01      1.563125000000000E+02
4930000000.000000      3.799896000000000E-01      2.140234000000000E+01      2.134171000000000E-01      1.560469000000000E+02
4931000000.000000      3.795471000000000E-01      2.105762000000000E+01      2.101593000000000E-01      1.561250000000000E+02
4932000000.000000      3.800659000000000E-01      2.093848000000000E+01      2.050323000000000E-01      1.561016000000000E+02
4933000000.000000      3.786926000000000E-01      2.076465000000000E+01      2.005920000000000E-01      1.562109000000000E+02
4934000000.000000      3.789368000000000E-01      2.034180000000000E+01      1.968079000000000E-01      1.560313000000000E+02
4935000000.000000      3.795013000000000E-01      2.055469000000000E+01      1.936493000000000E-01      1.563203000000000E+02
4936000000.000000      3.779755000000000E-01      2.011914000000000E+01      1.889496000000000E-01      1.562500000000000E+02
4937000000.000000      3.786011000000000E-01      2.002246000000000E+01      1.848602000000000E-01      1.564766000000000E+02
4938000000.000000      3.787079000000000E-01      1.995898000000000E+01      1.808853000000000E-01      1.565391000000000E+02
4939000000.000000      3.783722000000000E-01      1.987890000000000E+01      1.773453000000000E-01      1.569531000000000E+02
4940000000.000000      3.779755000000000E-01      1.957324000000000E+01      1.728210000000000E-01      1.569375000000000E+02
4941000000.000000      3.768463000000000E-01      1.924219000000000E+01      1.693954000000000E-01      1.575625000000000E+02
4942000000.000000      3.773651000000000E-01      1.930078000000000E+01      1.655579000000000E-01      1.579062000000000E+02
4943000000.000000      3.773956000000000E-01      1.908594000000000E+01      1.617889000000000E-01      1.583359000000000E+02
4944000000.000000      3.773193000000000E-01      1.874902000000000E+01      1.577988000000000E-01      1.587734000000000E+02
4945000000.000000      3.771667000000000E-01      1.870117000000000E+01      1.541595000000000E-01      1.594687000000000E+02
4946000000.000000      3.765259000000000E-01      1.843457000000000E+01      1.509323000000000E-01      1.601719000000000E+02
4947000000.000000      3.763428000000000E-01      1.835938000000000E+01      1.474075000000000E-01      1.609688000000000E+02
4948000000.000000      3.765411000000000E-01      1.815820000000000E+01      1.440277000000000E-01      1.616641000000000E+02
4949000000.000000      3.751373000000000E-01      1.793066000000000E+01      1.404877000000000E-01      1.628906000000000E+02
4950000000.000000      3.753815000000000E-01      1.779883000000000E+01      1.376343000000000E-01      1.636328000000000E+02
4951000000.000000      3.745880000000000E-01      1.756640000000000E+01      1.342697000000000E-01      1.643672000000000E+02
4952000000.000000      3.739624000000000E-01      1.745508000000000E+01      1.312408000000000E-01      1.657422000000000E+02
4953000000.000000      3.733826000000000E-01      1.719336000000000E+01      1.291809000000000E-01      1.671250000000000E+02
4954000000.000000      3.735046000000000E-01      1.708691000000000E+01      1.263199000000000E-01      1.683906000000000E+02
