! Network Analyzer HP8722D
! Hewlett-Packard
! Data name: Linha & Wilkinson
! Saver's name: Rodrigo Anjos
! Comments: Teste da utilização de aquisição
continua pelo VNA HP8722D
! Time and date: 23/5/2025 14:58
!              Frequency                     S11                                                   S21                                                   S12                                                   S22
# HZ  S  MA R 50
4800000000.000000      2.859955000000000E-01      3.980078000000000E+01      4.846191000000000E-01     -1.293437000000000E+02
4801000000.000000      2.866669000000000E-01      4.003711000000000E+01      4.859772000000000E-01     -1.301406000000000E+02
4802000000.000000      2.879181000000000E-01      4.019336000000000E+01      4.874420000000000E-01     -1.305781000000000E+02
4803000000.000000      2.883759000000000E-01      4.038281000000000E+01      4.920502000000000E-01     -1.312734000000000E+02
4804000000.000000      2.892151000000000E-01      4.081445000000000E+01      4.906769000000000E-01     -1.321328000000000E+02
4805000000.000000      2.911987000000000E-01      4.082421000000000E+01      4.935455000000000E-01     -1.328281000000000E+02
4806000000.000000      2.922974000000000E-01      4.105078000000000E+01      4.934692000000000E-01     -1.336016000000000E+02
4807000000.000000      2.933197000000000E-01      4.123047000000000E+01      4.953461000000000E-01     -1.342656000000000E+02
4808000000.000000      2.942505000000000E-01      4.137304000000000E+01      4.980316000000000E-01     -1.352187000000000E+02
4809000000.000000      2.957916000000000E-01      4.161914000000000E+01      4.987335000000000E-01     -1.359375000000000E+02
4810000000.000000      2.974701000000000E-01      4.179296000000000E+01      5.005493000000000E-01     -1.364219000000000E+02
4811000000.000000      2.995148000000000E-01      4.189453000000000E+01      5.001221000000000E-01     -1.374297000000000E+02
4812000000.000000      3.015594000000000E-01      4.206250000000000E+01      5.035095000000000E-01     -1.380781000000000E+02
4813000000.000000      3.022614000000000E-01      4.213867000000000E+01      5.020752000000000E-01     -1.388828000000000E+02
4814000000.000000      3.036804000000000E-01      4.226758000000000E+01      5.038147000000000E-01     -1.395313000000000E+02
4815000000.000000      3.053894000000000E-01      4.231250000000000E+01      5.044250000000000E-01     -1.403203000000000E+02
4816000000.000000      3.081818000000000E-01      4.242383000000000E+01      5.046387000000000E-01     -1.408047000000000E+02
4817000000.000000      3.087616000000000E-01      4.257031000000000E+01      5.058899000000000E-01     -1.418203000000000E+02
4818000000.000000      3.108215000000000E-01      4.267774000000000E+01      5.053711000000000E-01     -1.425469000000000E+02
4819000000.000000      3.129730000000000E-01      4.262695000000000E+01      5.053406000000000E-01     -1.432109000000000E+02
4820000000.000000      3.135071000000000E-01      4.269140000000000E+01      5.053406000000000E-01     -1.437891000000000E+02
4821000000.000000      3.170013000000000E-01      4.267968000000000E+01      5.045166000000000E-01     -1.447109000000000E+02
4822000000.000000      3.178406000000000E-01      4.259179000000000E+01      5.046082000000000E-01     -1.453281000000000E+02
4823000000.000000      3.204498000000000E-01      4.265038000000000E+01      5.071716000000000E-01     -1.460859000000000E+02
4824000000.000000      3.222504000000000E-01      4.272461000000000E+01      5.060425000000000E-01     -1.468906000000000E+02
4825000000.000000      3.240662000000000E-01      4.259375000000000E+01      5.054626000000000E-01     -1.474531000000000E+02
4826000000.000000      3.253784000000000E-01      4.251562000000000E+01      5.057983000000000E-01     -1.483984000000000E+02
4827000000.000000      3.275146000000000E-01      4.260156000000000E+01      5.050354000000000E-01     -1.489922000000000E+02
4828000000.000000      3.298798000000000E-01      4.253125000000000E+01      5.063477000000000E-01     -1.497422000000000E+02
4829000000.000000      3.312836000000000E-01      4.257421000000000E+01      5.056152000000000E-01     -1.504531000000000E+02
4830000000.000000      3.329773000000000E-01      4.234571000000000E+01      5.041809000000000E-01     -1.511797000000000E+02
4831000000.000000      3.347778000000000E-01      4.230469000000000E+01      5.040283000000000E-01     -1.519140000000000E+02
4832000000.000000      3.367615000000000E-01      4.233594000000000E+01      5.023804000000000E-01     -1.525156000000000E+02
4833000000.000000      3.380890000000000E-01      4.207617000000000E+01      5.022583000000000E-01     -1.534297000000000E+02
4834000000.000000      3.398590000000000E-01      4.203321000000000E+01      5.005493000000000E-01     -1.539453000000000E+02
4835000000.000000      3.423157000000000E-01      4.197461000000000E+01      5.013123000000000E-01     -1.549531000000000E+02
4836000000.000000      3.441315000000000E-01      4.186328000000000E+01      4.984436000000000E-01     -1.555234000000000E+02
4837000000.000000      3.455811000000000E-01      4.172461000000000E+01      4.974823000000000E-01     -1.562578000000000E+02
4838000000.000000      3.466644000000000E-01      4.148438000000000E+01      4.981232000000000E-01     -1.569219000000000E+02
4839000000.000000      3.502960000000000E-01      4.138476000000000E+01      4.961853000000000E-01     -1.576094000000000E+02
4840000000.000000      3.509827000000000E-01      4.114258000000000E+01      4.946747000000000E-01     -1.583672000000000E+02
4841000000.000000      3.528900000000000E-01      4.110742000000000E+01      4.933319000000000E-01     -1.589922000000000E+02
4842000000.000000      3.536682000000000E-01      4.098242000000000E+01      4.920044000000000E-01     -1.597344000000000E+02
4843000000.000000      3.566284000000000E-01      4.064453000000000E+01      4.913635000000000E-01     -1.606406000000000E+02
4844000000.000000      3.568268000000000E-01      4.042382000000000E+01      4.889526000000000E-01     -1.611328000000000E+02
4845000000.000000      3.588715000000000E-01      4.036328000000000E+01      4.875183000000000E-01     -1.618828000000000E+02
4846000000.000000      3.608246000000000E-01      4.019921000000000E+01      4.866638000000000E-01     -1.625234000000000E+02
4847000000.000000      3.621216000000000E-01      4.003906000000000E+01      4.845734000000000E-01     -1.632734000000000E+02
4848000000.000000      3.626556000000000E-01      3.976758000000000E+01      4.808807000000000E-01     -1.639688000000000E+02
4849000000.000000      3.643188000000000E-01      3.948828000000000E+01      4.812317000000000E-01     -1.647109000000000E+02
4850000000.000000      3.661652000000000E-01      3.934179000000000E+01      4.789276000000000E-01     -1.653516000000000E+02
4851000000.000000      3.672028000000000E-01      3.921679000000000E+01      4.783325000000000E-01     -1.661094000000000E+02
4852000000.000000      3.690338000000000E-01      3.905078000000000E+01      4.752197000000000E-01     -1.668359000000000E+02
4853000000.000000      3.701324000000000E-01      3.878711000000000E+01      4.735565000000000E-01     -1.675703000000000E+02
4854000000.000000      3.712616000000000E-01      3.841601000000000E+01      4.707794000000000E-01     -1.683594000000000E+02
4855000000.000000      3.725128000000000E-01      3.830078000000000E+01      4.690857000000000E-01     -1.690234000000000E+02
4856000000.000000      3.734741000000000E-01      3.809570000000000E+01      4.666290000000000E-01     -1.695937000000000E+02
4857000000.000000      3.751221000000000E-01      3.788086000000000E+01      4.654999000000000E-01     -1.703359000000000E+02
4858000000.000000      3.756714000000000E-01      3.757031000000000E+01      4.625549000000000E-01     -1.710312000000000E+02
4859000000.000000      3.768463000000000E-01      3.723828000000000E+01      4.616241000000000E-01     -1.717500000000000E+02
4860000000.000000      3.776093000000000E-01      3.713867000000000E+01      4.563751000000000E-01     -1.724609000000000E+02
4861000000.000000      3.784943000000000E-01      3.679492000000000E+01      4.542236000000000E-01     -1.731406000000000E+02
4862000000.000000      3.796234000000000E-01      3.657422000000000E+01      4.521027000000000E-01     -1.736641000000000E+02
4863000000.000000      3.807678000000000E-01      3.632813000000000E+01      4.492798000000000E-01     -1.744141000000000E+02
4864000000.000000      3.815002000000000E-01      3.605859000000000E+01      4.482727000000000E-01     -1.750625000000000E+02
4865000000.000000      3.824310000000000E-01      3.574414000000000E+01      4.443207000000000E-01     -1.757266000000000E+02
4866000000.000000      3.828888000000000E-01      3.547070000000000E+01      4.401245000000000E-01     -1.763047000000000E+02
4867000000.000000      3.833771000000000E-01      3.521093000000000E+01      4.367676000000000E-01     -1.773750000000000E+02
4868000000.000000      3.850708000000000E-01      3.494531000000000E+01      4.354858000000000E-01     -1.777109000000000E+02
4869000000.000000      3.855591000000000E-01      3.476563000000000E+01      4.303741000000000E-01     -1.785859000000000E+02
4870000000.000000      3.858643000000000E-01      3.445508000000000E+01      4.282990000000000E-01     -1.790234000000000E+02
4871000000.000000      3.863220000000000E-01      3.421679000000000E+01      4.247131000000000E-01     -1.796875000000000E+02
4872000000.000000      3.882904000000000E-01      3.400391000000000E+01      4.206696000000000E-01      1.799609000000000E+02
4873000000.000000      3.884888000000000E-01      3.379492000000000E+01      4.174500000000000E-01      1.791875000000000E+02
4874000000.000000      3.886566000000000E-01      3.332812000000000E+01      4.160004000000000E-01      1.786641000000000E+02
4875000000.000000      3.892517000000000E-01      3.307422000000000E+01      4.109497000000000E-01      1.779766000000000E+02
4876000000.000000      3.902283000000000E-01      3.299023000000000E+01      4.087982000000000E-01      1.772578000000000E+02
4877000000.000000      3.905792000000000E-01      3.257421000000000E+01      4.042969000000000E-01      1.767109000000000E+02
4878000000.000000      3.899689000000000E-01      3.230664000000000E+01      4.019623000000000E-01      1.760078000000000E+02
4879000000.000000      3.915405000000000E-01      3.212109000000000E+01      3.983154000000000E-01      1.755078000000000E+02
4880000000.000000      3.914642000000000E-01      3.178418000000000E+01      3.953857000000000E-01      1.749141000000000E+02
4881000000.000000      3.913879000000000E-01      3.166211000000000E+01      3.914032000000000E-01      1.746484000000000E+02
4882000000.000000      3.918152000000000E-01      3.142480000000000E+01      3.882141000000000E-01      1.739297000000000E+02
4883000000.000000      3.918152000000000E-01      3.108789000000000E+01      3.827820000000000E-01      1.735703000000000E+02
4884000000.000000      3.924713000000000E-01      3.073633000000000E+01      3.783875000000000E-01      1.728281000000000E+02
4885000000.000000      3.930054000000000E-01      3.060644000000000E+01      3.750153000000000E-01      1.726875000000000E+02
4886000000.000000      3.928528000000000E-01      3.034082000000000E+01      3.730011000000000E-01      1.721406000000000E+02
4887000000.000000      3.932190000000000E-01      3.016016000000000E+01      3.701172000000000E-01      1.716719000000000E+02
4888000000.000000      3.929138000000000E-01      2.980566000000000E+01      3.667755000000000E-01      1.711562000000000E+02
4889000000.000000      3.929596000000000E-01      2.953125000000000E+01      3.623199000000000E-01      1.706172000000000E+02
4890000000.000000      3.920898000000000E-01      2.935742000000000E+01      3.582458000000000E-01      1.698906000000000E+02
4891000000.000000      3.933716000000000E-01      2.906347000000000E+01      3.539581000000000E-01      1.695625000000000E+02
4892000000.000000      3.925171000000000E-01      2.886719000000000E+01      3.515320000000000E-01      1.692188000000000E+02
4893000000.000000      3.937531000000000E-01      2.868750000000000E+01      3.473053000000000E-01      1.684062000000000E+02
4894000000.000000      3.921661000000000E-01      2.840918000000000E+01      3.440704000000000E-01      1.683984000000000E+02
4895000000.000000      3.936157000000000E-01      2.816308000000000E+01      3.419800000000000E-01      1.678437000000000E+02
4896000000.000000      3.930511000000000E-01      2.792578000000000E+01      3.370819000000000E-01      1.673516000000000E+02
4897000000.000000      3.923950000000000E-01      2.765722000000000E+01      3.335266000000000E-01      1.670625000000000E+02
4898000000.000000      3.927307000000000E-01      2.740234000000000E+01      3.314667000000000E-01      1.664922000000000E+02
4899000000.000000      3.920135000000000E-01      2.723047000000000E+01      3.270111000000000E-01      1.660234000000000E+02
4900000000.000000      3.921814000000000E-01      2.702148000000000E+01      3.237457000000000E-01      1.657266000000000E+02
4901000000.000000      3.913879000000000E-01      2.676465000000000E+01      3.206024000000000E-01      1.654063000000000E+02
4902000000.000000      3.922882000000000E-01      2.653027000000000E+01      3.181152000000000E-01      1.650859000000000E+02
4903000000.000000      3.919373000000000E-01      2.648633000000000E+01      3.129578000000000E-01      1.647578000000000E+02
4904000000.000000      3.917999000000000E-01      2.617188000000000E+01      3.105774000000000E-01      1.643125000000000E+02
4905000000.000000      3.918610000000000E-01      2.599902000000000E+01      3.073120000000000E-01      1.638359000000000E+02
4906000000.000000      3.912659000000000E-01      2.566797000000000E+01      3.038635000000000E-01      1.636406000000000E+02
4907000000.000000      3.909607000000000E-01      2.547656000000000E+01      3.005524000000000E-01      1.632109000000000E+02
4908000000.000000      3.916626000000000E-01      2.542285000000000E+01      2.970123000000000E-01      1.627187000000000E+02
4909000000.000000      3.900909000000000E-01      2.521973000000000E+01      2.932129000000000E-01      1.622578000000000E+02
4910000000.000000      3.894653000000000E-01      2.507617000000000E+01      2.897949000000000E-01      1.619219000000000E+02
4911000000.000000      3.894653000000000E-01      2.479883000000000E+01      2.867737000000000E-01      1.615547000000000E+02
4912000000.000000      3.892670000000000E-01      2.459765000000000E+01      2.831421000000000E-01      1.610703000000000E+02
4913000000.000000      3.889923000000000E-01      2.424805000000000E+01      2.793121000000000E-01      1.607344000000000E+02
4914000000.000000      3.892059000000000E-01      2.412012000000000E+01      2.752533000000000E-01      1.606172000000000E+02
4915000000.000000      3.885040000000000E-01      2.406641000000000E+01      2.710419000000000E-01      1.600156000000000E+02
4916000000.000000      3.881531000000000E-01      2.370508000000000E+01      2.677765000000000E-01      1.595469000000000E+02
4917000000.000000      3.896179000000000E-01      2.366015000000000E+01      2.640686000000000E-01      1.593281000000000E+02
4918000000.000000      3.879089000000000E-01      2.351074000000000E+01      2.602844000000000E-01      1.589922000000000E+02
4919000000.000000      3.873596000000000E-01      2.327832000000000E+01      2.574005000000000E-01      1.589609000000000E+02
4920000000.000000      3.880920000000000E-01      2.299414000000000E+01      2.522583000000000E-01      1.583516000000000E+02
4921000000.000000      3.874207000000000E-01      2.291797000000000E+01      2.488556000000000E-01      1.581406000000000E+02
4922000000.000000      3.877563000000000E-01      2.281543000000000E+01      2.450104000000000E-01      1.579609000000000E+02
4923000000.000000      3.867950000000000E-01      2.261914000000000E+01      2.412109000000000E-01      1.577422000000000E+02
4924000000.000000      3.862915000000000E-01      2.247363000000000E+01      2.370987000000000E-01      1.572500000000000E+02
4925000000.000000      3.865509000000000E-01      2.218457000000000E+01      2.337799000000000E-01      1.571484000000000E+02
4926000000.000000      3.861237000000000E-01      2.205469000000000E+01      2.296295000000000E-01      1.568906000000000E+02
4927000000.000000      3.852997000000000E-01      2.190722000000000E+01      2.251968000000000E-01      1.568125000000000E+02
4928000000.000000      3.863373000000000E-01      2.141308000000000E+01      2.210464000000000E-01      1.565391000000000E+02
4929000000.000000      3.842316000000000E-01      2.150683000000000E+01      2.171707000000000E-01      1.565000000000000E+02
4930000000.000000      3.854828000000000E-01      2.143750000000000E+01      2.127914000000000E-01      1.561875000000000E+02
4931000000.000000      3.847351000000000E-01      2.102637000000000E+01      2.098541000000000E-01      1.563984000000000E+02
4932000000.000000      3.842010000000000E-01      2.100976000000000E+01      2.050781000000000E-01      1.561953000000000E+02
4933000000.000000      3.842621000000000E-01      2.071289000000000E+01      2.001953000000000E-01      1.564922000000000E+02
4934000000.000000      3.844147000000000E-01      2.071972000000000E+01      1.970291000000000E-01      1.561641000000000E+02
4935000000.000000      3.855438000000000E-01      2.037890000000000E+01      1.928177000000000E-01      1.563672000000000E+02
4936000000.000000      3.833160000000000E-01      2.013379000000000E+01      1.886139000000000E-01      1.564766000000000E+02
4937000000.000000      3.837433000000000E-01      1.997949000000000E+01      1.847992000000000E-01      1.565078000000000E+02
4938000000.000000      3.824615000000000E-01      1.990430000000000E+01      1.809158000000000E-01      1.567812000000000E+02
4939000000.000000      3.823853000000000E-01      1.971875000000000E+01      1.771774000000000E-01      1.570469000000000E+02
4940000000.000000      3.823700000000000E-01      1.962207000000000E+01      1.725540000000000E-01      1.570156000000000E+02
4941000000.000000      3.820953000000000E-01      1.946777000000000E+01      1.693573000000000E-01      1.576562000000000E+02
4942000000.000000      3.817291000000000E-01      1.939746000000000E+01      1.647873000000000E-01      1.577734000000000E+02
4943000000.000000      3.821869000000000E-01      1.911426000000000E+01      1.613770000000000E-01      1.583281000000000E+02
4944000000.000000      3.810730000000000E-01      1.895801000000000E+01      1.582031000000000E-01      1.587422000000000E+02
4945000000.000000      3.806152000000000E-01      1.863379000000000E+01      1.538773000000000E-01      1.594141000000000E+02
4946000000.000000      3.811951000000000E-01      1.861035000000000E+01      1.505966000000000E-01      1.599141000000000E+02
4947000000.000000      3.798676000000000E-01      1.829492000000000E+01      1.464005000000000E-01      1.608594000000000E+02
4948000000.000000      3.798218000000000E-01      1.825976000000000E+01      1.434174000000000E-01      1.615391000000000E+02
4949000000.000000      3.798218000000000E-01      1.811035000000000E+01      1.407242000000000E-01      1.626641000000000E+02
4950000000.000000      3.798981000000000E-01      1.788379000000000E+01      1.371994000000000E-01      1.634063000000000E+02
4951000000.000000      3.791046000000000E-01      1.774219000000000E+01      1.343460000000000E-01      1.643281000000000E+02
4952000000.000000      3.776093000000000E-01      1.763965000000000E+01      1.313248000000000E-01      1.656484000000000E+02
4953000000.000000      3.782043000000000E-01      1.734863000000000E+01      1.286926000000000E-01      1.669375000000000E+02
4954000000.000000      3.782196000000000E-01      1.716601000000000E+01      1.259766000000000E-01      1.681250000000000E+02
