! Network Analyzer HP8722D
! Hewlett-Packard
! Data name: Linha & Wilkinson
! Saver's name: Rodrigo Anjos
! Comments: Teste da utilização de aquisição
continua pelo VNA HP8722D
! Time and date: 23/5/2025 16:23
!              Frequency                     S11                                                   S21                                                   S12                                                   S22
# HZ  S  MA R 50
4800000000.000000      2.803497000000000E-01      4.045703000000000E+01      4.892731000000000E-01     -1.299687000000000E+02
4801000000.000000      2.813263000000000E-01      4.071289000000000E+01      4.908447000000000E-01     -1.305859000000000E+02
4802000000.000000      2.828369000000000E-01      4.082617000000000E+01      4.907227000000000E-01     -1.312578000000000E+02
4803000000.000000      2.836151000000000E-01      4.112305000000000E+01      4.947357000000000E-01     -1.319297000000000E+02
4804000000.000000      2.851715000000000E-01      4.148438000000000E+01      4.947510000000000E-01     -1.328125000000000E+02
4805000000.000000      2.870636000000000E-01      4.142578000000000E+01      4.961090000000000E-01     -1.335469000000000E+02
4806000000.000000      2.875671000000000E-01      4.163281000000000E+01      4.975128000000000E-01     -1.340547000000000E+02
4807000000.000000      2.890320000000000E-01      4.187109000000000E+01      4.984589000000000E-01     -1.350625000000000E+02
4808000000.000000      2.905884000000000E-01      4.200781000000000E+01      4.989166000000000E-01     -1.356484000000000E+02
4809000000.000000      2.919769000000000E-01      4.221875000000000E+01      5.010681000000000E-01     -1.365078000000000E+02
4810000000.000000      2.936401000000000E-01      4.237109000000000E+01      5.030212000000000E-01     -1.371016000000000E+02
4811000000.000000      2.955933000000000E-01      4.242188000000000E+01      5.046997000000000E-01     -1.380703000000000E+02
4812000000.000000      2.978210000000000E-01      4.262695000000000E+01      5.039978000000000E-01     -1.387344000000000E+02
4813000000.000000      2.988892000000000E-01      4.283789000000000E+01      5.050659000000000E-01     -1.394063000000000E+02
4814000000.000000      3.000183000000000E-01      4.280663000000000E+01      5.055847000000000E-01     -1.400234000000000E+02
4815000000.000000      3.025208000000000E-01      4.290625000000000E+01      5.060730000000000E-01     -1.409297000000000E+02
4816000000.000000      3.039551000000000E-01      4.312500000000000E+01      5.083618000000000E-01     -1.416172000000000E+02
4817000000.000000      3.053436000000000E-01      4.308203000000000E+01      5.078735000000000E-01     -1.424375000000000E+02
4818000000.000000      3.070526000000000E-01      4.312890000000000E+01      5.082092000000000E-01     -1.431719000000000E+02
4819000000.000000      3.092957000000000E-01      4.316015000000000E+01      5.079651000000000E-01     -1.438750000000000E+02
4820000000.000000      3.108215000000000E-01      4.326953000000000E+01      5.089417000000000E-01     -1.444687000000000E+02
4821000000.000000      3.130035000000000E-01      4.319726000000000E+01      5.095825000000000E-01     -1.452891000000000E+02
4822000000.000000      3.140411000000000E-01      4.313477000000000E+01      5.076599000000000E-01     -1.460312000000000E+02
4823000000.000000      3.165436000000000E-01      4.312109000000000E+01      5.097656000000000E-01     -1.466641000000000E+02
4824000000.000000      3.180695000000000E-01      4.325976000000000E+01      5.080872000000000E-01     -1.475156000000000E+02
4825000000.000000      3.200378000000000E-01      4.314843000000000E+01      5.086365000000000E-01     -1.482969000000000E+02
4826000000.000000      3.213806000000000E-01      4.306054000000000E+01      5.089417000000000E-01     -1.489453000000000E+02
4827000000.000000      3.242493000000000E-01      4.306641000000000E+01      5.093079000000000E-01     -1.494062000000000E+02
4828000000.000000      3.259735000000000E-01      4.297656000000000E+01      5.080566000000000E-01     -1.503750000000000E+02
4829000000.000000      3.278046000000000E-01      4.306641000000000E+01      5.070496000000000E-01     -1.509922000000000E+02
4830000000.000000      3.295898000000000E-01      4.285546000000000E+01      5.069275000000000E-01     -1.519297000000000E+02
4831000000.000000      3.310089000000000E-01      4.272851000000000E+01      5.060425000000000E-01     -1.526250000000000E+02
4832000000.000000      3.323517000000000E-01      4.268750000000000E+01      5.044861000000000E-01     -1.531953000000000E+02
4833000000.000000      3.344269000000000E-01      4.247266000000000E+01      5.043640000000000E-01     -1.539063000000000E+02
4834000000.000000      3.367615000000000E-01      4.239062000000000E+01      5.036926000000000E-01     -1.546719000000000E+02
4835000000.000000      3.387451000000000E-01      4.228125000000000E+01      5.042114000000000E-01     -1.553828000000000E+02
4836000000.000000      3.400726000000000E-01      4.221680000000000E+01      5.013123000000000E-01     -1.561484000000000E+02
4837000000.000000      3.414154000000000E-01      4.222070000000000E+01      4.999847000000000E-01     -1.568984000000000E+02
4838000000.000000      3.428040000000000E-01      4.198828000000000E+01      4.991608000000000E-01     -1.575000000000000E+02
4839000000.000000      3.462219000000000E-01      4.186523000000000E+01      4.988098000000000E-01     -1.582734000000000E+02
4840000000.000000      3.472443000000000E-01      4.156054000000000E+01      4.968872000000000E-01     -1.588984000000000E+02
4841000000.000000      3.488159000000000E-01      4.150586000000000E+01      4.943848000000000E-01     -1.597578000000000E+02
4842000000.000000      3.502350000000000E-01      4.121484000000000E+01      4.947815000000000E-01     -1.603437000000000E+02
4843000000.000000      3.525543000000000E-01      4.099805000000000E+01      4.942474000000000E-01     -1.612109000000000E+02
4844000000.000000      3.532104000000000E-01      4.084374000000000E+01      4.922485000000000E-01     -1.618359000000000E+02
4845000000.000000      3.549347000000000E-01      4.068359000000000E+01      4.894104000000000E-01     -1.624219000000000E+02
4846000000.000000      3.570862000000000E-01      4.054883000000000E+01      4.890137000000000E-01     -1.631484000000000E+02
4847000000.000000      3.583832000000000E-01      4.042382000000000E+01      4.875183000000000E-01     -1.638047000000000E+02
4848000000.000000      3.588715000000000E-01      4.009961000000000E+01      4.839020000000000E-01     -1.645703000000000E+02
4849000000.000000      3.606720000000000E-01      3.978516000000000E+01      4.830170000000000E-01     -1.653516000000000E+02
4850000000.000000      3.621368000000000E-01      3.964844000000000E+01      4.812775000000000E-01     -1.659844000000000E+02
4851000000.000000      3.631744000000000E-01      3.952929000000000E+01      4.805298000000000E-01     -1.667812000000000E+02
4852000000.000000      3.645935000000000E-01      3.923047000000000E+01      4.779510000000000E-01     -1.672422000000000E+02
4853000000.000000      3.660583000000000E-01      3.894336000000000E+01      4.751282000000000E-01     -1.680703000000000E+02
4854000000.000000      3.673706000000000E-01      3.871875000000000E+01      4.723663000000000E-01     -1.688203000000000E+02
4855000000.000000      3.685913000000000E-01      3.860156000000000E+01      4.705811000000000E-01     -1.695000000000000E+02
4856000000.000000      3.702850000000000E-01      3.827148000000000E+01      4.690247000000000E-01     -1.701641000000000E+02
4857000000.000000      3.710785000000000E-01      3.810547000000000E+01      4.663696000000000E-01     -1.707969000000000E+02
4858000000.000000      3.722229000000000E-01      3.771875000000000E+01      4.642487000000000E-01     -1.715859000000000E+02
4859000000.000000      3.734131000000000E-01      3.753515000000000E+01      4.615021000000000E-01     -1.722656000000000E+02
4860000000.000000      3.740540000000000E-01      3.737109000000000E+01      4.578400000000000E-01     -1.729766000000000E+02
4861000000.000000      3.748779000000000E-01      3.703320000000000E+01      4.566803000000000E-01     -1.735859000000000E+02
4862000000.000000      3.756409000000000E-01      3.681836000000000E+01      4.540710000000000E-01     -1.742344000000000E+02
4863000000.000000      3.770142000000000E-01      3.658594000000000E+01      4.503784000000000E-01     -1.750547000000000E+02
4864000000.000000      3.776703000000000E-01      3.626562000000000E+01      4.479218000000000E-01     -1.758359000000000E+02
4865000000.000000      3.779755000000000E-01      3.590039000000000E+01      4.441223000000000E-01     -1.762969000000000E+02
4866000000.000000      3.795319000000000E-01      3.565625000000000E+01      4.396362000000000E-01     -1.770625000000000E+02
4867000000.000000      3.794098000000000E-01      3.536914000000000E+01      4.382782000000000E-01     -1.777891000000000E+02
4868000000.000000      3.808746000000000E-01      3.506836000000000E+01      4.341278000000000E-01     -1.782734000000000E+02
4869000000.000000      3.806610000000000E-01      3.482031000000000E+01      4.324493000000000E-01     -1.791172000000000E+02
4870000000.000000      3.814240000000000E-01      3.455859000000000E+01      4.289246000000000E-01     -1.794531000000000E+02
4871000000.000000      3.813934000000000E-01      3.436523000000000E+01      4.257202000000000E-01      1.797344000000000E+02
4872000000.000000      3.840637000000000E-01      3.410937000000000E+01      4.229279000000000E-01      1.793125000000000E+02
4873000000.000000      3.836670000000000E-01      3.377148000000000E+01      4.177856000000000E-01      1.787188000000000E+02
4874000000.000000      3.842621000000000E-01      3.361328000000000E+01      4.146881000000000E-01      1.779219000000000E+02
4875000000.000000      3.847809000000000E-01      3.317968000000000E+01      4.105682000000000E-01      1.773047000000000E+02
4876000000.000000      3.852844000000000E-01      3.311132000000000E+01      4.091187000000000E-01      1.769375000000000E+02
4877000000.000000      3.854675000000000E-01      3.260156000000000E+01      4.049835000000000E-01      1.762734000000000E+02
4878000000.000000      3.856354000000000E-01      3.250391000000000E+01      4.015808000000000E-01      1.757734000000000E+02
4879000000.000000      3.870239000000000E-01      3.229883000000000E+01      3.975220000000000E-01      1.752891000000000E+02
4880000000.000000      3.865967000000000E-01      3.187500000000000E+01      3.942719000000000E-01      1.746250000000000E+02
4881000000.000000      3.865204000000000E-01      3.167480000000000E+01      3.904419000000000E-01      1.743125000000000E+02
4882000000.000000      3.870544000000000E-01      3.139843000000000E+01      3.884277000000000E-01      1.735859000000000E+02
4883000000.000000      3.873596000000000E-01      3.112207000000000E+01      3.823853000000000E-01      1.730156000000000E+02
4884000000.000000      3.877869000000000E-01      3.087891000000000E+01      3.793182000000000E-01      1.726406000000000E+02
4885000000.000000      3.871307000000000E-01      3.063769000000000E+01      3.749390000000000E-01      1.721562000000000E+02
4886000000.000000      3.875122000000000E-01      3.049316000000000E+01      3.729858000000000E-01      1.718203000000000E+02
4887000000.000000      3.880157000000000E-01      3.005566000000000E+01      3.693848000000000E-01      1.711562000000000E+02
4888000000.000000      3.879395000000000E-01      2.984766000000000E+01      3.674774000000000E-01      1.706640000000000E+02
4889000000.000000      3.876953000000000E-01      2.950976000000000E+01      3.627625000000000E-01      1.702812000000000E+02
4890000000.000000      3.869171000000000E-01      2.933691000000000E+01      3.589478000000000E-01      1.694687000000000E+02
4891000000.000000      3.886871000000000E-01      2.918066000000000E+01      3.553467000000000E-01      1.693125000000000E+02
4892000000.000000      3.868713000000000E-01      2.892480000000000E+01      3.511353000000000E-01      1.691172000000000E+02
4893000000.000000      3.874207000000000E-01      2.858203000000000E+01      3.474731000000000E-01      1.683984000000000E+02
4894000000.000000      3.872833000000000E-01      2.845996000000000E+01      3.432312000000000E-01      1.680000000000000E+02
4895000000.000000      3.884735000000000E-01      2.827246000000000E+01      3.409271000000000E-01      1.674609000000000E+02
4896000000.000000      3.872986000000000E-01      2.789063000000000E+01      3.381500000000000E-01      1.672109000000000E+02
4897000000.000000      3.869476000000000E-01      2.759570000000000E+01      3.329010000000000E-01      1.666484000000000E+02
4898000000.000000      3.869019000000000E-01      2.751758000000000E+01      3.309631000000000E-01      1.665859000000000E+02
4899000000.000000      3.870850000000000E-01      2.728516000000000E+01      3.266907000000000E-01      1.657500000000000E+02
4900000000.000000      3.867188000000000E-01      2.703808000000000E+01      3.237915000000000E-01      1.654922000000000E+02
4901000000.000000      3.869934000000000E-01      2.682910000000000E+01      3.204651000000000E-01      1.650547000000000E+02
4902000000.000000      3.864441000000000E-01      2.648730000000000E+01      3.176270000000000E-01      1.647891000000000E+02
4903000000.000000      3.868561000000000E-01      2.651758000000000E+01      3.131256000000000E-01      1.643047000000000E+02
4904000000.000000      3.864594000000000E-01      2.612597000000000E+01      3.095398000000000E-01      1.638047000000000E+02
4905000000.000000      3.857422000000000E-01      2.589746000000000E+01      3.068695000000000E-01      1.633437000000000E+02
4906000000.000000      3.853760000000000E-01      2.571191000000000E+01      3.028870000000000E-01      1.632656000000000E+02
4907000000.000000      3.853455000000000E-01      2.551270000000000E+01      3.006439000000000E-01      1.627578000000000E+02
4908000000.000000      3.856049000000000E-01      2.528906000000000E+01      2.970123000000000E-01      1.623359000000000E+02
4909000000.000000      3.845215000000000E-01      2.516894000000000E+01      2.935028000000000E-01      1.619375000000000E+02
4910000000.000000      3.844299000000000E-01      2.494824000000000E+01      2.893982000000000E-01      1.616094000000000E+02
4911000000.000000      3.843231000000000E-01      2.470508000000000E+01      2.855682000000000E-01      1.611719000000000E+02
4912000000.000000      3.837433000000000E-01      2.452929000000000E+01      2.824860000000000E-01      1.607031000000000E+02
4913000000.000000      3.834229000000000E-01      2.430176000000000E+01      2.785339000000000E-01      1.605000000000000E+02
4914000000.000000      3.841400000000000E-01      2.398242000000000E+01      2.751465000000000E-01      1.602187000000000E+02
4915000000.000000      3.827667000000000E-01      2.397070000000000E+01      2.713928000000000E-01      1.596641000000000E+02
4916000000.000000      3.830261000000000E-01      2.377441000000000E+01      2.673187000000000E-01      1.591563000000000E+02
4917000000.000000      3.825836000000000E-01      2.354297000000000E+01      2.642975000000000E-01      1.591484000000000E+02
4918000000.000000      3.828125000000000E-01      2.341406000000000E+01      2.595062000000000E-01      1.588672000000000E+02
4919000000.000000      3.811188000000000E-01      2.319824000000000E+01      2.565918000000000E-01      1.585781000000000E+02
4920000000.000000      3.819885000000000E-01      2.308300000000000E+01      2.522583000000000E-01      1.580391000000000E+02
4921000000.000000      3.814392000000000E-01      2.281933000000000E+01      2.489166000000000E-01      1.579297000000000E+02
4922000000.000000      3.810120000000000E-01      2.274805000000000E+01      2.450333000000000E-01      1.576406000000000E+02
4923000000.000000      3.813782000000000E-01      2.249707000000000E+01      2.405319000000000E-01      1.574453000000000E+02
4924000000.000000      3.812103000000000E-01      2.233887000000000E+01      2.365952000000000E-01      1.570625000000000E+02
4925000000.000000      3.808594000000000E-01      2.205761000000000E+01      2.326965000000000E-01      1.570234000000000E+02
4926000000.000000      3.804169000000000E-01      2.201074000000000E+01      2.287674000000000E-01      1.566953000000000E+02
4927000000.000000      3.801880000000000E-01      2.180176000000000E+01      2.250061000000000E-01      1.564219000000000E+02
4928000000.000000      3.804016000000000E-01      2.153515000000000E+01      2.210083000000000E-01      1.564531000000000E+02
4929000000.000000      3.796844000000000E-01      2.134961000000000E+01      2.162399000000000E-01      1.563750000000000E+02
4930000000.000000      3.799286000000000E-01      2.127051000000000E+01      2.129517000000000E-01      1.560703000000000E+02
4931000000.000000      3.784790000000000E-01      2.113476000000000E+01      2.089691000000000E-01      1.562344000000000E+02
4932000000.000000      3.787079000000000E-01      2.087793000000000E+01      2.044373000000000E-01      1.561641000000000E+02
4933000000.000000      3.779907000000000E-01      2.073242000000000E+01      1.997452000000000E-01      1.562734000000000E+02
4934000000.000000      3.789215000000000E-01      2.041211000000000E+01      1.961746000000000E-01      1.560078000000000E+02
4935000000.000000      3.787231000000000E-01      2.041113000000000E+01      1.927338000000000E-01      1.562500000000000E+02
4936000000.000000      3.776703000000000E-01      1.995996000000000E+01      1.878662000000000E-01      1.563047000000000E+02
4937000000.000000      3.773041000000000E-01      1.989453000000000E+01      1.842880000000000E-01      1.563594000000000E+02
4938000000.000000      3.765564000000000E-01      2.004395000000000E+01      1.804428000000000E-01      1.567031000000000E+02
4939000000.000000      3.766022000000000E-01      1.981445000000000E+01      1.765442000000000E-01      1.569375000000000E+02
4940000000.000000      3.765106000000000E-01      1.953613000000000E+01      1.720886000000000E-01      1.571016000000000E+02
4941000000.000000      3.774261000000000E-01      1.927051000000000E+01      1.685486000000000E-01      1.576328000000000E+02
4942000000.000000      3.757629000000000E-01      1.928320000000000E+01      1.643906000000000E-01      1.581406000000000E+02
4943000000.000000      3.751984000000000E-01      1.904297000000000E+01      1.610718000000000E-01      1.585000000000000E+02
4944000000.000000      3.753052000000000E-01      1.878711000000000E+01      1.573105000000000E-01      1.591172000000000E+02
4945000000.000000      3.749847000000000E-01      1.853027000000000E+01      1.531296000000000E-01      1.595469000000000E+02
4946000000.000000      3.744049000000000E-01      1.849902000000000E+01      1.499786000000000E-01      1.602187000000000E+02
4947000000.000000      3.740997000000000E-01      1.822168000000000E+01      1.465530000000000E-01      1.611953000000000E+02
4948000000.000000      3.743591000000000E-01      1.801270000000000E+01      1.434937000000000E-01      1.619531000000000E+02
4949000000.000000      3.729858000000000E-01      1.798730000000000E+01      1.398544000000000E-01      1.630859000000000E+02
4950000000.000000      3.738556000000000E-01      1.782031000000000E+01      1.370544000000000E-01      1.640078000000000E+02
4951000000.000000      3.725433000000000E-01      1.763672000000000E+01      1.341400000000000E-01      1.647734000000000E+02
4952000000.000000      3.724823000000000E-01      1.742383000000000E+01      1.307678000000000E-01      1.660000000000000E+02
4953000000.000000      3.723450000000000E-01      1.716406000000000E+01      1.286545000000000E-01      1.674062000000000E+02
4954000000.000000      3.718109000000000E-01      1.714355000000000E+01      1.258392000000000E-01      1.688516000000000E+02
