! Network Analyzer HP8722D
! Hewlett-Packard
! Data name: Linha & Wilkinson
! Saver's name: Rodrigo Anjos
! Comments: Teste da utilização de aquisição
continua pelo VNA HP8722D
! Time and date: 23/5/2025 14:04
!              Frequency                     S11                                                   S21                                                   S12                                                   S22
# HZ  S  MA R 50
4800000000.000000      2.915344000000000E-01      3.957812000000000E+01      4.824524000000000E-01     -1.298672000000000E+02
4801000000.000000      2.923737000000000E-01      3.979492000000000E+01      4.842987000000000E-01     -1.305312000000000E+02
4802000000.000000      2.937317000000000E-01      3.999414000000000E+01      4.852295000000000E-01     -1.310078000000000E+02
4803000000.000000      2.943268000000000E-01      4.014257000000000E+01      4.895935000000000E-01     -1.317266000000000E+02
4804000000.000000      2.957611000000000E-01      4.043359000000000E+01      4.896088000000000E-01     -1.325938000000000E+02
4805000000.000000      2.978210000000000E-01      4.050977000000000E+01      4.909210000000000E-01     -1.333750000000000E+02
4806000000.000000      2.985840000000000E-01      4.068945000000000E+01      4.913635000000000E-01     -1.340078000000000E+02
4807000000.000000      2.997131000000000E-01      4.086133000000000E+01      4.934235000000000E-01     -1.348359000000000E+02
4808000000.000000      3.008118000000000E-01      4.106445000000000E+01      4.941101000000000E-01     -1.354063000000000E+02
4809000000.000000      3.028717000000000E-01      4.118164000000000E+01      4.948120000000000E-01     -1.363672000000000E+02
4810000000.000000      3.041382000000000E-01      4.129492000000000E+01      4.972229000000000E-01     -1.367188000000000E+02
4811000000.000000      3.061066000000000E-01      4.140429000000000E+01      4.967041000000000E-01     -1.376641000000000E+02
4812000000.000000      3.085022000000000E-01      4.157617000000000E+01      4.986267000000000E-01     -1.383047000000000E+02
4813000000.000000      3.094025000000000E-01      4.175781000000000E+01      4.995880000000000E-01     -1.392344000000000E+02
4814000000.000000      3.102875000000000E-01      4.178515000000000E+01      5.000610000000000E-01     -1.398594000000000E+02
4815000000.000000      3.121185000000000E-01      4.188672000000000E+01      4.996796000000000E-01     -1.405859000000000E+02
4816000000.000000      3.145294000000000E-01      4.197266000000000E+01      5.017395000000000E-01     -1.412188000000000E+02
4817000000.000000      3.155365000000000E-01      4.205664000000000E+01      5.014648000000000E-01     -1.420625000000000E+02
4818000000.000000      3.172150000000000E-01      4.201367000000000E+01      5.006714000000000E-01     -1.429375000000000E+02
4819000000.000000      3.194275000000000E-01      4.212110000000000E+01      5.012817000000000E-01     -1.435859000000000E+02
4820000000.000000      3.202209000000000E-01      4.220312000000000E+01      5.021973000000000E-01     -1.443047000000000E+02
4821000000.000000      3.226471000000000E-01      4.218750000000000E+01      5.021057000000000E-01     -1.451719000000000E+02
4822000000.000000      3.235779000000000E-01      4.216992000000000E+01      5.008850000000000E-01     -1.458359000000000E+02
4823000000.000000      3.259430000000000E-01      4.208398000000000E+01      5.014648000000000E-01     -1.464219000000000E+02
4824000000.000000      3.279266000000000E-01      4.218163000000000E+01      5.018311000000000E-01     -1.473906000000000E+02
4825000000.000000      3.301239000000000E-01      4.205859000000000E+01      5.009766000000000E-01     -1.479219000000000E+02
4826000000.000000      3.314972000000000E-01      4.204883000000000E+01      5.025635000000000E-01     -1.488359000000000E+02
4827000000.000000      3.331299000000000E-01      4.196875000000000E+01      5.011597000000000E-01     -1.492500000000000E+02
4828000000.000000      3.353577000000000E-01      4.200391000000000E+01      5.017700000000000E-01     -1.500547000000000E+02
4829000000.000000      3.369446000000000E-01      4.198438000000000E+01      5.007629000000000E-01     -1.508047000000000E+02
4830000000.000000      3.390808000000000E-01      4.180664000000000E+01      4.995728000000000E-01     -1.515703000000000E+02
4831000000.000000      3.397980000000000E-01      4.175781000000000E+01      4.996338000000000E-01     -1.523906000000000E+02
4832000000.000000      3.418579000000000E-01      4.165039000000000E+01      4.982605000000000E-01     -1.528594000000000E+02
4833000000.000000      3.430786000000000E-01      4.160546000000000E+01      4.973450000000000E-01     -1.535703000000000E+02
4834000000.000000      3.453064000000000E-01      4.144140000000000E+01      4.971619000000000E-01     -1.544375000000000E+02
4835000000.000000      3.477936000000000E-01      4.138672000000000E+01      4.967041000000000E-01     -1.551641000000000E+02
4836000000.000000      3.489227000000000E-01      4.129687000000000E+01      4.935913000000000E-01     -1.558828000000000E+02
4837000000.000000      3.503265000000000E-01      4.126172000000000E+01      4.933472000000000E-01     -1.569062000000000E+02
4838000000.000000      3.516846000000000E-01      4.094140000000000E+01      4.918976000000000E-01     -1.572266000000000E+02
4839000000.000000      3.552094000000000E-01      4.095117000000000E+01      4.916840000000000E-01     -1.579922000000000E+02
4840000000.000000      3.560028000000000E-01      4.060156000000000E+01      4.898987000000000E-01     -1.586797000000000E+02
4841000000.000000      3.583832000000000E-01      4.062696000000000E+01      4.890594000000000E-01     -1.596719000000000E+02
4842000000.000000      3.584290000000000E-01      4.036328000000000E+01      4.873505000000000E-01     -1.600937000000000E+02
4843000000.000000      3.614807000000000E-01      4.002149000000000E+01      4.868164000000000E-01     -1.609453000000000E+02
4844000000.000000      3.624573000000000E-01      3.990625000000000E+01      4.843597000000000E-01     -1.616250000000000E+02
4845000000.000000      3.636627000000000E-01      3.989258000000000E+01      4.829712000000000E-01     -1.621719000000000E+02
4846000000.000000      3.652191000000000E-01      3.958398000000000E+01      4.806366000000000E-01     -1.630469000000000E+02
4847000000.000000      3.669586000000000E-01      3.945703000000000E+01      4.809875000000000E-01     -1.636172000000000E+02
4848000000.000000      3.677673000000000E-01      3.917578000000000E+01      4.770355000000000E-01     -1.643906000000000E+02
4849000000.000000      3.685760000000000E-01      3.890820000000000E+01      4.758911000000000E-01     -1.652500000000000E+02
4850000000.000000      3.708191000000000E-01      3.877344000000000E+01      4.736938000000000E-01     -1.657422000000000E+02
4851000000.000000      3.720856000000000E-01      3.867188000000000E+01      4.723511000000000E-01     -1.665625000000000E+02
4852000000.000000      3.729095000000000E-01      3.837891000000000E+01      4.712982000000000E-01     -1.673047000000000E+02
4853000000.000000      3.744659000000000E-01      3.820898000000000E+01      4.669342000000000E-01     -1.679453000000000E+02
4854000000.000000      3.760376000000000E-01      3.784180000000000E+01      4.648285000000000E-01     -1.686016000000000E+02
4855000000.000000      3.770599000000000E-01      3.779297000000000E+01      4.634705000000000E-01     -1.694687000000000E+02
4856000000.000000      3.778229000000000E-01      3.742383000000000E+01      4.606171000000000E-01     -1.701406000000000E+02
4857000000.000000      3.791962000000000E-01      3.726953000000000E+01      4.595947000000000E-01     -1.706719000000000E+02
4858000000.000000      3.796539000000000E-01      3.700390000000000E+01      4.572449000000000E-01     -1.713906000000000E+02
4859000000.000000      3.814087000000000E-01      3.667187000000000E+01      4.549713000000000E-01     -1.722656000000000E+02
4860000000.000000      3.826294000000000E-01      3.657227000000000E+01      4.517212000000000E-01     -1.727813000000000E+02
4861000000.000000      3.826752000000000E-01      3.636719000000000E+01      4.490356000000000E-01     -1.737187000000000E+02
4862000000.000000      3.838654000000000E-01      3.601563000000000E+01      4.470520000000000E-01     -1.741016000000000E+02
4863000000.000000      3.847351000000000E-01      3.573828000000000E+01      4.442749000000000E-01     -1.747500000000000E+02
4864000000.000000      3.862152000000000E-01      3.551758000000000E+01      4.408417000000000E-01     -1.753672000000000E+02
4865000000.000000      3.864899000000000E-01      3.522461000000000E+01      4.375610000000000E-01     -1.760469000000000E+02
4866000000.000000      3.874359000000000E-01      3.496484000000000E+01      4.331360000000000E-01     -1.769219000000000E+02
4867000000.000000      3.875122000000000E-01      3.473633000000000E+01      4.299927000000000E-01     -1.776250000000000E+02
4868000000.000000      3.895569000000000E-01      3.445898000000000E+01      4.279938000000000E-01     -1.781406000000000E+02
4869000000.000000      3.899078000000000E-01      3.424805000000000E+01      4.237823000000000E-01     -1.788828000000000E+02
4870000000.000000      3.904877000000000E-01      3.398046000000000E+01      4.217834000000000E-01     -1.793281000000000E+02
4871000000.000000      3.910675000000000E-01      3.374023000000000E+01      4.187164000000000E-01     -1.799687000000000E+02
4872000000.000000      3.919983000000000E-01      3.342968000000000E+01      4.144440000000000E-01      1.796484000000000E+02
4873000000.000000      3.923798000000000E-01      3.317968000000000E+01      4.114227000000000E-01      1.788047000000000E+02
4874000000.000000      3.929596000000000E-01      3.303320000000000E+01      4.077148000000000E-01      1.783125000000000E+02
4875000000.000000      3.929901000000000E-01      3.280468000000000E+01      4.040833000000000E-01      1.777812000000000E+02
4876000000.000000      3.941345000000000E-01      3.258008000000000E+01      4.011230000000000E-01      1.770234000000000E+02
4877000000.000000      3.948212000000000E-01      3.209765000000000E+01      3.979187000000000E-01      1.764922000000000E+02
4878000000.000000      3.937073000000000E-01      3.190625000000000E+01      3.942719000000000E-01      1.759140000000000E+02
4879000000.000000      3.947601000000000E-01      3.171679000000000E+01      3.896790000000000E-01      1.753359000000000E+02
4880000000.000000      3.960266000000000E-01      3.137207000000000E+01      3.880463000000000E-01      1.748516000000000E+02
4881000000.000000      3.956604000000000E-01      3.122851000000000E+01      3.850555000000000E-01      1.743125000000000E+02
4882000000.000000      3.962860000000000E-01      3.100879000000000E+01      3.816681000000000E-01      1.738125000000000E+02
4883000000.000000      3.955841000000000E-01      3.063183000000000E+01      3.758392000000000E-01      1.732734000000000E+02
4884000000.000000      3.958588000000000E-01      3.045410000000000E+01      3.729706000000000E-01      1.728125000000000E+02
4885000000.000000      3.962708000000000E-01      3.028613000000000E+01      3.682404000000000E-01      1.723984000000000E+02
4886000000.000000      3.968658000000000E-01      3.014453000000000E+01      3.666687000000000E-01      1.720156000000000E+02
4887000000.000000      3.967438000000000E-01      2.970800000000000E+01      3.641357000000000E-01      1.713750000000000E+02
4888000000.000000      3.964691000000000E-01      2.937988000000000E+01      3.601379000000000E-01      1.706640000000000E+02
4889000000.000000      3.967590000000000E-01      2.915430000000000E+01      3.554535000000000E-01      1.706172000000000E+02
4890000000.000000      3.955536000000000E-01      2.893359000000000E+01      3.518372000000000E-01      1.697500000000000E+02
4891000000.000000      3.964233000000000E-01      2.878808000000000E+01      3.467712000000000E-01      1.693828000000000E+02
4892000000.000000      3.959961000000000E-01      2.844336000000000E+01      3.450928000000000E-01      1.691562000000000E+02
4893000000.000000      3.968964000000000E-01      2.821972000000000E+01      3.407440000000000E-01      1.686797000000000E+02
4894000000.000000      3.960876000000000E-01      2.809179000000000E+01      3.369751000000000E-01      1.684219000000000E+02
4895000000.000000      3.964996000000000E-01      2.778125000000000E+01      3.350067000000000E-01      1.679453000000000E+02
4896000000.000000      3.959961000000000E-01      2.746973000000000E+01      3.297424000000000E-01      1.674453000000000E+02
4897000000.000000      3.955688000000000E-01      2.738281000000000E+01      3.267212000000000E-01      1.669141000000000E+02
4898000000.000000      3.956909000000000E-01      2.721386000000000E+01      3.251038000000000E-01      1.665937000000000E+02
4899000000.000000      3.957062000000000E-01      2.685547000000000E+01      3.208008000000000E-01      1.662422000000000E+02
4900000000.000000      3.952026000000000E-01      2.654687000000000E+01      3.174286000000000E-01      1.658516000000000E+02
4901000000.000000      3.952942000000000E-01      2.648438000000000E+01      3.138275000000000E-01      1.654297000000000E+02
4902000000.000000      3.948364000000000E-01      2.626074000000000E+01      3.097382000000000E-01      1.650547000000000E+02
4903000000.000000      3.952942000000000E-01      2.609472000000000E+01      3.059845000000000E-01      1.646094000000000E+02
4904000000.000000      3.947144000000000E-01      2.586133000000000E+01      3.038635000000000E-01      1.642344000000000E+02
4905000000.000000      3.946533000000000E-01      2.565820000000000E+01      3.000031000000000E-01      1.637734000000000E+02
4906000000.000000      3.942261000000000E-01      2.550000000000000E+01      2.962952000000000E-01      1.637812000000000E+02
4907000000.000000      3.942566000000000E-01      2.529297000000000E+01      2.931671000000000E-01      1.631328000000000E+02
4908000000.000000      3.939514000000000E-01      2.514746000000000E+01      2.900085000000000E-01      1.625859000000000E+02
4909000000.000000      3.930206000000000E-01      2.491699000000000E+01      2.865295000000000E-01      1.622344000000000E+02
4910000000.000000      3.927765000000000E-01      2.474121000000000E+01      2.824860000000000E-01      1.620547000000000E+02
4911000000.000000      3.938751000000000E-01      2.452929000000000E+01      2.797394000000000E-01      1.615703000000000E+02
4912000000.000000      3.928375000000000E-01      2.423437000000000E+01      2.763367000000000E-01      1.610469000000000E+02
4913000000.000000      3.931732000000000E-01      2.412793000000000E+01      2.730255000000000E-01      1.609375000000000E+02
4914000000.000000      3.930359000000000E-01      2.389843000000000E+01      2.683563000000000E-01      1.606484000000000E+02
4915000000.000000      3.920135000000000E-01      2.375977000000000E+01      2.645111000000000E-01      1.601797000000000E+02
4916000000.000000      3.919067000000000E-01      2.360254000000000E+01      2.615509000000000E-01      1.597969000000000E+02
4917000000.000000      3.925934000000000E-01      2.347070000000000E+01      2.580414000000000E-01      1.596172000000000E+02
4918000000.000000      3.918610000000000E-01      2.314355000000000E+01      2.534332000000000E-01      1.591875000000000E+02
4919000000.000000      3.908539000000000E-01      2.304980000000000E+01      2.502899000000000E-01      1.592266000000000E+02
4920000000.000000      3.910065000000000E-01      2.280468000000000E+01      2.458801000000000E-01      1.586250000000000E+02
4921000000.000000      3.905640000000000E-01      2.280176000000000E+01      2.427750000000000E-01      1.584922000000000E+02
4922000000.000000      3.905334000000000E-01      2.242578000000000E+01      2.387543000000000E-01      1.583672000000000E+02
4923000000.000000      3.904877000000000E-01      2.231640000000000E+01      2.341919000000000E-01      1.580625000000000E+02
4924000000.000000      3.901672000000000E-01      2.225879000000000E+01      2.309494000000000E-01      1.578750000000000E+02
4925000000.000000      3.905487000000000E-01      2.195019000000000E+01      2.271881000000000E-01      1.575469000000000E+02
4926000000.000000      3.898163000000000E-01      2.180078000000000E+01      2.232971000000000E-01      1.572422000000000E+02
4927000000.000000      3.893738000000000E-01      2.163672000000000E+01      2.187958000000000E-01      1.572109000000000E+02
4928000000.000000      3.901215000000000E-01      2.137793000000000E+01      2.151337000000000E-01      1.572969000000000E+02
4929000000.000000      3.889923000000000E-01      2.125000000000000E+01      2.111206000000000E-01      1.571328000000000E+02
4930000000.000000      3.887482000000000E-01      2.134570000000000E+01      2.074890000000000E-01      1.568750000000000E+02
4931000000.000000      3.879547000000000E-01      2.102832000000000E+01      2.037125000000000E-01      1.570000000000000E+02
4932000000.000000      3.887939000000000E-01      2.077343000000000E+01      1.992188000000000E-01      1.571172000000000E+02
4933000000.000000      3.880615000000000E-01      2.056055000000000E+01      1.944275000000000E-01      1.571016000000000E+02
4934000000.000000      3.874207000000000E-01      2.036231000000000E+01      1.908417000000000E-01      1.569453000000000E+02
4935000000.000000      3.883972000000000E-01      2.033398000000000E+01      1.878738000000000E-01      1.573437000000000E+02
4936000000.000000      3.864288000000000E-01      2.016211000000000E+01      1.827164000000000E-01      1.572500000000000E+02
4937000000.000000      3.873596000000000E-01      1.990527000000000E+01      1.793900000000000E-01      1.573594000000000E+02
4938000000.000000      3.856354000000000E-01      1.988770000000000E+01      1.757431000000000E-01      1.577812000000000E+02
4939000000.000000      3.860016000000000E-01      1.971875000000000E+01      1.712036000000000E-01      1.579609000000000E+02
4940000000.000000      3.860626000000000E-01      1.943164000000000E+01      1.674423000000000E-01      1.582891000000000E+02
4941000000.000000      3.861389000000000E-01      1.913867000000000E+01      1.638489000000000E-01      1.586406000000000E+02
4942000000.000000      3.841705000000000E-01      1.910058000000000E+01      1.598663000000000E-01      1.591719000000000E+02
4943000000.000000      3.852386000000000E-01      1.904394000000000E+01      1.563797000000000E-01      1.595391000000000E+02
4944000000.000000      3.847198000000000E-01      1.891406000000000E+01      1.533508000000000E-01      1.602422000000000E+02
4945000000.000000      3.840485000000000E-01      1.852344000000000E+01      1.492615000000000E-01      1.609062000000000E+02
4946000000.000000      3.851471000000000E-01      1.835938000000000E+01      1.464081000000000E-01      1.616406000000000E+02
4947000000.000000      3.839874000000000E-01      1.818066000000000E+01      1.426163000000000E-01      1.624844000000000E+02
4948000000.000000      3.842621000000000E-01      1.827832000000000E+01      1.397247000000000E-01      1.634687000000000E+02
4949000000.000000      3.826904000000000E-01      1.796484000000000E+01      1.368790000000000E-01      1.644922000000000E+02
4950000000.000000      3.835144000000000E-01      1.773242000000000E+01      1.333313000000000E-01      1.654375000000000E+02
4951000000.000000      3.832550000000000E-01      1.748047000000000E+01      1.308365000000000E-01      1.664219000000000E+02
4952000000.000000      3.831329000000000E-01      1.735937000000000E+01      1.282806000000000E-01      1.678359000000000E+02
4953000000.000000      3.824005000000000E-01      1.729492000000000E+01      1.255341000000000E-01      1.692891000000000E+02
4954000000.000000      3.818359000000000E-01      1.718750000000000E+01      1.236954000000000E-01      1.704375000000000E+02
