! Network Analyzer HP8722D
! Hewlett-Packard
! Data name: Linha & Wilkinson
! Saver's name: Rodrigo Anjos
! Comments: Teste da utilização de aquisição
continua pelo VNA HP8722D
! Time and date: 23/5/2025 12:43
!              Frequency                     S11                                                   S21                                                   S12                                                   S22
# HZ  S  MA R 50
4800000000.000000      2.892456000000000E-01      3.950195000000000E+01      4.823608000000000E-01     -1.294844000000000E+02
4801000000.000000      2.898102000000000E-01      3.982617000000000E+01      4.841766000000000E-01     -1.301719000000000E+02
4802000000.000000      2.913971000000000E-01      3.999218000000000E+01      4.859924000000000E-01     -1.308438000000000E+02
4803000000.000000      2.922211000000000E-01      4.016211000000000E+01      4.889526000000000E-01     -1.315156000000000E+02
4804000000.000000      2.934723000000000E-01      4.037305000000000E+01      4.896393000000000E-01     -1.322813000000000E+02
4805000000.000000      2.951965000000000E-01      4.051953000000000E+01      4.908295000000000E-01     -1.330937000000000E+02
4806000000.000000      2.956848000000000E-01      4.067773000000000E+01      4.926147000000000E-01     -1.337734000000000E+02
4807000000.000000      2.975616000000000E-01      4.083789000000000E+01      4.930573000000000E-01     -1.347188000000000E+02
4808000000.000000      2.982330000000000E-01      4.101758000000000E+01      4.953003000000000E-01     -1.350625000000000E+02
4809000000.000000      2.996674000000000E-01      4.126172000000000E+01      4.938965000000000E-01     -1.362109000000000E+02
4810000000.000000      3.012543000000000E-01      4.134179000000000E+01      4.972534000000000E-01     -1.366719000000000E+02
4811000000.000000      3.033447000000000E-01      4.157227000000000E+01      4.994202000000000E-01     -1.375469000000000E+02
4812000000.000000      3.052521000000000E-01      4.173828000000000E+01      4.990540000000000E-01     -1.381250000000000E+02
4813000000.000000      3.066254000000000E-01      4.180469000000000E+01      5.001831000000000E-01     -1.389219000000000E+02
4814000000.000000      3.073883000000000E-01      4.183789000000000E+01      5.011292000000000E-01     -1.395313000000000E+02
4815000000.000000      3.091125000000000E-01      4.206640000000000E+01      5.018311000000000E-01     -1.404609000000000E+02
4816000000.000000      3.117371000000000E-01      4.205859000000000E+01      5.016479000000000E-01     -1.411016000000000E+02
4817000000.000000      3.126221000000000E-01      4.218750000000000E+01      5.018616000000000E-01     -1.419297000000000E+02
4818000000.000000      3.145142000000000E-01      4.216210000000000E+01      5.035706000000000E-01     -1.427187000000000E+02
4819000000.000000      3.166046000000000E-01      4.220508000000000E+01      5.030212000000000E-01     -1.433516000000000E+02
4820000000.000000      3.171692000000000E-01      4.229101000000000E+01      5.040283000000000E-01     -1.440625000000000E+02
4821000000.000000      3.207092000000000E-01      4.225195000000000E+01      5.047607000000000E-01     -1.448281000000000E+02
4822000000.000000      3.212891000000000E-01      4.225195000000000E+01      5.032654000000000E-01     -1.454687000000000E+02
4823000000.000000      3.232727000000000E-01      4.216210000000000E+01      5.034180000000000E-01     -1.463594000000000E+02
4824000000.000000      3.251648000000000E-01      4.236718000000000E+01      5.041809000000000E-01     -1.471094000000000E+02
4825000000.000000      3.269958000000000E-01      4.222070000000000E+01      5.028992000000000E-01     -1.478281000000000E+02
4826000000.000000      3.283691000000000E-01      4.218554000000000E+01      5.044861000000000E-01     -1.483750000000000E+02
4827000000.000000      3.302460000000000E-01      4.221875000000000E+01      5.045166000000000E-01     -1.490391000000000E+02
4828000000.000000      3.327942000000000E-01      4.214063000000000E+01      5.025330000000000E-01     -1.497969000000000E+02
4829000000.000000      3.337708000000000E-01      4.220899000000000E+01      5.034180000000000E-01     -1.505859000000000E+02
4830000000.000000      3.361053000000000E-01      4.192578000000000E+01      5.013733000000000E-01     -1.513047000000000E+02
4831000000.000000      3.376465000000000E-01      4.188477000000000E+01      5.007935000000000E-01     -1.521719000000000E+02
4832000000.000000      3.395691000000000E-01      4.192383000000000E+01      4.995422000000000E-01     -1.526406000000000E+02
4833000000.000000      3.408813000000000E-01      4.165235000000000E+01      4.997711000000000E-01     -1.534922000000000E+02
4834000000.000000      3.427429000000000E-01      4.162695000000000E+01      4.984894000000000E-01     -1.543828000000000E+02
4835000000.000000      3.453522000000000E-01      4.142578000000000E+01      4.977417000000000E-01     -1.549922000000000E+02
4836000000.000000      3.470001000000000E-01      4.145508000000000E+01      4.962158000000000E-01     -1.556641000000000E+02
4837000000.000000      3.480072000000000E-01      4.148242000000000E+01      4.946747000000000E-01     -1.566328000000000E+02
4838000000.000000      3.492584000000000E-01      4.110937000000000E+01      4.954834000000000E-01     -1.570078000000000E+02
4839000000.000000      3.531494000000000E-01      4.105859000000000E+01      4.933472000000000E-01     -1.577734000000000E+02
4840000000.000000      3.537903000000000E-01      4.077148000000000E+01      4.937286000000000E-01     -1.583516000000000E+02
4841000000.000000      3.552246000000000E-01      4.079883000000000E+01      4.922028000000000E-01     -1.591406000000000E+02
4842000000.000000      3.562622000000000E-01      4.045507000000000E+01      4.891205000000000E-01     -1.598672000000000E+02
4843000000.000000      3.595734000000000E-01      4.020312000000000E+01      4.883881000000000E-01     -1.606797000000000E+02
4844000000.000000      3.601227000000000E-01      4.013476000000000E+01      4.864655000000000E-01     -1.612890000000000E+02
4845000000.000000      3.614502000000000E-01      3.996484000000000E+01      4.854279000000000E-01     -1.620391000000000E+02
4846000000.000000      3.638000000000000E-01      3.981836000000000E+01      4.836121000000000E-01     -1.627187000000000E+02
4847000000.000000      3.649445000000000E-01      3.964453000000000E+01      4.814758000000000E-01     -1.634219000000000E+02
4848000000.000000      3.656464000000000E-01      3.938672000000000E+01      4.798126000000000E-01     -1.642891000000000E+02
4849000000.000000      3.668823000000000E-01      3.910351000000000E+01      4.784546000000000E-01     -1.648438000000000E+02
4850000000.000000      3.684845000000000E-01      3.893750000000000E+01      4.764862000000000E-01     -1.654219000000000E+02
4851000000.000000      3.699341000000000E-01      3.885351000000000E+01      4.740143000000000E-01     -1.664453000000000E+02
4852000000.000000      3.711548000000000E-01      3.862500000000000E+01      4.727631000000000E-01     -1.669062000000000E+02
4853000000.000000      3.727264000000000E-01      3.838281000000000E+01      4.679108000000000E-01     -1.679062000000000E+02
4854000000.000000      3.735046000000000E-01      3.800390000000000E+01      4.689331000000000E-01     -1.685078000000000E+02
4855000000.000000      3.747559000000000E-01      3.787695000000000E+01      4.658356000000000E-01     -1.691797000000000E+02
4856000000.000000      3.762665000000000E-01      3.763476000000000E+01      4.641418000000000E-01     -1.697500000000000E+02
4857000000.000000      3.772888000000000E-01      3.744922000000000E+01      4.618073000000000E-01     -1.704531000000000E+02
4858000000.000000      3.783875000000000E-01      3.713086000000000E+01      4.590607000000000E-01     -1.712265000000000E+02
4859000000.000000      3.794403000000000E-01      3.692383000000000E+01      4.567566000000000E-01     -1.717500000000000E+02
4860000000.000000      3.803101000000000E-01      3.668750000000000E+01      4.536438000000000E-01     -1.725625000000000E+02
4861000000.000000      3.808594000000000E-01      3.641406000000000E+01      4.514465000000000E-01     -1.733359000000000E+02
4862000000.000000      3.816528000000000E-01      3.619141000000000E+01      4.493408000000000E-01     -1.740625000000000E+02
4863000000.000000      3.829346000000000E-01      3.605078000000000E+01      4.468079000000000E-01     -1.747500000000000E+02
4864000000.000000      3.843994000000000E-01      3.564648000000000E+01      4.422302000000000E-01     -1.751953000000000E+02
4865000000.000000      3.846588000000000E-01      3.536523000000000E+01      4.388428000000000E-01     -1.758672000000000E+02
4866000000.000000      3.858185000000000E-01      3.508203000000000E+01      4.375610000000000E-01     -1.765156000000000E+02
4867000000.000000      3.858948000000000E-01      3.489843000000000E+01      4.348297000000000E-01     -1.772812000000000E+02
4868000000.000000      3.876801000000000E-01      3.457226000000000E+01      4.312592000000000E-01     -1.779609000000000E+02
4869000000.000000      3.877106000000000E-01      3.441992000000000E+01      4.272308000000000E-01     -1.787500000000000E+02
4870000000.000000      3.885345000000000E-01      3.410937000000000E+01      4.257660000000000E-01     -1.790781000000000E+02
4871000000.000000      3.893280000000000E-01      3.380859000000000E+01      4.213409000000000E-01     -1.799297000000000E+02
4872000000.000000      3.910675000000000E-01      3.360156000000000E+01      4.171753000000000E-01      1.797656000000000E+02
4873000000.000000      3.897095000000000E-01      3.343164000000000E+01      4.140320000000000E-01      1.791016000000000E+02
4874000000.000000      3.912048000000000E-01      3.317968000000000E+01      4.099121000000000E-01      1.782812000000000E+02
4875000000.000000      3.909607000000000E-01      3.279297000000000E+01      4.071808000000000E-01      1.777969000000000E+02
4876000000.000000      3.916779000000000E-01      3.272656000000000E+01      4.040070000000000E-01      1.771484000000000E+02
4877000000.000000      3.926086000000000E-01      3.211133000000000E+01      4.018250000000000E-01      1.766719000000000E+02
4878000000.000000      3.913574000000000E-01      3.202734000000000E+01      3.968353000000000E-01      1.760313000000000E+02
4879000000.000000      3.943176000000000E-01      3.175683000000000E+01      3.933105000000000E-01      1.756406000000000E+02
4880000000.000000      3.946228000000000E-01      3.142969000000000E+01      3.906097000000000E-01      1.749375000000000E+02
4881000000.000000      3.934937000000000E-01      3.122851000000000E+01      3.869934000000000E-01      1.748359000000000E+02
4882000000.000000      3.948975000000000E-01      3.107715000000000E+01      3.845367000000000E-01      1.738359000000000E+02
4883000000.000000      3.939362000000000E-01      3.074902000000000E+01      3.785248000000000E-01      1.733906000000000E+02
4884000000.000000      3.955231000000000E-01      3.058105000000000E+01      3.766937000000000E-01      1.731094000000000E+02
4885000000.000000      3.950043000000000E-01      3.037793000000000E+01      3.717804000000000E-01      1.727344000000000E+02
4886000000.000000      3.947449000000000E-01      3.016894000000000E+01      3.693085000000000E-01      1.720156000000000E+02
4887000000.000000      3.959503000000000E-01      2.968554000000000E+01      3.660889000000000E-01      1.715000000000000E+02
4888000000.000000      3.951721000000000E-01      2.945117000000000E+01      3.625946000000000E-01      1.711328000000000E+02
4889000000.000000      3.946838000000000E-01      2.932324000000000E+01      3.595886000000000E-01      1.706328000000000E+02
4890000000.000000      3.945465000000000E-01      2.894140000000000E+01      3.548431000000000E-01      1.698750000000000E+02
4891000000.000000      3.947449000000000E-01      2.876562000000000E+01      3.501587000000000E-01      1.696328000000000E+02
4892000000.000000      3.949432000000000E-01      2.860840000000000E+01      3.470764000000000E-01      1.692812000000000E+02
4893000000.000000      3.946838000000000E-01      2.835156000000000E+01      3.432007000000000E-01      1.683750000000000E+02
4894000000.000000      3.943329000000000E-01      2.813281000000000E+01      3.403015000000000E-01      1.682578000000000E+02
4895000000.000000      3.955688000000000E-01      2.786621000000000E+01      3.379517000000000E-01      1.679297000000000E+02
4896000000.000000      3.954010000000000E-01      2.771777000000000E+01      3.333130000000000E-01      1.675937000000000E+02
4897000000.000000      3.944244000000000E-01      2.744726000000000E+01      3.309631000000000E-01      1.669609000000000E+02
4898000000.000000      3.945923000000000E-01      2.718652000000000E+01      3.275909000000000E-01      1.666875000000000E+02
4899000000.000000      3.948212000000000E-01      2.689941000000000E+01      3.226624000000000E-01      1.661250000000000E+02
4900000000.000000      3.946228000000000E-01      2.665625000000000E+01      3.202667000000000E-01      1.656953000000000E+02
4901000000.000000      3.945770000000000E-01      2.650293000000000E+01      3.170319000000000E-01      1.655313000000000E+02
4902000000.000000      3.929749000000000E-01      2.644043000000000E+01      3.133545000000000E-01      1.651953000000000E+02
4903000000.000000      3.944702000000000E-01      2.613281000000000E+01      3.095093000000000E-01      1.645781000000000E+02
4904000000.000000      3.938141000000000E-01      2.583496000000000E+01      3.069153000000000E-01      1.641250000000000E+02
4905000000.000000      3.939514000000000E-01      2.568164000000000E+01      3.037872000000000E-01      1.637500000000000E+02
4906000000.000000      3.930511000000000E-01      2.548925000000000E+01      2.998352000000000E-01      1.637187000000000E+02
4907000000.000000      3.925171000000000E-01      2.525195000000000E+01      2.966614000000000E-01      1.630312000000000E+02
4908000000.000000      3.933868000000000E-01      2.513769000000000E+01      2.932739000000000E-01      1.627734000000000E+02
4909000000.000000      3.925629000000000E-01      2.484375000000000E+01      2.896423000000000E-01      1.622734000000000E+02
4910000000.000000      3.921967000000000E-01      2.472949000000000E+01      2.853699000000000E-01      1.620469000000000E+02
4911000000.000000      3.921509000000000E-01      2.468457000000000E+01      2.827911000000000E-01      1.616406000000000E+02
4912000000.000000      3.918304000000000E-01      2.441797000000000E+01      2.792358000000000E-01      1.611484000000000E+02
4913000000.000000      3.915710000000000E-01      2.422852000000000E+01      2.752838000000000E-01      1.609375000000000E+02
4914000000.000000      3.911133000000000E-01      2.390137000000000E+01      2.718811000000000E-01      1.605937000000000E+02
4915000000.000000      3.903198000000000E-01      2.373437000000000E+01      2.680664000000000E-01      1.600156000000000E+02
4916000000.000000      3.914185000000000E-01      2.361328000000000E+01      2.643280000000000E-01      1.597031000000000E+02
4917000000.000000      3.906555000000000E-01      2.347754000000000E+01      2.608185000000000E-01      1.594531000000000E+02
4918000000.000000      3.909760000000000E-01      2.322754000000000E+01      2.566223000000000E-01      1.590547000000000E+02
4919000000.000000      3.893127000000000E-01      2.311328000000000E+01      2.534637000000000E-01      1.590078000000000E+02
4920000000.000000      3.899689000000000E-01      2.274121000000000E+01      2.490311000000000E-01      1.584609000000000E+02
4921000000.000000      3.880615000000000E-01      2.284375000000000E+01      2.457199000000000E-01      1.582031000000000E+02
4922000000.000000      3.889313000000000E-01      2.260937000000000E+01      2.413712000000000E-01      1.581406000000000E+02
4923000000.000000      3.886566000000000E-01      2.245605000000000E+01      2.375565000000000E-01      1.578359000000000E+02
4924000000.000000      3.893585000000000E-01      2.231640000000000E+01      2.337112000000000E-01      1.575078000000000E+02
4925000000.000000      3.887024000000000E-01      2.199707000000000E+01      2.297974000000000E-01      1.574453000000000E+02
4926000000.000000      3.875732000000000E-01      2.187012000000000E+01      2.259827000000000E-01      1.570781000000000E+02
4927000000.000000      3.881836000000000E-01      2.164941000000000E+01      2.215576000000000E-01      1.570000000000000E+02
4928000000.000000      3.891602000000000E-01      2.138574000000000E+01      2.184448000000000E-01      1.568047000000000E+02
4929000000.000000      3.875275000000000E-01      2.123242000000000E+01      2.139130000000000E-01      1.567891000000000E+02
4930000000.000000      3.878326000000000E-01      2.110742000000000E+01      2.103882000000000E-01      1.565078000000000E+02
4931000000.000000      3.868256000000000E-01      2.089453000000000E+01      2.063599000000000E-01      1.564922000000000E+02
4932000000.000000      3.869019000000000E-01      2.077343000000000E+01      2.015457000000000E-01      1.563750000000000E+02
4933000000.000000      3.863678000000000E-01      2.057715000000000E+01      1.972809000000000E-01      1.566094000000000E+02
4934000000.000000      3.875427000000000E-01      2.035742000000000E+01      1.942444000000000E-01      1.565469000000000E+02
4935000000.000000      3.877106000000000E-01      2.034766000000000E+01      1.905441000000000E-01      1.567422000000000E+02
4936000000.000000      3.863983000000000E-01      2.008301000000000E+01      1.859207000000000E-01      1.567422000000000E+02
4937000000.000000      3.854523000000000E-01      1.985449000000000E+01      1.816864000000000E-01      1.569062000000000E+02
4938000000.000000      3.849792000000000E-01      1.986035000000000E+01      1.776199000000000E-01      1.571250000000000E+02
4939000000.000000      3.844910000000000E-01      1.968457000000000E+01      1.740952000000000E-01      1.573984000000000E+02
4940000000.000000      3.855286000000000E-01      1.941211000000000E+01      1.695786000000000E-01      1.575859000000000E+02
4941000000.000000      3.851318000000000E-01      1.925977000000000E+01      1.662674000000000E-01      1.581640000000000E+02
4942000000.000000      3.836365000000000E-01      1.914746000000000E+01      1.622543000000000E-01      1.585078000000000E+02
4943000000.000000      3.834839000000000E-01      1.886035000000000E+01      1.590195000000000E-01      1.589609000000000E+02
4944000000.000000      3.835907000000000E-01      1.860937000000000E+01      1.554031000000000E-01      1.594766000000000E+02
4945000000.000000      3.840027000000000E-01      1.844434000000000E+01      1.507950000000000E-01      1.600703000000000E+02
4946000000.000000      3.827820000000000E-01      1.839062000000000E+01      1.478577000000000E-01      1.607734000000000E+02
4947000000.000000      3.829041000000000E-01      1.818066000000000E+01      1.443481000000000E-01      1.615781000000000E+02
4948000000.000000      3.830109000000000E-01      1.816992000000000E+01      1.412964000000000E-01      1.624609000000000E+02
4949000000.000000      3.814392000000000E-01      1.790430000000000E+01      1.385345000000000E-01      1.634297000000000E+02
4950000000.000000      3.827057000000000E-01      1.784570000000000E+01      1.352234000000000E-01      1.644140000000000E+02
4951000000.000000      3.820496000000000E-01      1.752637000000000E+01      1.323318000000000E-01      1.654844000000000E+02
4952000000.000000      3.811188000000000E-01      1.741992000000000E+01      1.290283000000000E-01      1.665781000000000E+02
4953000000.000000      3.804016000000000E-01      1.728125000000000E+01      1.269531000000000E-01      1.679609000000000E+02
4954000000.000000      3.809967000000000E-01      1.706543000000000E+01      1.246147000000000E-01      1.694219000000000E+02
