! Network Analyzer HP8722D
! Hewlett-Packard
! Data name: Linha & Wilkinson
! Saver's name: Rodrigo Anjos
! Comments: Teste da utilização de aquisição
continua pelo VNA HP8722D
! Time and date: 23/5/2025 15:56
!              Frequency                     S11                                                   S21                                                   S12                                                   S22
# HZ  S  MA R 50
4800000000.000000      2.789612000000000E-01      4.041406000000000E+01      4.897614000000000E-01     -1.300781000000000E+02
4801000000.000000      2.802429000000000E-01      4.080664000000000E+01      4.895020000000000E-01     -1.306562000000000E+02
4802000000.000000      2.820435000000000E-01      4.088672000000000E+01      4.913940000000000E-01     -1.312578000000000E+02
4803000000.000000      2.828979000000000E-01      4.112305000000000E+01      4.962158000000000E-01     -1.320859000000000E+02
4804000000.000000      2.837830000000000E-01      4.144531000000000E+01      4.962311000000000E-01     -1.328594000000000E+02
4805000000.000000      2.860260000000000E-01      4.145508000000000E+01      4.964294000000000E-01     -1.336562000000000E+02
4806000000.000000      2.868347000000000E-01      4.167969000000000E+01      4.987183000000000E-01     -1.343359000000000E+02
4807000000.000000      2.880402000000000E-01      4.186328000000000E+01      5.000916000000000E-01     -1.351484000000000E+02
4808000000.000000      2.893829000000000E-01      4.206250000000000E+01      5.011902000000000E-01     -1.357500000000000E+02
4809000000.000000      2.909088000000000E-01      4.229688000000000E+01      5.026245000000000E-01     -1.366172000000000E+02
4810000000.000000      2.927246000000000E-01      4.239453000000000E+01      5.036621000000000E-01     -1.372109000000000E+02
4811000000.000000      2.946930000000000E-01      4.258398000000000E+01      5.042419000000000E-01     -1.379922000000000E+02
4812000000.000000      2.967072000000000E-01      4.270312000000000E+01      5.050354000000000E-01     -1.386719000000000E+02
4813000000.000000      2.980652000000000E-01      4.279687000000000E+01      5.067749000000000E-01     -1.394531000000000E+02
4814000000.000000      2.992249000000000E-01      4.288671000000000E+01      5.074158000000000E-01     -1.401719000000000E+02
4815000000.000000      3.007355000000000E-01      4.301953000000000E+01      5.070190000000000E-01     -1.408750000000000E+02
4816000000.000000      3.032532000000000E-01      4.306054000000000E+01      5.083618000000000E-01     -1.415390000000000E+02
4817000000.000000      3.047485000000000E-01      4.313867000000000E+01      5.075989000000000E-01     -1.424297000000000E+02
4818000000.000000      3.063049000000000E-01      4.317383000000000E+01      5.086060000000000E-01     -1.430156000000000E+02
4819000000.000000      3.085632000000000E-01      4.320898000000000E+01      5.076599000000000E-01     -1.438594000000000E+02
4820000000.000000      3.094788000000000E-01      4.329687000000000E+01      5.097656000000000E-01     -1.443828000000000E+02
4821000000.000000      3.126068000000000E-01      4.323438000000000E+01      5.106201000000000E-01     -1.451953000000000E+02
4822000000.000000      3.133545000000000E-01      4.323438000000000E+01      5.095825000000000E-01     -1.460547000000000E+02
4823000000.000000      3.153992000000000E-01      4.317578000000000E+01      5.101013000000000E-01     -1.467266000000000E+02
4824000000.000000      3.174896000000000E-01      4.332812000000000E+01      5.084229000000000E-01     -1.473828000000000E+02
4825000000.000000      3.193207000000000E-01      4.316406000000000E+01      5.092163000000000E-01     -1.482109000000000E+02
4826000000.000000      3.212280000000000E-01      4.308984000000000E+01      5.094299000000000E-01     -1.489687000000000E+02
4827000000.000000      3.223877000000000E-01      4.313281000000000E+01      5.083618000000000E-01     -1.495781000000000E+02
4828000000.000000      3.252563000000000E-01      4.306054000000000E+01      5.090027000000000E-01     -1.503203000000000E+02
4829000000.000000      3.261414000000000E-01      4.308203000000000E+01      5.085754000000000E-01     -1.510078000000000E+02
4830000000.000000      3.281708000000000E-01      4.286328000000000E+01      5.052795000000000E-01     -1.518047000000000E+02
4831000000.000000      3.301697000000000E-01      4.277344000000000E+01      5.067444000000000E-01     -1.525859000000000E+02
4832000000.000000      3.322144000000000E-01      4.283789000000000E+01      5.053711000000000E-01     -1.532187000000000E+02
4833000000.000000      3.335419000000000E-01      4.250586000000000E+01      5.036011000000000E-01     -1.540625000000000E+02
4834000000.000000      3.350372000000000E-01      4.250977000000000E+01      5.037842000000000E-01     -1.546641000000000E+02
4835000000.000000      3.373566000000000E-01      4.237695000000000E+01      5.035095000000000E-01     -1.554453000000000E+02
4836000000.000000      3.391571000000000E-01      4.225976000000000E+01      5.013733000000000E-01     -1.561797000000000E+02
4837000000.000000      3.400116000000000E-01      4.218359000000000E+01      5.000305000000000E-01     -1.570313000000000E+02
4838000000.000000      3.418732000000000E-01      4.186132000000000E+01      4.997101000000000E-01     -1.574297000000000E+02
4839000000.000000      3.454132000000000E-01      4.191211000000000E+01      4.989777000000000E-01     -1.582500000000000E+02
4840000000.000000      3.459015000000000E-01      4.162890000000000E+01      4.983368000000000E-01     -1.590625000000000E+02
4841000000.000000      3.473358000000000E-01      4.147265000000000E+01      4.970856000000000E-01     -1.596484000000000E+02
4842000000.000000      3.494873000000000E-01      4.128906000000000E+01      4.952850000000000E-01     -1.603672000000000E+02
4843000000.000000      3.514099000000000E-01      4.102539000000000E+01      4.931946000000000E-01     -1.610547000000000E+02
4844000000.000000      3.520355000000000E-01      4.079492000000000E+01      4.936523000000000E-01     -1.617344000000000E+02
4845000000.000000      3.541260000000000E-01      4.073632000000000E+01      4.894257000000000E-01     -1.624766000000000E+02
4846000000.000000      3.560181000000000E-01      4.061328000000000E+01      4.898224000000000E-01     -1.633672000000000E+02
4847000000.000000      3.573456000000000E-01      4.044726000000000E+01      4.884644000000000E-01     -1.638515000000000E+02
4848000000.000000      3.583069000000000E-01      4.011328000000000E+01      4.850311000000000E-01     -1.645703000000000E+02
4849000000.000000      3.597717000000000E-01      3.987890000000000E+01      4.848480000000000E-01     -1.653359000000000E+02
4850000000.000000      3.606720000000000E-01      3.968945000000000E+01      4.822235000000000E-01     -1.659922000000000E+02
4851000000.000000      3.628082000000000E-01      3.952734000000000E+01      4.807434000000000E-01     -1.667500000000000E+02
4852000000.000000      3.640900000000000E-01      3.926953000000000E+01      4.788666000000000E-01     -1.675234000000000E+02
4853000000.000000      3.655396000000000E-01      3.896679000000000E+01      4.761658000000000E-01     -1.680703000000000E+02
4854000000.000000      3.667297000000000E-01      3.875586000000000E+01      4.731293000000000E-01     -1.691562000000000E+02
4855000000.000000      3.674011000000000E-01      3.850781000000000E+01      4.701843000000000E-01     -1.694766000000000E+02
4856000000.000000      3.694458000000000E-01      3.832617000000000E+01      4.682770000000000E-01     -1.701719000000000E+02
4857000000.000000      3.701935000000000E-01      3.816992000000000E+01      4.672546000000000E-01     -1.710312000000000E+02
4858000000.000000      3.708038000000000E-01      3.768359000000000E+01      4.634705000000000E-01     -1.714687000000000E+02
4859000000.000000      3.720703000000000E-01      3.752734000000000E+01      4.615784000000000E-01     -1.725391000000000E+02
4860000000.000000      3.735352000000000E-01      3.732031000000000E+01      4.586334000000000E-01     -1.730000000000000E+02
4861000000.000000      3.740540000000000E-01      3.701367000000000E+01      4.558716000000000E-01     -1.737969000000000E+02
4862000000.000000      3.745270000000000E-01      3.683008000000000E+01      4.546509000000000E-01     -1.742422000000000E+02
4863000000.000000      3.763428000000000E-01      3.659375000000000E+01      4.494324000000000E-01     -1.750000000000000E+02
4864000000.000000      3.765106000000000E-01      3.641211000000000E+01      4.465637000000000E-01     -1.755781000000000E+02
4865000000.000000      3.775330000000000E-01      3.597851000000000E+01      4.449921000000000E-01     -1.763125000000000E+02
4866000000.000000      3.775787000000000E-01      3.562500000000000E+01      4.413300000000000E-01     -1.768594000000000E+02
4867000000.000000      3.785858000000000E-01      3.540820000000000E+01      4.382172000000000E-01     -1.777500000000000E+02
4868000000.000000      3.800659000000000E-01      3.508594000000000E+01      4.363708000000000E-01     -1.783906000000000E+02
4869000000.000000      3.807068000000000E-01      3.492773000000000E+01      4.329834000000000E-01     -1.788750000000000E+02
4870000000.000000      3.811646000000000E-01      3.459961000000000E+01      4.297333000000000E-01     -1.795391000000000E+02
4871000000.000000      3.816528000000000E-01      3.425000000000000E+01      4.267578000000000E-01      1.798203000000000E+02
4872000000.000000      3.830872000000000E-01      3.404882000000000E+01      4.234619000000000E-01      1.793594000000000E+02
4873000000.000000      3.825531000000000E-01      3.389453000000000E+01      4.206390000000000E-01      1.784141000000000E+02
4874000000.000000      3.836212000000000E-01      3.357812000000000E+01      4.149933000000000E-01      1.778047000000000E+02
4875000000.000000      3.841553000000000E-01      3.325976000000000E+01      4.120789000000000E-01      1.775000000000000E+02
4876000000.000000      3.845367000000000E-01      3.308984000000000E+01      4.092865000000000E-01      1.768906000000000E+02
4877000000.000000      3.858948000000000E-01      3.271679000000000E+01      4.054413000000000E-01      1.762031000000000E+02
4878000000.000000      3.849487000000000E-01      3.245508000000000E+01      4.028168000000000E-01      1.757344000000000E+02
4879000000.000000      3.853912000000000E-01      3.223633000000000E+01      3.972015000000000E-01      1.752344000000000E+02
4880000000.000000      3.871002000000000E-01      3.188281000000000E+01      3.943787000000000E-01      1.746562000000000E+02
4881000000.000000      3.859253000000000E-01      3.161816000000000E+01      3.920593000000000E-01      1.742031000000000E+02
4882000000.000000      3.867340000000000E-01      3.144336000000000E+01      3.881378000000000E-01      1.734141000000000E+02
4883000000.000000      3.864441000000000E-01      3.102344000000000E+01      3.847046000000000E-01      1.729844000000000E+02
4884000000.000000      3.867798000000000E-01      3.089453000000000E+01      3.816071000000000E-01      1.727031000000000E+02
4885000000.000000      3.868713000000000E-01      3.062500000000000E+01      3.784180000000000E-01      1.723516000000000E+02
4886000000.000000      3.870697000000000E-01      3.047949000000000E+01      3.740845000000000E-01      1.715859000000000E+02
4887000000.000000      3.876801000000000E-01      3.010449000000000E+01      3.708496000000000E-01      1.711406000000000E+02
4888000000.000000      3.868408000000000E-01      2.973633000000000E+01      3.669281000000000E-01      1.702969000000000E+02
4889000000.000000      3.870850000000000E-01      2.960742000000000E+01      3.619080000000000E-01      1.702734000000000E+02
4890000000.000000      3.865814000000000E-01      2.934961000000000E+01      3.591003000000000E-01      1.692969000000000E+02
4891000000.000000      3.867950000000000E-01      2.903515000000000E+01      3.553925000000000E-01      1.693125000000000E+02
4892000000.000000      3.868408000000000E-01      2.893359000000000E+01      3.518219000000000E-01      1.688906000000000E+02
4893000000.000000      3.881073000000000E-01      2.858887000000000E+01      3.493500000000000E-01      1.682656000000000E+02
4894000000.000000      3.869324000000000E-01      2.844043000000000E+01      3.442078000000000E-01      1.678516000000000E+02
4895000000.000000      3.876648000000000E-01      2.813672000000000E+01      3.421326000000000E-01      1.675625000000000E+02
4896000000.000000      3.873901000000000E-01      2.790918000000000E+01      3.383179000000000E-01      1.670000000000000E+02
4897000000.000000      3.865204000000000E-01      2.764355000000000E+01      3.350677000000000E-01      1.661953000000000E+02
4898000000.000000      3.862915000000000E-01      2.747949000000000E+01      3.311462000000000E-01      1.663047000000000E+02
4899000000.000000      3.859406000000000E-01      2.728125000000000E+01      3.277893000000000E-01      1.655781000000000E+02
4900000000.000000      3.866730000000000E-01      2.699609000000000E+01      3.231659000000000E-01      1.654687000000000E+02
4901000000.000000      3.852539000000000E-01      2.672266000000000E+01      3.212280000000000E-01      1.650781000000000E+02
4902000000.000000      3.859406000000000E-01      2.651953000000000E+01      3.179626000000000E-01      1.646953000000000E+02
4903000000.000000      3.859100000000000E-01      2.645996000000000E+01      3.141174000000000E-01      1.642422000000000E+02
4904000000.000000      3.854675000000000E-01      2.611230000000000E+01      3.107147000000000E-01      1.638125000000000E+02
4905000000.000000      3.853149000000000E-01      2.582715000000000E+01      3.076019000000000E-01      1.634922000000000E+02
4906000000.000000      3.842773000000000E-01      2.563379000000000E+01      3.040161000000000E-01      1.632656000000000E+02
4907000000.000000      3.855133000000000E-01      2.554590000000000E+01      3.009186000000000E-01      1.625937000000000E+02
4908000000.000000      3.850098000000000E-01      2.529980000000000E+01      2.972870000000000E-01      1.622344000000000E+02
4909000000.000000      3.834381000000000E-01      2.513476000000000E+01      2.937164000000000E-01      1.619531000000000E+02
4910000000.000000      3.832703000000000E-01      2.499512000000000E+01      2.900238000000000E-01      1.615313000000000E+02
4911000000.000000      3.839264000000000E-01      2.483789000000000E+01      2.864990000000000E-01      1.611875000000000E+02
4912000000.000000      3.831787000000000E-01      2.460351000000000E+01      2.832947000000000E-01      1.607812000000000E+02
4913000000.000000      3.828278000000000E-01      2.430176000000000E+01      2.789612000000000E-01      1.604453000000000E+02
4914000000.000000      3.836670000000000E-01      2.408008000000000E+01      2.752838000000000E-01      1.601719000000000E+02
4915000000.000000      3.830414000000000E-01      2.409277000000000E+01      2.720490000000000E-01      1.595937000000000E+02
4916000000.000000      3.826904000000000E-01      2.367090000000000E+01      2.684937000000000E-01      1.591406000000000E+02
4917000000.000000      3.820496000000000E-01      2.365820000000000E+01      2.639160000000000E-01      1.591719000000000E+02
4918000000.000000      3.821716000000000E-01      2.330566000000000E+01      2.598267000000000E-01      1.588047000000000E+02
4919000000.000000      3.808441000000000E-01      2.321680000000000E+01      2.569122000000000E-01      1.586328000000000E+02
4920000000.000000      3.817291000000000E-01      2.310547000000000E+01      2.528381000000000E-01      1.579219000000000E+02
4921000000.000000      3.813934000000000E-01      2.286328000000000E+01      2.492752000000000E-01      1.578438000000000E+02
4922000000.000000      3.809052000000000E-01      2.262598000000000E+01      2.453232000000000E-01      1.578594000000000E+02
4923000000.000000      3.805389000000000E-01      2.250391000000000E+01      2.409821000000000E-01      1.575469000000000E+02
4924000000.000000      3.800659000000000E-01      2.234473000000000E+01      2.370148000000000E-01      1.569766000000000E+02
4925000000.000000      3.798218000000000E-01      2.202343000000000E+01      2.333755000000000E-01      1.568984000000000E+02
4926000000.000000      3.792419000000000E-01      2.204199000000000E+01      2.293854000000000E-01      1.567109000000000E+02
4927000000.000000      3.800659000000000E-01      2.173340000000000E+01      2.243500000000000E-01      1.565078000000000E+02
4928000000.000000      3.793945000000000E-01      2.150097000000000E+01      2.209854000000000E-01      1.563516000000000E+02
4929000000.000000      3.784790000000000E-01      2.122265000000000E+01      2.170258000000000E-01      1.563672000000000E+02
4930000000.000000      3.780823000000000E-01      2.118652000000000E+01      2.128296000000000E-01      1.561328000000000E+02
4931000000.000000      3.776855000000000E-01      2.090820000000000E+01      2.095184000000000E-01      1.560000000000000E+02
4932000000.000000      3.775635000000000E-01      2.083203000000000E+01      2.049866000000000E-01      1.560625000000000E+02
4933000000.000000      3.771362000000000E-01      2.070508000000000E+01      2.002716000000000E-01      1.560859000000000E+02
4934000000.000000      3.778229000000000E-01      2.050000000000000E+01      1.964111000000000E-01      1.560625000000000E+02
4935000000.000000      3.787994000000000E-01      2.036914000000000E+01      1.929703000000000E-01      1.562109000000000E+02
4936000000.000000      3.767395000000000E-01      2.015234000000000E+01      1.890411000000000E-01      1.563125000000000E+02
4937000000.000000      3.767853000000000E-01      1.982031000000000E+01      1.844330000000000E-01      1.563750000000000E+02
4938000000.000000      3.769226000000000E-01      1.978027000000000E+01      1.809387000000000E-01      1.565391000000000E+02
4939000000.000000      3.760986000000000E-01      1.971582000000000E+01      1.765518000000000E-01      1.569062000000000E+02
4940000000.000000      3.766785000000000E-01      1.962109000000000E+01      1.727142000000000E-01      1.569844000000000E+02
4941000000.000000      3.762207000000000E-01      1.920215000000000E+01      1.688843000000000E-01      1.575469000000000E+02
4942000000.000000      3.744812000000000E-01      1.914746000000000E+01      1.653519000000000E-01      1.578672000000000E+02
4943000000.000000      3.748322000000000E-01      1.897558000000000E+01      1.607666000000000E-01      1.584297000000000E+02
4944000000.000000      3.742065000000000E-01      1.870801000000000E+01      1.576920000000000E-01      1.588984000000000E+02
4945000000.000000      3.741455000000000E-01      1.856641000000000E+01      1.535568000000000E-01      1.593984000000000E+02
4946000000.000000      3.732910000000000E-01      1.840137000000000E+01      1.502457000000000E-01      1.602266000000000E+02
4947000000.000000      3.740082000000000E-01      1.819726000000000E+01      1.467514000000000E-01      1.610000000000000E+02
4948000000.000000      3.738251000000000E-01      1.805176000000000E+01      1.434174000000000E-01      1.618203000000000E+02
4949000000.000000      3.720703000000000E-01      1.786328000000000E+01      1.405640000000000E-01      1.627734000000000E+02
4950000000.000000      3.721619000000000E-01      1.780469000000000E+01      1.372070000000000E-01      1.638359000000000E+02
4951000000.000000      3.723907000000000E-01      1.754492000000000E+01      1.341400000000000E-01      1.647969000000000E+02
4952000000.000000      3.728027000000000E-01      1.728808000000000E+01      1.313705000000000E-01      1.659531000000000E+02
4953000000.000000      3.712311000000000E-01      1.727441000000000E+01      1.284943000000000E-01      1.671719000000000E+02
4954000000.000000      3.722229000000000E-01      1.711035000000000E+01      1.262512000000000E-01      1.684531000000000E+02
