! Network Analyzer HP8722D
! Hewlett-Packard
! Data name: Linha & Wilkinson
! Saver's name: Rodrigo Anjos
! Comments: Teste da utilização de aquisição
continua pelo VNA HP8722D
! Time and date: 23/5/2025 12:44
!              Frequency                     S11                                                   S21                                                   S12                                                   S22
# HZ  S  MA R 50
4800000000.000000      2.889862000000000E-01      3.954492000000000E+01      4.832153000000000E-01     -1.296797000000000E+02
4801000000.000000      2.901459000000000E-01      3.982812000000000E+01      4.841614000000000E-01     -1.302266000000000E+02
4802000000.000000      2.915344000000000E-01      3.996875000000000E+01      4.867401000000000E-01     -1.308828000000000E+02
4803000000.000000      2.920990000000000E-01      4.018945000000000E+01      4.879608000000000E-01     -1.316015000000000E+02
4804000000.000000      2.936249000000000E-01      4.041992000000000E+01      4.898224000000000E-01     -1.324844000000000E+02
4805000000.000000      2.960358000000000E-01      4.048828000000000E+01      4.909973000000000E-01     -1.332344000000000E+02
4806000000.000000      2.958832000000000E-01      4.064649000000000E+01      4.930420000000000E-01     -1.338438000000000E+02
4807000000.000000      2.973175000000000E-01      4.094140000000000E+01      4.927673000000000E-01     -1.345859000000000E+02
4808000000.000000      2.982330000000000E-01      4.095703000000000E+01      4.961853000000000E-01     -1.352734000000000E+02
4809000000.000000      2.998962000000000E-01      4.135351000000000E+01      4.964752000000000E-01     -1.361016000000000E+02
4810000000.000000      3.014374000000000E-01      4.146874000000000E+01      4.987793000000000E-01     -1.367344000000000E+02
4811000000.000000      3.032990000000000E-01      4.151563000000000E+01      4.978180000000000E-01     -1.376406000000000E+02
4812000000.000000      3.054047000000000E-01      4.175586000000000E+01      4.994507000000000E-01     -1.383125000000000E+02
4813000000.000000      3.065033000000000E-01      4.188086000000000E+01      5.003662000000000E-01     -1.390703000000000E+02
4814000000.000000      3.081207000000000E-01      4.184375000000000E+01      5.031433000000000E-01     -1.395781000000000E+02
4815000000.000000      3.095551000000000E-01      4.198242000000000E+01      5.013123000000000E-01     -1.405078000000000E+02
4816000000.000000      3.118134000000000E-01      4.204687000000000E+01      5.022888000000000E-01     -1.411719000000000E+02
4817000000.000000      3.127289000000000E-01      4.220899000000000E+01      5.042114000000000E-01     -1.419922000000000E+02
4818000000.000000      3.145752000000000E-01      4.222265000000000E+01      5.026245000000000E-01     -1.425469000000000E+02
4819000000.000000      3.171692000000000E-01      4.221875000000000E+01      5.037231000000000E-01     -1.434531000000000E+02
4820000000.000000      3.178711000000000E-01      4.229688000000000E+01      5.036316000000000E-01     -1.441797000000000E+02
4821000000.000000      3.201599000000000E-01      4.234179000000000E+01      5.044861000000000E-01     -1.449141000000000E+02
4822000000.000000      3.215027000000000E-01      4.220899000000000E+01      5.022583000000000E-01     -1.456328000000000E+02
4823000000.000000      3.238831000000000E-01      4.220117000000000E+01      5.040283000000000E-01     -1.463906000000000E+02
4824000000.000000      3.255310000000000E-01      4.228906000000000E+01      5.046387000000000E-01     -1.470391000000000E+02
4825000000.000000      3.271942000000000E-01      4.222070000000000E+01      5.019836000000000E-01     -1.477187000000000E+02
4826000000.000000      3.284607000000000E-01      4.215625000000000E+01      5.036926000000000E-01     -1.485469000000000E+02
4827000000.000000      3.308563000000000E-01      4.215234000000000E+01      5.030518000000000E-01     -1.492891000000000E+02
4828000000.000000      3.331146000000000E-01      4.213281000000000E+01      5.022583000000000E-01     -1.498437000000000E+02
4829000000.000000      3.343811000000000E-01      4.214648000000000E+01      5.020142000000000E-01     -1.507500000000000E+02
4830000000.000000      3.358612000000000E-01      4.192773000000000E+01      5.008850000000000E-01     -1.514219000000000E+02
4831000000.000000      3.376160000000000E-01      4.190234000000000E+01      5.013733000000000E-01     -1.521484000000000E+02
4832000000.000000      3.398438000000000E-01      4.188281000000000E+01      4.994202000000000E-01     -1.528828000000000E+02
4833000000.000000      3.413086000000000E-01      4.171875000000000E+01      4.996033000000000E-01     -1.533984000000000E+02
4834000000.000000      3.428497000000000E-01      4.164648000000000E+01      4.991913000000000E-01     -1.543984000000000E+02
4835000000.000000      3.447266000000000E-01      4.143164000000000E+01      4.975739000000000E-01     -1.550703000000000E+02
4836000000.000000      3.468933000000000E-01      4.139648000000000E+01      4.963531000000000E-01     -1.556641000000000E+02
4837000000.000000      3.485870000000000E-01      4.133985000000000E+01      4.961853000000000E-01     -1.567266000000000E+02
4838000000.000000      3.495026000000000E-01      4.114648000000000E+01      4.951477000000000E-01     -1.570469000000000E+02
4839000000.000000      3.529358000000000E-01      4.116015000000000E+01      4.939423000000000E-01     -1.579219000000000E+02
4840000000.000000      3.533325000000000E-01      4.085938000000000E+01      4.924622000000000E-01     -1.585469000000000E+02
4841000000.000000      3.549652000000000E-01      4.080859000000000E+01      4.924774000000000E-01     -1.593750000000000E+02
4842000000.000000      3.566589000000000E-01      4.054296000000000E+01      4.897919000000000E-01     -1.597265000000000E+02
4843000000.000000      3.587952000000000E-01      4.022070000000000E+01      4.891663000000000E-01     -1.606953000000000E+02
4844000000.000000      3.596497000000000E-01      4.009766000000000E+01      4.873199000000000E-01     -1.615234000000000E+02
4845000000.000000      3.612823000000000E-01      4.002343000000000E+01      4.856873000000000E-01     -1.621406000000000E+02
4846000000.000000      3.636017000000000E-01      3.973828000000000E+01      4.854584000000000E-01     -1.627109000000000E+02
4847000000.000000      3.645935000000000E-01      3.974414000000000E+01      4.827423000000000E-01     -1.634453000000000E+02
4848000000.000000      3.657379000000000E-01      3.934179000000000E+01      4.793243000000000E-01     -1.641719000000000E+02
4849000000.000000      3.678741000000000E-01      3.907617000000000E+01      4.783325000000000E-01     -1.650547000000000E+02
4850000000.000000      3.684387000000000E-01      3.894922000000000E+01      4.762878000000000E-01     -1.656719000000000E+02
4851000000.000000      3.704529000000000E-01      3.885547000000000E+01      4.750671000000000E-01     -1.664531000000000E+02
4852000000.000000      3.713684000000000E-01      3.852734000000000E+01      4.736328000000000E-01     -1.669141000000000E+02
4853000000.000000      3.738098000000000E-01      3.834179000000000E+01      4.694977000000000E-01     -1.676719000000000E+02
4854000000.000000      3.743134000000000E-01      3.803320000000000E+01      4.680176000000000E-01     -1.685313000000000E+02
4855000000.000000      3.753815000000000E-01      3.789258000000000E+01      4.666138000000000E-01     -1.692188000000000E+02
4856000000.000000      3.760681000000000E-01      3.763867000000000E+01      4.648895000000000E-01     -1.698359000000000E+02
4857000000.000000      3.780823000000000E-01      3.749804000000000E+01      4.628143000000000E-01     -1.705312000000000E+02
4858000000.000000      3.782654000000000E-01      3.718554000000000E+01      4.597931000000000E-01     -1.712578000000000E+02
4859000000.000000      3.794250000000000E-01      3.694921000000000E+01      4.572296000000000E-01     -1.719844000000000E+02
4860000000.000000      3.798065000000000E-01      3.677929000000000E+01      4.528351000000000E-01     -1.725391000000000E+02
4861000000.000000      3.806152000000000E-01      3.652734000000000E+01      4.502106000000000E-01     -1.734766000000000E+02
4862000000.000000      3.822632000000000E-01      3.619922000000000E+01      4.496155000000000E-01     -1.740625000000000E+02
4863000000.000000      3.832703000000000E-01      3.604883000000000E+01      4.466248000000000E-01     -1.746250000000000E+02
4864000000.000000      3.841858000000000E-01      3.563477000000000E+01      4.427643000000000E-01     -1.752891000000000E+02
4865000000.000000      3.848572000000000E-01      3.536718000000000E+01      4.405823000000000E-01     -1.759609000000000E+02
4866000000.000000      3.859406000000000E-01      3.507617000000000E+01      4.357300000000000E-01     -1.766953000000000E+02
4867000000.000000      3.860779000000000E-01      3.484570000000000E+01      4.350891000000000E-01     -1.775000000000000E+02
4868000000.000000      3.870392000000000E-01      3.457226000000000E+01      4.307251000000000E-01     -1.780234000000000E+02
4869000000.000000      3.881073000000000E-01      3.432226000000000E+01      4.273834000000000E-01     -1.786484000000000E+02
4870000000.000000      3.887787000000000E-01      3.408398000000000E+01      4.238586000000000E-01     -1.790547000000000E+02
4871000000.000000      3.891754000000000E-01      3.385547000000000E+01      4.210510000000000E-01     -1.799609000000000E+02
4872000000.000000      3.905945000000000E-01      3.365234000000000E+01      4.173126000000000E-01      1.795781000000000E+02
4873000000.000000      3.907013000000000E-01      3.336914000000000E+01      4.132233000000000E-01      1.790234000000000E+02
4874000000.000000      3.909912000000000E-01      3.305664000000000E+01      4.105225000000000E-01      1.783594000000000E+02
4875000000.000000      3.909149000000000E-01      3.279101000000000E+01      4.080811000000000E-01      1.778906000000000E+02
4876000000.000000      3.913269000000000E-01      3.267969000000000E+01      4.047089000000000E-01      1.772734000000000E+02
4877000000.000000      3.928833000000000E-01      3.215820000000000E+01      4.014893000000000E-01      1.764688000000000E+02
4878000000.000000      3.923340000000000E-01      3.202148000000000E+01      3.974915000000000E-01      1.760391000000000E+02
4879000000.000000      3.941803000000000E-01      3.183203000000000E+01      3.935547000000000E-01      1.756328000000000E+02
4880000000.000000      3.949890000000000E-01      3.143261000000000E+01      3.912048000000000E-01      1.751484000000000E+02
4881000000.000000      3.938904000000000E-01      3.126562000000000E+01      3.870087000000000E-01      1.744688000000000E+02
4882000000.000000      3.948059000000000E-01      3.108984000000000E+01      3.829803000000000E-01      1.738750000000000E+02
4883000000.000000      3.938141000000000E-01      3.073828000000000E+01      3.792114000000000E-01      1.732812000000000E+02
4884000000.000000      3.949127000000000E-01      3.064355000000000E+01      3.760529000000000E-01      1.726953000000000E+02
4885000000.000000      3.953857000000000E-01      3.032031000000000E+01      3.721466000000000E-01      1.726641000000000E+02
4886000000.000000      3.958740000000000E-01      3.012695000000000E+01      3.684692000000000E-01      1.719844000000000E+02
4887000000.000000      3.953552000000000E-01      2.977539000000000E+01      3.659821000000000E-01      1.714375000000000E+02
4888000000.000000      3.946838000000000E-01      2.947949000000000E+01      3.622437000000000E-01      1.708203000000000E+02
4889000000.000000      3.950195000000000E-01      2.929590000000000E+01      3.579254000000000E-01      1.707187000000000E+02
4890000000.000000      3.948059000000000E-01      2.902832000000000E+01      3.538055000000000E-01      1.697344000000000E+02
4891000000.000000      3.957367000000000E-01      2.892773000000000E+01      3.499908000000000E-01      1.695000000000000E+02
4892000000.000000      3.945770000000000E-01      2.860058000000000E+01      3.481903000000000E-01      1.691719000000000E+02
4893000000.000000      3.959351000000000E-01      2.841797000000000E+01      3.437195000000000E-01      1.686406000000000E+02
4894000000.000000      3.952942000000000E-01      2.819726000000000E+01      3.412018000000000E-01      1.681250000000000E+02
4895000000.000000      3.961487000000000E-01      2.785645000000000E+01      3.380585000000000E-01      1.679375000000000E+02
4896000000.000000      3.954315000000000E-01      2.766699000000000E+01      3.326416000000000E-01      1.673516000000000E+02
4897000000.000000      3.954315000000000E-01      2.740234000000000E+01      3.294678000000000E-01      1.669531000000000E+02
4898000000.000000      3.949890000000000E-01      2.729687000000000E+01      3.268738000000000E-01      1.664453000000000E+02
4899000000.000000      3.943481000000000E-01      2.700488000000000E+01      3.243408000000000E-01      1.660078000000000E+02
4900000000.000000      3.943787000000000E-01      2.674414000000000E+01      3.199463000000000E-01      1.658594000000000E+02
4901000000.000000      3.945007000000000E-01      2.650293000000000E+01      3.168030000000000E-01      1.653203000000000E+02
4902000000.000000      3.944702000000000E-01      2.623242000000000E+01      3.130341000000000E-01      1.650156000000000E+02
4903000000.000000      3.942261000000000E-01      2.610156000000000E+01      3.094025000000000E-01      1.646719000000000E+02
4904000000.000000      3.939819000000000E-01      2.588379000000000E+01      3.060608000000000E-01      1.642266000000000E+02
4905000000.000000      3.932800000000000E-01      2.578418000000000E+01      3.035889000000000E-01      1.637500000000000E+02
4906000000.000000      3.933716000000000E-01      2.558496000000000E+01      2.997894000000000E-01      1.634844000000000E+02
4907000000.000000      3.932495000000000E-01      2.526953000000000E+01      2.964172000000000E-01      1.630078000000000E+02
4908000000.000000      3.932037000000000E-01      2.521289000000000E+01      2.927399000000000E-01      1.627109000000000E+02
4909000000.000000      3.920288000000000E-01      2.497461000000000E+01      2.892609000000000E-01      1.623906000000000E+02
4910000000.000000      3.917847000000000E-01      2.470508000000000E+01      2.860565000000000E-01      1.618984000000000E+02
4911000000.000000      3.920593000000000E-01      2.450488000000000E+01      2.829590000000000E-01      1.616641000000000E+02
4912000000.000000      3.907318000000000E-01      2.438769000000000E+01      2.793884000000000E-01      1.610391000000000E+02
4913000000.000000      3.918762000000000E-01      2.417383000000000E+01      2.754364000000000E-01      1.607656000000000E+02
4914000000.000000      3.915253000000000E-01      2.376172000000000E+01      2.718048000000000E-01      1.605391000000000E+02
4915000000.000000      3.912659000000000E-01      2.384277000000000E+01      2.679291000000000E-01      1.600312000000000E+02
4916000000.000000      3.910217000000000E-01      2.367188000000000E+01      2.649994000000000E-01      1.596797000000000E+02
4917000000.000000      3.907928000000000E-01      2.343750000000000E+01      2.609253000000000E-01      1.594531000000000E+02
4918000000.000000      3.900299000000000E-01      2.326758000000000E+01      2.566528000000000E-01      1.590703000000000E+02
4919000000.000000      3.887787000000000E-01      2.313672000000000E+01      2.543335000000000E-01      1.590078000000000E+02
4920000000.000000      3.899994000000000E-01      2.281152000000000E+01      2.493134000000000E-01      1.583906000000000E+02
4921000000.000000      3.894043000000000E-01      2.275586000000000E+01      2.460480000000000E-01      1.583281000000000E+02
4922000000.000000      3.891296000000000E-01      2.252930000000000E+01      2.414322000000000E-01      1.582031000000000E+02
4923000000.000000      3.887482000000000E-01      2.250000000000000E+01      2.370605000000000E-01      1.578438000000000E+02
4924000000.000000      3.888092000000000E-01      2.220019000000000E+01      2.336578000000000E-01      1.575391000000000E+02
4925000000.000000      3.889313000000000E-01      2.202148000000000E+01      2.297363000000000E-01      1.573203000000000E+02
4926000000.000000      3.877106000000000E-01      2.197363000000000E+01      2.259598000000000E-01      1.571563000000000E+02
4927000000.000000      3.887787000000000E-01      2.163476000000000E+01      2.218399000000000E-01      1.568984000000000E+02
4928000000.000000      3.878174000000000E-01      2.150097000000000E+01      2.182388000000000E-01      1.567578000000000E+02
4929000000.000000      3.874207000000000E-01      2.139843000000000E+01      2.136383000000000E-01      1.567734000000000E+02
4930000000.000000      3.866577000000000E-01      2.107226000000000E+01      2.101669000000000E-01      1.564687000000000E+02
4931000000.000000      3.870087000000000E-01      2.095605000000000E+01      2.064285000000000E-01      1.564609000000000E+02
4932000000.000000      3.862305000000000E-01      2.079102000000000E+01      2.022705000000000E-01      1.565078000000000E+02
4933000000.000000      3.862610000000000E-01      2.061133000000000E+01      1.975327000000000E-01      1.565859000000000E+02
4934000000.000000      3.863525000000000E-01      2.037890000000000E+01      1.937714000000000E-01      1.565859000000000E+02
4935000000.000000      3.869019000000000E-01      2.031054000000000E+01      1.903687000000000E-01      1.567734000000000E+02
4936000000.000000      3.857422000000000E-01      2.009375000000000E+01      1.858902000000000E-01      1.568594000000000E+02
4937000000.000000      3.862762000000000E-01      1.992969000000000E+01      1.817551000000000E-01      1.568125000000000E+02
4938000000.000000      3.850555000000000E-01      1.983789000000000E+01      1.780624000000000E-01      1.571875000000000E+02
4939000000.000000      3.849335000000000E-01      1.964062000000000E+01      1.739120000000000E-01      1.575859000000000E+02
4940000000.000000      3.845520000000000E-01      1.946289000000000E+01      1.695404000000000E-01      1.577188000000000E+02
4941000000.000000      3.844299000000000E-01      1.916797000000000E+01      1.666031000000000E-01      1.581875000000000E+02
4942000000.000000      3.831787000000000E-01      1.915234000000000E+01      1.624527000000000E-01      1.583906000000000E+02
4943000000.000000      3.833313000000000E-01      1.889746000000000E+01      1.591949000000000E-01      1.589766000000000E+02
4944000000.000000      3.831024000000000E-01      1.874512000000000E+01      1.555252000000000E-01      1.593516000000000E+02
4945000000.000000      3.836060000000000E-01      1.852637000000000E+01      1.516876000000000E-01      1.601641000000000E+02
4946000000.000000      3.835449000000000E-01      1.849902000000000E+01      1.477966000000000E-01      1.607500000000000E+02
4947000000.000000      3.836975000000000E-01      1.822949000000000E+01      1.445236000000000E-01      1.615469000000000E+02
4948000000.000000      3.830719000000000E-01      1.804492000000000E+01      1.415939000000000E-01      1.623828000000000E+02
4949000000.000000      3.816681000000000E-01      1.787012000000000E+01      1.383514000000000E-01      1.634453000000000E+02
4950000000.000000      3.819733000000000E-01      1.781934000000000E+01      1.353302000000000E-01      1.643437000000000E+02
4951000000.000000      3.812103000000000E-01      1.752441000000000E+01      1.326370000000000E-01      1.653906000000000E+02
4952000000.000000      3.815765000000000E-01      1.747363000000000E+01      1.292725000000000E-01      1.665859000000000E+02
4953000000.000000      3.808746000000000E-01      1.727051000000000E+01      1.271210000000000E-01      1.680234000000000E+02
4954000000.000000      3.808899000000000E-01      1.714746000000000E+01      1.243172000000000E-01      1.692500000000000E+02
