! Network Analyzer HP8722D
! Hewlett-Packard
! Data name: Linha & Wilkinson
! Saver's name: Rodrigo Anjos
! Comments: Teste da utilização de aquisição
continua pelo VNA HP8722D
! Time and date: 23/5/2025 09:49
!              Frequency                     S11                                                   S21                                                   S12                                                   S22
# HZ  S  MA R 50
4800000000.000000      3.125610000000000E-01      3.731640000000000E+01      4.698029000000000E-01     -1.282500000000000E+02
4801000000.000000      3.131866000000000E-01      3.763476000000000E+01      4.711151000000000E-01     -1.290234000000000E+02
4802000000.000000      3.144226000000000E-01      3.776367000000000E+01      4.737396000000000E-01     -1.294688000000000E+02
4803000000.000000      3.149261000000000E-01      3.791211000000000E+01      4.771271000000000E-01     -1.301719000000000E+02
4804000000.000000      3.160400000000000E-01      3.816406000000000E+01      4.772034000000000E-01     -1.310859000000000E+02
4805000000.000000      3.179626000000000E-01      3.818164000000000E+01      4.794159000000000E-01     -1.318672000000000E+02
4806000000.000000      3.184662000000000E-01      3.839258000000000E+01      4.805603000000000E-01     -1.326172000000000E+02
4807000000.000000      3.193359000000000E-01      3.858398000000000E+01      4.809723000000000E-01     -1.333750000000000E+02
4808000000.000000      3.203583000000000E-01      3.871679000000000E+01      4.837494000000000E-01     -1.338125000000000E+02
4809000000.000000      3.216553000000000E-01      3.899609000000000E+01      4.839020000000000E-01     -1.348984000000000E+02
4810000000.000000      3.230591000000000E-01      3.907227000000000E+01      4.853210000000000E-01     -1.355156000000000E+02
4811000000.000000      3.245850000000000E-01      3.930078000000000E+01      4.864044000000000E-01     -1.363516000000000E+02
4812000000.000000      3.267975000000000E-01      3.942773000000000E+01      4.866180000000000E-01     -1.369375000000000E+02
4813000000.000000      3.276825000000000E-01      3.945313000000000E+01      4.881744000000000E-01     -1.377891000000000E+02
4814000000.000000      3.284607000000000E-01      3.951367000000000E+01      4.886932000000000E-01     -1.384297000000000E+02
4815000000.000000      3.301697000000000E-01      3.964453000000000E+01      4.890747000000000E-01     -1.391641000000000E+02
4816000000.000000      3.327789000000000E-01      3.973437000000000E+01      4.901581000000000E-01     -1.397344000000000E+02
4817000000.000000      3.337860000000000E-01      3.979297000000000E+01      4.900818000000000E-01     -1.406016000000000E+02
4818000000.000000      3.349609000000000E-01      3.982422000000000E+01      4.897156000000000E-01     -1.413437000000000E+02
4819000000.000000      3.370514000000000E-01      3.995508000000000E+01      4.908752000000000E-01     -1.420703000000000E+02
4820000000.000000      3.376465000000000E-01      4.002734000000000E+01      4.904022000000000E-01     -1.427500000000000E+02
4821000000.000000      3.401337000000000E-01      4.005664000000000E+01      4.908447000000000E-01     -1.436016000000000E+02
4822000000.000000      3.409882000000000E-01      3.992383000000000E+01      4.885254000000000E-01     -1.441875000000000E+02
4823000000.000000      3.428345000000000E-01      3.996484000000000E+01      4.911041000000000E-01     -1.449844000000000E+02
4824000000.000000      3.445435000000000E-01      4.006836000000000E+01      4.900208000000000E-01     -1.457578000000000E+02
4825000000.000000      3.465881000000000E-01      4.004102000000000E+01      4.900055000000000E-01     -1.465391000000000E+02
4826000000.000000      3.476410000000000E-01      3.992383000000000E+01      4.904022000000000E-01     -1.473516000000000E+02
4827000000.000000      3.504486000000000E-01      4.001367000000000E+01      4.908142000000000E-01     -1.478516000000000E+02
4828000000.000000      3.520966000000000E-01      4.002343000000000E+01      4.901581000000000E-01     -1.486797000000000E+02
4829000000.000000      3.533325000000000E-01      4.007226000000000E+01      4.882202000000000E-01     -1.492578000000000E+02
4830000000.000000      3.552246000000000E-01      3.982226000000000E+01      4.887848000000000E-01     -1.499766000000000E+02
4831000000.000000      3.564911000000000E-01      3.977539000000000E+01      4.883728000000000E-01     -1.508828000000000E+02
4832000000.000000      3.584442000000000E-01      3.982812000000000E+01      4.874268000000000E-01     -1.515625000000000E+02
4833000000.000000      3.596954000000000E-01      3.960546000000000E+01      4.867554000000000E-01     -1.521875000000000E+02
4834000000.000000      3.609619000000000E-01      3.954492000000000E+01      4.866638000000000E-01     -1.527969000000000E+02
4835000000.000000      3.634949000000000E-01      3.940625000000000E+01      4.850311000000000E-01     -1.536953000000000E+02
4836000000.000000      3.651886000000000E-01      3.948828000000000E+01      4.845734000000000E-01     -1.543125000000000E+02
4837000000.000000      3.661652000000000E-01      3.937500000000000E+01      4.820709000000000E-01     -1.553828000000000E+02
4838000000.000000      3.674927000000000E-01      3.923437000000000E+01      4.827576000000000E-01     -1.556562000000000E+02
4839000000.000000      3.710480000000000E-01      3.915039000000000E+01      4.808655000000000E-01     -1.564297000000000E+02
4840000000.000000      3.720245000000000E-01      3.893164000000000E+01      4.798584000000000E-01     -1.572422000000000E+02
4841000000.000000      3.733215000000000E-01      3.891602000000000E+01      4.785614000000000E-01     -1.579609000000000E+02
4842000000.000000      3.742065000000000E-01      3.867578000000000E+01      4.782410000000000E-01     -1.586172000000000E+02
4843000000.000000      3.771210000000000E-01      3.845703000000000E+01      4.767456000000000E-01     -1.594063000000000E+02
4844000000.000000      3.781891000000000E-01      3.829492000000000E+01      4.742737000000000E-01     -1.601094000000000E+02
4845000000.000000      3.796692000000000E-01      3.819336000000000E+01      4.733429000000000E-01     -1.608359000000000E+02
4846000000.000000      3.818665000000000E-01      3.809765000000000E+01      4.710388000000000E-01     -1.614141000000000E+02
4847000000.000000      3.830109000000000E-01      3.797070000000000E+01      4.700012000000000E-01     -1.620781000000000E+02
4848000000.000000      3.838196000000000E-01      3.774805000000000E+01      4.662170000000000E-01     -1.629609000000000E+02
4849000000.000000      3.850708000000000E-01      3.740820000000000E+01      4.668579000000000E-01     -1.637187000000000E+02
4850000000.000000      3.863983000000000E-01      3.734375000000000E+01      4.648132000000000E-01     -1.642969000000000E+02
4851000000.000000      3.882294000000000E-01      3.726953000000000E+01      4.623260000000000E-01     -1.651016000000000E+02
4852000000.000000      3.893280000000000E-01      3.705664000000000E+01      4.600525000000000E-01     -1.657578000000000E+02
4853000000.000000      3.904419000000000E-01      3.674805000000000E+01      4.586487000000000E-01     -1.665390000000000E+02
4854000000.000000      3.915710000000000E-01      3.653906000000000E+01      4.565277000000000E-01     -1.673984000000000E+02
4855000000.000000      3.928680000000000E-01      3.647851000000000E+01      4.537811000000000E-01     -1.678047000000000E+02
4856000000.000000      3.944397000000000E-01      3.623828000000000E+01      4.516449000000000E-01     -1.686328000000000E+02
4857000000.000000      3.956909000000000E-01      3.604883000000000E+01      4.506836000000000E-01     -1.694062000000000E+02
4858000000.000000      3.963165000000000E-01      3.574804000000000E+01      4.468689000000000E-01     -1.699609000000000E+02
4859000000.000000      3.972015000000000E-01      3.547070000000000E+01      4.453125000000000E-01     -1.707109000000000E+02
4860000000.000000      3.984070000000000E-01      3.536718000000000E+01      4.424133000000000E-01     -1.713906000000000E+02
4861000000.000000      3.992004000000000E-01      3.507813000000000E+01      4.396973000000000E-01     -1.720937000000000E+02
4862000000.000000      3.996735000000000E-01      3.469336000000000E+01      4.373932000000000E-01     -1.727422000000000E+02
4863000000.000000      4.014587000000000E-01      3.466992000000000E+01      4.338837000000000E-01     -1.734609000000000E+02
4864000000.000000      4.026031000000000E-01      3.438477000000000E+01      4.315186000000000E-01     -1.739766000000000E+02
4865000000.000000      4.028778000000000E-01      3.413281000000000E+01      4.284973000000000E-01     -1.746094000000000E+02
4866000000.000000      4.043732000000000E-01      3.397851000000000E+01      4.259033000000000E-01     -1.754922000000000E+02
4867000000.000000      4.041290000000000E-01      3.371484000000000E+01      4.221497000000000E-01     -1.760703000000000E+02
4868000000.000000      4.053192000000000E-01      3.343164000000000E+01      4.201965000000000E-01     -1.767344000000000E+02
4869000000.000000      4.058685000000000E-01      3.326757000000000E+01      4.166565000000000E-01     -1.774922000000000E+02
4870000000.000000      4.067993000000000E-01      3.304296000000000E+01      4.138641000000000E-01     -1.779297000000000E+02
4871000000.000000      4.076385000000000E-01      3.266211000000000E+01      4.095764000000000E-01     -1.785781000000000E+02
4872000000.000000      4.090576000000000E-01      3.254883000000000E+01      4.073486000000000E-01     -1.791875000000000E+02
4873000000.000000      4.087067000000000E-01      3.238086000000000E+01      4.022369000000000E-01     -1.799687000000000E+02
4874000000.000000      4.089661000000000E-01      3.209570000000000E+01      4.000854000000000E-01      1.793828000000000E+02
4875000000.000000      4.100037000000000E-01      3.171387000000000E+01      3.958435000000000E-01      1.789687000000000E+02
4876000000.000000      4.105072000000000E-01      3.168164000000000E+01      3.931885000000000E-01      1.783594000000000E+02
4877000000.000000      4.117584000000000E-01      3.125000000000000E+01      3.906403000000000E-01      1.775078000000000E+02
4878000000.000000      4.106903000000000E-01      3.106152000000000E+01      3.868103000000000E-01      1.771563000000000E+02
4879000000.000000      4.127045000000000E-01      3.085058000000000E+01      3.820953000000000E-01      1.768125000000000E+02
4880000000.000000      4.129486000000000E-01      3.057714000000000E+01      3.811493000000000E-01      1.762734000000000E+02
4881000000.000000      4.127808000000000E-01      3.034472000000000E+01      3.769226000000000E-01      1.756250000000000E+02
4882000000.000000      4.130554000000000E-01      3.032910000000000E+01      3.727875000000000E-01      1.751172000000000E+02
4883000000.000000      4.133148000000000E-01      2.992676000000000E+01      3.681488000000000E-01      1.743828000000000E+02
4884000000.000000      4.144745000000000E-01      2.973633000000000E+01      3.639832000000000E-01      1.739141000000000E+02
4885000000.000000      4.139099000000000E-01      2.939355000000000E+01      3.616028000000000E-01      1.734609000000000E+02
4886000000.000000      4.144287000000000E-01      2.935742000000000E+01      3.602600000000000E-01      1.731406000000000E+02
4887000000.000000      4.137573000000000E-01      2.905566000000000E+01      3.549957000000000E-01      1.726250000000000E+02
4888000000.000000      4.150848000000000E-01      2.876758000000000E+01      3.536987000000000E-01      1.720469000000000E+02
4889000000.000000      4.144745000000000E-01      2.860254000000000E+01      3.479462000000000E-01      1.716797000000000E+02
4890000000.000000      4.143677000000000E-01      2.835351000000000E+01      3.441925000000000E-01      1.710625000000000E+02
4891000000.000000      4.141541000000000E-01      2.827929000000000E+01      3.393402000000000E-01      1.705547000000000E+02
4892000000.000000      4.135437000000000E-01      2.798047000000000E+01      3.379211000000000E-01      1.702266000000000E+02
4893000000.000000      4.152679000000000E-01      2.767285000000000E+01      3.344879000000000E-01      1.696797000000000E+02
4894000000.000000      4.143524000000000E-01      2.756738000000000E+01      3.301849000000000E-01      1.693047000000000E+02
4895000000.000000      4.160919000000000E-01      2.721582000000000E+01      3.271179000000000E-01      1.690391000000000E+02
4896000000.000000      4.139252000000000E-01      2.697461000000000E+01      3.230591000000000E-01      1.686563000000000E+02
4897000000.000000      4.149017000000000E-01      2.684082000000000E+01      3.201752000000000E-01      1.681250000000000E+02
4898000000.000000      4.148254000000000E-01      2.661133000000000E+01      3.173218000000000E-01      1.678047000000000E+02
4899000000.000000      4.147339000000000E-01      2.634863000000000E+01      3.135834000000000E-01      1.672188000000000E+02
4900000000.000000      4.139557000000000E-01      2.612402000000000E+01      3.098450000000000E-01      1.668828000000000E+02
4901000000.000000      4.143524000000000E-01      2.608203000000000E+01      3.070679000000000E-01      1.665078000000000E+02
4902000000.000000      4.137115000000000E-01      2.583105000000000E+01      3.033600000000000E-01      1.661797000000000E+02
4903000000.000000      4.145050000000000E-01      2.573925000000000E+01      2.994995000000000E-01      1.657187000000000E+02
4904000000.000000      4.144592000000000E-01      2.546191000000000E+01      2.959442000000000E-01      1.653047000000000E+02
4905000000.000000      4.133759000000000E-01      2.533300000000000E+01      2.942657000000000E-01      1.648203000000000E+02
4906000000.000000      4.133606000000000E-01      2.503027000000000E+01      2.901306000000000E-01      1.646172000000000E+02
4907000000.000000      4.135895000000000E-01      2.479883000000000E+01      2.870331000000000E-01      1.643047000000000E+02
4908000000.000000      4.132080000000000E-01      2.457226000000000E+01      2.845306000000000E-01      1.638438000000000E+02
4909000000.000000      4.131622000000000E-01      2.453711000000000E+01      2.790985000000000E-01      1.634140000000000E+02
4910000000.000000      4.125214000000000E-01      2.432324000000000E+01      2.764893000000000E-01      1.631328000000000E+02
4911000000.000000      4.140167000000000E-01      2.422461000000000E+01      2.736359000000000E-01      1.628594000000000E+02
4912000000.000000      4.114838000000000E-01      2.415430000000000E+01      2.696533000000000E-01      1.623750000000000E+02
4913000000.000000      4.125061000000000E-01      2.380859000000000E+01      2.668915000000000E-01      1.620391000000000E+02
4914000000.000000      4.119873000000000E-01      2.338672000000000E+01      2.627563000000000E-01      1.617344000000000E+02
4915000000.000000      4.120636000000000E-01      2.337695000000000E+01      2.591858000000000E-01      1.613672000000000E+02
4916000000.000000      4.113159000000000E-01      2.324512000000000E+01      2.557678000000000E-01      1.608906000000000E+02
4917000000.000000      4.114685000000000E-01      2.306641000000000E+01      2.521820000000000E-01      1.606484000000000E+02
4918000000.000000      4.112854000000000E-01      2.303125000000000E+01      2.474899000000000E-01      1.603281000000000E+02
4919000000.000000      4.110718000000000E-01      2.272070000000000E+01      2.441559000000000E-01      1.604297000000000E+02
4920000000.000000      4.107056000000000E-01      2.254395000000000E+01      2.402649000000000E-01      1.597109000000000E+02
4921000000.000000      4.100800000000000E-01      2.249707000000000E+01      2.369995000000000E-01      1.595703000000000E+02
4922000000.000000      4.101715000000000E-01      2.211524000000000E+01      2.335129000000000E-01      1.593750000000000E+02
4923000000.000000      4.101715000000000E-01      2.211524000000000E+01      2.290497000000000E-01      1.591953000000000E+02
4924000000.000000      4.098511000000000E-01      2.189258000000000E+01      2.252884000000000E-01      1.587500000000000E+02
4925000000.000000      4.089355000000000E-01      2.166308000000000E+01      2.212677000000000E-01      1.587344000000000E+02
4926000000.000000      4.090271000000000E-01      2.178711000000000E+01      2.179794000000000E-01      1.584297000000000E+02
4927000000.000000      4.095306000000000E-01      2.150097000000000E+01      2.134857000000000E-01      1.583984000000000E+02
4928000000.000000      4.091644000000000E-01      2.121387000000000E+01      2.099075000000000E-01      1.583047000000000E+02
4929000000.000000      4.091644000000000E-01      2.103516000000000E+01      2.062531000000000E-01      1.580937000000000E+02
4930000000.000000      4.093323000000000E-01      2.093359000000000E+01      2.022781000000000E-01      1.580625000000000E+02
4931000000.000000      4.085999000000000E-01      2.074414000000000E+01      1.988297000000000E-01      1.578828000000000E+02
4932000000.000000      4.074097000000000E-01      2.070313000000000E+01      1.949539000000000E-01      1.578828000000000E+02
4933000000.000000      4.076691000000000E-01      2.044629000000000E+01      1.901779000000000E-01      1.580625000000000E+02
4934000000.000000      4.080353000000000E-01      2.018945000000000E+01      1.867676000000000E-01      1.579766000000000E+02
4935000000.000000      4.086456000000000E-01      2.004004000000000E+01      1.831360000000000E-01      1.583516000000000E+02
4936000000.000000      4.073792000000000E-01      1.994922000000000E+01      1.791306000000000E-01      1.581406000000000E+02
4937000000.000000      4.065399000000000E-01      1.977734000000000E+01      1.751556000000000E-01      1.584531000000000E+02
4938000000.000000      4.060822000000000E-01      1.965918000000000E+01      1.711121000000000E-01      1.587812000000000E+02
4939000000.000000      4.065552000000000E-01      1.951269000000000E+01      1.675491000000000E-01      1.590937000000000E+02
4940000000.000000      4.062347000000000E-01      1.932324000000000E+01      1.632080000000000E-01      1.591953000000000E+02
4941000000.000000      4.059753000000000E-01      1.915234000000000E+01      1.602783000000000E-01      1.596406000000000E+02
4942000000.000000      4.057007000000000E-01      1.902637000000000E+01      1.564102000000000E-01      1.602734000000000E+02
4943000000.000000      4.066772000000000E-01      1.892383000000000E+01      1.526794000000000E-01      1.606797000000000E+02
4944000000.000000      4.046936000000000E-01      1.864648000000000E+01      1.494217000000000E-01      1.613359000000000E+02
4945000000.000000      4.047546000000000E-01      1.850098000000000E+01      1.454926000000000E-01      1.620156000000000E+02
4946000000.000000      4.053192000000000E-01      1.837012000000000E+01      1.427536000000000E-01      1.627266000000000E+02
4947000000.000000      4.054718000000000E-01      1.810547000000000E+01      1.396332000000000E-01      1.634140000000000E+02
4948000000.000000      4.045563000000000E-01      1.802441000000000E+01      1.357651000000000E-01      1.641094000000000E+02
4949000000.000000      4.036713000000000E-01      1.791992000000000E+01      1.332016000000000E-01      1.654766000000000E+02
4950000000.000000      4.034424000000000E-01      1.783301000000000E+01      1.305542000000000E-01      1.663672000000000E+02
4951000000.000000      4.040985000000000E-01      1.749902000000000E+01      1.277618000000000E-01      1.674531000000000E+02
4952000000.000000      4.027863000000000E-01      1.745410000000000E+01      1.248627000000000E-01      1.686094000000000E+02
4953000000.000000      4.025421000000000E-01      1.726465000000000E+01      1.225052000000000E-01      1.701719000000000E+02
4954000000.000000      4.025421000000000E-01      1.716406000000000E+01      1.202736000000000E-01      1.714922000000000E+02
