! Network Analyzer HP8722D
! Hewlett-Packard
! Data name: Linha & Wilkinson
! Saver's name: Rodrigo Anjos
! Comments: Teste da utilização de aquisição
continua pelo VNA HP8722D
! Time and date: 23/5/2025 11:45
!              Frequency                     S11                                                   S21                                                   S12                                                   S22
# HZ  S  MA R 50
4800000000.000000      3.098297000000000E-01      3.752344000000000E+01      4.734344000000000E-01     -1.279961000000000E+02
4801000000.000000      3.107452000000000E-01      3.779687000000000E+01      4.725952000000000E-01     -1.285625000000000E+02
4802000000.000000      3.112640000000000E-01      3.793554000000000E+01      4.744873000000000E-01     -1.293516000000000E+02
4803000000.000000      3.122406000000000E-01      3.809179000000000E+01      4.794006000000000E-01     -1.302109000000000E+02
4804000000.000000      3.131256000000000E-01      3.841601000000000E+01      4.790192000000000E-01     -1.306953000000000E+02
4805000000.000000      3.152618000000000E-01      3.837500000000000E+01      4.805603000000000E-01     -1.314922000000000E+02
4806000000.000000      3.158569000000000E-01      3.867578000000000E+01      4.824677000000000E-01     -1.324531000000000E+02
4807000000.000000      3.167267000000000E-01      3.877734000000000E+01      4.822235000000000E-01     -1.331172000000000E+02
4808000000.000000      3.173523000000000E-01      3.896679000000000E+01      4.837952000000000E-01     -1.337656000000000E+02
4809000000.000000      3.193817000000000E-01      3.927539000000000E+01      4.860535000000000E-01     -1.345547000000000E+02
4810000000.000000      3.203888000000000E-01      3.939844000000000E+01      4.861755000000000E-01     -1.353516000000000E+02
4811000000.000000      3.220062000000000E-01      3.946680000000000E+01      4.886017000000000E-01     -1.361172000000000E+02
4812000000.000000      3.242340000000000E-01      3.963281000000000E+01      4.889832000000000E-01     -1.367188000000000E+02
4813000000.000000      3.251648000000000E-01      3.981250000000000E+01      4.901276000000000E-01     -1.373437000000000E+02
4814000000.000000      3.259125000000000E-01      3.979492000000000E+01      4.905396000000000E-01     -1.382500000000000E+02
4815000000.000000      3.274689000000000E-01      3.992383000000000E+01      4.907074000000000E-01     -1.387734000000000E+02
4816000000.000000      3.298950000000000E-01      4.002734000000000E+01      4.924011000000000E-01     -1.397344000000000E+02
4817000000.000000      3.309937000000000E-01      4.016211000000000E+01      4.909973000000000E-01     -1.404141000000000E+02
4818000000.000000      3.320007000000000E-01      4.017383000000000E+01      4.927063000000000E-01     -1.410391000000000E+02
4819000000.000000      3.339996000000000E-01      4.021874000000000E+01      4.931183000000000E-01     -1.419531000000000E+02
4820000000.000000      3.350830000000000E-01      4.038281000000000E+01      4.925690000000000E-01     -1.422969000000000E+02
4821000000.000000      3.377838000000000E-01      4.030469000000000E+01      4.932556000000000E-01     -1.432422000000000E+02
4822000000.000000      3.385925000000000E-01      4.032227000000000E+01      4.917755000000000E-01     -1.440703000000000E+02
4823000000.000000      3.401489000000000E-01      4.033008000000000E+01      4.931030000000000E-01     -1.447266000000000E+02
4824000000.000000      3.421326000000000E-01      4.039648000000000E+01      4.920959000000000E-01     -1.456094000000000E+02
4825000000.000000      3.436279000000000E-01      4.039844000000000E+01      4.922028000000000E-01     -1.463672000000000E+02
4826000000.000000      3.454285000000000E-01      4.031250000000000E+01      4.923401000000000E-01     -1.470937000000000E+02
4827000000.000000      3.471527000000000E-01      4.035352000000000E+01      4.921265000000000E-01     -1.476172000000000E+02
4828000000.000000      3.496857000000000E-01      4.029492000000000E+01      4.933472000000000E-01     -1.484297000000000E+02
4829000000.000000      3.507538000000000E-01      4.035937000000000E+01      4.910278000000000E-01     -1.490859000000000E+02
4830000000.000000      3.529053000000000E-01      4.019727000000000E+01      4.904175000000000E-01     -1.499844000000000E+02
4831000000.000000      3.539429000000000E-01      4.015234000000000E+01      4.897308000000000E-01     -1.505625000000000E+02
4832000000.000000      3.558197000000000E-01      4.018164000000000E+01      4.889221000000000E-01     -1.512578000000000E+02
4833000000.000000      3.567352000000000E-01      4.005664000000000E+01      4.872284000000000E-01     -1.519766000000000E+02
4834000000.000000      3.589325000000000E-01      3.999023000000000E+01      4.886169000000000E-01     -1.527812000000000E+02
4835000000.000000      3.609924000000000E-01      3.986719000000000E+01      4.864044000000000E-01     -1.534765000000000E+02
4836000000.000000      3.631897000000000E-01      3.981640000000000E+01      4.851379000000000E-01     -1.541719000000000E+02
4837000000.000000      3.639984000000000E-01      3.978125000000000E+01      4.841309000000000E-01     -1.550937000000000E+02
4838000000.000000      3.646545000000000E-01      3.961328000000000E+01      4.848480000000000E-01     -1.555547000000000E+02
4839000000.000000      3.687134000000000E-01      3.955078000000000E+01      4.846649000000000E-01     -1.564922000000000E+02
4840000000.000000      3.690491000000000E-01      3.922656000000000E+01      4.828796000000000E-01     -1.570313000000000E+02
4841000000.000000      3.713226000000000E-01      3.934179000000000E+01      4.829407000000000E-01     -1.577500000000000E+02
4842000000.000000      3.721466000000000E-01      3.905078000000000E+01      4.802246000000000E-01     -1.583437000000000E+02
4843000000.000000      3.746185000000000E-01      3.882813000000000E+01      4.786377000000000E-01     -1.592422000000000E+02
4844000000.000000      3.755035000000000E-01      3.875000000000000E+01      4.776764000000000E-01     -1.599062000000000E+02
4845000000.000000      3.772278000000000E-01      3.869922000000000E+01      4.770355000000000E-01     -1.605234000000000E+02
4846000000.000000      3.789215000000000E-01      3.844141000000000E+01      4.756470000000000E-01     -1.611953000000000E+02
4847000000.000000      3.807678000000000E-01      3.836328000000000E+01      4.730377000000000E-01     -1.619453000000000E+02
4848000000.000000      3.817749000000000E-01      3.813281000000000E+01      4.683075000000000E-01     -1.626094000000000E+02
4849000000.000000      3.825073000000000E-01      3.790234000000000E+01      4.694977000000000E-01     -1.635547000000000E+02
4850000000.000000      3.842773000000000E-01      3.783398000000000E+01      4.674072000000000E-01     -1.641797000000000E+02
4851000000.000000      3.857880000000000E-01      3.756054000000000E+01      4.656830000000000E-01     -1.649531000000000E+02
4852000000.000000      3.871155000000000E-01      3.736523000000000E+01      4.639130000000000E-01     -1.656016000000000E+02
4853000000.000000      3.893433000000000E-01      3.724609000000000E+01      4.610596000000000E-01     -1.661797000000000E+02
4854000000.000000      3.894348000000000E-01      3.699414000000000E+01      4.592285000000000E-01     -1.671641000000000E+02
4855000000.000000      3.905487000000000E-01      3.687695000000000E+01      4.577179000000000E-01     -1.678437000000000E+02
4856000000.000000      3.917236000000000E-01      3.662890000000000E+01      4.547272000000000E-01     -1.683359000000000E+02
4857000000.000000      3.932495000000000E-01      3.639257000000000E+01      4.538269000000000E-01     -1.691015000000000E+02
4858000000.000000      3.942413000000000E-01      3.612305000000000E+01      4.513397000000000E-01     -1.698047000000000E+02
4859000000.000000      3.951416000000000E-01      3.583008000000000E+01      4.495392000000000E-01     -1.702969000000000E+02
4860000000.000000      3.967438000000000E-01      3.586914000000000E+01      4.466705000000000E-01     -1.711875000000000E+02
4861000000.000000      3.964691000000000E-01      3.551172000000000E+01      4.431152000000000E-01     -1.716797000000000E+02
4862000000.000000      3.974609000000000E-01      3.524414000000000E+01      4.419403000000000E-01     -1.722656000000000E+02
4863000000.000000      3.995819000000000E-01      3.515820000000000E+01      4.374084000000000E-01     -1.732188000000000E+02
4864000000.000000      4.009857000000000E-01      3.485547000000000E+01      4.364319000000000E-01     -1.738828000000000E+02
4865000000.000000      4.006500000000000E-01      3.448047000000000E+01      4.326630000000000E-01     -1.745000000000000E+02
4866000000.000000      4.017487000000000E-01      3.426172000000000E+01      4.299774000000000E-01     -1.752031000000000E+02
4867000000.000000      4.022217000000000E-01      3.404882000000000E+01      4.268188000000000E-01     -1.759609000000000E+02
4868000000.000000      4.036407000000000E-01      3.391797000000000E+01      4.234467000000000E-01     -1.767422000000000E+02
4869000000.000000      4.036255000000000E-01      3.357617000000000E+01      4.206848000000000E-01     -1.771484000000000E+02
4870000000.000000      4.052429000000000E-01      3.339844000000000E+01      4.177399000000000E-01     -1.774765000000000E+02
4871000000.000000      4.049377000000000E-01      3.308984000000000E+01      4.134216000000000E-01     -1.784609000000000E+02
4872000000.000000      4.068451000000000E-01      3.285547000000000E+01      4.107361000000000E-01     -1.787656000000000E+02
4873000000.000000      4.060516000000000E-01      3.269726000000000E+01      4.070740000000000E-01     -1.797500000000000E+02
4874000000.000000      4.071655000000000E-01      3.245312000000000E+01      4.027252000000000E-01      1.796250000000000E+02
4875000000.000000      4.084778000000000E-01      3.212500000000000E+01      3.996124000000000E-01      1.790625000000000E+02
4876000000.000000      4.084778000000000E-01      3.208398000000000E+01      3.984375000000000E-01      1.784609000000000E+02
4877000000.000000      4.096680000000000E-01      3.152344000000000E+01      3.938904000000000E-01      1.777891000000000E+02
4878000000.000000      4.091492000000000E-01      3.146289000000000E+01      3.894501000000000E-01      1.771797000000000E+02
4879000000.000000      4.100952000000000E-01      3.127246000000000E+01      3.856659000000000E-01      1.767422000000000E+02
4880000000.000000      4.110260000000000E-01      3.090918000000000E+01      3.815155000000000E-01      1.762969000000000E+02
4881000000.000000      4.105835000000000E-01      3.080761000000000E+01      3.801575000000000E-01      1.758047000000000E+02
4882000000.000000      4.112549000000000E-01      3.057031000000000E+01      3.770447000000000E-01      1.750156000000000E+02
4883000000.000000      4.112701000000000E-01      3.021289000000000E+01      3.737488000000000E-01      1.744844000000000E+02
4884000000.000000      4.122925000000000E-01      3.016894000000000E+01      3.693695000000000E-01      1.739609000000000E+02
4885000000.000000      4.122467000000000E-01      2.985449000000000E+01      3.667908000000000E-01      1.736250000000000E+02
4886000000.000000      4.130402000000000E-01      2.966113000000000E+01      3.614502000000000E-01      1.731875000000000E+02
4887000000.000000      4.127197000000000E-01      2.941308000000000E+01      3.598938000000000E-01      1.726875000000000E+02
4888000000.000000      4.124603000000000E-01      2.901074000000000E+01      3.563232000000000E-01      1.720547000000000E+02
4889000000.000000      4.119873000000000E-01      2.894433000000000E+01      3.521729000000000E-01      1.717344000000000E+02
4890000000.000000      4.112549000000000E-01      2.858887000000000E+01      3.486633000000000E-01      1.711484000000000E+02
4891000000.000000      4.125671000000000E-01      2.846094000000000E+01      3.435974000000000E-01      1.706953000000000E+02
4892000000.000000      4.120026000000000E-01      2.827148000000000E+01      3.415527000000000E-01      1.705000000000000E+02
4893000000.000000      4.129486000000000E-01      2.791406000000000E+01      3.373108000000000E-01      1.695937000000000E+02
4894000000.000000      4.122772000000000E-01      2.775683000000000E+01      3.335724000000000E-01      1.695469000000000E+02
4895000000.000000      4.117584000000000E-01      2.755468000000000E+01      3.312073000000000E-01      1.690781000000000E+02
4896000000.000000      4.130402000000000E-01      2.743750000000000E+01      3.271332000000000E-01      1.686406000000000E+02
4897000000.000000      4.121552000000000E-01      2.729199000000000E+01      3.228149000000000E-01      1.681562000000000E+02
4898000000.000000      4.123077000000000E-01      2.699023000000000E+01      3.209839000000000E-01      1.677344000000000E+02
4899000000.000000      4.121246000000000E-01      2.670703000000000E+01      3.177032000000000E-01      1.672812000000000E+02
4900000000.000000      4.123535000000000E-01      2.648438000000000E+01      3.139038000000000E-01      1.668828000000000E+02
4901000000.000000      4.117889000000000E-01      2.625097000000000E+01      3.106995000000000E-01      1.665390000000000E+02
4902000000.000000      4.121704000000000E-01      2.616504000000000E+01      3.075562000000000E-01      1.663359000000000E+02
4903000000.000000      4.129791000000000E-01      2.603808000000000E+01      3.030396000000000E-01      1.656953000000000E+02
4904000000.000000      4.116516000000000E-01      2.570898000000000E+01      3.006439000000000E-01      1.654687000000000E+02
4905000000.000000      4.109955000000000E-01      2.551660000000000E+01      2.974396000000000E-01      1.648125000000000E+02
4906000000.000000      4.111176000000000E-01      2.537207000000000E+01      2.942963000000000E-01      1.646406000000000E+02
4907000000.000000      4.111633000000000E-01      2.517773000000000E+01      2.913208000000000E-01      1.641797000000000E+02
4908000000.000000      4.109039000000000E-01      2.502344000000000E+01      2.878876000000000E-01      1.638515000000000E+02
4909000000.000000      4.102631000000000E-01      2.468554000000000E+01      2.835388000000000E-01      1.634297000000000E+02
4910000000.000000      4.102783000000000E-01      2.461816000000000E+01      2.802277000000000E-01      1.630391000000000E+02
4911000000.000000      4.104309000000000E-01      2.447266000000000E+01      2.775116000000000E-01      1.627266000000000E+02
4912000000.000000      4.104004000000000E-01      2.436816000000000E+01      2.731781000000000E-01      1.623281000000000E+02
4913000000.000000      4.105072000000000E-01      2.408984000000000E+01      2.696228000000000E-01      1.620156000000000E+02
4914000000.000000      4.103241000000000E-01      2.382519000000000E+01      2.658234000000000E-01      1.615937000000000E+02
4915000000.000000      4.100037000000000E-01      2.377539000000000E+01      2.625275000000000E-01      1.611719000000000E+02
4916000000.000000      4.093323000000000E-01      2.359375000000000E+01      2.590179000000000E-01      1.608359000000000E+02
4917000000.000000      4.093933000000000E-01      2.326855000000000E+01      2.551575000000000E-01      1.606562000000000E+02
4918000000.000000      4.092255000000000E-01      2.310645000000000E+01      2.513123000000000E-01      1.603750000000000E+02
4919000000.000000      4.093628000000000E-01      2.304297000000000E+01      2.482452000000000E-01      1.602656000000000E+02
4920000000.000000      4.084015000000000E-01      2.270117000000000E+01      2.443161000000000E-01      1.596562000000000E+02
4921000000.000000      4.084625000000000E-01      2.278515000000000E+01      2.405396000000000E-01      1.593672000000000E+02
4922000000.000000      4.083252000000000E-01      2.246387000000000E+01      2.366257000000000E-01      1.591953000000000E+02
4923000000.000000      4.077759000000000E-01      2.236230000000000E+01      2.329330000000000E-01      1.588984000000000E+02
4924000000.000000      4.072266000000000E-01      2.222363000000000E+01      2.283020000000000E-01      1.586562000000000E+02
4925000000.000000      4.075623000000000E-01      2.197266000000000E+01      2.247467000000000E-01      1.584922000000000E+02
4926000000.000000      4.078064000000000E-01      2.179199000000000E+01      2.218399000000000E-01      1.582187000000000E+02
4927000000.000000      4.071198000000000E-01      2.157519000000000E+01      2.172623000000000E-01      1.581094000000000E+02
4928000000.000000      4.073792000000000E-01      2.156152000000000E+01      2.141495000000000E-01      1.582266000000000E+02
4929000000.000000      4.071350000000000E-01      2.126172000000000E+01      2.091446000000000E-01      1.578984000000000E+02
4930000000.000000      4.060822000000000E-01      2.126367000000000E+01      2.060394000000000E-01      1.577734000000000E+02
4931000000.000000      4.058990000000000E-01      2.087109000000000E+01      2.016602000000000E-01      1.577266000000000E+02
4932000000.000000      4.054260000000000E-01      2.084082000000000E+01      1.980896000000000E-01      1.577031000000000E+02
4933000000.000000      4.054413000000000E-01      2.067481000000000E+01      1.934814000000000E-01      1.576484000000000E+02
4934000000.000000      4.059296000000000E-01      2.034472000000000E+01      1.901016000000000E-01      1.576328000000000E+02
4935000000.000000      4.053192000000000E-01      2.034863000000000E+01      1.859970000000000E-01      1.578594000000000E+02
4936000000.000000      4.045258000000000E-01      2.004101000000000E+01      1.813431000000000E-01      1.579141000000000E+02
4937000000.000000      4.052887000000000E-01      1.990527000000000E+01      1.783905000000000E-01      1.581016000000000E+02
4938000000.000000      4.039917000000000E-01      1.998633000000000E+01      1.738663000000000E-01      1.583516000000000E+02
4939000000.000000      4.047852000000000E-01      1.976269000000000E+01      1.703491000000000E-01      1.586172000000000E+02
4940000000.000000      4.046478000000000E-01      1.955273000000000E+01      1.663437000000000E-01      1.584922000000000E+02
4941000000.000000      4.038696000000000E-01      1.941211000000000E+01      1.625366000000000E-01      1.591328000000000E+02
4942000000.000000      4.031372000000000E-01      1.929394000000000E+01      1.588287000000000E-01      1.596094000000000E+02
4943000000.000000      4.031372000000000E-01      1.920215000000000E+01      1.557465000000000E-01      1.599766000000000E+02
4944000000.000000      4.033966000000000E-01      1.888672000000000E+01      1.520462000000000E-01      1.604375000000000E+02
4945000000.000000      4.034424000000000E-01      1.873242000000000E+01      1.486435000000000E-01      1.611016000000000E+02
4946000000.000000      4.024048000000000E-01      1.849316000000000E+01      1.450043000000000E-01      1.617891000000000E+02
4947000000.000000      4.031525000000000E-01      1.844434000000000E+01      1.411133000000000E-01      1.624609000000000E+02
4948000000.000000      4.025269000000000E-01      1.840527000000000E+01      1.385880000000000E-01      1.634219000000000E+02
4949000000.000000      4.011230000000000E-01      1.798535000000000E+01      1.354218000000000E-01      1.645859000000000E+02
4950000000.000000      4.015961000000000E-01      1.797852000000000E+01      1.321716000000000E-01      1.653281000000000E+02
4951000000.000000      4.016266000000000E-01      1.783887000000000E+01      1.289825000000000E-01      1.663984000000000E+02
4952000000.000000      4.013367000000000E-01      1.757813000000000E+01      1.264038000000000E-01      1.675390000000000E+02
4953000000.000000      4.001007000000000E-01      1.746875000000000E+01      1.244011000000000E-01      1.688125000000000E+02
4954000000.000000      4.015350000000000E-01      1.732324000000000E+01      1.214981000000000E-01      1.700625000000000E+02
