! Network Analyzer HP8722D
! Hewlett-Packard
! Data name: Linha & Wilkinson
! Saver's name: Rodrigo Anjos
! Comments: Teste da utilização de aquisição
continua pelo VNA HP8722D
! Time and date: 23/5/2025 13:26
!              Frequency                     S11                                                   S21                                                   S12                                                   S22
# HZ  S  MA R 50
4800000000.000000      2.904816000000000E-01      3.953320000000000E+01      4.814301000000000E-01     -1.296719000000000E+02
4801000000.000000      2.915955000000000E-01      3.977930000000000E+01      4.841003000000000E-01     -1.302031000000000E+02
4802000000.000000      2.928772000000000E-01      3.995703000000000E+01      4.859314000000000E-01     -1.309219000000000E+02
4803000000.000000      2.936401000000000E-01      4.012891000000000E+01      4.884796000000000E-01     -1.314766000000000E+02
4804000000.000000      2.949524000000000E-01      4.041601000000000E+01      4.890747000000000E-01     -1.322734000000000E+02
4805000000.000000      2.967529000000000E-01      4.048437000000000E+01      4.914856000000000E-01     -1.332187000000000E+02
4806000000.000000      2.975616000000000E-01      4.063867000000000E+01      4.903259000000000E-01     -1.337969000000000E+02
4807000000.000000      2.989960000000000E-01      4.083203000000000E+01      4.928589000000000E-01     -1.347656000000000E+02
4808000000.000000      2.999268000000000E-01      4.101953000000000E+01      4.951782000000000E-01     -1.353828000000000E+02
4809000000.000000      3.018494000000000E-01      4.123047000000000E+01      4.951782000000000E-01     -1.361484000000000E+02
4810000000.000000      3.033905000000000E-01      4.136328000000000E+01      4.981232000000000E-01     -1.368359000000000E+02
4811000000.000000      3.046875000000000E-01      4.150195000000000E+01      4.982910000000000E-01     -1.376406000000000E+02
4812000000.000000      3.071594000000000E-01      4.170507000000000E+01      4.980621000000000E-01     -1.383594000000000E+02
4813000000.000000      3.080597000000000E-01      4.182422000000000E+01      4.993896000000000E-01     -1.390078000000000E+02
4814000000.000000      3.095093000000000E-01      4.172852000000000E+01      5.012207000000000E-01     -1.396563000000000E+02
4815000000.000000      3.107605000000000E-01      4.191602000000000E+01      5.004578000000000E-01     -1.405156000000000E+02
4816000000.000000      3.134766000000000E-01      4.207031000000000E+01      5.013123000000000E-01     -1.411562000000000E+02
4817000000.000000      3.142395000000000E-01      4.204297000000000E+01      5.020142000000000E-01     -1.419609000000000E+02
4818000000.000000      3.163147000000000E-01      4.209180000000000E+01      5.021057000000000E-01     -1.426563000000000E+02
4819000000.000000      3.185577000000000E-01      4.208203000000000E+01      5.023193000000000E-01     -1.434297000000000E+02
4820000000.000000      3.187866000000000E-01      4.219140000000000E+01      5.025635000000000E-01     -1.441015000000000E+02
4821000000.000000      3.223724000000000E-01      4.227929000000000E+01      5.024414000000000E-01     -1.449375000000000E+02
4822000000.000000      3.230438000000000E-01      4.212891000000000E+01      5.003052000000000E-01     -1.456094000000000E+02
4823000000.000000      3.256378000000000E-01      4.220117000000000E+01      5.021057000000000E-01     -1.464141000000000E+02
4824000000.000000      3.265228000000000E-01      4.229882000000000E+01      5.034180000000000E-01     -1.471328000000000E+02
4825000000.000000      3.285980000000000E-01      4.207421000000000E+01      5.007935000000000E-01     -1.476641000000000E+02
4826000000.000000      3.303375000000000E-01      4.206250000000000E+01      5.023804000000000E-01     -1.485078000000000E+02
4827000000.000000      3.324890000000000E-01      4.207421000000000E+01      5.010376000000000E-01     -1.490469000000000E+02
4828000000.000000      3.346405000000000E-01      4.209374000000000E+01      5.001831000000000E-01     -1.501094000000000E+02
4829000000.000000      3.357391000000000E-01      4.202929000000000E+01      5.009155000000000E-01     -1.507031000000000E+02
4830000000.000000      3.376770000000000E-01      4.186719000000000E+01      4.994659000000000E-01     -1.515547000000000E+02
4831000000.000000      3.393402000000000E-01      4.174805000000000E+01      4.988861000000000E-01     -1.522344000000000E+02
4832000000.000000      3.412476000000000E-01      4.181641000000000E+01      4.977570000000000E-01     -1.527344000000000E+02
4833000000.000000      3.425293000000000E-01      4.157227000000000E+01      4.975891000000000E-01     -1.534219000000000E+02
4834000000.000000      3.446960000000000E-01      4.147461000000000E+01      4.968872000000000E-01     -1.543906000000000E+02
4835000000.000000      3.464203000000000E-01      4.137695000000000E+01      4.964294000000000E-01     -1.549766000000000E+02
4836000000.000000      3.482361000000000E-01      4.134179000000000E+01      4.945374000000000E-01     -1.556875000000000E+02
4837000000.000000      3.497314000000000E-01      4.120703000000000E+01      4.941254000000000E-01     -1.566797000000000E+02
4838000000.000000      3.509064000000000E-01      4.105273000000000E+01      4.934845000000000E-01     -1.569844000000000E+02
4839000000.000000      3.544769000000000E-01      4.096680000000000E+01      4.922180000000000E-01     -1.577656000000000E+02
4840000000.000000      3.552704000000000E-01      4.065625000000000E+01      4.903717000000000E-01     -1.585000000000000E+02
4841000000.000000      3.567047000000000E-01      4.069726000000000E+01      4.893494000000000E-01     -1.593828000000000E+02
4842000000.000000      3.570709000000000E-01      4.047071000000000E+01      4.870300000000000E-01     -1.599609000000000E+02
4843000000.000000      3.607483000000000E-01      4.010156000000000E+01      4.868622000000000E-01     -1.607109000000000E+02
4844000000.000000      3.612823000000000E-01      3.999218000000000E+01      4.850006000000000E-01     -1.615000000000000E+02
4845000000.000000      3.634949000000000E-01      3.989648000000000E+01      4.838562000000000E-01     -1.620937000000000E+02
4846000000.000000      3.646545000000000E-01      3.972656000000000E+01      4.824219000000000E-01     -1.629062000000000E+02
4847000000.000000      3.658295000000000E-01      3.953516000000000E+01      4.810181000000000E-01     -1.634844000000000E+02
4848000000.000000      3.671570000000000E-01      3.932031000000000E+01      4.770050000000000E-01     -1.642031000000000E+02
4849000000.000000      3.689880000000000E-01      3.907031000000000E+01      4.770050000000000E-01     -1.649297000000000E+02
4850000000.000000      3.700867000000000E-01      3.886914000000000E+01      4.734344000000000E-01     -1.656094000000000E+02
4851000000.000000      3.713531000000000E-01      3.869726000000000E+01      4.729919000000000E-01     -1.664063000000000E+02
4852000000.000000      3.729248000000000E-01      3.841992000000000E+01      4.706879000000000E-01     -1.670000000000000E+02
4853000000.000000      3.739166000000000E-01      3.829687000000000E+01      4.674835000000000E-01     -1.677734000000000E+02
4854000000.000000      3.755341000000000E-01      3.785547000000000E+01      4.666443000000000E-01     -1.685937000000000E+02
4855000000.000000      3.763580000000000E-01      3.774609000000000E+01      4.637756000000000E-01     -1.691875000000000E+02
4856000000.000000      3.775635000000000E-01      3.756445000000000E+01      4.621277000000000E-01     -1.698750000000000E+02
4857000000.000000      3.787689000000000E-01      3.732422000000000E+01      4.613800000000000E-01     -1.705547000000000E+02
4858000000.000000      3.796997000000000E-01      3.693554000000000E+01      4.573364000000000E-01     -1.711875000000000E+02
4859000000.000000      3.811798000000000E-01      3.677929000000000E+01      4.555206000000000E-01     -1.719063000000000E+02
4860000000.000000      3.817749000000000E-01      3.665039000000000E+01      4.510803000000000E-01     -1.725469000000000E+02
4861000000.000000      3.827667000000000E-01      3.642578000000000E+01      4.494476000000000E-01     -1.733281000000000E+02
4862000000.000000      3.832245000000000E-01      3.616406000000000E+01      4.477386000000000E-01     -1.738437000000000E+02
4863000000.000000      3.847351000000000E-01      3.589453000000000E+01      4.423828000000000E-01     -1.747344000000000E+02
4864000000.000000      3.858490000000000E-01      3.555859000000000E+01      4.413605000000000E-01     -1.754062000000000E+02
4865000000.000000      3.862152000000000E-01      3.533008000000000E+01      4.385376000000000E-01     -1.760469000000000E+02
4866000000.000000      3.870544000000000E-01      3.495508000000000E+01      4.353333000000000E-01     -1.765625000000000E+02
4867000000.000000      3.870544000000000E-01      3.487695000000000E+01      4.322052000000000E-01     -1.772891000000000E+02
4868000000.000000      3.888397000000000E-01      3.459179000000000E+01      4.286957000000000E-01     -1.780078000000000E+02
4869000000.000000      3.887787000000000E-01      3.433008000000000E+01      4.265594000000000E-01     -1.787109000000000E+02
4870000000.000000      3.903656000000000E-01      3.405273000000000E+01      4.221802000000000E-01     -1.790000000000000E+02
4871000000.000000      3.900146000000000E-01      3.379101000000000E+01      4.203186000000000E-01     -1.798906000000000E+02
4872000000.000000      3.917999000000000E-01      3.354492000000000E+01      4.153748000000000E-01      1.795234000000000E+02
4873000000.000000      3.913422000000000E-01      3.341992000000000E+01      4.126587000000000E-01      1.789297000000000E+02
4874000000.000000      3.923340000000000E-01      3.304688000000000E+01      4.090118000000000E-01      1.783047000000000E+02
4875000000.000000      3.920135000000000E-01      3.277929000000000E+01      4.046783000000000E-01      1.779687000000000E+02
4876000000.000000      3.935089000000000E-01      3.264843000000000E+01      4.022675000000000E-01      1.775156000000000E+02
4877000000.000000      3.943634000000000E-01      3.209375000000000E+01      3.999481000000000E-01      1.766797000000000E+02
4878000000.000000      3.931122000000000E-01      3.190234000000000E+01      3.958435000000000E-01      1.760469000000000E+02
4879000000.000000      3.938751000000000E-01      3.172949000000000E+01      3.911896000000000E-01      1.756328000000000E+02
4880000000.000000      3.952026000000000E-01      3.141308000000000E+01      3.890991000000000E-01      1.749766000000000E+02
4881000000.000000      3.947754000000000E-01      3.115918000000000E+01      3.839417000000000E-01      1.746484000000000E+02
4882000000.000000      3.956146000000000E-01      3.103613000000000E+01      3.818207000000000E-01      1.738594000000000E+02
4883000000.000000      3.953247000000000E-01      3.069921000000000E+01      3.770447000000000E-01      1.732500000000000E+02
4884000000.000000      3.957977000000000E-01      3.058789000000000E+01      3.746643000000000E-01      1.729453000000000E+02
4885000000.000000      3.965149000000000E-01      3.027637000000000E+01      3.713837000000000E-01      1.725469000000000E+02
4886000000.000000      3.964539000000000E-01      3.009375000000000E+01      3.668976000000000E-01      1.719141000000000E+02
4887000000.000000      3.955231000000000E-01      2.972754000000000E+01      3.636322000000000E-01      1.713125000000000E+02
4888000000.000000      3.964996000000000E-01      2.943848000000000E+01      3.607025000000000E-01      1.708594000000000E+02
4889000000.000000      3.962097000000000E-01      2.923925000000000E+01      3.565369000000000E-01      1.704062000000000E+02
4890000000.000000      3.952789000000000E-01      2.899902000000000E+01      3.527374000000000E-01      1.696797000000000E+02
4891000000.000000      3.959656000000000E-01      2.882910000000000E+01      3.489532000000000E-01      1.695547000000000E+02
4892000000.000000      3.952484000000000E-01      2.860352000000000E+01      3.455811000000000E-01      1.693359000000000E+02
4893000000.000000      3.966522000000000E-01      2.834668000000000E+01      3.411865000000000E-01      1.686094000000000E+02
4894000000.000000      3.960266000000000E-01      2.804101000000000E+01      3.395233000000000E-01      1.683750000000000E+02
4895000000.000000      3.962402000000000E-01      2.794629000000000E+01      3.367767000000000E-01      1.680391000000000E+02
4896000000.000000      3.965302000000000E-01      2.769726000000000E+01      3.319550000000000E-01      1.674453000000000E+02
4897000000.000000      3.956604000000000E-01      2.740625000000000E+01      3.274231000000000E-01      1.668750000000000E+02
4898000000.000000      3.957672000000000E-01      2.725390000000000E+01      3.248291000000000E-01      1.665781000000000E+02
4899000000.000000      3.959503000000000E-01      2.700488000000000E+01      3.218079000000000E-01      1.661406000000000E+02
4900000000.000000      3.957062000000000E-01      2.680078000000000E+01      3.180084000000000E-01      1.657734000000000E+02
4901000000.000000      3.956757000000000E-01      2.670410000000000E+01      3.147278000000000E-01      1.653516000000000E+02
4902000000.000000      3.946533000000000E-01      2.635742000000000E+01      3.116913000000000E-01      1.651172000000000E+02
4903000000.000000      3.956146000000000E-01      2.621973000000000E+01      3.071289000000000E-01      1.646953000000000E+02
4904000000.000000      3.951416000000000E-01      2.586914000000000E+01      3.051300000000000E-01      1.642734000000000E+02
4905000000.000000      3.939056000000000E-01      2.570996000000000E+01      3.012543000000000E-01      1.637578000000000E+02
4906000000.000000      3.936310000000000E-01      2.541894000000000E+01      2.978363000000000E-01      1.636250000000000E+02
4907000000.000000      3.947144000000000E-01      2.520215000000000E+01      2.948761000000000E-01      1.631328000000000E+02
4908000000.000000      3.945465000000000E-01      2.507715000000000E+01      2.915344000000000E-01      1.628125000000000E+02
4909000000.000000      3.932495000000000E-01      2.497851000000000E+01      2.877045000000000E-01      1.623594000000000E+02
4910000000.000000      3.929596000000000E-01      2.466504000000000E+01      2.833862000000000E-01      1.620000000000000E+02
4911000000.000000      3.931122000000000E-01      2.443457000000000E+01      2.806854000000000E-01      1.617109000000000E+02
4912000000.000000      3.921814000000000E-01      2.437012000000000E+01      2.771606000000000E-01      1.612109000000000E+02
4913000000.000000      3.931732000000000E-01      2.418164000000000E+01      2.736206000000000E-01      1.611172000000000E+02
4914000000.000000      3.923950000000000E-01      2.392871000000000E+01      2.699432000000000E-01      1.607188000000000E+02
4915000000.000000      3.926239000000000E-01      2.373926000000000E+01      2.654877000000000E-01      1.602344000000000E+02
4916000000.000000      3.922729000000000E-01      2.353320000000000E+01      2.619934000000000E-01      1.598203000000000E+02
4917000000.000000      3.912964000000000E-01      2.335742000000000E+01      2.587891000000000E-01      1.595156000000000E+02
4918000000.000000      3.911896000000000E-01      2.319824000000000E+01      2.541656000000000E-01      1.591484000000000E+02
4919000000.000000      3.912506000000000E-01      2.307324000000000E+01      2.512360000000000E-01      1.591797000000000E+02
4920000000.000000      3.904266000000000E-01      2.283496000000000E+01      2.465668000000000E-01      1.585859000000000E+02
4921000000.000000      3.910065000000000E-01      2.279297000000000E+01      2.438278000000000E-01      1.582734000000000E+02
4922000000.000000      3.908997000000000E-01      2.251367000000000E+01      2.395020000000000E-01      1.582109000000000E+02
4923000000.000000      3.902893000000000E-01      2.245996000000000E+01      2.360764000000000E-01      1.581328000000000E+02
4924000000.000000      3.903046000000000E-01      2.221680000000000E+01      2.315445000000000E-01      1.575859000000000E+02
4925000000.000000      3.890381000000000E-01      2.193750000000000E+01      2.277985000000000E-01      1.574375000000000E+02
4926000000.000000      3.889771000000000E-01      2.191308000000000E+01      2.239380000000000E-01      1.573203000000000E+02
4927000000.000000      3.894348000000000E-01      2.156152000000000E+01      2.196655000000000E-01      1.571406000000000E+02
4928000000.000000      3.901672000000000E-01      2.145606000000000E+01      2.159119000000000E-01      1.569922000000000E+02
4929000000.000000      3.878326000000000E-01      2.120410000000000E+01      2.118835000000000E-01      1.569062000000000E+02
4930000000.000000      3.887787000000000E-01      2.105762000000000E+01      2.081680000000000E-01      1.566797000000000E+02
4931000000.000000      3.876190000000000E-01      2.092187000000000E+01      2.042236000000000E-01      1.567109000000000E+02
4932000000.000000      3.882141000000000E-01      2.077148000000000E+01      1.999664000000000E-01      1.567266000000000E+02
4933000000.000000      3.885803000000000E-01      2.058398000000000E+01      1.957626000000000E-01      1.568516000000000E+02
4934000000.000000      3.877716000000000E-01      2.037207000000000E+01      1.920242000000000E-01      1.567344000000000E+02
4935000000.000000      3.883514000000000E-01      2.027930000000000E+01      1.884384000000000E-01      1.571797000000000E+02
4936000000.000000      3.865967000000000E-01      2.014843000000000E+01      1.840286000000000E-01      1.571563000000000E+02
4937000000.000000      3.871918000000000E-01      1.985156000000000E+01      1.802673000000000E-01      1.571953000000000E+02
4938000000.000000      3.865967000000000E-01      1.984668000000000E+01      1.763763000000000E-01      1.575078000000000E+02
4939000000.000000      3.865356000000000E-01      1.971484000000000E+01      1.726532000000000E-01      1.577734000000000E+02
4940000000.000000      3.860474000000000E-01      1.949512000000000E+01      1.681366000000000E-01      1.579687000000000E+02
4941000000.000000      3.861542000000000E-01      1.921191000000000E+01      1.647491000000000E-01      1.585859000000000E+02
4942000000.000000      3.849640000000000E-01      1.914355000000000E+01      1.610031000000000E-01      1.589609000000000E+02
4943000000.000000      3.842163000000000E-01      1.914355000000000E+01      1.572876000000000E-01      1.593906000000000E+02
4944000000.000000      3.853760000000000E-01      1.873926000000000E+01      1.539841000000000E-01      1.599062000000000E+02
4945000000.000000      3.842926000000000E-01      1.849121000000000E+01      1.501770000000000E-01      1.605547000000000E+02
4946000000.000000      3.844147000000000E-01      1.840039000000000E+01      1.466599000000000E-01      1.613594000000000E+02
4947000000.000000      3.834839000000000E-01      1.820508000000000E+01      1.428452000000000E-01      1.619297000000000E+02
4948000000.000000      3.838348000000000E-01      1.806933000000000E+01      1.399231000000000E-01      1.628984000000000E+02
4949000000.000000      3.824463000000000E-01      1.790137000000000E+01      1.370010000000000E-01      1.640938000000000E+02
4950000000.000000      3.831177000000000E-01      1.776855000000000E+01      1.339874000000000E-01      1.649765000000000E+02
4951000000.000000      3.832397000000000E-01      1.772558000000000E+01      1.312714000000000E-01      1.658750000000000E+02
4952000000.000000      3.825531000000000E-01      1.749121000000000E+01      1.283875000000000E-01      1.673203000000000E+02
4953000000.000000      3.817444000000000E-01      1.731445000000000E+01      1.263580000000000E-01      1.686953000000000E+02
4954000000.000000      3.808899000000000E-01      1.725488000000000E+01      1.233597000000000E-01      1.699453000000000E+02
