! Network Analyzer HP8722D
! Hewlett-Packard
! Data name: Linha & Wilkinson
! Saver's name: Rodrigo Anjos
! Comments: Teste da utilização de aquisição
continua pelo VNA HP8722D
! Time and date: 23/5/2025 10:25
!              Frequency                     S11                                                   S21                                                   S12                                                   S22
# HZ  S  MA R 50
4800000000.000000      3.183899000000000E-01      3.689258000000000E+01      4.685516000000000E-01     -1.279883000000000E+02
4801000000.000000      3.195496000000000E-01      3.721680000000000E+01      4.695740000000000E-01     -1.286172000000000E+02
4802000000.000000      3.201752000000000E-01      3.732812000000000E+01      4.710236000000000E-01     -1.293359000000000E+02
4803000000.000000      3.205109000000000E-01      3.748047000000000E+01      4.743500000000000E-01     -1.298984000000000E+02
4804000000.000000      3.220825000000000E-01      3.770312000000000E+01      4.759369000000000E-01     -1.307812000000000E+02
4805000000.000000      3.232422000000000E-01      3.781445000000000E+01      4.777832000000000E-01     -1.313203000000000E+02
4806000000.000000      3.240356000000000E-01      3.798437000000000E+01      4.763641000000000E-01     -1.322969000000000E+02
4807000000.000000      3.251648000000000E-01      3.813867000000000E+01      4.797363000000000E-01     -1.329297000000000E+02
4808000000.000000      3.257141000000000E-01      3.825390000000000E+01      4.797668000000000E-01     -1.334766000000000E+02
4809000000.000000      3.272858000000000E-01      3.848633000000000E+01      4.818573000000000E-01     -1.345156000000000E+02
4810000000.000000      3.280945000000000E-01      3.863086000000000E+01      4.838715000000000E-01     -1.348984000000000E+02
4811000000.000000      3.300476000000000E-01      3.877930000000000E+01      4.840088000000000E-01     -1.359297000000000E+02
4812000000.000000      3.326111000000000E-01      3.892969000000000E+01      4.850159000000000E-01     -1.367188000000000E+02
4813000000.000000      3.331451000000000E-01      3.903125000000000E+01      4.856415000000000E-01     -1.373516000000000E+02
4814000000.000000      3.340454000000000E-01      3.902734000000000E+01      4.851074000000000E-01     -1.381719000000000E+02
4815000000.000000      3.354797000000000E-01      3.925000000000000E+01      4.860992000000000E-01     -1.387734000000000E+02
4816000000.000000      3.380737000000000E-01      3.922852000000000E+01      4.876556000000000E-01     -1.394375000000000E+02
4817000000.000000      3.388977000000000E-01      3.940039000000000E+01      4.872742000000000E-01     -1.402344000000000E+02
4818000000.000000      3.403473000000000E-01      3.946484000000000E+01      4.877625000000000E-01     -1.411953000000000E+02
4819000000.000000      3.420868000000000E-01      3.946289000000000E+01      4.886780000000000E-01     -1.418203000000000E+02
4820000000.000000      3.432312000000000E-01      3.955078000000000E+01      4.880219000000000E-01     -1.423906000000000E+02
4821000000.000000      3.454590000000000E-01      3.954687000000000E+01      4.884796000000000E-01     -1.433125000000000E+02
4822000000.000000      3.466949000000000E-01      3.950195000000000E+01      4.866180000000000E-01     -1.437734000000000E+02
4823000000.000000      3.484344000000000E-01      3.955469000000000E+01      4.880066000000000E-01     -1.447187000000000E+02
4824000000.000000      3.502045000000000E-01      3.961914000000000E+01      4.872894000000000E-01     -1.454453000000000E+02
4825000000.000000      3.512878000000000E-01      3.960938000000000E+01      4.873199000000000E-01     -1.462656000000000E+02
4826000000.000000      3.530579000000000E-01      3.959570000000000E+01      4.883575000000000E-01     -1.469609000000000E+02
4827000000.000000      3.550415000000000E-01      3.951562000000000E+01      4.863586000000000E-01     -1.474766000000000E+02
4828000000.000000      3.577881000000000E-01      3.951953000000000E+01      4.868011000000000E-01     -1.483438000000000E+02
4829000000.000000      3.587494000000000E-01      3.959179000000000E+01      4.867249000000000E-01     -1.489531000000000E+02
4830000000.000000      3.598328000000000E-01      3.943945000000000E+01      4.857483000000000E-01     -1.496797000000000E+02
4831000000.000000      3.614960000000000E-01      3.934961000000000E+01      4.843903000000000E-01     -1.505625000000000E+02
4832000000.000000      3.636322000000000E-01      3.939648000000000E+01      4.838867000000000E-01     -1.511250000000000E+02
4833000000.000000      3.648071000000000E-01      3.927148000000000E+01      4.829407000000000E-01     -1.517656000000000E+02
4834000000.000000      3.663330000000000E-01      3.915039000000000E+01      4.824524000000000E-01     -1.526719000000000E+02
4835000000.000000      3.681030000000000E-01      3.901562000000000E+01      4.818878000000000E-01     -1.532812000000000E+02
4836000000.000000      3.700256000000000E-01      3.902929000000000E+01      4.810486000000000E-01     -1.540781000000000E+02
4837000000.000000      3.714142000000000E-01      3.903125000000000E+01      4.791107000000000E-01     -1.549141000000000E+02
4838000000.000000      3.724823000000000E-01      3.884570000000000E+01      4.793243000000000E-01     -1.554688000000000E+02
4839000000.000000      3.757019000000000E-01      3.878906000000000E+01      4.780579000000000E-01     -1.561328000000000E+02
4840000000.000000      3.765564000000000E-01      3.851367000000000E+01      4.777527000000000E-01     -1.569141000000000E+02
4841000000.000000      3.783264000000000E-01      3.850781000000000E+01      4.764099000000000E-01     -1.577500000000000E+02
4842000000.000000      3.795624000000000E-01      3.828906000000000E+01      4.759979000000000E-01     -1.582656000000000E+02
4843000000.000000      3.818665000000000E-01      3.804688000000000E+01      4.748688000000000E-01     -1.591094000000000E+02
4844000000.000000      3.828735000000000E-01      3.795898000000000E+01      4.725647000000000E-01     -1.597578000000000E+02
4845000000.000000      3.842621000000000E-01      3.800390000000000E+01      4.705048000000000E-01     -1.604687000000000E+02
4846000000.000000      3.856506000000000E-01      3.775000000000000E+01      4.694672000000000E-01     -1.611719000000000E+02
4847000000.000000      3.872070000000000E-01      3.767969000000000E+01      4.666901000000000E-01     -1.617969000000000E+02
4848000000.000000      3.882294000000000E-01      3.732617000000000E+01      4.647522000000000E-01     -1.624922000000000E+02
4849000000.000000      3.900909000000000E-01      3.710742000000000E+01      4.630280000000000E-01     -1.634375000000000E+02
4850000000.000000      3.916626000000000E-01      3.700586000000000E+01      4.620514000000000E-01     -1.641406000000000E+02
4851000000.000000      3.927002000000000E-01      3.690820000000000E+01      4.609833000000000E-01     -1.647344000000000E+02
4852000000.000000      3.942871000000000E-01      3.675976000000000E+01      4.574280000000000E-01     -1.656172000000000E+02
4853000000.000000      3.952942000000000E-01      3.648828000000000E+01      4.550018000000000E-01     -1.660547000000000E+02
4854000000.000000      3.970337000000000E-01      3.624218000000000E+01      4.544525000000000E-01     -1.670547000000000E+02
4855000000.000000      3.978119000000000E-01      3.611133000000000E+01      4.517212000000000E-01     -1.676094000000000E+02
4856000000.000000      3.985291000000000E-01      3.584179000000000E+01      4.487762000000000E-01     -1.683203000000000E+02
4857000000.000000      4.002991000000000E-01      3.571680000000000E+01      4.474945000000000E-01     -1.689062000000000E+02
4858000000.000000      4.011078000000000E-01      3.540430000000000E+01      4.456940000000000E-01     -1.696719000000000E+02
4859000000.000000      4.026794000000000E-01      3.517773000000000E+01      4.428864000000000E-01     -1.705391000000000E+02
4860000000.000000      4.032440000000000E-01      3.512109000000000E+01      4.396362000000000E-01     -1.709297000000000E+02
4861000000.000000      4.035034000000000E-01      3.492969000000000E+01      4.370880000000000E-01     -1.718125000000000E+02
4862000000.000000      4.050598000000000E-01      3.461133000000000E+01      4.352875000000000E-01     -1.725703000000000E+02
4863000000.000000      4.062347000000000E-01      3.448828000000000E+01      4.313202000000000E-01     -1.732969000000000E+02
4864000000.000000      4.076996000000000E-01      3.414844000000000E+01      4.300690000000000E-01     -1.739219000000000E+02
4865000000.000000      4.076385000000000E-01      3.393945000000000E+01      4.263916000000000E-01     -1.742188000000000E+02
4866000000.000000      4.084320000000000E-01      3.377148000000000E+01      4.233093000000000E-01     -1.752734000000000E+02
4867000000.000000      4.083252000000000E-01      3.348633000000000E+01      4.208221000000000E-01     -1.758437000000000E+02
4868000000.000000      4.100037000000000E-01      3.320898000000000E+01      4.173279000000000E-01     -1.765859000000000E+02
4869000000.000000      4.111023000000000E-01      3.295312000000000E+01      4.133453000000000E-01     -1.770547000000000E+02
4870000000.000000      4.114075000000000E-01      3.290820000000000E+01      4.107819000000000E-01     -1.777812000000000E+02
4871000000.000000      4.114685000000000E-01      3.241601000000000E+01      4.083252000000000E-01     -1.783359000000000E+02
4872000000.000000      4.139557000000000E-01      3.237500000000000E+01      4.045868000000000E-01     -1.788906000000000E+02
4873000000.000000      4.131622000000000E-01      3.216211000000000E+01      4.006195000000000E-01     -1.798125000000000E+02
4874000000.000000      4.140167000000000E-01      3.207226000000000E+01      3.974609000000000E-01      1.797422000000000E+02
4875000000.000000      4.146729000000000E-01      3.155468000000000E+01      3.936768000000000E-01      1.793750000000000E+02
4876000000.000000      4.154358000000000E-01      3.151562000000000E+01      3.911285000000000E-01      1.786016000000000E+02
4877000000.000000      4.161072000000000E-01      3.119824000000000E+01      3.869171000000000E-01      1.777109000000000E+02
4878000000.000000      4.162598000000000E-01      3.089062000000000E+01      3.840332000000000E-01      1.775000000000000E+02
4879000000.000000      4.169464000000000E-01      3.078906000000000E+01      3.787231000000000E-01      1.769766000000000E+02
4880000000.000000      4.181824000000000E-01      3.046093000000000E+01      3.771362000000000E-01      1.763672000000000E+02
4881000000.000000      4.172363000000000E-01      3.023633000000000E+01      3.734131000000000E-01      1.757969000000000E+02
4882000000.000000      4.186401000000000E-01      3.006738000000000E+01      3.712158000000000E-01      1.753594000000000E+02
4883000000.000000      4.182281000000000E-01      2.983887000000000E+01      3.667603000000000E-01      1.747890000000000E+02
4884000000.000000      4.180908000000000E-01      2.966992000000000E+01      3.633270000000000E-01      1.743281000000000E+02
4885000000.000000      4.193573000000000E-01      2.931347000000000E+01      3.595581000000000E-01      1.738203000000000E+02
4886000000.000000      4.182281000000000E-01      2.914063000000000E+01      3.563080000000000E-01      1.734609000000000E+02
4887000000.000000      4.191437000000000E-01      2.885644000000000E+01      3.530426000000000E-01      1.728672000000000E+02
4888000000.000000      4.190216000000000E-01      2.862890000000000E+01      3.495636000000000E-01      1.720781000000000E+02
4889000000.000000      4.191589000000000E-01      2.848535000000000E+01      3.444672000000000E-01      1.718594000000000E+02
4890000000.000000      4.196320000000000E-01      2.816015000000000E+01      3.401337000000000E-01      1.711719000000000E+02
4891000000.000000      4.204407000000000E-01      2.806543000000000E+01      3.382263000000000E-01      1.707422000000000E+02
4892000000.000000      4.191284000000000E-01      2.787695000000000E+01      3.340759000000000E-01      1.705000000000000E+02
4893000000.000000      4.198761000000000E-01      2.749804000000000E+01      3.308105000000000E-01      1.698437000000000E+02
4894000000.000000      4.188538000000000E-01      2.741211000000000E+01      3.270569000000000E-01      1.697656000000000E+02
4895000000.000000      4.200745000000000E-01      2.714258000000000E+01      3.246460000000000E-01      1.693047000000000E+02
4896000000.000000      4.196320000000000E-01      2.699023000000000E+01      3.214264000000000E-01      1.688047000000000E+02
4897000000.000000      4.192505000000000E-01      2.673633000000000E+01      3.176727000000000E-01      1.681953000000000E+02
4898000000.000000      4.194946000000000E-01      2.664551000000000E+01      3.145599000000000E-01      1.681172000000000E+02
4899000000.000000      4.193268000000000E-01      2.640527000000000E+01      3.103943000000000E-01      1.675000000000000E+02
4900000000.000000      4.193573000000000E-01      2.604492000000000E+01      3.067169000000000E-01      1.673047000000000E+02
4901000000.000000      4.190521000000000E-01      2.596875000000000E+01      3.043060000000000E-01      1.667812000000000E+02
4902000000.000000      4.189911000000000E-01      2.570313000000000E+01      3.013763000000000E-01      1.665625000000000E+02
4903000000.000000      4.189453000000000E-01      2.556641000000000E+01      2.977142000000000E-01      1.660312000000000E+02
4904000000.000000      4.192047000000000E-01      2.536523000000000E+01      2.946930000000000E-01      1.657656000000000E+02
4905000000.000000      4.192810000000000E-01      2.524023000000000E+01      2.921753000000000E-01      1.652656000000000E+02
4906000000.000000      4.177246000000000E-01      2.502636000000000E+01      2.879791000000000E-01      1.651094000000000E+02
4907000000.000000      4.186249000000000E-01      2.480371000000000E+01      2.844696000000000E-01      1.646719000000000E+02
4908000000.000000      4.183655000000000E-01      2.452539000000000E+01      2.811737000000000E-01      1.641562000000000E+02
4909000000.000000      4.177856000000000E-01      2.437402000000000E+01      2.774353000000000E-01      1.637656000000000E+02
4910000000.000000      4.171600000000000E-01      2.434375000000000E+01      2.739410000000000E-01      1.634140000000000E+02
4911000000.000000      4.181671000000000E-01      2.411035000000000E+01      2.712708000000000E-01      1.631953000000000E+02
4912000000.000000      4.177856000000000E-01      2.395508000000000E+01      2.670288000000000E-01      1.627109000000000E+02
4913000000.000000      4.183502000000000E-01      2.378516000000000E+01      2.640686000000000E-01      1.623828000000000E+02
4914000000.000000      4.175873000000000E-01      2.345117000000000E+01      2.608337000000000E-01      1.620625000000000E+02
4915000000.000000      4.174500000000000E-01      2.337695000000000E+01      2.562408000000000E-01      1.616875000000000E+02
4916000000.000000      4.167023000000000E-01      2.325586000000000E+01      2.532806000000000E-01      1.613203000000000E+02
4917000000.000000      4.163361000000000E-01      2.317383000000000E+01      2.499619000000000E-01      1.611562000000000E+02
4918000000.000000      4.168854000000000E-01      2.297363000000000E+01      2.451324000000000E-01      1.607344000000000E+02
4919000000.000000      4.158173000000000E-01      2.265723000000000E+01      2.424850000000000E-01      1.607500000000000E+02
4920000000.000000      4.161530000000000E-01      2.252832000000000E+01      2.377625000000000E-01      1.602109000000000E+02
4921000000.000000      4.156189000000000E-01      2.243652000000000E+01      2.350922000000000E-01      1.600234000000000E+02
4922000000.000000      4.156036000000000E-01      2.230957000000000E+01      2.311554000000000E-01      1.598203000000000E+02
4923000000.000000      4.149933000000000E-01      2.220801000000000E+01      2.270432000000000E-01      1.597031000000000E+02
4924000000.000000      4.154510000000000E-01      2.196972000000000E+01      2.234192000000000E-01      1.592266000000000E+02
4925000000.000000      4.147949000000000E-01      2.184570000000000E+01      2.197647000000000E-01      1.591094000000000E+02
4926000000.000000      4.144592000000000E-01      2.154687000000000E+01      2.161713000000000E-01      1.589922000000000E+02
4927000000.000000      4.149780000000000E-01      2.134961000000000E+01      2.115250000000000E-01      1.587188000000000E+02
4928000000.000000      4.151154000000000E-01      2.122559000000000E+01      2.085190000000000E-01      1.586953000000000E+02
4929000000.000000      4.144135000000000E-01      2.115918000000000E+01      2.042770000000000E-01      1.585469000000000E+02
4930000000.000000      4.142151000000000E-01      2.091015000000000E+01      2.003174000000000E-01      1.584453000000000E+02
4931000000.000000      4.137573000000000E-01      2.073633000000000E+01      1.970139000000000E-01      1.583047000000000E+02
4932000000.000000      4.133911000000000E-01      2.069336000000000E+01      1.929703000000000E-01      1.584219000000000E+02
4933000000.000000      4.133453000000000E-01      2.035156000000000E+01      1.879044000000000E-01      1.585938000000000E+02
4934000000.000000      4.129486000000000E-01      2.026758000000000E+01      1.849365000000000E-01      1.583672000000000E+02
4935000000.000000      4.141083000000000E-01      2.028613000000000E+01      1.816025000000000E-01      1.586797000000000E+02
4936000000.000000      4.119873000000000E-01      1.987500000000000E+01      1.769104000000000E-01      1.588047000000000E+02
4937000000.000000      4.124298000000000E-01      1.974609000000000E+01      1.731415000000000E-01      1.590703000000000E+02
4938000000.000000      4.115295000000000E-01      1.969922000000000E+01      1.699524000000000E-01      1.593203000000000E+02
4939000000.000000      4.117126000000000E-01      1.966894000000000E+01      1.662445000000000E-01      1.595625000000000E+02
4940000000.000000      4.122925000000000E-01      1.936035000000000E+01      1.620255000000000E-01      1.596953000000000E+02
4941000000.000000      4.126282000000000E-01      1.923633000000000E+01      1.591644000000000E-01      1.603984000000000E+02
4942000000.000000      4.098511000000000E-01      1.908691000000000E+01      1.548843000000000E-01      1.605937000000000E+02
4943000000.000000      4.103546000000000E-01      1.900000000000000E+01      1.516037000000000E-01      1.613125000000000E+02
4944000000.000000      4.112854000000000E-01      1.873535000000000E+01      1.481552000000000E-01      1.619219000000000E+02
4945000000.000000      4.105682000000000E-01      1.856055000000000E+01      1.441727000000000E-01      1.624766000000000E+02
4946000000.000000      4.110870000000000E-01      1.849316000000000E+01      1.410446000000000E-01      1.631562000000000E+02
4947000000.000000      4.098663000000000E-01      1.817187000000000E+01      1.375809000000000E-01      1.641406000000000E+02
4948000000.000000      4.104462000000000E-01      1.813281000000000E+01      1.347427000000000E-01      1.651250000000000E+02
4949000000.000000      4.086609000000000E-01      1.798144000000000E+01      1.323242000000000E-01      1.662031000000000E+02
4950000000.000000      4.096985000000000E-01      1.787988000000000E+01      1.292572000000000E-01      1.670234000000000E+02
4951000000.000000      4.099731000000000E-01      1.758887000000000E+01      1.265106000000000E-01      1.680781000000000E+02
4952000000.000000      4.087067000000000E-01      1.751562000000000E+01      1.238518000000000E-01      1.694297000000000E+02
4953000000.000000      4.082031000000000E-01      1.743066000000000E+01      1.217041000000000E-01      1.708125000000000E+02
4954000000.000000      4.086304000000000E-01      1.713379000000000E+01      1.189117000000000E-01      1.720625000000000E+02
