! Network Analyzer HP8722D
! Hewlett-Packard
! Data name: Linha & Wilkinson
! Saver's name: Rodrigo Anjos
! Comments: Teste da utilização de aquisição
continua pelo VNA HP8722D
! Time and date: 23/5/2025 07:47
!              Frequency                     S11                                                   S21                                                   S12                                                   S22
# HZ  S  MA R 50
4800000000.000000      6.438599000000000E-01      1.054102000000000E+01      4.764557000000000E-01     -9.376562000000000E+01
4801000000.000000      6.414185000000000E-01      1.057666000000000E+01      4.763947000000000E-01     -9.431250000000000E+01
4802000000.000000      6.399536000000000E-01      1.048340000000000E+01      4.769440000000000E-01     -9.514452000000000E+01
4803000000.000000      6.380615000000000E-01      1.056055000000000E+01      4.817963000000000E-01     -9.591015000000000E+01
4804000000.000000      6.351624000000000E-01      1.048779000000000E+01      4.808807000000000E-01     -9.661327000000000E+01
4805000000.000000      6.360779000000000E-01      1.048486000000000E+01      4.848175000000000E-01     -9.739452000000000E+01
4806000000.000000      6.325989000000000E-01      1.044922000000000E+01      4.855804000000000E-01     -9.820313000000000E+01
4807000000.000000      6.309204000000000E-01      1.040527000000000E+01      4.857025000000000E-01     -9.916405000000000E+01
4808000000.000000      6.304626000000000E-01      1.062207000000000E+01      4.856110000000000E-01     -9.963280000000000E+01
4809000000.000000      6.278992000000000E-01      1.059619000000000E+01      4.888916000000000E-01     -1.005351000000000E+02
4810000000.000000      6.271362000000000E-01      1.056738000000000E+01      4.901733000000000E-01     -1.012461000000000E+02
4811000000.000000      6.250916000000000E-01      1.065918000000000E+01      4.919586000000000E-01     -1.019023000000000E+02
4812000000.000000      6.266785000000000E-01      1.090625000000000E+01      4.910736000000000E-01     -1.027812000000000E+02
4813000000.000000      6.218872000000000E-01      1.084863000000000E+01      4.924622000000000E-01     -1.036445000000000E+02
4814000000.000000      6.207886000000000E-01      1.086914000000000E+01      4.943848000000000E-01     -1.042891000000000E+02
4815000000.000000      6.190491000000000E-01      1.092725000000000E+01      4.951172000000000E-01     -1.050781000000000E+02
4816000000.000000      6.211548000000000E-01      1.103955000000000E+01      4.960938000000000E-01     -1.058008000000000E+02
4817000000.000000      6.195068000000000E-01      1.114941000000000E+01      4.955750000000000E-01     -1.065078000000000E+02
4818000000.000000      6.154480000000000E-01      1.116064000000000E+01      4.968414000000000E-01     -1.072812000000000E+02
4819000000.000000      6.163025000000000E-01      1.124268000000000E+01      4.974365000000000E-01     -1.081914000000000E+02
4820000000.000000      6.157532000000000E-01      1.145703000000000E+01      4.971161000000000E-01     -1.085898000000000E+02
4821000000.000000      6.143799000000000E-01      1.144775000000000E+01      4.988403000000000E-01     -1.096328000000000E+02
4822000000.000000      6.122131000000000E-01      1.141602000000000E+01      4.967499000000000E-01     -1.102539000000000E+02
4823000000.000000      6.119995000000000E-01      1.158643000000000E+01      4.986725000000000E-01     -1.111797000000000E+02
4824000000.000000      6.110840000000000E-01      1.179102000000000E+01      4.980621000000000E-01     -1.117226000000000E+02
4825000000.000000      6.107483000000000E-01      1.178516000000000E+01      4.988098000000000E-01     -1.125000000000000E+02
4826000000.000000      6.109314000000000E-01      1.188721000000000E+01      4.990997000000000E-01     -1.133711000000000E+02
4827000000.000000      6.091003000000000E-01      1.207764000000000E+01      4.993896000000000E-01     -1.141367000000000E+02
4828000000.000000      6.114807000000000E-01      1.212158000000000E+01      4.998474000000000E-01     -1.147930000000000E+02
4829000000.000000      6.092529000000000E-01      1.240479000000000E+01      4.987946000000000E-01     -1.156758000000000E+02
4830000000.000000      6.082764000000000E-01      1.247461000000000E+01      4.985657000000000E-01     -1.163984000000000E+02
4831000000.000000      6.077271000000000E-01      1.226318000000000E+01      4.992676000000000E-01     -1.171836000000000E+02
4832000000.000000      6.078796000000000E-01      1.268359000000000E+01      5.003357000000000E-01     -1.177578000000000E+02
4833000000.000000      6.060181000000000E-01      1.258057000000000E+01      4.986572000000000E-01     -1.184336000000000E+02
4834000000.000000      6.063843000000000E-01      1.297852000000000E+01      4.987030000000000E-01     -1.194805000000000E+02
4835000000.000000      6.081543000000000E-01      1.289355000000000E+01      4.988403000000000E-01     -1.201289000000000E+02
4836000000.000000      6.089783000000000E-01      1.310254000000000E+01      4.987793000000000E-01     -1.209023000000000E+02
4837000000.000000      6.071167000000000E-01      1.329346000000000E+01      4.969177000000000E-01     -1.218359000000000E+02
4838000000.000000      6.076965000000000E-01      1.339355000000000E+01      4.976196000000000E-01     -1.225117000000000E+02
4839000000.000000      6.123047000000000E-01      1.336182000000000E+01      4.976196000000000E-01     -1.233008000000000E+02
4840000000.000000      6.089172000000000E-01      1.344580000000000E+01      4.966125000000000E-01     -1.238711000000000E+02
4841000000.000000      6.104431000000000E-01      1.373291000000000E+01      4.951324000000000E-01     -1.250234000000000E+02
4842000000.000000      6.107788000000000E-01      1.373682000000000E+01      4.945374000000000E-01     -1.257891000000000E+02
4843000000.000000      6.136780000000000E-01      1.370801000000000E+01      4.939880000000000E-01     -1.267109000000000E+02
4844000000.000000      6.123352000000000E-01      1.368066000000000E+01      4.936218000000000E-01     -1.274141000000000E+02
4845000000.000000      6.144104000000000E-01      1.393848000000000E+01      4.912415000000000E-01     -1.281406000000000E+02
4846000000.000000      6.146851000000000E-01      1.395801000000000E+01      4.916534000000000E-01     -1.291172000000000E+02
4847000000.000000      6.153259000000000E-01      1.413086000000000E+01      4.895935000000000E-01     -1.298047000000000E+02
4848000000.000000      6.162415000000000E-01      1.409521000000000E+01      4.862366000000000E-01     -1.305391000000000E+02
4849000000.000000      6.167297000000000E-01      1.397461000000000E+01      4.877014000000000E-01     -1.313984000000000E+02
4850000000.000000      6.183777000000000E-01      1.440137000000000E+01      4.844360000000000E-01     -1.323516000000000E+02
4851000000.000000      6.185303000000000E-01      1.433984000000000E+01      4.837341000000000E-01     -1.332422000000000E+02
4852000000.000000      6.201172000000000E-01      1.433398000000000E+01      4.808350000000000E-01     -1.340859000000000E+02
4853000000.000000      6.223450000000000E-01      1.457324000000000E+01      4.760895000000000E-01     -1.350234000000000E+02
4854000000.000000      6.229248000000000E-01      1.447559000000000E+01      4.751434000000000E-01     -1.358594000000000E+02
4855000000.000000      6.226807000000000E-01      1.465820000000000E+01      4.731750000000000E-01     -1.365625000000000E+02
4856000000.000000      6.236877000000000E-01      1.454443000000000E+01      4.703369000000000E-01     -1.375469000000000E+02
4857000000.000000      6.260376000000000E-01      1.463379000000000E+01      4.694672000000000E-01     -1.382031000000000E+02
4858000000.000000      6.266174000000000E-01      1.460205000000000E+01      4.656982000000000E-01     -1.392109000000000E+02
4859000000.000000      6.293335000000000E-01      1.463916000000000E+01      4.620056000000000E-01     -1.400625000000000E+02
4860000000.000000      6.278687000000000E-01      1.469141000000000E+01      4.591675000000000E-01     -1.407969000000000E+02
4861000000.000000      6.305847000000000E-01      1.462549000000000E+01      4.553375000000000E-01     -1.417578000000000E+02
4862000000.000000      6.294250000000000E-01      1.470215000000000E+01      4.533234000000000E-01     -1.423828000000000E+02
4863000000.000000      6.347961000000000E-01      1.474902000000000E+01      4.496765000000000E-01     -1.434687000000000E+02
4864000000.000000      6.348572000000000E-01      1.459082000000000E+01      4.471741000000000E-01     -1.439687000000000E+02
4865000000.000000      6.357117000000000E-01      1.462549000000000E+01      4.415436000000000E-01     -1.447734000000000E+02
4866000000.000000      6.361389000000000E-01      1.460059000000000E+01      4.390717000000000E-01     -1.458359000000000E+02
4867000000.000000      6.359558000000000E-01      1.465820000000000E+01      4.335480000000000E-01     -1.464375000000000E+02
4868000000.000000      6.398315000000000E-01      1.447998000000000E+01      4.305267000000000E-01     -1.472031000000000E+02
4869000000.000000      6.401978000000000E-01      1.455127000000000E+01      4.259644000000000E-01     -1.478359000000000E+02
4870000000.000000      6.402893000000000E-01      1.453760000000000E+01      4.222870000000000E-01     -1.485859000000000E+02
4871000000.000000      6.426086000000000E-01      1.450293000000000E+01      4.182739000000000E-01     -1.493750000000000E+02
4872000000.000000      6.444397000000000E-01      1.449219000000000E+01      4.135590000000000E-01     -1.499766000000000E+02
4873000000.000000      6.452026000000000E-01      1.450293000000000E+01      4.085083000000000E-01     -1.507813000000000E+02
4874000000.000000      6.458130000000000E-01      1.450049000000000E+01      4.049988000000000E-01     -1.514219000000000E+02
4875000000.000000      6.459656000000000E-01      1.444971000000000E+01      3.999481000000000E-01     -1.520156000000000E+02
4876000000.000000      6.494446000000000E-01      1.449463000000000E+01      3.968658000000000E-01     -1.526719000000000E+02
4877000000.000000      6.521301000000000E-01      1.418018000000000E+01      3.923950000000000E-01     -1.534531000000000E+02
4878000000.000000      6.510315000000000E-01      1.427490000000000E+01      3.858490000000000E-01     -1.541172000000000E+02
4879000000.000000      6.534729000000000E-01      1.428467000000000E+01      3.820038000000000E-01     -1.544062000000000E+02
4880000000.000000      6.563721000000000E-01      1.419434000000000E+01      3.784790000000000E-01     -1.550859000000000E+02
4881000000.000000      6.541748000000000E-01      1.432471000000000E+01      3.739014000000000E-01     -1.555938000000000E+02
4882000000.000000      6.564636000000000E-01      1.404736000000000E+01      3.703461000000000E-01     -1.564375000000000E+02
4883000000.000000      6.573181000000000E-01      1.398145000000000E+01      3.634033000000000E-01     -1.568984000000000E+02
4884000000.000000      6.594849000000000E-01      1.391943000000000E+01      3.600769000000000E-01     -1.573281000000000E+02
4885000000.000000      6.596069000000000E-01      1.394531000000000E+01      3.551788000000000E-01     -1.575938000000000E+02
4886000000.000000      6.611938000000000E-01      1.372021000000000E+01      3.514709000000000E-01     -1.581172000000000E+02
4887000000.000000      6.624451000000000E-01      1.376953000000000E+01      3.492584000000000E-01     -1.586562000000000E+02
4888000000.000000      6.641541000000000E-01      1.350879000000000E+01      3.439178000000000E-01     -1.591484000000000E+02
4889000000.000000      6.635742000000000E-01      1.348535000000000E+01      3.391266000000000E-01     -1.595469000000000E+02
4890000000.000000      6.637268000000000E-01      1.330127000000000E+01      3.353271000000000E-01     -1.603125000000000E+02
4891000000.000000      6.661072000000000E-01      1.338232000000000E+01      3.310242000000000E-01     -1.605703000000000E+02
4892000000.000000      6.653748000000000E-01      1.334521000000000E+01      3.274231000000000E-01     -1.608672000000000E+02
4893000000.000000      6.688843000000000E-01      1.316699000000000E+01      3.220520000000000E-01     -1.613047000000000E+02
4894000000.000000      6.679993000000000E-01      1.310645000000000E+01      3.189087000000000E-01     -1.617891000000000E+02
4895000000.000000      6.704712000000000E-01      1.296924000000000E+01      3.168335000000000E-01     -1.619297000000000E+02
4896000000.000000      6.705933000000000E-01      1.272314000000000E+01      3.118744000000000E-01     -1.622969000000000E+02
4897000000.000000      6.704407000000000E-01      1.305713000000000E+01      3.073730000000000E-01     -1.627891000000000E+02
4898000000.000000      6.730347000000000E-01      1.267383000000000E+01      3.050537000000000E-01     -1.630625000000000E+02
4899000000.000000      6.741943000000000E-01      1.266699000000000E+01      3.008118000000000E-01     -1.635000000000000E+02
4900000000.000000      6.742249000000000E-01      1.242822000000000E+01      2.964325000000000E-01     -1.635703000000000E+02
4901000000.000000      6.730347000000000E-01      1.241846000000000E+01      2.934570000000000E-01     -1.639375000000000E+02
4902000000.000000      6.755066000000000E-01      1.228516000000000E+01      2.899475000000000E-01     -1.643437000000000E+02
4903000000.000000      6.771545000000000E-01      1.224951000000000E+01      2.851410000000000E-01     -1.646641000000000E+02
4904000000.000000      6.778564000000000E-01      1.206152000000000E+01      2.820740000000000E-01     -1.650703000000000E+02
4905000000.000000      6.787415000000000E-01      1.196533000000000E+01      2.793884000000000E-01     -1.653437000000000E+02
4906000000.000000      6.787109000000000E-01      1.196240000000000E+01      2.757263000000000E-01     -1.655078000000000E+02
4907000000.000000      6.789246000000000E-01      1.180322000000000E+01      2.723541000000000E-01     -1.659922000000000E+02
4908000000.000000      6.797180000000000E-01      1.161377000000000E+01      2.694397000000000E-01     -1.663281000000000E+02
4909000000.000000      6.807251000000000E-01      1.149707000000000E+01      2.652893000000000E-01     -1.666719000000000E+02
4910000000.000000      6.806030000000000E-01      1.154346000000000E+01      2.621613000000000E-01     -1.670078000000000E+02
4911000000.000000      6.832886000000000E-01      1.137207000000000E+01      2.584076000000000E-01     -1.671094000000000E+02
4912000000.000000      6.839600000000000E-01      1.137207000000000E+01      2.544861000000000E-01     -1.675469000000000E+02
4913000000.000000      6.820679000000000E-01      1.121143000000000E+01      2.512512000000000E-01     -1.676641000000000E+02
4914000000.000000      6.848145000000000E-01      1.106982000000000E+01      2.478561000000000E-01     -1.679375000000000E+02
4915000000.000000      6.842346000000000E-01      1.097510000000000E+01      2.440567000000000E-01     -1.685156000000000E+02
4916000000.000000      6.846619000000000E-01      1.089844000000000E+01      2.403107000000000E-01     -1.687266000000000E+02
4917000000.000000      6.855774000000000E-01      1.070752000000000E+01      2.369614000000000E-01     -1.687656000000000E+02
4918000000.000000      6.878357000000000E-01      1.074854000000000E+01      2.333069000000000E-01     -1.692422000000000E+02
4919000000.000000      6.861267000000000E-01      1.069092000000000E+01      2.296600000000000E-01     -1.691641000000000E+02
4920000000.000000      6.882629000000000E-01      1.046826000000000E+01      2.263107000000000E-01     -1.697578000000000E+02
4921000000.000000      6.895447000000000E-01      1.041504000000000E+01      2.230301000000000E-01     -1.696953000000000E+02
4922000000.000000      6.878967000000000E-01      1.036279000000000E+01      2.187119000000000E-01     -1.698203000000000E+02
4923000000.000000      6.885986000000000E-01      1.021436000000000E+01      2.154922000000000E-01     -1.699297000000000E+02
4924000000.000000      6.899719000000000E-01      1.014697000000000E+01      2.112274000000000E-01     -1.701484000000000E+02
4925000000.000000      6.880798000000000E-01      9.937012000000000E+00      2.082138000000000E-01     -1.701719000000000E+02
4926000000.000000      6.888428000000000E-01      9.858398000000000E+00      2.039642000000000E-01     -1.704766000000000E+02
4927000000.000000      6.907654000000000E-01      9.909668000000000E+00      2.001953000000000E-01     -1.706953000000000E+02
4928000000.000000      6.927795000000000E-01      9.768066000000000E+00      1.964493000000000E-01     -1.706016000000000E+02
4929000000.000000      6.904907000000000E-01      9.638672000000000E+00      1.927490000000000E-01     -1.706328000000000E+02
4930000000.000000      6.905518000000000E-01      9.618164000000000E+00      1.894455000000000E-01     -1.707500000000000E+02
4931000000.000000      6.936340000000000E-01      9.493164000000000E+00      1.856766000000000E-01     -1.706250000000000E+02
4932000000.000000      6.916199000000000E-01      9.233887000000000E+00      1.817017000000000E-01     -1.706094000000000E+02
4933000000.000000      6.958618000000000E-01      9.228516000000000E+00      1.776276000000000E-01     -1.702344000000000E+02
4934000000.000000      6.950989000000000E-01      9.198242000000000E+00      1.741638000000000E-01     -1.706172000000000E+02
4935000000.000000      6.974182000000000E-01      9.103516000000000E+00      1.707230000000000E-01     -1.700703000000000E+02
4936000000.000000      6.935730000000000E-01      8.864258000000000E+00      1.661758000000000E-01     -1.700703000000000E+02
4937000000.000000      6.956482000000000E-01      8.949707000000000E+00      1.632080000000000E-01     -1.698906000000000E+02
4938000000.000000      6.956482000000000E-01      8.789063000000000E+00      1.598740000000000E-01     -1.693984000000000E+02
4939000000.000000      6.964722000000000E-01      8.831543000000000E+00      1.564331000000000E-01     -1.690391000000000E+02
4940000000.000000      6.965332000000000E-01      8.604980000000000E+00      1.521912000000000E-01     -1.687187000000000E+02
4941000000.000000      6.965942000000000E-01      8.499023000000000E+00      1.493530000000000E-01     -1.680859000000000E+02
4942000000.000000      6.959839000000000E-01      8.339844000000000E+00      1.451797000000000E-01     -1.673516000000000E+02
4943000000.000000      6.969910000000000E-01      8.330078000000000E+00      1.423416000000000E-01     -1.668672000000000E+02
4944000000.000000      6.997070000000000E-01      8.194336000000000E+00      1.390457000000000E-01     -1.663125000000000E+02
4945000000.000000      6.987610000000000E-01      8.018555000000000E+00      1.357956000000000E-01     -1.655859000000000E+02
4946000000.000000      7.009583000000000E-01      7.943115000000000E+00      1.330566000000000E-01     -1.645078000000000E+02
4947000000.000000      6.994324000000000E-01      7.893555000000000E+00      1.298523000000000E-01     -1.636641000000000E+02
4948000000.000000      7.015381000000000E-01      7.815186000000000E+00      1.270523000000000E-01     -1.627812000000000E+02
4949000000.000000      7.005310000000000E-01      7.723389000000000E+00      1.246338000000000E-01     -1.614375000000000E+02
4950000000.000000      7.007751000000000E-01      7.826172000000000E+00      1.217003000000000E-01     -1.605078000000000E+02
4951000000.000000      7.033081000000000E-01      7.399170000000000E+00      1.191750000000000E-01     -1.592891000000000E+02
4952000000.000000      7.004089000000000E-01      7.335938000000000E+00      1.166191000000000E-01     -1.579766000000000E+02
4953000000.000000      7.014160000000000E-01      7.232910000000000E+00      1.147423000000000E-01     -1.564219000000000E+02
4954000000.000000      7.038269000000000E-01      7.166992000000000E+00      1.126289000000000E-01     -1.548516000000000E+02
