! Network Analyzer HP8722D
! Hewlett-Packard
! Data name: Linha & Wilkinson
! Saver's name: Rodrigo Anjos
! Comments: Teste da utilização de aquisição
continua pelo VNA HP8722D
! Time and date: 23/5/2025 15:33
!              Frequency                     S11                                                   S21                                                   S12                                                   S22
# HZ  S  MA R 50
4800000000.000000      2.837830000000000E-01      3.984961000000000E+01      4.853363000000000E-01     -1.294531000000000E+02
4801000000.000000      2.852020000000000E-01      4.016992000000000E+01      4.857941000000000E-01     -1.300547000000000E+02
4802000000.000000      2.866669000000000E-01      4.025976000000000E+01      4.871979000000000E-01     -1.305312000000000E+02
4803000000.000000      2.873688000000000E-01      4.056054000000000E+01      4.905853000000000E-01     -1.313984000000000E+02
4804000000.000000      2.885590000000000E-01      4.078515000000000E+01      4.927063000000000E-01     -1.321406000000000E+02
4805000000.000000      2.908173000000000E-01      4.085938000000000E+01      4.954529000000000E-01     -1.328750000000000E+02
4806000000.000000      2.911530000000000E-01      4.111133000000000E+01      4.954071000000000E-01     -1.335703000000000E+02
4807000000.000000      2.924652000000000E-01      4.131836000000000E+01      4.962769000000000E-01     -1.343984000000000E+02
4808000000.000000      2.939758000000000E-01      4.143750000000000E+01      4.988861000000000E-01     -1.349609000000000E+02
4809000000.000000      2.952271000000000E-01      4.169141000000000E+01      4.981384000000000E-01     -1.358281000000000E+02
4810000000.000000      2.970886000000000E-01      4.180273000000000E+01      5.000610000000000E-01     -1.365313000000000E+02
4811000000.000000      2.988586000000000E-01      4.199219000000000E+01      5.012512000000000E-01     -1.373516000000000E+02
4812000000.000000      3.008423000000000E-01      4.212304000000000E+01      5.012512000000000E-01     -1.379844000000000E+02
4813000000.000000      3.020172000000000E-01      4.225586000000000E+01      5.024109000000000E-01     -1.388516000000000E+02
4814000000.000000      3.030548000000000E-01      4.234375000000000E+01      5.038452000000000E-01     -1.394922000000000E+02
4815000000.000000      3.043365000000000E-01      4.239843000000000E+01      5.036926000000000E-01     -1.402422000000000E+02
4816000000.000000      3.070831000000000E-01      4.250390000000000E+01      5.050354000000000E-01     -1.408203000000000E+02
4817000000.000000      3.082733000000000E-01      4.265234000000000E+01      5.056458000000000E-01     -1.416563000000000E+02
4818000000.000000      3.100128000000000E-01      4.265429000000000E+01      5.059814000000000E-01     -1.424062000000000E+02
4819000000.000000      3.121490000000000E-01      4.266992000000000E+01      5.059204000000000E-01     -1.431406000000000E+02
4820000000.000000      3.132629000000000E-01      4.269921000000000E+01      5.056763000000000E-01     -1.437187000000000E+02
4821000000.000000      3.155060000000000E-01      4.276953000000000E+01      5.058899000000000E-01     -1.447500000000000E+02
4822000000.000000      3.166809000000000E-01      4.268555000000000E+01      5.050964000000000E-01     -1.453906000000000E+02
4823000000.000000      3.187408000000000E-01      4.271680000000000E+01      5.067444000000000E-01     -1.459141000000000E+02
4824000000.000000      3.206482000000000E-01      4.282617000000000E+01      5.063782000000000E-01     -1.467891000000000E+02
4825000000.000000      3.226929000000000E-01      4.266211000000000E+01      5.068970000000000E-01     -1.475234000000000E+02
4826000000.000000      3.241882000000000E-01      4.266797000000000E+01      5.070496000000000E-01     -1.483750000000000E+02
4827000000.000000      3.265686000000000E-01      4.269921000000000E+01      5.062561000000000E-01     -1.488906000000000E+02
4828000000.000000      3.286896000000000E-01      4.262109000000000E+01      5.055847000000000E-01     -1.496562000000000E+02
4829000000.000000      3.303070000000000E-01      4.273046000000000E+01      5.057678000000000E-01     -1.503984000000000E+02
4830000000.000000      3.322906000000000E-01      4.248242000000000E+01      5.041199000000000E-01     -1.513203000000000E+02
4831000000.000000      3.331451000000000E-01      4.237109000000000E+01      5.043030000000000E-01     -1.519063000000000E+02
4832000000.000000      3.354797000000000E-01      4.246094000000000E+01      5.030212000000000E-01     -1.525547000000000E+02
4833000000.000000      3.367462000000000E-01      4.215039000000000E+01      5.026855000000000E-01     -1.533125000000000E+02
4834000000.000000      3.385773000000000E-01      4.219140000000000E+01      5.024414000000000E-01     -1.540625000000000E+02
4835000000.000000      3.407440000000000E-01      4.198828000000000E+01      5.013428000000000E-01     -1.546875000000000E+02
4836000000.000000      3.430481000000000E-01      4.195117000000000E+01      5.001221000000000E-01     -1.555000000000000E+02
4837000000.000000      3.440247000000000E-01      4.185937000000000E+01      4.986877000000000E-01     -1.564297000000000E+02
4838000000.000000      3.449707000000000E-01      4.163867000000000E+01      4.981995000000000E-01     -1.566719000000000E+02
4839000000.000000      3.486633000000000E-01      4.158984000000000E+01      4.972382000000000E-01     -1.574844000000000E+02
4840000000.000000      3.492889000000000E-01      4.129687000000000E+01      4.963684000000000E-01     -1.583359000000000E+02
4841000000.000000      3.513336000000000E-01      4.126953000000000E+01      4.941864000000000E-01     -1.590469000000000E+02
4842000000.000000      3.525543000000000E-01      4.108984000000000E+01      4.929199000000000E-01     -1.597031000000000E+02
4843000000.000000      3.553619000000000E-01      4.070898000000000E+01      4.931183000000000E-01     -1.605078000000000E+02
4844000000.000000      3.558502000000000E-01      4.064843000000000E+01      4.893494000000000E-01     -1.612109000000000E+02
4845000000.000000      3.578186000000000E-01      4.060937000000000E+01      4.886475000000000E-01     -1.616719000000000E+02
4846000000.000000      3.595123000000000E-01      4.034961000000000E+01      4.877930000000000E-01     -1.625859000000000E+02
4847000000.000000      3.609009000000000E-01      4.017774000000000E+01      4.861908000000000E-01     -1.630234000000000E+02
4848000000.000000      3.619232000000000E-01      3.986523000000000E+01      4.818726000000000E-01     -1.639062000000000E+02
4849000000.000000      3.632050000000000E-01      3.964648000000000E+01      4.824829000000000E-01     -1.648438000000000E+02
4850000000.000000      3.649292000000000E-01      3.950781000000000E+01      4.807892000000000E-01     -1.653906000000000E+02
4851000000.000000      3.666687000000000E-01      3.934570000000000E+01      4.801178000000000E-01     -1.661953000000000E+02
4852000000.000000      3.669891000000000E-01      3.910937000000000E+01      4.775238000000000E-01     -1.667109000000000E+02
4853000000.000000      3.689423000000000E-01      3.890429000000000E+01      4.731598000000000E-01     -1.675156000000000E+02
4854000000.000000      3.702850000000000E-01      3.862109000000000E+01      4.725647000000000E-01     -1.683594000000000E+02
4855000000.000000      3.709106000000000E-01      3.833398000000000E+01      4.694977000000000E-01     -1.689297000000000E+02
4856000000.000000      3.727722000000000E-01      3.812500000000000E+01      4.683533000000000E-01     -1.697500000000000E+02
4857000000.000000      3.739166000000000E-01      3.790039000000000E+01      4.672546000000000E-01     -1.702578000000000E+02
4858000000.000000      3.743896000000000E-01      3.761328000000000E+01      4.637299000000000E-01     -1.710391000000000E+02
4859000000.000000      3.763275000000000E-01      3.737500000000000E+01      4.606018000000000E-01     -1.717656000000000E+02
4860000000.000000      3.770447000000000E-01      3.726953000000000E+01      4.582367000000000E-01     -1.722344000000000E+02
4861000000.000000      3.778229000000000E-01      3.695117000000000E+01      4.559479000000000E-01     -1.733125000000000E+02
4862000000.000000      3.785553000000000E-01      3.658008000000000E+01      4.535675000000000E-01     -1.734922000000000E+02
4863000000.000000      3.805237000000000E-01      3.654687000000000E+01      4.496460000000000E-01     -1.743672000000000E+02
4864000000.000000      3.808594000000000E-01      3.608984000000000E+01      4.474945000000000E-01     -1.749609000000000E+02
4865000000.000000      3.815613000000000E-01      3.584375000000000E+01      4.454651000000000E-01     -1.758750000000000E+02
4866000000.000000      3.820801000000000E-01      3.558594000000000E+01      4.412994000000000E-01     -1.763984000000000E+02
4867000000.000000      3.820038000000000E-01      3.534570000000000E+01      4.390411000000000E-01     -1.771484000000000E+02
4868000000.000000      3.844299000000000E-01      3.505664000000000E+01      4.360809000000000E-01     -1.776953000000000E+02
4869000000.000000      3.842621000000000E-01      3.484570000000000E+01      4.327087000000000E-01     -1.783359000000000E+02
4870000000.000000      3.853607000000000E-01      3.452343000000000E+01      4.281921000000000E-01     -1.787266000000000E+02
4871000000.000000      3.854065000000000E-01      3.416992000000000E+01      4.259949000000000E-01     -1.796641000000000E+02
4872000000.000000      3.872833000000000E-01      3.408008000000000E+01      4.220123000000000E-01      1.799531000000000E+02
4873000000.000000      3.869476000000000E-01      3.378906000000000E+01      4.192505000000000E-01      1.789375000000000E+02
4874000000.000000      3.874817000000000E-01      3.354101000000000E+01      4.164276000000000E-01      1.786641000000000E+02
4875000000.000000      3.883667000000000E-01      3.310547000000000E+01      4.111176000000000E-01      1.779453000000000E+02
4876000000.000000      3.890381000000000E-01      3.306055000000000E+01      4.100952000000000E-01      1.774375000000000E+02
4877000000.000000      3.896332000000000E-01      3.263281000000000E+01      4.067535000000000E-01      1.768203000000000E+02
4878000000.000000      3.891144000000000E-01      3.240234000000000E+01      4.027100000000000E-01      1.761406000000000E+02
4879000000.000000      3.904877000000000E-01      3.231054000000000E+01      3.978577000000000E-01      1.757109000000000E+02
4880000000.000000      3.911591000000000E-01      3.184473000000000E+01      3.949432000000000E-01      1.751406000000000E+02
4881000000.000000      3.900757000000000E-01      3.169140000000000E+01      3.910675000000000E-01      1.746719000000000E+02
4882000000.000000      3.909912000000000E-01      3.140820000000000E+01      3.880157000000000E-01      1.740000000000000E+02
4883000000.000000      3.909302000000000E-01      3.115820000000000E+01      3.849335000000000E-01      1.735312000000000E+02
4884000000.000000      3.917084000000000E-01      3.096875000000000E+01      3.811951000000000E-01      1.728984000000000E+02
4885000000.000000      3.921814000000000E-01      3.066797000000000E+01      3.771820000000000E-01      1.725781000000000E+02
4886000000.000000      3.922272000000000E-01      3.046582000000000E+01      3.737793000000000E-01      1.721250000000000E+02
4887000000.000000      3.913269000000000E-01      3.023242000000000E+01      3.705444000000000E-01      1.715859000000000E+02
4888000000.000000      3.921204000000000E-01      2.970215000000000E+01      3.670044000000000E-01      1.709453000000000E+02
4889000000.000000      3.917236000000000E-01      2.964355000000000E+01      3.640900000000000E-01      1.708828000000000E+02
4890000000.000000      3.907623000000000E-01      2.922070000000000E+01      3.580017000000000E-01      1.698984000000000E+02
4891000000.000000      3.917847000000000E-01      2.926953000000000E+01      3.560638000000000E-01      1.696484000000000E+02
4892000000.000000      3.905792000000000E-01      2.906152000000000E+01      3.522186000000000E-01      1.692344000000000E+02
4893000000.000000      3.928528000000000E-01      2.868847000000000E+01      3.493042000000000E-01      1.684766000000000E+02
4894000000.000000      3.911743000000000E-01      2.841113000000000E+01      3.453674000000000E-01      1.683125000000000E+02
4895000000.000000      3.923645000000000E-01      2.822656000000000E+01      3.435516000000000E-01      1.680625000000000E+02
4896000000.000000      3.911896000000000E-01      2.796387000000000E+01      3.375854000000000E-01      1.674297000000000E+02
4897000000.000000      3.910675000000000E-01      2.784180000000000E+01      3.346252000000000E-01      1.671094000000000E+02
4898000000.000000      3.910675000000000E-01      2.758301000000000E+01      3.327484000000000E-01      1.666563000000000E+02
4899000000.000000      3.908539000000000E-01      2.741894000000000E+01      3.273621000000000E-01      1.662109000000000E+02
4900000000.000000      3.905334000000000E-01      2.700976000000000E+01      3.245697000000000E-01      1.658906000000000E+02
4901000000.000000      3.907318000000000E-01      2.683887000000000E+01      3.209686000000000E-01      1.653437000000000E+02
4902000000.000000      3.903656000000000E-01      2.659570000000000E+01      3.188171000000000E-01      1.650547000000000E+02
4903000000.000000      3.910828000000000E-01      2.652832000000000E+01      3.136902000000000E-01      1.644844000000000E+02
4904000000.000000      3.906403000000000E-01      2.612109000000000E+01      3.106232000000000E-01      1.642812000000000E+02
4905000000.000000      3.895264000000000E-01      2.601074000000000E+01      3.078461000000000E-01      1.639297000000000E+02
4906000000.000000      3.891296000000000E-01      2.585058000000000E+01      3.040619000000000E-01      1.635937000000000E+02
4907000000.000000      3.894043000000000E-01      2.548633000000000E+01      3.005219000000000E-01      1.630547000000000E+02
4908000000.000000      3.896179000000000E-01      2.537695000000000E+01      2.979736000000000E-01      1.626797000000000E+02
4909000000.000000      3.888092000000000E-01      2.518945000000000E+01      2.930908000000000E-01      1.622969000000000E+02
4910000000.000000      3.885651000000000E-01      2.494238000000000E+01      2.902069000000000E-01      1.619141000000000E+02
4911000000.000000      3.893890000000000E-01      2.477734000000000E+01      2.869415000000000E-01      1.616406000000000E+02
4912000000.000000      3.875427000000000E-01      2.460644000000000E+01      2.833252000000000E-01      1.610547000000000E+02
4913000000.000000      3.887787000000000E-01      2.446289000000000E+01      2.800598000000000E-01      1.608750000000000E+02
4914000000.000000      3.873749000000000E-01      2.421093000000000E+01      2.762299000000000E-01      1.605937000000000E+02
4915000000.000000      3.872375000000000E-01      2.395801000000000E+01      2.721558000000000E-01      1.599922000000000E+02
4916000000.000000      3.877106000000000E-01      2.382324000000000E+01      2.685089000000000E-01      1.595937000000000E+02
4917000000.000000      3.870392000000000E-01      2.374414000000000E+01      2.655029000000000E-01      1.593672000000000E+02
4918000000.000000      3.869629000000000E-01      2.346191000000000E+01      2.610931000000000E-01      1.589687000000000E+02
4919000000.000000      3.864746000000000E-01      2.324707000000000E+01      2.577209000000000E-01      1.588672000000000E+02
4920000000.000000      3.874817000000000E-01      2.308984000000000E+01      2.532043000000000E-01      1.583203000000000E+02
4921000000.000000      3.854065000000000E-01      2.302929000000000E+01      2.503052000000000E-01      1.580781000000000E+02
4922000000.000000      3.856964000000000E-01      2.261719000000000E+01      2.462387000000000E-01      1.579141000000000E+02
4923000000.000000      3.859253000000000E-01      2.259277000000000E+01      2.420883000000000E-01      1.577734000000000E+02
4924000000.000000      3.847504000000000E-01      2.249023000000000E+01      2.374725000000000E-01      1.572656000000000E+02
4925000000.000000      3.845062000000000E-01      2.223437000000000E+01      2.339401000000000E-01      1.572734000000000E+02
4926000000.000000      3.837738000000000E-01      2.212305000000000E+01      2.306519000000000E-01      1.567734000000000E+02
4927000000.000000      3.851013000000000E-01      2.177734000000000E+01      2.255020000000000E-01      1.568438000000000E+02
4928000000.000000      3.855438000000000E-01      2.185449000000000E+01      2.219696000000000E-01      1.565312000000000E+02
4929000000.000000      3.841400000000000E-01      2.149707000000000E+01      2.170029000000000E-01      1.563203000000000E+02
4930000000.000000      3.832245000000000E-01      2.141308000000000E+01      2.141418000000000E-01      1.561563000000000E+02
4931000000.000000      3.824310000000000E-01      2.114551000000000E+01      2.104950000000000E-01      1.561563000000000E+02
4932000000.000000      3.833618000000000E-01      2.091015000000000E+01      2.060318000000000E-01      1.560703000000000E+02
4933000000.000000      3.829956000000000E-01      2.076465000000000E+01      2.012634000000000E-01      1.561563000000000E+02
4934000000.000000      3.832245000000000E-01      2.055762000000000E+01      1.977539000000000E-01      1.561406000000000E+02
4935000000.000000      3.832245000000000E-01      2.040137000000000E+01      1.936417000000000E-01      1.563281000000000E+02
4936000000.000000      3.827057000000000E-01      2.030957000000000E+01      1.896362000000000E-01      1.560937000000000E+02
4937000000.000000      3.826447000000000E-01      1.998047000000000E+01      1.852875000000000E-01      1.563437000000000E+02
4938000000.000000      3.808441000000000E-01      2.000977000000000E+01      1.813812000000000E-01      1.565234000000000E+02
4939000000.000000      3.805542000000000E-01      1.972949000000000E+01      1.779022000000000E-01      1.568438000000000E+02
4940000000.000000      3.816681000000000E-01      1.945801000000000E+01      1.734619000000000E-01      1.568594000000000E+02
4941000000.000000      3.810730000000000E-01      1.934668000000000E+01      1.698837000000000E-01      1.573594000000000E+02
4942000000.000000      3.802185000000000E-01      1.926270000000000E+01      1.661148000000000E-01      1.579062000000000E+02
4943000000.000000      3.798828000000000E-01      1.921191000000000E+01      1.615906000000000E-01      1.582187000000000E+02
4944000000.000000      3.797302000000000E-01      1.896777000000000E+01      1.582870000000000E-01      1.586797000000000E+02
4945000000.000000      3.798065000000000E-01      1.867090000000000E+01      1.544342000000000E-01      1.593750000000000E+02
4946000000.000000      3.795776000000000E-01      1.861133000000000E+01      1.507416000000000E-01      1.599297000000000E+02
4947000000.000000      3.790283000000000E-01      1.835058000000000E+01      1.473160000000000E-01      1.606562000000000E+02
4948000000.000000      3.794098000000000E-01      1.832520000000000E+01      1.438675000000000E-01      1.613828000000000E+02
4949000000.000000      3.779449000000000E-01      1.818555000000000E+01      1.411362000000000E-01      1.625781000000000E+02
4950000000.000000      3.786163000000000E-01      1.810644000000000E+01      1.373367000000000E-01      1.632813000000000E+02
4951000000.000000      3.772888000000000E-01      1.778320000000000E+01      1.345367000000000E-01      1.643750000000000E+02
4952000000.000000      3.770294000000000E-01      1.762695000000000E+01      1.315155000000000E-01      1.654453000000000E+02
4953000000.000000      3.767700000000000E-01      1.740625000000000E+01      1.290741000000000E-01      1.667656000000000E+02
4954000000.000000      3.769226000000000E-01      1.726465000000000E+01      1.264038000000000E-01      1.680703000000000E+02
