! Network Analyzer HP8722D
! Hewlett-Packard
! Data name: Linha & Wilkinson
! Saver's name: Rodrigo Anjos
! Comments: Teste da utilização de aquisição
continua pelo VNA HP8722D
! Time and date: 23/5/2025 12:51
!              Frequency                     S11                                                   S21                                                   S12                                                   S22
# HZ  S  MA R 50
4800000000.000000      2.887573000000000E-01      3.950000000000000E+01      4.836426000000000E-01     -1.296719000000000E+02
4801000000.000000      2.903595000000000E-01      3.991211000000000E+01      4.832611000000000E-01     -1.301719000000000E+02
4802000000.000000      2.916260000000000E-01      4.003906000000000E+01      4.862061000000000E-01     -1.308516000000000E+02
4803000000.000000      2.923431000000000E-01      4.020312000000000E+01      4.884491000000000E-01     -1.315469000000000E+02
4804000000.000000      2.934265000000000E-01      4.041016000000000E+01      4.899902000000000E-01     -1.323281000000000E+02
4805000000.000000      2.955933000000000E-01      4.053124000000000E+01      4.915466000000000E-01     -1.330625000000000E+02
4806000000.000000      2.964020000000000E-01      4.071679000000000E+01      4.926605000000000E-01     -1.339297000000000E+02
4807000000.000000      2.976227000000000E-01      4.091406000000000E+01      4.941711000000000E-01     -1.345312000000000E+02
4808000000.000000      2.986755000000000E-01      4.099805000000000E+01      4.945984000000000E-01     -1.351641000000000E+02
4809000000.000000      3.001862000000000E-01      4.128906000000000E+01      4.957886000000000E-01     -1.359844000000000E+02
4810000000.000000      3.020630000000000E-01      4.142383000000000E+01      4.978943000000000E-01     -1.366250000000000E+02
4811000000.000000      3.036499000000000E-01      4.152929000000000E+01      4.992065000000000E-01     -1.375703000000000E+02
4812000000.000000      3.058929000000000E-01      4.164453000000000E+01      4.993439000000000E-01     -1.382109000000000E+02
4813000000.000000      3.066254000000000E-01      4.179688000000000E+01      5.003052000000000E-01     -1.389766000000000E+02
4814000000.000000      3.076324000000000E-01      4.184179000000000E+01      5.002441000000000E-01     -1.396484000000000E+02
4815000000.000000      3.095245000000000E-01      4.200000000000000E+01      5.014343000000000E-01     -1.404453000000000E+02
4816000000.000000      3.120575000000000E-01      4.212304000000000E+01      5.014648000000000E-01     -1.411250000000000E+02
4817000000.000000      3.135681000000000E-01      4.212110000000000E+01      5.022278000000000E-01     -1.420859000000000E+02
4818000000.000000      3.152771000000000E-01      4.212891000000000E+01      5.024719000000000E-01     -1.425781000000000E+02
4819000000.000000      3.169250000000000E-01      4.223242000000000E+01      5.026550000000000E-01     -1.432578000000000E+02
4820000000.000000      3.178253000000000E-01      4.224999000000000E+01      5.018921000000000E-01     -1.438906000000000E+02
4821000000.000000      3.204498000000000E-01      4.228320000000000E+01      5.049744000000000E-01     -1.449219000000000E+02
4822000000.000000      3.219604000000000E-01      4.220312000000000E+01      5.023499000000000E-01     -1.455312000000000E+02
4823000000.000000      3.238220000000000E-01      4.220117000000000E+01      5.039978000000000E-01     -1.463125000000000E+02
4824000000.000000      3.256989000000000E-01      4.233984000000000E+01      5.028381000000000E-01     -1.471406000000000E+02
4825000000.000000      3.278503000000000E-01      4.213476000000000E+01      5.028992000000000E-01     -1.478047000000000E+02
4826000000.000000      3.289948000000000E-01      4.220703000000000E+01      5.020447000000000E-01     -1.485625000000000E+02
4827000000.000000      3.310089000000000E-01      4.212891000000000E+01      5.028381000000000E-01     -1.492344000000000E+02
4828000000.000000      3.334198000000000E-01      4.206445000000000E+01      5.021362000000000E-01     -1.498984000000000E+02
4829000000.000000      3.347015000000000E-01      4.218359000000000E+01      5.010376000000000E-01     -1.507813000000000E+02
4830000000.000000      3.370209000000000E-01      4.196679000000000E+01      5.016785000000000E-01     -1.513281000000000E+02
4831000000.000000      3.382874000000000E-01      4.182813000000000E+01      4.987030000000000E-01     -1.520859000000000E+02
4832000000.000000      3.399811000000000E-01      4.181445000000000E+01      4.991760000000000E-01     -1.527344000000000E+02
4833000000.000000      3.411407000000000E-01      4.165429000000000E+01      4.982910000000000E-01     -1.534219000000000E+02
4834000000.000000      3.431244000000000E-01      4.155273000000000E+01      4.973297000000000E-01     -1.543047000000000E+02
4835000000.000000      3.454132000000000E-01      4.143750000000000E+01      4.981384000000000E-01     -1.550390000000000E+02
4836000000.000000      3.474121000000000E-01      4.140038000000000E+01      4.957733000000000E-01     -1.556015000000000E+02
4837000000.000000      3.485718000000000E-01      4.141406000000000E+01      4.928589000000000E-01     -1.565859000000000E+02
4838000000.000000      3.498688000000000E-01      4.109571000000000E+01      4.942322000000000E-01     -1.570391000000000E+02
4839000000.000000      3.532410000000000E-01      4.103711000000000E+01      4.925232000000000E-01     -1.577188000000000E+02
4840000000.000000      3.536224000000000E-01      4.079297000000000E+01      4.916840000000000E-01     -1.585938000000000E+02
4841000000.000000      3.557434000000000E-01      4.075781000000000E+01      4.899139000000000E-01     -1.593125000000000E+02
4842000000.000000      3.567963000000000E-01      4.046484000000000E+01      4.900055000000000E-01     -1.600000000000000E+02
4843000000.000000      3.596649000000000E-01      4.020508000000000E+01      4.895020000000000E-01     -1.608594000000000E+02
4844000000.000000      3.601379000000000E-01      4.006249000000000E+01      4.861908000000000E-01     -1.614141000000000E+02
4845000000.000000      3.621521000000000E-01      3.998437000000000E+01      4.843903000000000E-01     -1.621250000000000E+02
4846000000.000000      3.635254000000000E-01      3.972265000000000E+01      4.833221000000000E-01     -1.629844000000000E+02
4847000000.000000      3.649445000000000E-01      3.963867000000000E+01      4.808350000000000E-01     -1.636641000000000E+02
4848000000.000000      3.658600000000000E-01      3.938281000000000E+01      4.792786000000000E-01     -1.640625000000000E+02
4849000000.000000      3.674011000000000E-01      3.904492000000000E+01      4.787750000000000E-01     -1.649297000000000E+02
4850000000.000000      3.687897000000000E-01      3.885156000000000E+01      4.772949000000000E-01     -1.656563000000000E+02
4851000000.000000      3.705444000000000E-01      3.887500000000000E+01      4.760895000000000E-01     -1.663828000000000E+02
4852000000.000000      3.719940000000000E-01      3.858203000000000E+01      4.738159000000000E-01     -1.670938000000000E+02
4853000000.000000      3.731079000000000E-01      3.833593000000000E+01      4.684448000000000E-01     -1.678828000000000E+02
4854000000.000000      3.739929000000000E-01      3.807617000000000E+01      4.683228000000000E-01     -1.684844000000000E+02
4855000000.000000      3.753662000000000E-01      3.789844000000000E+01      4.655151000000000E-01     -1.690469000000000E+02
4856000000.000000      3.758850000000000E-01      3.758398000000000E+01      4.641113000000000E-01     -1.698281000000000E+02
4857000000.000000      3.774567000000000E-01      3.744336000000000E+01      4.616547000000000E-01     -1.704297000000000E+02
4858000000.000000      3.782196000000000E-01      3.705273000000000E+01      4.589081000000000E-01     -1.712344000000000E+02
4859000000.000000      3.794708000000000E-01      3.683008000000000E+01      4.562073000000000E-01     -1.719766000000000E+02
4860000000.000000      3.802948000000000E-01      3.676562000000000E+01      4.528503000000000E-01     -1.726641000000000E+02
4861000000.000000      3.819733000000000E-01      3.637109000000000E+01      4.507904000000000E-01     -1.733203000000000E+02
4862000000.000000      3.824463000000000E-01      3.615039000000000E+01      4.490051000000000E-01     -1.739766000000000E+02
4863000000.000000      3.835754000000000E-01      3.598047000000000E+01      4.448090000000000E-01     -1.746953000000000E+02
4864000000.000000      3.843842000000000E-01      3.566015000000000E+01      4.440002000000000E-01     -1.752500000000000E+02
4865000000.000000      3.848267000000000E-01      3.541406000000000E+01      4.410858000000000E-01     -1.760078000000000E+02
4866000000.000000      3.858185000000000E-01      3.497851000000000E+01      4.368134000000000E-01     -1.767266000000000E+02
4867000000.000000      3.861542000000000E-01      3.485937000000000E+01      4.336548000000000E-01     -1.772812000000000E+02
4868000000.000000      3.869476000000000E-01      3.457031000000000E+01      4.312592000000000E-01     -1.780000000000000E+02
4869000000.000000      3.880157000000000E-01      3.430273000000000E+01      4.288330000000000E-01     -1.785703000000000E+02
4870000000.000000      3.890228000000000E-01      3.420703000000000E+01      4.246674000000000E-01     -1.790313000000000E+02
4871000000.000000      3.889313000000000E-01      3.376172000000000E+01      4.200287000000000E-01     -1.797734000000000E+02
4872000000.000000      3.902435000000000E-01      3.353125000000000E+01      4.181213000000000E-01      1.798750000000000E+02
4873000000.000000      3.905945000000000E-01      3.344336000000000E+01      4.154968000000000E-01      1.788203000000000E+02
4874000000.000000      3.904114000000000E-01      3.304688000000000E+01      4.111786000000000E-01      1.782422000000000E+02
4875000000.000000      3.913269000000000E-01      3.270508000000000E+01      4.055176000000000E-01      1.779766000000000E+02
4876000000.000000      3.924103000000000E-01      3.259766000000000E+01      4.042053000000000E-01      1.771016000000000E+02
4877000000.000000      3.937683000000000E-01      3.220312000000000E+01      4.007111000000000E-01      1.766094000000000E+02
4878000000.000000      3.926239000000000E-01      3.204687000000000E+01      3.965607000000000E-01      1.760625000000000E+02
4879000000.000000      3.939362000000000E-01      3.180176000000000E+01      3.909302000000000E-01      1.755859000000000E+02
4880000000.000000      3.946228000000000E-01      3.138184000000000E+01      3.899689000000000E-01      1.748828000000000E+02
4881000000.000000      3.939362000000000E-01      3.132813000000000E+01      3.864136000000000E-01      1.745000000000000E+02
4882000000.000000      3.948517000000000E-01      3.105664000000000E+01      3.833923000000000E-01      1.739531000000000E+02
4883000000.000000      3.941498000000000E-01      3.071484000000000E+01      3.793182000000000E-01      1.733516000000000E+02
4884000000.000000      3.956909000000000E-01      3.050976000000000E+01      3.751831000000000E-01      1.728516000000000E+02
4885000000.000000      3.946991000000000E-01      3.022949000000000E+01      3.727264000000000E-01      1.723906000000000E+02
4886000000.000000      3.954926000000000E-01      3.008594000000000E+01      3.687592000000000E-01      1.721172000000000E+02
4887000000.000000      3.951263000000000E-01      2.983105000000000E+01      3.651733000000000E-01      1.714766000000000E+02
4888000000.000000      3.951416000000000E-01      2.952343000000000E+01      3.615417000000000E-01      1.708594000000000E+02
4889000000.000000      3.957367000000000E-01      2.928808000000000E+01      3.571625000000000E-01      1.704844000000000E+02
4890000000.000000      3.946686000000000E-01      2.908398000000000E+01      3.546600000000000E-01      1.697813000000000E+02
4891000000.000000      3.960571000000000E-01      2.869141000000000E+01      3.506165000000000E-01      1.694531000000000E+02
4892000000.000000      3.943634000000000E-01      2.849707000000000E+01      3.457336000000000E-01      1.690078000000000E+02
4893000000.000000      3.954163000000000E-01      2.835938000000000E+01      3.432770000000000E-01      1.684609000000000E+02
4894000000.000000      3.946991000000000E-01      2.819433000000000E+01      3.406982000000000E-01      1.681406000000000E+02
4895000000.000000      3.958130000000000E-01      2.794336000000000E+01      3.372650000000000E-01      1.677500000000000E+02
4896000000.000000      3.950348000000000E-01      2.767285000000000E+01      3.323669000000000E-01      1.674531000000000E+02
4897000000.000000      3.942871000000000E-01      2.739941000000000E+01      3.298035000000000E-01      1.667969000000000E+02
4898000000.000000      3.949432000000000E-01      2.713964000000000E+01      3.264771000000000E-01      1.666797000000000E+02
4899000000.000000      3.945160000000000E-01      2.703711000000000E+01      3.229370000000000E-01      1.661406000000000E+02
4900000000.000000      3.938751000000000E-01      2.670703000000000E+01      3.198395000000000E-01      1.656250000000000E+02
4901000000.000000      3.941650000000000E-01      2.661133000000000E+01      3.164063000000000E-01      1.654922000000000E+02
4902000000.000000      3.943939000000000E-01      2.626758000000000E+01      3.132477000000000E-01      1.651016000000000E+02
4903000000.000000      3.940887000000000E-01      2.624023000000000E+01      3.088837000000000E-01      1.645937000000000E+02
4904000000.000000      3.936615000000000E-01      2.590137000000000E+01      3.054657000000000E-01      1.641172000000000E+02
4905000000.000000      3.941956000000000E-01      2.564160000000000E+01      3.029327000000000E-01      1.638672000000000E+02
4906000000.000000      3.927155000000000E-01      2.549902000000000E+01      2.993774000000000E-01      1.637187000000000E+02
4907000000.000000      3.930206000000000E-01      2.532324000000000E+01      2.963409000000000E-01      1.631094000000000E+02
4908000000.000000      3.930969000000000E-01      2.507813000000000E+01      2.932281000000000E-01      1.625703000000000E+02
4909000000.000000      3.920288000000000E-01      2.493945000000000E+01      2.890930000000000E-01      1.622109000000000E+02
4910000000.000000      3.926392000000000E-01      2.469727000000000E+01      2.856598000000000E-01      1.620703000000000E+02
4911000000.000000      3.928070000000000E-01      2.455761000000000E+01      2.819977000000000E-01      1.615313000000000E+02
4912000000.000000      3.912048000000000E-01      2.436718000000000E+01      2.792358000000000E-01      1.610312000000000E+02
4913000000.000000      3.919525000000000E-01      2.418848000000000E+01      2.749329000000000E-01      1.609297000000000E+02
4914000000.000000      3.911896000000000E-01      2.395898000000000E+01      2.707367000000000E-01      1.606953000000000E+02
4915000000.000000      3.907623000000000E-01      2.378222000000000E+01      2.675629000000000E-01      1.600234000000000E+02
4916000000.000000      3.908234000000000E-01      2.358301000000000E+01      2.632751000000000E-01      1.596406000000000E+02
4917000000.000000      3.907318000000000E-01      2.342773000000000E+01      2.597809000000000E-01      1.595625000000000E+02
4918000000.000000      3.904572000000000E-01      2.310937000000000E+01      2.556305000000000E-01      1.590234000000000E+02
4919000000.000000      3.892517000000000E-01      2.306836000000000E+01      2.529449000000000E-01      1.590625000000000E+02
4920000000.000000      3.907928000000000E-01      2.284570000000000E+01      2.481613000000000E-01      1.584375000000000E+02
4921000000.000000      3.897705000000000E-01      2.270996000000000E+01      2.454300000000000E-01      1.583437000000000E+02
4922000000.000000      3.898010000000000E-01      2.256640000000000E+01      2.411346000000000E-01      1.581953000000000E+02
4923000000.000000      3.884888000000000E-01      2.252441000000000E+01      2.366943000000000E-01      1.577812000000000E+02
4924000000.000000      3.892212000000000E-01      2.217090000000000E+01      2.332458000000000E-01      1.574375000000000E+02
4925000000.000000      3.889465000000000E-01      2.205078000000000E+01      2.298584000000000E-01      1.574297000000000E+02
4926000000.000000      3.879852000000000E-01      2.187891000000000E+01      2.254486000000000E-01      1.570937000000000E+02
4927000000.000000      3.880157000000000E-01      2.166894000000000E+01      2.212219000000000E-01      1.569766000000000E+02
4928000000.000000      3.886566000000000E-01      2.137988000000000E+01      2.172241000000000E-01      1.570078000000000E+02
4929000000.000000      3.877716000000000E-01      2.122265000000000E+01      2.127075000000000E-01      1.567500000000000E+02
4930000000.000000      3.877106000000000E-01      2.118652000000000E+01      2.097015000000000E-01      1.567031000000000E+02
4931000000.000000      3.864899000000000E-01      2.092187000000000E+01      2.060165000000000E-01      1.565000000000000E+02
4932000000.000000      3.868103000000000E-01      2.078808000000000E+01      2.014771000000000E-01      1.565000000000000E+02
4933000000.000000      3.869629000000000E-01      2.062109000000000E+01      1.964951000000000E-01      1.567500000000000E+02
4934000000.000000      3.858032000000000E-01      2.044824000000000E+01      1.930237000000000E-01      1.565625000000000E+02
4935000000.000000      3.866730000000000E-01      2.027344000000000E+01      1.902313000000000E-01      1.569453000000000E+02
4936000000.000000      3.854523000000000E-01      2.005078000000000E+01      1.851578000000000E-01      1.568750000000000E+02
4937000000.000000      3.854675000000000E-01      1.990137000000000E+01      1.812820000000000E-01      1.569453000000000E+02
4938000000.000000      3.847809000000000E-01      1.980762000000000E+01      1.777573000000000E-01      1.573750000000000E+02
4939000000.000000      3.845367000000000E-01      1.954297000000000E+01      1.737900000000000E-01      1.573594000000000E+02
4940000000.000000      3.848267000000000E-01      1.947266000000000E+01      1.696472000000000E-01      1.577266000000000E+02
4941000000.000000      3.853149000000000E-01      1.922559000000000E+01      1.659698000000000E-01      1.580859000000000E+02
4942000000.000000      3.834381000000000E-01      1.911133000000000E+01      1.618500000000000E-01      1.586406000000000E+02
4943000000.000000      3.845978000000000E-01      1.900879000000000E+01      1.585007000000000E-01      1.589922000000000E+02
4944000000.000000      3.837433000000000E-01      1.870508000000000E+01      1.545410000000000E-01      1.597422000000000E+02
4945000000.000000      3.832397000000000E-01      1.858691000000000E+01      1.512451000000000E-01      1.603594000000000E+02
4946000000.000000      3.832245000000000E-01      1.837598000000000E+01      1.476135000000000E-01      1.607031000000000E+02
4947000000.000000      3.830261000000000E-01      1.828613000000000E+01      1.443176000000000E-01      1.617578000000000E+02
4948000000.000000      3.827209000000000E-01      1.820703000000000E+01      1.412811000000000E-01      1.625547000000000E+02
4949000000.000000      3.812408000000000E-01      1.789746000000000E+01      1.378250000000000E-01      1.636172000000000E+02
4950000000.000000      3.827515000000000E-01      1.787109000000000E+01      1.345062000000000E-01      1.645469000000000E+02
4951000000.000000      3.809357000000000E-01      1.760644000000000E+01      1.321564000000000E-01      1.654687000000000E+02
4952000000.000000      3.818665000000000E-01      1.746777000000000E+01      1.290894000000000E-01      1.667266000000000E+02
4953000000.000000      3.802032000000000E-01      1.721484000000000E+01      1.265564000000000E-01      1.683516000000000E+02
4954000000.000000      3.806305000000000E-01      1.720703000000000E+01      1.245499000000000E-01      1.696953000000000E+02
