! Network Analyzer HP8722D
! Hewlett-Packard
! Data name: Linha & Wilkinson
! Saver's name: Rodrigo Anjos
! Comments: Teste da utilização de aquisição
continua pelo VNA HP8722D
! Time and date: 23/5/2025 14:25
!              Frequency                     S11                                                   S21                                                   S12                                                   S22
# HZ  S  MA R 50
4800000000.000000      2.950897000000000E-01      3.894140000000000E+01      4.803162000000000E-01     -1.288125000000000E+02
4801000000.000000      2.962341000000000E-01      3.921679000000000E+01      4.809570000000000E-01     -1.296172000000000E+02
4802000000.000000      2.973633000000000E-01      3.940625000000000E+01      4.821167000000000E-01     -1.300937000000000E+02
4803000000.000000      2.978668000000000E-01      3.954492000000000E+01      4.862671000000000E-01     -1.310391000000000E+02
4804000000.000000      2.990875000000000E-01      3.983007000000000E+01      4.851227000000000E-01     -1.315391000000000E+02
4805000000.000000      3.009949000000000E-01      3.988672000000000E+01      4.876251000000000E-01     -1.324375000000000E+02
4806000000.000000      3.016052000000000E-01      4.009375000000000E+01      4.877777000000000E-01     -1.330156000000000E+02
4807000000.000000      3.029633000000000E-01      4.026563000000000E+01      4.890137000000000E-01     -1.340312000000000E+02
4808000000.000000      3.039703000000000E-01      4.042969000000000E+01      4.932098000000000E-01     -1.344922000000000E+02
4809000000.000000      3.057251000000000E-01      4.071094000000000E+01      4.920807000000000E-01     -1.354609000000000E+02
4810000000.000000      3.071289000000000E-01      4.081250000000000E+01      4.934235000000000E-01     -1.361641000000000E+02
4811000000.000000      3.085632000000000E-01      4.102539000000000E+01      4.947510000000000E-01     -1.368828000000000E+02
4812000000.000000      3.108521000000000E-01      4.116015000000000E+01      4.955597000000000E-01     -1.375313000000000E+02
4813000000.000000      3.117065000000000E-01      4.133594000000000E+01      4.961548000000000E-01     -1.382656000000000E+02
4814000000.000000      3.131561000000000E-01      4.122656000000000E+01      4.978485000000000E-01     -1.389922000000000E+02
4815000000.000000      3.149719000000000E-01      4.146484000000000E+01      4.971619000000000E-01     -1.397266000000000E+02
4816000000.000000      3.170319000000000E-01      4.150391000000000E+01      4.996796000000000E-01     -1.403828000000000E+02
4817000000.000000      3.179626000000000E-01      4.160937000000000E+01      4.994659000000000E-01     -1.412891000000000E+02
4818000000.000000      3.197784000000000E-01      4.162305000000000E+01      4.990540000000000E-01     -1.419688000000000E+02
4819000000.000000      3.216553000000000E-01      4.166211000000000E+01      4.995728000000000E-01     -1.427656000000000E+02
4820000000.000000      3.226318000000000E-01      4.171679000000000E+01      5.000610000000000E-01     -1.432891000000000E+02
4821000000.000000      3.257141000000000E-01      4.173437000000000E+01      5.014343000000000E-01     -1.441250000000000E+02
4822000000.000000      3.262939000000000E-01      4.164063000000000E+01      4.973907000000000E-01     -1.448984000000000E+02
4823000000.000000      3.286896000000000E-01      4.171094000000000E+01      4.990082000000000E-01     -1.457969000000000E+02
4824000000.000000      3.301697000000000E-01      4.186328000000000E+01      5.001526000000000E-01     -1.462812000000000E+02
4825000000.000000      3.319702000000000E-01      4.173437000000000E+01      4.991150000000000E-01     -1.470703000000000E+02
4826000000.000000      3.339081000000000E-01      4.170898000000000E+01      4.993439000000000E-01     -1.479531000000000E+02
4827000000.000000      3.352661000000000E-01      4.168945000000000E+01      4.988251000000000E-01     -1.485547000000000E+02
4828000000.000000      3.378601000000000E-01      4.163671000000000E+01      4.999237000000000E-01     -1.492734000000000E+02
4829000000.000000      3.388062000000000E-01      4.173047000000000E+01      4.977264000000000E-01     -1.499844000000000E+02
4830000000.000000      3.408966000000000E-01      4.148438000000000E+01      4.983978000000000E-01     -1.508125000000000E+02
4831000000.000000      3.422089000000000E-01      4.145508000000000E+01      4.977264000000000E-01     -1.515781000000000E+02
4832000000.000000      3.441162000000000E-01      4.147851000000000E+01      4.956665000000000E-01     -1.521563000000000E+02
4833000000.000000      3.455048000000000E-01      4.130273000000000E+01      4.961243000000000E-01     -1.530156000000000E+02
4834000000.000000      3.470764000000000E-01      4.125586000000000E+01      4.939575000000000E-01     -1.535703000000000E+02
4835000000.000000      3.498077000000000E-01      4.108398000000000E+01      4.945221000000000E-01     -1.543047000000000E+02
4836000000.000000      3.516388000000000E-01      4.106835000000000E+01      4.933014000000000E-01     -1.550234000000000E+02
4837000000.000000      3.525848000000000E-01      4.095117000000000E+01      4.916992000000000E-01     -1.560000000000000E+02
4838000000.000000      3.540649000000000E-01      4.076953000000000E+01      4.917297000000000E-01     -1.564453000000000E+02
4839000000.000000      3.577271000000000E-01      4.069921000000000E+01      4.913330000000000E-01     -1.571563000000000E+02
4840000000.000000      3.584290000000000E-01      4.041016000000000E+01      4.897156000000000E-01     -1.578984000000000E+02
4841000000.000000      3.593903000000000E-01      4.042382000000000E+01      4.877319000000000E-01     -1.586719000000000E+02
4842000000.000000      3.608856000000000E-01      4.021093000000000E+01      4.869537000000000E-01     -1.593203000000000E+02
4843000000.000000      3.638000000000000E-01      3.987305000000000E+01      4.857941000000000E-01     -1.600547000000000E+02
4844000000.000000      3.641510000000000E-01      3.983398000000000E+01      4.845123000000000E-01     -1.606875000000000E+02
4845000000.000000      3.667297000000000E-01      3.972070000000000E+01      4.829407000000000E-01     -1.615625000000000E+02
4846000000.000000      3.680420000000000E-01      3.948437000000000E+01      4.812469000000000E-01     -1.621094000000000E+02
4847000000.000000      3.700104000000000E-01      3.941601000000000E+01      4.799652000000000E-01     -1.626484000000000E+02
4848000000.000000      3.704834000000000E-01      3.913086000000000E+01      4.774628000000000E-01     -1.635000000000000E+02
4849000000.000000      3.718719000000000E-01      3.874414000000000E+01      4.754181000000000E-01     -1.642656000000000E+02
4850000000.000000      3.730774000000000E-01      3.868164000000000E+01      4.729767000000000E-01     -1.650078000000000E+02
4851000000.000000      3.754120000000000E-01      3.859375000000000E+01      4.723816000000000E-01     -1.657422000000000E+02
4852000000.000000      3.753052000000000E-01      3.833789000000000E+01      4.699097000000000E-01     -1.664219000000000E+02
4853000000.000000      3.774567000000000E-01      3.808789000000000E+01      4.665375000000000E-01     -1.670625000000000E+02
4854000000.000000      3.783417000000000E-01      3.785937000000000E+01      4.656677000000000E-01     -1.678359000000000E+02
4855000000.000000      3.793335000000000E-01      3.767773000000000E+01      4.625702000000000E-01     -1.686719000000000E+02
4856000000.000000      3.806915000000000E-01      3.745312000000000E+01      4.607849000000000E-01     -1.691015000000000E+02
4857000000.000000      3.818817000000000E-01      3.725586000000000E+01      4.596710000000000E-01     -1.698906000000000E+02
4858000000.000000      3.826752000000000E-01      3.696680000000000E+01      4.562836000000000E-01     -1.706094000000000E+02
4859000000.000000      3.844757000000000E-01      3.665039000000000E+01      4.547729000000000E-01     -1.713828000000000E+02
4860000000.000000      3.853607000000000E-01      3.655664000000000E+01      4.517365000000000E-01     -1.720156000000000E+02
4861000000.000000      3.866882000000000E-01      3.631640000000000E+01      4.487000000000000E-01     -1.727890000000000E+02
4862000000.000000      3.865814000000000E-01      3.594141000000000E+01      4.469910000000000E-01     -1.733281000000000E+02
4863000000.000000      3.882599000000000E-01      3.581250000000000E+01      4.443359000000000E-01     -1.741484000000000E+02
4864000000.000000      3.890533000000000E-01      3.549219000000000E+01      4.413910000000000E-01     -1.745703000000000E+02
4865000000.000000      3.892670000000000E-01      3.524805000000000E+01      4.375000000000000E-01     -1.753281000000000E+02
4866000000.000000      3.909607000000000E-01      3.502539000000000E+01      4.339294000000000E-01     -1.758516000000000E+02
4867000000.000000      3.902130000000000E-01      3.474609000000000E+01      4.315796000000000E-01     -1.769219000000000E+02
4868000000.000000      3.919678000000000E-01      3.452539000000000E+01      4.281311000000000E-01     -1.772422000000000E+02
4869000000.000000      3.925934000000000E-01      3.420703000000000E+01      4.251709000000000E-01     -1.778437000000000E+02
4870000000.000000      3.928528000000000E-01      3.399414000000000E+01      4.207458000000000E-01     -1.782187000000000E+02
4871000000.000000      3.936615000000000E-01      3.365820000000000E+01      4.195862000000000E-01     -1.792578000000000E+02
4872000000.000000      3.953094000000000E-01      3.350390000000000E+01      4.151306000000000E-01     -1.797031000000000E+02
4873000000.000000      3.950653000000000E-01      3.331055000000000E+01      4.132843000000000E-01      1.795312000000000E+02
4874000000.000000      3.950653000000000E-01      3.304101000000000E+01      4.078522000000000E-01      1.788281000000000E+02
4875000000.000000      3.967590000000000E-01      3.271484000000000E+01      4.051819000000000E-01      1.783828000000000E+02
4876000000.000000      3.971100000000000E-01      3.265234000000000E+01      4.024658000000000E-01      1.778437000000000E+02
4877000000.000000      3.976288000000000E-01      3.204687000000000E+01      3.979187000000000E-01      1.772109000000000E+02
4878000000.000000      3.974152000000000E-01      3.189941000000000E+01      3.956146000000000E-01      1.766016000000000E+02
4879000000.000000      3.982086000000000E-01      3.177343000000000E+01      3.912354000000000E-01      1.762734000000000E+02
4880000000.000000      3.990631000000000E-01      3.143945000000000E+01      3.892365000000000E-01      1.753828000000000E+02
4881000000.000000      3.992004000000000E-01      3.133691000000000E+01      3.847961000000000E-01      1.750391000000000E+02
4882000000.000000      3.996277000000000E-01      3.105762000000000E+01      3.821564000000000E-01      1.743047000000000E+02
4883000000.000000      3.989716000000000E-01      3.072168000000000E+01      3.762817000000000E-01      1.738750000000000E+02
4884000000.000000      4.003296000000000E-01      3.061132000000000E+01      3.739471000000000E-01      1.732422000000000E+02
4885000000.000000      4.001617000000000E-01      3.026953000000000E+01      3.708954000000000E-01      1.731172000000000E+02
4886000000.000000      3.999481000000000E-01      3.010644000000000E+01      3.657837000000000E-01      1.723203000000000E+02
4887000000.000000      3.999634000000000E-01      2.975586000000000E+01      3.641052000000000E-01      1.719844000000000E+02
4888000000.000000      4.004974000000000E-01      2.943164000000000E+01      3.598785000000000E-01      1.715000000000000E+02
4889000000.000000      4.010162000000000E-01      2.936035000000000E+01      3.551788000000000E-01      1.710234000000000E+02
4890000000.000000      3.994141000000000E-01      2.896679000000000E+01      3.526764000000000E-01      1.703672000000000E+02
4891000000.000000      4.002380000000000E-01      2.885254000000000E+01      3.479919000000000E-01      1.697891000000000E+02
4892000000.000000      4.005127000000000E-01      2.858007000000000E+01      3.448181000000000E-01      1.698594000000000E+02
4893000000.000000      3.999634000000000E-01      2.827929000000000E+01      3.416595000000000E-01      1.691484000000000E+02
4894000000.000000      3.992004000000000E-01      2.812207000000000E+01      3.387604000000000E-01      1.688828000000000E+02
4895000000.000000      4.003143000000000E-01      2.781445000000000E+01      3.357239000000000E-01      1.682656000000000E+02
4896000000.000000      4.005737000000000E-01      2.764160000000000E+01      3.314667000000000E-01      1.679766000000000E+02
4897000000.000000      3.993073000000000E-01      2.753906000000000E+01      3.276672000000000E-01      1.674062000000000E+02
4898000000.000000      4.001617000000000E-01      2.723437000000000E+01      3.241577000000000E-01      1.671797000000000E+02
4899000000.000000      3.996124000000000E-01      2.704199000000000E+01      3.218842000000000E-01      1.665859000000000E+02
4900000000.000000      4.002533000000000E-01      2.671289000000000E+01      3.183289000000000E-01      1.662266000000000E+02
4901000000.000000      4.006653000000000E-01      2.659570000000000E+01      3.150330000000000E-01      1.660312000000000E+02
4902000000.000000      3.990784000000000E-01      2.639453000000000E+01      3.121338000000000E-01      1.655859000000000E+02
4903000000.000000      3.992462000000000E-01      2.625586000000000E+01      3.071594000000000E-01      1.651172000000000E+02
4904000000.000000      3.998108000000000E-01      2.595312000000000E+01      3.043518000000000E-01      1.646563000000000E+02
4905000000.000000      3.983917000000000E-01      2.577441000000000E+01      3.014374000000000E-01      1.642500000000000E+02
4906000000.000000      3.989563000000000E-01      2.552637000000000E+01      2.977905000000000E-01      1.641016000000000E+02
4907000000.000000      3.984070000000000E-01      2.539844000000000E+01      2.947083000000000E-01      1.635078000000000E+02
4908000000.000000      3.982697000000000E-01      2.512207000000000E+01      2.915802000000000E-01      1.632109000000000E+02
4909000000.000000      3.975983000000000E-01      2.491504000000000E+01      2.877197000000000E-01      1.627812000000000E+02
4910000000.000000      3.975677000000000E-01      2.491796000000000E+01      2.840881000000000E-01      1.624297000000000E+02
4911000000.000000      3.978119000000000E-01      2.459082000000000E+01      2.812805000000000E-01      1.620781000000000E+02
4912000000.000000      3.973389000000000E-01      2.433691000000000E+01      2.772369000000000E-01      1.616719000000000E+02
4913000000.000000      3.970337000000000E-01      2.419726000000000E+01      2.739410000000000E-01      1.613281000000000E+02
4914000000.000000      3.966675000000000E-01      2.401660000000000E+01      2.704773000000000E-01      1.611875000000000E+02
4915000000.000000      3.963623000000000E-01      2.389355000000000E+01      2.665100000000000E-01      1.605469000000000E+02
4916000000.000000      3.961945000000000E-01      2.369727000000000E+01      2.626343000000000E-01      1.601797000000000E+02
4917000000.000000      3.958740000000000E-01      2.352832000000000E+01      2.594452000000000E-01      1.599531000000000E+02
4918000000.000000      3.966217000000000E-01      2.335254000000000E+01      2.556458000000000E-01      1.595078000000000E+02
4919000000.000000      3.945007000000000E-01      2.325781000000000E+01      2.521057000000000E-01      1.595625000000000E+02
4920000000.000000      3.949890000000000E-01      2.283496000000000E+01      2.468414000000000E-01      1.588281000000000E+02
4921000000.000000      3.954010000000000E-01      2.298535000000000E+01      2.442474000000000E-01      1.587734000000000E+02
4922000000.000000      3.950653000000000E-01      2.269824000000000E+01      2.403412000000000E-01      1.586172000000000E+02
4923000000.000000      3.945923000000000E-01      2.251172000000000E+01      2.364120000000000E-01      1.581875000000000E+02
4924000000.000000      3.936462000000000E-01      2.219043000000000E+01      2.317276000000000E-01      1.579453000000000E+02
4925000000.000000      3.937378000000000E-01      2.212891000000000E+01      2.286530000000000E-01      1.579609000000000E+02
4926000000.000000      3.945923000000000E-01      2.197656000000000E+01      2.246246000000000E-01      1.575469000000000E+02
4927000000.000000      3.937683000000000E-01      2.181836000000000E+01      2.204971000000000E-01      1.574844000000000E+02
4928000000.000000      3.939819000000000E-01      2.151465000000000E+01      2.169647000000000E-01      1.572500000000000E+02
4929000000.000000      3.925476000000000E-01      2.127148000000000E+01      2.126694000000000E-01      1.571094000000000E+02
4930000000.000000      3.932800000000000E-01      2.132129000000000E+01      2.089844000000000E-01      1.570781000000000E+02
4931000000.000000      3.927917000000000E-01      2.100098000000000E+01      2.048187000000000E-01      1.569062000000000E+02
4932000000.000000      3.922577000000000E-01      2.083398000000000E+01      2.002945000000000E-01      1.569453000000000E+02
4933000000.000000      3.923645000000000E-01      2.072363000000000E+01      1.960831000000000E-01      1.568828000000000E+02
4934000000.000000      3.927917000000000E-01      2.054980000000000E+01      1.932297000000000E-01      1.567812000000000E+02
4935000000.000000      3.924713000000000E-01      2.046191000000000E+01      1.893387000000000E-01      1.570937000000000E+02
4936000000.000000      3.917542000000000E-01      2.019531000000000E+01      1.846390000000000E-01      1.571016000000000E+02
4937000000.000000      3.910370000000000E-01      2.000977000000000E+01      1.809311000000000E-01      1.573359000000000E+02
4938000000.000000      3.906403000000000E-01      2.000683000000000E+01      1.767883000000000E-01      1.576015000000000E+02
4939000000.000000      3.901672000000000E-01      1.981445000000000E+01      1.731491000000000E-01      1.578281000000000E+02
4940000000.000000      3.895569000000000E-01      1.951269000000000E+01      1.691513000000000E-01      1.580625000000000E+02
4941000000.000000      3.908691000000000E-01      1.946289000000000E+01      1.653214000000000E-01      1.583828000000000E+02
4942000000.000000      3.893585000000000E-01      1.933301000000000E+01      1.611710000000000E-01      1.587422000000000E+02
4943000000.000000      3.894348000000000E-01      1.903906000000000E+01      1.578522000000000E-01      1.593047000000000E+02
4944000000.000000      3.893738000000000E-01      1.884766000000000E+01      1.542892000000000E-01      1.598984000000000E+02
4945000000.000000      3.895111000000000E-01      1.875488000000000E+01      1.504059000000000E-01      1.604063000000000E+02
4946000000.000000      3.899536000000000E-01      1.862402000000000E+01      1.470184000000000E-01      1.611406000000000E+02
4947000000.000000      3.883362000000000E-01      1.834765000000000E+01      1.439209000000000E-01      1.618515000000000E+02
4948000000.000000      3.887024000000000E-01      1.835351000000000E+01      1.405869000000000E-01      1.625625000000000E+02
4949000000.000000      3.879700000000000E-01      1.812012000000000E+01      1.375961000000000E-01      1.638281000000000E+02
4950000000.000000      3.878479000000000E-01      1.803808000000000E+01      1.342239000000000E-01      1.647734000000000E+02
4951000000.000000      3.872375000000000E-01      1.771484000000000E+01      1.312561000000000E-01      1.657500000000000E+02
4952000000.000000      3.867798000000000E-01      1.759961000000000E+01      1.283951000000000E-01      1.667266000000000E+02
4953000000.000000      3.871460000000000E-01      1.748047000000000E+01      1.263046000000000E-01      1.682188000000000E+02
4954000000.000000      3.870544000000000E-01      1.724121000000000E+01      1.234856000000000E-01      1.695313000000000E+02
