! Network Analyzer HP8722D
! Hewlett-Packard
! Data name: Linha & Wilkinson
! Saver's name: Rodrigo Anjos
! Comments: Teste da utilização de aquisição
continua pelo VNA HP8722D
! Time and date: 23/5/2025 09:02
!              Frequency                     S11                                                   S21                                                   S12                                                   S22
# HZ  S  MA R 50
4800000000.000000      3.424683000000000E-01      3.452148000000000E+01      4.547119000000000E-01     -1.255391000000000E+02
4801000000.000000      3.432770000000000E-01      3.480469000000000E+01      4.560547000000000E-01     -1.263164000000000E+02
4802000000.000000      3.442688000000000E-01      3.495703000000000E+01      4.578705000000000E-01     -1.268906000000000E+02
4803000000.000000      3.445740000000000E-01      3.504492000000000E+01      4.609833000000000E-01     -1.275352000000000E+02
4804000000.000000      3.454590000000000E-01      3.532617000000000E+01      4.623566000000000E-01     -1.284688000000000E+02
4805000000.000000      3.469696000000000E-01      3.535351000000000E+01      4.639740000000000E-01     -1.291719000000000E+02
4806000000.000000      3.472443000000000E-01      3.558008000000000E+01      4.653320000000000E-01     -1.299141000000000E+02
4807000000.000000      3.480835000000000E-01      3.564453000000000E+01      4.667358000000000E-01     -1.307734000000000E+02
4808000000.000000      3.482666000000000E-01      3.581445000000000E+01      4.670868000000000E-01     -1.314531000000000E+02
4809000000.000000      3.500366000000000E-01      3.599609000000000E+01      4.689789000000000E-01     -1.323047000000000E+02
4810000000.000000      3.509674000000000E-01      3.621875000000000E+01      4.712677000000000E-01     -1.328516000000000E+02
4811000000.000000      3.527374000000000E-01      3.631054000000000E+01      4.714966000000000E-01     -1.335703000000000E+02
4812000000.000000      3.543091000000000E-01      3.651562000000000E+01      4.728851000000000E-01     -1.343906000000000E+02
4813000000.000000      3.548737000000000E-01      3.660742000000000E+01      4.730225000000000E-01     -1.352187000000000E+02
4814000000.000000      3.552094000000000E-01      3.664648000000000E+01      4.729767000000000E-01     -1.357109000000000E+02
4815000000.000000      3.564911000000000E-01      3.673242000000000E+01      4.749603000000000E-01     -1.365547000000000E+02
4816000000.000000      3.588104000000000E-01      3.685937000000000E+01      4.759216000000000E-01     -1.372187000000000E+02
4817000000.000000      3.594666000000000E-01      3.701757000000000E+01      4.756470000000000E-01     -1.379688000000000E+02
4818000000.000000      3.609619000000000E-01      3.704297000000000E+01      4.747772000000000E-01     -1.388750000000000E+02
4819000000.000000      3.628235000000000E-01      3.711914000000000E+01      4.754791000000000E-01     -1.393984000000000E+02
4820000000.000000      3.635406000000000E-01      3.723633000000000E+01      4.761353000000000E-01     -1.401328000000000E+02
4821000000.000000      3.657684000000000E-01      3.722070000000000E+01      4.756012000000000E-01     -1.409453000000000E+02
4822000000.000000      3.662262000000000E-01      3.713476000000000E+01      4.750214000000000E-01     -1.416953000000000E+02
4823000000.000000      3.680725000000000E-01      3.723242000000000E+01      4.761963000000000E-01     -1.425313000000000E+02
4824000000.000000      3.693542000000000E-01      3.739062000000000E+01      4.745483000000000E-01     -1.432812000000000E+02
4825000000.000000      3.711243000000000E-01      3.726563000000000E+01      4.757538000000000E-01     -1.439297000000000E+02
4826000000.000000      3.726654000000000E-01      3.725976000000000E+01      4.765320000000000E-01     -1.447813000000000E+02
4827000000.000000      3.744049000000000E-01      3.739453000000000E+01      4.750977000000000E-01     -1.452812000000000E+02
4828000000.000000      3.764191000000000E-01      3.739843000000000E+01      4.750671000000000E-01     -1.460781000000000E+02
4829000000.000000      3.775482000000000E-01      3.747656000000000E+01      4.756165000000000E-01     -1.467813000000000E+02
4830000000.000000      3.790894000000000E-01      3.733984000000000E+01      4.731445000000000E-01     -1.475781000000000E+02
4831000000.000000      3.809204000000000E-01      3.738476000000000E+01      4.736633000000000E-01     -1.482969000000000E+02
4832000000.000000      3.818054000000000E-01      3.736328000000000E+01      4.725800000000000E-01     -1.490781000000000E+02
4833000000.000000      3.833618000000000E-01      3.723633000000000E+01      4.718628000000000E-01     -1.496250000000000E+02
4834000000.000000      3.848419000000000E-01      3.718945000000000E+01      4.715271000000000E-01     -1.503828000000000E+02
4835000000.000000      3.867645000000000E-01      3.709375000000000E+01      4.722137000000000E-01     -1.511719000000000E+02
4836000000.000000      3.882446000000000E-01      3.716406000000000E+01      4.697723000000000E-01     -1.517734000000000E+02
4837000000.000000      3.896790000000000E-01      3.708008000000000E+01      4.684906000000000E-01     -1.528437000000000E+02
4838000000.000000      3.908997000000000E-01      3.696680000000000E+01      4.690704000000000E-01     -1.532266000000000E+02
4839000000.000000      3.944397000000000E-01      3.698828000000000E+01      4.670563000000000E-01     -1.541094000000000E+02
4840000000.000000      3.954010000000000E-01      3.674609000000000E+01      4.666901000000000E-01     -1.546016000000000E+02
4841000000.000000      3.970184000000000E-01      3.671875000000000E+01      4.644165000000000E-01     -1.554609000000000E+02
4842000000.000000      3.980408000000000E-01      3.651172000000000E+01      4.653778000000000E-01     -1.559766000000000E+02
4843000000.000000      4.002991000000000E-01      3.637695000000000E+01      4.634857000000000E-01     -1.568672000000000E+02
4844000000.000000      4.004974000000000E-01      3.627539000000000E+01      4.631348000000000E-01     -1.574922000000000E+02
4845000000.000000      4.026794000000000E-01      3.621875000000000E+01      4.613342000000000E-01     -1.581797000000000E+02
4846000000.000000      4.042206000000000E-01      3.605664000000000E+01      4.600372000000000E-01     -1.589297000000000E+02
4847000000.000000      4.059448000000000E-01      3.596094000000000E+01      4.584656000000000E-01     -1.595625000000000E+02
4848000000.000000      4.065857000000000E-01      3.572656000000000E+01      4.545441000000000E-01     -1.603672000000000E+02
4849000000.000000      4.080048000000000E-01      3.562695000000000E+01      4.552460000000000E-01     -1.612422000000000E+02
4850000000.000000      4.094391000000000E-01      3.549219000000000E+01      4.533997000000000E-01     -1.618672000000000E+02
4851000000.000000      4.116058000000000E-01      3.545898000000000E+01      4.518890000000000E-01     -1.625156000000000E+02
4852000000.000000      4.124756000000000E-01      3.521875000000000E+01      4.492950000000000E-01     -1.633984000000000E+02
4853000000.000000      4.141083000000000E-01      3.503320000000000E+01      4.465179000000000E-01     -1.642266000000000E+02
4854000000.000000      4.148407000000000E-01      3.477734000000000E+01      4.449310000000000E-01     -1.647187000000000E+02
4855000000.000000      4.163818000000000E-01      3.473047000000000E+01      4.440765000000000E-01     -1.655078000000000E+02
4856000000.000000      4.177399000000000E-01      3.445703000000000E+01      4.411621000000000E-01     -1.660391000000000E+02
4857000000.000000      4.188080000000000E-01      3.442578000000000E+01      4.399567000000000E-01     -1.669531000000000E+02
4858000000.000000      4.190979000000000E-01      3.416992000000000E+01      4.373322000000000E-01     -1.674687000000000E+02
4859000000.000000      4.211273000000000E-01      3.391406000000000E+01      4.351654000000000E-01     -1.683516000000000E+02
4860000000.000000      4.221191000000000E-01      3.386914000000000E+01      4.317780000000000E-01     -1.689609000000000E+02
4861000000.000000      4.228516000000000E-01      3.365234000000000E+01      4.300385000000000E-01     -1.698125000000000E+02
4862000000.000000      4.235840000000000E-01      3.346680000000000E+01      4.277802000000000E-01     -1.703672000000000E+02
4863000000.000000      4.242859000000000E-01      3.326757000000000E+01      4.235382000000000E-01     -1.711875000000000E+02
4864000000.000000      4.262390000000000E-01      3.308008000000000E+01      4.218597000000000E-01     -1.717031000000000E+02
4865000000.000000      4.260559000000000E-01      3.269531000000000E+01      4.191437000000000E-01     -1.722812000000000E+02
4866000000.000000      4.282379000000000E-01      3.259766000000000E+01      4.161987000000000E-01     -1.730625000000000E+02
4867000000.000000      4.284210000000000E-01      3.245898000000000E+01      4.129639000000000E-01     -1.740000000000000E+02
4868000000.000000      4.286041000000000E-01      3.209765000000000E+01      4.098358000000000E-01     -1.745625000000000E+02
4869000000.000000      4.299774000000000E-01      3.197363000000000E+01      4.081421000000000E-01     -1.751172000000000E+02
4870000000.000000      4.316254000000000E-01      3.175000000000000E+01      4.042664000000000E-01     -1.755234000000000E+02
4871000000.000000      4.312897000000000E-01      3.150683000000000E+01      4.010010000000000E-01     -1.762969000000000E+02
4872000000.000000      4.333801000000000E-01      3.136719000000000E+01      3.966675000000000E-01     -1.770234000000000E+02
4873000000.000000      4.333344000000000E-01      3.122265000000000E+01      3.931427000000000E-01     -1.775625000000000E+02
4874000000.000000      4.338531000000000E-01      3.104004000000000E+01      3.890076000000000E-01     -1.783906000000000E+02
4875000000.000000      4.338989000000000E-01      3.072851000000000E+01      3.860779000000000E-01     -1.788594000000000E+02
4876000000.000000      4.354248000000000E-01      3.064062000000000E+01      3.847961000000000E-01     -1.795312000000000E+02
4877000000.000000      4.358063000000000E-01      3.009472000000000E+01      3.817749000000000E-01      1.798359000000000E+02
4878000000.000000      4.364166000000000E-01      3.011816000000000E+01      3.775940000000000E-01      1.792969000000000E+02
4879000000.000000      4.374237000000000E-01      2.991211000000000E+01      3.738403000000000E-01      1.789063000000000E+02
4880000000.000000      4.378510000000000E-01      2.969922000000000E+01      3.706970000000000E-01      1.781719000000000E+02
4881000000.000000      4.368744000000000E-01      2.944336000000000E+01      3.681641000000000E-01      1.776250000000000E+02
4882000000.000000      4.391022000000000E-01      2.932519000000000E+01      3.638306000000000E-01      1.772266000000000E+02
4883000000.000000      4.385681000000000E-01      2.896093000000000E+01      3.590698000000000E-01      1.764297000000000E+02
4884000000.000000      4.383545000000000E-01      2.894433000000000E+01      3.576965000000000E-01      1.758047000000000E+02
4885000000.000000      4.397736000000000E-01      2.871875000000000E+01      3.531342000000000E-01      1.756641000000000E+02
4886000000.000000      4.399567000000000E-01      2.832226000000000E+01      3.491211000000000E-01      1.750937000000000E+02
4887000000.000000      4.399719000000000E-01      2.824804000000000E+01      3.464355000000000E-01      1.746172000000000E+02
4888000000.000000      4.406738000000000E-01      2.790722000000000E+01      3.436127000000000E-01      1.741797000000000E+02
4889000000.000000      4.401398000000000E-01      2.778223000000000E+01      3.390808000000000E-01      1.734609000000000E+02
4890000000.000000      4.399261000000000E-01      2.783300000000000E+01      3.349915000000000E-01      1.729453000000000E+02
4891000000.000000      4.390564000000000E-01      2.747949000000000E+01      3.316345000000000E-01      1.725000000000000E+02
4892000000.000000      4.386902000000000E-01      2.719433000000000E+01      3.282776000000000E-01      1.722422000000000E+02
4893000000.000000      4.411316000000000E-01      2.698730000000000E+01      3.259583000000000E-01      1.718516000000000E+02
4894000000.000000      4.411621000000000E-01      2.701172000000000E+01      3.219910000000000E-01      1.715156000000000E+02
4895000000.000000      4.424438000000000E-01      2.649023000000000E+01      3.192749000000000E-01      1.709141000000000E+02
4896000000.000000      4.398041000000000E-01      2.649316000000000E+01      3.154602000000000E-01      1.705937000000000E+02
4897000000.000000      4.417572000000000E-01      2.615820000000000E+01      3.114624000000000E-01      1.701875000000000E+02
4898000000.000000      4.402618000000000E-01      2.613867000000000E+01      3.082428000000000E-01      1.697578000000000E+02
4899000000.000000      4.415588000000000E-01      2.590625000000000E+01      3.049622000000000E-01      1.693125000000000E+02
4900000000.000000      4.418335000000000E-01      2.560742000000000E+01      3.018341000000000E-01      1.690000000000000E+02
4901000000.000000      4.419403000000000E-01      2.546972000000000E+01      2.987213000000000E-01      1.686094000000000E+02
4902000000.000000      4.410553000000000E-01      2.521875000000000E+01      2.956543000000000E-01      1.682500000000000E+02
4903000000.000000      4.415283000000000E-01      2.507031000000000E+01      2.910461000000000E-01      1.678516000000000E+02
4904000000.000000      4.404907000000000E-01      2.492383000000000E+01      2.888794000000000E-01      1.674141000000000E+02
4905000000.000000      4.417877000000000E-01      2.475683000000000E+01      2.854156000000000E-01      1.670000000000000E+02
4906000000.000000      4.399414000000000E-01      2.447949000000000E+01      2.820740000000000E-01      1.667734000000000E+02
4907000000.000000      4.426270000000000E-01      2.440820000000000E+01      2.787933000000000E-01      1.663750000000000E+02
4908000000.000000      4.405670000000000E-01      2.423828000000000E+01      2.755737000000000E-01      1.658594000000000E+02
4909000000.000000      4.390869000000000E-01      2.415820000000000E+01      2.714539000000000E-01      1.655313000000000E+02
4910000000.000000      4.409180000000000E-01      2.392188000000000E+01      2.690430000000000E-01      1.652031000000000E+02
4911000000.000000      4.402008000000000E-01      2.374121000000000E+01      2.652283000000000E-01      1.649453000000000E+02
4912000000.000000      4.394684000000000E-01      2.344141000000000E+01      2.617188000000000E-01      1.643594000000000E+02
4913000000.000000      4.414368000000000E-01      2.341309000000000E+01      2.589874000000000E-01      1.641172000000000E+02
4914000000.000000      4.395905000000000E-01      2.320801000000000E+01      2.555237000000000E-01      1.637266000000000E+02
4915000000.000000      4.389801000000000E-01      2.297070000000000E+01      2.518921000000000E-01      1.633359000000000E+02
4916000000.000000      4.408569000000000E-01      2.283301000000000E+01      2.477798000000000E-01      1.629844000000000E+02
4917000000.000000      4.403381000000000E-01      2.283594000000000E+01      2.445374000000000E-01      1.629219000000000E+02
4918000000.000000      4.383850000000000E-01      2.250683000000000E+01      2.406158000000000E-01      1.624297000000000E+02
4919000000.000000      4.383392000000000E-01      2.238867000000000E+01      2.374268000000000E-01      1.623281000000000E+02
4920000000.000000      4.388275000000000E-01      2.212500000000000E+01      2.340088000000000E-01      1.618906000000000E+02
4921000000.000000      4.375763000000000E-01      2.199805000000000E+01      2.307892000000000E-01      1.615156000000000E+02
4922000000.000000      4.397736000000000E-01      2.191601000000000E+01      2.269897000000000E-01      1.614922000000000E+02
4923000000.000000      4.393463000000000E-01      2.181055000000000E+01      2.223816000000000E-01      1.611562000000000E+02
4924000000.000000      4.392700000000000E-01      2.166699000000000E+01      2.188187000000000E-01      1.609062000000000E+02
4925000000.000000      4.388733000000000E-01      2.130762000000000E+01      2.153091000000000E-01      1.607422000000000E+02
4926000000.000000      4.385071000000000E-01      2.124121000000000E+01      2.119217000000000E-01      1.605703000000000E+02
4927000000.000000      4.378204000000000E-01      2.134863000000000E+01      2.077332000000000E-01      1.603047000000000E+02
4928000000.000000      4.379120000000000E-01      2.090625000000000E+01      2.045822000000000E-01      1.603437000000000E+02
4929000000.000000      4.372711000000000E-01      2.066113000000000E+01      2.001953000000000E-01      1.600391000000000E+02
4930000000.000000      4.373932000000000E-01      2.104004000000000E+01      1.967545000000000E-01      1.599609000000000E+02
4931000000.000000      4.384460000000000E-01      2.053809000000000E+01      1.931610000000000E-01      1.600078000000000E+02
4932000000.000000      4.368744000000000E-01      2.049219000000000E+01      1.889648000000000E-01      1.599297000000000E+02
4933000000.000000      4.374847000000000E-01      2.027930000000000E+01      1.846237000000000E-01      1.602578000000000E+02
4934000000.000000      4.346466000000000E-01      1.990234000000000E+01      1.813278000000000E-01      1.598594000000000E+02
4935000000.000000      4.362030000000000E-01      1.997363000000000E+01      1.781158000000000E-01      1.602890000000000E+02
4936000000.000000      4.357910000000000E-01      1.966113000000000E+01      1.736374000000000E-01      1.604531000000000E+02
4937000000.000000      4.373932000000000E-01      1.959082000000000E+01      1.698990000000000E-01      1.602578000000000E+02
4938000000.000000      4.355927000000000E-01      1.955957000000000E+01      1.666412000000000E-01      1.607891000000000E+02
4939000000.000000      4.347382000000000E-01      1.954394000000000E+01      1.628418000000000E-01      1.611172000000000E+02
4940000000.000000      4.359436000000000E-01      1.923242000000000E+01      1.588211000000000E-01      1.612969000000000E+02
4941000000.000000      4.354553000000000E-01      1.913672000000000E+01      1.554337000000000E-01      1.614609000000000E+02
4942000000.000000      4.356079000000000E-01      1.890820000000000E+01      1.518784000000000E-01      1.621484000000000E+02
4943000000.000000      4.353485000000000E-01      1.867383000000000E+01      1.483383000000000E-01      1.625078000000000E+02
4944000000.000000      4.354706000000000E-01      1.844043000000000E+01      1.454315000000000E-01      1.631172000000000E+02
4945000000.000000      4.353638000000000E-01      1.833594000000000E+01      1.414566000000000E-01      1.639219000000000E+02
4946000000.000000      4.363098000000000E-01      1.839062000000000E+01      1.388245000000000E-01      1.645156000000000E+02
4947000000.000000      4.347534000000000E-01      1.812012000000000E+01      1.347656000000000E-01      1.653359000000000E+02
4948000000.000000      4.341278000000000E-01      1.794336000000000E+01      1.324539000000000E-01      1.660859000000000E+02
4949000000.000000      4.333038000000000E-01      1.802246000000000E+01      1.294250000000000E-01      1.672734000000000E+02
4950000000.000000      4.333649000000000E-01      1.783984000000000E+01      1.265717000000000E-01      1.683281000000000E+02
4951000000.000000      4.346619000000000E-01      1.755664000000000E+01      1.239929000000000E-01      1.690625000000000E+02
4952000000.000000      4.325409000000000E-01      1.740234000000000E+01      1.211739000000000E-01      1.702422000000000E+02
4953000000.000000      4.328308000000000E-01      1.719824000000000E+01      1.190643000000000E-01      1.717891000000000E+02
4954000000.000000      4.329376000000000E-01      1.721875000000000E+01      1.162033000000000E-01      1.731953000000000E+02
