! Network Analyzer HP8722D
! Hewlett-Packard
! Data name: Linha & Wilkinson
! Saver's name: Rodrigo Anjos
! Comments: Teste da utilização de aquisição
continua pelo VNA HP8722D
! Time and date: 23/5/2025 10:14
!              Frequency                     S11                                                   S21                                                   S12                                                   S22
# HZ  S  MA R 50
4800000000.000000      3.160095000000000E-01      3.685547000000000E+01      4.682159000000000E-01     -1.276015000000000E+02
4801000000.000000      3.170776000000000E-01      3.714062000000000E+01      4.698486000000000E-01     -1.282187000000000E+02
4802000000.000000      3.180542000000000E-01      3.730664000000000E+01      4.712677000000000E-01     -1.289844000000000E+02
4803000000.000000      3.186340000000000E-01      3.746289000000000E+01      4.735413000000000E-01     -1.295391000000000E+02
4804000000.000000      3.197937000000000E-01      3.770898000000000E+01      4.748383000000000E-01     -1.302969000000000E+02
4805000000.000000      3.212433000000000E-01      3.775586000000000E+01      4.769745000000000E-01     -1.311406000000000E+02
4806000000.000000      3.218231000000000E-01      3.799805000000000E+01      4.776001000000000E-01     -1.317891000000000E+02
4807000000.000000      3.226166000000000E-01      3.819531000000000E+01      4.786987000000000E-01     -1.328125000000000E+02
4808000000.000000      3.235474000000000E-01      3.833984000000000E+01      4.804077000000000E-01     -1.331250000000000E+02
4809000000.000000      3.248901000000000E-01      3.847461000000000E+01      4.808350000000000E-01     -1.342422000000000E+02
4810000000.000000      3.264313000000000E-01      3.865625000000000E+01      4.820404000000000E-01     -1.345547000000000E+02
4811000000.000000      3.280487000000000E-01      3.879101000000000E+01      4.832916000000000E-01     -1.355703000000000E+02
4812000000.000000      3.300323000000000E-01      3.892383000000000E+01      4.844208000000000E-01     -1.362500000000000E+02
4813000000.000000      3.306427000000000E-01      3.912890000000000E+01      4.842834000000000E-01     -1.369688000000000E+02
4814000000.000000      3.317871000000000E-01      3.912890000000000E+01      4.853668000000000E-01     -1.377734000000000E+02
4815000000.000000      3.328705000000000E-01      3.928320000000000E+01      4.864349000000000E-01     -1.386094000000000E+02
4816000000.000000      3.357544000000000E-01      3.934570000000000E+01      4.878387000000000E-01     -1.391094000000000E+02
4817000000.000000      3.362427000000000E-01      3.945508000000000E+01      4.883118000000000E-01     -1.401406000000000E+02
4818000000.000000      3.373871000000000E-01      3.947070000000000E+01      4.880066000000000E-01     -1.406016000000000E+02
4819000000.000000      3.398132000000000E-01      3.960546000000000E+01      4.877930000000000E-01     -1.413672000000000E+02
4820000000.000000      3.401794000000000E-01      3.964258000000000E+01      4.893646000000000E-01     -1.420938000000000E+02
4821000000.000000      3.427582000000000E-01      3.965625000000000E+01      4.891052000000000E-01     -1.429531000000000E+02
4822000000.000000      3.441162000000000E-01      3.958008000000000E+01      4.870300000000000E-01     -1.436094000000000E+02
4823000000.000000      3.460693000000000E-01      3.957422000000000E+01      4.899139000000000E-01     -1.443516000000000E+02
4824000000.000000      3.472443000000000E-01      3.973437000000000E+01      4.885864000000000E-01     -1.451719000000000E+02
4825000000.000000      3.491516000000000E-01      3.971484000000000E+01      4.880371000000000E-01     -1.457891000000000E+02
4826000000.000000      3.501740000000000E-01      3.964258000000000E+01      4.893799000000000E-01     -1.466328000000000E+02
4827000000.000000      3.527222000000000E-01      3.963476000000000E+01      4.876862000000000E-01     -1.472109000000000E+02
4828000000.000000      3.548431000000000E-01      3.965625000000000E+01      4.889679000000000E-01     -1.478984000000000E+02
4829000000.000000      3.564453000000000E-01      3.974414000000000E+01      4.889374000000000E-01     -1.487813000000000E+02
4830000000.000000      3.580627000000000E-01      3.953516000000000E+01      4.884644000000000E-01     -1.494297000000000E+02
4831000000.000000      3.589325000000000E-01      3.946484000000000E+01      4.869080000000000E-01     -1.502500000000000E+02
4832000000.000000      3.611755000000000E-01      3.955469000000000E+01      4.868774000000000E-01     -1.508594000000000E+02
4833000000.000000      3.624115000000000E-01      3.930469000000000E+01      4.849091000000000E-01     -1.513906000000000E+02
4834000000.000000      3.641815000000000E-01      3.929492000000000E+01      4.838257000000000E-01     -1.523516000000000E+02
4835000000.000000      3.661194000000000E-01      3.918359000000000E+01      4.848633000000000E-01     -1.530313000000000E+02
4836000000.000000      3.677673000000000E-01      3.923633000000000E+01      4.829865000000000E-01     -1.537031000000000E+02
4837000000.000000      3.686066000000000E-01      3.929101000000000E+01      4.806824000000000E-01     -1.546875000000000E+02
4838000000.000000      3.699646000000000E-01      3.897070000000000E+01      4.806213000000000E-01     -1.549922000000000E+02
4839000000.000000      3.736572000000000E-01      3.895703000000000E+01      4.792633000000000E-01     -1.557266000000000E+02
4840000000.000000      3.744507000000000E-01      3.869922000000000E+01      4.791260000000000E-01     -1.564297000000000E+02
4841000000.000000      3.767090000000000E-01      3.875000000000000E+01      4.772491000000000E-01     -1.572109000000000E+02
4842000000.000000      3.774872000000000E-01      3.841406000000000E+01      4.763031000000000E-01     -1.580156000000000E+02
4843000000.000000      3.799896000000000E-01      3.824414000000000E+01      4.758606000000000E-01     -1.588516000000000E+02
4844000000.000000      3.807678000000000E-01      3.815820000000000E+01      4.740601000000000E-01     -1.594687000000000E+02
4845000000.000000      3.824768000000000E-01      3.806836000000000E+01      4.729309000000000E-01     -1.602656000000000E+02
4846000000.000000      3.841858000000000E-01      3.798828000000000E+01      4.718933000000000E-01     -1.609922000000000E+02
4847000000.000000      3.857727000000000E-01      3.778711000000000E+01      4.696655000000000E-01     -1.615391000000000E+02
4848000000.000000      3.864594000000000E-01      3.754297000000000E+01      4.669800000000000E-01     -1.622969000000000E+02
4849000000.000000      3.882751000000000E-01      3.732617000000000E+01      4.655609000000000E-01     -1.629922000000000E+02
4850000000.000000      3.898010000000000E-01      3.704883000000000E+01      4.638214000000000E-01     -1.636406000000000E+02
4851000000.000000      3.909760000000000E-01      3.711523000000000E+01      4.630280000000000E-01     -1.643672000000000E+02
4852000000.000000      3.920135000000000E-01      3.691015000000000E+01      4.625702000000000E-01     -1.650391000000000E+02
4853000000.000000      3.938904000000000E-01      3.668750000000000E+01      4.575500000000000E-01     -1.657109000000000E+02
4854000000.000000      3.947601000000000E-01      3.645117000000000E+01      4.556732000000000E-01     -1.666172000000000E+02
4855000000.000000      3.957977000000000E-01      3.636328000000000E+01      4.550781000000000E-01     -1.672734000000000E+02
4856000000.000000      3.974457000000000E-01      3.608984000000000E+01      4.520874000000000E-01     -1.677891000000000E+02
4857000000.000000      3.982544000000000E-01      3.594531000000000E+01      4.512482000000000E-01     -1.686484000000000E+02
4858000000.000000      3.992767000000000E-01      3.567773000000000E+01      4.468689000000000E-01     -1.691406000000000E+02
4859000000.000000      4.005432000000000E-01      3.537500000000000E+01      4.459534000000000E-01     -1.700938000000000E+02
4860000000.000000      4.013519000000000E-01      3.531054000000000E+01      4.436035000000000E-01     -1.707266000000000E+02
4861000000.000000      4.026489000000000E-01      3.504297000000000E+01      4.412231000000000E-01     -1.714609000000000E+02
4862000000.000000      4.033813000000000E-01      3.482031000000000E+01      4.384613000000000E-01     -1.720391000000000E+02
4863000000.000000      4.044800000000000E-01      3.465429000000000E+01      4.350891000000000E-01     -1.729297000000000E+02
4864000000.000000      4.054108000000000E-01      3.436328000000000E+01      4.327850000000000E-01     -1.734219000000000E+02
4865000000.000000      4.060059000000000E-01      3.414063000000000E+01      4.286957000000000E-01     -1.740391000000000E+02
4866000000.000000      4.071198000000000E-01      3.383789000000000E+01      4.256287000000000E-01     -1.748359000000000E+02
4867000000.000000      4.073181000000000E-01      3.363867000000000E+01      4.228058000000000E-01     -1.756406000000000E+02
4868000000.000000      4.084015000000000E-01      3.345508000000000E+01      4.203796000000000E-01     -1.761641000000000E+02
4869000000.000000      4.090424000000000E-01      3.322266000000000E+01      4.168091000000000E-01     -1.769219000000000E+02
4870000000.000000      4.099884000000000E-01      3.308789000000000E+01      4.134674000000000E-01     -1.773203000000000E+02
4871000000.000000      4.107208000000000E-01      3.271875000000000E+01      4.111481000000000E-01     -1.780547000000000E+02
4872000000.000000      4.119415000000000E-01      3.254492000000000E+01      4.065399000000000E-01     -1.787109000000000E+02
4873000000.000000      4.117432000000000E-01      3.232031000000000E+01      4.030304000000000E-01     -1.796719000000000E+02
4874000000.000000      4.133148000000000E-01      3.217187000000000E+01      4.013977000000000E-01      1.799375000000000E+02
4875000000.000000      4.131622000000000E-01      3.181836000000000E+01      3.970337000000000E-01      1.795703000000000E+02
4876000000.000000      4.149933000000000E-01      3.171387000000000E+01      3.944244000000000E-01      1.788359000000000E+02
4877000000.000000      4.147644000000000E-01      3.125977000000000E+01      3.902588000000000E-01      1.781953000000000E+02
4878000000.000000      4.145813000000000E-01      3.106348000000000E+01      3.876953000000000E-01      1.776719000000000E+02
4879000000.000000      4.159393000000000E-01      3.095117000000000E+01      3.843384000000000E-01      1.774453000000000E+02
4880000000.000000      4.165344000000000E-01      3.066797000000000E+01      3.800507000000000E-01      1.764609000000000E+02
4881000000.000000      4.171600000000000E-01      3.040722000000000E+01      3.779144000000000E-01      1.761641000000000E+02
4882000000.000000      4.175262000000000E-01      3.026172000000000E+01      3.731384000000000E-01      1.757031000000000E+02
4883000000.000000      4.170074000000000E-01      2.985742000000000E+01      3.692017000000000E-01      1.752031000000000E+02
4884000000.000000      4.176483000000000E-01      2.984082000000000E+01      3.670654000000000E-01      1.744609000000000E+02
4885000000.000000      4.179382000000000E-01      2.958203000000000E+01      3.625031000000000E-01      1.741016000000000E+02
4886000000.000000      4.178925000000000E-01      2.933203000000000E+01      3.590546000000000E-01      1.736953000000000E+02
4887000000.000000      4.178925000000000E-01      2.899511000000000E+01      3.571777000000000E-01      1.731016000000000E+02
4888000000.000000      4.170837000000000E-01      2.884570000000000E+01      3.536987000000000E-01      1.723672000000000E+02
4889000000.000000      4.179688000000000E-01      2.857324000000000E+01      3.483887000000000E-01      1.721250000000000E+02
4890000000.000000      4.161530000000000E-01      2.836621000000000E+01      3.457794000000000E-01      1.714062000000000E+02
4891000000.000000      4.185944000000000E-01      2.814258000000000E+01      3.422394000000000E-01      1.709844000000000E+02
4892000000.000000      4.180756000000000E-01      2.794434000000000E+01      3.383484000000000E-01      1.708437000000000E+02
4893000000.000000      4.185333000000000E-01      2.776855000000000E+01      3.335114000000000E-01      1.701250000000000E+02
4894000000.000000      4.185028000000000E-01      2.741699000000000E+01      3.300476000000000E-01      1.696328000000000E+02
4895000000.000000      4.187775000000000E-01      2.730078000000000E+01      3.283081000000000E-01      1.693594000000000E+02
4896000000.000000      4.183655000000000E-01      2.711621000000000E+01      3.249664000000000E-01      1.690938000000000E+02
4897000000.000000      4.176178000000000E-01      2.691504000000000E+01      3.206177000000000E-01      1.685234000000000E+02
4898000000.000000      4.179077000000000E-01      2.674609000000000E+01      3.183441000000000E-01      1.681953000000000E+02
4899000000.000000      4.182587000000000E-01      2.657227000000000E+01      3.146515000000000E-01      1.677109000000000E+02
4900000000.000000      4.176788000000000E-01      2.626074000000000E+01      3.110504000000000E-01      1.674766000000000E+02
4901000000.000000      4.181976000000000E-01      2.595019000000000E+01      3.076630000000000E-01      1.670938000000000E+02
4902000000.000000      4.184418000000000E-01      2.590234000000000E+01      3.048401000000000E-01      1.666250000000000E+02
4903000000.000000      4.181366000000000E-01      2.585742000000000E+01      3.004761000000000E-01      1.660547000000000E+02
4904000000.000000      4.181366000000000E-01      2.547656000000000E+01      2.973633000000000E-01      1.657109000000000E+02
4905000000.000000      4.174652000000000E-01      2.534375000000000E+01      2.948608000000000E-01      1.654375000000000E+02
4906000000.000000      4.170990000000000E-01      2.509961000000000E+01      2.917633000000000E-01      1.652109000000000E+02
4907000000.000000      4.178162000000000E-01      2.480371000000000E+01      2.883911000000000E-01      1.646484000000000E+02
4908000000.000000      4.187927000000000E-01      2.458593000000000E+01      2.850800000000000E-01      1.641641000000000E+02
4909000000.000000      4.167023000000000E-01      2.458301000000000E+01      2.812195000000000E-01      1.638984000000000E+02
4910000000.000000      4.151459000000000E-01      2.448633000000000E+01      2.778473000000000E-01      1.635937000000000E+02
4911000000.000000      4.162750000000000E-01      2.428711000000000E+01      2.741241000000000E-01      1.632187000000000E+02
4912000000.000000      4.154816000000000E-01      2.409668000000000E+01      2.709503000000000E-01      1.627266000000000E+02
4913000000.000000      4.166870000000000E-01      2.386230000000000E+01      2.677002000000000E-01      1.624687000000000E+02
4914000000.000000      4.162292000000000E-01      2.373828000000000E+01      2.637787000000000E-01      1.622031000000000E+02
4915000000.000000      4.164581000000000E-01      2.347363000000000E+01      2.597961000000000E-01      1.616641000000000E+02
4916000000.000000      4.148407000000000E-01      2.336328000000000E+01      2.565460000000000E-01      1.611562000000000E+02
4917000000.000000      4.149628000000000E-01      2.315430000000000E+01      2.528076000000000E-01      1.610156000000000E+02
4918000000.000000      4.144135000000000E-01      2.295801000000000E+01      2.488327000000000E-01      1.607265000000000E+02
4919000000.000000      4.137878000000000E-01      2.278809000000000E+01      2.463989000000000E-01      1.607656000000000E+02
4920000000.000000      4.152222000000000E-01      2.249414000000000E+01      2.417526000000000E-01      1.599219000000000E+02
4921000000.000000      4.143219000000000E-01      2.264258000000000E+01      2.382355000000000E-01      1.598906000000000E+02
4922000000.000000      4.151764000000000E-01      2.232422000000000E+01      2.347946000000000E-01      1.595859000000000E+02
4923000000.000000      4.134369000000000E-01      2.238281000000000E+01      2.302017000000000E-01      1.595391000000000E+02
4924000000.000000      4.139862000000000E-01      2.197363000000000E+01      2.269669000000000E-01      1.590156000000000E+02
4925000000.000000      4.140625000000000E-01      2.190039000000000E+01      2.229156000000000E-01      1.588906000000000E+02
4926000000.000000      4.136810000000000E-01      2.167969000000000E+01      2.190628000000000E-01      1.587188000000000E+02
4927000000.000000      4.131317000000000E-01      2.163672000000000E+01      2.155838000000000E-01      1.585078000000000E+02
4928000000.000000      4.130249000000000E-01      2.137598000000000E+01      2.113495000000000E-01      1.582813000000000E+02
4929000000.000000      4.122772000000000E-01      2.110058000000000E+01      2.071915000000000E-01      1.582578000000000E+02
4930000000.000000      4.124298000000000E-01      2.105664000000000E+01      2.034760000000000E-01      1.582734000000000E+02
4931000000.000000      4.120636000000000E-01      2.074902000000000E+01      1.996460000000000E-01      1.583047000000000E+02
4932000000.000000      4.126129000000000E-01      2.077832000000000E+01      1.960144000000000E-01      1.580781000000000E+02
4933000000.000000      4.121857000000000E-01      2.052637000000000E+01      1.909027000000000E-01      1.582344000000000E+02
4934000000.000000      4.128723000000000E-01      2.035840000000000E+01      1.875381000000000E-01      1.581016000000000E+02
4935000000.000000      4.121552000000000E-01      2.025977000000000E+01      1.844101000000000E-01      1.583750000000000E+02
4936000000.000000      4.110870000000000E-01      2.013770000000000E+01      1.800613000000000E-01      1.584141000000000E+02
4937000000.000000      4.120483000000000E-01      1.976367000000000E+01      1.765060000000000E-01      1.585781000000000E+02
4938000000.000000      4.102631000000000E-01      1.993945000000000E+01      1.724243000000000E-01      1.588750000000000E+02
4939000000.000000      4.099884000000000E-01      1.964551000000000E+01      1.686859000000000E-01      1.591328000000000E+02
4940000000.000000      4.119873000000000E-01      1.934375000000000E+01      1.646271000000000E-01      1.591953000000000E+02
4941000000.000000      4.112091000000000E-01      1.921484000000000E+01      1.613922000000000E-01      1.596641000000000E+02
4942000000.000000      4.097137000000000E-01      1.914746000000000E+01      1.575394000000000E-01      1.600703000000000E+02
4943000000.000000      4.102936000000000E-01      1.898926000000000E+01      1.539307000000000E-01      1.605000000000000E+02
4944000000.000000      4.104309000000000E-01      1.870605000000000E+01      1.506424000000000E-01      1.610469000000000E+02
4945000000.000000      4.093933000000000E-01      1.862109000000000E+01      1.469879000000000E-01      1.615469000000000E+02
4946000000.000000      4.100342000000000E-01      1.845703000000000E+01      1.432495000000000E-01      1.622734000000000E+02
4947000000.000000      4.097595000000000E-01      1.824902000000000E+01      1.400909000000000E-01      1.631406000000000E+02
4948000000.000000      4.089966000000000E-01      1.817187000000000E+01      1.370621000000000E-01      1.639609000000000E+02
4949000000.000000      4.076538000000000E-01      1.797363000000000E+01      1.340103000000000E-01      1.650547000000000E+02
4950000000.000000      4.083557000000000E-01      1.796191000000000E+01      1.308212000000000E-01      1.661016000000000E+02
4951000000.000000      4.087677000000000E-01      1.770996000000000E+01      1.284027000000000E-01      1.668672000000000E+02
4952000000.000000      4.077759000000000E-01      1.750781000000000E+01      1.252289000000000E-01      1.681719000000000E+02
4953000000.000000      4.081268000000000E-01      1.736719000000000E+01      1.228828000000000E-01      1.696016000000000E+02
4954000000.000000      4.076691000000000E-01      1.730566000000000E+01      1.201248000000000E-01      1.708984000000000E+02
