! Network Analyzer HP8722D
! Hewlett-Packard
! Data name: Linha & Wilkinson
! Saver's name: Rodrigo Anjos
! Comments: Teste da utilização de aquisição
continua pelo VNA HP8722D
! Time and date: 23/5/2025 08:08
!              Frequency                     S11                                                   S21                                                   S12                                                   S22
# HZ  S  MA R 50
4800000000.000000      4.595490000000000E-01      2.521582000000000E+01      4.228516000000000E-01     -1.138594000000000E+02
4801000000.000000      4.591827000000000E-01      2.531347000000000E+01      4.235840000000000E-01     -1.145195000000000E+02
4802000000.000000      4.593811000000000E-01      2.550879000000000E+01      4.271545000000000E-01     -1.154961000000000E+02
4803000000.000000      4.588776000000000E-01      2.558008000000000E+01      4.289856000000000E-01     -1.161250000000000E+02
4804000000.000000      4.582214000000000E-01      2.570508000000000E+01      4.291992000000000E-01     -1.167148000000000E+02
4805000000.000000      4.595947000000000E-01      2.562500000000000E+01      4.294281000000000E-01     -1.176055000000000E+02
4806000000.000000      4.593658000000000E-01      2.569140000000000E+01      4.313354000000000E-01     -1.183750000000000E+02
4807000000.000000      4.582520000000000E-01      2.594141000000000E+01      4.331207000000000E-01     -1.192109000000000E+02
4808000000.000000      4.567871000000000E-01      2.606054000000000E+01      4.351349000000000E-01     -1.198125000000000E+02
4809000000.000000      4.577637000000000E-01      2.624218000000000E+01      4.344025000000000E-01     -1.205156000000000E+02
4810000000.000000      4.575195000000000E-01      2.611133000000000E+01      4.371643000000000E-01     -1.210586000000000E+02
4811000000.000000      4.600220000000000E-01      2.647265000000000E+01      4.381256000000000E-01     -1.220859000000000E+02
4812000000.000000      4.598999000000000E-01      2.648926000000000E+01      4.378815000000000E-01     -1.226836000000000E+02
4813000000.000000      4.604950000000000E-01      2.658789000000000E+01      4.380951000000000E-01     -1.236094000000000E+02
4814000000.000000      4.594116000000000E-01      2.675000000000000E+01      4.389038000000000E-01     -1.240469000000000E+02
4815000000.000000      4.606934000000000E-01      2.678711000000000E+01      4.405212000000000E-01     -1.250234000000000E+02
4816000000.000000      4.616241000000000E-01      2.680664000000000E+01      4.416809000000000E-01     -1.257187000000000E+02
4817000000.000000      4.625549000000000E-01      2.685742000000000E+01      4.417419000000000E-01     -1.265000000000000E+02
4818000000.000000      4.617462000000000E-01      2.709473000000000E+01      4.417877000000000E-01     -1.271875000000000E+02
4819000000.000000      4.621429000000000E-01      2.735547000000000E+01      4.420471000000000E-01     -1.279726000000000E+02
4820000000.000000      4.620209000000000E-01      2.742676000000000E+01      4.429932000000000E-01     -1.287344000000000E+02
4821000000.000000      4.646606000000000E-01      2.739843000000000E+01      4.431152000000000E-01     -1.295234000000000E+02
4822000000.000000      4.638977000000000E-01      2.737988000000000E+01      4.420624000000000E-01     -1.302344000000000E+02
4823000000.000000      4.663239000000000E-01      2.738574000000000E+01      4.427948000000000E-01     -1.308047000000000E+02
4824000000.000000      4.651031000000000E-01      2.769726000000000E+01      4.433746000000000E-01     -1.318203000000000E+02
4825000000.000000      4.665070000000000E-01      2.775879000000000E+01      4.419250000000000E-01     -1.324375000000000E+02
4826000000.000000      4.679565000000000E-01      2.773730000000000E+01      4.436493000000000E-01     -1.332031000000000E+02
4827000000.000000      4.684601000000000E-01      2.769629000000000E+01      4.428406000000000E-01     -1.337578000000000E+02
4828000000.000000      4.717560000000000E-01      2.785937000000000E+01      4.428558000000000E-01     -1.345703000000000E+02
4829000000.000000      4.713287000000000E-01      2.800781000000000E+01      4.420013000000000E-01     -1.351328000000000E+02
4830000000.000000      4.722748000000000E-01      2.796387000000000E+01      4.422150000000000E-01     -1.361172000000000E+02
4831000000.000000      4.752350000000000E-01      2.800000000000000E+01      4.420013000000000E-01     -1.369062000000000E+02
4832000000.000000      4.760742000000000E-01      2.820313000000000E+01      4.404297000000000E-01     -1.373516000000000E+02
4833000000.000000      4.745941000000000E-01      2.812695000000000E+01      4.410858000000000E-01     -1.382187000000000E+02
4834000000.000000      4.751434000000000E-01      2.808789000000000E+01      4.409485000000000E-01     -1.388125000000000E+02
4835000000.000000      4.762421000000000E-01      2.818750000000000E+01      4.393921000000000E-01     -1.398047000000000E+02
4836000000.000000      4.786987000000000E-01      2.831152000000000E+01      4.387207000000000E-01     -1.402188000000000E+02
4837000000.000000      4.787292000000000E-01      2.823144000000000E+01      4.374084000000000E-01     -1.413828000000000E+02
4838000000.000000      4.813385000000000E-01      2.829492000000000E+01      4.364166000000000E-01     -1.417891000000000E+02
4839000000.000000      4.840851000000000E-01      2.832129000000000E+01      4.368286000000000E-01     -1.425078000000000E+02
4840000000.000000      4.846649000000000E-01      2.837891000000000E+01      4.372253000000000E-01     -1.432578000000000E+02
4841000000.000000      4.847107000000000E-01      2.831445000000000E+01      4.357910000000000E-01     -1.441250000000000E+02
4842000000.000000      4.860840000000000E-01      2.837891000000000E+01      4.358673000000000E-01     -1.448750000000000E+02
4843000000.000000      4.897614000000000E-01      2.804590000000000E+01      4.354706000000000E-01     -1.456406000000000E+02
4844000000.000000      4.894409000000000E-01      2.811914000000000E+01      4.340363000000000E-01     -1.464531000000000E+02
4845000000.000000      4.896088000000000E-01      2.834277000000000E+01      4.320068000000000E-01     -1.469844000000000E+02
4846000000.000000      4.924316000000000E-01      2.828613000000000E+01      4.303741000000000E-01     -1.478437000000000E+02
4847000000.000000      4.917603000000000E-01      2.827539000000000E+01      4.300232000000000E-01     -1.485234000000000E+02
4848000000.000000      4.923553000000000E-01      2.813379000000000E+01      4.273529000000000E-01     -1.494766000000000E+02
4849000000.000000      4.958344000000000E-01      2.795312000000000E+01      4.265289000000000E-01     -1.501328000000000E+02
4850000000.000000      4.974213000000000E-01      2.788281000000000E+01      4.248962000000000E-01     -1.507109000000000E+02
4851000000.000000      4.980774000000000E-01      2.791406000000000E+01      4.244385000000000E-01     -1.514766000000000E+02
4852000000.000000      4.993744000000000E-01      2.785937000000000E+01      4.226532000000000E-01     -1.523125000000000E+02
4853000000.000000      5.007324000000000E-01      2.780468000000000E+01      4.189758000000000E-01     -1.530313000000000E+02
4854000000.000000      5.018311000000000E-01      2.771777000000000E+01      4.191742000000000E-01     -1.539766000000000E+02
4855000000.000000      5.015259000000000E-01      2.772461000000000E+01      4.176788000000000E-01     -1.546562000000000E+02
4856000000.000000      5.048523000000000E-01      2.747363000000000E+01      4.150085000000000E-01     -1.555469000000000E+02
4857000000.000000      5.067139000000000E-01      2.754492000000000E+01      4.129181000000000E-01     -1.561797000000000E+02
4858000000.000000      5.063782000000000E-01      2.733203000000000E+01      4.106750000000000E-01     -1.569609000000000E+02
4859000000.000000      5.092163000000000E-01      2.722949000000000E+01      4.083710000000000E-01     -1.577578000000000E+02
4860000000.000000      5.096436000000000E-01      2.718359000000000E+01      4.067230000000000E-01     -1.583750000000000E+02
4861000000.000000      5.101624000000000E-01      2.701757000000000E+01      4.033356000000000E-01     -1.591250000000000E+02
4862000000.000000      5.108643000000000E-01      2.710644000000000E+01      4.006348000000000E-01     -1.597969000000000E+02
4863000000.000000      5.115356000000000E-01      2.691504000000000E+01      3.981018000000000E-01     -1.606719000000000E+02
4864000000.000000      5.118713000000000E-01      2.668945000000000E+01      3.953247000000000E-01     -1.614219000000000E+02
4865000000.000000      5.141602000000000E-01      2.669726000000000E+01      3.923645000000000E-01     -1.621250000000000E+02
4866000000.000000      5.179138000000000E-01      2.638184000000000E+01      3.895264000000000E-01     -1.629375000000000E+02
4867000000.000000      5.144348000000000E-01      2.655664000000000E+01      3.884277000000000E-01     -1.636328000000000E+02
4868000000.000000      5.186768000000000E-01      2.625781000000000E+01      3.830566000000000E-01     -1.643594000000000E+02
4869000000.000000      5.185852000000000E-01      2.609766000000000E+01      3.812714000000000E-01     -1.650625000000000E+02
4870000000.000000      5.201416000000000E-01      2.604492000000000E+01      3.788147000000000E-01     -1.655859000000000E+02
4871000000.000000      5.197144000000000E-01      2.583105000000000E+01      3.744507000000000E-01     -1.664922000000000E+02
4872000000.000000      5.222473000000000E-01      2.556738000000000E+01      3.730469000000000E-01     -1.669062000000000E+02
4873000000.000000      5.230103000000000E-01      2.564941000000000E+01      3.677673000000000E-01     -1.678047000000000E+02
4874000000.000000      5.230103000000000E-01      2.551660000000000E+01      3.647003000000000E-01     -1.684297000000000E+02
4875000000.000000      5.268860000000000E-01      2.532617000000000E+01      3.612366000000000E-01     -1.689453000000000E+02
4876000000.000000      5.260315000000000E-01      2.525976000000000E+01      3.579559000000000E-01     -1.695000000000000E+02
4877000000.000000      5.278015000000000E-01      2.482129000000000E+01      3.549500000000000E-01     -1.702734000000000E+02
4878000000.000000      5.276184000000000E-01      2.491796000000000E+01      3.512573000000000E-01     -1.708984000000000E+02
4879000000.000000      5.284119000000000E-01      2.494824000000000E+01      3.477783000000000E-01     -1.713047000000000E+02
4880000000.000000      5.307312000000000E-01      2.478027000000000E+01      3.449402000000000E-01     -1.719922000000000E+02
4881000000.000000      5.287781000000000E-01      2.457715000000000E+01      3.416138000000000E-01     -1.725703000000000E+02
4882000000.000000      5.320129000000000E-01      2.431250000000000E+01      3.388214000000000E-01     -1.732578000000000E+02
4883000000.000000      5.298157000000000E-01      2.426855000000000E+01      3.330383000000000E-01     -1.736641000000000E+02
4884000000.000000      5.331726000000000E-01      2.423437000000000E+01      3.307800000000000E-01     -1.743047000000000E+02
4885000000.000000      5.315857000000000E-01      2.407324000000000E+01      3.277588000000000E-01     -1.746016000000000E+02
4886000000.000000      5.319214000000000E-01      2.375488000000000E+01      3.228302000000000E-01     -1.749922000000000E+02
4887000000.000000      5.340881000000000E-01      2.378808000000000E+01      3.212433000000000E-01     -1.755938000000000E+02
4888000000.000000      5.354004000000000E-01      2.349902000000000E+01      3.174133000000000E-01     -1.762266000000000E+02
4889000000.000000      5.360413000000000E-01      2.340137000000000E+01      3.141937000000000E-01     -1.766328000000000E+02
4890000000.000000      5.344849000000000E-01      2.318164000000000E+01      3.105621000000000E-01     -1.773438000000000E+02
4891000000.000000      5.369873000000000E-01      2.315332000000000E+01      3.065033000000000E-01     -1.776328000000000E+02
4892000000.000000      5.364685000000000E-01      2.292480000000000E+01      3.036652000000000E-01     -1.778594000000000E+02
4893000000.000000      5.363770000000000E-01      2.288672000000000E+01      2.995911000000000E-01     -1.785391000000000E+02
4894000000.000000      5.375366000000000E-01      2.283594000000000E+01      2.959900000000000E-01     -1.787500000000000E+02
4895000000.000000      5.383301000000000E-01      2.259863000000000E+01      2.937164000000000E-01     -1.791953000000000E+02
4896000000.000000      5.380859000000000E-01      2.223145000000000E+01      2.899628000000000E-01     -1.797344000000000E+02
4897000000.000000      5.373840000000000E-01      2.236914000000000E+01      2.867584000000000E-01      1.798750000000000E+02
4898000000.000000      5.377502000000000E-01      2.244043000000000E+01      2.834167000000000E-01      1.796172000000000E+02
4899000000.000000      5.382690000000000E-01      2.211328000000000E+01      2.810059000000000E-01      1.791719000000000E+02
4900000000.000000      5.393677000000000E-01      2.194629000000000E+01      2.766266000000000E-01      1.786641000000000E+02
4901000000.000000      5.408325000000000E-01      2.184863000000000E+01      2.743073000000000E-01      1.783906000000000E+02
4902000000.000000      5.411987000000000E-01      2.159082000000000E+01      2.715149000000000E-01      1.781172000000000E+02
4903000000.000000      5.390930000000000E-01      2.155078000000000E+01      2.665863000000000E-01      1.777578000000000E+02
4904000000.000000      5.397034000000000E-01      2.111133000000000E+01      2.648773000000000E-01      1.771797000000000E+02
4905000000.000000      5.390320000000000E-01      2.128418000000000E+01      2.614288000000000E-01      1.768828000000000E+02
4906000000.000000      5.404053000000000E-01      2.092187000000000E+01      2.584381000000000E-01      1.767969000000000E+02
4907000000.000000      5.402832000000000E-01      2.075684000000000E+01      2.550354000000000E-01      1.762500000000000E+02
4908000000.000000      5.422363000000000E-01      2.065527000000000E+01      2.522736000000000E-01      1.758047000000000E+02
4909000000.000000      5.391541000000000E-01      2.048730000000000E+01      2.485580000000000E-01      1.754219000000000E+02
4910000000.000000      5.418091000000000E-01      2.041211000000000E+01      2.457352000000000E-01      1.751797000000000E+02
4911000000.000000      5.411377000000000E-01      2.043262000000000E+01      2.426605000000000E-01      1.751172000000000E+02
4912000000.000000      5.406189000000000E-01      2.035547000000000E+01      2.389908000000000E-01      1.746484000000000E+02
4913000000.000000      5.408936000000000E-01      1.995996000000000E+01      2.368164000000000E-01      1.742109000000000E+02
4914000000.000000      5.419617000000000E-01      1.982031000000000E+01      2.330322000000000E-01      1.739922000000000E+02
4915000000.000000      5.417786000000000E-01      1.991601000000000E+01      2.295837000000000E-01      1.734219000000000E+02
4916000000.000000      5.421448000000000E-01      1.991894000000000E+01      2.261429000000000E-01      1.731328000000000E+02
4917000000.000000      5.415039000000000E-01      1.938086000000000E+01      2.227936000000000E-01      1.729766000000000E+02
4918000000.000000      5.412598000000000E-01      1.945508000000000E+01      2.194214000000000E-01      1.725156000000000E+02
4919000000.000000      5.427246000000000E-01      1.925683000000000E+01      2.163391000000000E-01      1.724297000000000E+02
4920000000.000000      5.427551000000000E-01      1.908594000000000E+01      2.124634000000000E-01      1.719922000000000E+02
4921000000.000000      5.415955000000000E-01      1.918262000000000E+01      2.102737000000000E-01      1.717969000000000E+02
4922000000.000000      5.429993000000000E-01      1.897949000000000E+01      2.061615000000000E-01      1.718594000000000E+02
4923000000.000000      5.427856000000000E-01      1.876562000000000E+01      2.028275000000000E-01      1.715937000000000E+02
4924000000.000000      5.416260000000000E-01      1.857226000000000E+01      1.990814000000000E-01      1.712031000000000E+02
4925000000.000000      5.426025000000000E-01      1.837402000000000E+01      1.960602000000000E-01      1.710469000000000E+02
4926000000.000000      5.438232000000000E-01      1.847852000000000E+01      1.929474000000000E-01      1.707891000000000E+02
4927000000.000000      5.415955000000000E-01      1.827246000000000E+01      1.890869000000000E-01      1.708203000000000E+02
4928000000.000000      5.428772000000000E-01      1.816113000000000E+01      1.854553000000000E-01      1.704922000000000E+02
4929000000.000000      5.416870000000000E-01      1.798437000000000E+01      1.818695000000000E-01      1.705781000000000E+02
4930000000.000000      5.422974000000000E-01      1.806543000000000E+01      1.790314000000000E-01      1.704687000000000E+02
4931000000.000000      5.429382000000000E-01      1.772168000000000E+01      1.758652000000000E-01      1.705391000000000E+02
4932000000.000000      5.424805000000000E-01      1.742383000000000E+01      1.715698000000000E-01      1.703047000000000E+02
4933000000.000000      5.432739000000000E-01      1.734961000000000E+01      1.676025000000000E-01      1.707109000000000E+02
4934000000.000000      5.448914000000000E-01      1.715918000000000E+01      1.648636000000000E-01      1.705234000000000E+02
4935000000.000000      5.447998000000000E-01      1.739355000000000E+01      1.616058000000000E-01      1.707422000000000E+02
4936000000.000000      5.437622000000000E-01      1.706445000000000E+01      1.574097000000000E-01      1.711562000000000E+02
4937000000.000000      5.435486000000000E-01      1.695019000000000E+01      1.543655000000000E-01      1.710078000000000E+02
4938000000.000000      5.428162000000000E-01      1.683887000000000E+01      1.510086000000000E-01      1.714297000000000E+02
4939000000.000000      5.429382000000000E-01      1.689355000000000E+01      1.472549000000000E-01      1.717578000000000E+02
4940000000.000000      5.454407000000000E-01      1.668457000000000E+01      1.441498000000000E-01      1.720156000000000E+02
4941000000.000000      5.457764000000000E-01      1.650391000000000E+01      1.411667000000000E-01      1.725937000000000E+02
4942000000.000000      5.428467000000000E-01      1.650781000000000E+01      1.375580000000000E-01      1.729687000000000E+02
4943000000.000000      5.449524000000000E-01      1.634180000000000E+01      1.345596000000000E-01      1.735781000000000E+02
4944000000.000000      5.456543000000000E-01      1.600390000000000E+01      1.317062000000000E-01      1.741875000000000E+02
4945000000.000000      5.448914000000000E-01      1.584766000000000E+01      1.283875000000000E-01      1.748437000000000E+02
4946000000.000000      5.435791000000000E-01      1.592871000000000E+01      1.257706000000000E-01      1.755078000000000E+02
4947000000.000000      5.443420000000000E-01      1.566748000000000E+01      1.225853000000000E-01      1.762891000000000E+02
4948000000.000000      5.453491000000000E-01      1.572412000000000E+01      1.197662000000000E-01      1.772734000000000E+02
4949000000.000000      5.423279000000000E-01      1.563330000000000E+01      1.174736000000000E-01      1.785156000000000E+02
4950000000.000000      5.454102000000000E-01      1.539551000000000E+01      1.145515000000000E-01      1.794297000000000E+02
4951000000.000000      5.452576000000000E-01      1.522949000000000E+01      1.122856000000000E-01     -1.797266000000000E+02
4952000000.000000      5.453796000000000E-01      1.499756000000000E+01      1.097717000000000E-01     -1.783203000000000E+02
4953000000.000000      5.441284000000000E-01      1.480664000000000E+01      1.078491000000000E-01     -1.767578000000000E+02
4954000000.000000      5.449829000000000E-01      1.496582000000000E+01      1.061783000000000E-01     -1.755000000000000E+02
