! Network Analyzer HP8722D
! Hewlett-Packard
! Data name: Linha & Wilkinson
! Saver's name: Rodrigo Anjos
! Comments: Teste da utilização de aquisição
continua pelo VNA HP8722D
! Time and date: 23/5/2025 10:34
!              Frequency                     S11                                                   S21                                                   S12                                                   S22
# HZ  S  MA R 50
4800000000.000000      3.164673000000000E-01      3.712305000000000E+01      4.692841000000000E-01     -1.281953000000000E+02
4801000000.000000      3.170166000000000E-01      3.737109000000000E+01      4.703827000000000E-01     -1.288516000000000E+02
4802000000.000000      3.180695000000000E-01      3.746094000000000E+01      4.712524000000000E-01     -1.295312000000000E+02
4803000000.000000      3.189392000000000E-01      3.770898000000000E+01      4.744110000000000E-01     -1.302969000000000E+02
4804000000.000000      3.195953000000000E-01      3.793945000000000E+01      4.749603000000000E-01     -1.308906000000000E+02
4805000000.000000      3.215637000000000E-01      3.796093000000000E+01      4.778290000000000E-01     -1.317500000000000E+02
4806000000.000000      3.220825000000000E-01      3.814844000000000E+01      4.781952000000000E-01     -1.324063000000000E+02
4807000000.000000      3.235168000000000E-01      3.829102000000000E+01      4.788361000000000E-01     -1.332344000000000E+02
4808000000.000000      3.240662000000000E-01      3.847070000000000E+01      4.815369000000000E-01     -1.337891000000000E+02
4809000000.000000      3.255157000000000E-01      3.871679000000000E+01      4.828644000000000E-01     -1.347265000000000E+02
4810000000.000000      3.270264000000000E-01      3.877344000000000E+01      4.834290000000000E-01     -1.353281000000000E+02
4811000000.000000      3.281097000000000E-01      3.895898000000000E+01      4.840393000000000E-01     -1.361328000000000E+02
4812000000.000000      3.303223000000000E-01      3.912890000000000E+01      4.850006000000000E-01     -1.368281000000000E+02
4813000000.000000      3.311157000000000E-01      3.925000000000000E+01      4.858246000000000E-01     -1.376797000000000E+02
4814000000.000000      3.321991000000000E-01      3.925000000000000E+01      4.882355000000000E-01     -1.380312000000000E+02
4815000000.000000      3.339996000000000E-01      3.935937000000000E+01      4.879761000000000E-01     -1.389922000000000E+02
4816000000.000000      3.358307000000000E-01      3.949414000000000E+01      4.887543000000000E-01     -1.395625000000000E+02
4817000000.000000      3.369293000000000E-01      3.958789000000000E+01      4.865570000000000E-01     -1.404844000000000E+02
4818000000.000000      3.381805000000000E-01      3.956055000000000E+01      4.881439000000000E-01     -1.412969000000000E+02
4819000000.000000      3.407135000000000E-01      3.962891000000000E+01      4.880066000000000E-01     -1.421016000000000E+02
4820000000.000000      3.411713000000000E-01      3.976953000000000E+01      4.889679000000000E-01     -1.426641000000000E+02
4821000000.000000      3.434906000000000E-01      3.972656000000000E+01      4.890442000000000E-01     -1.434844000000000E+02
4822000000.000000      3.452301000000000E-01      3.971680000000000E+01      4.874268000000000E-01     -1.441797000000000E+02
4823000000.000000      3.463440000000000E-01      3.969336000000000E+01      4.900055000000000E-01     -1.448594000000000E+02
4824000000.000000      3.487244000000000E-01      3.987890000000000E+01      4.878387000000000E-01     -1.458750000000000E+02
4825000000.000000      3.499756000000000E-01      3.973437000000000E+01      4.884644000000000E-01     -1.462969000000000E+02
4826000000.000000      3.515930000000000E-01      3.974804000000000E+01      4.877472000000000E-01     -1.472891000000000E+02
4827000000.000000      3.531494000000000E-01      3.971094000000000E+01      4.871979000000000E-01     -1.478125000000000E+02
4828000000.000000      3.551636000000000E-01      3.970312000000000E+01      4.880219000000000E-01     -1.485078000000000E+02
4829000000.000000      3.565979000000000E-01      3.978711000000000E+01      4.874115000000000E-01     -1.491875000000000E+02
4830000000.000000      3.581543000000000E-01      3.960546000000000E+01      4.866028000000000E-01     -1.500781000000000E+02
4831000000.000000      3.598480000000000E-01      3.963476000000000E+01      4.866180000000000E-01     -1.506797000000000E+02
4832000000.000000      3.623199000000000E-01      3.954687000000000E+01      4.847717000000000E-01     -1.514531000000000E+02
4833000000.000000      3.625488000000000E-01      3.941601000000000E+01      4.843903000000000E-01     -1.520156000000000E+02
4834000000.000000      3.647003000000000E-01      3.927148000000000E+01      4.834137000000000E-01     -1.527031000000000E+02
4835000000.000000      3.666840000000000E-01      3.921679000000000E+01      4.835815000000000E-01     -1.535078000000000E+02
4836000000.000000      3.689880000000000E-01      3.912500000000000E+01      4.820709000000000E-01     -1.542656000000000E+02
4837000000.000000      3.699646000000000E-01      3.912304000000000E+01      4.801178000000000E-01     -1.553359000000000E+02
4838000000.000000      3.710327000000000E-01      3.891602000000000E+01      4.794617000000000E-01     -1.555625000000000E+02
4839000000.000000      3.748016000000000E-01      3.887695000000000E+01      4.801636000000000E-01     -1.563828000000000E+02
4840000000.000000      3.753662000000000E-01      3.863476000000000E+01      4.767761000000000E-01     -1.571719000000000E+02
4841000000.000000      3.767853000000000E-01      3.862305000000000E+01      4.778137000000000E-01     -1.579141000000000E+02
4842000000.000000      3.781281000000000E-01      3.830078000000000E+01      4.753265000000000E-01     -1.585625000000000E+02
4843000000.000000      3.807220000000000E-01      3.816797000000000E+01      4.747467000000000E-01     -1.594844000000000E+02
4844000000.000000      3.807220000000000E-01      3.805078000000000E+01      4.720001000000000E-01     -1.600703000000000E+02
4845000000.000000      3.828583000000000E-01      3.811132000000000E+01      4.715881000000000E-01     -1.607969000000000E+02
4846000000.000000      3.843994000000000E-01      3.778320000000000E+01      4.697266000000000E-01     -1.613906000000000E+02
4847000000.000000      3.857727000000000E-01      3.774609000000000E+01      4.686737000000000E-01     -1.622109000000000E+02
4848000000.000000      3.878632000000000E-01      3.741796000000000E+01      4.650574000000000E-01     -1.629453000000000E+02
4849000000.000000      3.891754000000000E-01      3.726953000000000E+01      4.638367000000000E-01     -1.635937000000000E+02
4850000000.000000      3.897095000000000E-01      3.712109000000000E+01      4.620209000000000E-01     -1.642891000000000E+02
4851000000.000000      3.907166000000000E-01      3.704297000000000E+01      4.615479000000000E-01     -1.650078000000000E+02
4852000000.000000      3.924561000000000E-01      3.675586000000000E+01      4.590149000000000E-01     -1.656719000000000E+02
4853000000.000000      3.945465000000000E-01      3.656641000000000E+01      4.555511000000000E-01     -1.665313000000000E+02
4854000000.000000      3.953094000000000E-01      3.634961000000000E+01      4.542999000000000E-01     -1.673984000000000E+02
4855000000.000000      3.968048000000000E-01      3.614453000000000E+01      4.508514000000000E-01     -1.678047000000000E+02
4856000000.000000      3.975372000000000E-01      3.598242000000000E+01      4.489441000000000E-01     -1.686563000000000E+02
4857000000.000000      3.991089000000000E-01      3.580664000000000E+01      4.495239000000000E-01     -1.692812000000000E+02
4858000000.000000      4.002380000000000E-01      3.548633000000000E+01      4.455566000000000E-01     -1.698594000000000E+02
4859000000.000000      4.006348000000000E-01      3.523438000000000E+01      4.432526000000000E-01     -1.707656000000000E+02
4860000000.000000      4.010315000000000E-01      3.514062000000000E+01      4.395294000000000E-01     -1.712812000000000E+02
4861000000.000000      4.031677000000000E-01      3.482422000000000E+01      4.370880000000000E-01     -1.721016000000000E+02
4862000000.000000      4.030304000000000E-01      3.467382000000000E+01      4.356537000000000E-01     -1.727656000000000E+02
4863000000.000000      4.048309000000000E-01      3.455664000000000E+01      4.319916000000000E-01     -1.735078000000000E+02
4864000000.000000      4.058380000000000E-01      3.416016000000000E+01      4.302063000000000E-01     -1.739531000000000E+02
4865000000.000000      4.062653000000000E-01      3.394336000000000E+01      4.267426000000000E-01     -1.746094000000000E+02
4866000000.000000      4.078369000000000E-01      3.364648000000000E+01      4.228973000000000E-01     -1.754062000000000E+02
4867000000.000000      4.076691000000000E-01      3.356445000000000E+01      4.202881000000000E-01     -1.761250000000000E+02
4868000000.000000      4.088898000000000E-01      3.335938000000000E+01      4.167328000000000E-01     -1.766719000000000E+02
4869000000.000000      4.095306000000000E-01      3.309961000000000E+01      4.135895000000000E-01     -1.773984000000000E+02
4870000000.000000      4.102173000000000E-01      3.291601000000000E+01      4.105072000000000E-01     -1.780078000000000E+02
4871000000.000000      4.107971000000000E-01      3.257031000000000E+01      4.077911000000000E-01     -1.786016000000000E+02
4872000000.000000      4.115295000000000E-01      3.238476000000000E+01      4.047546000000000E-01     -1.790390000000000E+02
4873000000.000000      4.123840000000000E-01      3.218945000000000E+01      4.014282000000000E-01     -1.797500000000000E+02
4874000000.000000      4.124908000000000E-01      3.200000000000000E+01      3.972778000000000E-01      1.796016000000000E+02
4875000000.000000      4.135284000000000E-01      3.164160000000000E+01      3.943329000000000E-01      1.789531000000000E+02
4876000000.000000      4.140320000000000E-01      3.159472000000000E+01      3.913116000000000E-01      1.785625000000000E+02
4877000000.000000      4.140778000000000E-01      3.113476000000000E+01      3.875732000000000E-01      1.777187000000000E+02
4878000000.000000      4.138489000000000E-01      3.100000000000000E+01      3.854980000000000E-01      1.773594000000000E+02
4879000000.000000      4.147797000000000E-01      3.082031000000000E+01      3.792877000000000E-01      1.768516000000000E+02
4880000000.000000      4.158020000000000E-01      3.050683000000000E+01      3.768311000000000E-01      1.761719000000000E+02
4881000000.000000      4.148560000000000E-01      3.031641000000000E+01      3.735046000000000E-01      1.757187000000000E+02
4882000000.000000      4.168243000000000E-01      3.016211000000000E+01      3.703766000000000E-01      1.749922000000000E+02
4883000000.000000      4.156799000000000E-01      2.974804000000000E+01      3.667450000000000E-01      1.745781000000000E+02
4884000000.000000      4.164124000000000E-01      2.968554000000000E+01      3.627930000000000E-01      1.740781000000000E+02
4885000000.000000      4.172821000000000E-01      2.940722000000000E+01      3.584747000000000E-01      1.737344000000000E+02
4886000000.000000      4.171753000000000E-01      2.925976000000000E+01      3.560333000000000E-01      1.731641000000000E+02
4887000000.000000      4.167175000000000E-01      2.889648000000000E+01      3.527679000000000E-01      1.724297000000000E+02
4888000000.000000      4.160767000000000E-01      2.862011000000000E+01      3.489380000000000E-01      1.722109000000000E+02
4889000000.000000      4.167175000000000E-01      2.861621000000000E+01      3.439331000000000E-01      1.716016000000000E+02
4890000000.000000      4.165192000000000E-01      2.827539000000000E+01      3.417358000000000E-01      1.710938000000000E+02
4891000000.000000      4.176025000000000E-01      2.809179000000000E+01      3.386230000000000E-01      1.706250000000000E+02
4892000000.000000      4.175415000000000E-01      2.785351000000000E+01      3.351288000000000E-01      1.705469000000000E+02
4893000000.000000      4.170685000000000E-01      2.754785000000000E+01      3.308105000000000E-01      1.698594000000000E+02
4894000000.000000      4.177246000000000E-01      2.745800000000000E+01      3.273621000000000E-01      1.695859000000000E+02
4895000000.000000      4.186249000000000E-01      2.716894000000000E+01      3.240967000000000E-01      1.690703000000000E+02
4896000000.000000      4.172974000000000E-01      2.701367000000000E+01      3.217010000000000E-01      1.686250000000000E+02
4897000000.000000      4.172974000000000E-01      2.684765000000000E+01      3.176117000000000E-01      1.681328000000000E+02
4898000000.000000      4.168243000000000E-01      2.659082000000000E+01      3.140106000000000E-01      1.679375000000000E+02
4899000000.000000      4.174347000000000E-01      2.639941000000000E+01      3.114014000000000E-01      1.673437000000000E+02
4900000000.000000      4.180145000000000E-01      2.623730000000000E+01      3.081360000000000E-01      1.671094000000000E+02
4901000000.000000      4.176941000000000E-01      2.600683000000000E+01      3.049927000000000E-01      1.667266000000000E+02
4902000000.000000      4.175873000000000E-01      2.576757000000000E+01      3.017731000000000E-01      1.663281000000000E+02
4903000000.000000      4.179077000000000E-01      2.558008000000000E+01      2.975006000000000E-01      1.659453000000000E+02
4904000000.000000      4.176788000000000E-01      2.528906000000000E+01      2.944946000000000E-01      1.654140000000000E+02
4905000000.000000      4.165497000000000E-01      2.511719000000000E+01      2.912292000000000E-01      1.650781000000000E+02
4906000000.000000      4.163513000000000E-01      2.506933000000000E+01      2.878265000000000E-01      1.650312000000000E+02
4907000000.000000      4.178162000000000E-01      2.461426000000000E+01      2.849426000000000E-01      1.644297000000000E+02
4908000000.000000      4.163666000000000E-01      2.456347000000000E+01      2.812958000000000E-01      1.639141000000000E+02
4909000000.000000      4.163971000000000E-01      2.434961000000000E+01      2.770996000000000E-01      1.637031000000000E+02
4910000000.000000      4.156189000000000E-01      2.440722000000000E+01      2.747345000000000E-01      1.632500000000000E+02
4911000000.000000      4.164734000000000E-01      2.414648000000000E+01      2.702637000000000E-01      1.630078000000000E+02
4912000000.000000      4.153900000000000E-01      2.403809000000000E+01      2.666168000000000E-01      1.625313000000000E+02
4913000000.000000      4.156342000000000E-01      2.368750000000000E+01      2.638092000000000E-01      1.622031000000000E+02
4914000000.000000      4.155121000000000E-01      2.349219000000000E+01      2.601166000000000E-01      1.620547000000000E+02
4915000000.000000      4.150238000000000E-01      2.349512000000000E+01      2.561798000000000E-01      1.616406000000000E+02
4916000000.000000      4.139709000000000E-01      2.323535000000000E+01      2.527771000000000E-01      1.611953000000000E+02
4917000000.000000      4.144745000000000E-01      2.304101000000000E+01      2.494507000000000E-01      1.609453000000000E+02
4918000000.000000      4.148560000000000E-01      2.284180000000000E+01      2.456589000000000E-01      1.607031000000000E+02
4919000000.000000      4.131012000000000E-01      2.265723000000000E+01      2.423096000000000E-01      1.605469000000000E+02
4920000000.000000      4.136810000000000E-01      2.258789000000000E+01      2.383118000000000E-01      1.600781000000000E+02
4921000000.000000      4.139252000000000E-01      2.247754000000000E+01      2.348175000000000E-01      1.598281000000000E+02
4922000000.000000      4.139862000000000E-01      2.222363000000000E+01      2.315979000000000E-01      1.598047000000000E+02
4923000000.000000      4.133759000000000E-01      2.212988000000000E+01      2.266312000000000E-01      1.596172000000000E+02
4924000000.000000      4.135132000000000E-01      2.194922000000000E+01      2.228317000000000E-01      1.590703000000000E+02
4925000000.000000      4.129333000000000E-01      2.178027000000000E+01      2.196579000000000E-01      1.590391000000000E+02
4926000000.000000      4.133301000000000E-01      2.170312000000000E+01      2.161102000000000E-01      1.588828000000000E+02
4927000000.000000      4.133453000000000E-01      2.151172000000000E+01      2.120590000000000E-01      1.587422000000000E+02
4928000000.000000      4.127502000000000E-01      2.117578000000000E+01      2.078552000000000E-01      1.585938000000000E+02
4929000000.000000      4.112091000000000E-01      2.108105000000000E+01      2.042007000000000E-01      1.585703000000000E+02
4930000000.000000      4.119263000000000E-01      2.105175000000000E+01      2.002487000000000E-01      1.583125000000000E+02
4931000000.000000      4.116364000000000E-01      2.072558000000000E+01      1.969986000000000E-01      1.583047000000000E+02
4932000000.000000      4.105988000000000E-01      2.055762000000000E+01      1.921844000000000E-01      1.584141000000000E+02
4933000000.000000      4.104767000000000E-01      2.048730000000000E+01      1.883545000000000E-01      1.584922000000000E+02
4934000000.000000      4.115601000000000E-01      2.020703000000000E+01      1.849365000000000E-01      1.583906000000000E+02
4935000000.000000      4.120026000000000E-01      2.027637000000000E+01      1.815567000000000E-01      1.586641000000000E+02
4936000000.000000      4.095917000000000E-01      1.984179000000000E+01      1.767044000000000E-01      1.587891000000000E+02
4937000000.000000      4.099884000000000E-01      1.958105000000000E+01      1.733246000000000E-01      1.590703000000000E+02
4938000000.000000      4.095459000000000E-01      1.963086000000000E+01      1.695633000000000E-01      1.592813000000000E+02
4939000000.000000      4.084015000000000E-01      1.943457000000000E+01      1.656265000000000E-01      1.594297000000000E+02
4940000000.000000      4.097137000000000E-01      1.922461000000000E+01      1.616211000000000E-01      1.596562000000000E+02
4941000000.000000      4.095612000000000E-01      1.924023000000000E+01      1.585846000000000E-01      1.603125000000000E+02
4942000000.000000      4.075775000000000E-01      1.909375000000000E+01      1.549225000000000E-01      1.605937000000000E+02
4943000000.000000      4.085541000000000E-01      1.886035000000000E+01      1.514816000000000E-01      1.613203000000000E+02
4944000000.000000      4.084778000000000E-01      1.878711000000000E+01      1.477737000000000E-01      1.618438000000000E+02
4945000000.000000      4.086151000000000E-01      1.844141000000000E+01      1.441116000000000E-01      1.624375000000000E+02
4946000000.000000      4.080048000000000E-01      1.823926000000000E+01      1.413116000000000E-01      1.634375000000000E+02
4947000000.000000      4.076843000000000E-01      1.815722000000000E+01      1.378937000000000E-01      1.640859000000000E+02
4948000000.000000      4.079742000000000E-01      1.811621000000000E+01      1.345596000000000E-01      1.648359000000000E+02
4949000000.000000      4.072113000000000E-01      1.793750000000000E+01      1.319656000000000E-01      1.663359000000000E+02
4950000000.000000      4.072418000000000E-01      1.785547000000000E+01      1.291656000000000E-01      1.670859000000000E+02
4951000000.000000      4.065094000000000E-01      1.769043000000000E+01      1.267319000000000E-01      1.682500000000000E+02
4952000000.000000      4.057770000000000E-01      1.741992000000000E+01      1.240654000000000E-01      1.696250000000000E+02
4953000000.000000      4.055939000000000E-01      1.727930000000000E+01      1.216469000000000E-01      1.709922000000000E+02
4954000000.000000      4.051361000000000E-01      1.708203000000000E+01      1.191177000000000E-01      1.722422000000000E+02
