! Network Analyzer HP8722D
! Hewlett-Packard
! Data name: Linha & Wilkinson
! Saver's name: Rodrigo Anjos
! Comments: Teste da utilização de aquisição
continua pelo VNA HP8722D
! Time and date: 23/5/2025 09:20
!              Frequency                     S11                                                   S21                                                   S12                                                   S22
# HZ  S  MA R 50
4800000000.000000      3.315277000000000E-01      3.557812000000000E+01      4.610901000000000E-01     -1.263867000000000E+02
4801000000.000000      3.321533000000000E-01      3.577539000000000E+01      4.609070000000000E-01     -1.273906000000000E+02
4802000000.000000      3.329773000000000E-01      3.592968000000000E+01      4.645996000000000E-01     -1.278164000000000E+02
4803000000.000000      3.334656000000000E-01      3.609961000000000E+01      4.668427000000000E-01     -1.285000000000000E+02
4804000000.000000      3.339539000000000E-01      3.625000000000000E+01      4.675598000000000E-01     -1.290703000000000E+02
4805000000.000000      3.358612000000000E-01      3.641016000000000E+01      4.685059000000000E-01     -1.301172000000000E+02
4806000000.000000      3.358612000000000E-01      3.657812000000000E+01      4.710541000000000E-01     -1.306953000000000E+02
4807000000.000000      3.370514000000000E-01      3.678711000000000E+01      4.716797000000000E-01     -1.315469000000000E+02
4808000000.000000      3.375702000000000E-01      3.691406000000000E+01      4.729004000000000E-01     -1.322891000000000E+02
4809000000.000000      3.388977000000000E-01      3.709961000000000E+01      4.741821000000000E-01     -1.329766000000000E+02
4810000000.000000      3.404694000000000E-01      3.722851000000000E+01      4.746857000000000E-01     -1.335781000000000E+02
4811000000.000000      3.419189000000000E-01      3.728711000000000E+01      4.768524000000000E-01     -1.344297000000000E+02
4812000000.000000      3.439178000000000E-01      3.745703000000000E+01      4.776001000000000E-01     -1.352813000000000E+02
4813000000.000000      3.442078000000000E-01      3.764453000000000E+01      4.789429000000000E-01     -1.359922000000000E+02
4814000000.000000      3.450928000000000E-01      3.762500000000000E+01      4.778900000000000E-01     -1.365703000000000E+02
4815000000.000000      3.467102000000000E-01      3.780078000000000E+01      4.787140000000000E-01     -1.374609000000000E+02
4816000000.000000      3.487701000000000E-01      3.788281000000000E+01      4.794464000000000E-01     -1.381484000000000E+02
4817000000.000000      3.498383000000000E-01      3.803711000000000E+01      4.803467000000000E-01     -1.388438000000000E+02
4818000000.000000      3.511353000000000E-01      3.802343000000000E+01      4.803619000000000E-01     -1.396406000000000E+02
4819000000.000000      3.533020000000000E-01      3.809570000000000E+01      4.808655000000000E-01     -1.401875000000000E+02
4820000000.000000      3.529205000000000E-01      3.816797000000000E+01      4.806976000000000E-01     -1.410156000000000E+02
4821000000.000000      3.562927000000000E-01      3.823633000000000E+01      4.819336000000000E-01     -1.417266000000000E+02
4822000000.000000      3.566589000000000E-01      3.817187000000000E+01      4.802246000000000E-01     -1.424219000000000E+02
4823000000.000000      3.585510000000000E-01      3.826172000000000E+01      4.810486000000000E-01     -1.433281000000000E+02
4824000000.000000      3.605347000000000E-01      3.835938000000000E+01      4.806366000000000E-01     -1.440781000000000E+02
4825000000.000000      3.616486000000000E-01      3.828711000000000E+01      4.795990000000000E-01     -1.446875000000000E+02
4826000000.000000      3.634033000000000E-01      3.827734000000000E+01      4.815216000000000E-01     -1.455156000000000E+02
4827000000.000000      3.650055000000000E-01      3.835351000000000E+01      4.807892000000000E-01     -1.462109000000000E+02
4828000000.000000      3.668823000000000E-01      3.831055000000000E+01      4.803772000000000E-01     -1.468672000000000E+02
4829000000.000000      3.683929000000000E-01      3.837891000000000E+01      4.804077000000000E-01     -1.477109000000000E+02
4830000000.000000      3.701324000000000E-01      3.823242000000000E+01      4.792023000000000E-01     -1.484766000000000E+02
4831000000.000000      3.705597000000000E-01      3.820313000000000E+01      4.800415000000000E-01     -1.491328000000000E+02
4832000000.000000      3.732758000000000E-01      3.831640000000000E+01      4.772644000000000E-01     -1.497422000000000E+02
4833000000.000000      3.741455000000000E-01      3.803906000000000E+01      4.775238000000000E-01     -1.503672000000000E+02
4834000000.000000      3.757629000000000E-01      3.811914000000000E+01      4.764709000000000E-01     -1.513203000000000E+02
4835000000.000000      3.778687000000000E-01      3.800976000000000E+01      4.760132000000000E-01     -1.519766000000000E+02
4836000000.000000      3.796539000000000E-01      3.800976000000000E+01      4.739227000000000E-01     -1.526172000000000E+02
4837000000.000000      3.807983000000000E-01      3.793164000000000E+01      4.736633000000000E-01     -1.535312000000000E+02
4838000000.000000      3.816833000000000E-01      3.778125000000000E+01      4.732513000000000E-01     -1.540469000000000E+02
4839000000.000000      3.854828000000000E-01      3.778515000000000E+01      4.721375000000000E-01     -1.547188000000000E+02
4840000000.000000      3.862762000000000E-01      3.755078000000000E+01      4.718323000000000E-01     -1.553984000000000E+02
4841000000.000000      3.875122000000000E-01      3.758203000000000E+01      4.705811000000000E-01     -1.561172000000000E+02
4842000000.000000      3.894196000000000E-01      3.736133000000000E+01      4.687653000000000E-01     -1.566484000000000E+02
4843000000.000000      3.917542000000000E-01      3.713476000000000E+01      4.690399000000000E-01     -1.577500000000000E+02
4844000000.000000      3.919373000000000E-01      3.701953000000000E+01      4.671783000000000E-01     -1.585156000000000E+02
4845000000.000000      3.941193000000000E-01      3.698633000000000E+01      4.652557000000000E-01     -1.591484000000000E+02
4846000000.000000      3.961792000000000E-01      3.683203000000000E+01      4.640350000000000E-01     -1.598359000000000E+02
4847000000.000000      3.970642000000000E-01      3.673828000000000E+01      4.627228000000000E-01     -1.605937000000000E+02
4848000000.000000      3.983154000000000E-01      3.647656000000000E+01      4.597473000000000E-01     -1.611250000000000E+02
4849000000.000000      3.997498000000000E-01      3.625586000000000E+01      4.606628000000000E-01     -1.619453000000000E+02
4850000000.000000      4.011536000000000E-01      3.618164000000000E+01      4.569702000000000E-01     -1.627266000000000E+02
4851000000.000000      4.020996000000000E-01      3.615820000000000E+01      4.569397000000000E-01     -1.632969000000000E+02
4852000000.000000      4.028015000000000E-01      3.588281000000000E+01      4.542236000000000E-01     -1.640469000000000E+02
4853000000.000000      4.046021000000000E-01      3.580078000000000E+01      4.502411000000000E-01     -1.647500000000000E+02
4854000000.000000      4.067535000000000E-01      3.552148000000000E+01      4.498444000000000E-01     -1.656563000000000E+02
4855000000.000000      4.074860000000000E-01      3.536718000000000E+01      4.479675000000000E-01     -1.663906000000000E+02
4856000000.000000      4.085388000000000E-01      3.521484000000000E+01      4.443817000000000E-01     -1.668906000000000E+02
4857000000.000000      4.097900000000000E-01      3.510351000000000E+01      4.436188000000000E-01     -1.675937000000000E+02
4858000000.000000      4.109497000000000E-01      3.478125000000000E+01      4.409332000000000E-01     -1.682188000000000E+02
4859000000.000000      4.123383000000000E-01      3.459961000000000E+01      4.393311000000000E-01     -1.690078000000000E+02
4860000000.000000      4.131012000000000E-01      3.449804000000000E+01      4.355011000000000E-01     -1.698203000000000E+02
4861000000.000000      4.137421000000000E-01      3.421484000000000E+01      4.328613000000000E-01     -1.704922000000000E+02
4862000000.000000      4.143982000000000E-01      3.409180000000000E+01      4.313965000000000E-01     -1.710234000000000E+02
4863000000.000000      4.161530000000000E-01      3.383398000000000E+01      4.284058000000000E-01     -1.719922000000000E+02
4864000000.000000      4.165955000000000E-01      3.357031000000000E+01      4.272461000000000E-01     -1.725234000000000E+02
4865000000.000000      4.172974000000000E-01      3.340625000000000E+01      4.217224000000000E-01     -1.730859000000000E+02
4866000000.000000      4.189606000000000E-01      3.307226000000000E+01      4.211884000000000E-01     -1.737734000000000E+02
4867000000.000000      4.183502000000000E-01      3.290625000000000E+01      4.169159000000000E-01     -1.744766000000000E+02
4868000000.000000      4.202881000000000E-01      3.264257000000000E+01      4.134979000000000E-01     -1.753828000000000E+02
4869000000.000000      4.209595000000000E-01      3.251367000000000E+01      4.109192000000000E-01     -1.762031000000000E+02
4870000000.000000      4.222565000000000E-01      3.231445000000000E+01      4.060822000000000E-01     -1.763828000000000E+02
4871000000.000000      4.223480000000000E-01      3.194531000000000E+01      4.045105000000000E-01     -1.773359000000000E+02
4872000000.000000      4.243927000000000E-01      3.183203000000000E+01      4.008331000000000E-01     -1.777422000000000E+02
4873000000.000000      4.238129000000000E-01      3.164258000000000E+01      3.980713000000000E-01     -1.783906000000000E+02
4874000000.000000      4.244537000000000E-01      3.154101000000000E+01      3.946991000000000E-01     -1.790859000000000E+02
4875000000.000000      4.250488000000000E-01      3.117285000000000E+01      3.904114000000000E-01     -1.797578000000000E+02
4876000000.000000      4.258881000000000E-01      3.114453000000000E+01      3.883362000000000E-01      1.796875000000000E+02
4877000000.000000      4.268188000000000E-01      3.075879000000000E+01      3.830414000000000E-01      1.789922000000000E+02
4878000000.000000      4.254150000000000E-01      3.048828000000000E+01      3.804474000000000E-01      1.785469000000000E+02
4879000000.000000      4.278107000000000E-01      3.024805000000000E+01      3.760681000000000E-01      1.781094000000000E+02
4880000000.000000      4.284668000000000E-01      2.999902000000000E+01      3.751526000000000E-01      1.773594000000000E+02
4881000000.000000      4.280701000000000E-01      2.988379000000000E+01      3.710632000000000E-01      1.769375000000000E+02
4882000000.000000      4.288788000000000E-01      2.971191000000000E+01      3.678284000000000E-01      1.764375000000000E+02
4883000000.000000      4.286499000000000E-01      2.931836000000000E+01      3.637390000000000E-01      1.758594000000000E+02
4884000000.000000      4.295502000000000E-01      2.925097000000000E+01      3.598785000000000E-01      1.753594000000000E+02
4885000000.000000      4.297333000000000E-01      2.898438000000000E+01      3.555908000000000E-01      1.752031000000000E+02
4886000000.000000      4.306183000000000E-01      2.892969000000000E+01      3.535156000000000E-01      1.745469000000000E+02
4887000000.000000      4.303894000000000E-01      2.864453000000000E+01      3.492889000000000E-01      1.738672000000000E+02
4888000000.000000      4.302368000000000E-01      2.823047000000000E+01      3.473358000000000E-01      1.734062000000000E+02
4889000000.000000      4.298706000000000E-01      2.808105000000000E+01      3.423462000000000E-01      1.730859000000000E+02
4890000000.000000      4.297333000000000E-01      2.786230000000000E+01      3.391418000000000E-01      1.721562000000000E+02
4891000000.000000      4.308319000000000E-01      2.771973000000000E+01      3.345184000000000E-01      1.719453000000000E+02
4892000000.000000      4.305878000000000E-01      2.752050000000000E+01      3.330231000000000E-01      1.716328000000000E+02
4893000000.000000      4.312439000000000E-01      2.731152000000000E+01      3.272705000000000E-01      1.711641000000000E+02
4894000000.000000      4.306488000000000E-01      2.710938000000000E+01      3.249207000000000E-01      1.705937000000000E+02
4895000000.000000      4.326172000000000E-01      2.683887000000000E+01      3.236542000000000E-01      1.703984000000000E+02
4896000000.000000      4.324341000000000E-01      2.663183000000000E+01      3.189850000000000E-01      1.699766000000000E+02
4897000000.000000      4.306641000000000E-01      2.664941000000000E+01      3.151855000000000E-01      1.694766000000000E+02
4898000000.000000      4.311523000000000E-01      2.634082000000000E+01      3.124542000000000E-01      1.691015000000000E+02
4899000000.000000      4.315033000000000E-01      2.607812000000000E+01      3.086853000000000E-01      1.686094000000000E+02
4900000000.000000      4.312439000000000E-01      2.591504000000000E+01      3.052063000000000E-01      1.681953000000000E+02
4901000000.000000      4.316864000000000E-01      2.563769000000000E+01      3.024292000000000E-01      1.678750000000000E+02
4902000000.000000      4.307556000000000E-01      2.555761000000000E+01      3.000336000000000E-01      1.675547000000000E+02
4903000000.000000      4.317780000000000E-01      2.544824000000000E+01      2.952728000000000E-01      1.671016000000000E+02
4904000000.000000      4.314270000000000E-01      2.514843000000000E+01      2.916718000000000E-01      1.666016000000000E+02
4905000000.000000      4.306183000000000E-01      2.502344000000000E+01      2.894897000000000E-01      1.662812000000000E+02
4906000000.000000      4.296722000000000E-01      2.477246000000000E+01      2.855377000000000E-01      1.661172000000000E+02
4907000000.000000      4.303436000000000E-01      2.455664000000000E+01      2.825623000000000E-01      1.654531000000000E+02
4908000000.000000      4.306641000000000E-01      2.438672000000000E+01      2.795258000000000E-01      1.652969000000000E+02
4909000000.000000      4.306793000000000E-01      2.435937000000000E+01      2.743683000000000E-01      1.648828000000000E+02
4910000000.000000      4.292450000000000E-01      2.404297000000000E+01      2.723846000000000E-01      1.643984000000000E+02
4911000000.000000      4.297028000000000E-01      2.401953000000000E+01      2.685547000000000E-01      1.641719000000000E+02
4912000000.000000      4.294128000000000E-01      2.387695000000000E+01      2.656403000000000E-01      1.636797000000000E+02
4913000000.000000      4.302216000000000E-01      2.348242000000000E+01      2.620087000000000E-01      1.634063000000000E+02
4914000000.000000      4.295502000000000E-01      2.337988000000000E+01      2.583771000000000E-01      1.629922000000000E+02
4915000000.000000      4.301910000000000E-01      2.323730000000000E+01      2.545929000000000E-01      1.626328000000000E+02
4916000000.000000      4.299774000000000E-01      2.306836000000000E+01      2.513275000000000E-01      1.622500000000000E+02
4917000000.000000      4.280243000000000E-01      2.297558000000000E+01      2.481766000000000E-01      1.619922000000000E+02
4918000000.000000      4.285736000000000E-01      2.264355000000000E+01      2.434387000000000E-01      1.616641000000000E+02
4919000000.000000      4.291077000000000E-01      2.267578000000000E+01      2.405396000000000E-01      1.615937000000000E+02
4920000000.000000      4.289551000000000E-01      2.241406000000000E+01      2.365112000000000E-01      1.609219000000000E+02
4921000000.000000      4.284363000000000E-01      2.251367000000000E+01      2.337036000000000E-01      1.607578000000000E+02
4922000000.000000      4.281311000000000E-01      2.200684000000000E+01      2.296829000000000E-01      1.607500000000000E+02
4923000000.000000      4.274139000000000E-01      2.195605000000000E+01      2.258759000000000E-01      1.604609000000000E+02
4924000000.000000      4.281464000000000E-01      2.182519000000000E+01      2.209854000000000E-01      1.601797000000000E+02
4925000000.000000      4.276733000000000E-01      2.151074000000000E+01      2.183990000000000E-01      1.600547000000000E+02
4926000000.000000      4.272766000000000E-01      2.140137000000000E+01      2.145920000000000E-01      1.596953000000000E+02
4927000000.000000      4.273529000000000E-01      2.134277000000000E+01      2.105103000000000E-01      1.596328000000000E+02
4928000000.000000      4.277191000000000E-01      2.098242000000000E+01      2.073135000000000E-01      1.594141000000000E+02
4929000000.000000      4.265747000000000E-01      2.096191000000000E+01      2.031631000000000E-01      1.594453000000000E+02
4930000000.000000      4.273376000000000E-01      2.088281000000000E+01      1.993484000000000E-01      1.592109000000000E+02
4931000000.000000      4.255676000000000E-01      2.060840000000000E+01      1.958847000000000E-01      1.592344000000000E+02
4932000000.000000      4.265747000000000E-01      2.049902000000000E+01      1.916199000000000E-01      1.590469000000000E+02
4933000000.000000      4.255676000000000E-01      2.031445000000000E+01      1.874466000000000E-01      1.593047000000000E+02
4934000000.000000      4.265137000000000E-01      2.029004000000000E+01      1.837234000000000E-01      1.591953000000000E+02
4935000000.000000      4.270630000000000E-01      2.009668000000000E+01      1.806030000000000E-01      1.595781000000000E+02
4936000000.000000      4.239349000000000E-01      1.979590000000000E+01      1.759720000000000E-01      1.594844000000000E+02
4937000000.000000      4.253998000000000E-01      1.966406000000000E+01      1.727295000000000E-01      1.595078000000000E+02
4938000000.000000      4.249115000000000E-01      1.956445000000000E+01      1.685181000000000E-01      1.599219000000000E+02
4939000000.000000      4.249573000000000E-01      1.955371000000000E+01      1.652603000000000E-01      1.601484000000000E+02
4940000000.000000      4.242096000000000E-01      1.930957000000000E+01      1.609039000000000E-01      1.602422000000000E+02
4941000000.000000      4.248352000000000E-01      1.911426000000000E+01      1.576080000000000E-01      1.609375000000000E+02
4942000000.000000      4.236450000000000E-01      1.908789000000000E+01      1.537018000000000E-01      1.612500000000000E+02
4943000000.000000      4.236145000000000E-01      1.891504000000000E+01      1.508789000000000E-01      1.617812000000000E+02
4944000000.000000      4.232025000000000E-01      1.864648000000000E+01      1.472321000000000E-01      1.623594000000000E+02
4945000000.000000      4.240570000000000E-01      1.862402000000000E+01      1.434174000000000E-01      1.629453000000000E+02
4946000000.000000      4.244690000000000E-01      1.845703000000000E+01      1.403198000000000E-01      1.634375000000000E+02
4947000000.000000      4.234467000000000E-01      1.807324000000000E+01      1.370087000000000E-01      1.645234000000000E+02
4948000000.000000      4.230957000000000E-01      1.810644000000000E+01      1.338501000000000E-01      1.650859000000000E+02
4949000000.000000      4.221191000000000E-01      1.783984000000000E+01      1.313095000000000E-01      1.662891000000000E+02
4950000000.000000      4.222565000000000E-01      1.779004000000000E+01      1.282120000000000E-01      1.671719000000000E+02
4951000000.000000      4.226379000000000E-01      1.763965000000000E+01      1.258850000000000E-01      1.684609000000000E+02
4952000000.000000      4.217834000000000E-01      1.753418000000000E+01      1.225777000000000E-01      1.694766000000000E+02
4953000000.000000      4.218597000000000E-01      1.724805000000000E+01      1.207237000000000E-01      1.708984000000000E+02
4954000000.000000      4.217529000000000E-01      1.720019000000000E+01      1.184464000000000E-01      1.720937000000000E+02
