! Network Analyzer HP8722D
! Hewlett-Packard
! Data name: Linha & Wilkinson
! Saver's name: Rodrigo Anjos
! Comments: Teste da utilização de aquisição
continua pelo VNA HP8722D
! Time and date: 23/5/2025 11:11
!              Frequency                     S11                                                   S21                                                   S12                                                   S22
# HZ  S  MA R 50
4800000000.000000      3.137970000000000E-01      3.749609000000000E+01      4.720764000000000E-01     -1.286094000000000E+02
4801000000.000000      3.145142000000000E-01      3.783789000000000E+01      4.717865000000000E-01     -1.293672000000000E+02
4802000000.000000      3.154602000000000E-01      3.793164000000000E+01      4.748840000000000E-01     -1.300156000000000E+02
4803000000.000000      3.163910000000000E-01      3.800390000000000E+01      4.773102000000000E-01     -1.303906000000000E+02
4804000000.000000      3.175201000000000E-01      3.827734000000000E+01      4.776459000000000E-01     -1.314531000000000E+02
4805000000.000000      3.193207000000000E-01      3.833984000000000E+01      4.779053000000000E-01     -1.320234000000000E+02
4806000000.000000      3.200836000000000E-01      3.851171000000000E+01      4.805603000000000E-01     -1.327500000000000E+02
4807000000.000000      3.208313000000000E-01      3.862890000000000E+01      4.821472000000000E-01     -1.335938000000000E+02
4808000000.000000      3.220520000000000E-01      3.883789000000000E+01      4.825287000000000E-01     -1.342500000000000E+02
4809000000.000000      3.234253000000000E-01      3.905664000000000E+01      4.831696000000000E-01     -1.352344000000000E+02
4810000000.000000      3.251648000000000E-01      3.913671000000000E+01      4.845581000000000E-01     -1.358203000000000E+02
4811000000.000000      3.262177000000000E-01      3.928125000000000E+01      4.868927000000000E-01     -1.366484000000000E+02
4812000000.000000      3.286743000000000E-01      3.942383000000000E+01      4.871216000000000E-01     -1.373047000000000E+02
4813000000.000000      3.293915000000000E-01      3.954883000000000E+01      4.875183000000000E-01     -1.380312000000000E+02
4814000000.000000      3.306427000000000E-01      3.955859000000000E+01      4.877930000000000E-01     -1.386953000000000E+02
4815000000.000000      3.318481000000000E-01      3.970312000000000E+01      4.889374000000000E-01     -1.394687000000000E+02
4816000000.000000      3.343048000000000E-01      3.980859000000000E+01      4.897156000000000E-01     -1.402578000000000E+02
4817000000.000000      3.352051000000000E-01      3.987890000000000E+01      4.889679000000000E-01     -1.408750000000000E+02
4818000000.000000      3.370972000000000E-01      3.987500000000000E+01      4.901123000000000E-01     -1.417031000000000E+02
4819000000.000000      3.388672000000000E-01      4.003515000000000E+01      4.887085000000000E-01     -1.423437000000000E+02
4820000000.000000      3.393707000000000E-01      3.998242000000000E+01      4.898987000000000E-01     -1.430547000000000E+02
4821000000.000000      3.420715000000000E-01      4.000390000000000E+01      4.909821000000000E-01     -1.439062000000000E+02
4822000000.000000      3.428802000000000E-01      3.995117000000000E+01      4.884491000000000E-01     -1.447422000000000E+02
4823000000.000000      3.453217000000000E-01      3.994726000000000E+01      4.897308000000000E-01     -1.453359000000000E+02
4824000000.000000      3.466187000000000E-01      4.015038000000000E+01      4.894714000000000E-01     -1.462344000000000E+02
4825000000.000000      3.487854000000000E-01      3.992969000000000E+01      4.893036000000000E-01     -1.468281000000000E+02
4826000000.000000      3.494263000000000E-01      3.993164000000000E+01      4.902496000000000E-01     -1.475391000000000E+02
4827000000.000000      3.514709000000000E-01      3.997265000000000E+01      4.887085000000000E-01     -1.481484000000000E+02
4828000000.000000      3.537903000000000E-01      3.990039000000000E+01      4.884949000000000E-01     -1.490234000000000E+02
4829000000.000000      3.550110000000000E-01      4.007226000000000E+01      4.872742000000000E-01     -1.496328000000000E+02
4830000000.000000      3.565216000000000E-01      3.989453000000000E+01      4.871063000000000E-01     -1.504688000000000E+02
4831000000.000000      3.579407000000000E-01      3.979297000000000E+01      4.856720000000000E-01     -1.511797000000000E+02
4832000000.000000      3.600922000000000E-01      3.974218000000000E+01      4.849091000000000E-01     -1.519140000000000E+02
4833000000.000000      3.615723000000000E-01      3.964062000000000E+01      4.844055000000000E-01     -1.524531000000000E+02
4834000000.000000      3.635559000000000E-01      3.951757000000000E+01      4.836121000000000E-01     -1.533906000000000E+02
4835000000.000000      3.665619000000000E-01      3.932226000000000E+01      4.833069000000000E-01     -1.541016000000000E+02
4836000000.000000      3.677063000000000E-01      3.935937000000000E+01      4.821014000000000E-01     -1.547344000000000E+02
4837000000.000000      3.680878000000000E-01      3.927539000000000E+01      4.808807000000000E-01     -1.555781000000000E+02
4838000000.000000      3.699951000000000E-01      3.913671000000000E+01      4.807892000000000E-01     -1.560390000000000E+02
4839000000.000000      3.733215000000000E-01      3.901367000000000E+01      4.786377000000000E-01     -1.568672000000000E+02
4840000000.000000      3.736115000000000E-01      3.885156000000000E+01      4.781952000000000E-01     -1.575703000000000E+02
4841000000.000000      3.753357000000000E-01      3.879297000000000E+01      4.769135000000000E-01     -1.582656000000000E+02
4842000000.000000      3.762817000000000E-01      3.861914000000000E+01      4.762878000000000E-01     -1.588516000000000E+02
4843000000.000000      3.789368000000000E-01      3.827343000000000E+01      4.742737000000000E-01     -1.597031000000000E+02
4844000000.000000      3.796539000000000E-01      3.819531000000000E+01      4.727631000000000E-01     -1.605234000000000E+02
4845000000.000000      3.815460000000000E-01      3.813477000000000E+01      4.706879000000000E-01     -1.611328000000000E+02
4846000000.000000      3.841095000000000E-01      3.795898000000000E+01      4.689484000000000E-01     -1.618906000000000E+02
4847000000.000000      3.848114000000000E-01      3.787109000000000E+01      4.670258000000000E-01     -1.624609000000000E+02
4848000000.000000      3.860016000000000E-01      3.763476000000000E+01      4.661407000000000E-01     -1.631641000000000E+02
4849000000.000000      3.872070000000000E-01      3.736133000000000E+01      4.640350000000000E-01     -1.639453000000000E+02
4850000000.000000      3.887329000000000E-01      3.721680000000000E+01      4.625092000000000E-01     -1.646250000000000E+02
4851000000.000000      3.897400000000000E-01      3.708984000000000E+01      4.604492000000000E-01     -1.654297000000000E+02
4852000000.000000      3.912811000000000E-01      3.685742000000000E+01      4.588165000000000E-01     -1.660938000000000E+02
4853000000.000000      3.932495000000000E-01      3.667578000000000E+01      4.563904000000000E-01     -1.667969000000000E+02
4854000000.000000      3.938293000000000E-01      3.638672000000000E+01      4.530640000000000E-01     -1.676719000000000E+02
4855000000.000000      3.949738000000000E-01      3.628320000000000E+01      4.523773000000000E-01     -1.681562000000000E+02
4856000000.000000      3.961792000000000E-01      3.597656000000000E+01      4.495239000000000E-01     -1.689687000000000E+02
4857000000.000000      3.983765000000000E-01      3.590039000000000E+01      4.474335000000000E-01     -1.695156000000000E+02
4858000000.000000      3.976288000000000E-01      3.561523000000000E+01      4.458618000000000E-01     -1.705078000000000E+02
4859000000.000000      3.991699000000000E-01      3.526953000000000E+01      4.419556000000000E-01     -1.711797000000000E+02
4860000000.000000      4.009857000000000E-01      3.529882000000000E+01      4.398956000000000E-01     -1.716328000000000E+02
4861000000.000000      4.011536000000000E-01      3.496679000000000E+01      4.369659000000000E-01     -1.725937000000000E+02
4862000000.000000      4.011841000000000E-01      3.470898000000000E+01      4.349213000000000E-01     -1.730156000000000E+02
4863000000.000000      4.026794000000000E-01      3.453125000000000E+01      4.306488000000000E-01     -1.738203000000000E+02
4864000000.000000      4.047394000000000E-01      3.421484000000000E+01      4.298096000000000E-01     -1.743984000000000E+02
4865000000.000000      4.048767000000000E-01      3.399805000000000E+01      4.262543000000000E-01     -1.750078000000000E+02
4866000000.000000      4.063110000000000E-01      3.380468000000000E+01      4.222260000000000E-01     -1.758750000000000E+02
4867000000.000000      4.054413000000000E-01      3.362890000000000E+01      4.202118000000000E-01     -1.765312000000000E+02
4868000000.000000      4.070282000000000E-01      3.341211000000000E+01      4.166260000000000E-01     -1.770625000000000E+02
4869000000.000000      4.074249000000000E-01      3.316211000000000E+01      4.140320000000000E-01     -1.777656000000000E+02
4870000000.000000      4.086456000000000E-01      3.286914000000000E+01      4.101257000000000E-01     -1.781484000000000E+02
4871000000.000000      4.087067000000000E-01      3.265234000000000E+01      4.072571000000000E-01     -1.791953000000000E+02
4872000000.000000      4.104767000000000E-01      3.238086000000000E+01      4.041443000000000E-01     -1.794765000000000E+02
4873000000.000000      4.096985000000000E-01      3.225781000000000E+01      3.999329000000000E-01      1.797266000000000E+02
4874000000.000000      4.107513000000000E-01      3.200586000000000E+01      3.957062000000000E-01      1.790547000000000E+02
4875000000.000000      4.109497000000000E-01      3.170898000000000E+01      3.938599000000000E-01      1.786250000000000E+02
4876000000.000000      4.114380000000000E-01      3.158496000000000E+01      3.905945000000000E-01      1.780703000000000E+02
4877000000.000000      4.120941000000000E-01      3.117773000000000E+01      3.873444000000000E-01      1.775781000000000E+02
4878000000.000000      4.125061000000000E-01      3.103418000000000E+01      3.835449000000000E-01      1.769609000000000E+02
4879000000.000000      4.132996000000000E-01      3.080957000000000E+01      3.794708000000000E-01      1.764219000000000E+02
4880000000.000000      4.136658000000000E-01      3.054394000000000E+01      3.768005000000000E-01      1.758828000000000E+02
4881000000.000000      4.129333000000000E-01      3.035742000000000E+01      3.724823000000000E-01      1.754531000000000E+02
4882000000.000000      4.146576000000000E-01      3.018555000000000E+01      3.704224000000000E-01      1.747422000000000E+02
4883000000.000000      4.138641000000000E-01      2.989746000000000E+01      3.654022000000000E-01      1.741875000000000E+02
4884000000.000000      4.156647000000000E-01      2.969238000000000E+01      3.612823000000000E-01      1.737500000000000E+02
4885000000.000000      4.152222000000000E-01      2.945117000000000E+01      3.594055000000000E-01      1.735156000000000E+02
4886000000.000000      4.159393000000000E-01      2.936230000000000E+01      3.548279000000000E-01      1.728672000000000E+02
4887000000.000000      4.149780000000000E-01      2.901953000000000E+01      3.519745000000000E-01      1.724688000000000E+02
4888000000.000000      4.154816000000000E-01      2.863086000000000E+01      3.491821000000000E-01      1.717813000000000E+02
4889000000.000000      4.153900000000000E-01      2.851855000000000E+01      3.448792000000000E-01      1.715391000000000E+02
4890000000.000000      4.145050000000000E-01      2.816699000000000E+01      3.417664000000000E-01      1.707813000000000E+02
4891000000.000000      4.157562000000000E-01      2.813281000000000E+01      3.372040000000000E-01      1.703516000000000E+02
4892000000.000000      4.150238000000000E-01      2.790625000000000E+01      3.336487000000000E-01      1.701328000000000E+02
4893000000.000000      4.162750000000000E-01      2.764843000000000E+01      3.305969000000000E-01      1.696172000000000E+02
4894000000.000000      4.152222000000000E-01      2.734082000000000E+01      3.265228000000000E-01      1.693047000000000E+02
4895000000.000000      4.161987000000000E-01      2.713281000000000E+01      3.245392000000000E-01      1.688984000000000E+02
4896000000.000000      4.156952000000000E-01      2.696972000000000E+01      3.206635000000000E-01      1.684687000000000E+02
4897000000.000000      4.155579000000000E-01      2.689453000000000E+01      3.167725000000000E-01      1.677500000000000E+02
4898000000.000000      4.157410000000000E-01      2.660937000000000E+01      3.137360000000000E-01      1.676875000000000E+02
4899000000.000000      4.153900000000000E-01      2.643945000000000E+01      3.102570000000000E-01      1.670234000000000E+02
4900000000.000000      4.151764000000000E-01      2.611133000000000E+01      3.063354000000000E-01      1.667656000000000E+02
4901000000.000000      4.155884000000000E-01      2.596680000000000E+01      3.033447000000000E-01      1.665390000000000E+02
4902000000.000000      4.148560000000000E-01      2.569238000000000E+01      3.010559000000000E-01      1.661172000000000E+02
4903000000.000000      4.152222000000000E-01      2.554296000000000E+01      2.959595000000000E-01      1.657500000000000E+02
4904000000.000000      4.143524000000000E-01      2.540820000000000E+01      2.932281000000000E-01      1.652500000000000E+02
4905000000.000000      4.140778000000000E-01      2.523926000000000E+01      2.903442000000000E-01      1.648906000000000E+02
4906000000.000000      4.142151000000000E-01      2.505371000000000E+01      2.872620000000000E-01      1.646328000000000E+02
4907000000.000000      4.141388000000000E-01      2.488086000000000E+01      2.837830000000000E-01      1.641484000000000E+02
4908000000.000000      4.143677000000000E-01      2.458691000000000E+01      2.810516000000000E-01      1.638672000000000E+02
4909000000.000000      4.143066000000000E-01      2.447558000000000E+01      2.761383000000000E-01      1.634844000000000E+02
4910000000.000000      4.131012000000000E-01      2.429199000000000E+01      2.733154000000000E-01      1.632109000000000E+02
4911000000.000000      4.135742000000000E-01      2.409961000000000E+01      2.700500000000000E-01      1.627891000000000E+02
4912000000.000000      4.124756000000000E-01      2.383691000000000E+01      2.662964000000000E-01      1.623516000000000E+02
4913000000.000000      4.136047000000000E-01      2.380566000000000E+01      2.627563000000000E-01      1.620781000000000E+02
4914000000.000000      4.136505000000000E-01      2.352637000000000E+01      2.594910000000000E-01      1.618515000000000E+02
4915000000.000000      4.121857000000000E-01      2.343066000000000E+01      2.559357000000000E-01      1.614609000000000E+02
4916000000.000000      4.127960000000000E-01      2.329590000000000E+01      2.524261000000000E-01      1.610469000000000E+02
4917000000.000000      4.116669000000000E-01      2.293945000000000E+01      2.487869000000000E-01      1.607969000000000E+02
4918000000.000000      4.137878000000000E-01      2.279785000000000E+01      2.448578000000000E-01      1.604297000000000E+02
4919000000.000000      4.111786000000000E-01      2.271387000000000E+01      2.415848000000000E-01      1.603750000000000E+02
4920000000.000000      4.120483000000000E-01      2.248047000000000E+01      2.373657000000000E-01      1.598047000000000E+02
4921000000.000000      4.111481000000000E-01      2.246777000000000E+01      2.342377000000000E-01      1.597578000000000E+02
4922000000.000000      4.121094000000000E-01      2.222461000000000E+01      2.303391000000000E-01      1.595859000000000E+02
4923000000.000000      4.109955000000000E-01      2.226074000000000E+01      2.266998000000000E-01      1.593516000000000E+02
4924000000.000000      4.110413000000000E-01      2.195019000000000E+01      2.224884000000000E-01      1.591016000000000E+02
4925000000.000000      4.103851000000000E-01      2.177539000000000E+01      2.183151000000000E-01      1.589844000000000E+02
4926000000.000000      4.101257000000000E-01      2.167578000000000E+01      2.150040000000000E-01      1.587891000000000E+02
4927000000.000000      4.100494000000000E-01      2.139160000000000E+01      2.109985000000000E-01      1.585000000000000E+02
4928000000.000000      4.101868000000000E-01      2.111230000000000E+01      2.072449000000000E-01      1.584922000000000E+02
4929000000.000000      4.095001000000000E-01      2.110058000000000E+01      2.035599000000000E-01      1.584375000000000E+02
4930000000.000000      4.098969000000000E-01      2.104492000000000E+01      1.994629000000000E-01      1.582578000000000E+02
4931000000.000000      4.097290000000000E-01      2.073047000000000E+01      1.961441000000000E-01      1.584219000000000E+02
4932000000.000000      4.088898000000000E-01      2.078027000000000E+01      1.924744000000000E-01      1.583594000000000E+02
4933000000.000000      4.084015000000000E-01      2.029004000000000E+01      1.866379000000000E-01      1.585156000000000E+02
4934000000.000000      4.090729000000000E-01      2.021484000000000E+01      1.840744000000000E-01      1.585078000000000E+02
4935000000.000000      4.088745000000000E-01      2.009180000000000E+01      1.803284000000000E-01      1.588203000000000E+02
4936000000.000000      4.070892000000000E-01      1.992285000000000E+01      1.762848000000000E-01      1.589922000000000E+02
4937000000.000000      4.078064000000000E-01      1.966406000000000E+01      1.725616000000000E-01      1.589219000000000E+02
4938000000.000000      4.074097000000000E-01      1.967969000000000E+01      1.686630000000000E-01      1.593906000000000E+02
4939000000.000000      4.068909000000000E-01      1.954590000000000E+01      1.654053000000000E-01      1.595469000000000E+02
4940000000.000000      4.078522000000000E-01      1.934375000000000E+01      1.609650000000000E-01      1.598672000000000E+02
4941000000.000000      4.071808000000000E-01      1.916699000000000E+01      1.573868000000000E-01      1.604766000000000E+02
4942000000.000000      4.054871000000000E-01      1.896777000000000E+01      1.538696000000000E-01      1.609766000000000E+02
4943000000.000000      4.069519000000000E-01      1.888769000000000E+01      1.508102000000000E-01      1.616562000000000E+02
4944000000.000000      4.068298000000000E-01      1.881250000000000E+01      1.471863000000000E-01      1.620078000000000E+02
4945000000.000000      4.062347000000000E-01      1.859375000000000E+01      1.439590000000000E-01      1.627656000000000E+02
4946000000.000000      4.056702000000000E-01      1.836719000000000E+01      1.406021000000000E-01      1.636406000000000E+02
4947000000.000000      4.058990000000000E-01      1.826172000000000E+01      1.374664000000000E-01      1.644609000000000E+02
4948000000.000000      4.055786000000000E-01      1.798535000000000E+01      1.346207000000000E-01      1.653750000000000E+02
4949000000.000000      4.043732000000000E-01      1.787695000000000E+01      1.318436000000000E-01      1.667266000000000E+02
4950000000.000000      4.047394000000000E-01      1.785547000000000E+01      1.286316000000000E-01      1.674531000000000E+02
4951000000.000000      4.055328000000000E-01      1.765332000000000E+01      1.257553000000000E-01      1.686406000000000E+02
4952000000.000000      4.043427000000000E-01      1.747559000000000E+01      1.234627000000000E-01      1.698594000000000E+02
4953000000.000000      4.040070000000000E-01      1.730957000000000E+01      1.213837000000000E-01      1.710234000000000E+02
4954000000.000000      4.043274000000000E-01      1.700488000000000E+01      1.194115000000000E-01      1.726797000000000E+02
