! Network Analyzer HP8722D
! Hewlett-Packard
! Data name: Linha & Wilkinson
! Saver's name: Rodrigo Anjos
! Comments: Teste da utilização de aquisição
continua pelo VNA HP8722D
! Time and date: 23/5/2025 11:26
!              Frequency                     S11                                                   S21                                                   S12                                                   S22
# HZ  S  MA R 50
4800000000.000000      3.134766000000000E-01      3.732422000000000E+01      4.686127000000000E-01     -1.280000000000000E+02
4801000000.000000      3.144379000000000E-01      3.753320000000000E+01      4.710693000000000E-01     -1.283516000000000E+02
4802000000.000000      3.153076000000000E-01      3.768555000000000E+01      4.725800000000000E-01     -1.292266000000000E+02
4803000000.000000      3.157654000000000E-01      3.783203000000000E+01      4.751740000000000E-01     -1.299219000000000E+02
4804000000.000000      3.166809000000000E-01      3.812891000000000E+01      4.770508000000000E-01     -1.305469000000000E+02
4805000000.000000      3.185730000000000E-01      3.813672000000000E+01      4.777832000000000E-01     -1.313828000000000E+02
4806000000.000000      3.192749000000000E-01      3.840820000000000E+01      4.781494000000000E-01     -1.320937000000000E+02
4807000000.000000      3.203430000000000E-01      3.855078000000000E+01      4.799194000000000E-01     -1.330234000000000E+02
4808000000.000000      3.209229000000000E-01      3.871289000000000E+01      4.815979000000000E-01     -1.334609000000000E+02
4809000000.000000      3.225708000000000E-01      3.892969000000000E+01      4.822083000000000E-01     -1.343828000000000E+02
4810000000.000000      3.239594000000000E-01      3.894336000000000E+01      4.842834000000000E-01     -1.350234000000000E+02
4811000000.000000      3.259125000000000E-01      3.915039000000000E+01      4.850464000000000E-01     -1.358203000000000E+02
4812000000.000000      3.277130000000000E-01      3.932812000000000E+01      4.855957000000000E-01     -1.365937000000000E+02
4813000000.000000      3.281860000000000E-01      3.947461000000000E+01      4.864502000000000E-01     -1.373750000000000E+02
4814000000.000000      3.295898000000000E-01      3.950781000000000E+01      4.877472000000000E-01     -1.379453000000000E+02
4815000000.000000      3.307343000000000E-01      3.965234000000000E+01      4.887085000000000E-01     -1.387187000000000E+02
4816000000.000000      3.333282000000000E-01      3.969336000000000E+01      4.887543000000000E-01     -1.394609000000000E+02
4817000000.000000      3.340912000000000E-01      3.985547000000000E+01      4.888153000000000E-01     -1.403281000000000E+02
4818000000.000000      3.354797000000000E-01      3.984570000000000E+01      4.889832000000000E-01     -1.409531000000000E+02
4819000000.000000      3.370514000000000E-01      3.992969000000000E+01      4.904938000000000E-01     -1.417734000000000E+02
4820000000.000000      3.383636000000000E-01      4.002539000000000E+01      4.896698000000000E-01     -1.422500000000000E+02
4821000000.000000      3.410339000000000E-01      4.000390000000000E+01      4.900513000000000E-01     -1.433516000000000E+02
4822000000.000000      3.416748000000000E-01      3.993359000000000E+01      4.898224000000000E-01     -1.439141000000000E+02
4823000000.000000      3.435211000000000E-01      4.001562000000000E+01      4.909058000000000E-01     -1.445781000000000E+02
4824000000.000000      3.453522000000000E-01      4.009570000000000E+01      4.888000000000000E-01     -1.454219000000000E+02
4825000000.000000      3.469086000000000E-01      4.006249000000000E+01      4.896851000000000E-01     -1.461562000000000E+02
4826000000.000000      3.487091000000000E-01      4.001172000000000E+01      4.897156000000000E-01     -1.470547000000000E+02
4827000000.000000      3.503571000000000E-01      4.005859000000000E+01      4.898071000000000E-01     -1.474453000000000E+02
4828000000.000000      3.525696000000000E-01      3.998437000000000E+01      4.894867000000000E-01     -1.483750000000000E+02
4829000000.000000      3.538666000000000E-01      4.007813000000000E+01      4.880524000000000E-01     -1.489219000000000E+02
4830000000.000000      3.554688000000000E-01      3.986133000000000E+01      4.870148000000000E-01     -1.496094000000000E+02
4831000000.000000      3.572540000000000E-01      3.989648000000000E+01      4.870300000000000E-01     -1.505391000000000E+02
4832000000.000000      3.585510000000000E-01      3.987109000000000E+01      4.877167000000000E-01     -1.511328000000000E+02
4833000000.000000      3.598785000000000E-01      3.966211000000000E+01      4.862671000000000E-01     -1.517578000000000E+02
4834000000.000000      3.620300000000000E-01      3.962891000000000E+01      4.852905000000000E-01     -1.526094000000000E+02
4835000000.000000      3.641815000000000E-01      3.946289000000000E+01      4.844360000000000E-01     -1.534219000000000E+02
4836000000.000000      3.663483000000000E-01      3.949804000000000E+01      4.837952000000000E-01     -1.539453000000000E+02
4837000000.000000      3.666992000000000E-01      3.943554000000000E+01      4.810486000000000E-01     -1.550625000000000E+02
4838000000.000000      3.679504000000000E-01      3.929296000000000E+01      4.829559000000000E-01     -1.554297000000000E+02
4839000000.000000      3.716736000000000E-01      3.925976000000000E+01      4.803467000000000E-01     -1.560625000000000E+02
4840000000.000000      3.726044000000000E-01      3.895117000000000E+01      4.806519000000000E-01     -1.568281000000000E+02
4841000000.000000      3.740234000000000E-01      3.899805000000000E+01      4.789124000000000E-01     -1.576406000000000E+02
4842000000.000000      3.751984000000000E-01      3.870703000000000E+01      4.768829000000000E-01     -1.582422000000000E+02
4843000000.000000      3.775635000000000E-01      3.848047000000000E+01      4.764557000000000E-01     -1.591406000000000E+02
4844000000.000000      3.782959000000000E-01      3.833984000000000E+01      4.751587000000000E-01     -1.597734000000000E+02
4845000000.000000      3.796234000000000E-01      3.836328000000000E+01      4.725800000000000E-01     -1.602969000000000E+02
4846000000.000000      3.818207000000000E-01      3.815039000000000E+01      4.714355000000000E-01     -1.611016000000000E+02
4847000000.000000      3.834686000000000E-01      3.805078000000000E+01      4.706573000000000E-01     -1.616250000000000E+02
4848000000.000000      3.844910000000000E-01      3.784765000000000E+01      4.676514000000000E-01     -1.625547000000000E+02
4849000000.000000      3.854828000000000E-01      3.753906000000000E+01      4.660950000000000E-01     -1.631484000000000E+02
4850000000.000000      3.870544000000000E-01      3.742969000000000E+01      4.644165000000000E-01     -1.638828000000000E+02
4851000000.000000      3.890533000000000E-01      3.734570000000000E+01      4.644165000000000E-01     -1.647422000000000E+02
4852000000.000000      3.903503000000000E-01      3.711133000000000E+01      4.611664000000000E-01     -1.653281000000000E+02
4853000000.000000      3.909454000000000E-01      3.698437000000000E+01      4.577789000000000E-01     -1.660938000000000E+02
4854000000.000000      3.921661000000000E-01      3.667187000000000E+01      4.558716000000000E-01     -1.670312000000000E+02
4855000000.000000      3.936005000000000E-01      3.651367000000000E+01      4.543610000000000E-01     -1.675390000000000E+02
4856000000.000000      3.942719000000000E-01      3.626562000000000E+01      4.521484000000000E-01     -1.683203000000000E+02
4857000000.000000      3.962402000000000E-01      3.608984000000000E+01      4.503784000000000E-01     -1.688203000000000E+02
4858000000.000000      3.967590000000000E-01      3.583593000000000E+01      4.493866000000000E-01     -1.693750000000000E+02
4859000000.000000      3.984070000000000E-01      3.552539000000000E+01      4.453888000000000E-01     -1.702578000000000E+02
4860000000.000000      3.992615000000000E-01      3.552343000000000E+01      4.421082000000000E-01     -1.709844000000000E+02
4861000000.000000      4.002533000000000E-01      3.525000000000000E+01      4.404907000000000E-01     -1.719609000000000E+02
4862000000.000000      4.004669000000000E-01      3.497265000000000E+01      4.379120000000000E-01     -1.724062000000000E+02
4863000000.000000      4.025421000000000E-01      3.489258000000000E+01      4.342041000000000E-01     -1.731562000000000E+02
4864000000.000000      4.039612000000000E-01      3.462109000000000E+01      4.321289000000000E-01     -1.736797000000000E+02
4865000000.000000      4.034576000000000E-01      3.428515000000000E+01      4.291229000000000E-01     -1.743125000000000E+02
4866000000.000000      4.040985000000000E-01      3.405664000000000E+01      4.264679000000000E-01     -1.750703000000000E+02
4867000000.000000      4.044189000000000E-01      3.377148000000000E+01      4.243622000000000E-01     -1.759219000000000E+02
4868000000.000000      4.069824000000000E-01      3.355078000000000E+01      4.202576000000000E-01     -1.764688000000000E+02
4869000000.000000      4.075165000000000E-01      3.342382000000000E+01      4.167023000000000E-01     -1.771641000000000E+02
4870000000.000000      4.076080000000000E-01      3.319531000000000E+01      4.146576000000000E-01     -1.776641000000000E+02
4871000000.000000      4.076233000000000E-01      3.286523000000000E+01      4.107361000000000E-01     -1.785547000000000E+02
4872000000.000000      4.095154000000000E-01      3.274023000000000E+01      4.076233000000000E-01     -1.786094000000000E+02
4873000000.000000      4.095612000000000E-01      3.245312000000000E+01      4.042358000000000E-01     -1.795859000000000E+02
4874000000.000000      4.098053000000000E-01      3.227344000000000E+01      4.006653000000000E-01      1.798281000000000E+02
4875000000.000000      4.102173000000000E-01      3.183691000000000E+01      3.977356000000000E-01      1.794297000000000E+02
4876000000.000000      4.117889000000000E-01      3.190625000000000E+01      3.944702000000000E-01      1.784688000000000E+02
4877000000.000000      4.120941000000000E-01      3.139160000000000E+01      3.911743000000000E-01      1.779453000000000E+02
4878000000.000000      4.120483000000000E-01      3.121679000000000E+01      3.868866000000000E-01      1.777187000000000E+02
4879000000.000000      4.133911000000000E-01      3.107422000000000E+01      3.844757000000000E-01      1.769844000000000E+02
4880000000.000000      4.134521000000000E-01      3.081250000000000E+01      3.796539000000000E-01      1.763984000000000E+02
4881000000.000000      4.128876000000000E-01      3.057812000000000E+01      3.772125000000000E-01      1.760781000000000E+02
4882000000.000000      4.143829000000000E-01      3.039746000000000E+01      3.731995000000000E-01      1.753281000000000E+02
4883000000.000000      4.139404000000000E-01      3.019433000000000E+01      3.692627000000000E-01      1.747890000000000E+02
4884000000.000000      4.136505000000000E-01      2.992871000000000E+01      3.656006000000000E-01      1.741094000000000E+02
4885000000.000000      4.145813000000000E-01      2.966992000000000E+01      3.635101000000000E-01      1.739609000000000E+02
4886000000.000000      4.160461000000000E-01      2.950781000000000E+01      3.586273000000000E-01      1.734688000000000E+02
4887000000.000000      4.150085000000000E-01      2.921582000000000E+01      3.565369000000000E-01      1.727656000000000E+02
4888000000.000000      4.154053000000000E-01      2.889648000000000E+01      3.528900000000000E-01      1.722656000000000E+02
4889000000.000000      4.154053000000000E-01      2.871484000000000E+01      3.478546000000000E-01      1.717891000000000E+02
4890000000.000000      4.141998000000000E-01      2.844433000000000E+01      3.442688000000000E-01      1.710703000000000E+02
4891000000.000000      4.158020000000000E-01      2.834863000000000E+01      3.417969000000000E-01      1.707109000000000E+02
4892000000.000000      4.150543000000000E-01      2.797852000000000E+01      3.375244000000000E-01      1.705937000000000E+02
4893000000.000000      4.159851000000000E-01      2.774414000000000E+01      3.354950000000000E-01      1.699922000000000E+02
4894000000.000000      4.148712000000000E-01      2.759570000000000E+01      3.311157000000000E-01      1.700156000000000E+02
4895000000.000000      4.165955000000000E-01      2.740625000000000E+01      3.272400000000000E-01      1.691719000000000E+02
4896000000.000000      4.156189000000000E-01      2.716504000000000E+01      3.253784000000000E-01      1.687813000000000E+02
4897000000.000000      4.152832000000000E-01      2.711621000000000E+01      3.214264000000000E-01      1.683359000000000E+02
4898000000.000000      4.154053000000000E-01      2.680664000000000E+01      3.181915000000000E-01      1.680156000000000E+02
4899000000.000000      4.152222000000000E-01      2.656054000000000E+01      3.147278000000000E-01      1.674531000000000E+02
4900000000.000000      4.152985000000000E-01      2.634766000000000E+01      3.109436000000000E-01      1.671094000000000E+02
4901000000.000000      4.152069000000000E-01      2.624414000000000E+01      3.082428000000000E-01      1.668437000000000E+02
4902000000.000000      4.151611000000000E-01      2.593457000000000E+01      3.053284000000000E-01      1.663359000000000E+02
4903000000.000000      4.167633000000000E-01      2.589746000000000E+01      3.000946000000000E-01      1.660078000000000E+02
4904000000.000000      4.156036000000000E-01      2.558691000000000E+01      2.980499000000000E-01      1.655937000000000E+02
4905000000.000000      4.153137000000000E-01      2.548535000000000E+01      2.949982000000000E-01      1.650938000000000E+02
4906000000.000000      4.144592000000000E-01      2.517773000000000E+01      2.903748000000000E-01      1.649609000000000E+02
4907000000.000000      4.147034000000000E-01      2.497949000000000E+01      2.882080000000000E-01      1.646016000000000E+02
4908000000.000000      4.141998000000000E-01      2.477930000000000E+01      2.850037000000000E-01      1.639688000000000E+02
4909000000.000000      4.142303000000000E-01      2.456347000000000E+01      2.810669000000000E-01      1.636875000000000E+02
4910000000.000000      4.137573000000000E-01      2.455273000000000E+01      2.777252000000000E-01      1.633281000000000E+02
4911000000.000000      4.137726000000000E-01      2.442578000000000E+01      2.746735000000000E-01      1.630625000000000E+02
4912000000.000000      4.134216000000000E-01      2.410351000000000E+01      2.710571000000000E-01      1.624687000000000E+02
4913000000.000000      4.136810000000000E-01      2.390332000000000E+01      2.674255000000000E-01      1.622890000000000E+02
4914000000.000000      4.131317000000000E-01      2.371875000000000E+01      2.636719000000000E-01      1.619688000000000E+02
4915000000.000000      4.120483000000000E-01      2.358691000000000E+01      2.598877000000000E-01      1.614766000000000E+02
4916000000.000000      4.127045000000000E-01      2.340332000000000E+01      2.562103000000000E-01      1.611328000000000E+02
4917000000.000000      4.117737000000000E-01      2.339355000000000E+01      2.531128000000000E-01      1.610391000000000E+02
4918000000.000000      4.122009000000000E-01      2.310059000000000E+01      2.487259000000000E-01      1.604687000000000E+02
4919000000.000000      4.114532000000000E-01      2.284570000000000E+01      2.463531000000000E-01      1.605391000000000E+02
4920000000.000000      4.124298000000000E-01      2.265429000000000E+01      2.418289000000000E-01      1.600156000000000E+02
4921000000.000000      4.117889000000000E-01      2.261523000000000E+01      2.387085000000000E-01      1.597578000000000E+02
4922000000.000000      4.113007000000000E-01      2.244043000000000E+01      2.338257000000000E-01      1.595625000000000E+02
4923000000.000000      4.107666000000000E-01      2.224121000000000E+01      2.304382000000000E-01      1.592813000000000E+02
4924000000.000000      4.106140000000000E-01      2.214550000000000E+01      2.261734000000000E-01      1.589687000000000E+02
4925000000.000000      4.113312000000000E-01      2.192383000000000E+01      2.231064000000000E-01      1.589219000000000E+02
4926000000.000000      4.095154000000000E-01      2.175976000000000E+01      2.188263000000000E-01      1.586719000000000E+02
4927000000.000000      4.101868000000000E-01      2.150097000000000E+01      2.146988000000000E-01      1.583125000000000E+02
4928000000.000000      4.103851000000000E-01      2.136425000000000E+01      2.112427000000000E-01      1.582656000000000E+02
4929000000.000000      4.099884000000000E-01      2.129004000000000E+01      2.070847000000000E-01      1.582344000000000E+02
4930000000.000000      4.093781000000000E-01      2.113867000000000E+01      2.030945000000000E-01      1.579453000000000E+02
4931000000.000000      4.090118000000000E-01      2.093359000000000E+01      2.002029000000000E-01      1.579687000000000E+02
4932000000.000000      4.082489000000000E-01      2.063965000000000E+01      1.954880000000000E-01      1.580625000000000E+02
4933000000.000000      4.083405000000000E-01      2.061230000000000E+01      1.913376000000000E-01      1.581250000000000E+02
4934000000.000000      4.093170000000000E-01      2.035547000000000E+01      1.873856000000000E-01      1.580469000000000E+02
4935000000.000000      4.086456000000000E-01      2.036231000000000E+01      1.841736000000000E-01      1.582969000000000E+02
4936000000.000000      4.082489000000000E-01      2.006054000000000E+01      1.798019000000000E-01      1.583203000000000E+02
4937000000.000000      4.082642000000000E-01      1.985449000000000E+01      1.763535000000000E-01      1.584687000000000E+02
4938000000.000000      4.075470000000000E-01      1.990137000000000E+01      1.718979000000000E-01      1.587265000000000E+02
4939000000.000000      4.065399000000000E-01      1.977734000000000E+01      1.683655000000000E-01      1.588672000000000E+02
4940000000.000000      4.073334000000000E-01      1.950976000000000E+01      1.648331000000000E-01      1.592344000000000E+02
4941000000.000000      4.075928000000000E-01      1.926953000000000E+01      1.613693000000000E-01      1.596719000000000E+02
4942000000.000000      4.056702000000000E-01      1.919922000000000E+01      1.572189000000000E-01      1.598906000000000E+02
4943000000.000000      4.057007000000000E-01      1.908008000000000E+01      1.533737000000000E-01      1.606484000000000E+02
4944000000.000000      4.063721000000000E-01      1.882422000000000E+01      1.503601000000000E-01      1.612422000000000E+02
4945000000.000000      4.065247000000000E-01      1.864453000000000E+01      1.465988000000000E-01      1.618984000000000E+02
4946000000.000000      4.065247000000000E-01      1.863086000000000E+01      1.430740000000000E-01      1.623359000000000E+02
4947000000.000000      4.055176000000000E-01      1.838672000000000E+01      1.402130000000000E-01      1.631875000000000E+02
4948000000.000000      4.055939000000000E-01      1.833398000000000E+01      1.370621000000000E-01      1.642344000000000E+02
4949000000.000000      4.057312000000000E-01      1.806152000000000E+01      1.340561000000000E-01      1.651797000000000E+02
4950000000.000000      4.053192000000000E-01      1.796582000000000E+01      1.308975000000000E-01      1.662188000000000E+02
4951000000.000000      4.049072000000000E-01      1.765820000000000E+01      1.284485000000000E-01      1.672031000000000E+02
4952000000.000000      4.043884000000000E-01      1.756836000000000E+01      1.248970000000000E-01      1.683203000000000E+02
4953000000.000000      4.035339000000000E-01      1.746094000000000E+01      1.229782000000000E-01      1.697656000000000E+02
4954000000.000000      4.039459000000000E-01      1.731250000000000E+01      1.206551000000000E-01      1.711328000000000E+02
