! Network Analyzer HP8722D
! Hewlett-Packard
! Data name: Linha & Wilkinson
! Saver's name: Rodrigo Anjos
! Comments: Teste da utilização de aquisição
continua pelo VNA HP8722D
! Time and date: 23/5/2025 10:28
!              Frequency                     S11                                                   S21                                                   S12                                                   S22
# HZ  S  MA R 50
4800000000.000000      3.168640000000000E-01      3.704297000000000E+01      4.702148000000000E-01     -1.282656000000000E+02
4801000000.000000      3.176575000000000E-01      3.738281000000000E+01      4.710083000000000E-01     -1.287188000000000E+02
4802000000.000000      3.184357000000000E-01      3.747070000000000E+01      4.718933000000000E-01     -1.292422000000000E+02
4803000000.000000      3.186340000000000E-01      3.760156000000000E+01      4.760284000000000E-01     -1.300937000000000E+02
4804000000.000000      3.197937000000000E-01      3.792578000000000E+01      4.757996000000000E-01     -1.308359000000000E+02
4805000000.000000      3.217163000000000E-01      3.792969000000000E+01      4.781494000000000E-01     -1.315391000000000E+02
4806000000.000000      3.226166000000000E-01      3.812109000000000E+01      4.794464000000000E-01     -1.324297000000000E+02
4807000000.000000      3.230591000000000E-01      3.830078000000000E+01      4.795227000000000E-01     -1.332656000000000E+02
4808000000.000000      3.240662000000000E-01      3.841797000000000E+01      4.813995000000000E-01     -1.337188000000000E+02
4809000000.000000      3.255463000000000E-01      3.864258000000000E+01      4.830017000000000E-01     -1.347734000000000E+02
4810000000.000000      3.273621000000000E-01      3.877344000000000E+01      4.834747000000000E-01     -1.353281000000000E+02
4811000000.000000      3.287506000000000E-01      3.886328000000000E+01      4.842377000000000E-01     -1.361641000000000E+02
4812000000.000000      3.309784000000000E-01      3.910156000000000E+01      4.867249000000000E-01     -1.368750000000000E+02
4813000000.000000      3.318024000000000E-01      3.928125000000000E+01      4.856415000000000E-01     -1.375937000000000E+02
4814000000.000000      3.327179000000000E-01      3.918750000000000E+01      4.864655000000000E-01     -1.382500000000000E+02
4815000000.000000      3.338928000000000E-01      3.934570000000000E+01      4.870300000000000E-01     -1.390469000000000E+02
4816000000.000000      3.363342000000000E-01      3.943359000000000E+01      4.889374000000000E-01     -1.397344000000000E+02
4817000000.000000      3.371429000000000E-01      3.955859000000000E+01      4.879913000000000E-01     -1.405547000000000E+02
4818000000.000000      3.388824000000000E-01      3.952148000000000E+01      4.893036000000000E-01     -1.412422000000000E+02
4819000000.000000      3.411560000000000E-01      3.954102000000000E+01      4.892426000000000E-01     -1.421094000000000E+02
4820000000.000000      3.417969000000000E-01      3.963086000000000E+01      4.871674000000000E-01     -1.426641000000000E+02
4821000000.000000      3.439636000000000E-01      3.974023000000000E+01      4.896698000000000E-01     -1.434453000000000E+02
4822000000.000000      3.447113000000000E-01      3.965234000000000E+01      4.881897000000000E-01     -1.441953000000000E+02
4823000000.000000      3.467712000000000E-01      3.966797000000000E+01      4.888000000000000E-01     -1.448203000000000E+02
4824000000.000000      3.483276000000000E-01      3.980859000000000E+01      4.886169000000000E-01     -1.455781000000000E+02
4825000000.000000      3.500671000000000E-01      3.970703000000000E+01      4.876862000000000E-01     -1.462656000000000E+02
4826000000.000000      3.513794000000000E-01      3.967382000000000E+01      4.889526000000000E-01     -1.472422000000000E+02
4827000000.000000      3.535767000000000E-01      3.966601000000000E+01      4.872894000000000E-01     -1.477344000000000E+02
4828000000.000000      3.560486000000000E-01      3.960546000000000E+01      4.872284000000000E-01     -1.485078000000000E+02
4829000000.000000      3.567810000000000E-01      3.975586000000000E+01      4.876251000000000E-01     -1.490625000000000E+02
4830000000.000000      3.589325000000000E-01      3.957812000000000E+01      4.871674000000000E-01     -1.499609000000000E+02
4831000000.000000      3.605957000000000E-01      3.941992000000000E+01      4.849243000000000E-01     -1.509063000000000E+02
4832000000.000000      3.624420000000000E-01      3.966992000000000E+01      4.848328000000000E-01     -1.513672000000000E+02
4833000000.000000      3.628998000000000E-01      3.933984000000000E+01      4.841003000000000E-01     -1.521484000000000E+02
4834000000.000000      3.651276000000000E-01      3.927148000000000E+01      4.822083000000000E-01     -1.529687000000000E+02
4835000000.000000      3.670807000000000E-01      3.920898000000000E+01      4.833527000000000E-01     -1.535391000000000E+02
4836000000.000000      3.687134000000000E-01      3.920703000000000E+01      4.819641000000000E-01     -1.542344000000000E+02
4837000000.000000      3.698883000000000E-01      3.911523000000000E+01      4.801025000000000E-01     -1.551563000000000E+02
4838000000.000000      3.706207000000000E-01      3.895508000000000E+01      4.809875000000000E-01     -1.555469000000000E+02
4839000000.000000      3.741760000000000E-01      3.883984000000000E+01      4.790802000000000E-01     -1.563125000000000E+02
4840000000.000000      3.746643000000000E-01      3.864258000000000E+01      4.780273000000000E-01     -1.572187000000000E+02
4841000000.000000      3.759460000000000E-01      3.867188000000000E+01      4.764557000000000E-01     -1.579297000000000E+02
4842000000.000000      3.772736000000000E-01      3.849414000000000E+01      4.744873000000000E-01     -1.584609000000000E+02
4843000000.000000      3.802032000000000E-01      3.820508000000000E+01      4.745941000000000E-01     -1.594375000000000E+02
4844000000.000000      3.806610000000000E-01      3.804101000000000E+01      4.726715000000000E-01     -1.599219000000000E+02
4845000000.000000      3.825378000000000E-01      3.809375000000000E+01      4.706879000000000E-01     -1.607344000000000E+02
4846000000.000000      3.843384000000000E-01      3.790625000000000E+01      4.699402000000000E-01     -1.613828000000000E+02
4847000000.000000      3.858948000000000E-01      3.769336000000000E+01      4.667053000000000E-01     -1.620312000000000E+02
4848000000.000000      3.863678000000000E-01      3.748047000000000E+01      4.652252000000000E-01     -1.626797000000000E+02
4849000000.000000      3.882446000000000E-01      3.730664000000000E+01      4.651642000000000E-01     -1.636406000000000E+02
4850000000.000000      3.898773000000000E-01      3.718554000000000E+01      4.625092000000000E-01     -1.642500000000000E+02
4851000000.000000      3.916016000000000E-01      3.696289000000000E+01      4.617004000000000E-01     -1.649375000000000E+02
4852000000.000000      3.924103000000000E-01      3.679492000000000E+01      4.582062000000000E-01     -1.657109000000000E+02
4853000000.000000      3.940430000000000E-01      3.661523000000000E+01      4.559479000000000E-01     -1.663281000000000E+02
4854000000.000000      3.950500000000000E-01      3.630468000000000E+01      4.526825000000000E-01     -1.671250000000000E+02
4855000000.000000      3.959808000000000E-01      3.618945000000000E+01      4.514465000000000E-01     -1.678047000000000E+02
4856000000.000000      3.969421000000000E-01      3.592382000000000E+01      4.492493000000000E-01     -1.684297000000000E+02
4857000000.000000      3.990784000000000E-01      3.589844000000000E+01      4.490051000000000E-01     -1.692500000000000E+02
4858000000.000000      3.995819000000000E-01      3.556641000000000E+01      4.452972000000000E-01     -1.698906000000000E+02
4859000000.000000      4.008026000000000E-01      3.538671000000000E+01      4.419861000000000E-01     -1.707344000000000E+02
4860000000.000000      4.009552000000000E-01      3.527539000000000E+01      4.396362000000000E-01     -1.713203000000000E+02
4861000000.000000      4.022217000000000E-01      3.490429000000000E+01      4.378815000000000E-01     -1.720000000000000E+02
4862000000.000000      4.026337000000000E-01      3.466015000000000E+01      4.361725000000000E-01     -1.727031000000000E+02
4863000000.000000      4.053955000000000E-01      3.459570000000000E+01      4.328308000000000E-01     -1.733906000000000E+02
4864000000.000000      4.053802000000000E-01      3.430859000000000E+01      4.301605000000000E-01     -1.738906000000000E+02
4865000000.000000      4.050751000000000E-01      3.400000000000000E+01      4.254761000000000E-01     -1.745703000000000E+02
4866000000.000000      4.065857000000000E-01      3.368555000000000E+01      4.238281000000000E-01     -1.752656000000000E+02
4867000000.000000      4.071350000000000E-01      3.355273000000000E+01      4.216766000000000E-01     -1.763047000000000E+02
4868000000.000000      4.090576000000000E-01      3.343945000000000E+01      4.179382000000000E-01     -1.765703000000000E+02
4869000000.000000      4.085693000000000E-01      3.304883000000000E+01      4.139252000000000E-01     -1.774219000000000E+02
4870000000.000000      4.098358000000000E-01      3.292969000000000E+01      4.112701000000000E-01     -1.777500000000000E+02
4871000000.000000      4.098969000000000E-01      3.261133000000000E+01      4.069824000000000E-01     -1.787344000000000E+02
4872000000.000000      4.116364000000000E-01      3.247070000000000E+01      4.034271000000000E-01     -1.792344000000000E+02
4873000000.000000      4.116669000000000E-01      3.219727000000000E+01      4.008026000000000E-01     -1.798516000000000E+02
4874000000.000000      4.123077000000000E-01      3.197266000000000E+01      3.976288000000000E-01      1.794141000000000E+02
4875000000.000000      4.121704000000000E-01      3.165430000000000E+01      3.947906000000000E-01      1.790625000000000E+02
4876000000.000000      4.136047000000000E-01      3.149219000000000E+01      3.909149000000000E-01      1.783047000000000E+02
4877000000.000000      4.141846000000000E-01      3.113574000000000E+01      3.871155000000000E-01      1.777891000000000E+02
4878000000.000000      4.142151000000000E-01      3.095508000000000E+01      3.829803000000000E-01      1.772500000000000E+02
4879000000.000000      4.163208000000000E-01      3.088086000000000E+01      3.809967000000000E-01      1.766953000000000E+02
4880000000.000000      4.162445000000000E-01      3.047656000000000E+01      3.767548000000000E-01      1.761094000000000E+02
4881000000.000000      4.146271000000000E-01      3.032910000000000E+01      3.739319000000000E-01      1.756953000000000E+02
4882000000.000000      4.163513000000000E-01      3.016113000000000E+01      3.710632000000000E-01      1.750313000000000E+02
4883000000.000000      4.158173000000000E-01      2.978027000000000E+01      3.664703000000000E-01      1.743203000000000E+02
4884000000.000000      4.177856000000000E-01      2.969531000000000E+01      3.625793000000000E-01      1.740703000000000E+02
4885000000.000000      4.174042000000000E-01      2.939160000000000E+01      3.598175000000000E-01      1.736953000000000E+02
4886000000.000000      4.175262000000000E-01      2.921484000000000E+01      3.563995000000000E-01      1.731016000000000E+02
4887000000.000000      4.167938000000000E-01      2.902539000000000E+01      3.535156000000000E-01      1.728906000000000E+02
4888000000.000000      4.174042000000000E-01      2.876269000000000E+01      3.487091000000000E-01      1.720937000000000E+02
4889000000.000000      4.182739000000000E-01      2.856152000000000E+01      3.455811000000000E-01      1.717422000000000E+02
4890000000.000000      4.165039000000000E-01      2.827246000000000E+01      3.421936000000000E-01      1.711250000000000E+02
4891000000.000000      4.178925000000000E-01      2.812304000000000E+01      3.376160000000000E-01      1.706953000000000E+02
4892000000.000000      4.174957000000000E-01      2.788671000000000E+01      3.349304000000000E-01      1.704609000000000E+02
4893000000.000000      4.175415000000000E-01      2.767969000000000E+01      3.311462000000000E-01      1.699766000000000E+02
4894000000.000000      4.165955000000000E-01      2.745800000000000E+01      3.280182000000000E-01      1.695391000000000E+02
4895000000.000000      4.186859000000000E-01      2.717382000000000E+01      3.251953000000000E-01      1.689141000000000E+02
4896000000.000000      4.177856000000000E-01      2.692676000000000E+01      3.219910000000000E-01      1.686797000000000E+02
4897000000.000000      4.166107000000000E-01      2.685742000000000E+01      3.182678000000000E-01      1.682500000000000E+02
4898000000.000000      4.170685000000000E-01      2.661914000000000E+01      3.141785000000000E-01      1.678516000000000E+02
4899000000.000000      4.166107000000000E-01      2.645508000000000E+01      3.112793000000000E-01      1.673437000000000E+02
4900000000.000000      4.169922000000000E-01      2.615234000000000E+01      3.084412000000000E-01      1.670859000000000E+02
4901000000.000000      4.165955000000000E-01      2.588086000000000E+01      3.046570000000000E-01      1.667266000000000E+02
4902000000.000000      4.179840000000000E-01      2.571484000000000E+01      3.016052000000000E-01      1.665078000000000E+02
4903000000.000000      4.175110000000000E-01      2.577343000000000E+01      2.976074000000000E-01      1.659297000000000E+02
4904000000.000000      4.171143000000000E-01      2.540820000000000E+01      2.945557000000000E-01      1.655469000000000E+02
4905000000.000000      4.160767000000000E-01      2.529101000000000E+01      2.917328000000000E-01      1.651328000000000E+02
4906000000.000000      4.159851000000000E-01      2.504687000000000E+01      2.880554000000000E-01      1.648984000000000E+02
4907000000.000000      4.168243000000000E-01      2.485742000000000E+01      2.854309000000000E-01      1.643125000000000E+02
4908000000.000000      4.165192000000000E-01      2.456738000000000E+01      2.816925000000000E-01      1.638828000000000E+02
4909000000.000000      4.164276000000000E-01      2.445801000000000E+01      2.780151000000000E-01      1.635313000000000E+02
4910000000.000000      4.160461000000000E-01      2.438477000000000E+01      2.741547000000000E-01      1.633672000000000E+02
4911000000.000000      4.156494000000000E-01      2.412793000000000E+01      2.716217000000000E-01      1.629766000000000E+02
4912000000.000000      4.147339000000000E-01      2.396777000000000E+01      2.677917000000000E-01      1.624766000000000E+02
4913000000.000000      4.145660000000000E-01      2.379297000000000E+01      2.639313000000000E-01      1.622344000000000E+02
4914000000.000000      4.140320000000000E-01      2.345703000000000E+01      2.611237000000000E-01      1.619844000000000E+02
4915000000.000000      4.142609000000000E-01      2.348535000000000E+01      2.570496000000000E-01      1.615469000000000E+02
4916000000.000000      4.153442000000000E-01      2.330957000000000E+01      2.533417000000000E-01      1.612109000000000E+02
4917000000.000000      4.143524000000000E-01      2.313965000000000E+01      2.499008000000000E-01      1.610234000000000E+02
4918000000.000000      4.141998000000000E-01      2.291016000000000E+01      2.456894000000000E-01      1.604609000000000E+02
4919000000.000000      4.141846000000000E-01      2.274121000000000E+01      2.424011000000000E-01      1.605547000000000E+02
4920000000.000000      4.141693000000000E-01      2.256836000000000E+01      2.379150000000000E-01      1.600547000000000E+02
4921000000.000000      4.136963000000000E-01      2.250391000000000E+01      2.355270000000000E-01      1.598125000000000E+02
4922000000.000000      4.139862000000000E-01      2.230175000000000E+01      2.315140000000000E-01      1.596797000000000E+02
4923000000.000000      4.131317000000000E-01      2.218066000000000E+01      2.271347000000000E-01      1.593594000000000E+02
4924000000.000000      4.127808000000000E-01      2.193554000000000E+01      2.235641000000000E-01      1.588672000000000E+02
4925000000.000000      4.122162000000000E-01      2.177441000000000E+01      2.198105000000000E-01      1.589141000000000E+02
4926000000.000000      4.123688000000000E-01      2.169726000000000E+01      2.158966000000000E-01      1.585859000000000E+02
4927000000.000000      4.115601000000000E-01      2.148633000000000E+01      2.120819000000000E-01      1.585391000000000E+02
4928000000.000000      4.129333000000000E-01      2.106543000000000E+01      2.086182000000000E-01      1.584453000000000E+02
4929000000.000000      4.117126000000000E-01      2.113183000000000E+01      2.039337000000000E-01      1.584297000000000E+02
4930000000.000000      4.116669000000000E-01      2.091015000000000E+01      2.007828000000000E-01      1.583047000000000E+02
4931000000.000000      4.113922000000000E-01      2.077832000000000E+01      1.966019000000000E-01      1.583437000000000E+02
4932000000.000000      4.113312000000000E-01      2.060059000000000E+01      1.929855000000000E-01      1.582031000000000E+02
4933000000.000000      4.120026000000000E-01      2.038867000000000E+01      1.886902000000000E-01      1.585938000000000E+02
4934000000.000000      4.117889000000000E-01      2.013770000000000E+01      1.849594000000000E-01      1.584141000000000E+02
4935000000.000000      4.119568000000000E-01      2.010156000000000E+01      1.812515000000000E-01      1.587109000000000E+02
4936000000.000000      4.106903000000000E-01      1.989941000000000E+01      1.766586000000000E-01      1.586562000000000E+02
4937000000.000000      4.104919000000000E-01      1.982422000000000E+01      1.734390000000000E-01      1.588203000000000E+02
4938000000.000000      4.102936000000000E-01      1.967090000000000E+01      1.696014000000000E-01      1.590078000000000E+02
4939000000.000000      4.088593000000000E-01      1.946191000000000E+01      1.658707000000000E-01      1.594844000000000E+02
4940000000.000000      4.095764000000000E-01      1.937988000000000E+01      1.618118000000000E-01      1.596406000000000E+02
4941000000.000000      4.101105000000000E-01      1.921484000000000E+01      1.588898000000000E-01      1.601406000000000E+02
4942000000.000000      4.091492000000000E-01      1.903613000000000E+01      1.551514000000000E-01      1.604531000000000E+02
4943000000.000000      4.097748000000000E-01      1.888769000000000E+01      1.513062000000000E-01      1.611875000000000E+02
4944000000.000000      4.084778000000000E-01      1.862402000000000E+01      1.481857000000000E-01      1.616875000000000E+02
4945000000.000000      4.088287000000000E-01      1.849512000000000E+01      1.442184000000000E-01      1.624531000000000E+02
4946000000.000000      4.094238000000000E-01      1.845801000000000E+01      1.413116000000000E-01      1.631406000000000E+02
4947000000.000000      4.085999000000000E-01      1.827148000000000E+01      1.382599000000000E-01      1.640156000000000E+02
4948000000.000000      4.090271000000000E-01      1.808984000000000E+01      1.350479000000000E-01      1.649062000000000E+02
4949000000.000000      4.068298000000000E-01      1.798242000000000E+01      1.320419000000000E-01      1.661094000000000E+02
4950000000.000000      4.075165000000000E-01      1.800195000000000E+01      1.292038000000000E-01      1.670000000000000E+02
4951000000.000000      4.080658000000000E-01      1.758496000000000E+01      1.262665000000000E-01      1.681015000000000E+02
4952000000.000000      4.069824000000000E-01      1.739453000000000E+01      1.236877000000000E-01      1.693281000000000E+02
4953000000.000000      4.070587000000000E-01      1.728808000000000E+01      1.213341000000000E-01      1.708906000000000E+02
4954000000.000000      4.063110000000000E-01      1.718066000000000E+01      1.193886000000000E-01      1.721797000000000E+02
