! Network Analyzer HP8722D
! Hewlett-Packard
! Data name: Linha & Wilkinson
! Saver's name: Rodrigo Anjos
! Comments: Teste da utilização de aquisição
continua pelo VNA HP8722D
! Time and date: 23/5/2025 07:52
!              Frequency                     S11                                                   S21                                                   S12                                                   S22
# HZ  S  MA R 50
4800000000.000000      6.431274000000000E-01      1.044238000000000E+01      4.752655000000000E-01     -9.354296000000000E+01
4801000000.000000      6.409607000000000E-01      1.057275000000000E+01      4.755707000000000E-01     -9.448437000000000E+01
4802000000.000000      6.396484000000000E-01      1.052734000000000E+01      4.774475000000000E-01     -9.507813000000000E+01
4803000000.000000      6.387329000000000E-01      1.045166000000000E+01      4.799347000000000E-01     -9.582031000000000E+01
4804000000.000000      6.361694000000000E-01      1.043555000000000E+01      4.820404000000000E-01     -9.669922000000000E+01
4805000000.000000      6.368408000000000E-01      1.044385000000000E+01      4.824524000000000E-01     -9.733202000000000E+01
4806000000.000000      6.345215000000000E-01      1.041211000000000E+01      4.844513000000000E-01     -9.814062000000000E+01
4807000000.000000      6.322327000000000E-01      1.035693000000000E+01      4.855804000000000E-01     -9.911327000000000E+01
4808000000.000000      6.303406000000000E-01      1.049561000000000E+01      4.873962000000000E-01     -9.963671000000000E+01
4809000000.000000      6.293030000000000E-01      1.055908000000000E+01      4.884796000000000E-01     -1.006094000000000E+02
4810000000.000000      6.275024000000000E-01      1.055908000000000E+01      4.898224000000000E-01     -1.012344000000000E+02
4811000000.000000      6.269531000000000E-01      1.075830000000000E+01      4.919891000000000E-01     -1.022812000000000E+02
4812000000.000000      6.275635000000000E-01      1.074170000000000E+01      4.912415000000000E-01     -1.027031000000000E+02
4813000000.000000      6.238403000000000E-01      1.069482000000000E+01      4.920197000000000E-01     -1.034922000000000E+02
4814000000.000000      6.202393000000000E-01      1.068945000000000E+01      4.937439000000000E-01     -1.042695000000000E+02
4815000000.000000      6.218262000000000E-01      1.094775000000000E+01      4.958496000000000E-01     -1.051719000000000E+02
4816000000.000000      6.211243000000000E-01      1.100000000000000E+01      4.961853000000000E-01     -1.057383000000000E+02
4817000000.000000      6.184692000000000E-01      1.108887000000000E+01      4.964294000000000E-01     -1.063672000000000E+02
4818000000.000000      6.166382000000000E-01      1.105762000000000E+01      4.969482000000000E-01     -1.072266000000000E+02
4819000000.000000      6.171570000000000E-01      1.120459000000000E+01      4.966583000000000E-01     -1.080469000000000E+02
4820000000.000000      6.141052000000000E-01      1.144775000000000E+01      4.982910000000000E-01     -1.087266000000000E+02
4821000000.000000      6.135254000000000E-01      1.140088000000000E+01      4.988861000000000E-01     -1.096367000000000E+02
4822000000.000000      6.126404000000000E-01      1.151367000000000E+01      4.966125000000000E-01     -1.102461000000000E+02
4823000000.000000      6.127014000000000E-01      1.142969000000000E+01      4.992523000000000E-01     -1.113125000000000E+02
4824000000.000000      6.112671000000000E-01      1.166992000000000E+01      4.978790000000000E-01     -1.117266000000000E+02
4825000000.000000      6.121216000000000E-01      1.163281000000000E+01      4.994659000000000E-01     -1.125273000000000E+02
4826000000.000000      6.109009000000000E-01      1.179639000000000E+01      4.986115000000000E-01     -1.134648000000000E+02
4827000000.000000      6.106873000000000E-01      1.191846000000000E+01      4.988403000000000E-01     -1.140430000000000E+02
4828000000.000000      6.096497000000000E-01      1.218506000000000E+01      5.001526000000000E-01     -1.146445000000000E+02
4829000000.000000      6.098938000000000E-01      1.240039000000000E+01      5.006714000000000E-01     -1.156445000000000E+02
4830000000.000000      6.095886000000000E-01      1.234131000000000E+01      4.995117000000000E-01     -1.165078000000000E+02
4831000000.000000      6.108093000000000E-01      1.244043000000000E+01      5.013733000000000E-01     -1.171836000000000E+02
4832000000.000000      6.080627000000000E-01      1.254199000000000E+01      4.990082000000000E-01     -1.178359000000000E+02
4833000000.000000      6.093140000000000E-01      1.263818000000000E+01      5.000610000000000E-01     -1.186289000000000E+02
4834000000.000000      6.092834000000000E-01      1.270410000000000E+01      4.996338000000000E-01     -1.194414000000000E+02
4835000000.000000      6.098328000000000E-01      1.288965000000000E+01      4.985657000000000E-01     -1.202812000000000E+02
4836000000.000000      6.095276000000000E-01      1.309277000000000E+01      4.973907000000000E-01     -1.208437000000000E+02
4837000000.000000      6.090698000000000E-01      1.319434000000000E+01      4.970703000000000E-01     -1.219844000000000E+02
4838000000.000000      6.089172000000000E-01      1.337402000000000E+01      4.981689000000000E-01     -1.224726000000000E+02
4839000000.000000      6.108093000000000E-01      1.343750000000000E+01      4.954376000000000E-01     -1.231875000000000E+02
4840000000.000000      6.104736000000000E-01      1.324951000000000E+01      4.973907000000000E-01     -1.242070000000000E+02
4841000000.000000      6.100769000000000E-01      1.359375000000000E+01      4.955750000000000E-01     -1.248125000000000E+02
4842000000.000000      6.116028000000000E-01      1.372021000000000E+01      4.949951000000000E-01     -1.257109000000000E+02
4843000000.000000      6.135864000000000E-01      1.366943000000000E+01      4.949188000000000E-01     -1.266172000000000E+02
4844000000.000000      6.154480000000000E-01      1.363916000000000E+01      4.924927000000000E-01     -1.274648000000000E+02
4845000000.000000      6.145630000000000E-01      1.401416000000000E+01      4.917908000000000E-01     -1.282500000000000E+02
4846000000.000000      6.149597000000000E-01      1.400439000000000E+01      4.909515000000000E-01     -1.290078000000000E+02
4847000000.000000      6.166382000000000E-01      1.396045000000000E+01      4.910583000000000E-01     -1.298359000000000E+02
4848000000.000000      6.156921000000000E-01      1.416650000000000E+01      4.862823000000000E-01     -1.306015000000000E+02
4849000000.000000      6.166077000000000E-01      1.415430000000000E+01      4.854431000000000E-01     -1.315469000000000E+02
4850000000.000000      6.172485000000000E-01      1.421729000000000E+01      4.833527000000000E-01     -1.324141000000000E+02
4851000000.000000      6.186523000000000E-01      1.446729000000000E+01      4.837799000000000E-01     -1.332813000000000E+02
4852000000.000000      6.189270000000000E-01      1.440283000000000E+01      4.795837000000000E-01     -1.340781000000000E+02
4853000000.000000      6.220093000000000E-01      1.422852000000000E+01      4.768066000000000E-01     -1.349141000000000E+02
4854000000.000000      6.225891000000000E-01      1.454688000000000E+01      4.763031000000000E-01     -1.358984000000000E+02
4855000000.000000      6.220398000000000E-01      1.448242000000000E+01      4.721985000000000E-01     -1.366406000000000E+02
4856000000.000000      6.250305000000000E-01      1.456494000000000E+01      4.705353000000000E-01     -1.375625000000000E+02
4857000000.000000      6.270447000000000E-01      1.441260000000000E+01      4.691010000000000E-01     -1.381953000000000E+02
4858000000.000000      6.249695000000000E-01      1.452100000000000E+01      4.645538000000000E-01     -1.391641000000000E+02
4859000000.000000      6.273804000000000E-01      1.450586000000000E+01      4.633484000000000E-01     -1.400391000000000E+02
4860000000.000000      6.307068000000000E-01      1.467773000000000E+01      4.597473000000000E-01     -1.408750000000000E+02
4861000000.000000      6.296692000000000E-01      1.440283000000000E+01      4.563751000000000E-01     -1.416563000000000E+02
4862000000.000000      6.316833000000000E-01      1.469141000000000E+01      4.515839000000000E-01     -1.423516000000000E+02
4863000000.000000      6.319885000000000E-01      1.475586000000000E+01      4.486847000000000E-01     -1.433984000000000E+02
4864000000.000000      6.343384000000000E-01      1.469385000000000E+01      4.467010000000000E-01     -1.440078000000000E+02
4865000000.000000      6.338806000000000E-01      1.462793000000000E+01      4.425049000000000E-01     -1.447734000000000E+02
4866000000.000000      6.355591000000000E-01      1.473389000000000E+01      4.383850000000000E-01     -1.455781000000000E+02
4867000000.000000      6.359863000000000E-01      1.453076000000000E+01      4.332886000000000E-01     -1.464922000000000E+02
4868000000.000000      6.384277000000000E-01      1.456641000000000E+01      4.304657000000000E-01     -1.472969000000000E+02
4869000000.000000      6.394348000000000E-01      1.459229000000000E+01      4.260406000000000E-01     -1.480469000000000E+02
4870000000.000000      6.421509000000000E-01      1.445215000000000E+01      4.220428000000000E-01     -1.485703000000000E+02
4871000000.000000      6.409302000000000E-01      1.452100000000000E+01      4.183197000000000E-01     -1.494688000000000E+02
4872000000.000000      6.439819000000000E-01      1.437793000000000E+01      4.138641000000000E-01     -1.500469000000000E+02
4873000000.000000      6.437073000000000E-01      1.450879000000000E+01      4.093170000000000E-01     -1.509453000000000E+02
4874000000.000000      6.469116000000000E-01      1.446582000000000E+01      4.041443000000000E-01     -1.514219000000000E+02
4875000000.000000      6.498718000000000E-01      1.422412000000000E+01      3.997345000000000E-01     -1.520391000000000E+02
4876000000.000000      6.486511000000000E-01      1.444971000000000E+01      3.967285000000000E-01     -1.527031000000000E+02
4877000000.000000      6.497192000000000E-01      1.402783000000000E+01      3.918152000000000E-01     -1.534297000000000E+02
4878000000.000000      6.509399000000000E-01      1.422559000000000E+01      3.870850000000000E-01     -1.542031000000000E+02
4879000000.000000      6.529541000000000E-01      1.407617000000000E+01      3.824768000000000E-01     -1.545547000000000E+02
4880000000.000000      6.554565000000000E-01      1.403076000000000E+01      3.786926000000000E-01     -1.549766000000000E+02
4881000000.000000      6.558228000000000E-01      1.412012000000000E+01      3.742065000000000E-01     -1.556953000000000E+02
4882000000.000000      6.573181000000000E-01      1.413086000000000E+01      3.703918000000000E-01     -1.563516000000000E+02
4883000000.000000      6.579895000000000E-01      1.392236000000000E+01      3.647308000000000E-01     -1.569141000000000E+02
4884000000.000000      6.590881000000000E-01      1.382178000000000E+01      3.610229000000000E-01     -1.574297000000000E+02
4885000000.000000      6.603088000000000E-01      1.369678000000000E+01      3.563995000000000E-01     -1.575078000000000E+02
4886000000.000000      6.611633000000000E-01      1.370117000000000E+01      3.523407000000000E-01     -1.581875000000000E+02
4887000000.000000      6.638489000000000E-01      1.348145000000000E+01      3.478546000000000E-01     -1.586641000000000E+02
4888000000.000000      6.624756000000000E-01      1.347607000000000E+01      3.439636000000000E-01     -1.593516000000000E+02
4889000000.000000      6.648560000000000E-01      1.347607000000000E+01      3.387604000000000E-01     -1.595078000000000E+02
4890000000.000000      6.631470000000000E-01      1.337012000000000E+01      3.342743000000000E-01     -1.604531000000000E+02
4891000000.000000      6.666870000000000E-01      1.327246000000000E+01      3.320465000000000E-01     -1.605547000000000E+02
4892000000.000000      6.670532000000000E-01      1.314209000000000E+01      3.263092000000000E-01     -1.608672000000000E+02
4893000000.000000      6.695557000000000E-01      1.314502000000000E+01      3.233337000000000E-01     -1.612500000000000E+02
4894000000.000000      6.700134000000000E-01      1.295117000000000E+01      3.191986000000000E-01     -1.616094000000000E+02
4895000000.000000      6.729431000000000E-01      1.300049000000000E+01      3.164063000000000E-01     -1.620547000000000E+02
4896000000.000000      6.713562000000000E-01      1.288818000000000E+01      3.116150000000000E-01     -1.624141000000000E+02
4897000000.000000      6.734924000000000E-01      1.278516000000000E+01      3.082886000000000E-01     -1.627344000000000E+02
4898000000.000000      6.743774000000000E-01      1.271631000000000E+01      3.041687000000000E-01     -1.630234000000000E+02
4899000000.000000      6.735229000000000E-01      1.257910000000000E+01      3.008728000000000E-01     -1.635391000000000E+02
4900000000.000000      6.749573000000000E-01      1.241162000000000E+01      2.968140000000000E-01     -1.637344000000000E+02
4901000000.000000      6.759033000000000E-01      1.246240000000000E+01      2.935638000000000E-01     -1.639766000000000E+02
4902000000.000000      6.764526000000000E-01      1.230176000000000E+01      2.908478000000000E-01     -1.642891000000000E+02
4903000000.000000      6.765747000000000E-01      1.226318000000000E+01      2.856445000000000E-01     -1.648594000000000E+02
4904000000.000000      6.791077000000000E-01      1.199707000000000E+01      2.829285000000000E-01     -1.650234000000000E+02
4905000000.000000      6.788940000000000E-01      1.204102000000000E+01      2.798462000000000E-01     -1.655078000000000E+02
4906000000.000000      6.780701000000000E-01      1.183203000000000E+01      2.759705000000000E-01     -1.655469000000000E+02
4907000000.000000      6.809387000000000E-01      1.177002000000000E+01      2.726440000000000E-01     -1.659765000000000E+02
4908000000.000000      6.810913000000000E-01      1.163965000000000E+01      2.697754000000000E-01     -1.664297000000000E+02
4909000000.000000      6.796875000000000E-01      1.154492000000000E+01      2.648773000000000E-01     -1.666094000000000E+02
4910000000.000000      6.798706000000000E-01      1.144775000000000E+01      2.618713000000000E-01     -1.669219000000000E+02
4911000000.000000      6.830750000000000E-01      1.140479000000000E+01      2.582855000000000E-01     -1.671719000000000E+02
4912000000.000000      6.824646000000000E-01      1.142822000000000E+01      2.551270000000000E-01     -1.673672000000000E+02
4913000000.000000      6.848145000000000E-01      1.114795000000000E+01      2.517548000000000E-01     -1.678672000000000E+02
4914000000.000000      6.848755000000000E-01      1.084326000000000E+01      2.478714000000000E-01     -1.680547000000000E+02
4915000000.000000      6.864319000000000E-01      1.112207000000000E+01      2.444687000000000E-01     -1.683047000000000E+02
4916000000.000000      6.867371000000000E-01      1.086230000000000E+01      2.411194000000000E-01     -1.686328000000000E+02
4917000000.000000      6.867981000000000E-01      1.091064000000000E+01      2.372360000000000E-01     -1.687891000000000E+02
4918000000.000000      6.858215000000000E-01      1.077051000000000E+01      2.334137000000000E-01     -1.691641000000000E+02
4919000000.000000      6.864014000000000E-01      1.058496000000000E+01      2.299576000000000E-01     -1.691015000000000E+02
4920000000.000000      6.887512000000000E-01      1.021973000000000E+01      2.262878000000000E-01     -1.696719000000000E+02
4921000000.000000      6.876221000000000E-01      1.041602000000000E+01      2.230301000000000E-01     -1.698516000000000E+02
4922000000.000000      6.888733000000000E-01      1.036523000000000E+01      2.186890000000000E-01     -1.698516000000000E+02
4923000000.000000      6.887817000000000E-01      1.019092000000000E+01      2.152786000000000E-01     -1.700469000000000E+02
4924000000.000000      6.889954000000000E-01      1.021289000000000E+01      2.112274000000000E-01     -1.703203000000000E+02
4925000000.000000      6.918030000000000E-01      1.007422000000000E+01      2.079086000000000E-01     -1.703516000000000E+02
4926000000.000000      6.892090000000000E-01      9.962891000000000E+00      2.041550000000000E-01     -1.705937000000000E+02
4927000000.000000      6.911011000000000E-01      9.790039000000000E+00      2.000732000000000E-01     -1.706406000000000E+02
4928000000.000000      6.927490000000000E-01      9.692383000000000E+00      1.973190000000000E-01     -1.706172000000000E+02
4929000000.000000      6.917725000000000E-01      9.641602000000000E+00      1.921768000000000E-01     -1.708594000000000E+02
4930000000.000000      6.923828000000000E-01      9.607422000000000E+00      1.893311000000000E-01     -1.708672000000000E+02
4931000000.000000      6.929626000000000E-01      9.382324000000000E+00      1.863251000000000E-01     -1.707031000000000E+02
4932000000.000000      6.926270000000000E-01      9.375000000000000E+00      1.818161000000000E-01     -1.708203000000000E+02
4933000000.000000      6.944885000000000E-01      9.147461000000000E+00      1.772690000000000E-01     -1.703828000000000E+02
4934000000.000000      6.946716000000000E-01      9.058105000000000E+00      1.740646000000000E-01     -1.705312000000000E+02
4935000000.000000      6.965637000000000E-01      8.987793000000000E+00      1.708145000000000E-01     -1.701328000000000E+02
4936000000.000000      6.948242000000000E-01      8.711914000000000E+00      1.668015000000000E-01     -1.699297000000000E+02
4937000000.000000      6.963501000000000E-01      8.749023000000000E+00      1.635132000000000E-01     -1.698281000000000E+02
4938000000.000000      6.943359000000000E-01      8.808105000000000E+00      1.594925000000000E-01     -1.693047000000000E+02
4939000000.000000      6.960144000000000E-01      8.692871000000000E+00      1.559067000000000E-01     -1.688906000000000E+02
4940000000.000000      6.968994000000000E-01      8.422363000000000E+00      1.527023000000000E-01     -1.687500000000000E+02
4941000000.000000      6.961975000000000E-01      8.326172000000000E+00      1.491318000000000E-01     -1.678984000000000E+02
4942000000.000000      6.985474000000000E-01      8.319336000000000E+00      1.456909000000000E-01     -1.676250000000000E+02
4943000000.000000      6.976318000000000E-01      8.246582000000000E+00      1.425858000000000E-01     -1.669297000000000E+02
4944000000.000000      6.987000000000000E-01      7.990967000000000E+00      1.392670000000000E-01     -1.662344000000000E+02
4945000000.000000      6.994324000000000E-01      7.979980000000000E+00      1.354523000000000E-01     -1.654609000000000E+02
4946000000.000000      7.006836000000000E-01      8.003418000000000E+00      1.324921000000000E-01     -1.646094000000000E+02
4947000000.000000      7.007751000000000E-01      7.932129000000000E+00      1.298370000000000E-01     -1.635391000000000E+02
4948000000.000000      7.005615000000000E-01      7.717773000000000E+00      1.269684000000000E-01     -1.627812000000000E+02
4949000000.000000      7.006836000000000E-01      7.669678000000000E+00      1.241150000000000E-01     -1.614219000000000E+02
4950000000.000000      7.019043000000000E-01      7.539307000000000E+00      1.213722000000000E-01     -1.603516000000000E+02
4951000000.000000      7.025452000000000E-01      7.392334000000000E+00      1.192513000000000E-01     -1.595156000000000E+02
4952000000.000000      7.023926000000000E-01      7.327881000000000E+00      1.165504000000000E-01     -1.579922000000000E+02
4953000000.000000      7.029724000000000E-01      7.246826000000000E+00      1.147728000000000E-01     -1.565547000000000E+02
4954000000.000000      7.040710000000000E-01      7.090088000000000E+00      1.127090000000000E-01     -1.549219000000000E+02
