! Network Analyzer HP8722D
! Hewlett-Packard
! Data name: Linha & Wilkinson
! Saver's name: Rodrigo Anjos
! Comments: Teste da utilização de aquisição
continua pelo VNA HP8722D
! Time and date: 23/5/2025 16:04
!              Frequency                     S11                                                   S21                                                   S12                                                   S22
# HZ  S  MA R 50
4800000000.000000      2.798767000000000E-01      4.039063000000000E+01      4.876251000000000E-01     -1.296562000000000E+02
4801000000.000000      2.808990000000000E-01      4.063672000000000E+01      4.881897000000000E-01     -1.302891000000000E+02
4802000000.000000      2.823334000000000E-01      4.083984000000000E+01      4.901428000000000E-01     -1.310234000000000E+02
4803000000.000000      2.829132000000000E-01      4.104101000000000E+01      4.923401000000000E-01     -1.317422000000000E+02
4804000000.000000      2.843781000000000E-01      4.126562000000000E+01      4.947815000000000E-01     -1.323750000000000E+02
4805000000.000000      2.863770000000000E-01      4.130859000000000E+01      4.953766000000000E-01     -1.331328000000000E+02
4806000000.000000      2.870636000000000E-01      4.148633000000000E+01      4.971161000000000E-01     -1.340391000000000E+02
4807000000.000000      2.884216000000000E-01      4.171288000000000E+01      4.985657000000000E-01     -1.347031000000000E+02
4808000000.000000      2.895050000000000E-01      4.187304000000000E+01      5.012207000000000E-01     -1.352187000000000E+02
4809000000.000000      2.913818000000000E-01      4.222852000000000E+01      5.014648000000000E-01     -1.362656000000000E+02
4810000000.000000      2.930145000000000E-01      4.224805000000000E+01      5.040283000000000E-01     -1.368750000000000E+02
4811000000.000000      2.950134000000000E-01      4.243945000000000E+01      5.049744000000000E-01     -1.377891000000000E+02
4812000000.000000      2.971802000000000E-01      4.261328000000000E+01      5.036011000000000E-01     -1.382969000000000E+02
4813000000.000000      2.978973000000000E-01      4.280663000000000E+01      5.057983000000000E-01     -1.391250000000000E+02
4814000000.000000      2.992401000000000E-01      4.276757000000000E+01      5.063782000000000E-01     -1.396875000000000E+02
4815000000.000000      3.008423000000000E-01      4.289844000000000E+01      5.059814000000000E-01     -1.404687000000000E+02
4816000000.000000      3.037720000000000E-01      4.299218000000000E+01      5.072937000000000E-01     -1.412344000000000E+02
4817000000.000000      3.045197000000000E-01      4.308789000000000E+01      5.073853000000000E-01     -1.420156000000000E+02
4818000000.000000      3.066406000000000E-01      4.305273000000000E+01      5.077820000000000E-01     -1.427656000000000E+02
4819000000.000000      3.086700000000000E-01      4.315430000000000E+01      5.090637000000000E-01     -1.434297000000000E+02
4820000000.000000      3.095093000000000E-01      4.318749000000000E+01      5.081482000000000E-01     -1.442812000000000E+02
4821000000.000000      3.126068000000000E-01      4.321094000000000E+01      5.084229000000000E-01     -1.448672000000000E+02
4822000000.000000      3.134155000000000E-01      4.310156000000000E+01      5.073547000000000E-01     -1.456563000000000E+02
4823000000.000000      3.157349000000000E-01      4.308984000000000E+01      5.086975000000000E-01     -1.464141000000000E+02
4824000000.000000      3.175049000000000E-01      4.328321000000000E+01      5.078735000000000E-01     -1.473516000000000E+02
4825000000.000000      3.191223000000000E-01      4.308398000000000E+01      5.080566000000000E-01     -1.479687000000000E+02
4826000000.000000      3.207855000000000E-01      4.304492000000000E+01      5.094299000000000E-01     -1.485859000000000E+02
4827000000.000000      3.232269000000000E-01      4.300390000000000E+01      5.086060000000000E-01     -1.493750000000000E+02
4828000000.000000      3.255615000000000E-01      4.302539000000000E+01      5.079651000000000E-01     -1.501094000000000E+02
4829000000.000000      3.268585000000000E-01      4.300977000000000E+01      5.067444000000000E-01     -1.507187000000000E+02
4830000000.000000      3.286743000000000E-01      4.268945000000000E+01      5.075073000000000E-01     -1.514844000000000E+02
4831000000.000000      3.301239000000000E-01      4.274414000000000E+01      5.064087000000000E-01     -1.523125000000000E+02
4832000000.000000      3.320770000000000E-01      4.281640000000000E+01      5.046997000000000E-01     -1.529140000000000E+02
4833000000.000000      3.335419000000000E-01      4.259961000000000E+01      5.040283000000000E-01     -1.537109000000000E+02
4834000000.000000      3.356476000000000E-01      4.258398000000000E+01      5.032349000000000E-01     -1.543984000000000E+02
4835000000.000000      3.375244000000000E-01      4.230859000000000E+01      5.038757000000000E-01     -1.550859000000000E+02
4836000000.000000      3.395081000000000E-01      4.229492000000000E+01      5.005188000000000E-01     -1.557500000000000E+02
4837000000.000000      3.409119000000000E-01      4.231054000000000E+01      5.010376000000000E-01     -1.567344000000000E+02
4838000000.000000      3.421783000000000E-01      4.197266000000000E+01      4.993744000000000E-01     -1.571094000000000E+02
4839000000.000000      3.458405000000000E-01      4.190820000000000E+01      4.974976000000000E-01     -1.578125000000000E+02
4840000000.000000      3.466949000000000E-01      4.155273000000000E+01      4.975586000000000E-01     -1.585781000000000E+02
4841000000.000000      3.478394000000000E-01      4.159375000000000E+01      4.949188000000000E-01     -1.593828000000000E+02
4842000000.000000      3.489380000000000E-01      4.137500000000000E+01      4.947357000000000E-01     -1.599531000000000E+02
4843000000.000000      3.518677000000000E-01      4.106641000000000E+01      4.941254000000000E-01     -1.606797000000000E+02
4844000000.000000      3.525696000000000E-01      4.085742000000000E+01      4.924469000000000E-01     -1.614609000000000E+02
4845000000.000000      3.543549000000000E-01      4.070313000000000E+01      4.905396000000000E-01     -1.622422000000000E+02
4846000000.000000      3.564453000000000E-01      4.054101000000000E+01      4.891357000000000E-01     -1.627656000000000E+02
4847000000.000000      3.576660000000000E-01      4.056641000000000E+01      4.875488000000000E-01     -1.634844000000000E+02
4848000000.000000      3.586121000000000E-01      4.009179000000000E+01      4.852753000000000E-01     -1.643906000000000E+02
4849000000.000000      3.605957000000000E-01      3.982422000000000E+01      4.836426000000000E-01     -1.650391000000000E+02
4850000000.000000      3.613892000000000E-01      3.975781000000000E+01      4.818726000000000E-01     -1.656484000000000E+02
4851000000.000000      3.633575000000000E-01      3.959375000000000E+01      4.813843000000000E-01     -1.663437000000000E+02
4852000000.000000      3.643341000000000E-01      3.923242000000000E+01      4.776611000000000E-01     -1.670781000000000E+02
4853000000.000000      3.657532000000000E-01      3.904492000000000E+01      4.741364000000000E-01     -1.678203000000000E+02
4854000000.000000      3.665161000000000E-01      3.885547000000000E+01      4.729462000000000E-01     -1.685234000000000E+02
4855000000.000000      3.679962000000000E-01      3.852539000000000E+01      4.720459000000000E-01     -1.692578000000000E+02
4856000000.000000      3.690338000000000E-01      3.839062000000000E+01      4.699249000000000E-01     -1.697500000000000E+02
4857000000.000000      3.704834000000000E-01      3.815820000000000E+01      4.674835000000000E-01     -1.705156000000000E+02
4858000000.000000      3.716888000000000E-01      3.783398000000000E+01      4.655914000000000E-01     -1.713750000000000E+02
4859000000.000000      3.728638000000000E-01      3.754687000000000E+01      4.618683000000000E-01     -1.721250000000000E+02
4860000000.000000      3.735962000000000E-01      3.741796000000000E+01      4.597931000000000E-01     -1.726172000000000E+02
4861000000.000000      3.743896000000000E-01      3.714453000000000E+01      4.569397000000000E-01     -1.734375000000000E+02
4862000000.000000      3.751678000000000E-01      3.684375000000000E+01      4.543152000000000E-01     -1.740469000000000E+02
4863000000.000000      3.762207000000000E-01      3.669531000000000E+01      4.518127000000000E-01     -1.747500000000000E+02
4864000000.000000      3.777771000000000E-01      3.628906000000000E+01      4.481506000000000E-01     -1.751562000000000E+02
4865000000.000000      3.779755000000000E-01      3.603125000000000E+01      4.457703000000000E-01     -1.759219000000000E+02
4866000000.000000      3.791351000000000E-01      3.564453000000000E+01      4.427795000000000E-01     -1.766484000000000E+02
4867000000.000000      3.786469000000000E-01      3.551953000000000E+01      4.398346000000000E-01     -1.775156000000000E+02
4868000000.000000      3.801880000000000E-01      3.524219000000000E+01      4.369507000000000E-01     -1.782031000000000E+02
4869000000.000000      3.809204000000000E-01      3.488281000000000E+01      4.334564000000000E-01     -1.786094000000000E+02
4870000000.000000      3.821259000000000E-01      3.479101000000000E+01      4.304962000000000E-01     -1.791875000000000E+02
4871000000.000000      3.819275000000000E-01      3.443359000000000E+01      4.268036000000000E-01     -1.799219000000000E+02
4872000000.000000      3.840179000000000E-01      3.400391000000000E+01      4.235535000000000E-01      1.796875000000000E+02
4873000000.000000      3.834076000000000E-01      3.396289000000000E+01      4.208984000000000E-01      1.789922000000000E+02
4874000000.000000      3.837891000000000E-01      3.373047000000000E+01      4.172516000000000E-01      1.782734000000000E+02
4875000000.000000      3.846588000000000E-01      3.329102000000000E+01      4.136658000000000E-01      1.776484000000000E+02
4876000000.000000      3.851776000000000E-01      3.321289000000000E+01      4.104156000000000E-01      1.770000000000000E+02
4877000000.000000      3.861542000000000E-01      3.273633000000000E+01      4.073334000000000E-01      1.763906000000000E+02
4878000000.000000      3.846741000000000E-01      3.254101000000000E+01      4.028778000000000E-01      1.760156000000000E+02
4879000000.000000      3.863831000000000E-01      3.226758000000000E+01      4.003906000000000E-01      1.754531000000000E+02
4880000000.000000      3.864288000000000E-01      3.197266000000000E+01      3.967743000000000E-01      1.749531000000000E+02
4881000000.000000      3.866882000000000E-01      3.162793000000000E+01      3.916931000000000E-01      1.745078000000000E+02
4882000000.000000      3.872375000000000E-01      3.151953000000000E+01      3.908386000000000E-01      1.738906000000000E+02
4883000000.000000      3.871307000000000E-01      3.125977000000000E+01      3.839111000000000E-01      1.732969000000000E+02
4884000000.000000      3.880768000000000E-01      3.100195000000000E+01      3.822327000000000E-01      1.727422000000000E+02
4885000000.000000      3.886871000000000E-01      3.078418000000000E+01      3.794403000000000E-01      1.724297000000000E+02
4886000000.000000      3.888397000000000E-01      3.044140000000000E+01      3.736725000000000E-01      1.718906000000000E+02
4887000000.000000      3.881226000000000E-01      3.018164000000000E+01      3.711853000000000E-01      1.714766000000000E+02
4888000000.000000      3.880615000000000E-01      2.993164000000000E+01      3.688202000000000E-01      1.707344000000000E+02
4889000000.000000      3.877258000000000E-01      2.978222000000000E+01      3.646393000000000E-01      1.705547000000000E+02
4890000000.000000      3.880157000000000E-01      2.946777000000000E+01      3.600159000000000E-01      1.696640000000000E+02
4891000000.000000      3.882904000000000E-01      2.923242000000000E+01      3.562012000000000E-01      1.694297000000000E+02
4892000000.000000      3.883362000000000E-01      2.896679000000000E+01      3.522186000000000E-01      1.692031000000000E+02
4893000000.000000      3.882294000000000E-01      2.862207000000000E+01      3.500061000000000E-01      1.684375000000000E+02
4894000000.000000      3.872528000000000E-01      2.870996000000000E+01      3.457184000000000E-01      1.679766000000000E+02
4895000000.000000      3.882904000000000E-01      2.821094000000000E+01      3.437805000000000E-01      1.677578000000000E+02
4896000000.000000      3.875732000000000E-01      2.794726000000000E+01      3.387299000000000E-01      1.674531000000000E+02
4897000000.000000      3.874817000000000E-01      2.785547000000000E+01      3.358154000000000E-01      1.667344000000000E+02
4898000000.000000      3.882141000000000E-01      2.765039000000000E+01      3.330078000000000E-01      1.663750000000000E+02
4899000000.000000      3.873596000000000E-01      2.735156000000000E+01      3.284912000000000E-01      1.660547000000000E+02
4900000000.000000      3.870544000000000E-01      2.698730000000000E+01      3.259735000000000E-01      1.656875000000000E+02
4901000000.000000      3.874054000000000E-01      2.682031000000000E+01      3.227081000000000E-01      1.653047000000000E+02
4902000000.000000      3.868103000000000E-01      2.668652000000000E+01      3.186646000000000E-01      1.648750000000000E+02
4903000000.000000      3.865662000000000E-01      2.648340000000000E+01      3.153687000000000E-01      1.644531000000000E+02
4904000000.000000      3.852844000000000E-01      2.613086000000000E+01      3.118286000000000E-01      1.639922000000000E+02
4905000000.000000      3.859253000000000E-01      2.595312000000000E+01      3.090515000000000E-01      1.635234000000000E+02
4906000000.000000      3.850098000000000E-01      2.573339000000000E+01      3.046112000000000E-01      1.633594000000000E+02
4907000000.000000      3.855286000000000E-01      2.562402000000000E+01      3.017120000000000E-01      1.627891000000000E+02
4908000000.000000      3.848572000000000E-01      2.528418000000000E+01      2.986450000000000E-01      1.624609000000000E+02
4909000000.000000      3.844299000000000E-01      2.522558000000000E+01      2.951050000000000E-01      1.620625000000000E+02
4910000000.000000      3.848724000000000E-01      2.494824000000000E+01      2.908630000000000E-01      1.618047000000000E+02
4911000000.000000      3.851013000000000E-01      2.479297000000000E+01      2.877655000000000E-01      1.614531000000000E+02
4912000000.000000      3.846283000000000E-01      2.458984000000000E+01      2.839203000000000E-01      1.608828000000000E+02
4913000000.000000      3.850861000000000E-01      2.428906000000000E+01      2.805786000000000E-01      1.607265000000000E+02
4914000000.000000      3.843384000000000E-01      2.403906000000000E+01      2.778168000000000E-01      1.602656000000000E+02
4915000000.000000      3.832550000000000E-01      2.393164000000000E+01      2.729492000000000E-01      1.597656000000000E+02
4916000000.000000      3.828888000000000E-01      2.385254000000000E+01      2.691345000000000E-01      1.593516000000000E+02
4917000000.000000      3.833008000000000E-01      2.359668000000000E+01      2.658081000000000E-01      1.591953000000000E+02
4918000000.000000      3.828125000000000E-01      2.342383000000000E+01      2.612610000000000E-01      1.588125000000000E+02
4919000000.000000      3.816681000000000E-01      2.344336000000000E+01      2.588043000000000E-01      1.587031000000000E+02
4920000000.000000      3.821106000000000E-01      2.307617000000000E+01      2.535400000000000E-01      1.581953000000000E+02
4921000000.000000      3.813171000000000E-01      2.296191000000000E+01      2.509003000000000E-01      1.579922000000000E+02
4922000000.000000      3.818359000000000E-01      2.254590000000000E+01      2.469482000000000E-01      1.577500000000000E+02
4923000000.000000      3.815460000000000E-01      2.264355000000000E+01      2.421494000000000E-01      1.575938000000000E+02
4924000000.000000      3.811951000000000E-01      2.230957000000000E+01      2.381897000000000E-01      1.571640000000000E+02
4925000000.000000      3.803406000000000E-01      2.218945000000000E+01      2.345581000000000E-01      1.569062000000000E+02
4926000000.000000      3.800354000000000E-01      2.207910000000000E+01      2.311554000000000E-01      1.567266000000000E+02
4927000000.000000      3.807831000000000E-01      2.185449000000000E+01      2.266388000000000E-01      1.564922000000000E+02
4928000000.000000      3.799286000000000E-01      2.162890000000000E+01      2.225418000000000E-01      1.562422000000000E+02
4929000000.000000      3.804474000000000E-01      2.144922000000000E+01      2.183914000000000E-01      1.564453000000000E+02
4930000000.000000      3.794098000000000E-01      2.129492000000000E+01      2.148972000000000E-01      1.560000000000000E+02
4931000000.000000      3.792877000000000E-01      2.099316000000000E+01      2.108841000000000E-01      1.560547000000000E+02
4932000000.000000      3.790131000000000E-01      2.086914000000000E+01      2.063751000000000E-01      1.559766000000000E+02
4933000000.000000      3.781128000000000E-01      2.071680000000000E+01      2.015686000000000E-01      1.560859000000000E+02
4934000000.000000      3.789368000000000E-01      2.048047000000000E+01      1.978607000000000E-01      1.560000000000000E+02
4935000000.000000      3.784637000000000E-01      2.043652000000000E+01      1.945648000000000E-01      1.561328000000000E+02
4936000000.000000      3.778534000000000E-01      2.013770000000000E+01      1.896439000000000E-01      1.562422000000000E+02
4937000000.000000      3.777008000000000E-01      2.007129000000000E+01      1.860657000000000E-01      1.563828000000000E+02
4938000000.000000      3.762512000000000E-01      1.990137000000000E+01      1.818466000000000E-01      1.564687000000000E+02
4939000000.000000      3.760071000000000E-01      1.983789000000000E+01      1.774216000000000E-01      1.566015000000000E+02
4940000000.000000      3.768311000000000E-01      1.953027000000000E+01      1.741409000000000E-01      1.569062000000000E+02
4941000000.000000      3.771362000000000E-01      1.937402000000000E+01      1.698151000000000E-01      1.573516000000000E+02
4942000000.000000      3.757782000000000E-01      1.927246000000000E+01      1.658859000000000E-01      1.576719000000000E+02
4943000000.000000      3.756714000000000E-01      1.903906000000000E+01      1.624527000000000E-01      1.580234000000000E+02
4944000000.000000      3.758392000000000E-01      1.889062000000000E+01      1.586914000000000E-01      1.585859000000000E+02
4945000000.000000      3.747864000000000E-01      1.869433000000000E+01      1.546478000000000E-01      1.591563000000000E+02
4946000000.000000      3.751526000000000E-01      1.855957000000000E+01      1.514664000000000E-01      1.597578000000000E+02
4947000000.000000      3.742371000000000E-01      1.831055000000000E+01      1.477280000000000E-01      1.606406000000000E+02
4948000000.000000      3.751526000000000E-01      1.823535000000000E+01      1.442413000000000E-01      1.612578000000000E+02
4949000000.000000      3.737946000000000E-01      1.799805000000000E+01      1.411743000000000E-01      1.624531000000000E+02
4950000000.000000      3.740234000000000E-01      1.797363000000000E+01      1.378174000000000E-01      1.632266000000000E+02
4951000000.000000      3.735199000000000E-01      1.771875000000000E+01      1.349106000000000E-01      1.642109000000000E+02
4952000000.000000      3.728485000000000E-01      1.743848000000000E+01      1.324158000000000E-01      1.654140000000000E+02
4953000000.000000      3.728790000000000E-01      1.729883000000000E+01      1.293640000000000E-01      1.666719000000000E+02
4954000000.000000      3.734283000000000E-01      1.716699000000000E+01      1.265717000000000E-01      1.681172000000000E+02
