! Network Analyzer HP8722D
! Hewlett-Packard
! Data name: Linha & Wilkinson
! Saver's name: Rodrigo Anjos
! Comments: Teste da utilização de aquisição
continua pelo VNA HP8722D
! Time and date: 23/5/2025 12:04
!              Frequency                     S11                                                   S21                                                   S12                                                   S22
# HZ  S  MA R 50
4800000000.000000      2.993011000000000E-01      3.851367000000000E+01      4.782410000000000E-01     -1.287734000000000E+02
4801000000.000000      2.998505000000000E-01      3.879687000000000E+01      4.780884000000000E-01     -1.294688000000000E+02
4802000000.000000      3.009338000000000E-01      3.890625000000000E+01      4.810638000000000E-01     -1.302266000000000E+02
4803000000.000000      3.020172000000000E-01      3.912304000000000E+01      4.814148000000000E-01     -1.309609000000000E+02
4804000000.000000      3.029022000000000E-01      3.942187000000000E+01      4.840698000000000E-01     -1.316250000000000E+02
4805000000.000000      3.048248000000000E-01      3.946680000000000E+01      4.848480000000000E-01     -1.324063000000000E+02
4806000000.000000      3.054962000000000E-01      3.965234000000000E+01      4.876251000000000E-01     -1.330859000000000E+02
4807000000.000000      3.067780000000000E-01      3.982422000000000E+01      4.883881000000000E-01     -1.339453000000000E+02
4808000000.000000      3.082123000000000E-01      3.999023000000000E+01      4.904785000000000E-01     -1.344297000000000E+02
4809000000.000000      3.090515000000000E-01      4.025781000000000E+01      4.900055000000000E-01     -1.353125000000000E+02
4810000000.000000      3.109283000000000E-01      4.033984000000000E+01      4.917297000000000E-01     -1.359609000000000E+02
4811000000.000000      3.126678000000000E-01      4.048828000000000E+01      4.930725000000000E-01     -1.368125000000000E+02
4812000000.000000      3.147278000000000E-01      4.062500000000000E+01      4.936981000000000E-01     -1.374844000000000E+02
4813000000.000000      3.155518000000000E-01      4.086133000000000E+01      4.956512000000000E-01     -1.380781000000000E+02
4814000000.000000      3.165894000000000E-01      4.089453000000000E+01      4.962921000000000E-01     -1.389609000000000E+02
4815000000.000000      3.180084000000000E-01      4.097461000000000E+01      4.957886000000000E-01     -1.396797000000000E+02
4816000000.000000      3.204346000000000E-01      4.107617000000000E+01      4.983063000000000E-01     -1.403437000000000E+02
4817000000.000000      3.215637000000000E-01      4.118360000000000E+01      4.969482000000000E-01     -1.411484000000000E+02
4818000000.000000      3.229523000000000E-01      4.125000000000000E+01      4.982758000000000E-01     -1.420391000000000E+02
4819000000.000000      3.253937000000000E-01      4.125390000000000E+01      4.979858000000000E-01     -1.425859000000000E+02
4820000000.000000      3.263855000000000E-01      4.136328000000000E+01      4.983368000000000E-01     -1.433281000000000E+02
4821000000.000000      3.288727000000000E-01      4.127539000000000E+01      4.994965000000000E-01     -1.441641000000000E+02
4822000000.000000      3.298187000000000E-01      4.134766000000000E+01      4.972687000000000E-01     -1.447578000000000E+02
4823000000.000000      3.316956000000000E-01      4.129102000000000E+01      4.980011000000000E-01     -1.454062000000000E+02
4824000000.000000      3.334198000000000E-01      4.136914000000000E+01      4.985046000000000E-01     -1.463047000000000E+02
4825000000.000000      3.351440000000000E-01      4.130273000000000E+01      4.968719000000000E-01     -1.470156000000000E+02
4826000000.000000      3.370056000000000E-01      4.126172000000000E+01      4.985657000000000E-01     -1.478125000000000E+02
4827000000.000000      3.388214000000000E-01      4.124609000000000E+01      4.971313000000000E-01     -1.483828000000000E+02
4828000000.000000      3.415833000000000E-01      4.124804000000000E+01      4.977722000000000E-01     -1.492266000000000E+02
4829000000.000000      3.423157000000000E-01      4.133008000000000E+01      4.969788000000000E-01     -1.497031000000000E+02
4830000000.000000      3.442230000000000E-01      4.111328000000000E+01      4.969025000000000E-01     -1.506328000000000E+02
4831000000.000000      3.453674000000000E-01      4.103906000000000E+01      4.952393000000000E-01     -1.515156000000000E+02
4832000000.000000      3.475494000000000E-01      4.115430000000000E+01      4.950562000000000E-01     -1.519531000000000E+02
4833000000.000000      3.485565000000000E-01      4.088476000000000E+01      4.933929000000000E-01     -1.527187000000000E+02
4834000000.000000      3.503723000000000E-01      4.078515000000000E+01      4.941406000000000E-01     -1.534922000000000E+02
4835000000.000000      3.529968000000000E-01      4.065234000000000E+01      4.934235000000000E-01     -1.542500000000000E+02
4836000000.000000      3.542328000000000E-01      4.065625000000000E+01      4.909821000000000E-01     -1.548984000000000E+02
4837000000.000000      3.555298000000000E-01      4.057422000000000E+01      4.892883000000000E-01     -1.559219000000000E+02
4838000000.000000      3.570251000000000E-01      4.040039000000000E+01      4.893951000000000E-01     -1.562578000000000E+02
4839000000.000000      3.607788000000000E-01      4.037695000000000E+01      4.881592000000000E-01     -1.569375000000000E+02
4840000000.000000      3.611908000000000E-01      4.004883000000000E+01      4.874878000000000E-01     -1.577422000000000E+02
4841000000.000000      3.628845000000000E-01      3.997656000000000E+01      4.877014000000000E-01     -1.584766000000000E+02
4842000000.000000      3.642731000000000E-01      3.978711000000000E+01      4.848785000000000E-01     -1.592500000000000E+02
4843000000.000000      3.668518000000000E-01      3.956445000000000E+01      4.848633000000000E-01     -1.599375000000000E+02
4844000000.000000      3.671112000000000E-01      3.949414000000000E+01      4.822693000000000E-01     -1.608047000000000E+02
4845000000.000000      3.693085000000000E-01      3.937109000000000E+01      4.807587000000000E-01     -1.613125000000000E+02
4846000000.000000      3.708954000000000E-01      3.921679000000000E+01      4.790955000000000E-01     -1.619922000000000E+02
4847000000.000000      3.728180000000000E-01      3.905078000000000E+01      4.777222000000000E-01     -1.626875000000000E+02
4848000000.000000      3.735352000000000E-01      3.876367000000000E+01      4.743347000000000E-01     -1.634453000000000E+02
4849000000.000000      3.746490000000000E-01      3.839258000000000E+01      4.747314000000000E-01     -1.641797000000000E+02
4850000000.000000      3.761597000000000E-01      3.835351000000000E+01      4.720764000000000E-01     -1.649609000000000E+02
4851000000.000000      3.777008000000000E-01      3.822266000000000E+01      4.706421000000000E-01     -1.655156000000000E+02
4852000000.000000      3.790588000000000E-01      3.803711000000000E+01      4.678192000000000E-01     -1.664219000000000E+02
4853000000.000000      3.805237000000000E-01      3.782422000000000E+01      4.655914000000000E-01     -1.670000000000000E+02
4854000000.000000      3.818054000000000E-01      3.754883000000000E+01      4.641113000000000E-01     -1.678437000000000E+02
4855000000.000000      3.825836000000000E-01      3.737109000000000E+01      4.624939000000000E-01     -1.685078000000000E+02
4856000000.000000      3.837585000000000E-01      3.715820000000000E+01      4.599304000000000E-01     -1.691328000000000E+02
4857000000.000000      3.849182000000000E-01      3.694140000000000E+01      4.582062000000000E-01     -1.697891000000000E+02
4858000000.000000      3.856506000000000E-01      3.670117000000000E+01      4.542084000000000E-01     -1.703438000000000E+02
4859000000.000000      3.873749000000000E-01      3.640429000000000E+01      4.517975000000000E-01     -1.711953000000000E+02
4860000000.000000      3.890533000000000E-01      3.629492000000000E+01      4.500122000000000E-01     -1.717578000000000E+02
4861000000.000000      3.898010000000000E-01      3.598242000000000E+01      4.477844000000000E-01     -1.726875000000000E+02
4862000000.000000      3.904419000000000E-01      3.571094000000000E+01      4.451141000000000E-01     -1.731016000000000E+02
4863000000.000000      3.910522000000000E-01      3.547070000000000E+01      4.422302000000000E-01     -1.739063000000000E+02
4864000000.000000      3.915405000000000E-01      3.530859000000000E+01      4.387970000000000E-01     -1.747344000000000E+02
4865000000.000000      3.929901000000000E-01      3.501172000000000E+01      4.369965000000000E-01     -1.750703000000000E+02
4866000000.000000      3.942719000000000E-01      3.473633000000000E+01      4.322662000000000E-01     -1.760156000000000E+02
4867000000.000000      3.938904000000000E-01      3.458593000000000E+01      4.311218000000000E-01     -1.766875000000000E+02
4868000000.000000      3.951111000000000E-01      3.427539000000000E+01      4.277802000000000E-01     -1.774297000000000E+02
4869000000.000000      3.954773000000000E-01      3.395117000000000E+01      4.236450000000000E-01     -1.777891000000000E+02
4870000000.000000      3.966980000000000E-01      3.380078000000000E+01      4.211884000000000E-01     -1.783672000000000E+02
4871000000.000000      3.977509000000000E-01      3.337500000000000E+01      4.173584000000000E-01     -1.793437000000000E+02
4872000000.000000      3.993988000000000E-01      3.325781000000000E+01      4.135132000000000E-01     -1.796328000000000E+02
4873000000.000000      3.984222000000000E-01      3.309961000000000E+01      4.105072000000000E-01      1.794765000000000E+02
4874000000.000000      3.986206000000000E-01      3.282812000000000E+01      4.083557000000000E-01      1.790469000000000E+02
4875000000.000000      3.989563000000000E-01      3.249023000000000E+01      4.039612000000000E-01      1.784141000000000E+02
4876000000.000000      4.006195000000000E-01      3.236133000000000E+01      4.020538000000000E-01      1.777266000000000E+02
4877000000.000000      4.009094000000000E-01      3.195996000000000E+01      3.981018000000000E-01      1.773047000000000E+02
4878000000.000000      4.004211000000000E-01      3.174609000000000E+01      3.932800000000000E-01      1.768047000000000E+02
4879000000.000000      4.017181000000000E-01      3.150879000000000E+01      3.912964000000000E-01      1.760547000000000E+02
4880000000.000000      4.029999000000000E-01      3.119531000000000E+01      3.876648000000000E-01      1.757891000000000E+02
4881000000.000000      4.021454000000000E-01      3.093262000000000E+01      3.850555000000000E-01      1.751484000000000E+02
4882000000.000000      4.027557000000000E-01      3.091113000000000E+01      3.808289000000000E-01      1.743984000000000E+02
4883000000.000000      4.035339000000000E-01      3.054688000000000E+01      3.762970000000000E-01      1.740781000000000E+02
4884000000.000000      4.022369000000000E-01      3.035840000000000E+01      3.725739000000000E-01      1.733281000000000E+02
4885000000.000000      4.040833000000000E-01      3.004590000000000E+01      3.698730000000000E-01      1.732969000000000E+02
4886000000.000000      4.039917000000000E-01      2.994433000000000E+01      3.660431000000000E-01      1.726328000000000E+02
4887000000.000000      4.039307000000000E-01      2.961426000000000E+01      3.623657000000000E-01      1.720859000000000E+02
4888000000.000000      4.035492000000000E-01      2.933691000000000E+01      3.603058000000000E-01      1.714453000000000E+02
4889000000.000000      4.036102000000000E-01      2.911914000000000E+01      3.554382000000000E-01      1.708516000000000E+02
4890000000.000000      4.028778000000000E-01      2.884863000000000E+01      3.502350000000000E-01      1.704922000000000E+02
4891000000.000000      4.036407000000000E-01      2.870508000000000E+01      3.483734000000000E-01      1.700859000000000E+02
4892000000.000000      4.034729000000000E-01      2.847070000000000E+01      3.445587000000000E-01      1.698203000000000E+02
4893000000.000000      4.042511000000000E-01      2.826757000000000E+01      3.401489000000000E-01      1.690781000000000E+02
4894000000.000000      4.040222000000000E-01      2.792285000000000E+01      3.374329000000000E-01      1.687891000000000E+02
4895000000.000000      4.041290000000000E-01      2.777344000000000E+01      3.343048000000000E-01      1.682188000000000E+02
4896000000.000000      4.040222000000000E-01      2.753125000000000E+01      3.306122000000000E-01      1.680000000000000E+02
4897000000.000000      4.040680000000000E-01      2.733789000000000E+01      3.271027000000000E-01      1.676641000000000E+02
4898000000.000000      4.043732000000000E-01      2.709765000000000E+01      3.241272000000000E-01      1.671016000000000E+02
4899000000.000000      4.035339000000000E-01      2.696777000000000E+01      3.205719000000000E-01      1.666328000000000E+02
4900000000.000000      4.036560000000000E-01      2.656152000000000E+01      3.171692000000000E-01      1.664297000000000E+02
4901000000.000000      4.029846000000000E-01      2.647754000000000E+01      3.141937000000000E-01      1.660469000000000E+02
4902000000.000000      4.028320000000000E-01      2.629492000000000E+01      3.104706000000000E-01      1.655625000000000E+02
4903000000.000000      4.030304000000000E-01      2.622363000000000E+01      3.060150000000000E-01      1.651875000000000E+02
4904000000.000000      4.028473000000000E-01      2.581640000000000E+01      3.035736000000000E-01      1.647266000000000E+02
4905000000.000000      4.026489000000000E-01      2.566601000000000E+01      3.013306000000000E-01      1.644531000000000E+02
4906000000.000000      4.022675000000000E-01      2.544238000000000E+01      2.967987000000000E-01      1.641328000000000E+02
4907000000.000000      4.020538000000000E-01      2.527734000000000E+01      2.939453000000000E-01      1.636562000000000E+02
4908000000.000000      4.019928000000000E-01      2.500488000000000E+01      2.906494000000000E-01      1.631875000000000E+02
4909000000.000000      4.012604000000000E-01      2.486425000000000E+01      2.865906000000000E-01      1.628359000000000E+02
4910000000.000000      4.011078000000000E-01      2.471972000000000E+01      2.832642000000000E-01      1.625156000000000E+02
4911000000.000000      4.011383000000000E-01      2.450195000000000E+01      2.802277000000000E-01      1.620859000000000E+02
4912000000.000000      4.003143000000000E-01      2.438965000000000E+01      2.761078000000000E-01      1.616562000000000E+02
4913000000.000000      4.004364000000000E-01      2.419434000000000E+01      2.729645000000000E-01      1.612578000000000E+02
4914000000.000000      4.011841000000000E-01      2.395020000000000E+01      2.691345000000000E-01      1.612422000000000E+02
4915000000.000000      4.002686000000000E-01      2.373145000000000E+01      2.655945000000000E-01      1.606094000000000E+02
4916000000.000000      4.003906000000000E-01      2.357617000000000E+01      2.609863000000000E-01      1.602500000000000E+02
4917000000.000000      4.003906000000000E-01      2.346680000000000E+01      2.579803000000000E-01      1.600937000000000E+02
4918000000.000000      3.991547000000000E-01      2.308984000000000E+01      2.540436000000000E-01      1.596094000000000E+02
4919000000.000000      3.986969000000000E-01      2.305664000000000E+01      2.510681000000000E-01      1.595156000000000E+02
4920000000.000000      3.995056000000000E-01      2.286035000000000E+01      2.472458000000000E-01      1.591953000000000E+02
4921000000.000000      3.986816000000000E-01      2.277148000000000E+01      2.438126000000000E-01      1.589453000000000E+02
4922000000.000000      3.989258000000000E-01      2.249121000000000E+01      2.391052000000000E-01      1.587578000000000E+02
4923000000.000000      3.985291000000000E-01      2.251074000000000E+01      2.351379000000000E-01      1.583984000000000E+02
4924000000.000000      3.986359000000000E-01      2.225195000000000E+01      2.308350000000000E-01      1.579062000000000E+02
4925000000.000000      3.971405000000000E-01      2.201367000000000E+01      2.280273000000000E-01      1.578750000000000E+02
4926000000.000000      3.977661000000000E-01      2.196289000000000E+01      2.240295000000000E-01      1.575781000000000E+02
4927000000.000000      3.973236000000000E-01      2.173144000000000E+01      2.196503000000000E-01      1.575156000000000E+02
4928000000.000000      3.969879000000000E-01      2.132519000000000E+01      2.161484000000000E-01      1.573359000000000E+02
4929000000.000000      3.967438000000000E-01      2.114941000000000E+01      2.120819000000000E-01      1.572969000000000E+02
4930000000.000000      3.972626000000000E-01      2.123437000000000E+01      2.083435000000000E-01      1.570937000000000E+02
4931000000.000000      3.960571000000000E-01      2.101269000000000E+01      2.046127000000000E-01      1.571016000000000E+02
4932000000.000000      3.961487000000000E-01      2.078027000000000E+01      1.999664000000000E-01      1.570781000000000E+02
4933000000.000000      3.953552000000000E-01      2.056055000000000E+01      1.953888000000000E-01      1.570547000000000E+02
4934000000.000000      3.963165000000000E-01      2.048926000000000E+01      1.920776000000000E-01      1.570547000000000E+02
4935000000.000000      3.965912000000000E-01      2.025293000000000E+01      1.886292000000000E-01      1.571875000000000E+02
4936000000.000000      3.958130000000000E-01      2.030762000000000E+01      1.838989000000000E-01      1.572422000000000E+02
4937000000.000000      3.955688000000000E-01      1.998242000000000E+01      1.805420000000000E-01      1.573359000000000E+02
4938000000.000000      3.939362000000000E-01      1.986133000000000E+01      1.763535000000000E-01      1.577266000000000E+02
4939000000.000000      3.952484000000000E-01      1.968554000000000E+01      1.725388000000000E-01      1.579219000000000E+02
4940000000.000000      3.946381000000000E-01      1.951367000000000E+01      1.683655000000000E-01      1.580312000000000E+02
4941000000.000000      3.945007000000000E-01      1.936133000000000E+01      1.646652000000000E-01      1.585625000000000E+02
4942000000.000000      3.935852000000000E-01      1.923828000000000E+01      1.610107000000000E-01      1.588828000000000E+02
4943000000.000000      3.941040000000000E-01      1.906250000000000E+01      1.575394000000000E-01      1.593672000000000E+02
4944000000.000000      3.933563000000000E-01      1.885644000000000E+01      1.537476000000000E-01      1.599453000000000E+02
4945000000.000000      3.927307000000000E-01      1.868066000000000E+01      1.501236000000000E-01      1.606797000000000E+02
4946000000.000000      3.942108000000000E-01      1.848926000000000E+01      1.468124000000000E-01      1.611484000000000E+02
4947000000.000000      3.922729000000000E-01      1.825586000000000E+01      1.431961000000000E-01      1.621016000000000E+02
4948000000.000000      3.938904000000000E-01      1.829492000000000E+01      1.401215000000000E-01      1.628750000000000E+02
4949000000.000000      3.917847000000000E-01      1.799414000000000E+01      1.367798000000000E-01      1.640469000000000E+02
4950000000.000000      3.915100000000000E-01      1.793066000000000E+01      1.339722000000000E-01      1.647656000000000E+02
4951000000.000000      3.921051000000000E-01      1.776758000000000E+01      1.306686000000000E-01      1.658047000000000E+02
4952000000.000000      3.913422000000000E-01      1.750391000000000E+01      1.276703000000000E-01      1.669297000000000E+02
4953000000.000000      3.912659000000000E-01      1.746875000000000E+01      1.258850000000000E-01      1.685313000000000E+02
4954000000.000000      3.910980000000000E-01      1.731250000000000E+01      1.234398000000000E-01      1.696563000000000E+02
