! Network Analyzer HP8722D
! Hewlett-Packard
! Data name: Linha & Wilkinson
! Saver's name: Rodrigo Anjos
! Comments: Teste da utilização de aquisição
continua pelo VNA HP8722D
! Time and date: 23/5/2025 14:05
!              Frequency                     S11                                                   S21                                                   S12                                                   S22
# HZ  S  MA R 50
4800000000.000000      2.927094000000000E-01      3.942968000000000E+01      4.817505000000000E-01     -1.297344000000000E+02
4801000000.000000      2.933044000000000E-01      3.975390000000000E+01      4.833832000000000E-01     -1.303984000000000E+02
4802000000.000000      2.943420000000000E-01      3.991601000000000E+01      4.857788000000000E-01     -1.310937000000000E+02
4803000000.000000      2.953644000000000E-01      4.010938000000000E+01      4.880676000000000E-01     -1.317969000000000E+02
4804000000.000000      2.966766000000000E-01      4.029882000000000E+01      4.895477000000000E-01     -1.322969000000000E+02
4805000000.000000      2.985687000000000E-01      4.036914000000000E+01      4.906006000000000E-01     -1.333047000000000E+02
4806000000.000000      2.995148000000000E-01      4.058398000000000E+01      4.911194000000000E-01     -1.340937000000000E+02
4807000000.000000      3.007965000000000E-01      4.076367000000000E+01      4.923859000000000E-01     -1.348984000000000E+02
4808000000.000000      3.019257000000000E-01      4.090429000000000E+01      4.934692000000000E-01     -1.353516000000000E+02
4809000000.000000      3.033600000000000E-01      4.117578000000000E+01      4.958344000000000E-01     -1.362500000000000E+02
4810000000.000000      3.049622000000000E-01      4.127930000000000E+01      4.967041000000000E-01     -1.368594000000000E+02
4811000000.000000      3.067474000000000E-01      4.143750000000000E+01      4.983673000000000E-01     -1.376719000000000E+02
4812000000.000000      3.088684000000000E-01      4.154492000000000E+01      4.977875000000000E-01     -1.384297000000000E+02
4813000000.000000      3.098907000000000E-01      4.175586000000000E+01      4.982758000000000E-01     -1.391250000000000E+02
4814000000.000000      3.109894000000000E-01      4.172265000000000E+01      4.982758000000000E-01     -1.397422000000000E+02
4815000000.000000      3.127136000000000E-01      4.181641000000000E+01      4.997253000000000E-01     -1.406484000000000E+02
4816000000.000000      3.151703000000000E-01      4.197656000000000E+01      5.010376000000000E-01     -1.414766000000000E+02
4817000000.000000      3.162537000000000E-01      4.203321000000000E+01      5.009766000000000E-01     -1.421406000000000E+02
4818000000.000000      3.180542000000000E-01      4.194140000000000E+01      5.009460000000000E-01     -1.426328000000000E+02
4819000000.000000      3.202362000000000E-01      4.200781000000000E+01      5.006104000000000E-01     -1.435078000000000E+02
4820000000.000000      3.212891000000000E-01      4.205859000000000E+01      5.017700000000000E-01     -1.441094000000000E+02
4821000000.000000      3.234558000000000E-01      4.213476000000000E+01      5.010681000000000E-01     -1.448828000000000E+02
4822000000.000000      3.246613000000000E-01      4.199609000000000E+01      5.003357000000000E-01     -1.458906000000000E+02
4823000000.000000      3.271484000000000E-01      4.205078000000000E+01      5.011292000000000E-01     -1.463672000000000E+02
4824000000.000000      3.288574000000000E-01      4.219727000000000E+01      5.005493000000000E-01     -1.471953000000000E+02
4825000000.000000      3.302612000000000E-01      4.195508000000000E+01      5.007629000000000E-01     -1.479063000000000E+02
4826000000.000000      3.322906000000000E-01      4.200976000000000E+01      5.024414000000000E-01     -1.487969000000000E+02
4827000000.000000      3.344574000000000E-01      4.188867000000000E+01      5.007629000000000E-01     -1.493047000000000E+02
4828000000.000000      3.364563000000000E-01      4.187696000000000E+01      5.003357000000000E-01     -1.501406000000000E+02
4829000000.000000      3.377380000000000E-01      4.200976000000000E+01      4.996948000000000E-01     -1.508203000000000E+02
4830000000.000000      3.392029000000000E-01      4.167773000000000E+01      4.989471000000000E-01     -1.514844000000000E+02
4831000000.000000      3.410492000000000E-01      4.167578000000000E+01      4.987793000000000E-01     -1.521953000000000E+02
4832000000.000000      3.427277000000000E-01      4.168554000000000E+01      4.977875000000000E-01     -1.529297000000000E+02
4833000000.000000      3.441315000000000E-01      4.148242000000000E+01      4.955597000000000E-01     -1.535234000000000E+02
4834000000.000000      3.460693000000000E-01      4.137304000000000E+01      4.947815000000000E-01     -1.544141000000000E+02
4835000000.000000      3.478546000000000E-01      4.129296000000000E+01      4.953613000000000E-01     -1.549531000000000E+02
4836000000.000000      3.496094000000000E-01      4.125196000000000E+01      4.932098000000000E-01     -1.557734000000000E+02
4837000000.000000      3.510895000000000E-01      4.114062000000000E+01      4.922180000000000E-01     -1.566797000000000E+02
4838000000.000000      3.527069000000000E-01      4.098828000000000E+01      4.922638000000000E-01     -1.571484000000000E+02
4839000000.000000      3.558960000000000E-01      4.092773000000000E+01      4.907684000000000E-01     -1.579141000000000E+02
4840000000.000000      3.561401000000000E-01      4.063477000000000E+01      4.902649000000000E-01     -1.586406000000000E+02
4841000000.000000      3.576355000000000E-01      4.048047000000000E+01      4.884796000000000E-01     -1.594141000000000E+02
4842000000.000000      3.586884000000000E-01      4.029101000000000E+01      4.873199000000000E-01     -1.600078000000000E+02
4843000000.000000      3.620300000000000E-01      4.001367000000000E+01      4.854584000000000E-01     -1.608672000000000E+02
4844000000.000000      3.625183000000000E-01      3.988672000000000E+01      4.836426000000000E-01     -1.615313000000000E+02
4845000000.000000      3.645325000000000E-01      3.977734000000000E+01      4.821625000000000E-01     -1.621719000000000E+02
4846000000.000000      3.661041000000000E-01      3.955078000000000E+01      4.821777000000000E-01     -1.630547000000000E+02
4847000000.000000      3.674622000000000E-01      3.941797000000000E+01      4.804993000000000E-01     -1.637031000000000E+02
4848000000.000000      3.684540000000000E-01      3.919336000000000E+01      4.766693000000000E-01     -1.643750000000000E+02
4849000000.000000      3.696747000000000E-01      3.882617000000000E+01      4.759216000000000E-01     -1.650781000000000E+02
4850000000.000000      3.708191000000000E-01      3.863476000000000E+01      4.728241000000000E-01     -1.657266000000000E+02
4851000000.000000      3.730011000000000E-01      3.869141000000000E+01      4.721375000000000E-01     -1.664453000000000E+02
4852000000.000000      3.738098000000000E-01      3.835938000000000E+01      4.704132000000000E-01     -1.672031000000000E+02
4853000000.000000      3.750153000000000E-01      3.807226000000000E+01      4.666595000000000E-01     -1.678359000000000E+02
4854000000.000000      3.766479000000000E-01      3.783984000000000E+01      4.651337000000000E-01     -1.687578000000000E+02
4855000000.000000      3.777161000000000E-01      3.769922000000000E+01      4.623566000000000E-01     -1.692734000000000E+02
4856000000.000000      3.791504000000000E-01      3.751367000000000E+01      4.612274000000000E-01     -1.698047000000000E+02
4857000000.000000      3.798218000000000E-01      3.727344000000000E+01      4.577332000000000E-01     -1.704922000000000E+02
4858000000.000000      3.816528000000000E-01      3.696094000000000E+01      4.572449000000000E-01     -1.712344000000000E+02
4859000000.000000      3.814087000000000E-01      3.663476000000000E+01      4.532623000000000E-01     -1.719375000000000E+02
4860000000.000000      3.826294000000000E-01      3.651953000000000E+01      4.510956000000000E-01     -1.726172000000000E+02
4861000000.000000      3.839264000000000E-01      3.625391000000000E+01      4.494019000000000E-01     -1.735234000000000E+02
4862000000.000000      3.846130000000000E-01      3.604883000000000E+01      4.460602000000000E-01     -1.739297000000000E+02
4863000000.000000      3.858948000000000E-01      3.581445000000000E+01      4.414825000000000E-01     -1.748750000000000E+02
4864000000.000000      3.865814000000000E-01      3.552929000000000E+01      4.405365000000000E-01     -1.754453000000000E+02
4865000000.000000      3.864899000000000E-01      3.528515000000000E+01      4.362183000000000E-01     -1.758984000000000E+02
4866000000.000000      3.884888000000000E-01      3.495117000000000E+01      4.328766000000000E-01     -1.767266000000000E+02
4867000000.000000      3.882599000000000E-01      3.474414000000000E+01      4.306488000000000E-01     -1.775000000000000E+02
4868000000.000000      3.894653000000000E-01      3.447266000000000E+01      4.266357000000000E-01     -1.780859000000000E+02
4869000000.000000      3.899231000000000E-01      3.418750000000000E+01      4.242096000000000E-01     -1.787500000000000E+02
4870000000.000000      3.904724000000000E-01      3.393945000000000E+01      4.217682000000000E-01     -1.792344000000000E+02
4871000000.000000      3.906097000000000E-01      3.359179000000000E+01      4.171906000000000E-01      1.799375000000000E+02
4872000000.000000      3.924866000000000E-01      3.341601000000000E+01      4.146729000000000E-01      1.797031000000000E+02
4873000000.000000      3.926392000000000E-01      3.333593000000000E+01      4.105682000000000E-01      1.788281000000000E+02
4874000000.000000      3.931580000000000E-01      3.300390000000000E+01      4.070282000000000E-01      1.781953000000000E+02
4875000000.000000      3.938446000000000E-01      3.269140000000000E+01      4.031677000000000E-01      1.779063000000000E+02
4876000000.000000      3.934784000000000E-01      3.255078000000000E+01      4.013367000000000E-01      1.771016000000000E+02
4877000000.000000      3.949585000000000E-01      3.206445000000000E+01      3.963165000000000E-01      1.765156000000000E+02
4878000000.000000      3.947906000000000E-01      3.199219000000000E+01      3.941803000000000E-01      1.758672000000000E+02
4879000000.000000      3.953705000000000E-01      3.165625000000000E+01      3.898926000000000E-01      1.755781000000000E+02
4880000000.000000      3.960571000000000E-01      3.131348000000000E+01      3.863525000000000E-01      1.748984000000000E+02
4881000000.000000      3.952179000000000E-01      3.116406000000000E+01      3.835144000000000E-01      1.742578000000000E+02
4882000000.000000      3.965607000000000E-01      3.099512000000000E+01      3.811188000000000E-01      1.737890000000000E+02
4883000000.000000      3.962250000000000E-01      3.062402000000000E+01      3.751678000000000E-01      1.732891000000000E+02
4884000000.000000      3.963928000000000E-01      3.047461000000000E+01      3.722076000000000E-01      1.728281000000000E+02
4885000000.000000      3.964081000000000E-01      3.011133000000000E+01      3.679962000000000E-01      1.723750000000000E+02
4886000000.000000      3.972778000000000E-01      2.990332000000000E+01      3.650208000000000E-01      1.720234000000000E+02
4887000000.000000      3.974152000000000E-01      2.967187000000000E+01      3.617096000000000E-01      1.712891000000000E+02
4888000000.000000      3.970642000000000E-01      2.934277000000000E+01      3.594360000000000E-01      1.709063000000000E+02
4889000000.000000      3.971100000000000E-01      2.934375000000000E+01      3.550415000000000E-01      1.706250000000000E+02
4890000000.000000      3.968964000000000E-01      2.891699000000000E+01      3.521271000000000E-01      1.698984000000000E+02
4891000000.000000      3.973846000000000E-01      2.873730000000000E+01      3.459473000000000E-01      1.693516000000000E+02
4892000000.000000      3.966064000000000E-01      2.841699000000000E+01      3.436279000000000E-01      1.691875000000000E+02
4893000000.000000      3.983917000000000E-01      2.827246000000000E+01      3.399811000000000E-01      1.686328000000000E+02
4894000000.000000      3.976288000000000E-01      2.807812000000000E+01      3.368225000000000E-01      1.683047000000000E+02
4895000000.000000      3.976135000000000E-01      2.778515000000000E+01      3.342438000000000E-01      1.677500000000000E+02
4896000000.000000      3.964691000000000E-01      2.754395000000000E+01      3.293152000000000E-01      1.673672000000000E+02
4897000000.000000      3.966522000000000E-01      2.748047000000000E+01      3.251495000000000E-01      1.669688000000000E+02
4898000000.000000      3.968811000000000E-01      2.716992000000000E+01      3.243713000000000E-01      1.667422000000000E+02
4899000000.000000      3.964081000000000E-01      2.697656000000000E+01      3.202362000000000E-01      1.660938000000000E+02
4900000000.000000      3.966217000000000E-01      2.665136000000000E+01      3.161469000000000E-01      1.658203000000000E+02
4901000000.000000      3.963318000000000E-01      2.640918000000000E+01      3.133850000000000E-01      1.654063000000000E+02
4902000000.000000      3.955383000000000E-01      2.637793000000000E+01      3.097687000000000E-01      1.651172000000000E+02
4903000000.000000      3.961639000000000E-01      2.615137000000000E+01      3.059082000000000E-01      1.646719000000000E+02
4904000000.000000      3.957520000000000E-01      2.589550000000000E+01      3.029022000000000E-01      1.642422000000000E+02
4905000000.000000      3.954163000000000E-01      2.558984000000000E+01      2.996368000000000E-01      1.638984000000000E+02
4906000000.000000      3.957214000000000E-01      2.539746000000000E+01      2.964325000000000E-01      1.637812000000000E+02
4907000000.000000      3.948975000000000E-01      2.525879000000000E+01      2.931976000000000E-01      1.631641000000000E+02
4908000000.000000      3.951721000000000E-01      2.511328000000000E+01      2.892456000000000E-01      1.625469000000000E+02
4909000000.000000      3.936768000000000E-01      2.476367000000000E+01      2.854919000000000E-01      1.624219000000000E+02
4910000000.000000      3.935394000000000E-01      2.467480000000000E+01      2.821960000000000E-01      1.619688000000000E+02
4911000000.000000      3.953857000000000E-01      2.459082000000000E+01      2.799072000000000E-01      1.617734000000000E+02
4912000000.000000      3.935089000000000E-01      2.431543000000000E+01      2.754974000000000E-01      1.612266000000000E+02
4913000000.000000      3.945770000000000E-01      2.412793000000000E+01      2.723236000000000E-01      1.608984000000000E+02
4914000000.000000      3.936920000000000E-01      2.400195000000000E+01      2.680511000000000E-01      1.607969000000000E+02
4915000000.000000      3.936768000000000E-01      2.378906000000000E+01      2.644653000000000E-01      1.602578000000000E+02
4916000000.000000      3.931274000000000E-01      2.365429000000000E+01      2.605286000000000E-01      1.597656000000000E+02
4917000000.000000      3.927612000000000E-01      2.331836000000000E+01      2.578583000000000E-01      1.596328000000000E+02
4918000000.000000      3.922882000000000E-01      2.327929000000000E+01      2.526855000000000E-01      1.592500000000000E+02
4919000000.000000      3.912048000000000E-01      2.311035000000000E+01      2.499008000000000E-01      1.593203000000000E+02
4920000000.000000      3.917389000000000E-01      2.296679000000000E+01      2.448349000000000E-01      1.586406000000000E+02
4921000000.000000      3.911438000000000E-01      2.278125000000000E+01      2.422104000000000E-01      1.586016000000000E+02
4922000000.000000      3.912964000000000E-01      2.242676000000000E+01      2.382736000000000E-01      1.583594000000000E+02
4923000000.000000      3.912506000000000E-01      2.252148000000000E+01      2.337494000000000E-01      1.581406000000000E+02
4924000000.000000      3.906860000000000E-01      2.222363000000000E+01      2.305832000000000E-01      1.576484000000000E+02
4925000000.000000      3.900146000000000E-01      2.187012000000000E+01      2.265930000000000E-01      1.576094000000000E+02
4926000000.000000      3.903656000000000E-01      2.191699000000000E+01      2.229691000000000E-01      1.573984000000000E+02
4927000000.000000      3.901978000000000E-01      2.168652000000000E+01      2.181549000000000E-01      1.572891000000000E+02
4928000000.000000      3.916473000000000E-01      2.144531000000000E+01      2.140808000000000E-01      1.571406000000000E+02
4929000000.000000      3.888855000000000E-01      2.114844000000000E+01      2.101746000000000E-01      1.571094000000000E+02
4930000000.000000      3.890686000000000E-01      2.123047000000000E+01      2.061234000000000E-01      1.568672000000000E+02
4931000000.000000      3.896027000000000E-01      2.092968000000000E+01      2.033157000000000E-01      1.568906000000000E+02
4932000000.000000      3.895874000000000E-01      2.091211000000000E+01      1.988449000000000E-01      1.571328000000000E+02
4933000000.000000      3.885498000000000E-01      2.066211000000000E+01      1.939774000000000E-01      1.571094000000000E+02
4934000000.000000      3.892517000000000E-01      2.036035000000000E+01      1.905441000000000E-01      1.570937000000000E+02
4935000000.000000      3.892517000000000E-01      2.033496000000000E+01      1.875916000000000E-01      1.573672000000000E+02
4936000000.000000      3.877258000000000E-01      1.999707000000000E+01      1.826477000000000E-01      1.572734000000000E+02
4937000000.000000      3.888550000000000E-01      1.989258000000000E+01      1.790924000000000E-01      1.573906000000000E+02
4938000000.000000      3.871765000000000E-01      1.977637000000000E+01      1.746750000000000E-01      1.577109000000000E+02
4939000000.000000      3.873444000000000E-01      1.955078000000000E+01      1.710968000000000E-01      1.580312000000000E+02
4940000000.000000      3.861237000000000E-01      1.947656000000000E+01      1.666641000000000E-01      1.582813000000000E+02
4941000000.000000      3.872681000000000E-01      1.924512000000000E+01      1.635895000000000E-01      1.588672000000000E+02
4942000000.000000      3.850098000000000E-01      1.930957000000000E+01      1.595764000000000E-01      1.592266000000000E+02
4943000000.000000      3.852234000000000E-01      1.895508000000000E+01      1.565475000000000E-01      1.598984000000000E+02
4944000000.000000      3.859253000000000E-01      1.895117000000000E+01      1.525116000000000E-01      1.603516000000000E+02
4945000000.000000      3.851318000000000E-01      1.861621000000000E+01      1.487656000000000E-01      1.610312000000000E+02
4946000000.000000      3.858490000000000E-01      1.838281000000000E+01      1.457062000000000E-01      1.618359000000000E+02
4947000000.000000      3.842010000000000E-01      1.832715000000000E+01      1.422043000000000E-01      1.624531000000000E+02
4948000000.000000      3.855743000000000E-01      1.820508000000000E+01      1.392899000000000E-01      1.633594000000000E+02
4949000000.000000      3.835907000000000E-01      1.803906000000000E+01      1.361160000000000E-01      1.646016000000000E+02
4950000000.000000      3.845673000000000E-01      1.794531000000000E+01      1.334000000000000E-01      1.656328000000000E+02
4951000000.000000      3.839111000000000E-01      1.760351000000000E+01      1.306610000000000E-01      1.664297000000000E+02
4952000000.000000      3.831787000000000E-01      1.747461000000000E+01      1.277008000000000E-01      1.677578000000000E+02
4953000000.000000      3.831329000000000E-01      1.721777000000000E+01      1.252899000000000E-01      1.692734000000000E+02
4954000000.000000      3.831787000000000E-01      1.708203000000000E+01      1.233749000000000E-01      1.705078000000000E+02
