! Network Analyzer HP8722D
! Hewlett-Packard
! Data name: Linha & Wilkinson
! Saver's name: Rodrigo Anjos
! Comments: Teste da utilização de aquisição
continua pelo VNA HP8722D
! Time and date: 23/5/2025 12:16
!              Frequency                     S11                                                   S21                                                   S12                                                   S22
# HZ  S  MA R 50
4800000000.000000      2.976532000000000E-01      3.868555000000000E+01      4.771576000000000E-01     -1.288203000000000E+02
4801000000.000000      2.988281000000000E-01      3.897265000000000E+01      4.783478000000000E-01     -1.294062000000000E+02
4802000000.000000      2.991638000000000E-01      3.908008000000000E+01      4.804993000000000E-01     -1.301953000000000E+02
4803000000.000000      3.002625000000000E-01      3.935547000000000E+01      4.824066000000000E-01     -1.308047000000000E+02
4804000000.000000      3.012695000000000E-01      3.958008000000000E+01      4.841156000000000E-01     -1.315234000000000E+02
4805000000.000000      3.030548000000000E-01      3.963476000000000E+01      4.869232000000000E-01     -1.324297000000000E+02
4806000000.000000      3.039551000000000E-01      3.986914000000000E+01      4.874725000000000E-01     -1.330391000000000E+02
4807000000.000000      3.049622000000000E-01      4.001953000000000E+01      4.879303000000000E-01     -1.339688000000000E+02
4808000000.000000      3.060455000000000E-01      4.020898000000000E+01      4.908447000000000E-01     -1.345781000000000E+02
4809000000.000000      3.073578000000000E-01      4.048828000000000E+01      4.909973000000000E-01     -1.353672000000000E+02
4810000000.000000      3.092804000000000E-01      4.055860000000000E+01      4.922638000000000E-01     -1.360000000000000E+02
4811000000.000000      3.108368000000000E-01      4.066211000000000E+01      4.933472000000000E-01     -1.368906000000000E+02
4812000000.000000      3.131256000000000E-01      4.087891000000000E+01      4.944000000000000E-01     -1.377031000000000E+02
4813000000.000000      3.139801000000000E-01      4.096484000000000E+01      4.961090000000000E-01     -1.382734000000000E+02
4814000000.000000      3.148193000000000E-01      4.097070000000000E+01      4.955444000000000E-01     -1.390391000000000E+02
4815000000.000000      3.166809000000000E-01      4.116992000000000E+01      4.964905000000000E-01     -1.397891000000000E+02
4816000000.000000      3.190155000000000E-01      4.121484000000000E+01      4.982758000000000E-01     -1.403281000000000E+02
4817000000.000000      3.200378000000000E-01      4.144727000000000E+01      4.979858000000000E-01     -1.411562000000000E+02
4818000000.000000      3.218842000000000E-01      4.130468000000000E+01      4.972534000000000E-01     -1.418750000000000E+02
4819000000.000000      3.235474000000000E-01      4.143750000000000E+01      4.985962000000000E-01     -1.426172000000000E+02
4820000000.000000      3.246765000000000E-01      4.143750000000000E+01      4.985962000000000E-01     -1.432266000000000E+02
4821000000.000000      3.277893000000000E-01      4.150391000000000E+01      4.990387000000000E-01     -1.442500000000000E+02
4822000000.000000      3.283081000000000E-01      4.144921000000000E+01      4.970398000000000E-01     -1.447187000000000E+02
4823000000.000000      3.304138000000000E-01      4.139844000000000E+01      4.986877000000000E-01     -1.456250000000000E+02
4824000000.000000      3.320007000000000E-01      4.152148000000000E+01      4.980011000000000E-01     -1.463359000000000E+02
4825000000.000000      3.341827000000000E-01      4.133008000000000E+01      4.979553000000000E-01     -1.470000000000000E+02
4826000000.000000      3.356781000000000E-01      4.130664000000000E+01      4.978485000000000E-01     -1.477656000000000E+02
4827000000.000000      3.370819000000000E-01      4.140038000000000E+01      4.978790000000000E-01     -1.484766000000000E+02
4828000000.000000      3.397217000000000E-01      4.139257000000000E+01      4.981384000000000E-01     -1.492812000000000E+02
4829000000.000000      3.407898000000000E-01      4.151953000000000E+01      4.970093000000000E-01     -1.498516000000000E+02
4830000000.000000      3.429108000000000E-01      4.130273000000000E+01      4.967346000000000E-01     -1.506953000000000E+02
4831000000.000000      3.444366000000000E-01      4.114843000000000E+01      4.964294000000000E-01     -1.515703000000000E+02
4832000000.000000      3.461304000000000E-01      4.122460000000000E+01      4.953308000000000E-01     -1.521094000000000E+02
4833000000.000000      3.475800000000000E-01      4.102929000000000E+01      4.949799000000000E-01     -1.528594000000000E+02
4834000000.000000      3.496246000000000E-01      4.095117000000000E+01      4.942474000000000E-01     -1.536641000000000E+02
4835000000.000000      3.511810000000000E-01      4.077734000000000E+01      4.933472000000000E-01     -1.542812000000000E+02
4836000000.000000      3.533936000000000E-01      4.080078000000000E+01      4.907227000000000E-01     -1.550547000000000E+02
4837000000.000000      3.548584000000000E-01      4.071289000000000E+01      4.903564000000000E-01     -1.558516000000000E+02
4838000000.000000      3.561554000000000E-01      4.037305000000000E+01      4.906158000000000E-01     -1.564297000000000E+02
4839000000.000000      3.593750000000000E-01      4.045898000000000E+01      4.901276000000000E-01     -1.571094000000000E+02
4840000000.000000      3.599701000000000E-01      4.018750000000000E+01      4.880219000000000E-01     -1.579062000000000E+02
4841000000.000000      3.614807000000000E-01      4.015625000000000E+01      4.875641000000000E-01     -1.586406000000000E+02
4842000000.000000      3.626709000000000E-01      3.992969000000000E+01      4.848175000000000E-01     -1.593203000000000E+02
4843000000.000000      3.657532000000000E-01      3.969336000000000E+01      4.853363000000000E-01     -1.598750000000000E+02
4844000000.000000      3.659210000000000E-01      3.960546000000000E+01      4.812622000000000E-01     -1.607265000000000E+02
4845000000.000000      3.682098000000000E-01      3.943945000000000E+01      4.811554000000000E-01     -1.612890000000000E+02
4846000000.000000      3.696442000000000E-01      3.927148000000000E+01      4.805450000000000E-01     -1.619922000000000E+02
4847000000.000000      3.708649000000000E-01      3.913867000000000E+01      4.771881000000000E-01     -1.627187000000000E+02
4848000000.000000      3.716125000000000E-01      3.886719000000000E+01      4.752045000000000E-01     -1.634844000000000E+02
4849000000.000000      3.735046000000000E-01      3.863672000000000E+01      4.745331000000000E-01     -1.642422000000000E+02
4850000000.000000      3.746948000000000E-01      3.841797000000000E+01      4.723663000000000E-01     -1.648281000000000E+02
4851000000.000000      3.766327000000000E-01      3.836914000000000E+01      4.724579000000000E-01     -1.656563000000000E+02
4852000000.000000      3.779602000000000E-01      3.811523000000000E+01      4.691010000000000E-01     -1.663906000000000E+02
4853000000.000000      3.793335000000000E-01      3.780664000000000E+01      4.669342000000000E-01     -1.669141000000000E+02
4854000000.000000      3.804779000000000E-01      3.765039000000000E+01      4.636230000000000E-01     -1.678047000000000E+02
4855000000.000000      3.809814000000000E-01      3.755664000000000E+01      4.630127000000000E-01     -1.685156000000000E+02
4856000000.000000      3.820648000000000E-01      3.722265000000000E+01      4.593048000000000E-01     -1.690703000000000E+02
4857000000.000000      3.840790000000000E-01      3.700781000000000E+01      4.563446000000000E-01     -1.697734000000000E+02
4858000000.000000      3.845062000000000E-01      3.675586000000000E+01      4.561310000000000E-01     -1.706484000000000E+02
4859000000.000000      3.859253000000000E-01      3.648242000000000E+01      4.547424000000000E-01     -1.713359000000000E+02
4860000000.000000      3.873444000000000E-01      3.640820000000000E+01      4.502716000000000E-01     -1.719375000000000E+02
4861000000.000000      3.887634000000000E-01      3.607617000000000E+01      4.486237000000000E-01     -1.726563000000000E+02
4862000000.000000      3.882599000000000E-01      3.575195000000000E+01      4.465790000000000E-01     -1.732422000000000E+02
4863000000.000000      3.901215000000000E-01      3.558594000000000E+01      4.424286000000000E-01     -1.740703000000000E+02
4864000000.000000      3.909912000000000E-01      3.529492000000000E+01      4.393921000000000E-01     -1.745781000000000E+02
4865000000.000000      3.918915000000000E-01      3.510937000000000E+01      4.367371000000000E-01     -1.753438000000000E+02
4866000000.000000      3.933105000000000E-01      3.474609000000000E+01      4.337769000000000E-01     -1.759687000000000E+02
4867000000.000000      3.929291000000000E-01      3.453125000000000E+01      4.308167000000000E-01     -1.767656000000000E+02
4868000000.000000      3.949127000000000E-01      3.418164000000000E+01      4.299316000000000E-01     -1.775234000000000E+02
4869000000.000000      3.942871000000000E-01      3.405664000000000E+01      4.232635000000000E-01     -1.779063000000000E+02
4870000000.000000      3.959503000000000E-01      3.385156000000000E+01      4.217987000000000E-01     -1.784297000000000E+02
4871000000.000000      3.958893000000000E-01      3.355469000000000E+01      4.180603000000000E-01     -1.794141000000000E+02
4872000000.000000      3.975220000000000E-01      3.331640000000000E+01      4.141083000000000E-01     -1.798281000000000E+02
4873000000.000000      3.972473000000000E-01      3.310547000000000E+01      4.108887000000000E-01      1.795938000000000E+02
4874000000.000000      3.981476000000000E-01      3.282812000000000E+01      4.076233000000000E-01      1.787344000000000E+02
4875000000.000000      3.984680000000000E-01      3.246875000000000E+01      4.036102000000000E-01      1.785000000000000E+02
4876000000.000000      3.991852000000000E-01      3.244531000000000E+01      4.018250000000000E-01      1.778437000000000E+02
4877000000.000000      4.002991000000000E-01      3.205078000000000E+01      3.968353000000000E-01      1.773906000000000E+02
4878000000.000000      3.988342000000000E-01      3.181055000000000E+01      3.942261000000000E-01      1.765781000000000E+02
4879000000.000000      4.007111000000000E-01      3.156641000000000E+01      3.901062000000000E-01      1.761328000000000E+02
4880000000.000000      4.006348000000000E-01      3.115429000000000E+01      3.871613000000000E-01      1.755469000000000E+02
4881000000.000000      4.008179000000000E-01      3.107715000000000E+01      3.840179000000000E-01      1.750937000000000E+02
4882000000.000000      4.024200000000000E-01      3.088867000000000E+01      3.810120000000000E-01      1.743594000000000E+02
4883000000.000000      4.010620000000000E-01      3.055761000000000E+01      3.769531000000000E-01      1.739141000000000E+02
4884000000.000000      4.016113000000000E-01      3.049219000000000E+01      3.732300000000000E-01      1.734609000000000E+02
4885000000.000000      4.024658000000000E-01      3.009472000000000E+01      3.701782000000000E-01      1.733438000000000E+02
4886000000.000000      4.021912000000000E-01      2.988086000000000E+01      3.657684000000000E-01      1.724688000000000E+02
4887000000.000000      4.019928000000000E-01      2.966504000000000E+01      3.633118000000000E-01      1.721172000000000E+02
4888000000.000000      4.027100000000000E-01      2.927929000000000E+01      3.595734000000000E-01      1.716484000000000E+02
4889000000.000000      4.020538000000000E-01      2.911230000000000E+01      3.553009000000000E-01      1.713594000000000E+02
4890000000.000000      4.018707000000000E-01      2.889746000000000E+01      3.516388000000000E-01      1.703984000000000E+02
4891000000.000000      4.019623000000000E-01      2.874804000000000E+01      3.480835000000000E-01      1.701875000000000E+02
4892000000.000000      4.015656000000000E-01      2.842480000000000E+01      3.447876000000000E-01      1.697734000000000E+02
4893000000.000000      4.028320000000000E-01      2.820019000000000E+01      3.413391000000000E-01      1.692188000000000E+02
4894000000.000000      4.015045000000000E-01      2.805957000000000E+01      3.376465000000000E-01      1.686875000000000E+02
4895000000.000000      4.030762000000000E-01      2.776855000000000E+01      3.356323000000000E-01      1.683984000000000E+02
4896000000.000000      4.016724000000000E-01      2.756445000000000E+01      3.311615000000000E-01      1.681406000000000E+02
4897000000.000000      4.025574000000000E-01      2.737207000000000E+01      3.266602000000000E-01      1.674219000000000E+02
4898000000.000000      4.015350000000000E-01      2.721582000000000E+01      3.246307000000000E-01      1.670078000000000E+02
4899000000.000000      4.023895000000000E-01      2.693359000000000E+01      3.213043000000000E-01      1.666641000000000E+02
4900000000.000000      4.014435000000000E-01      2.662207000000000E+01      3.185730000000000E-01      1.662969000000000E+02
4901000000.000000      4.012604000000000E-01      2.643164000000000E+01      3.141022000000000E-01      1.658984000000000E+02
4902000000.000000      4.017639000000000E-01      2.630176000000000E+01      3.111725000000000E-01      1.655469000000000E+02
4903000000.000000      4.008942000000000E-01      2.608105000000000E+01      3.062897000000000E-01      1.651484000000000E+02
4904000000.000000      4.012909000000000E-01      2.582812000000000E+01      3.036194000000000E-01      1.647344000000000E+02
4905000000.000000      4.015045000000000E-01      2.570019000000000E+01      3.007355000000000E-01      1.642031000000000E+02
4906000000.000000      4.005127000000000E-01      2.545801000000000E+01      2.973480000000000E-01      1.641797000000000E+02
4907000000.000000      4.013367000000000E-01      2.524511000000000E+01      2.942963000000000E-01      1.635547000000000E+02
4908000000.000000      3.998413000000000E-01      2.517090000000000E+01      2.904968000000000E-01      1.631875000000000E+02
4909000000.000000      4.001770000000000E-01      2.489355000000000E+01      2.864990000000000E-01      1.626797000000000E+02
4910000000.000000      4.004517000000000E-01      2.478906000000000E+01      2.832794000000000E-01      1.624297000000000E+02
4911000000.000000      3.994751000000000E-01      2.452929000000000E+01      2.803497000000000E-01      1.621797000000000E+02
4912000000.000000      3.988647000000000E-01      2.434375000000000E+01      2.767792000000000E-01      1.617500000000000E+02
4913000000.000000      3.998413000000000E-01      2.418457000000000E+01      2.729950000000000E-01      1.614219000000000E+02
4914000000.000000      3.995209000000000E-01      2.385449000000000E+01      2.693939000000000E-01      1.610781000000000E+02
4915000000.000000      3.992004000000000E-01      2.375488000000000E+01      2.653046000000000E-01      1.605859000000000E+02
4916000000.000000      3.993378000000000E-01      2.359375000000000E+01      2.620087000000000E-01      1.602266000000000E+02
4917000000.000000      3.990479000000000E-01      2.340723000000000E+01      2.586365000000000E-01      1.600703000000000E+02
4918000000.000000      3.980713000000000E-01      2.320019000000000E+01      2.543030000000000E-01      1.596250000000000E+02
4919000000.000000      3.975983000000000E-01      2.322461000000000E+01      2.506714000000000E-01      1.595937000000000E+02
4920000000.000000      3.978271000000000E-01      2.281543000000000E+01      2.467651000000000E-01      1.589453000000000E+02
4921000000.000000      3.970032000000000E-01      2.265918000000000E+01      2.437668000000000E-01      1.587344000000000E+02
4922000000.000000      3.971252000000000E-01      2.253125000000000E+01      2.393646000000000E-01      1.585312000000000E+02
4923000000.000000      3.972015000000000E-01      2.241894000000000E+01      2.352219000000000E-01      1.585000000000000E+02
4924000000.000000      3.968506000000000E-01      2.217773000000000E+01      2.319107000000000E-01      1.579297000000000E+02
4925000000.000000      3.964996000000000E-01      2.204199000000000E+01      2.280045000000000E-01      1.579297000000000E+02
4926000000.000000      3.968658000000000E-01      2.187695000000000E+01      2.243118000000000E-01      1.575938000000000E+02
4927000000.000000      3.964081000000000E-01      2.168945000000000E+01      2.198105000000000E-01      1.574609000000000E+02
4928000000.000000      3.968201000000000E-01      2.138281000000000E+01      2.166443000000000E-01      1.572266000000000E+02
4929000000.000000      3.955383000000000E-01      2.132226000000000E+01      2.122192000000000E-01      1.571328000000000E+02
4930000000.000000      3.948517000000000E-01      2.116601000000000E+01      2.086105000000000E-01      1.570391000000000E+02
4931000000.000000      3.947906000000000E-01      2.094531000000000E+01      2.049179000000000E-01      1.568594000000000E+02
4932000000.000000      3.945007000000000E-01      2.073340000000000E+01      2.005844000000000E-01      1.569297000000000E+02
4933000000.000000      3.949890000000000E-01      2.063574000000000E+01      1.960678000000000E-01      1.571406000000000E+02
4934000000.000000      3.946381000000000E-01      2.034766000000000E+01      1.921005000000000E-01      1.570156000000000E+02
4935000000.000000      3.954926000000000E-01      2.033886000000000E+01      1.890564000000000E-01      1.572734000000000E+02
4936000000.000000      3.939514000000000E-01      1.998340000000000E+01      1.840973000000000E-01      1.571328000000000E+02
4937000000.000000      3.935699000000000E-01      1.993652000000000E+01      1.803741000000000E-01      1.573906000000000E+02
4938000000.000000      3.936005000000000E-01      1.992188000000000E+01      1.767883000000000E-01      1.575859000000000E+02
4939000000.000000      3.926544000000000E-01      1.965430000000000E+01      1.723938000000000E-01      1.580312000000000E+02
4940000000.000000      3.927917000000000E-01      1.948242000000000E+01      1.686401000000000E-01      1.580078000000000E+02
4941000000.000000      3.922119000000000E-01      1.938867000000000E+01      1.650391000000000E-01      1.585156000000000E+02
4942000000.000000      3.915253000000000E-01      1.916016000000000E+01      1.607513000000000E-01      1.589844000000000E+02
4943000000.000000      3.920746000000000E-01      1.906250000000000E+01      1.573105000000000E-01      1.594375000000000E+02
4944000000.000000      3.917999000000000E-01      1.871191000000000E+01      1.536407000000000E-01      1.598750000000000E+02
4945000000.000000      3.907623000000000E-01      1.876269000000000E+01      1.503220000000000E-01      1.606328000000000E+02
4946000000.000000      3.921661000000000E-01      1.859375000000000E+01      1.462936000000000E-01      1.610547000000000E+02
4947000000.000000      3.908081000000000E-01      1.837793000000000E+01      1.433563000000000E-01      1.619531000000000E+02
4948000000.000000      3.910675000000000E-01      1.829199000000000E+01      1.402206000000000E-01      1.628047000000000E+02
4949000000.000000      3.905334000000000E-01      1.796777000000000E+01      1.370468000000000E-01      1.639609000000000E+02
4950000000.000000      3.904724000000000E-01      1.809375000000000E+01      1.340179000000000E-01      1.647344000000000E+02
4951000000.000000      3.898163000000000E-01      1.766797000000000E+01      1.314621000000000E-01      1.657031000000000E+02
4952000000.000000      3.892365000000000E-01      1.764062000000000E+01      1.284180000000000E-01      1.670469000000000E+02
4953000000.000000      3.890381000000000E-01      1.746680000000000E+01      1.259155000000000E-01      1.683672000000000E+02
4954000000.000000      3.890839000000000E-01      1.723145000000000E+01      1.229897000000000E-01      1.695859000000000E+02
