! Network Analyzer HP8722D
! Hewlett-Packard
! Data name: Linha & Wilkinson
! Saver's name: Rodrigo Anjos
! Comments: Teste da utilização de aquisição
continua pelo VNA HP8722D
! Time and date: 23/5/2025 15:15
!              Frequency                     S11                                                   S21                                                   S12                                                   S22
# HZ  S  MA R 50
4800000000.000000      2.806854000000000E-01      4.022461000000000E+01      4.871216000000000E-01     -1.296562000000000E+02
4801000000.000000      2.815857000000000E-01      4.059960000000000E+01      4.889221000000000E-01     -1.303828000000000E+02
4802000000.000000      2.831726000000000E-01      4.075195000000000E+01      4.898834000000000E-01     -1.308906000000000E+02
4803000000.000000      2.838593000000000E-01      4.096093000000000E+01      4.916229000000000E-01     -1.316641000000000E+02
4804000000.000000      2.855682000000000E-01      4.115039000000000E+01      4.926758000000000E-01     -1.324766000000000E+02
4805000000.000000      2.875061000000000E-01      4.125977000000000E+01      4.942780000000000E-01     -1.332109000000000E+02
4806000000.000000      2.883911000000000E-01      4.142383000000000E+01      4.964600000000000E-01     -1.338203000000000E+02
4807000000.000000      2.894135000000000E-01      4.171094000000000E+01      4.966431000000000E-01     -1.347734000000000E+02
4808000000.000000      2.906342000000000E-01      4.183789000000000E+01      4.998779000000000E-01     -1.353906000000000E+02
4809000000.000000      2.919006000000000E-01      4.209961000000000E+01      5.010376000000000E-01     -1.362734000000000E+02
4810000000.000000      2.939301000000000E-01      4.217382000000000E+01      5.012207000000000E-01     -1.368515000000000E+02
4811000000.000000      2.953033000000000E-01      4.235352000000000E+01      5.021362000000000E-01     -1.375547000000000E+02
4812000000.000000      2.979431000000000E-01      4.253125000000000E+01      5.035400000000000E-01     -1.384063000000000E+02
4813000000.000000      2.989197000000000E-01      4.264648000000000E+01      5.047913000000000E-01     -1.391484000000000E+02
4814000000.000000      3.002014000000000E-01      4.272461000000000E+01      5.045471000000000E-01     -1.398516000000000E+02
4815000000.000000      3.016968000000000E-01      4.269921000000000E+01      5.058899000000000E-01     -1.405547000000000E+02
4816000000.000000      3.042755000000000E-01      4.286523000000000E+01      5.066223000000000E-01     -1.413437000000000E+02
4817000000.000000      3.056488000000000E-01      4.302734000000000E+01      5.064087000000000E-01     -1.420000000000000E+02
4818000000.000000      3.071899000000000E-01      4.297265000000000E+01      5.078430000000000E-01     -1.427656000000000E+02
4819000000.000000      3.097839000000000E-01      4.303515000000000E+01      5.083923000000000E-01     -1.435234000000000E+02
4820000000.000000      3.106079000000000E-01      4.311523000000000E+01      5.081482000000000E-01     -1.440078000000000E+02
4821000000.000000      3.128815000000000E-01      4.313477000000000E+01      5.084229000000000E-01     -1.449453000000000E+02
4822000000.000000      3.142548000000000E-01      4.304296000000000E+01      5.078125000000000E-01     -1.455937000000000E+02
4823000000.000000      3.163910000000000E-01      4.303124000000000E+01      5.075378000000000E-01     -1.465000000000000E+02
4824000000.000000      3.185425000000000E-01      4.309766000000000E+01      5.085144000000000E-01     -1.472031000000000E+02
4825000000.000000      3.198853000000000E-01      4.302539000000000E+01      5.066528000000000E-01     -1.476953000000000E+02
4826000000.000000      3.218231000000000E-01      4.289844000000000E+01      5.077209000000000E-01     -1.488125000000000E+02
4827000000.000000      3.238983000000000E-01      4.295507000000000E+01      5.075989000000000E-01     -1.491172000000000E+02
4828000000.000000      3.265381000000000E-01      4.296484000000000E+01      5.071106000000000E-01     -1.499375000000000E+02
4829000000.000000      3.278198000000000E-01      4.295507000000000E+01      5.064697000000000E-01     -1.506719000000000E+02
4830000000.000000      3.294067000000000E-01      4.277539000000000E+01      5.057068000000000E-01     -1.515938000000000E+02
4831000000.000000      3.307648000000000E-01      4.268555000000000E+01      5.056458000000000E-01     -1.523828000000000E+02
4832000000.000000      3.329468000000000E-01      4.265038000000000E+01      5.032043000000000E-01     -1.529140000000000E+02
4833000000.000000      3.344269000000000E-01      4.246484000000000E+01      5.034485000000000E-01     -1.535781000000000E+02
4834000000.000000      3.360748000000000E-01      4.239258000000000E+01      5.028687000000000E-01     -1.543359000000000E+02
4835000000.000000      3.375397000000000E-01      4.226563000000000E+01      5.021667000000000E-01     -1.550859000000000E+02
4836000000.000000      3.402405000000000E-01      4.224023000000000E+01      5.006104000000000E-01     -1.557422000000000E+02
4837000000.000000      3.417206000000000E-01      4.210351000000000E+01      4.992218000000000E-01     -1.565391000000000E+02
4838000000.000000      3.425140000000000E-01      4.186719000000000E+01      4.981384000000000E-01     -1.571953000000000E+02
4839000000.000000      3.465424000000000E-01      4.180273000000000E+01      4.980621000000000E-01     -1.578281000000000E+02
4840000000.000000      3.471069000000000E-01      4.149804000000000E+01      4.973145000000000E-01     -1.586484000000000E+02
4841000000.000000      3.484192000000000E-01      4.149804000000000E+01      4.957733000000000E-01     -1.594375000000000E+02
4842000000.000000      3.504791000000000E-01      4.130664000000000E+01      4.939117000000000E-01     -1.601250000000000E+02
4843000000.000000      3.526001000000000E-01      4.093163000000000E+01      4.933624000000000E-01     -1.607969000000000E+02
4844000000.000000      3.535614000000000E-01      4.080859000000000E+01      4.913940000000000E-01     -1.615547000000000E+02
4845000000.000000      3.554077000000000E-01      4.073438000000000E+01      4.899292000000000E-01     -1.620703000000000E+02
4846000000.000000      3.568726000000000E-01      4.054492000000000E+01      4.882202000000000E-01     -1.629609000000000E+02
4847000000.000000      3.582916000000000E-01      4.034570000000000E+01      4.847107000000000E-01     -1.634140000000000E+02
4848000000.000000      3.588257000000000E-01      4.007617000000000E+01      4.828949000000000E-01     -1.642266000000000E+02
4849000000.000000      3.609314000000000E-01      3.973633000000000E+01      4.843140000000000E-01     -1.650781000000000E+02
4850000000.000000      3.620758000000000E-01      3.952148000000000E+01      4.800873000000000E-01     -1.657266000000000E+02
4851000000.000000      3.637695000000000E-01      3.946680000000000E+01      4.784393000000000E-01     -1.665078000000000E+02
4852000000.000000      3.650513000000000E-01      3.915234000000000E+01      4.767303000000000E-01     -1.670547000000000E+02
4853000000.000000      3.659515000000000E-01      3.897070000000000E+01      4.731598000000000E-01     -1.676719000000000E+02
4854000000.000000      3.670349000000000E-01      3.867578000000000E+01      4.723053000000000E-01     -1.686328000000000E+02
4855000000.000000      3.687592000000000E-01      3.849023000000000E+01      4.700928000000000E-01     -1.692969000000000E+02
4856000000.000000      3.697815000000000E-01      3.811132000000000E+01      4.694977000000000E-01     -1.700000000000000E+02
4857000000.000000      3.713531000000000E-01      3.801758000000000E+01      4.658203000000000E-01     -1.705781000000000E+02
4858000000.000000      3.718719000000000E-01      3.770508000000000E+01      4.623260000000000E-01     -1.712891000000000E+02
4859000000.000000      3.728638000000000E-01      3.743359000000000E+01      4.624481000000000E-01     -1.720547000000000E+02
4860000000.000000      3.745575000000000E-01      3.733398000000000E+01      4.582825000000000E-01     -1.726016000000000E+02
4861000000.000000      3.753662000000000E-01      3.705469000000000E+01      4.563599000000000E-01     -1.733750000000000E+02
4862000000.000000      3.753510000000000E-01      3.675781000000000E+01      4.544067000000000E-01     -1.739063000000000E+02
4863000000.000000      3.773956000000000E-01      3.650781000000000E+01      4.512787000000000E-01     -1.746406000000000E+02
4864000000.000000      3.781891000000000E-01      3.619531000000000E+01      4.488983000000000E-01     -1.753281000000000E+02
4865000000.000000      3.777313000000000E-01      3.583984000000000E+01      4.442749000000000E-01     -1.759219000000000E+02
4866000000.000000      3.794250000000000E-01      3.568164000000000E+01      4.418945000000000E-01     -1.766484000000000E+02
4867000000.000000      3.793488000000000E-01      3.534765000000000E+01      4.375153000000000E-01     -1.774141000000000E+02
4868000000.000000      3.811646000000000E-01      3.507617000000000E+01      4.363556000000000E-01     -1.782031000000000E+02
4869000000.000000      3.813782000000000E-01      3.483984000000000E+01      4.323883000000000E-01     -1.786016000000000E+02
4870000000.000000      3.822021000000000E-01      3.470508000000000E+01      4.292603000000000E-01     -1.792109000000000E+02
4871000000.000000      3.816528000000000E-01      3.423437000000000E+01      4.273834000000000E-01     -1.799219000000000E+02
4872000000.000000      3.835754000000000E-01      3.399414000000000E+01      4.216003000000000E-01      1.797266000000000E+02
4873000000.000000      3.843842000000000E-01      3.384766000000000E+01      4.187927000000000E-01      1.788203000000000E+02
4874000000.000000      3.845062000000000E-01      3.357812000000000E+01      4.150391000000000E-01      1.782109000000000E+02
4875000000.000000      3.848877000000000E-01      3.326367000000000E+01      4.123688000000000E-01      1.775312000000000E+02
4876000000.000000      3.859253000000000E-01      3.315039000000000E+01      4.092560000000000E-01      1.771094000000000E+02
4877000000.000000      3.861694000000000E-01      3.249609000000000E+01      4.050751000000000E-01      1.764922000000000E+02
4878000000.000000      3.853149000000000E-01      3.233593000000000E+01      4.011078000000000E-01      1.759375000000000E+02
4879000000.000000      3.865509000000000E-01      3.207617000000000E+01      3.969727000000000E-01      1.755234000000000E+02
4880000000.000000      3.877106000000000E-01      3.185840000000000E+01      3.944550000000000E-01      1.748359000000000E+02
4881000000.000000      3.874207000000000E-01      3.165625000000000E+01      3.924255000000000E-01      1.744062000000000E+02
4882000000.000000      3.878021000000000E-01      3.145703000000000E+01      3.902588000000000E-01      1.736797000000000E+02
4883000000.000000      3.884583000000000E-01      3.122559000000000E+01      3.824005000000000E-01      1.733125000000000E+02
4884000000.000000      3.881226000000000E-01      3.096972000000000E+01      3.807220000000000E-01      1.727422000000000E+02
4885000000.000000      3.881683000000000E-01      3.064746000000000E+01      3.760529000000000E-01      1.724062000000000E+02
4886000000.000000      3.890381000000000E-01      3.047266000000000E+01      3.726196000000000E-01      1.719141000000000E+02
4887000000.000000      3.888855000000000E-01      3.015137000000000E+01      3.685913000000000E-01      1.714531000000000E+02
4888000000.000000      3.880768000000000E-01      2.983593000000000E+01      3.674469000000000E-01      1.708594000000000E+02
4889000000.000000      3.891754000000000E-01      2.972168000000000E+01      3.630524000000000E-01      1.704609000000000E+02
4890000000.000000      3.876953000000000E-01      2.915820000000000E+01      3.587646000000000E-01      1.697187000000000E+02
4891000000.000000      3.883209000000000E-01      2.915820000000000E+01      3.557739000000000E-01      1.693750000000000E+02
4892000000.000000      3.885803000000000E-01      2.887402000000000E+01      3.511047000000000E-01      1.691484000000000E+02
4893000000.000000      3.895569000000000E-01      2.861230000000000E+01      3.490143000000000E-01      1.684062000000000E+02
4894000000.000000      3.877106000000000E-01      2.851855000000000E+01      3.440247000000000E-01      1.680703000000000E+02
4895000000.000000      3.887482000000000E-01      2.824121000000000E+01      3.418579000000000E-01      1.676016000000000E+02
4896000000.000000      3.883667000000000E-01      2.789941000000000E+01      3.387604000000000E-01      1.672578000000000E+02
4897000000.000000      3.873138000000000E-01      2.773046000000000E+01      3.346252000000000E-01      1.669219000000000E+02
4898000000.000000      3.880463000000000E-01      2.742969000000000E+01      3.319702000000000E-01      1.664219000000000E+02
4899000000.000000      3.882294000000000E-01      2.716894000000000E+01      3.272095000000000E-01      1.660938000000000E+02
4900000000.000000      3.877258000000000E-01      2.685156000000000E+01      3.247375000000000E-01      1.655078000000000E+02
4901000000.000000      3.877411000000000E-01      2.668945000000000E+01      3.211975000000000E-01      1.652031000000000E+02
4902000000.000000      3.864594000000000E-01      2.658203000000000E+01      3.176727000000000E-01      1.649609000000000E+02
4903000000.000000      3.877716000000000E-01      2.638476000000000E+01      3.133698000000000E-01      1.645078000000000E+02
4904000000.000000      3.865662000000000E-01      2.621973000000000E+01      3.103790000000000E-01      1.638906000000000E+02
4905000000.000000      3.871613000000000E-01      2.584473000000000E+01      3.077850000000000E-01      1.634687000000000E+02
4906000000.000000      3.863525000000000E-01      2.571191000000000E+01      3.034515000000000E-01      1.634063000000000E+02
4907000000.000000      3.866577000000000E-01      2.544922000000000E+01      3.008270000000000E-01      1.628515000000000E+02
4908000000.000000      3.869324000000000E-01      2.533105000000000E+01      2.972107000000000E-01      1.623750000000000E+02
4909000000.000000      3.847809000000000E-01      2.503613000000000E+01      2.938843000000000E-01      1.620234000000000E+02
4910000000.000000      3.849182000000000E-01      2.493945000000000E+01      2.897339000000000E-01      1.618281000000000E+02
4911000000.000000      3.858643000000000E-01      2.475976000000000E+01      2.873230000000000E-01      1.614531000000000E+02
4912000000.000000      3.850098000000000E-01      2.456933000000000E+01      2.824707000000000E-01      1.609375000000000E+02
4913000000.000000      3.852539000000000E-01      2.438769000000000E+01      2.798309000000000E-01      1.606250000000000E+02
4914000000.000000      3.844757000000000E-01      2.399512000000000E+01      2.751007000000000E-01      1.602578000000000E+02
4915000000.000000      3.844147000000000E-01      2.398535000000000E+01      2.713928000000000E-01      1.598047000000000E+02
4916000000.000000      3.837585000000000E-01      2.387793000000000E+01      2.686310000000000E-01      1.594844000000000E+02
4917000000.000000      3.841248000000000E-01      2.356250000000000E+01      2.648315000000000E-01      1.592422000000000E+02
4918000000.000000      3.834534000000000E-01      2.349121000000000E+01      2.609863000000000E-01      1.587891000000000E+02
4919000000.000000      3.824615000000000E-01      2.330664000000000E+01      2.575989000000000E-01      1.589922000000000E+02
4920000000.000000      3.832245000000000E-01      2.286231000000000E+01      2.532196000000000E-01      1.582734000000000E+02
4921000000.000000      3.819275000000000E-01      2.302832000000000E+01      2.504272000000000E-01      1.580312000000000E+02
4922000000.000000      3.827515000000000E-01      2.270410000000000E+01      2.456818000000000E-01      1.578125000000000E+02
4923000000.000000      3.815613000000000E-01      2.248047000000000E+01      2.415466000000000E-01      1.575703000000000E+02
4924000000.000000      3.825378000000000E-01      2.242969000000000E+01      2.368469000000000E-01      1.570781000000000E+02
4925000000.000000      3.814087000000000E-01      2.224707000000000E+01      2.336121000000000E-01      1.570000000000000E+02
4926000000.000000      3.805542000000000E-01      2.192676000000000E+01      2.306213000000000E-01      1.567266000000000E+02
4927000000.000000      3.812103000000000E-01      2.169043000000000E+01      2.255402000000000E-01      1.565312000000000E+02
4928000000.000000      3.813324000000000E-01      2.155371000000000E+01      2.216492000000000E-01      1.564297000000000E+02
4929000000.000000      3.807373000000000E-01      2.138672000000000E+01      2.173080000000000E-01      1.564687000000000E+02
4930000000.000000      3.802338000000000E-01      2.122559000000000E+01      2.133713000000000E-01      1.560859000000000E+02
4931000000.000000      3.796692000000000E-01      2.095605000000000E+01      2.101059000000000E-01      1.561563000000000E+02
4932000000.000000      3.797150000000000E-01      2.096582000000000E+01      2.052765000000000E-01      1.560469000000000E+02
4933000000.000000      3.790588000000000E-01      2.075586000000000E+01      2.008362000000000E-01      1.560234000000000E+02
4934000000.000000      3.791199000000000E-01      2.048926000000000E+01      1.968536000000000E-01      1.558125000000000E+02
4935000000.000000      3.796387000000000E-01      2.051758000000000E+01      1.933517000000000E-01      1.563125000000000E+02
4936000000.000000      3.779907000000000E-01      2.016894000000000E+01      1.887283000000000E-01      1.562500000000000E+02
4937000000.000000      3.782043000000000E-01      1.984082000000000E+01      1.852570000000000E-01      1.562969000000000E+02
4938000000.000000      3.782501000000000E-01      1.985449000000000E+01      1.808243000000000E-01      1.566015000000000E+02
4939000000.000000      3.770905000000000E-01      1.982324000000000E+01      1.770477000000000E-01      1.568594000000000E+02
4940000000.000000      3.777313000000000E-01      1.953223000000000E+01      1.730270000000000E-01      1.569375000000000E+02
4941000000.000000      3.775177000000000E-01      1.921875000000000E+01      1.695175000000000E-01      1.574844000000000E+02
4942000000.000000      3.763733000000000E-01      1.907227000000000E+01      1.648178000000000E-01      1.577656000000000E+02
4943000000.000000      3.763428000000000E-01      1.888672000000000E+01      1.618958000000000E-01      1.583047000000000E+02
4944000000.000000      3.760223000000000E-01      1.879199000000000E+01      1.583328000000000E-01      1.587422000000000E+02
4945000000.000000      3.763275000000000E-01      1.871582000000000E+01      1.540298000000000E-01      1.593672000000000E+02
4946000000.000000      3.757324000000000E-01      1.844238000000000E+01      1.508026000000000E-01      1.600703000000000E+02
4947000000.000000      3.747864000000000E-01      1.836426000000000E+01      1.472321000000000E-01      1.607734000000000E+02
4948000000.000000      3.756866000000000E-01      1.825781000000000E+01      1.438522000000000E-01      1.615625000000000E+02
4949000000.000000      3.736420000000000E-01      1.792773000000000E+01      1.406097000000000E-01      1.626641000000000E+02
4950000000.000000      3.750916000000000E-01      1.780176000000000E+01      1.375198000000000E-01      1.637969000000000E+02
4951000000.000000      3.747864000000000E-01      1.778906000000000E+01      1.341324000000000E-01      1.644844000000000E+02
4952000000.000000      3.740082000000000E-01      1.736035000000000E+01      1.317215000000000E-01      1.657734000000000E+02
4953000000.000000      3.728027000000000E-01      1.716406000000000E+01      1.289825000000000E-01      1.670078000000000E+02
4954000000.000000      3.730927000000000E-01      1.704590000000000E+01      1.261749000000000E-01      1.682500000000000E+02
