! Network Analyzer HP8722D
! Hewlett-Packard
! Data name: Linha & Wilkinson
! Saver's name: Rodrigo Anjos
! Comments: Teste da utilização de aquisição
continua pelo VNA HP8722D
! Time and date: 23/5/2025 13:47
!              Frequency                     S11                                                   S21                                                   S12                                                   S22
# HZ  S  MA R 50
4800000000.000000      2.896271000000000E-01      3.947851000000000E+01      4.812775000000000E-01     -1.291719000000000E+02
4801000000.000000      2.908173000000000E-01      3.960156000000000E+01      4.843140000000000E-01     -1.298359000000000E+02
4802000000.000000      2.924805000000000E-01      3.985742000000000E+01      4.852600000000000E-01     -1.306875000000000E+02
4803000000.000000      2.928009000000000E-01      4.001758000000000E+01      4.878387000000000E-01     -1.312187000000000E+02
4804000000.000000      2.939301000000000E-01      4.041406000000000E+01      4.884644000000000E-01     -1.319844000000000E+02
4805000000.000000      2.960510000000000E-01      4.031250000000000E+01      4.899597000000000E-01     -1.328750000000000E+02
4806000000.000000      2.967529000000000E-01      4.059960000000000E+01      4.915314000000000E-01     -1.335234000000000E+02
4807000000.000000      2.978973000000000E-01      4.080274000000000E+01      4.941864000000000E-01     -1.342500000000000E+02
4808000000.000000      2.989807000000000E-01      4.100976000000000E+01      4.953613000000000E-01     -1.348203000000000E+02
4809000000.000000      3.006897000000000E-01      4.119726000000000E+01      4.957733000000000E-01     -1.357188000000000E+02
4810000000.000000      3.019867000000000E-01      4.133594000000000E+01      4.969482000000000E-01     -1.363516000000000E+02
4811000000.000000      3.038177000000000E-01      4.142187000000000E+01      4.979706000000000E-01     -1.373437000000000E+02
4812000000.000000      3.062286000000000E-01      4.158984000000000E+01      4.991302000000000E-01     -1.379609000000000E+02
4813000000.000000      3.072205000000000E-01      4.173633000000000E+01      4.998779000000000E-01     -1.387031000000000E+02
4814000000.000000      3.081360000000000E-01      4.171288000000000E+01      5.003662000000000E-01     -1.393203000000000E+02
4815000000.000000      3.098297000000000E-01      4.194336000000000E+01      5.007324000000000E-01     -1.401562000000000E+02
4816000000.000000      3.122559000000000E-01      4.205274000000000E+01      5.026550000000000E-01     -1.408750000000000E+02
4817000000.000000      3.134460000000000E-01      4.212500000000000E+01      5.028076000000000E-01     -1.416563000000000E+02
4818000000.000000      3.152924000000000E-01      4.209374000000000E+01      5.019226000000000E-01     -1.423281000000000E+02
4819000000.000000      3.177185000000000E-01      4.208398000000000E+01      5.017090000000000E-01     -1.430469000000000E+02
4820000000.000000      3.183441000000000E-01      4.218359000000000E+01      5.028687000000000E-01     -1.436953000000000E+02
4821000000.000000      3.207397000000000E-01      4.225390000000000E+01      5.045471000000000E-01     -1.445391000000000E+02
4822000000.000000      3.217926000000000E-01      4.215039000000000E+01      5.028076000000000E-01     -1.452344000000000E+02
4823000000.000000      3.238373000000000E-01      4.207031000000000E+01      5.038452000000000E-01     -1.461094000000000E+02
4824000000.000000      3.264465000000000E-01      4.233594000000000E+01      5.025940000000000E-01     -1.467891000000000E+02
4825000000.000000      3.273926000000000E-01      4.214063000000000E+01      5.022583000000000E-01     -1.474688000000000E+02
4826000000.000000      3.286285000000000E-01      4.209961000000000E+01      5.021667000000000E-01     -1.483125000000000E+02
4827000000.000000      3.310242000000000E-01      4.213281000000000E+01      5.028992000000000E-01     -1.488203000000000E+02
4828000000.000000      3.333740000000000E-01      4.207031000000000E+01      5.029297000000000E-01     -1.496016000000000E+02
4829000000.000000      3.350067000000000E-01      4.213476000000000E+01      5.017700000000000E-01     -1.504453000000000E+02
4830000000.000000      3.365173000000000E-01      4.196485000000000E+01      5.009766000000000E-01     -1.511016000000000E+02
4831000000.000000      3.378143000000000E-01      4.183789000000000E+01      5.010986000000000E-01     -1.520703000000000E+02
4832000000.000000      3.399353000000000E-01      4.186719000000000E+01      4.995117000000000E-01     -1.526406000000000E+02
4833000000.000000      3.405914000000000E-01      4.160546000000000E+01      4.989319000000000E-01     -1.531016000000000E+02
4834000000.000000      3.433228000000000E-01      4.158984000000000E+01      4.984589000000000E-01     -1.540390000000000E+02
4835000000.000000      3.461151000000000E-01      4.150195000000000E+01      4.976959000000000E-01     -1.547266000000000E+02
4836000000.000000      3.474274000000000E-01      4.145898000000000E+01      4.953918000000000E-01     -1.552969000000000E+02
4837000000.000000      3.482819000000000E-01      4.140429000000000E+01      4.947662000000000E-01     -1.563281000000000E+02
4838000000.000000      3.501282000000000E-01      4.111133000000000E+01      4.943237000000000E-01     -1.568281000000000E+02
4839000000.000000      3.529968000000000E-01      4.101367000000000E+01      4.926300000000000E-01     -1.575703000000000E+02
4840000000.000000      3.542328000000000E-01      4.078515000000000E+01      4.912109000000000E-01     -1.581875000000000E+02
4841000000.000000      3.552246000000000E-01      4.076562000000000E+01      4.904480000000000E-01     -1.590312000000000E+02
4842000000.000000      3.572998000000000E-01      4.051953000000000E+01      4.906464000000000E-01     -1.596953000000000E+02
4843000000.000000      3.597107000000000E-01      4.023046000000000E+01      4.892883000000000E-01     -1.602969000000000E+02
4844000000.000000      3.601990000000000E-01      4.015038000000000E+01      4.859924000000000E-01     -1.611641000000000E+02
4845000000.000000      3.620300000000000E-01      4.001953000000000E+01      4.850922000000000E-01     -1.616719000000000E+02
4846000000.000000      3.639221000000000E-01      3.984961000000000E+01      4.832916000000000E-01     -1.624297000000000E+02
4847000000.000000      3.651581000000000E-01      3.964258000000000E+01      4.818115000000000E-01     -1.631016000000000E+02
4848000000.000000      3.662415000000000E-01      3.948633000000000E+01      4.789276000000000E-01     -1.638203000000000E+02
4849000000.000000      3.676758000000000E-01      3.917383000000000E+01      4.776306000000000E-01     -1.646016000000000E+02
4850000000.000000      3.691254000000000E-01      3.910547000000000E+01      4.761963000000000E-01     -1.652891000000000E+02
4851000000.000000      3.706360000000000E-01      3.905078000000000E+01      4.762726000000000E-01     -1.659297000000000E+02
4852000000.000000      3.717499000000000E-01      3.865234000000000E+01      4.732208000000000E-01     -1.667969000000000E+02
4853000000.000000      3.733063000000000E-01      3.837305000000000E+01      4.695282000000000E-01     -1.674141000000000E+02
4854000000.000000      3.748627000000000E-01      3.818554000000000E+01      4.680481000000000E-01     -1.683281000000000E+02
4855000000.000000      3.752747000000000E-01      3.809179000000000E+01      4.650726000000000E-01     -1.688984000000000E+02
4856000000.000000      3.770142000000000E-01      3.772070000000000E+01      4.640198000000000E-01     -1.695703000000000E+02
4857000000.000000      3.775177000000000E-01      3.749414000000000E+01      4.623260000000000E-01     -1.702109000000000E+02
4858000000.000000      3.791046000000000E-01      3.714648000000000E+01      4.598694000000000E-01     -1.707969000000000E+02
4859000000.000000      3.798676000000000E-01      3.700781000000000E+01      4.569855000000000E-01     -1.717813000000000E+02
4860000000.000000      3.816223000000000E-01      3.677734000000000E+01      4.539337000000000E-01     -1.723047000000000E+02
4861000000.000000      3.819427000000000E-01      3.647265000000000E+01      4.524078000000000E-01     -1.731172000000000E+02
4862000000.000000      3.833313000000000E-01      3.628515000000000E+01      4.507599000000000E-01     -1.736250000000000E+02
4863000000.000000      3.837891000000000E-01      3.604883000000000E+01      4.454651000000000E-01     -1.742969000000000E+02
4864000000.000000      3.852997000000000E-01      3.579297000000000E+01      4.442749000000000E-01     -1.749844000000000E+02
4865000000.000000      3.860626000000000E-01      3.543945000000000E+01      4.415436000000000E-01     -1.755312000000000E+02
4866000000.000000      3.862762000000000E-01      3.506836000000000E+01      4.382629000000000E-01     -1.763906000000000E+02
4867000000.000000      3.861084000000000E-01      3.489648000000000E+01      4.350739000000000E-01     -1.769766000000000E+02
4868000000.000000      3.879852000000000E-01      3.468750000000000E+01      4.321442000000000E-01     -1.779063000000000E+02
4869000000.000000      3.885193000000000E-01      3.437891000000000E+01      4.276428000000000E-01     -1.784609000000000E+02
4870000000.000000      3.891144000000000E-01      3.420312000000000E+01      4.262848000000000E-01     -1.787031000000000E+02
4871000000.000000      3.899384000000000E-01      3.384570000000000E+01      4.216614000000000E-01     -1.796797000000000E+02
4872000000.000000      3.915100000000000E-01      3.366992000000000E+01      4.194183000000000E-01      1.798437000000000E+02
4873000000.000000      3.910370000000000E-01      3.341601000000000E+01      4.148407000000000E-01      1.791641000000000E+02
4874000000.000000      3.917694000000000E-01      3.320117000000000E+01      4.122009000000000E-01      1.784688000000000E+02
4875000000.000000      3.923035000000000E-01      3.286914000000000E+01      4.069672000000000E-01      1.782266000000000E+02
4876000000.000000      3.931885000000000E-01      3.281641000000000E+01      4.058685000000000E-01      1.774531000000000E+02
4877000000.000000      3.933105000000000E-01      3.231445000000000E+01      4.009857000000000E-01      1.768047000000000E+02
4878000000.000000      3.932343000000000E-01      3.213867000000000E+01      3.993378000000000E-01      1.763594000000000E+02
4879000000.000000      3.952026000000000E-01      3.189648000000000E+01      3.950348000000000E-01      1.758203000000000E+02
4880000000.000000      3.950043000000000E-01      3.153809000000000E+01      3.925018000000000E-01      1.751875000000000E+02
4881000000.000000      3.951416000000000E-01      3.137793000000000E+01      3.888397000000000E-01      1.748672000000000E+02
4882000000.000000      3.956299000000000E-01      3.117480000000000E+01      3.847351000000000E-01      1.741406000000000E+02
4883000000.000000      3.950043000000000E-01      3.091406000000000E+01      3.793335000000000E-01      1.735469000000000E+02
4884000000.000000      3.954620000000000E-01      3.066211000000000E+01      3.773499000000000E-01      1.729922000000000E+02
4885000000.000000      3.956757000000000E-01      3.032227000000000E+01      3.728485000000000E-01      1.728828000000000E+02
4886000000.000000      3.958893000000000E-01      3.015527000000000E+01      3.697662000000000E-01      1.721484000000000E+02
4887000000.000000      3.958740000000000E-01      2.995800000000000E+01      3.664246000000000E-01      1.715703000000000E+02
4888000000.000000      3.956146000000000E-01      2.954590000000000E+01      3.626556000000000E-01      1.711797000000000E+02
4889000000.000000      3.955383000000000E-01      2.940039000000000E+01      3.586884000000000E-01      1.708125000000000E+02
4890000000.000000      3.955536000000000E-01      2.913379000000000E+01      3.546600000000000E-01      1.698984000000000E+02
4891000000.000000      3.965759000000000E-01      2.888086000000000E+01      3.509216000000000E-01      1.696563000000000E+02
4892000000.000000      3.955841000000000E-01      2.882324000000000E+01      3.480377000000000E-01      1.693359000000000E+02
4893000000.000000      3.966980000000000E-01      2.829492000000000E+01      3.451996000000000E-01      1.689297000000000E+02
4894000000.000000      3.960419000000000E-01      2.820410000000000E+01      3.417664000000000E-01      1.683047000000000E+02
4895000000.000000      3.969574000000000E-01      2.783984000000000E+01      3.392181000000000E-01      1.679609000000000E+02
4896000000.000000      3.959961000000000E-01      2.782422000000000E+01      3.350677000000000E-01      1.676797000000000E+02
4897000000.000000      3.944244000000000E-01      2.759863000000000E+01      3.320465000000000E-01      1.672422000000000E+02
4898000000.000000      3.960571000000000E-01      2.741992000000000E+01      3.273773000000000E-01      1.668828000000000E+02
4899000000.000000      3.957825000000000E-01      2.710254000000000E+01      3.248596000000000E-01      1.662578000000000E+02
4900000000.000000      3.950348000000000E-01      2.679492000000000E+01      3.209229000000000E-01      1.660391000000000E+02
4901000000.000000      3.946228000000000E-01      2.652441000000000E+01      3.186493000000000E-01      1.654766000000000E+02
4902000000.000000      3.954620000000000E-01      2.636425000000000E+01      3.141937000000000E-01      1.652344000000000E+02
4903000000.000000      3.955383000000000E-01      2.641308000000000E+01      3.100433000000000E-01      1.648750000000000E+02
4904000000.000000      3.950500000000000E-01      2.599316000000000E+01      3.068085000000000E-01      1.642344000000000E+02
4905000000.000000      3.936768000000000E-01      2.578125000000000E+01      3.045959000000000E-01      1.638047000000000E+02
4906000000.000000      3.944092000000000E-01      2.553223000000000E+01      3.002625000000000E-01      1.638438000000000E+02
4907000000.000000      3.948975000000000E-01      2.538476000000000E+01      2.978973000000000E-01      1.633047000000000E+02
4908000000.000000      3.941498000000000E-01      2.525586000000000E+01      2.945557000000000E-01      1.626094000000000E+02
4909000000.000000      3.935394000000000E-01      2.502734000000000E+01      2.897797000000000E-01      1.625000000000000E+02
4910000000.000000      3.935852000000000E-01      2.485156000000000E+01      2.863617000000000E-01      1.621406000000000E+02
4911000000.000000      3.937531000000000E-01      2.458301000000000E+01      2.832794000000000E-01      1.616953000000000E+02
4912000000.000000      3.927612000000000E-01      2.448242000000000E+01      2.801514000000000E-01      1.613906000000000E+02
4913000000.000000      3.925476000000000E-01      2.418457000000000E+01      2.759094000000000E-01      1.609844000000000E+02
4914000000.000000      3.919830000000000E-01      2.405371000000000E+01      2.726288000000000E-01      1.606562000000000E+02
4915000000.000000      3.917236000000000E-01      2.383691000000000E+01      2.685089000000000E-01      1.601797000000000E+02
4916000000.000000      3.916321000000000E-01      2.356152000000000E+01      2.648315000000000E-01      1.598906000000000E+02
4917000000.000000      3.922882000000000E-01      2.359277000000000E+01      2.613831000000000E-01      1.595469000000000E+02
4918000000.000000      3.918762000000000E-01      2.329785000000000E+01      2.574310000000000E-01      1.591875000000000E+02
4919000000.000000      3.907166000000000E-01      2.313672000000000E+01      2.544403000000000E-01      1.590391000000000E+02
4920000000.000000      3.909607000000000E-01      2.286914000000000E+01      2.496109000000000E-01      1.586719000000000E+02
4921000000.000000      3.905334000000000E-01      2.300781000000000E+01      2.465134000000000E-01      1.583750000000000E+02
4922000000.000000      3.915558000000000E-01      2.267285000000000E+01      2.430954000000000E-01      1.581250000000000E+02
4923000000.000000      3.903046000000000E-01      2.262695000000000E+01      2.384186000000000E-01      1.579844000000000E+02
4924000000.000000      3.894806000000000E-01      2.245410000000000E+01      2.344360000000000E-01      1.575703000000000E+02
4925000000.000000      3.885651000000000E-01      2.208887000000000E+01      2.309723000000000E-01      1.574062000000000E+02
4926000000.000000      3.899384000000000E-01      2.193945000000000E+01      2.271194000000000E-01      1.572969000000000E+02
4927000000.000000      3.892975000000000E-01      2.180566000000000E+01      2.223129000000000E-01      1.568984000000000E+02
4928000000.000000      3.907928000000000E-01      2.150391000000000E+01      2.191620000000000E-01      1.568125000000000E+02
4929000000.000000      3.882446000000000E-01      2.148633000000000E+01      2.146301000000000E-01      1.566562000000000E+02
4930000000.000000      3.890381000000000E-01      2.132031000000000E+01      2.109070000000000E-01      1.566094000000000E+02
4931000000.000000      3.883209000000000E-01      2.094043000000000E+01      2.073517000000000E-01      1.565391000000000E+02
4932000000.000000      3.881073000000000E-01      2.097558000000000E+01      2.027054000000000E-01      1.564453000000000E+02
4933000000.000000      3.869934000000000E-01      2.067187000000000E+01      1.978683000000000E-01      1.566250000000000E+02
4934000000.000000      3.870239000000000E-01      2.048730000000000E+01      1.942902000000000E-01      1.564687000000000E+02
4935000000.000000      3.885193000000000E-01      2.043262000000000E+01      1.908188000000000E-01      1.566953000000000E+02
4936000000.000000      3.869476000000000E-01      2.014453000000000E+01      1.866379000000000E-01      1.566719000000000E+02
4937000000.000000      3.869629000000000E-01      1.979687000000000E+01      1.831818000000000E-01      1.568516000000000E+02
4938000000.000000      3.851471000000000E-01      1.993262000000000E+01      1.784363000000000E-01      1.570234000000000E+02
4939000000.000000      3.866730000000000E-01      1.984668000000000E+01      1.750107000000000E-01      1.572578000000000E+02
4940000000.000000      3.857574000000000E-01      1.949609000000000E+01      1.707916000000000E-01      1.574375000000000E+02
4941000000.000000      3.857117000000000E-01      1.925879000000000E+01      1.672897000000000E-01      1.580547000000000E+02
4942000000.000000      3.846436000000000E-01      1.929394000000000E+01      1.631927000000000E-01      1.583750000000000E+02
4943000000.000000      3.852997000000000E-01      1.900683000000000E+01      1.594543000000000E-01      1.586641000000000E+02
4944000000.000000      3.833923000000000E-01      1.890723000000000E+01      1.554489000000000E-01      1.592500000000000E+02
4945000000.000000      3.845062000000000E-01      1.874316000000000E+01      1.518478000000000E-01      1.600312000000000E+02
4946000000.000000      3.843536000000000E-01      1.856934000000000E+01      1.487350000000000E-01      1.605312000000000E+02
4947000000.000000      3.836975000000000E-01      1.831933000000000E+01      1.448593000000000E-01      1.611719000000000E+02
4948000000.000000      3.844147000000000E-01      1.817773000000000E+01      1.418304000000000E-01      1.621094000000000E+02
4949000000.000000      3.830566000000000E-01      1.795410000000000E+01      1.393890000000000E-01      1.633203000000000E+02
4950000000.000000      3.833618000000000E-01      1.793066000000000E+01      1.354752000000000E-01      1.639297000000000E+02
4951000000.000000      3.826141000000000E-01      1.773730000000000E+01      1.323853000000000E-01      1.652109000000000E+02
4952000000.000000      3.826294000000000E-01      1.754785000000000E+01      1.299973000000000E-01      1.662344000000000E+02
4953000000.000000      3.816223000000000E-01      1.728223000000000E+01      1.277237000000000E-01      1.676797000000000E+02
4954000000.000000      3.822784000000000E-01      1.731152000000000E+01      1.248779000000000E-01      1.690234000000000E+02
