! Network Analyzer HP8722D
! Hewlett-Packard
! Data name: Linha & Wilkinson
! Saver's name: Rodrigo Anjos
! Comments: Teste da utilização de aquisição
continua pelo VNA HP8722D
! Time and date: 23/5/2025 16:49
!              Frequency                     S11                                                   S21                                                   S12                                                   S22
# HZ  S  MA R 50
4800000000.000000      2.798309000000000E-01      4.026367000000000E+01      4.869080000000000E-01     -1.297109000000000E+02
4801000000.000000      2.813721000000000E-01      4.059570000000000E+01      4.886475000000000E-01     -1.302656000000000E+02
4802000000.000000      2.826385000000000E-01      4.073047000000000E+01      4.894104000000000E-01     -1.309141000000000E+02
4803000000.000000      2.837524000000000E-01      4.093359000000000E+01      4.933624000000000E-01     -1.316875000000000E+02
4804000000.000000      2.846985000000000E-01      4.123437000000000E+01      4.950714000000000E-01     -1.322500000000000E+02
4805000000.000000      2.866364000000000E-01      4.135938000000000E+01      4.943695000000000E-01     -1.332422000000000E+02
4806000000.000000      2.872772000000000E-01      4.157227000000000E+01      4.962006000000000E-01     -1.337500000000000E+02
4807000000.000000      2.886963000000000E-01      4.175195000000000E+01      4.981079000000000E-01     -1.347734000000000E+02
4808000000.000000      2.897339000000000E-01      4.187500000000000E+01      4.999542000000000E-01     -1.353203000000000E+02
4809000000.000000      2.917023000000000E-01      4.211133000000000E+01      5.015564000000000E-01     -1.361719000000000E+02
4810000000.000000      2.930756000000000E-01      4.226563000000000E+01      5.022888000000000E-01     -1.367578000000000E+02
4811000000.000000      2.951660000000000E-01      4.236328000000000E+01      5.051575000000000E-01     -1.377422000000000E+02
4812000000.000000      2.974396000000000E-01      4.259570000000000E+01      5.045166000000000E-01     -1.383281000000000E+02
4813000000.000000      2.980042000000000E-01      4.273438000000000E+01      5.060730000000000E-01     -1.390625000000000E+02
4814000000.000000      2.996979000000000E-01      4.276563000000000E+01      5.061951000000000E-01     -1.397344000000000E+02
4815000000.000000      3.011780000000000E-01      4.285742000000000E+01      5.058899000000000E-01     -1.404453000000000E+02
4816000000.000000      3.037109000000000E-01      4.299609000000000E+01      5.073853000000000E-01     -1.410938000000000E+02
4817000000.000000      3.046570000000000E-01      4.313867000000000E+01      5.080872000000000E-01     -1.420000000000000E+02
4818000000.000000      3.063202000000000E-01      4.296875000000000E+01      5.070190000000000E-01     -1.426016000000000E+02
4819000000.000000      3.086548000000000E-01      4.310742000000000E+01      5.078125000000000E-01     -1.434453000000000E+02
4820000000.000000      3.097992000000000E-01      4.318164000000000E+01      5.079651000000000E-01     -1.439609000000000E+02
4821000000.000000      3.128510000000000E-01      4.314453000000000E+01      5.098572000000000E-01     -1.449687000000000E+02
4822000000.000000      3.136292000000000E-01      4.308594000000000E+01      5.080261000000000E-01     -1.456328000000000E+02
4823000000.000000      3.161469000000000E-01      4.308007000000000E+01      5.087585000000000E-01     -1.463438000000000E+02
4824000000.000000      3.177185000000000E-01      4.326953000000000E+01      5.088806000000000E-01     -1.472265000000000E+02
4825000000.000000      3.195953000000000E-01      4.309179000000000E+01      5.093079000000000E-01     -1.477734000000000E+02
4826000000.000000      3.211670000000000E-01      4.309179000000000E+01      5.090942000000000E-01     -1.487813000000000E+02
4827000000.000000      3.235016000000000E-01      4.300586000000000E+01      5.085754000000000E-01     -1.493359000000000E+02
4828000000.000000      3.257294000000000E-01      4.304492000000000E+01      5.084534000000000E-01     -1.499922000000000E+02
4829000000.000000      3.269043000000000E-01      4.308398000000000E+01      5.079651000000000E-01     -1.506719000000000E+02
4830000000.000000      3.285370000000000E-01      4.286133000000000E+01      5.080566000000000E-01     -1.516250000000000E+02
4831000000.000000      3.303833000000000E-01      4.274023000000000E+01      5.060425000000000E-01     -1.521953000000000E+02
4832000000.000000      3.322754000000000E-01      4.280663000000000E+01      5.059204000000000E-01     -1.527969000000000E+02
4833000000.000000      3.330383000000000E-01      4.258398000000000E+01      5.048828000000000E-01     -1.535312000000000E+02
4834000000.000000      3.354797000000000E-01      4.246094000000000E+01      5.047302000000000E-01     -1.543594000000000E+02
4835000000.000000      3.375092000000000E-01      4.234571000000000E+01      5.036011000000000E-01     -1.548672000000000E+02
4836000000.000000      3.396606000000000E-01      4.236914000000000E+01      5.017395000000000E-01     -1.556406000000000E+02
4837000000.000000      3.409576000000000E-01      4.213086000000000E+01      4.991913000000000E-01     -1.567109000000000E+02
4838000000.000000      3.421173000000000E-01      4.197461000000000E+01      5.014038000000000E-01     -1.570547000000000E+02
4839000000.000000      3.451233000000000E-01      4.194726000000000E+01      4.992523000000000E-01     -1.578203000000000E+02
4840000000.000000      3.464661000000000E-01      4.159180000000000E+01      4.983368000000000E-01     -1.584922000000000E+02
4841000000.000000      3.482361000000000E-01      4.156250000000000E+01      4.966583000000000E-01     -1.593437000000000E+02
4842000000.000000      3.489380000000000E-01      4.140038000000000E+01      4.955139000000000E-01     -1.599219000000000E+02
4843000000.000000      3.521576000000000E-01      4.106641000000000E+01      4.947052000000000E-01     -1.608672000000000E+02
4844000000.000000      3.525848000000000E-01      4.095899000000000E+01      4.912567000000000E-01     -1.614375000000000E+02
4845000000.000000      3.543854000000000E-01      4.074609000000000E+01      4.904633000000000E-01     -1.622266000000000E+02
4846000000.000000      3.558197000000000E-01      4.073438000000000E+01      4.894867000000000E-01     -1.629609000000000E+02
4847000000.000000      3.574524000000000E-01      4.051171000000000E+01      4.884949000000000E-01     -1.635000000000000E+02
4848000000.000000      3.585358000000000E-01      4.020312000000000E+01      4.855194000000000E-01     -1.643359000000000E+02
4849000000.000000      3.607635000000000E-01      3.987109000000000E+01      4.859009000000000E-01     -1.650781000000000E+02
4850000000.000000      3.614197000000000E-01      3.978516000000000E+01      4.828796000000000E-01     -1.656875000000000E+02
4851000000.000000      3.629456000000000E-01      3.967968000000000E+01      4.801025000000000E-01     -1.664609000000000E+02
4852000000.000000      3.642426000000000E-01      3.930078000000000E+01      4.781342000000000E-01     -1.670781000000000E+02
4853000000.000000      3.664856000000000E-01      3.908789000000000E+01      4.751129000000000E-01     -1.678281000000000E+02
4854000000.000000      3.669434000000000E-01      3.883203000000000E+01      4.735870000000000E-01     -1.686250000000000E+02
4855000000.000000      3.681183000000000E-01      3.868555000000000E+01      4.732666000000000E-01     -1.693438000000000E+02
4856000000.000000      3.696747000000000E-01      3.836523000000000E+01      4.691010000000000E-01     -1.698906000000000E+02
4857000000.000000      3.707428000000000E-01      3.819921000000000E+01      4.676361000000000E-01     -1.703672000000000E+02
4858000000.000000      3.716125000000000E-01      3.787304000000000E+01      4.650574000000000E-01     -1.712109000000000E+02
4859000000.000000      3.722687000000000E-01      3.753515000000000E+01      4.634094000000000E-01     -1.720547000000000E+02
4860000000.000000      3.736115000000000E-01      3.741211000000000E+01      4.593658000000000E-01     -1.725859000000000E+02
4861000000.000000      3.750153000000000E-01      3.717773000000000E+01      4.571991000000000E-01     -1.733984000000000E+02
4862000000.000000      3.752899000000000E-01      3.684765000000000E+01      4.552765000000000E-01     -1.739141000000000E+02
4863000000.000000      3.757172000000000E-01      3.662304000000000E+01      4.511261000000000E-01     -1.747344000000000E+02
4864000000.000000      3.778076000000000E-01      3.632617000000000E+01      4.486542000000000E-01     -1.752734000000000E+02
4865000000.000000      3.777618000000000E-01      3.601953000000000E+01      4.465485000000000E-01     -1.759063000000000E+02
4866000000.000000      3.780518000000000E-01      3.570313000000000E+01      4.415741000000000E-01     -1.766406000000000E+02
4867000000.000000      3.785095000000000E-01      3.558594000000000E+01      4.394836000000000E-01     -1.774453000000000E+02
4868000000.000000      3.805084000000000E-01      3.528515000000000E+01      4.369965000000000E-01     -1.780078000000000E+02
4869000000.000000      3.806152000000000E-01      3.496484000000000E+01      4.339294000000000E-01     -1.785703000000000E+02
4870000000.000000      3.820496000000000E-01      3.476563000000000E+01      4.304504000000000E-01     -1.791328000000000E+02
4871000000.000000      3.824615000000000E-01      3.440625000000000E+01      4.268951000000000E-01     -1.798984000000000E+02
4872000000.000000      3.832397000000000E-01      3.424219000000000E+01      4.226379000000000E-01      1.796016000000000E+02
4873000000.000000      3.836060000000000E-01      3.388672000000000E+01      4.207611000000000E-01      1.789766000000000E+02
4874000000.000000      3.834534000000000E-01      3.371094000000000E+01      4.166565000000000E-01      1.782656000000000E+02
4875000000.000000      3.844604000000000E-01      3.335546000000000E+01      4.126892000000000E-01      1.777578000000000E+02
4876000000.000000      3.850861000000000E-01      3.320703000000000E+01      4.106140000000000E-01      1.771797000000000E+02
4877000000.000000      3.861084000000000E-01      3.270898000000000E+01      4.077301000000000E-01      1.766406000000000E+02
4878000000.000000      3.855743000000000E-01      3.264453000000000E+01      4.041748000000000E-01      1.757656000000000E+02
4879000000.000000      3.866882000000000E-01      3.225586000000000E+01      3.984528000000000E-01      1.754453000000000E+02
4880000000.000000      3.873749000000000E-01      3.204297000000000E+01      3.959808000000000E-01      1.750078000000000E+02
4881000000.000000      3.868408000000000E-01      3.180469000000000E+01      3.930511000000000E-01      1.745781000000000E+02
4882000000.000000      3.874207000000000E-01      3.156641000000000E+01      3.896027000000000E-01      1.738594000000000E+02
4883000000.000000      3.870544000000000E-01      3.112793000000000E+01      3.856964000000000E-01      1.732344000000000E+02
4884000000.000000      3.880310000000000E-01      3.098926000000000E+01      3.829803000000000E-01      1.727109000000000E+02
4885000000.000000      3.878479000000000E-01      3.081640000000000E+01      3.778534000000000E-01      1.723750000000000E+02
4886000000.000000      3.883820000000000E-01      3.053320000000000E+01      3.744965000000000E-01      1.718437000000000E+02
4887000000.000000      3.878326000000000E-01      3.028906000000000E+01      3.715668000000000E-01      1.715000000000000E+02
4888000000.000000      3.892059000000000E-01      2.988086000000000E+01      3.689728000000000E-01      1.706953000000000E+02
4889000000.000000      3.874054000000000E-01      2.974609000000000E+01      3.654175000000000E-01      1.701875000000000E+02
4890000000.000000      3.879700000000000E-01      2.946191000000000E+01      3.617249000000000E-01      1.699766000000000E+02
4891000000.000000      3.885193000000000E-01      2.927637000000000E+01      3.560333000000000E-01      1.693047000000000E+02
4892000000.000000      3.879547000000000E-01      2.890429000000000E+01      3.534241000000000E-01      1.691484000000000E+02
4893000000.000000      3.883820000000000E-01      2.872070000000000E+01      3.491974000000000E-01      1.684297000000000E+02
4894000000.000000      3.872986000000000E-01      2.861719000000000E+01      3.472900000000000E-01      1.681719000000000E+02
4895000000.000000      3.888855000000000E-01      2.832617000000000E+01      3.435669000000000E-01      1.675859000000000E+02
4896000000.000000      3.877563000000000E-01      2.797852000000000E+01      3.393402000000000E-01      1.670938000000000E+02
4897000000.000000      3.873138000000000E-01      2.772070000000000E+01      3.366699000000000E-01      1.670781000000000E+02
4898000000.000000      3.877411000000000E-01      2.757910000000000E+01      3.331604000000000E-01      1.664219000000000E+02
4899000000.000000      3.877106000000000E-01      2.733496000000000E+01      3.292389000000000E-01      1.658047000000000E+02
4900000000.000000      3.865356000000000E-01      2.704687000000000E+01      3.245850000000000E-01      1.656719000000000E+02
4901000000.000000      3.873291000000000E-01      2.687988000000000E+01      3.228912000000000E-01      1.653125000000000E+02
4902000000.000000      3.869781000000000E-01      2.658496000000000E+01      3.195648000000000E-01      1.648359000000000E+02
4903000000.000000      3.870850000000000E-01      2.664648000000000E+01      3.150330000000000E-01      1.643984000000000E+02
4904000000.000000      3.867798000000000E-01      2.611816000000000E+01      3.122406000000000E-01      1.639766000000000E+02
4905000000.000000      3.866882000000000E-01      2.602930000000000E+01      3.090210000000000E-01      1.636094000000000E+02
4906000000.000000      3.858948000000000E-01      2.577637000000000E+01      3.053284000000000E-01      1.633437000000000E+02
4907000000.000000      3.865051000000000E-01      2.558984000000000E+01      3.022461000000000E-01      1.627812000000000E+02
4908000000.000000      3.856049000000000E-01      2.534863000000000E+01      2.988129000000000E-01      1.624141000000000E+02
4909000000.000000      3.845215000000000E-01      2.518847000000000E+01      2.944794000000000E-01      1.620547000000000E+02
4910000000.000000      3.853760000000000E-01      2.507813000000000E+01      2.905731000000000E-01      1.617031000000000E+02
4911000000.000000      3.843689000000000E-01      2.481738000000000E+01      2.883148000000000E-01      1.613125000000000E+02
4912000000.000000      3.839111000000000E-01      2.462402000000000E+01      2.839355000000000E-01      1.608672000000000E+02
4913000000.000000      3.850250000000000E-01      2.430957000000000E+01      2.811584000000000E-01      1.604609000000000E+02
4914000000.000000      3.831177000000000E-01      2.410742000000000E+01      2.768097000000000E-01      1.602890000000000E+02
4915000000.000000      3.840790000000000E-01      2.403809000000000E+01      2.738953000000000E-01      1.597422000000000E+02
4916000000.000000      3.836975000000000E-01      2.385352000000000E+01      2.693634000000000E-01      1.594453000000000E+02
4917000000.000000      3.835144000000000E-01      2.364746000000000E+01      2.665863000000000E-01      1.592109000000000E+02
4918000000.000000      3.834381000000000E-01      2.352637000000000E+01      2.621307000000000E-01      1.587812000000000E+02
4919000000.000000      3.817596000000000E-01      2.331641000000000E+01      2.583618000000000E-01      1.587891000000000E+02
4920000000.000000      3.824768000000000E-01      2.313672000000000E+01      2.537079000000000E-01      1.581328000000000E+02
4921000000.000000      3.815002000000000E-01      2.303906000000000E+01      2.511902000000000E-01      1.579375000000000E+02
4922000000.000000      3.825073000000000E-01      2.277246000000000E+01      2.463455000000000E-01      1.576484000000000E+02
4923000000.000000      3.820953000000000E-01      2.266016000000000E+01      2.425308000000000E-01      1.575312000000000E+02
4924000000.000000      3.821716000000000E-01      2.236816000000000E+01      2.388306000000000E-01      1.570547000000000E+02
4925000000.000000      3.806763000000000E-01      2.227734000000000E+01      2.343750000000000E-01      1.570000000000000E+02
4926000000.000000      3.798065000000000E-01      2.204394000000000E+01      2.308960000000000E-01      1.567656000000000E+02
4927000000.000000      3.799591000000000E-01      2.187891000000000E+01      2.267761000000000E-01      1.564531000000000E+02
4928000000.000000      3.803864000000000E-01      2.160547000000000E+01      2.225113000000000E-01      1.565000000000000E+02
4929000000.000000      3.794861000000000E-01      2.141504000000000E+01      2.185211000000000E-01      1.563281000000000E+02
4930000000.000000      3.803711000000000E-01      2.123437000000000E+01      2.144547000000000E-01      1.561875000000000E+02
4931000000.000000      3.801727000000000E-01      2.104004000000000E+01      2.112961000000000E-01      1.560547000000000E+02
4932000000.000000      3.793793000000000E-01      2.091309000000000E+01      2.065353000000000E-01      1.559062000000000E+02
4933000000.000000      3.789673000000000E-01      2.076270000000000E+01      2.014923000000000E-01      1.561250000000000E+02
4934000000.000000      3.789978000000000E-01      2.049219000000000E+01      1.976395000000000E-01      1.559062000000000E+02
4935000000.000000      3.790741000000000E-01      2.036133000000000E+01      1.950912000000000E-01      1.561406000000000E+02
4936000000.000000      3.778992000000000E-01      2.012109000000000E+01      1.899719000000000E-01      1.562109000000000E+02
4937000000.000000      3.781891000000000E-01      2.003027000000000E+01      1.861420000000000E-01      1.562813000000000E+02
4938000000.000000      3.762054000000000E-01      1.988086000000000E+01      1.814880000000000E-01      1.564531000000000E+02
4939000000.000000      3.774719000000000E-01      1.975000000000000E+01      1.780090000000000E-01      1.567031000000000E+02
4940000000.000000      3.767548000000000E-01      1.945898000000000E+01      1.739731000000000E-01      1.569844000000000E+02
4941000000.000000      3.776855000000000E-01      1.941602000000000E+01      1.701584000000000E-01      1.574297000000000E+02
4942000000.000000      3.759918000000000E-01      1.919922000000000E+01      1.663895000000000E-01      1.576562000000000E+02
4943000000.000000      3.760223000000000E-01      1.905762000000000E+01      1.624756000000000E-01      1.581563000000000E+02
4944000000.000000      3.750763000000000E-01      1.879297000000000E+01      1.590576000000000E-01      1.586562000000000E+02
4945000000.000000      3.751068000000000E-01      1.871875000000000E+01      1.549454000000000E-01      1.593516000000000E+02
4946000000.000000      3.753967000000000E-01      1.851465000000000E+01      1.514969000000000E-01      1.600547000000000E+02
4947000000.000000      3.749390000000000E-01      1.841309000000000E+01      1.480255000000000E-01      1.607500000000000E+02
4948000000.000000      3.753052000000000E-01      1.819531000000000E+01      1.445084000000000E-01      1.614297000000000E+02
4949000000.000000      3.746948000000000E-01      1.808398000000000E+01      1.413422000000000E-01      1.624531000000000E+02
4950000000.000000      3.741608000000000E-01      1.792773000000000E+01      1.380844000000000E-01      1.634922000000000E+02
4951000000.000000      3.739319000000000E-01      1.772558000000000E+01      1.347122000000000E-01      1.642187000000000E+02
4952000000.000000      3.736572000000000E-01      1.745508000000000E+01      1.319656000000000E-01      1.653672000000000E+02
4953000000.000000      3.725739000000000E-01      1.726758000000000E+01      1.301498000000000E-01      1.667266000000000E+02
4954000000.000000      3.728638000000000E-01      1.714746000000000E+01      1.269073000000000E-01      1.678984000000000E+02
