! Network Analyzer HP8722D
! Hewlett-Packard
! Data name: Linha & Wilkinson
! Saver's name: Rodrigo Anjos
! Comments: Teste da utilização de aquisição
continua pelo VNA HP8722D
! Time and date: 23/5/2025 09:24
!              Frequency                     S11                                                   S21                                                   S12                                                   S22
# HZ  S  MA R 50
4800000000.000000      3.279419000000000E-01      3.574219000000000E+01      4.625244000000000E-01     -1.267617000000000E+02
4801000000.000000      3.283691000000000E-01      3.611914000000000E+01      4.640808000000000E-01     -1.273828000000000E+02
4802000000.000000      3.290558000000000E-01      3.625586000000000E+01      4.657745000000000E-01     -1.280313000000000E+02
4803000000.000000      3.297882000000000E-01      3.633008000000000E+01      4.691315000000000E-01     -1.288750000000000E+02
4804000000.000000      3.304291000000000E-01      3.662109000000000E+01      4.697723000000000E-01     -1.293984000000000E+02
4805000000.000000      3.321838000000000E-01      3.671875000000000E+01      4.715576000000000E-01     -1.301328000000000E+02
4806000000.000000      3.330994000000000E-01      3.688086000000000E+01      4.718323000000000E-01     -1.310313000000000E+02
4807000000.000000      3.335266000000000E-01      3.699609000000000E+01      4.734802000000000E-01     -1.318594000000000E+02
4808000000.000000      3.337708000000000E-01      3.718750000000000E+01      4.743958000000000E-01     -1.324844000000000E+02
4809000000.000000      3.356628000000000E-01      3.749218000000000E+01      4.777985000000000E-01     -1.332656000000000E+02
4810000000.000000      3.371429000000000E-01      3.750391000000000E+01      4.774017000000000E-01     -1.339297000000000E+02
4811000000.000000      3.388977000000000E-01      3.761914000000000E+01      4.782104000000000E-01     -1.347734000000000E+02
4812000000.000000      3.402863000000000E-01      3.783984000000000E+01      4.788513000000000E-01     -1.354375000000000E+02
4813000000.000000      3.411560000000000E-01      3.793554000000000E+01      4.796600000000000E-01     -1.362422000000000E+02
4814000000.000000      3.419952000000000E-01      3.799023000000000E+01      4.795837000000000E-01     -1.368438000000000E+02
4815000000.000000      3.432465000000000E-01      3.814258000000000E+01      4.812469000000000E-01     -1.377578000000000E+02
4816000000.000000      3.453217000000000E-01      3.826953000000000E+01      4.819641000000000E-01     -1.383437000000000E+02
4817000000.000000      3.464050000000000E-01      3.835938000000000E+01      4.813080000000000E-01     -1.391328000000000E+02
4818000000.000000      3.476105000000000E-01      3.839844000000000E+01      4.824677000000000E-01     -1.399531000000000E+02
4819000000.000000      3.495483000000000E-01      3.840625000000000E+01      4.829559000000000E-01     -1.404922000000000E+02
4820000000.000000      3.500671000000000E-01      3.850390000000000E+01      4.826508000000000E-01     -1.413437000000000E+02
4821000000.000000      3.525543000000000E-01      3.852539000000000E+01      4.832153000000000E-01     -1.420547000000000E+02
4822000000.000000      3.535767000000000E-01      3.851953000000000E+01      4.825134000000000E-01     -1.429062000000000E+02
4823000000.000000      3.556061000000000E-01      3.851758000000000E+01      4.848022000000000E-01     -1.436875000000000E+02
4824000000.000000      3.570099000000000E-01      3.868945000000000E+01      4.821167000000000E-01     -1.443281000000000E+02
4825000000.000000      3.589478000000000E-01      3.857812000000000E+01      4.828796000000000E-01     -1.449453000000000E+02
4826000000.000000      3.603210000000000E-01      3.862109000000000E+01      4.828033000000000E-01     -1.458984000000000E+02
4827000000.000000      3.620300000000000E-01      3.866406000000000E+01      4.815521000000000E-01     -1.464062000000000E+02
4828000000.000000      3.634949000000000E-01      3.863476000000000E+01      4.833069000000000E-01     -1.471406000000000E+02
4829000000.000000      3.650360000000000E-01      3.871679000000000E+01      4.812317000000000E-01     -1.479297000000000E+02
4830000000.000000      3.667603000000000E-01      3.852734000000000E+01      4.812775000000000E-01     -1.485703000000000E+02
4831000000.000000      3.679657000000000E-01      3.850390000000000E+01      4.809418000000000E-01     -1.495312000000000E+02
4832000000.000000      3.701935000000000E-01      3.856640000000000E+01      4.780579000000000E-01     -1.500000000000000E+02
4833000000.000000      3.709717000000000E-01      3.838281000000000E+01      4.794159000000000E-01     -1.507734000000000E+02
4834000000.000000      3.728943000000000E-01      3.837500000000000E+01      4.783783000000000E-01     -1.514766000000000E+02
4835000000.000000      3.749847000000000E-01      3.824023000000000E+01      4.775543000000000E-01     -1.523438000000000E+02
4836000000.000000      3.771057000000000E-01      3.825195000000000E+01      4.767303000000000E-01     -1.529609000000000E+02
4837000000.000000      3.782043000000000E-01      3.827343000000000E+01      4.750977000000000E-01     -1.537656000000000E+02
4838000000.000000      3.798218000000000E-01      3.807031000000000E+01      4.746246000000000E-01     -1.542187000000000E+02
4839000000.000000      3.827820000000000E-01      3.800781000000000E+01      4.740143000000000E-01     -1.549766000000000E+02
4840000000.000000      3.837280000000000E-01      3.782617000000000E+01      4.733124000000000E-01     -1.556875000000000E+02
4841000000.000000      3.849182000000000E-01      3.775781000000000E+01      4.716339000000000E-01     -1.565703000000000E+02
4842000000.000000      3.861237000000000E-01      3.762109000000000E+01      4.714508000000000E-01     -1.570937000000000E+02
4843000000.000000      3.890991000000000E-01      3.741992000000000E+01      4.697113000000000E-01     -1.579062000000000E+02
4844000000.000000      3.890076000000000E-01      3.730664000000000E+01      4.686584000000000E-01     -1.587734000000000E+02
4845000000.000000      3.905640000000000E-01      3.731836000000000E+01      4.662781000000000E-01     -1.592891000000000E+02
4846000000.000000      3.927765000000000E-01      3.707226000000000E+01      4.656372000000000E-01     -1.601719000000000E+02
4847000000.000000      3.945465000000000E-01      3.705469000000000E+01      4.641113000000000E-01     -1.607812000000000E+02
4848000000.000000      3.954315000000000E-01      3.673828000000000E+01      4.621277000000000E-01     -1.614844000000000E+02
4849000000.000000      3.970642000000000E-01      3.647851000000000E+01      4.614258000000000E-01     -1.623359000000000E+02
4850000000.000000      3.982239000000000E-01      3.642773000000000E+01      4.579315000000000E-01     -1.630391000000000E+02
4851000000.000000      3.995056000000000E-01      3.636328000000000E+01      4.581604000000000E-01     -1.638047000000000E+02
4852000000.000000      4.011688000000000E-01      3.611133000000000E+01      4.560852000000000E-01     -1.643359000000000E+02
4853000000.000000      4.025116000000000E-01      3.601563000000000E+01      4.521027000000000E-01     -1.650000000000000E+02
4854000000.000000      4.029694000000000E-01      3.574414000000000E+01      4.514618000000000E-01     -1.658281000000000E+02
4855000000.000000      4.046326000000000E-01      3.554883000000000E+01      4.488983000000000E-01     -1.666250000000000E+02
4856000000.000000      4.058685000000000E-01      3.535937000000000E+01      4.471130000000000E-01     -1.672188000000000E+02
4857000000.000000      4.070282000000000E-01      3.521289000000000E+01      4.454193000000000E-01     -1.678516000000000E+02
4858000000.000000      4.084930000000000E-01      3.499804000000000E+01      4.444275000000000E-01     -1.684922000000000E+02
4859000000.000000      4.098206000000000E-01      3.470312000000000E+01      4.404449000000000E-01     -1.694766000000000E+02
4860000000.000000      4.101410000000000E-01      3.466601000000000E+01      4.377594000000000E-01     -1.700078000000000E+02
4861000000.000000      4.110718000000000E-01      3.440039000000000E+01      4.364624000000000E-01     -1.708984000000000E+02
4862000000.000000      4.115143000000000E-01      3.415234000000000E+01      4.329987000000000E-01     -1.714062000000000E+02
4863000000.000000      4.140930000000000E-01      3.398438000000000E+01      4.302521000000000E-01     -1.721484000000000E+02
4864000000.000000      4.144135000000000E-01      3.366406000000000E+01      4.265289000000000E-01     -1.728125000000000E+02
4865000000.000000      4.154510000000000E-01      3.355273000000000E+01      4.250183000000000E-01     -1.734844000000000E+02
4866000000.000000      4.154663000000000E-01      3.332617000000000E+01      4.209137000000000E-01     -1.742422000000000E+02
4867000000.000000      4.163055000000000E-01      3.304296000000000E+01      4.194641000000000E-01     -1.749141000000000E+02
4868000000.000000      4.173431000000000E-01      3.282227000000000E+01      4.163513000000000E-01     -1.755156000000000E+02
4869000000.000000      4.187469000000000E-01      3.257421000000000E+01      4.114227000000000E-01     -1.762031000000000E+02
4870000000.000000      4.190979000000000E-01      3.247851000000000E+01      4.095917000000000E-01     -1.767031000000000E+02
4871000000.000000      4.192200000000000E-01      3.220117000000000E+01      4.065704000000000E-01     -1.775312000000000E+02
4872000000.000000      4.214478000000000E-01      3.198339000000000E+01      4.028473000000000E-01     -1.777266000000000E+02
4873000000.000000      4.203186000000000E-01      3.184375000000000E+01      3.994293000000000E-01     -1.786875000000000E+02
4874000000.000000      4.217834000000000E-01      3.156836000000000E+01      3.953552000000000E-01     -1.793516000000000E+02
4875000000.000000      4.222412000000000E-01      3.121582000000000E+01      3.928680000000000E-01     -1.799219000000000E+02
4876000000.000000      4.225922000000000E-01      3.119141000000000E+01      3.896484000000000E-01      1.794844000000000E+02
4877000000.000000      4.240875000000000E-01      3.081445000000000E+01      3.868103000000000E-01      1.788594000000000E+02
4878000000.000000      4.232941000000000E-01      3.065820000000000E+01      3.837585000000000E-01      1.784219000000000E+02
4879000000.000000      4.251556000000000E-01      3.043750000000000E+01      3.780518000000000E-01      1.777891000000000E+02
4880000000.000000      4.256592000000000E-01      3.008008000000000E+01      3.771210000000000E-01      1.773125000000000E+02
4881000000.000000      4.255371000000000E-01      3.004199000000000E+01      3.730011000000000E-01      1.770234000000000E+02
4882000000.000000      4.262695000000000E-01      2.973437000000000E+01      3.690796000000000E-01      1.761406000000000E+02
4883000000.000000      4.262390000000000E-01      2.955273000000000E+01      3.657227000000000E-01      1.755625000000000E+02
4884000000.000000      4.267578000000000E-01      2.937695000000000E+01      3.612213000000000E-01      1.749063000000000E+02
4885000000.000000      4.272003000000000E-01      2.906933000000000E+01      3.577881000000000E-01      1.747578000000000E+02
4886000000.000000      4.277191000000000E-01      2.897070000000000E+01      3.542175000000000E-01      1.742500000000000E+02
4887000000.000000      4.274597000000000E-01      2.867773000000000E+01      3.514252000000000E-01      1.735937000000000E+02
4888000000.000000      4.263458000000000E-01      2.841797000000000E+01      3.480377000000000E-01      1.731250000000000E+02
4889000000.000000      4.269714000000000E-01      2.816895000000000E+01      3.429260000000000E-01      1.726328000000000E+02
4890000000.000000      4.269562000000000E-01      2.796679000000000E+01      3.408508000000000E-01      1.716875000000000E+02
4891000000.000000      4.275055000000000E-01      2.791308000000000E+01      3.363190000000000E-01      1.718047000000000E+02
4892000000.000000      4.280090000000000E-01      2.757226000000000E+01      3.327026000000000E-01      1.715859000000000E+02
4893000000.000000      4.278870000000000E-01      2.741015000000000E+01      3.295593000000000E-01      1.707656000000000E+02
4894000000.000000      4.269409000000000E-01      2.718066000000000E+01      3.267059000000000E-01      1.704609000000000E+02
4895000000.000000      4.282379000000000E-01      2.687597000000000E+01      3.247833000000000E-01      1.700234000000000E+02
4896000000.000000      4.280853000000000E-01      2.684082000000000E+01      3.209686000000000E-01      1.698047000000000E+02
4897000000.000000      4.277344000000000E-01      2.662207000000000E+01      3.168030000000000E-01      1.691641000000000E+02
4898000000.000000      4.268494000000000E-01      2.650391000000000E+01      3.142090000000000E-01      1.689766000000000E+02
4899000000.000000      4.267120000000000E-01      2.623730000000000E+01      3.107452000000000E-01      1.682969000000000E+02
4900000000.000000      4.282532000000000E-01      2.593262000000000E+01      3.069763000000000E-01      1.679375000000000E+02
4901000000.000000      4.288635000000000E-01      2.576562000000000E+01      3.032227000000000E-01      1.676719000000000E+02
4902000000.000000      4.277802000000000E-01      2.567187000000000E+01      3.005524000000000E-01      1.672422000000000E+02
4903000000.000000      4.285431000000000E-01      2.548633000000000E+01      2.963867000000000E-01      1.667422000000000E+02
4904000000.000000      4.282684000000000E-01      2.522851000000000E+01      2.928925000000000E-01      1.663516000000000E+02
4905000000.000000      4.276428000000000E-01      2.508008000000000E+01      2.905579000000000E-01      1.660234000000000E+02
4906000000.000000      4.276428000000000E-01      2.489355000000000E+01      2.870331000000000E-01      1.657422000000000E+02
4907000000.000000      4.277039000000000E-01      2.456055000000000E+01      2.839355000000000E-01      1.652812000000000E+02
4908000000.000000      4.276581000000000E-01      2.437109000000000E+01      2.807465000000000E-01      1.648516000000000E+02
4909000000.000000      4.256897000000000E-01      2.422461000000000E+01      2.769623000000000E-01      1.646172000000000E+02
4910000000.000000      4.264832000000000E-01      2.430859000000000E+01      2.728424000000000E-01      1.642969000000000E+02
4911000000.000000      4.273224000000000E-01      2.403027000000000E+01      2.698975000000000E-01      1.638750000000000E+02
4912000000.000000      4.264374000000000E-01      2.388281000000000E+01      2.667084000000000E-01      1.633984000000000E+02
4913000000.000000      4.269867000000000E-01      2.364453000000000E+01      2.632751000000000E-01      1.631250000000000E+02
4914000000.000000      4.261322000000000E-01      2.330566000000000E+01      2.601166000000000E-01      1.628203000000000E+02
4915000000.000000      4.265442000000000E-01      2.332226000000000E+01      2.564392000000000E-01      1.621875000000000E+02
4916000000.000000      4.254303000000000E-01      2.309180000000000E+01      2.529144000000000E-01      1.620156000000000E+02
4917000000.000000      4.259949000000000E-01      2.304590000000000E+01      2.490768000000000E-01      1.616562000000000E+02
4918000000.000000      4.257050000000000E-01      2.277442000000000E+01      2.453156000000000E-01      1.614141000000000E+02
4919000000.000000      4.251709000000000E-01      2.277539000000000E+01      2.421722000000000E-01      1.613359000000000E+02
4920000000.000000      4.256134000000000E-01      2.247070000000000E+01      2.378998000000000E-01      1.607500000000000E+02
4921000000.000000      4.238892000000000E-01      2.244629000000000E+01      2.350616000000000E-01      1.605391000000000E+02
4922000000.000000      4.252625000000000E-01      2.216309000000000E+01      2.308502000000000E-01      1.605937000000000E+02
4923000000.000000      4.244995000000000E-01      2.206152000000000E+01      2.269058000000000E-01      1.600781000000000E+02
4924000000.000000      4.246063000000000E-01      2.181933000000000E+01      2.232132000000000E-01      1.598672000000000E+02
4925000000.000000      4.243927000000000E-01      2.168945000000000E+01      2.195358000000000E-01      1.596328000000000E+02
4926000000.000000      4.241180000000000E-01      2.152148000000000E+01      2.159958000000000E-01      1.596250000000000E+02
4927000000.000000      4.241638000000000E-01      2.137890000000000E+01      2.120972000000000E-01      1.592969000000000E+02
4928000000.000000      4.256897000000000E-01      2.113476000000000E+01      2.084656000000000E-01      1.592187000000000E+02
4929000000.000000      4.229736000000000E-01      2.099414000000000E+01      2.038879000000000E-01      1.590625000000000E+02
4930000000.000000      4.232330000000000E-01      2.096191000000000E+01      2.007904000000000E-01      1.589687000000000E+02
4931000000.000000      4.231262000000000E-01      2.077343000000000E+01      1.970062000000000E-01      1.589219000000000E+02
4932000000.000000      4.219666000000000E-01      2.051953000000000E+01      1.926270000000000E-01      1.588125000000000E+02
4933000000.000000      4.221039000000000E-01      2.043652000000000E+01      1.882782000000000E-01      1.588281000000000E+02
4934000000.000000      4.221954000000000E-01      2.019824000000000E+01      1.845474000000000E-01      1.590391000000000E+02
4935000000.000000      4.243927000000000E-01      2.015820000000000E+01      1.815948000000000E-01      1.591563000000000E+02
4936000000.000000      4.222412000000000E-01      1.998730000000000E+01      1.774139000000000E-01      1.592109000000000E+02
4937000000.000000      4.218903000000000E-01      1.966797000000000E+01      1.736755000000000E-01      1.592109000000000E+02
4938000000.000000      4.216614000000000E-01      1.964746000000000E+01      1.703186000000000E-01      1.595625000000000E+02
4939000000.000000      4.209442000000000E-01      1.949219000000000E+01      1.663284000000000E-01      1.598203000000000E+02
4940000000.000000      4.220581000000000E-01      1.935059000000000E+01      1.619873000000000E-01      1.597734000000000E+02
4941000000.000000      4.222565000000000E-01      1.912695000000000E+01      1.585388000000000E-01      1.603672000000000E+02
4942000000.000000      4.197540000000000E-01      1.906934000000000E+01      1.548615000000000E-01      1.609609000000000E+02
4943000000.000000      4.205933000000000E-01      1.897851000000000E+01      1.513977000000000E-01      1.614687000000000E+02
4944000000.000000      4.197693000000000E-01      1.867188000000000E+01      1.480942000000000E-01      1.618750000000000E+02
4945000000.000000      4.213257000000000E-01      1.856055000000000E+01      1.448212000000000E-01      1.625156000000000E+02
4946000000.000000      4.202118000000000E-01      1.842383000000000E+01      1.412430000000000E-01      1.631328000000000E+02
4947000000.000000      4.208679000000000E-01      1.831933000000000E+01      1.376953000000000E-01      1.639922000000000E+02
4948000000.000000      4.201202000000000E-01      1.809082000000000E+01      1.351318000000000E-01      1.649062000000000E+02
4949000000.000000      4.189301000000000E-01      1.796777000000000E+01      1.318359000000000E-01      1.658672000000000E+02
4950000000.000000      4.194183000000000E-01      1.790137000000000E+01      1.290054000000000E-01      1.667578000000000E+02
4951000000.000000      4.193420000000000E-01      1.765625000000000E+01      1.261215000000000E-01      1.678359000000000E+02
4952000000.000000      4.181366000000000E-01      1.753808000000000E+01      1.237335000000000E-01      1.689219000000000E+02
4953000000.000000      4.186859000000000E-01      1.740918000000000E+01      1.213646000000000E-01      1.705312000000000E+02
4954000000.000000      4.186859000000000E-01      1.721191000000000E+01      1.184731000000000E-01      1.717109000000000E+02
