! Network Analyzer HP8722D
! Hewlett-Packard
! Data name: Linha & Wilkinson
! Saver's name: Rodrigo Anjos
! Comments: Teste da utilização de aquisição
continua pelo VNA HP8722D
! Time and date: 23/5/2025 07:40
!              Frequency                     S11                                                   S21                                                   S12                                                   S22
# HZ  S  MA R 50
4800000000.000000      6.429443000000000E-01      1.054248000000000E+01      4.735870000000000E-01     -9.373047000000000E+01
4801000000.000000      6.415100000000000E-01      1.054395000000000E+01      4.750366000000000E-01     -9.438280000000000E+01
4802000000.000000      6.398010000000000E-01      1.051660000000000E+01      4.757385000000000E-01     -9.501171000000000E+01
4803000000.000000      6.389465000000000E-01      1.058496000000000E+01      4.769287000000000E-01     -9.593359000000000E+01
4804000000.000000      6.357117000000000E-01      1.062207000000000E+01      4.794769000000000E-01     -9.662498000000000E+01
4805000000.000000      6.351318000000000E-01      1.064697000000000E+01      4.834137000000000E-01     -9.750780000000000E+01
4806000000.000000      6.322937000000000E-01      1.054785000000000E+01      4.840088000000000E-01     -9.821484000000000E+01
4807000000.000000      6.300354000000000E-01      1.056982000000000E+01      4.837494000000000E-01     -9.909374000000000E+01
4808000000.000000      6.289368000000000E-01      1.070996000000000E+01      4.849548000000000E-01     -9.973436000000000E+01
4809000000.000000      6.282043000000000E-01      1.079248000000000E+01      4.880981000000000E-01     -1.004726000000000E+02
4810000000.000000      6.273193000000000E-01      1.064160000000000E+01      4.894104000000000E-01     -1.012305000000000E+02
4811000000.000000      6.250305000000000E-01      1.090527000000000E+01      4.893341000000000E-01     -1.021055000000000E+02
4812000000.000000      6.264343000000000E-01      1.101904000000000E+01      4.910126000000000E-01     -1.026719000000000E+02
4813000000.000000      6.228943000000000E-01      1.101611000000000E+01      4.916687000000000E-01     -1.034101000000000E+02
4814000000.000000      6.211853000000000E-01      1.095020000000000E+01      4.927673000000000E-01     -1.042578000000000E+02
4815000000.000000      6.192627000000000E-01      1.100391000000000E+01      4.931946000000000E-01     -1.049844000000000E+02
4816000000.000000      6.183472000000000E-01      1.117676000000000E+01      4.945831000000000E-01     -1.057539000000000E+02
4817000000.000000      6.168823000000000E-01      1.137207000000000E+01      4.948730000000000E-01     -1.065547000000000E+02
4818000000.000000      6.161194000000000E-01      1.113037000000000E+01      4.952087000000000E-01     -1.072890000000000E+02
4819000000.000000      6.161499000000000E-01      1.138428000000000E+01      4.955902000000000E-01     -1.081484000000000E+02
4820000000.000000      6.121521000000000E-01      1.162451000000000E+01      4.961853000000000E-01     -1.086250000000000E+02
4821000000.000000      6.134949000000000E-01      1.162207000000000E+01      4.975586000000000E-01     -1.094922000000000E+02
4822000000.000000      6.110535000000000E-01      1.155176000000000E+01      4.959717000000000E-01     -1.101563000000000E+02
4823000000.000000      6.122437000000000E-01      1.174805000000000E+01      4.972839000000000E-01     -1.109805000000000E+02
4824000000.000000      6.101379000000000E-01      1.208740000000000E+01      4.974976000000000E-01     -1.118125000000000E+02
4825000000.000000      6.090393000000000E-01      1.186621000000000E+01      4.970856000000000E-01     -1.124453000000000E+02
4826000000.000000      6.098022000000000E-01      1.202295000000000E+01      4.985352000000000E-01     -1.134492000000000E+02
4827000000.000000      6.108093000000000E-01      1.237305000000000E+01      4.984131000000000E-01     -1.139844000000000E+02
4828000000.000000      6.098328000000000E-01      1.245947000000000E+01      4.989014000000000E-01     -1.148086000000000E+02
4829000000.000000      6.093140000000000E-01      1.255322000000000E+01      4.995880000000000E-01     -1.154766000000000E+02
4830000000.000000      6.083374000000000E-01      1.252148000000000E+01      4.976044000000000E-01     -1.163555000000000E+02
4831000000.000000      6.078491000000000E-01      1.262842000000000E+01      4.990997000000000E-01     -1.171875000000000E+02
4832000000.000000      6.063232000000000E-01      1.288818000000000E+01      4.978943000000000E-01     -1.178398000000000E+02
4833000000.000000      6.058350000000000E-01      1.272217000000000E+01      4.979248000000000E-01     -1.184844000000000E+02
4834000000.000000      6.061096000000000E-01      1.291260000000000E+01      4.970856000000000E-01     -1.193672000000000E+02
4835000000.000000      6.071777000000000E-01      1.313672000000000E+01      4.974213000000000E-01     -1.201211000000000E+02
4836000000.000000      6.104431000000000E-01      1.318896000000000E+01      4.966278000000000E-01     -1.208047000000000E+02
4837000000.000000      6.073303000000000E-01      1.340186000000000E+01      4.956512000000000E-01     -1.220000000000000E+02
4838000000.000000      6.069336000000000E-01      1.352930000000000E+01      4.963837000000000E-01     -1.224062000000000E+02
4839000000.000000      6.099854000000000E-01      1.375488000000000E+01      4.971161000000000E-01     -1.232187000000000E+02
4840000000.000000      6.098328000000000E-01      1.355127000000000E+01      4.965363000000000E-01     -1.240195000000000E+02
4841000000.000000      6.098633000000000E-01      1.383154000000000E+01      4.944763000000000E-01     -1.249805000000000E+02
4842000000.000000      6.114197000000000E-01      1.382617000000000E+01      4.925690000000000E-01     -1.256055000000000E+02
4843000000.000000      6.125793000000000E-01      1.378613000000000E+01      4.945679000000000E-01     -1.266367000000000E+02
4844000000.000000      6.128845000000000E-01      1.394678000000000E+01      4.908905000000000E-01     -1.272344000000000E+02
4845000000.000000      6.122742000000000E-01      1.413232000000000E+01      4.907684000000000E-01     -1.279766000000000E+02
4846000000.000000      6.143799000000000E-01      1.425293000000000E+01      4.901733000000000E-01     -1.290313000000000E+02
4847000000.000000      6.147156000000000E-01      1.439746000000000E+01      4.890289000000000E-01     -1.298516000000000E+02
4848000000.000000      6.157227000000000E-01      1.419141000000000E+01      4.855042000000000E-01     -1.305234000000000E+02
4849000000.000000      6.144714000000000E-01      1.430664000000000E+01      4.851990000000000E-01     -1.314844000000000E+02
4850000000.000000      6.174927000000000E-01      1.450977000000000E+01      4.826355000000000E-01     -1.325547000000000E+02
4851000000.000000      6.188660000000000E-01      1.445654000000000E+01      4.819946000000000E-01     -1.331875000000000E+02
4852000000.000000      6.176453000000000E-01      1.464844000000000E+01      4.791412000000000E-01     -1.340547000000000E+02
4853000000.000000      6.199036000000000E-01      1.457471000000000E+01      4.754944000000000E-01     -1.347891000000000E+02
4854000000.000000      6.204834000000000E-01      1.461279000000000E+01      4.738464000000000E-01     -1.357891000000000E+02
4855000000.000000      6.214600000000000E-01      1.467773000000000E+01      4.726868000000000E-01     -1.367891000000000E+02
4856000000.000000      6.222229000000000E-01      1.483545000000000E+01      4.695129000000000E-01     -1.374687000000000E+02
4857000000.000000      6.242371000000000E-01      1.475146000000000E+01      4.678802000000000E-01     -1.382187000000000E+02
4858000000.000000      6.234131000000000E-01      1.488770000000000E+01      4.641571000000000E-01     -1.391875000000000E+02
4859000000.000000      6.275940000000000E-01      1.463623000000000E+01      4.630280000000000E-01     -1.401250000000000E+02
4860000000.000000      6.274414000000000E-01      1.489600000000000E+01      4.580841000000000E-01     -1.407344000000000E+02
4861000000.000000      6.293640000000000E-01      1.480664000000000E+01      4.549255000000000E-01     -1.417578000000000E+02
4862000000.000000      6.300964000000000E-01      1.486426000000000E+01      4.516144000000000E-01     -1.424531000000000E+02
4863000000.000000      6.318970000000000E-01      1.498389000000000E+01      4.465942000000000E-01     -1.433516000000000E+02
4864000000.000000      6.314392000000000E-01      1.489600000000000E+01      4.445801000000000E-01     -1.439141000000000E+02
4865000000.000000      6.334534000000000E-01      1.472705000000000E+01      4.411926000000000E-01     -1.447656000000000E+02
4866000000.000000      6.360168000000000E-01      1.468311000000000E+01      4.357452000000000E-01     -1.456797000000000E+02
4867000000.000000      6.354980000000000E-01      1.473535000000000E+01      4.335175000000000E-01     -1.465547000000000E+02
4868000000.000000      6.376038000000000E-01      1.467773000000000E+01      4.292603000000000E-01     -1.471641000000000E+02
4869000000.000000      6.388550000000000E-01      1.485205000000000E+01      4.259186000000000E-01     -1.478125000000000E+02
4870000000.000000      6.396179000000000E-01      1.467773000000000E+01      4.210663000000000E-01     -1.485391000000000E+02
4871000000.000000      6.393127000000000E-01      1.441650000000000E+01      4.162598000000000E-01     -1.493828000000000E+02
4872000000.000000      6.424866000000000E-01      1.457324000000000E+01      4.121857000000000E-01     -1.498906000000000E+02
4873000000.000000      6.435547000000000E-01      1.462256000000000E+01      4.080200000000000E-01     -1.507813000000000E+02
4874000000.000000      6.455994000000000E-01      1.467334000000000E+01      4.036407000000000E-01     -1.514766000000000E+02
4875000000.000000      6.452332000000000E-01      1.442090000000000E+01      3.992767000000000E-01     -1.519609000000000E+02
4876000000.000000      6.490173000000000E-01      1.449902000000000E+01      3.953552000000000E-01     -1.528203000000000E+02
4877000000.000000      6.490479000000000E-01      1.437549000000000E+01      3.904419000000000E-01     -1.533594000000000E+02
4878000000.000000      6.509399000000000E-01      1.434814000000000E+01      3.857727000000000E-01     -1.538906000000000E+02
4879000000.000000      6.525879000000000E-01      1.425439000000000E+01      3.824463000000000E-01     -1.545547000000000E+02
4880000000.000000      6.534119000000000E-01      1.422314000000000E+01      3.773346000000000E-01     -1.549687000000000E+02
4881000000.000000      6.535034000000000E-01      1.426416000000000E+01      3.730164000000000E-01     -1.555938000000000E+02
4882000000.000000      6.563416000000000E-01      1.420215000000000E+01      3.704376000000000E-01     -1.562578000000000E+02
4883000000.000000      6.563721000000000E-01      1.397705000000000E+01      3.637543000000000E-01     -1.568828000000000E+02
4884000000.000000      6.574097000000000E-01      1.397021000000000E+01      3.595123000000000E-01     -1.571406000000000E+02
4885000000.000000      6.582336000000000E-01      1.391406000000000E+01      3.562164000000000E-01     -1.576719000000000E+02
4886000000.000000      6.595154000000000E-01      1.397168000000000E+01      3.515625000000000E-01     -1.580859000000000E+02
4887000000.000000      6.622314000000000E-01      1.388379000000000E+01      3.484192000000000E-01     -1.588359000000000E+02
4888000000.000000      6.618958000000000E-01      1.368604000000000E+01      3.419495000000000E-01     -1.590469000000000E+02
4889000000.000000      6.627197000000000E-01      1.364893000000000E+01      3.372192000000000E-01     -1.595547000000000E+02
4890000000.000000      6.636353000000000E-01      1.340430000000000E+01      3.342743000000000E-01     -1.603906000000000E+02
4891000000.000000      6.662903000000000E-01      1.337305000000000E+01      3.307495000000000E-01     -1.603359000000000E+02
4892000000.000000      6.665649000000000E-01      1.325195000000000E+01      3.263702000000000E-01     -1.605703000000000E+02
4893000000.000000      6.669617000000000E-01      1.314063000000000E+01      3.221741000000000E-01     -1.612578000000000E+02
4894000000.000000      6.679382000000000E-01      1.316943000000000E+01      3.195038000000000E-01     -1.614922000000000E+02
4895000000.000000      6.698914000000000E-01      1.305029000000000E+01      3.156586000000000E-01     -1.619219000000000E+02
4896000000.000000      6.694641000000000E-01      1.305566000000000E+01      3.113251000000000E-01     -1.623203000000000E+02
4897000000.000000      6.705933000000000E-01      1.286475000000000E+01      3.067169000000000E-01     -1.627500000000000E+02
4898000000.000000      6.714172000000000E-01      1.289648000000000E+01      3.035889000000000E-01     -1.629844000000000E+02
4899000000.000000      6.731262000000000E-01      1.270703000000000E+01      2.998352000000000E-01     -1.635391000000000E+02
4900000000.000000      6.746216000000000E-01      1.246094000000000E+01      2.961884000000000E-01     -1.638359000000000E+02
4901000000.000000      6.721802000000000E-01      1.259033000000000E+01      2.927246000000000E-01     -1.639453000000000E+02
4902000000.000000      6.741028000000000E-01      1.248145000000000E+01      2.890930000000000E-01     -1.642578000000000E+02
4903000000.000000      6.754456000000000E-01      1.242676000000000E+01      2.852020000000000E-01     -1.647500000000000E+02
4904000000.000000      6.753235000000000E-01      1.218750000000000E+01      2.817993000000000E-01     -1.650234000000000E+02
4905000000.000000      6.761780000000000E-01      1.225244000000000E+01      2.789764000000000E-01     -1.654140000000000E+02
4906000000.000000      6.775208000000000E-01      1.202832000000000E+01      2.749176000000000E-01     -1.654844000000000E+02
4907000000.000000      6.778259000000000E-01      1.189111000000000E+01      2.718811000000000E-01     -1.660391000000000E+02
4908000000.000000      6.778259000000000E-01      1.182520000000000E+01      2.686615000000000E-01     -1.664375000000000E+02
4909000000.000000      6.799011000000000E-01      1.162354000000000E+01      2.644958000000000E-01     -1.667422000000000E+02
4910000000.000000      6.804810000000000E-01      1.170166000000000E+01      2.612152000000000E-01     -1.669453000000000E+02
4911000000.000000      6.816101000000000E-01      1.164941000000000E+01      2.582397000000000E-01     -1.670547000000000E+02
4912000000.000000      6.819153000000000E-01      1.128662000000000E+01      2.546539000000000E-01     -1.675078000000000E+02
4913000000.000000      6.835938000000000E-01      1.120459000000000E+01      2.511444000000000E-01     -1.677031000000000E+02
4914000000.000000      6.825256000000000E-01      1.125684000000000E+01      2.474289000000000E-01     -1.678125000000000E+02
4915000000.000000      6.841736000000000E-01      1.121826000000000E+01      2.437286000000000E-01     -1.684141000000000E+02
4916000000.000000      6.838074000000000E-01      1.093506000000000E+01      2.403030000000000E-01     -1.687109000000000E+02
4917000000.000000      6.842957000000000E-01      1.084473000000000E+01      2.370605000000000E-01     -1.688125000000000E+02
4918000000.000000      6.846008000000000E-01      1.074316000000000E+01      2.326736000000000E-01     -1.691406000000000E+02
4919000000.000000      6.845398000000000E-01      1.087500000000000E+01      2.297134000000000E-01     -1.688984000000000E+02
4920000000.000000      6.861877000000000E-01      1.051904000000000E+01      2.255096000000000E-01     -1.696797000000000E+02
4921000000.000000      6.854858000000000E-01      1.061816000000000E+01      2.227859000000000E-01     -1.696484000000000E+02
4922000000.000000      6.869202000000000E-01      1.034912000000000E+01      2.184296000000000E-01     -1.699141000000000E+02
4923000000.000000      6.890869000000000E-01      1.044385000000000E+01      2.140121000000000E-01     -1.700625000000000E+02
4924000000.000000      6.875000000000000E-01      1.037891000000000E+01      2.103882000000000E-01     -1.703828000000000E+02
4925000000.000000      6.886597000000000E-01      1.021973000000000E+01      2.074966000000000E-01     -1.702969000000000E+02
4926000000.000000      6.894531000000000E-01      1.004541000000000E+01      2.040558000000000E-01     -1.706172000000000E+02
4927000000.000000      6.878357000000000E-01      9.818848000000000E+00      2.001038000000000E-01     -1.707500000000000E+02
4928000000.000000      6.899109000000000E-01      9.799805000000000E+00      1.965103000000000E-01     -1.704922000000000E+02
4929000000.000000      6.912842000000000E-01      9.802246000000000E+00      1.921844000000000E-01     -1.706016000000000E+02
4930000000.000000      6.905518000000000E-01      9.724121000000000E+00      1.884308000000000E-01     -1.706875000000000E+02
4931000000.000000      6.905212000000000E-01      9.589355000000000E+00      1.854324000000000E-01     -1.707734000000000E+02
4932000000.000000      6.913757000000000E-01      9.562012000000000E+00      1.812973000000000E-01     -1.705859000000000E+02
4933000000.000000      6.922302000000000E-01      9.456055000000000E+00      1.770096000000000E-01     -1.705703000000000E+02
4934000000.000000      6.939392000000000E-01      9.279297000000000E+00      1.739120000000000E-01     -1.704766000000000E+02
4935000000.000000      6.961670000000000E-01      9.328613000000000E+00      1.708450000000000E-01     -1.700703000000000E+02
4936000000.000000      6.934814000000000E-01      9.002930000000000E+00      1.662674000000000E-01     -1.698672000000000E+02
4937000000.000000      6.951294000000000E-01      8.924805000000000E+00      1.627960000000000E-01     -1.696953000000000E+02
4938000000.000000      6.936035000000000E-01      8.864258000000000E+00      1.595001000000000E-01     -1.692109000000000E+02
4939000000.000000      6.933594000000000E-01      8.972656000000000E+00      1.559982000000000E-01     -1.689766000000000E+02
4940000000.000000      6.933594000000000E-01      8.718750000000000E+00      1.518936000000000E-01     -1.685937000000000E+02
4941000000.000000      6.966553000000000E-01      8.511230000000000E+00      1.488953000000000E-01     -1.679922000000000E+02
4942000000.000000      6.949768000000000E-01      8.566406000000000E+00      1.452560000000000E-01     -1.674453000000000E+02
4943000000.000000      6.958313000000000E-01      8.496094000000000E+00      1.418381000000000E-01     -1.669609000000000E+02
4944000000.000000      6.990051000000000E-01      8.267090000000000E+00      1.390533000000000E-01     -1.662734000000000E+02
4945000000.000000      6.980896000000000E-01      8.202637000000000E+00      1.353989000000000E-01     -1.654531000000000E+02
4946000000.000000      6.987915000000000E-01      8.020020000000000E+00      1.330261000000000E-01     -1.646719000000000E+02
4947000000.000000      6.964722000000000E-01      8.014160000000000E+00      1.290359000000000E-01     -1.636719000000000E+02
4948000000.000000      7.002563000000000E-01      7.895020000000000E+00      1.265793000000000E-01     -1.627812000000000E+02
4949000000.000000      6.991577000000000E-01      7.822266000000000E+00      1.240959000000000E-01     -1.614297000000000E+02
4950000000.000000      6.997375000000000E-01      7.833252000000000E+00      1.215401000000000E-01     -1.604063000000000E+02
4951000000.000000      7.014465000000000E-01      7.599609000000000E+00      1.187401000000000E-01     -1.594766000000000E+02
4952000000.000000      7.013550000000000E-01      7.671143000000000E+00      1.160583000000000E-01     -1.579219000000000E+02
4953000000.000000      7.005005000000000E-01      7.315430000000000E+00      1.144791000000000E-01     -1.563203000000000E+02
4954000000.000000      7.027893000000000E-01      7.320801000000000E+00      1.124763000000000E-01     -1.547656000000000E+02
