! Network Analyzer HP8722D
! Hewlett-Packard
! Data name: Linha & Wilkinson
! Saver's name: Rodrigo Anjos
! Comments: Teste da utilização de aquisição
continua pelo VNA HP8722D
! Time and date: 23/5/2025 08:06
!              Frequency                     S11                                                   S21                                                   S12                                                   S22
# HZ  S  MA R 50
4800000000.000000      4.700623000000000E-01      2.434082000000000E+01      4.212646000000000E-01     -1.125937000000000E+02
4801000000.000000      4.688110000000000E-01      2.478613000000000E+01      4.239197000000000E-01     -1.131406000000000E+02
4802000000.000000      4.691467000000000E-01      2.466113000000000E+01      4.244232000000000E-01     -1.139844000000000E+02
4803000000.000000      4.693298000000000E-01      2.489746000000000E+01      4.274750000000000E-01     -1.145391000000000E+02
4804000000.000000      4.689331000000000E-01      2.473828000000000E+01      4.281006000000000E-01     -1.152578000000000E+02
4805000000.000000      4.700775000000000E-01      2.480957000000000E+01      4.287720000000000E-01     -1.159922000000000E+02
4806000000.000000      4.671631000000000E-01      2.495117000000000E+01      4.305573000000000E-01     -1.166406000000000E+02
4807000000.000000      4.677887000000000E-01      2.509766000000000E+01      4.316406000000000E-01     -1.172383000000000E+02
4808000000.000000      4.656982000000000E-01      2.521484000000000E+01      4.336090000000000E-01     -1.181953000000000E+02
4809000000.000000      4.683075000000000E-01      2.540918000000000E+01      4.340515000000000E-01     -1.190859000000000E+02
4810000000.000000      4.678955000000000E-01      2.534668000000000E+01      4.349670000000000E-01     -1.197266000000000E+02
4811000000.000000      4.679260000000000E-01      2.563867000000000E+01      4.359283000000000E-01     -1.205508000000000E+02
4812000000.000000      4.683075000000000E-01      2.565430000000000E+01      4.365234000000000E-01     -1.212539000000000E+02
4813000000.000000      4.690704000000000E-01      2.572851000000000E+01      4.369354000000000E-01     -1.219062000000000E+02
4814000000.000000      4.676666000000000E-01      2.581640000000000E+01      4.394989000000000E-01     -1.226523000000000E+02
4815000000.000000      4.693451000000000E-01      2.601953000000000E+01      4.393768000000000E-01     -1.234922000000000E+02
4816000000.000000      4.707489000000000E-01      2.591113000000000E+01      4.401398000000000E-01     -1.242109000000000E+02
4817000000.000000      4.699249000000000E-01      2.629101000000000E+01      4.402161000000000E-01     -1.247852000000000E+02
4818000000.000000      4.694519000000000E-01      2.624902000000000E+01      4.413605000000000E-01     -1.257227000000000E+02
4819000000.000000      4.701385000000000E-01      2.650293000000000E+01      4.415588000000000E-01     -1.264766000000000E+02
4820000000.000000      4.693451000000000E-01      2.650586000000000E+01      4.417877000000000E-01     -1.269727000000000E+02
4821000000.000000      4.727325000000000E-01      2.674316000000000E+01      4.414520000000000E-01     -1.279688000000000E+02
4822000000.000000      4.721069000000000E-01      2.651660000000000E+01      4.403076000000000E-01     -1.284688000000000E+02
4823000000.000000      4.729462000000000E-01      2.654492000000000E+01      4.415283000000000E-01     -1.294531000000000E+02
4824000000.000000      4.730682000000000E-01      2.679688000000000E+01      4.418793000000000E-01     -1.300703000000000E+02
4825000000.000000      4.766998000000000E-01      2.710644000000000E+01      4.417419000000000E-01     -1.308281000000000E+02
4826000000.000000      4.750214000000000E-01      2.694531000000000E+01      4.424896000000000E-01     -1.318203000000000E+02
4827000000.000000      4.754486000000000E-01      2.706836000000000E+01      4.415588000000000E-01     -1.321719000000000E+02
4828000000.000000      4.764557000000000E-01      2.724121000000000E+01      4.415283000000000E-01     -1.329922000000000E+02
4829000000.000000      4.785767000000000E-01      2.722656000000000E+01      4.418030000000000E-01     -1.337344000000000E+02
4830000000.000000      4.799194000000000E-01      2.739843000000000E+01      4.414520000000000E-01     -1.344687000000000E+02
4831000000.000000      4.793091000000000E-01      2.717285000000000E+01      4.418488000000000E-01     -1.352734000000000E+02
4832000000.000000      4.805145000000000E-01      2.743359000000000E+01      4.409790000000000E-01     -1.359062000000000E+02
4833000000.000000      4.818878000000000E-01      2.720312000000000E+01      4.398651000000000E-01     -1.365937000000000E+02
4834000000.000000      4.826965000000000E-01      2.726367000000000E+01      4.403839000000000E-01     -1.376250000000000E+02
4835000000.000000      4.833069000000000E-01      2.738867000000000E+01      4.392700000000000E-01     -1.382422000000000E+02
4836000000.000000      4.848328000000000E-01      2.755566000000000E+01      4.378204000000000E-01     -1.390156000000000E+02
4837000000.000000      4.861755000000000E-01      2.780957000000000E+01      4.377136000000000E-01     -1.396719000000000E+02
4838000000.000000      4.868469000000000E-01      2.762207000000000E+01      4.376678000000000E-01     -1.403437000000000E+02
4839000000.000000      4.895172000000000E-01      2.758496000000000E+01      4.372559000000000E-01     -1.411484000000000E+02
4840000000.000000      4.902344000000000E-01      2.754492000000000E+01      4.365387000000000E-01     -1.417266000000000E+02
4841000000.000000      4.914703000000000E-01      2.758203000000000E+01      4.367371000000000E-01     -1.425937000000000E+02
4842000000.000000      4.922485000000000E-01      2.746582000000000E+01      4.340057000000000E-01     -1.430859000000000E+02
4843000000.000000      4.953308000000000E-01      2.752344000000000E+01      4.353485000000000E-01     -1.441328000000000E+02
4844000000.000000      4.966431000000000E-01      2.748047000000000E+01      4.318695000000000E-01     -1.448516000000000E+02
4845000000.000000      4.952545000000000E-01      2.765918000000000E+01      4.305573000000000E-01     -1.454531000000000E+02
4846000000.000000      4.974976000000000E-01      2.775097000000000E+01      4.306335000000000E-01     -1.463203000000000E+02
4847000000.000000      4.986267000000000E-01      2.758301000000000E+01      4.296265000000000E-01     -1.469297000000000E+02
4848000000.000000      5.002747000000000E-01      2.746094000000000E+01      4.282684000000000E-01     -1.477890000000000E+02
4849000000.000000      5.013733000000000E-01      2.732910000000000E+01      4.266968000000000E-01     -1.486016000000000E+02
4850000000.000000      5.025940000000000E-01      2.748730000000000E+01      4.249573000000000E-01     -1.493359000000000E+02
4851000000.000000      5.046387000000000E-01      2.743555000000000E+01      4.247284000000000E-01     -1.501406000000000E+02
4852000000.000000      5.048828000000000E-01      2.734570000000000E+01      4.224701000000000E-01     -1.507891000000000E+02
4853000000.000000      5.064392000000000E-01      2.741015000000000E+01      4.191437000000000E-01     -1.517578000000000E+02
4854000000.000000      5.060120000000000E-01      2.726367000000000E+01      4.181976000000000E-01     -1.524531000000000E+02
4855000000.000000      5.080872000000000E-01      2.707031000000000E+01      4.166107000000000E-01     -1.532109000000000E+02
4856000000.000000      5.101013000000000E-01      2.707226000000000E+01      4.155273000000000E-01     -1.538672000000000E+02
4857000000.000000      5.137024000000000E-01      2.714160000000000E+01      4.134064000000000E-01     -1.547500000000000E+02
4858000000.000000      5.115662000000000E-01      2.688965000000000E+01      4.103241000000000E-01     -1.555781000000000E+02
4859000000.000000      5.144653000000000E-01      2.670996000000000E+01      4.099579000000000E-01     -1.563906000000000E+02
4860000000.000000      5.156555000000000E-01      2.674316000000000E+01      4.060669000000000E-01     -1.572109000000000E+02
4861000000.000000      5.170593000000000E-01      2.676660000000000E+01      4.025726000000000E-01     -1.578047000000000E+02
4862000000.000000      5.162659000000000E-01      2.656445000000000E+01      4.016113000000000E-01     -1.582734000000000E+02
4863000000.000000      5.177917000000000E-01      2.643164000000000E+01      3.979950000000000E-01     -1.593828000000000E+02
4864000000.000000      5.194397000000000E-01      2.617969000000000E+01      3.964233000000000E-01     -1.599531000000000E+02
4865000000.000000      5.209351000000000E-01      2.614258000000000E+01      3.917236000000000E-01     -1.605625000000000E+02
4866000000.000000      5.213013000000000E-01      2.604101000000000E+01      3.895264000000000E-01     -1.614687000000000E+02
4867000000.000000      5.220947000000000E-01      2.604687000000000E+01      3.864899000000000E-01     -1.622266000000000E+02
4868000000.000000      5.232849000000000E-01      2.600293000000000E+01      3.845367000000000E-01     -1.629922000000000E+02
4869000000.000000      5.252991000000000E-01      2.579590000000000E+01      3.805084000000000E-01     -1.637734000000000E+02
4870000000.000000      5.247803000000000E-01      2.562207000000000E+01      3.770905000000000E-01     -1.644453000000000E+02
4871000000.000000      5.260315000000000E-01      2.548047000000000E+01      3.739319000000000E-01     -1.650547000000000E+02
4872000000.000000      5.299683000000000E-01      2.546679000000000E+01      3.704071000000000E-01     -1.654766000000000E+02
4873000000.000000      5.276489000000000E-01      2.529004000000000E+01      3.681335000000000E-01     -1.665313000000000E+02
4874000000.000000      5.283508000000000E-01      2.531738000000000E+01      3.639221000000000E-01     -1.669609000000000E+02
4875000000.000000      5.296631000000000E-01      2.517090000000000E+01      3.616028000000000E-01     -1.676484000000000E+02
4876000000.000000      5.319519000000000E-01      2.495508000000000E+01      3.582764000000000E-01     -1.681406000000000E+02
4877000000.000000      5.350342000000000E-01      2.473828000000000E+01      3.536682000000000E-01     -1.690547000000000E+02
4878000000.000000      5.335083000000000E-01      2.461816000000000E+01      3.499908000000000E-01     -1.695469000000000E+02
4879000000.000000      5.353699000000000E-01      2.447558000000000E+01      3.457642000000000E-01     -1.699141000000000E+02
4880000000.000000      5.352173000000000E-01      2.437695000000000E+01      3.435974000000000E-01     -1.706719000000000E+02
4881000000.000000      5.349426000000000E-01      2.427832000000000E+01      3.394928000000000E-01     -1.713828000000000E+02
4882000000.000000      5.382996000000000E-01      2.409961000000000E+01      3.372040000000000E-01     -1.715156000000000E+02
4883000000.000000      5.374451000000000E-01      2.387402000000000E+01      3.330841000000000E-01     -1.722344000000000E+02
4884000000.000000      5.373230000000000E-01      2.389062000000000E+01      3.289948000000000E-01     -1.729844000000000E+02
4885000000.000000      5.383606000000000E-01      2.364356000000000E+01      3.247375000000000E-01     -1.731953000000000E+02
4886000000.000000      5.404358000000000E-01      2.357031000000000E+01      3.224030000000000E-01     -1.736172000000000E+02
4887000000.000000      5.411377000000000E-01      2.345410000000000E+01      3.201294000000000E-01     -1.743672000000000E+02
4888000000.000000      5.414124000000000E-01      2.321191000000000E+01      3.166351000000000E-01     -1.747422000000000E+02
4889000000.000000      5.408020000000000E-01      2.306152000000000E+01      3.120270000000000E-01     -1.752422000000000E+02
4890000000.000000      5.405273000000000E-01      2.285937000000000E+01      3.086853000000000E-01     -1.760469000000000E+02
4891000000.000000      5.419617000000000E-01      2.258887000000000E+01      3.050842000000000E-01     -1.763672000000000E+02
4892000000.000000      5.421143000000000E-01      2.267676000000000E+01      3.021698000000000E-01     -1.765469000000000E+02
4893000000.000000      5.434875000000000E-01      2.236230000000000E+01      2.982483000000000E-01     -1.771172000000000E+02
4894000000.000000      5.437317000000000E-01      2.231934000000000E+01      2.947693000000000E-01     -1.775469000000000E+02
4895000000.000000      5.448608000000000E-01      2.219629000000000E+01      2.924500000000000E-01     -1.779219000000000E+02
4896000000.000000      5.445557000000000E-01      2.186230000000000E+01      2.893372000000000E-01     -1.782812000000000E+02
4897000000.000000      5.460510000000000E-01      2.187695000000000E+01      2.852173000000000E-01     -1.788437000000000E+02
4898000000.000000      5.451355000000000E-01      2.184082000000000E+01      2.826538000000000E-01     -1.790078000000000E+02
4899000000.000000      5.453796000000000E-01      2.164355000000000E+01      2.783813000000000E-01     -1.794453000000000E+02
4900000000.000000      5.443115000000000E-01      2.159570000000000E+01      2.756195000000000E-01     -1.798437000000000E+02
4901000000.000000      5.439758000000000E-01      2.131152000000000E+01      2.726593000000000E-01      1.797188000000000E+02
4902000000.000000      5.462952000000000E-01      2.123047000000000E+01      2.699585000000000E-01      1.793672000000000E+02
4903000000.000000      5.443726000000000E-01      2.123437000000000E+01      2.657318000000000E-01      1.791563000000000E+02
4904000000.000000      5.463867000000000E-01      2.094238000000000E+01      2.629852000000000E-01      1.786172000000000E+02
4905000000.000000      5.470886000000000E-01      2.082520000000000E+01      2.600098000000000E-01      1.781797000000000E+02
4906000000.000000      5.453491000000000E-01      2.058692000000000E+01      2.567902000000000E-01      1.781953000000000E+02
4907000000.000000      5.462341000000000E-01      2.050683000000000E+01      2.541809000000000E-01      1.775781000000000E+02
4908000000.000000      5.477295000000000E-01      2.041308000000000E+01      2.509613000000000E-01      1.771250000000000E+02
4909000000.000000      5.468140000000000E-01      2.036133000000000E+01      2.477798000000000E-01      1.767656000000000E+02
4910000000.000000      5.479736000000000E-01      2.025391000000000E+01      2.446442000000000E-01      1.764922000000000E+02
4911000000.000000      5.473328000000000E-01      2.015918000000000E+01      2.418671000000000E-01      1.761562000000000E+02
4912000000.000000      5.478516000000000E-01      1.982617000000000E+01      2.379074000000000E-01      1.756953000000000E+02
4913000000.000000      5.488892000000000E-01      1.981641000000000E+01      2.350769000000000E-01      1.755391000000000E+02
4914000000.000000      5.494385000000000E-01      1.952929000000000E+01      2.316208000000000E-01      1.753125000000000E+02
4915000000.000000      5.482483000000000E-01      1.959765000000000E+01      2.282715000000000E-01      1.748203000000000E+02
4916000000.000000      5.487061000000000E-01      1.941895000000000E+01      2.254486000000000E-01      1.743984000000000E+02
4917000000.000000      5.473328000000000E-01      1.935351000000000E+01      2.218933000000000E-01      1.743594000000000E+02
4918000000.000000      5.498352000000000E-01      1.910352000000000E+01      2.178955000000000E-01      1.739219000000000E+02
4919000000.000000      5.474548000000000E-01      1.897656000000000E+01      2.155228000000000E-01      1.737890000000000E+02
4920000000.000000      5.498962000000000E-01      1.868457000000000E+01      2.116394000000000E-01      1.733516000000000E+02
4921000000.000000      5.476685000000000E-01      1.858887000000000E+01      2.090073000000000E-01      1.732188000000000E+02
4922000000.000000      5.491943000000000E-01      1.853711000000000E+01      2.052994000000000E-01      1.731094000000000E+02
4923000000.000000      5.480347000000000E-01      1.856543000000000E+01      2.017670000000000E-01      1.729844000000000E+02
4924000000.000000      5.510254000000000E-01      1.831640000000000E+01      1.982803000000000E-01      1.723438000000000E+02
4925000000.000000      5.501404000000000E-01      1.798242000000000E+01      1.951523000000000E-01      1.725000000000000E+02
4926000000.000000      5.493469000000000E-01      1.814355000000000E+01      1.920319000000000E-01      1.722969000000000E+02
4927000000.000000      5.506897000000000E-01      1.776953000000000E+01      1.879196000000000E-01      1.722734000000000E+02
4928000000.000000      5.502319000000000E-01      1.786230000000000E+01      1.847000000000000E-01      1.720312000000000E+02
4929000000.000000      5.505981000000000E-01      1.754980000000000E+01      1.807327000000000E-01      1.720156000000000E+02
4930000000.000000      5.508423000000000E-01      1.745312000000000E+01      1.778030000000000E-01      1.717891000000000E+02
4931000000.000000      5.495911000000000E-01      1.729101000000000E+01      1.741180000000000E-01      1.718594000000000E+02
4932000000.000000      5.508728000000000E-01      1.743457000000000E+01      1.707764000000000E-01      1.719063000000000E+02
4933000000.000000      5.518799000000000E-01      1.721191000000000E+01      1.666946000000000E-01      1.720937000000000E+02
4934000000.000000      5.535889000000000E-01      1.699023000000000E+01      1.633835000000000E-01      1.719687000000000E+02
4935000000.000000      5.513611000000000E-01      1.681641000000000E+01      1.607285000000000E-01      1.723047000000000E+02
4936000000.000000      5.512390000000000E-01      1.660254000000000E+01      1.566620000000000E-01      1.724141000000000E+02
4937000000.000000      5.529480000000000E-01      1.653418000000000E+01      1.537323000000000E-01      1.725547000000000E+02
4938000000.000000      5.510254000000000E-01      1.643066000000000E+01      1.504593000000000E-01      1.728594000000000E+02
4939000000.000000      5.522156000000000E-01      1.663281000000000E+01      1.466599000000000E-01      1.730625000000000E+02
4940000000.000000      5.524292000000000E-01      1.635840000000000E+01      1.433334000000000E-01      1.731328000000000E+02
4941000000.000000      5.513916000000000E-01      1.622461000000000E+01      1.404648000000000E-01      1.738828000000000E+02
4942000000.000000      5.502930000000000E-01      1.600683000000000E+01      1.369324000000000E-01      1.743594000000000E+02
4943000000.000000      5.517883000000000E-01      1.595215000000000E+01      1.337051000000000E-01      1.748281000000000E+02
4944000000.000000      5.513916000000000E-01      1.586523000000000E+01      1.308060000000000E-01      1.755938000000000E+02
4945000000.000000      5.524292000000000E-01      1.556055000000000E+01      1.273727000000000E-01      1.761953000000000E+02
4946000000.000000      5.543518000000000E-01      1.555225000000000E+01      1.250916000000000E-01      1.771563000000000E+02
4947000000.000000      5.521240000000000E-01      1.534082000000000E+01      1.218491000000000E-01      1.778672000000000E+02
4948000000.000000      5.523682000000000E-01      1.539307000000000E+01      1.193161000000000E-01      1.786719000000000E+02
4949000000.000000      5.523071000000000E-01      1.517871000000000E+01      1.166573000000000E-01      1.799141000000000E+02
4950000000.000000      5.528870000000000E-01      1.516211000000000E+01      1.138115000000000E-01     -1.791719000000000E+02
4951000000.000000      5.529480000000000E-01      1.494141000000000E+01      1.119308000000000E-01     -1.780703000000000E+02
4952000000.000000      5.515747000000000E-01      1.492041000000000E+01      1.090012000000000E-01     -1.767187000000000E+02
4953000000.000000      5.531006000000000E-01      1.463916000000000E+01      1.075096000000000E-01     -1.753750000000000E+02
4954000000.000000      5.536499000000000E-01      1.463477000000000E+01      1.054230000000000E-01     -1.738203000000000E+02
