! Network Analyzer HP8722D
! Hewlett-Packard
! Data name: Linha & Wilkinson
! Saver's name: Rodrigo Anjos
! Comments: Teste da utilização de aquisição
continua pelo VNA HP8722D
! Time and date: 23/5/2025 08:56
!              Frequency                     S11                                                   S21                                                   S12                                                   S22
# HZ  S  MA R 50
4800000000.000000      3.445587000000000E-01      3.435547000000000E+01      4.535675000000000E-01     -1.253711000000000E+02
4801000000.000000      3.454132000000000E-01      3.457226000000000E+01      4.558258000000000E-01     -1.258672000000000E+02
4802000000.000000      3.456879000000000E-01      3.472461000000000E+01      4.559021000000000E-01     -1.268359000000000E+02
4803000000.000000      3.458710000000000E-01      3.481250000000000E+01      4.604340000000000E-01     -1.272890000000000E+02
4804000000.000000      3.470917000000000E-01      3.510351000000000E+01      4.619293000000000E-01     -1.281484000000000E+02
4805000000.000000      3.489075000000000E-01      3.512695000000000E+01      4.612122000000000E-01     -1.289609000000000E+02
4806000000.000000      3.490601000000000E-01      3.523828000000000E+01      4.638214000000000E-01     -1.294688000000000E+02
4807000000.000000      3.498077000000000E-01      3.544726000000000E+01      4.638214000000000E-01     -1.303281000000000E+02
4808000000.000000      3.499756000000000E-01      3.569140000000000E+01      4.662018000000000E-01     -1.309687000000000E+02
4809000000.000000      3.518829000000000E-01      3.593359000000000E+01      4.677582000000000E-01     -1.317812000000000E+02
4810000000.000000      3.530426000000000E-01      3.600195000000000E+01      4.699860000000000E-01     -1.324063000000000E+02
4811000000.000000      3.544922000000000E-01      3.611328000000000E+01      4.702301000000000E-01     -1.334141000000000E+02
4812000000.000000      3.563232000000000E-01      3.629101000000000E+01      4.712372000000000E-01     -1.340391000000000E+02
4813000000.000000      3.567657000000000E-01      3.639453000000000E+01      4.705963000000000E-01     -1.347891000000000E+02
4814000000.000000      3.573608000000000E-01      3.637890000000000E+01      4.709625000000000E-01     -1.353047000000000E+02
4815000000.000000      3.582611000000000E-01      3.658984000000000E+01      4.734497000000000E-01     -1.360859000000000E+02
4816000000.000000      3.605652000000000E-01      3.666797000000000E+01      4.732971000000000E-01     -1.368750000000000E+02
4817000000.000000      3.608398000000000E-01      3.685742000000000E+01      4.736481000000000E-01     -1.376328000000000E+02
4818000000.000000      3.627930000000000E-01      3.680859000000000E+01      4.733124000000000E-01     -1.385234000000000E+02
4819000000.000000      3.644104000000000E-01      3.689062000000000E+01      4.747772000000000E-01     -1.393359000000000E+02
4820000000.000000      3.651733000000000E-01      3.697851000000000E+01      4.742584000000000E-01     -1.398750000000000E+02
4821000000.000000      3.668671000000000E-01      3.698828000000000E+01      4.739990000000000E-01     -1.406172000000000E+02
4822000000.000000      3.675995000000000E-01      3.696875000000000E+01      4.727020000000000E-01     -1.413672000000000E+02
4823000000.000000      3.692780000000000E-01      3.703125000000000E+01      4.757233000000000E-01     -1.421484000000000E+02
4824000000.000000      3.708496000000000E-01      3.720312000000000E+01      4.750824000000000E-01     -1.428594000000000E+02
4825000000.000000      3.728485000000000E-01      3.710351000000000E+01      4.737091000000000E-01     -1.435859000000000E+02
4826000000.000000      3.742218000000000E-01      3.716211000000000E+01      4.757843000000000E-01     -1.443203000000000E+02
4827000000.000000      3.757935000000000E-01      3.715039000000000E+01      4.742889000000000E-01     -1.450391000000000E+02
4828000000.000000      3.776093000000000E-01      3.716797000000000E+01      4.740448000000000E-01     -1.457891000000000E+02
4829000000.000000      3.790131000000000E-01      3.734961000000000E+01      4.738312000000000E-01     -1.464219000000000E+02
4830000000.000000      3.803101000000000E-01      3.723437000000000E+01      4.732666000000000E-01     -1.470781000000000E+02
4831000000.000000      3.820343000000000E-01      3.714258000000000E+01      4.722748000000000E-01     -1.479609000000000E+02
4832000000.000000      3.835907000000000E-01      3.721680000000000E+01      4.722900000000000E-01     -1.484688000000000E+02
4833000000.000000      3.844910000000000E-01      3.711523000000000E+01      4.718018000000000E-01     -1.492422000000000E+02
4834000000.000000      3.861084000000000E-01      3.704102000000000E+01      4.703522000000000E-01     -1.499844000000000E+02
4835000000.000000      3.885956000000000E-01      3.695117000000000E+01      4.700928000000000E-01     -1.506562000000000E+02
4836000000.000000      3.905029000000000E-01      3.694336000000000E+01      4.681091000000000E-01     -1.514922000000000E+02
4837000000.000000      3.916016000000000E-01      3.693359000000000E+01      4.666290000000000E-01     -1.522656000000000E+02
4838000000.000000      3.920288000000000E-01      3.683008000000000E+01      4.683990000000000E-01     -1.526562000000000E+02
4839000000.000000      3.958130000000000E-01      3.679688000000000E+01      4.657593000000000E-01     -1.535391000000000E+02
4840000000.000000      3.962708000000000E-01      3.655859000000000E+01      4.641724000000000E-01     -1.542578000000000E+02
4841000000.000000      3.981476000000000E-01      3.655468000000000E+01      4.652863000000000E-01     -1.551406000000000E+02
4842000000.000000      3.988647000000000E-01      3.645117000000000E+01      4.649200000000000E-01     -1.557500000000000E+02
4843000000.000000      4.017487000000000E-01      3.616406000000000E+01      4.628906000000000E-01     -1.565156000000000E+02
4844000000.000000      4.026794000000000E-01      3.609375000000000E+01      4.617767000000000E-01     -1.572656000000000E+02
4845000000.000000      4.038544000000000E-01      3.607422000000000E+01      4.592743000000000E-01     -1.578594000000000E+02
4846000000.000000      4.060364000000000E-01      3.591015000000000E+01      4.581451000000000E-01     -1.586406000000000E+02
4847000000.000000      4.078522000000000E-01      3.586328000000000E+01      4.564209000000000E-01     -1.591797000000000E+02
4848000000.000000      4.080353000000000E-01      3.565430000000000E+01      4.544830000000000E-01     -1.599844000000000E+02
4849000000.000000      4.101868000000000E-01      3.538671000000000E+01      4.533234000000000E-01     -1.608047000000000E+02
4850000000.000000      4.111481000000000E-01      3.542187000000000E+01      4.507294000000000E-01     -1.614844000000000E+02
4851000000.000000      4.122620000000000E-01      3.527929000000000E+01      4.509583000000000E-01     -1.622344000000000E+02
4852000000.000000      4.141541000000000E-01      3.508594000000000E+01      4.474487000000000E-01     -1.628828000000000E+02
4853000000.000000      4.154510000000000E-01      3.502539000000000E+01      4.437408000000000E-01     -1.636641000000000E+02
4854000000.000000      4.165802000000000E-01      3.480469000000000E+01      4.439392000000000E-01     -1.645313000000000E+02
4855000000.000000      4.176788000000000E-01      3.461328000000000E+01      4.418640000000000E-01     -1.651719000000000E+02
4856000000.000000      4.186707000000000E-01      3.441992000000000E+01      4.392242000000000E-01     -1.658672000000000E+02
4857000000.000000      4.203186000000000E-01      3.427539000000000E+01      4.383545000000000E-01     -1.664609000000000E+02
4858000000.000000      4.208984000000000E-01      3.408984000000000E+01      4.351807000000000E-01     -1.672422000000000E+02
4859000000.000000      4.229279000000000E-01      3.379492000000000E+01      4.340668000000000E-01     -1.679609000000000E+02
4860000000.000000      4.234161000000000E-01      3.379101000000000E+01      4.301300000000000E-01     -1.686328000000000E+02
4861000000.000000      4.234467000000000E-01      3.350390000000000E+01      4.272919000000000E-01     -1.694922000000000E+02
4862000000.000000      4.246826000000000E-01      3.336133000000000E+01      4.269104000000000E-01     -1.700625000000000E+02
4863000000.000000      4.255981000000000E-01      3.309765000000000E+01      4.221649000000000E-01     -1.707500000000000E+02
4864000000.000000      4.279480000000000E-01      3.289258000000000E+01      4.216003000000000E-01     -1.714375000000000E+02
4865000000.000000      4.280396000000000E-01      3.268555000000000E+01      4.184265000000000E-01     -1.720078000000000E+02
4866000000.000000      4.296265000000000E-01      3.243359000000000E+01      4.150696000000000E-01     -1.727109000000000E+02
4867000000.000000      4.287872000000000E-01      3.237109000000000E+01      4.119110000000000E-01     -1.736875000000000E+02
4868000000.000000      4.312286000000000E-01      3.208593000000000E+01      4.085541000000000E-01     -1.741484000000000E+02
4869000000.000000      4.312134000000000E-01      3.174609000000000E+01      4.070282000000000E-01     -1.748281000000000E+02
4870000000.000000      4.323120000000000E-01      3.181347000000000E+01      4.020233000000000E-01     -1.752812000000000E+02
4871000000.000000      4.329681000000000E-01      3.137695000000000E+01      3.994293000000000E-01     -1.762266000000000E+02
4872000000.000000      4.350586000000000E-01      3.122656000000000E+01      3.954315000000000E-01     -1.766953000000000E+02
4873000000.000000      4.348602000000000E-01      3.115820000000000E+01      3.926849000000000E-01     -1.774297000000000E+02
4874000000.000000      4.351349000000000E-01      3.093847000000000E+01      3.901825000000000E-01     -1.779453000000000E+02
4875000000.000000      4.356995000000000E-01      3.058594000000000E+01      3.850861000000000E-01     -1.787266000000000E+02
4876000000.000000      4.373016000000000E-01      3.044238000000000E+01      3.833771000000000E-01     -1.791172000000000E+02
4877000000.000000      4.379578000000000E-01      3.012500000000000E+01      3.798370000000000E-01     -1.797578000000000E+02
4878000000.000000      4.376678000000000E-01      2.997754000000000E+01      3.766479000000000E-01      1.795859000000000E+02
4879000000.000000      4.383545000000000E-01      2.986133000000000E+01      3.720856000000000E-01      1.790547000000000E+02
4880000000.000000      4.395294000000000E-01      2.951172000000000E+01      3.700409000000000E-01      1.784609000000000E+02
4881000000.000000      4.396057000000000E-01      2.936035000000000E+01      3.666229000000000E-01      1.780937000000000E+02
4882000000.000000      4.410706000000000E-01      2.922070000000000E+01      3.617706000000000E-01      1.772422000000000E+02
4883000000.000000      4.400482000000000E-01      2.902148000000000E+01      3.592529000000000E-01      1.768984000000000E+02
4884000000.000000      4.403992000000000E-01      2.888379000000000E+01      3.554993000000000E-01      1.762187000000000E+02
4885000000.000000      4.412842000000000E-01      2.861621000000000E+01      3.519287000000000E-01      1.759375000000000E+02
4886000000.000000      4.405212000000000E-01      2.846386000000000E+01      3.489227000000000E-01      1.754062000000000E+02
4887000000.000000      4.416656000000000E-01      2.829199000000000E+01      3.444214000000000E-01      1.748594000000000E+02
4888000000.000000      4.407501000000000E-01      2.781250000000000E+01      3.421478000000000E-01      1.745000000000000E+02
4889000000.000000      4.429321000000000E-01      2.770410000000000E+01      3.384094000000000E-01      1.739297000000000E+02
4890000000.000000      4.408722000000000E-01      2.744238000000000E+01      3.339386000000000E-01      1.731562000000000E+02
4891000000.000000      4.426727000000000E-01      2.723145000000000E+01      3.316650000000000E-01      1.728984000000000E+02
4892000000.000000      4.414673000000000E-01      2.726367000000000E+01      3.279572000000000E-01      1.723750000000000E+02
4893000000.000000      4.429626000000000E-01      2.688867000000000E+01      3.234711000000000E-01      1.718750000000000E+02
4894000000.000000      4.420471000000000E-01      2.666992000000000E+01      3.213959000000000E-01      1.717266000000000E+02
4895000000.000000      4.433746000000000E-01      2.658105000000000E+01      3.186646000000000E-01      1.713281000000000E+02
4896000000.000000      4.420776000000000E-01      2.645605000000000E+01      3.148956000000000E-01      1.707109000000000E+02
4897000000.000000      4.420166000000000E-01      2.623535000000000E+01      3.108978000000000E-01      1.703672000000000E+02
4898000000.000000      4.438934000000000E-01      2.616308000000000E+01      3.076477000000000E-01      1.699687000000000E+02
4899000000.000000      4.427490000000000E-01      2.586230000000000E+01      3.047333000000000E-01      1.695703000000000E+02
4900000000.000000      4.433289000000000E-01      2.561718000000000E+01      3.015900000000000E-01      1.693594000000000E+02
4901000000.000000      4.436951000000000E-01      2.546972000000000E+01      2.979889000000000E-01      1.686797000000000E+02
4902000000.000000      4.419708000000000E-01      2.515820000000000E+01      2.951202000000000E-01      1.684844000000000E+02
4903000000.000000      4.430237000000000E-01      2.516797000000000E+01      2.908936000000000E-01      1.680625000000000E+02
4904000000.000000      4.426422000000000E-01      2.470215000000000E+01      2.879333000000000E-01      1.677500000000000E+02
4905000000.000000      4.421997000000000E-01      2.480664000000000E+01      2.847900000000000E-01      1.672578000000000E+02
4906000000.000000      4.439240000000000E-01      2.456250000000000E+01      2.817993000000000E-01      1.671406000000000E+02
4907000000.000000      4.429321000000000E-01      2.444238000000000E+01      2.789917000000000E-01      1.664453000000000E+02
4908000000.000000      4.427490000000000E-01      2.420898000000000E+01      2.752838000000000E-01      1.658984000000000E+02
4909000000.000000      4.408264000000000E-01      2.418750000000000E+01      2.714539000000000E-01      1.656250000000000E+02
4910000000.000000      4.419708000000000E-01      2.385644000000000E+01      2.684784000000000E-01      1.653906000000000E+02
4911000000.000000      4.417725000000000E-01      2.369141000000000E+01      2.651520000000000E-01      1.650859000000000E+02
4912000000.000000      4.424591000000000E-01      2.360058000000000E+01      2.616119000000000E-01      1.646641000000000E+02
4913000000.000000      4.431152000000000E-01      2.344727000000000E+01      2.583160000000000E-01      1.642344000000000E+02
4914000000.000000      4.414673000000000E-01      2.318457000000000E+01      2.547913000000000E-01      1.640469000000000E+02
4915000000.000000      4.418488000000000E-01      2.290722000000000E+01      2.516479000000000E-01      1.635547000000000E+02
4916000000.000000      4.396820000000000E-01      2.278906000000000E+01      2.477570000000000E-01      1.630156000000000E+02
4917000000.000000      4.399109000000000E-01      2.267285000000000E+01      2.443085000000000E-01      1.629922000000000E+02
4918000000.000000      4.413452000000000E-01      2.262890000000000E+01      2.405548000000000E-01      1.627500000000000E+02
4919000000.000000      4.402618000000000E-01      2.226758000000000E+01      2.378922000000000E-01      1.625625000000000E+02
4920000000.000000      4.417877000000000E-01      2.207226000000000E+01      2.336807000000000E-01      1.620234000000000E+02
4921000000.000000      4.402008000000000E-01      2.226758000000000E+01      2.306213000000000E-01      1.618203000000000E+02
4922000000.000000      4.394684000000000E-01      2.198828000000000E+01      2.266083000000000E-01      1.618515000000000E+02
4923000000.000000      4.402771000000000E-01      2.183300000000000E+01      2.225342000000000E-01      1.614766000000000E+02
4924000000.000000      4.395447000000000E-01      2.175683000000000E+01      2.190552000000000E-01      1.609219000000000E+02
4925000000.000000      4.394684000000000E-01      2.146387000000000E+01      2.151489000000000E-01      1.609453000000000E+02
4926000000.000000      4.393158000000000E-01      2.153320000000000E+01      2.112808000000000E-01      1.606484000000000E+02
4927000000.000000      4.398956000000000E-01      2.114551000000000E+01      2.075424000000000E-01      1.604922000000000E+02
4928000000.000000      4.408417000000000E-01      2.098242000000000E+01      2.042007000000000E-01      1.603672000000000E+02
4929000000.000000      4.391632000000000E-01      2.093359000000000E+01      1.997223000000000E-01      1.602266000000000E+02
4930000000.000000      4.393768000000000E-01      2.061230000000000E+01      1.967850000000000E-01      1.602344000000000E+02
4931000000.000000      4.386749000000000E-01      2.048926000000000E+01      1.931000000000000E-01      1.602266000000000E+02
4932000000.000000      4.401398000000000E-01      2.020606000000000E+01      1.887207000000000E-01      1.600781000000000E+02
4933000000.000000      4.392548000000000E-01      2.030371000000000E+01      1.842422000000000E-01      1.603125000000000E+02
4934000000.000000      4.393005000000000E-01      1.987402000000000E+01      1.814194000000000E-01      1.600234000000000E+02
4935000000.000000      4.392853000000000E-01      1.972265000000000E+01      1.780167000000000E-01      1.604219000000000E+02
4936000000.000000      4.374847000000000E-01      1.975293000000000E+01      1.736984000000000E-01      1.604219000000000E+02
4937000000.000000      4.383087000000000E-01      1.937793000000000E+01      1.701508000000000E-01      1.607344000000000E+02
4938000000.000000      4.370880000000000E-01      1.954004000000000E+01      1.665268000000000E-01      1.608750000000000E+02
4939000000.000000      4.376831000000000E-01      1.938672000000000E+01      1.627960000000000E-01      1.611172000000000E+02
4940000000.000000      4.385529000000000E-01      1.895117000000000E+01      1.586075000000000E-01      1.612266000000000E+02
4941000000.000000      4.389038000000000E-01      1.898144000000000E+01      1.554260000000000E-01      1.618828000000000E+02
4942000000.000000      4.362946000000000E-01      1.908594000000000E+01      1.517487000000000E-01      1.621641000000000E+02
4943000000.000000      4.372711000000000E-01      1.862695000000000E+01      1.483612000000000E-01      1.625859000000000E+02
4944000000.000000      4.372711000000000E-01      1.865332000000000E+01      1.450577000000000E-01      1.633203000000000E+02
4945000000.000000      4.357605000000000E-01      1.830371000000000E+01      1.411209000000000E-01      1.639219000000000E+02
4946000000.000000      4.365540000000000E-01      1.829590000000000E+01      1.384583000000000E-01      1.645859000000000E+02
4947000000.000000      4.367676000000000E-01      1.821484000000000E+01      1.350632000000000E-01      1.654531000000000E+02
4948000000.000000      4.377136000000000E-01      1.805273000000000E+01      1.326904000000000E-01      1.663047000000000E+02
4949000000.000000      4.348907000000000E-01      1.780566000000000E+01      1.292725000000000E-01      1.675078000000000E+02
4950000000.000000      4.357758000000000E-01      1.781836000000000E+01      1.262741000000000E-01      1.682656000000000E+02
4951000000.000000      4.354401000000000E-01      1.738672000000000E+01      1.240349000000000E-01      1.691641000000000E+02
4952000000.000000      4.358063000000000E-01      1.736719000000000E+01      1.208954000000000E-01      1.704375000000000E+02
4953000000.000000      4.337769000000000E-01      1.740918000000000E+01      1.191025000000000E-01      1.718594000000000E+02
4954000000.000000      4.349213000000000E-01      1.709570000000000E+01      1.162758000000000E-01      1.732344000000000E+02
