! Network Analyzer HP8722D
! Hewlett-Packard
! Data name: Linha & Wilkinson
! Saver's name: Rodrigo Anjos
! Comments: Teste da utilização de aquisição
continua pelo VNA HP8722D
! Time and date: 23/5/2025 11:38
!              Frequency                     S11                                                   S21                                                   S12                                                   S22
# HZ  S  MA R 50
4800000000.000000      3.100739000000000E-01      3.749609000000000E+01      4.714661000000000E-01     -1.279180000000000E+02
4801000000.000000      3.110657000000000E-01      3.773633000000000E+01      4.719696000000000E-01     -1.285156000000000E+02
4802000000.000000      3.124542000000000E-01      3.794140000000000E+01      4.735870000000000E-01     -1.292031000000000E+02
4803000000.000000      3.129425000000000E-01      3.806055000000000E+01      4.753876000000000E-01     -1.298594000000000E+02
4804000000.000000      3.144073000000000E-01      3.834570000000000E+01      4.770508000000000E-01     -1.306875000000000E+02
4805000000.000000      3.159485000000000E-01      3.831640000000000E+01      4.788971000000000E-01     -1.315703000000000E+02
4806000000.000000      3.165131000000000E-01      3.856250000000000E+01      4.816284000000000E-01     -1.321172000000000E+02
4807000000.000000      3.177948000000000E-01      3.875781000000000E+01      4.816895000000000E-01     -1.328906000000000E+02
4808000000.000000      3.183899000000000E-01      3.892383000000000E+01      4.839783000000000E-01     -1.334922000000000E+02
4809000000.000000      3.200378000000000E-01      3.913281000000000E+01      4.836121000000000E-01     -1.345078000000000E+02
4810000000.000000      3.214264000000000E-01      3.927148000000000E+01      4.862976000000000E-01     -1.351719000000000E+02
4811000000.000000      3.227692000000000E-01      3.934570000000000E+01      4.862213000000000E-01     -1.358438000000000E+02
4812000000.000000      3.247070000000000E-01      3.963867000000000E+01      4.874420000000000E-01     -1.364063000000000E+02
4813000000.000000      3.257141000000000E-01      3.965625000000000E+01      4.870911000000000E-01     -1.375625000000000E+02
4814000000.000000      3.271332000000000E-01      3.968750000000000E+01      4.907379000000000E-01     -1.380859000000000E+02
4815000000.000000      3.280029000000000E-01      3.982812000000000E+01      4.891510000000000E-01     -1.388125000000000E+02
4816000000.000000      3.306580000000000E-01      3.998437000000000E+01      4.901123000000000E-01     -1.394297000000000E+02
4817000000.000000      3.310394000000000E-01      4.005859000000000E+01      4.910126000000000E-01     -1.402500000000000E+02
4818000000.000000      3.330536000000000E-01      4.004492000000000E+01      4.905090000000000E-01     -1.410234000000000E+02
4819000000.000000      3.349915000000000E-01      4.016992000000000E+01      4.902802000000000E-01     -1.418516000000000E+02
4820000000.000000      3.356171000000000E-01      4.024804000000000E+01      4.909821000000000E-01     -1.425313000000000E+02
4821000000.000000      3.385010000000000E-01      4.027148000000000E+01      4.934082000000000E-01     -1.431562000000000E+02
4822000000.000000      3.391876000000000E-01      4.022461000000000E+01      4.902954000000000E-01     -1.438750000000000E+02
4823000000.000000      3.410034000000000E-01      4.021484000000000E+01      4.915314000000000E-01     -1.446719000000000E+02
4824000000.000000      3.428040000000000E-01      4.036328000000000E+01      4.910126000000000E-01     -1.454062000000000E+02
4825000000.000000      3.444366000000000E-01      4.016602000000000E+01      4.911041000000000E-01     -1.460938000000000E+02
4826000000.000000      3.459930000000000E-01      4.025781000000000E+01      4.912872000000000E-01     -1.469297000000000E+02
4827000000.000000      3.483734000000000E-01      4.030859000000000E+01      4.904022000000000E-01     -1.474609000000000E+02
4828000000.000000      3.500671000000000E-01      4.023046000000000E+01      4.907074000000000E-01     -1.482734000000000E+02
4829000000.000000      3.514099000000000E-01      4.026172000000000E+01      4.899902000000000E-01     -1.490156000000000E+02
4830000000.000000      3.532410000000000E-01      4.013867000000000E+01      4.903564000000000E-01     -1.496953000000000E+02
4831000000.000000      3.545685000000000E-01      4.002734000000000E+01      4.887238000000000E-01     -1.505234000000000E+02
4832000000.000000      3.564758000000000E-01      4.020703000000000E+01      4.875488000000000E-01     -1.512187000000000E+02
4833000000.000000      3.572845000000000E-01      3.991211000000000E+01      4.865265000000000E-01     -1.517109000000000E+02
4834000000.000000      3.596497000000000E-01      3.994531000000000E+01      4.855194000000000E-01     -1.526562000000000E+02
4835000000.000000      3.617096000000000E-01      3.980273000000000E+01      4.851379000000000E-01     -1.534609000000000E+02
4836000000.000000      3.630829000000000E-01      3.976758000000000E+01      4.846039000000000E-01     -1.541172000000000E+02
4837000000.000000      3.647461000000000E-01      3.972070000000000E+01      4.832611000000000E-01     -1.548047000000000E+02
4838000000.000000      3.660278000000000E-01      3.952148000000000E+01      4.828033000000000E-01     -1.554297000000000E+02
4839000000.000000      3.697968000000000E-01      3.949414000000000E+01      4.821777000000000E-01     -1.561094000000000E+02
4840000000.000000      3.699799000000000E-01      3.923047000000000E+01      4.811707000000000E-01     -1.567812000000000E+02
4841000000.000000      3.718109000000000E-01      3.925000000000000E+01      4.797363000000000E-01     -1.577266000000000E+02
4842000000.000000      3.733521000000000E-01      3.893750000000000E+01      4.785309000000000E-01     -1.582969000000000E+02
4843000000.000000      3.758545000000000E-01      3.871289000000000E+01      4.780273000000000E-01     -1.591875000000000E+02
4844000000.000000      3.767548000000000E-01      3.860937000000000E+01      4.758911000000000E-01     -1.597578000000000E+02
4845000000.000000      3.773651000000000E-01      3.863672000000000E+01      4.739838000000000E-01     -1.605391000000000E+02
4846000000.000000      3.800964000000000E-01      3.849609000000000E+01      4.739227000000000E-01     -1.611328000000000E+02
4847000000.000000      3.815002000000000E-01      3.833398000000000E+01      4.725800000000000E-01     -1.618125000000000E+02
4848000000.000000      3.825378000000000E-01      3.807812000000000E+01      4.691925000000000E-01     -1.625547000000000E+02
4849000000.000000      3.832550000000000E-01      3.783008000000000E+01      4.699707000000000E-01     -1.632578000000000E+02
4850000000.000000      3.843231000000000E-01      3.762109000000000E+01      4.651184000000000E-01     -1.640547000000000E+02
4851000000.000000      3.870544000000000E-01      3.758398000000000E+01      4.657745000000000E-01     -1.647109000000000E+02
4852000000.000000      3.878174000000000E-01      3.729297000000000E+01      4.622498000000000E-01     -1.653281000000000E+02
4853000000.000000      3.891449000000000E-01      3.709375000000000E+01      4.598999000000000E-01     -1.661016000000000E+02
4854000000.000000      3.906250000000000E-01      3.697266000000000E+01      4.572144000000000E-01     -1.670078000000000E+02
4855000000.000000      3.911591000000000E-01      3.676953000000000E+01      4.561157000000000E-01     -1.676797000000000E+02
4856000000.000000      3.925934000000000E-01      3.646289000000000E+01      4.544220000000000E-01     -1.682344000000000E+02
4857000000.000000      3.945465000000000E-01      3.632617000000000E+01      4.518585000000000E-01     -1.688672000000000E+02
4858000000.000000      3.950806000000000E-01      3.601953000000000E+01      4.514771000000000E-01     -1.698125000000000E+02
4859000000.000000      3.959808000000000E-01      3.583008000000000E+01      4.481659000000000E-01     -1.704219000000000E+02
4860000000.000000      3.974304000000000E-01      3.560937000000000E+01      4.445496000000000E-01     -1.709766000000000E+02
4861000000.000000      3.986511000000000E-01      3.542383000000000E+01      4.426727000000000E-01     -1.716250000000000E+02
4862000000.000000      3.985596000000000E-01      3.521289000000000E+01      4.404449000000000E-01     -1.724062000000000E+02
4863000000.000000      3.997650000000000E-01      3.508203000000000E+01      4.363556000000000E-01     -1.731641000000000E+02
4864000000.000000      4.010162000000000E-01      3.467968000000000E+01      4.344330000000000E-01     -1.739375000000000E+02
4865000000.000000      4.017792000000000E-01      3.445508000000000E+01      4.317932000000000E-01     -1.743047000000000E+02
4866000000.000000      4.029236000000000E-01      3.430664000000000E+01      4.286041000000000E-01     -1.752109000000000E+02
4867000000.000000      4.024200000000000E-01      3.400781000000000E+01      4.260559000000000E-01     -1.759766000000000E+02
4868000000.000000      4.043732000000000E-01      3.380078000000000E+01      4.227905000000000E-01     -1.765156000000000E+02
4869000000.000000      4.043579000000000E-01      3.356836000000000E+01      4.197845000000000E-01     -1.772187000000000E+02
4870000000.000000      4.061279000000000E-01      3.332226000000000E+01      4.174500000000000E-01     -1.776562000000000E+02
4871000000.000000      4.063873000000000E-01      3.299414000000000E+01      4.121094000000000E-01     -1.785234000000000E+02
4872000000.000000      4.075470000000000E-01      3.283398000000000E+01      4.095917000000000E-01     -1.789063000000000E+02
4873000000.000000      4.078522000000000E-01      3.265625000000000E+01      4.059143000000000E-01     -1.796484000000000E+02
4874000000.000000      4.081573000000000E-01      3.237109000000000E+01      4.032745000000000E-01      1.798516000000000E+02
4875000000.000000      4.090118000000000E-01      3.208203000000000E+01      3.983917000000000E-01      1.791172000000000E+02
4876000000.000000      4.104614000000000E-01      3.189160000000000E+01      3.956146000000000E-01      1.787031000000000E+02
4877000000.000000      4.104614000000000E-01      3.156054000000000E+01      3.925629000000000E-01      1.780625000000000E+02
4878000000.000000      4.100189000000000E-01      3.139453000000000E+01      3.895111000000000E-01      1.775391000000000E+02
4879000000.000000      4.107361000000000E-01      3.117773000000000E+01      3.839264000000000E-01      1.770391000000000E+02
4880000000.000000      4.120178000000000E-01      3.093164000000000E+01      3.820953000000000E-01      1.762266000000000E+02
4881000000.000000      4.117126000000000E-01      3.068066000000000E+01      3.791656000000000E-01      1.759844000000000E+02
4882000000.000000      4.124451000000000E-01      3.048242000000000E+01      3.756104000000000E-01      1.751562000000000E+02
4883000000.000000      4.112549000000000E-01      3.017578000000000E+01      3.717194000000000E-01      1.746797000000000E+02
4884000000.000000      4.132843000000000E-01      3.016406000000000E+01      3.679352000000000E-01      1.744297000000000E+02
4885000000.000000      4.125824000000000E-01      2.980859000000000E+01      3.655701000000000E-01      1.739609000000000E+02
4886000000.000000      4.133759000000000E-01      2.962402000000000E+01      3.616028000000000E-01      1.734688000000000E+02
4887000000.000000      4.130707000000000E-01      2.942090000000000E+01      3.582611000000000E-01      1.728437000000000E+02
4888000000.000000      4.131012000000000E-01      2.889746000000000E+01      3.554382000000000E-01      1.722500000000000E+02
4889000000.000000      4.127045000000000E-01      2.888574000000000E+01      3.506927000000000E-01      1.720703000000000E+02
4890000000.000000      4.127045000000000E-01      2.844433000000000E+01      3.467865000000000E-01      1.711172000000000E+02
4891000000.000000      4.125366000000000E-01      2.840039000000000E+01      3.430481000000000E-01      1.707969000000000E+02
4892000000.000000      4.130707000000000E-01      2.824414000000000E+01      3.401794000000000E-01      1.705547000000000E+02
4893000000.000000      4.141388000000000E-01      2.789355000000000E+01      3.364868000000000E-01      1.697734000000000E+02
4894000000.000000      4.137878000000000E-01      2.787207000000000E+01      3.330383000000000E-01      1.694922000000000E+02
4895000000.000000      4.142151000000000E-01      2.743945000000000E+01      3.302765000000000E-01      1.692109000000000E+02
4896000000.000000      4.135132000000000E-01      2.723340000000000E+01      3.255615000000000E-01      1.686563000000000E+02
4897000000.000000      4.132385000000000E-01      2.714258000000000E+01      3.231964000000000E-01      1.681094000000000E+02
4898000000.000000      4.130707000000000E-01      2.694629000000000E+01      3.196716000000000E-01      1.678203000000000E+02
4899000000.000000      4.138947000000000E-01      2.679785000000000E+01      3.164825000000000E-01      1.673359000000000E+02
4900000000.000000      4.138794000000000E-01      2.635937000000000E+01      3.137817000000000E-01      1.671172000000000E+02
4901000000.000000      4.138184000000000E-01      2.625586000000000E+01      3.100891000000000E-01      1.667578000000000E+02
4902000000.000000      4.134064000000000E-01      2.610840000000000E+01      3.066711000000000E-01      1.664453000000000E+02
4903000000.000000      4.136353000000000E-01      2.585840000000000E+01      3.027039000000000E-01      1.659062000000000E+02
4904000000.000000      4.133148000000000E-01      2.564941000000000E+01      2.988739000000000E-01      1.654531000000000E+02
4905000000.000000      4.131622000000000E-01      2.556641000000000E+01      2.962036000000000E-01      1.650156000000000E+02
4906000000.000000      4.125671000000000E-01      2.523535000000000E+01      2.927399000000000E-01      1.648672000000000E+02
4907000000.000000      4.122009000000000E-01      2.510644000000000E+01      2.899170000000000E-01      1.642734000000000E+02
4908000000.000000      4.122314000000000E-01      2.481250000000000E+01      2.865601000000000E-01      1.637891000000000E+02
4909000000.000000      4.120789000000000E-01      2.473828000000000E+01      2.827759000000000E-01      1.634531000000000E+02
4910000000.000000      4.123535000000000E-01      2.463672000000000E+01      2.791290000000000E-01      1.632578000000000E+02
4911000000.000000      4.119110000000000E-01      2.450586000000000E+01      2.759094000000000E-01      1.629062000000000E+02
4912000000.000000      4.114227000000000E-01      2.428515000000000E+01      2.725067000000000E-01      1.624141000000000E+02
4913000000.000000      4.107666000000000E-01      2.407715000000000E+01      2.692413000000000E-01      1.620469000000000E+02
4914000000.000000      4.109802000000000E-01      2.365137000000000E+01      2.656097000000000E-01      1.619922000000000E+02
4915000000.000000      4.114075000000000E-01      2.369043000000000E+01      2.611237000000000E-01      1.613516000000000E+02
4916000000.000000      4.115601000000000E-01      2.347558000000000E+01      2.578735000000000E-01      1.610547000000000E+02
4917000000.000000      4.108124000000000E-01      2.322070000000000E+01      2.545471000000000E-01      1.606484000000000E+02
4918000000.000000      4.099274000000000E-01      2.323730000000000E+01      2.500153000000000E-01      1.604687000000000E+02
4919000000.000000      4.089966000000000E-01      2.310645000000000E+01      2.470474000000000E-01      1.603281000000000E+02
4920000000.000000      4.099121000000000E-01      2.270996000000000E+01      2.431488000000000E-01      1.597031000000000E+02
4921000000.000000      4.101563000000000E-01      2.257129000000000E+01      2.400970000000000E-01      1.596406000000000E+02
4922000000.000000      4.104309000000000E-01      2.254101000000000E+01      2.358398000000000E-01      1.592969000000000E+02
4923000000.000000      4.083710000000000E-01      2.225390000000000E+01      2.314987000000000E-01      1.592031000000000E+02
4924000000.000000      4.082794000000000E-01      2.220801000000000E+01      2.276993000000000E-01      1.587734000000000E+02
4925000000.000000      4.081573000000000E-01      2.198828000000000E+01      2.240906000000000E-01      1.587500000000000E+02
4926000000.000000      4.084930000000000E-01      2.191895000000000E+01      2.204285000000000E-01      1.583359000000000E+02
4927000000.000000      4.078064000000000E-01      2.172266000000000E+01      2.161179000000000E-01      1.581640000000000E+02
4928000000.000000      4.089966000000000E-01      2.143945000000000E+01      2.126465000000000E-01      1.580859000000000E+02
4929000000.000000      4.070892000000000E-01      2.128320000000000E+01      2.087021000000000E-01      1.580781000000000E+02
4930000000.000000      4.079132000000000E-01      2.114941000000000E+01      2.051926000000000E-01      1.578438000000000E+02
4931000000.000000      4.075012000000000E-01      2.091797000000000E+01      2.014236000000000E-01      1.578672000000000E+02
4932000000.000000      4.067688000000000E-01      2.075586000000000E+01      1.969147000000000E-01      1.577656000000000E+02
4933000000.000000      4.070587000000000E-01      2.042480000000000E+01      1.924362000000000E-01      1.579062000000000E+02
4934000000.000000      4.078064000000000E-01      2.042187000000000E+01      1.886826000000000E-01      1.577578000000000E+02
4935000000.000000      4.072418000000000E-01      2.040918000000000E+01      1.855087000000000E-01      1.580391000000000E+02
4936000000.000000      4.053192000000000E-01      2.015625000000000E+01      1.810150000000000E-01      1.581094000000000E+02
4937000000.000000      4.059143000000000E-01      1.990137000000000E+01      1.771851000000000E-01      1.580703000000000E+02
4938000000.000000      4.053192000000000E-01      1.983105000000000E+01      1.734619000000000E-01      1.584219000000000E+02
4939000000.000000      4.049377000000000E-01      1.971680000000000E+01      1.703491000000000E-01      1.588438000000000E+02
4940000000.000000      4.057617000000000E-01      1.962500000000000E+01      1.660614000000000E-01      1.588438000000000E+02
4941000000.000000      4.052734000000000E-01      1.927051000000000E+01      1.619415000000000E-01      1.594453000000000E+02
4942000000.000000      4.040375000000000E-01      1.922949000000000E+01      1.583481000000000E-01      1.597500000000000E+02
4943000000.000000      4.046173000000000E-01      1.904297000000000E+01      1.547852000000000E-01      1.601797000000000E+02
4944000000.000000      4.046021000000000E-01      1.875879000000000E+01      1.515656000000000E-01      1.608984000000000E+02
4945000000.000000      4.049835000000000E-01      1.862109000000000E+01      1.476135000000000E-01      1.613828000000000E+02
4946000000.000000      4.046631000000000E-01      1.870508000000000E+01      1.442642000000000E-01      1.620391000000000E+02
4947000000.000000      4.041138000000000E-01      1.846777000000000E+01      1.405487000000000E-01      1.627812000000000E+02
4948000000.000000      4.033508000000000E-01      1.830859000000000E+01      1.377869000000000E-01      1.636094000000000E+02
4949000000.000000      4.026184000000000E-01      1.810547000000000E+01      1.350632000000000E-01      1.648125000000000E+02
4950000000.000000      4.026947000000000E-01      1.803808000000000E+01      1.316452000000000E-01      1.656406000000000E+02
4951000000.000000      4.022064000000000E-01      1.798144000000000E+01      1.289291000000000E-01      1.665234000000000E+02
4952000000.000000      4.017944000000000E-01      1.758008000000000E+01      1.260910000000000E-01      1.679844000000000E+02
4953000000.000000      4.019012000000000E-01      1.757031000000000E+01      1.238594000000000E-01      1.692734000000000E+02
4954000000.000000      4.016113000000000E-01      1.725488000000000E+01      1.214561000000000E-01      1.704609000000000E+02
