! Network Analyzer HP8722D
! Hewlett-Packard
! Data name: Linha & Wilkinson
! Saver's name: Rodrigo Anjos
! Comments: Teste da utilização de aquisição
continua pelo VNA HP8722D
! Time and date: 23/5/2025 16:36
!              Frequency                     S11                                                   S21                                                   S12                                                   S22
# HZ  S  MA R 50
4800000000.000000      2.809143000000000E-01      4.048242000000000E+01      4.878540000000000E-01     -1.300859000000000E+02
4801000000.000000      2.822723000000000E-01      4.083398000000000E+01      4.895020000000000E-01     -1.310391000000000E+02
4802000000.000000      2.833252000000000E-01      4.102539000000000E+01      4.910889000000000E-01     -1.313672000000000E+02
4803000000.000000      2.840271000000000E-01      4.113477000000000E+01      4.943390000000000E-01     -1.321328000000000E+02
4804000000.000000      2.858276000000000E-01      4.141406000000000E+01      4.947052000000000E-01     -1.330312000000000E+02
4805000000.000000      2.874146000000000E-01      4.145117000000000E+01      4.962769000000000E-01     -1.335391000000000E+02
4806000000.000000      2.883606000000000E-01      4.165235000000000E+01      4.967804000000000E-01     -1.343359000000000E+02
4807000000.000000      2.896118000000000E-01      4.192968000000000E+01      4.984589000000000E-01     -1.351641000000000E+02
4808000000.000000      2.906342000000000E-01      4.205664000000000E+01      5.000305000000000E-01     -1.358047000000000E+02
4809000000.000000      2.921295000000000E-01      4.227929000000000E+01      5.017700000000000E-01     -1.366719000000000E+02
4810000000.000000      2.938995000000000E-01      4.239062000000000E+01      5.028076000000000E-01     -1.373359000000000E+02
4811000000.000000      2.962952000000000E-01      4.256249000000000E+01      5.041504000000000E-01     -1.380625000000000E+02
4812000000.000000      2.982635000000000E-01      4.274219000000000E+01      5.046082000000000E-01     -1.388828000000000E+02
4813000000.000000      2.994537000000000E-01      4.281054000000000E+01      5.055847000000000E-01     -1.395547000000000E+02
4814000000.000000      3.005371000000000E-01      4.283593000000000E+01      5.068359000000000E-01     -1.402578000000000E+02
4815000000.000000      3.024750000000000E-01      4.299609000000000E+01      5.064392000000000E-01     -1.409844000000000E+02
4816000000.000000      3.045654000000000E-01      4.307226000000000E+01      5.089417000000000E-01     -1.415156000000000E+02
4817000000.000000      3.059998000000000E-01      4.316211000000000E+01      5.068054000000000E-01     -1.424297000000000E+02
4818000000.000000      3.072815000000000E-01      4.316015000000000E+01      5.082397000000000E-01     -1.433438000000000E+02
4819000000.000000      3.099060000000000E-01      4.318945000000000E+01      5.080872000000000E-01     -1.441015000000000E+02
4820000000.000000      3.106995000000000E-01      4.322266000000000E+01      5.089722000000000E-01     -1.445078000000000E+02
4821000000.000000      3.141479000000000E-01      4.326367000000000E+01      5.086365000000000E-01     -1.455469000000000E+02
4822000000.000000      3.147736000000000E-01      4.314453000000000E+01      5.079346000000000E-01     -1.463281000000000E+02
4823000000.000000      3.165436000000000E-01      4.311523000000000E+01      5.097656000000000E-01     -1.468437000000000E+02
4824000000.000000      3.186035000000000E-01      4.327344000000000E+01      5.074158000000000E-01     -1.477187000000000E+02
4825000000.000000      3.203278000000000E-01      4.307813000000000E+01      5.069580000000000E-01     -1.483125000000000E+02
4826000000.000000      3.222504000000000E-01      4.308594000000000E+01      5.080566000000000E-01     -1.492031000000000E+02
4827000000.000000      3.242950000000000E-01      4.300195000000000E+01      5.072632000000000E-01     -1.496797000000000E+02
4828000000.000000      3.262482000000000E-01      4.291601000000000E+01      5.079651000000000E-01     -1.504531000000000E+02
4829000000.000000      3.279114000000000E-01      4.302343000000000E+01      5.071716000000000E-01     -1.510234000000000E+02
4830000000.000000      3.293915000000000E-01      4.282422000000000E+01      5.066223000000000E-01     -1.521094000000000E+02
4831000000.000000      3.312836000000000E-01      4.270703000000000E+01      5.059204000000000E-01     -1.527500000000000E+02
4832000000.000000      3.333893000000000E-01      4.270312000000000E+01      5.045776000000000E-01     -1.534765000000000E+02
4833000000.000000      3.344727000000000E-01      4.247266000000000E+01      5.034180000000000E-01     -1.539844000000000E+02
4834000000.000000      3.366394000000000E-01      4.239062000000000E+01      5.032043000000000E-01     -1.548516000000000E+02
4835000000.000000      3.388519000000000E-01      4.219531000000000E+01      5.019226000000000E-01     -1.557109000000000E+02
4836000000.000000      3.401184000000000E-01      4.219531000000000E+01      5.006104000000000E-01     -1.562969000000000E+02
4837000000.000000      3.417969000000000E-01      4.216210000000000E+01      4.981689000000000E-01     -1.571406000000000E+02
4838000000.000000      3.435059000000000E-01      4.184766000000000E+01      5.001831000000000E-01     -1.576875000000000E+02
4839000000.000000      3.466339000000000E-01      4.181836000000000E+01      4.974365000000000E-01     -1.584687000000000E+02
4840000000.000000      3.468018000000000E-01      4.163867000000000E+01      4.964752000000000E-01     -1.589531000000000E+02
4841000000.000000      3.487396000000000E-01      4.149023000000000E+01      4.961090000000000E-01     -1.598359000000000E+02
4842000000.000000      3.498230000000000E-01      4.119336000000000E+01      4.939575000000000E-01     -1.605469000000000E+02
4843000000.000000      3.526154000000000E-01      4.094922000000000E+01      4.923553000000000E-01     -1.613047000000000E+02
4844000000.000000      3.536224000000000E-01      4.082031000000000E+01      4.918518000000000E-01     -1.620078000000000E+02
4845000000.000000      3.552399000000000E-01      4.064843000000000E+01      4.898682000000000E-01     -1.626797000000000E+02
4846000000.000000      3.571777000000000E-01      4.049024000000000E+01      4.872894000000000E-01     -1.634219000000000E+02
4847000000.000000      3.583374000000000E-01      4.030859000000000E+01      4.872894000000000E-01     -1.639609000000000E+02
4848000000.000000      3.588715000000000E-01      4.002539000000000E+01      4.833832000000000E-01     -1.646563000000000E+02
4849000000.000000      3.604584000000000E-01      3.975976000000000E+01      4.820251000000000E-01     -1.655000000000000E+02
4850000000.000000      3.620453000000000E-01      3.960156000000000E+01      4.805298000000000E-01     -1.660703000000000E+02
4851000000.000000      3.636932000000000E-01      3.943750000000000E+01      4.797974000000000E-01     -1.669297000000000E+02
4852000000.000000      3.654327000000000E-01      3.918945000000000E+01      4.758301000000000E-01     -1.675937000000000E+02
4853000000.000000      3.665009000000000E-01      3.895508000000000E+01      4.733582000000000E-01     -1.682109000000000E+02
4854000000.000000      3.674469000000000E-01      3.859961000000000E+01      4.717865000000000E-01     -1.690000000000000E+02
4855000000.000000      3.685760000000000E-01      3.841601000000000E+01      4.696045000000000E-01     -1.697344000000000E+02
4856000000.000000      3.696747000000000E-01      3.817383000000000E+01      4.681091000000000E-01     -1.704687000000000E+02
4857000000.000000      3.708801000000000E-01      3.802148000000000E+01      4.653320000000000E-01     -1.712578000000000E+02
4858000000.000000      3.721161000000000E-01      3.765820000000000E+01      4.631348000000000E-01     -1.716953000000000E+02
4859000000.000000      3.729553000000000E-01      3.735156000000000E+01      4.608612000000000E-01     -1.723906000000000E+02
4860000000.000000      3.736572000000000E-01      3.732226000000000E+01      4.580078000000000E-01     -1.732812000000000E+02
4861000000.000000      3.745117000000000E-01      3.692968000000000E+01      4.549408000000000E-01     -1.738125000000000E+02
4862000000.000000      3.751678000000000E-01      3.667383000000000E+01      4.530792000000000E-01     -1.746484000000000E+02
4863000000.000000      3.766632000000000E-01      3.653320000000000E+01      4.489746000000000E-01     -1.752578000000000E+02
4864000000.000000      3.780823000000000E-01      3.613281000000000E+01      4.470215000000000E-01     -1.758281000000000E+02
4865000000.000000      3.784943000000000E-01      3.582617000000000E+01      4.433441000000000E-01     -1.762187000000000E+02
4866000000.000000      3.790894000000000E-01      3.557226000000000E+01      4.399872000000000E-01     -1.771172000000000E+02
4867000000.000000      3.796387000000000E-01      3.534570000000000E+01      4.375763000000000E-01     -1.776953000000000E+02
4868000000.000000      3.804321000000000E-01      3.501953000000000E+01      4.343414000000000E-01     -1.784453000000000E+02
4869000000.000000      3.808746000000000E-01      3.473828000000000E+01      4.305725000000000E-01     -1.792500000000000E+02
4870000000.000000      3.818512000000000E-01      3.451367000000000E+01      4.283295000000000E-01     -1.795156000000000E+02
4871000000.000000      3.819275000000000E-01      3.418945000000000E+01      4.234619000000000E-01      1.797344000000000E+02
4872000000.000000      3.841248000000000E-01      3.401562000000000E+01      4.202881000000000E-01      1.792109000000000E+02
4873000000.000000      3.835754000000000E-01      3.375781000000000E+01      4.180298000000000E-01      1.785469000000000E+02
4874000000.000000      3.840790000000000E-01      3.342382000000000E+01      4.138031000000000E-01      1.781094000000000E+02
4875000000.000000      3.847961000000000E-01      3.304883000000000E+01      4.098969000000000E-01      1.772891000000000E+02
4876000000.000000      3.860168000000000E-01      3.299414000000000E+01      4.081573000000000E-01      1.767656000000000E+02
4877000000.000000      3.863373000000000E-01      3.258398000000000E+01      4.040833000000000E-01      1.761797000000000E+02
4878000000.000000      3.853302000000000E-01      3.233398000000000E+01      4.003296000000000E-01      1.755312000000000E+02
4879000000.000000      3.865967000000000E-01      3.210546000000000E+01      3.966217000000000E-01      1.750078000000000E+02
4880000000.000000      3.874054000000000E-01      3.186035000000000E+01      3.937836000000000E-01      1.744688000000000E+02
4881000000.000000      3.869324000000000E-01      3.152637000000000E+01      3.896484000000000E-01      1.741953000000000E+02
4882000000.000000      3.873596000000000E-01      3.141894000000000E+01      3.873596000000000E-01      1.735078000000000E+02
4883000000.000000      3.871460000000000E-01      3.097656000000000E+01      3.820190000000000E-01      1.728516000000000E+02
4884000000.000000      3.872070000000000E-01      3.084082000000000E+01      3.797150000000000E-01      1.722969000000000E+02
4885000000.000000      3.884430000000000E-01      3.060156000000000E+01      3.748169000000000E-01      1.719687000000000E+02
4886000000.000000      3.878479000000000E-01      3.030762000000000E+01      3.726501000000000E-01      1.716016000000000E+02
4887000000.000000      3.873901000000000E-01      3.003027000000000E+01      3.685303000000000E-01      1.712344000000000E+02
4888000000.000000      3.879700000000000E-01      2.969043000000000E+01      3.665009000000000E-01      1.704375000000000E+02
4889000000.000000      3.879395000000000E-01      2.956250000000000E+01      3.612671000000000E-01      1.700859000000000E+02
4890000000.000000      3.870239000000000E-01      2.932714000000000E+01      3.567657000000000E-01      1.694062000000000E+02
4891000000.000000      3.869629000000000E-01      2.912402000000000E+01      3.529053000000000E-01      1.690703000000000E+02
4892000000.000000      3.874054000000000E-01      2.887207000000000E+01      3.507843000000000E-01      1.689375000000000E+02
4893000000.000000      3.880310000000000E-01      2.861621000000000E+01      3.466492000000000E-01      1.681641000000000E+02
4894000000.000000      3.869629000000000E-01      2.830566000000000E+01      3.422089000000000E-01      1.679375000000000E+02
4895000000.000000      3.879242000000000E-01      2.799511000000000E+01      3.398590000000000E-01      1.675625000000000E+02
4896000000.000000      3.873444000000000E-01      2.789258000000000E+01      3.374023000000000E-01      1.671250000000000E+02
4897000000.000000      3.867798000000000E-01      2.755176000000000E+01      3.325806000000000E-01      1.666484000000000E+02
4898000000.000000      3.872375000000000E-01      2.731934000000000E+01      3.297577000000000E-01      1.664297000000000E+02
4899000000.000000      3.874054000000000E-01      2.723633000000000E+01      3.260345000000000E-01      1.657187000000000E+02
4900000000.000000      3.866882000000000E-01      2.680176000000000E+01      3.225250000000000E-01      1.652656000000000E+02
4901000000.000000      3.872375000000000E-01      2.674023000000000E+01      3.198853000000000E-01      1.649453000000000E+02
4902000000.000000      3.848572000000000E-01      2.648340000000000E+01      3.161469000000000E-01      1.646875000000000E+02
4903000000.000000      3.866272000000000E-01      2.635742000000000E+01      3.124237000000000E-01      1.642187000000000E+02
4904000000.000000      3.855896000000000E-01      2.610840000000000E+01      3.089905000000000E-01      1.638203000000000E+02
4905000000.000000      3.853455000000000E-01      2.596191000000000E+01      3.061829000000000E-01      1.634219000000000E+02
4906000000.000000      3.848724000000000E-01      2.563086000000000E+01      3.021393000000000E-01      1.632266000000000E+02
4907000000.000000      3.861694000000000E-01      2.543262000000000E+01      2.993317000000000E-01      1.626719000000000E+02
4908000000.000000      3.858185000000000E-01      2.521875000000000E+01      2.956238000000000E-01      1.622266000000000E+02
4909000000.000000      3.840027000000000E-01      2.495898000000000E+01      2.913971000000000E-01      1.618203000000000E+02
4910000000.000000      3.840790000000000E-01      2.484277000000000E+01      2.875671000000000E-01      1.615469000000000E+02
4911000000.000000      3.830872000000000E-01      2.471484000000000E+01      2.850800000000000E-01      1.612344000000000E+02
4912000000.000000      3.837433000000000E-01      2.451562000000000E+01      2.811432000000000E-01      1.607344000000000E+02
4913000000.000000      3.834229000000000E-01      2.425586000000000E+01      2.776947000000000E-01      1.603359000000000E+02
4914000000.000000      3.836823000000000E-01      2.406347000000000E+01      2.741241000000000E-01      1.601172000000000E+02
4915000000.000000      3.822327000000000E-01      2.389062000000000E+01      2.698975000000000E-01      1.597578000000000E+02
4916000000.000000      3.826904000000000E-01      2.393066000000000E+01      2.659454000000000E-01      1.593437000000000E+02
4917000000.000000      3.821259000000000E-01      2.353320000000000E+01      2.630157000000000E-01      1.589766000000000E+02
4918000000.000000      3.825684000000000E-01      2.337597000000000E+01      2.575684000000000E-01      1.587031000000000E+02
4919000000.000000      3.818054000000000E-01      2.320410000000000E+01      2.550507000000000E-01      1.586016000000000E+02
4920000000.000000      3.823853000000000E-01      2.289551000000000E+01      2.511902000000000E-01      1.579609000000000E+02
4921000000.000000      3.818665000000000E-01      2.282813000000000E+01      2.477493000000000E-01      1.578828000000000E+02
4922000000.000000      3.812256000000000E-01      2.255078000000000E+01      2.432251000000000E-01      1.577109000000000E+02
4923000000.000000      3.807373000000000E-01      2.253125000000000E+01      2.393951000000000E-01      1.576328000000000E+02
4924000000.000000      3.809662000000000E-01      2.218066000000000E+01      2.351532000000000E-01      1.570625000000000E+02
4925000000.000000      3.792725000000000E-01      2.206543000000000E+01      2.314529000000000E-01      1.568516000000000E+02
4926000000.000000      3.792114000000000E-01      2.196289000000000E+01      2.274628000000000E-01      1.567578000000000E+02
4927000000.000000      3.795776000000000E-01      2.175683000000000E+01      2.232056000000000E-01      1.565234000000000E+02
4928000000.000000      3.802185000000000E-01      2.143750000000000E+01      2.194977000000000E-01      1.565078000000000E+02
4929000000.000000      3.789520000000000E-01      2.141602000000000E+01      2.158203000000000E-01      1.564219000000000E+02
4930000000.000000      3.787384000000000E-01      2.112891000000000E+01      2.123032000000000E-01      1.562344000000000E+02
4931000000.000000      3.776855000000000E-01      2.096386000000000E+01      2.076950000000000E-01      1.561172000000000E+02
4932000000.000000      3.784790000000000E-01      2.090332000000000E+01      2.032852000000000E-01      1.561094000000000E+02
4933000000.000000      3.774872000000000E-01      2.071582000000000E+01      1.985855000000000E-01      1.564922000000000E+02
4934000000.000000      3.786316000000000E-01      2.045312000000000E+01      1.944504000000000E-01      1.561797000000000E+02
4935000000.000000      3.788452000000000E-01      2.038184000000000E+01      1.915131000000000E-01      1.564922000000000E+02
4936000000.000000      3.769073000000000E-01      2.017480000000000E+01      1.870193000000000E-01      1.565078000000000E+02
4937000000.000000      3.771973000000000E-01      1.981152000000000E+01      1.830750000000000E-01      1.566875000000000E+02
4938000000.000000      3.766632000000000E-01      1.990234000000000E+01      1.794662000000000E-01      1.566094000000000E+02
4939000000.000000      3.763580000000000E-01      1.962500000000000E+01      1.756668000000000E-01      1.570781000000000E+02
4940000000.000000      3.765259000000000E-01      1.954687000000000E+01      1.710663000000000E-01      1.572891000000000E+02
4941000000.000000      3.757172000000000E-01      1.919922000000000E+01      1.676102000000000E-01      1.578047000000000E+02
4942000000.000000      3.755493000000000E-01      1.910742000000000E+01      1.632233000000000E-01      1.582266000000000E+02
4943000000.000000      3.745422000000000E-01      1.903906000000000E+01      1.598969000000000E-01      1.586094000000000E+02
4944000000.000000      3.753662000000000E-01      1.869141000000000E+01      1.563034000000000E-01      1.593203000000000E+02
4945000000.000000      3.746490000000000E-01      1.856055000000000E+01      1.526031000000000E-01      1.598906000000000E+02
4946000000.000000      3.744507000000000E-01      1.845215000000000E+01      1.494141000000000E-01      1.606953000000000E+02
4947000000.000000      3.742828000000000E-01      1.815137000000000E+01      1.457138000000000E-01      1.614609000000000E+02
4948000000.000000      3.746643000000000E-01      1.811621000000000E+01      1.425247000000000E-01      1.621094000000000E+02
4949000000.000000      3.735809000000000E-01      1.790625000000000E+01      1.395111000000000E-01      1.635156000000000E+02
4950000000.000000      3.737946000000000E-01      1.771777000000000E+01      1.362228000000000E-01      1.641641000000000E+02
4951000000.000000      3.733978000000000E-01      1.755664000000000E+01      1.334000000000000E-01      1.653906000000000E+02
4952000000.000000      3.721771000000000E-01      1.731836000000000E+01      1.304550000000000E-01      1.663828000000000E+02
4953000000.000000      3.720703000000000E-01      1.723437000000000E+01      1.277618000000000E-01      1.678828000000000E+02
4954000000.000000      3.728790000000000E-01      1.697168000000000E+01      1.257401000000000E-01      1.692109000000000E+02
