! Network Analyzer HP8722D
! Hewlett-Packard
! Data name: Linha & Wilkinson
! Saver's name: Rodrigo Anjos
! Comments: Teste da utilização de aquisição
continua pelo VNA HP8722D
! Time and date: 23/5/2025 16:51
!              Frequency                     S11                                                   S21                                                   S12                                                   S22
# HZ  S  MA R 50
4800000000.000000      2.803345000000000E-01      4.020117000000000E+01      4.875488000000000E-01     -1.298047000000000E+02
4801000000.000000      2.821045000000000E-01      4.052148000000000E+01      4.882507000000000E-01     -1.301484000000000E+02
4802000000.000000      2.830200000000000E-01      4.078906000000000E+01      4.899750000000000E-01     -1.307969000000000E+02
4803000000.000000      2.838440000000000E-01      4.092382000000000E+01      4.941864000000000E-01     -1.317031000000000E+02
4804000000.000000      2.850037000000000E-01      4.119726000000000E+01      4.938202000000000E-01     -1.323125000000000E+02
4805000000.000000      2.868347000000000E-01      4.127930000000000E+01      4.951630000000000E-01     -1.331875000000000E+02
4806000000.000000      2.878571000000000E-01      4.150391000000000E+01      4.971619000000000E-01     -1.337656000000000E+02
4807000000.000000      2.893829000000000E-01      4.173242000000000E+01      4.971771000000000E-01     -1.345703000000000E+02
4808000000.000000      2.899628000000000E-01      4.186719000000000E+01      4.998932000000000E-01     -1.352500000000000E+02
4809000000.000000      2.918701000000000E-01      4.213086000000000E+01      5.012512000000000E-01     -1.361797000000000E+02
4810000000.000000      2.934570000000000E-01      4.220508000000000E+01      5.028381000000000E-01     -1.366797000000000E+02
4811000000.000000      2.952118000000000E-01      4.240234000000000E+01      5.038147000000000E-01     -1.375234000000000E+02
4812000000.000000      2.977753000000000E-01      4.257617000000000E+01      5.046692000000000E-01     -1.382578000000000E+02
4813000000.000000      2.986145000000000E-01      4.268750000000000E+01      5.062256000000000E-01     -1.390625000000000E+02
4814000000.000000      3.001862000000000E-01      4.272851000000000E+01      5.060730000000000E-01     -1.395547000000000E+02
4815000000.000000      3.017426000000000E-01      4.281250000000000E+01      5.066223000000000E-01     -1.405937000000000E+02
4816000000.000000      3.044891000000000E-01      4.293359000000000E+01      5.084534000000000E-01     -1.410078000000000E+02
4817000000.000000      3.049316000000000E-01      4.299218000000000E+01      5.072937000000000E-01     -1.418750000000000E+02
4818000000.000000      3.067932000000000E-01      4.298242000000000E+01      5.082703000000000E-01     -1.427813000000000E+02
4819000000.000000      3.089142000000000E-01      4.313477000000000E+01      5.075073000000000E-01     -1.433828000000000E+02
4820000000.000000      3.101807000000000E-01      4.313086000000000E+01      5.067139000000000E-01     -1.440781000000000E+02
4821000000.000000      3.131256000000000E-01      4.318945000000000E+01      5.099487000000000E-01     -1.449141000000000E+02
4822000000.000000      3.138123000000000E-01      4.313086000000000E+01      5.084229000000000E-01     -1.455078000000000E+02
4823000000.000000      3.160553000000000E-01      4.307422000000000E+01      5.093079000000000E-01     -1.462969000000000E+02
4824000000.000000      3.180084000000000E-01      4.323632000000000E+01      5.073242000000000E-01     -1.472109000000000E+02
4825000000.000000      3.197784000000000E-01      4.301367000000000E+01      5.080566000000000E-01     -1.477890000000000E+02
4826000000.000000      3.218842000000000E-01      4.308984000000000E+01      5.082703000000000E-01     -1.486797000000000E+02
4827000000.000000      3.234863000000000E-01      4.304688000000000E+01      5.072021000000000E-01     -1.491094000000000E+02
4828000000.000000      3.257904000000000E-01      4.296875000000000E+01      5.078735000000000E-01     -1.500234000000000E+02
4829000000.000000      3.270111000000000E-01      4.303711000000000E+01      5.072632000000000E-01     -1.504844000000000E+02
4830000000.000000      3.290253000000000E-01      4.282227000000000E+01      5.061951000000000E-01     -1.515156000000000E+02
4831000000.000000      3.305511000000000E-01      4.269727000000000E+01      5.053711000000000E-01     -1.521563000000000E+02
4832000000.000000      3.326416000000000E-01      4.280469000000000E+01      5.046692000000000E-01     -1.527969000000000E+02
4833000000.000000      3.338318000000000E-01      4.253125000000000E+01      5.040283000000000E-01     -1.534688000000000E+02
4834000000.000000      3.358765000000000E-01      4.245117000000000E+01      5.045471000000000E-01     -1.543047000000000E+02
4835000000.000000      3.384399000000000E-01      4.226563000000000E+01      5.020142000000000E-01     -1.550703000000000E+02
4836000000.000000      3.398895000000000E-01      4.230664000000000E+01      5.016174000000000E-01     -1.556250000000000E+02
4837000000.000000      3.410034000000000E-01      4.222852000000000E+01      4.998474000000000E-01     -1.564453000000000E+02
4838000000.000000      3.422852000000000E-01      4.190039000000000E+01      5.000610000000000E-01     -1.571094000000000E+02
4839000000.000000      3.459320000000000E-01      4.190039000000000E+01      4.981537000000000E-01     -1.578750000000000E+02
4840000000.000000      3.468018000000000E-01      4.162499000000000E+01      4.981842000000000E-01     -1.585859000000000E+02
4841000000.000000      3.485870000000000E-01      4.156640000000000E+01      4.981079000000000E-01     -1.593437000000000E+02
4842000000.000000      3.492279000000000E-01      4.133985000000000E+01      4.955139000000000E-01     -1.600078000000000E+02
4843000000.000000      3.521271000000000E-01      4.097852000000000E+01      4.941864000000000E-01     -1.607188000000000E+02
4844000000.000000      3.533173000000000E-01      4.090039000000000E+01      4.924927000000000E-01     -1.614531000000000E+02
4845000000.000000      3.545685000000000E-01      4.086914000000000E+01      4.905548000000000E-01     -1.620547000000000E+02
4846000000.000000      3.566284000000000E-01      4.060547000000000E+01      4.897614000000000E-01     -1.627578000000000E+02
4847000000.000000      3.580627000000000E-01      4.040039000000000E+01      4.882050000000000E-01     -1.635703000000000E+02
4848000000.000000      3.593445000000000E-01      4.012109000000000E+01      4.840546000000000E-01     -1.642187000000000E+02
4849000000.000000      3.607178000000000E-01      3.981640000000000E+01      4.854736000000000E-01     -1.650000000000000E+02
4850000000.000000      3.620148000000000E-01      3.965625000000000E+01      4.812164000000000E-01     -1.656250000000000E+02
4851000000.000000      3.635406000000000E-01      3.955273000000000E+01      4.806213000000000E-01     -1.664375000000000E+02
4852000000.000000      3.648071000000000E-01      3.926367000000000E+01      4.777222000000000E-01     -1.670156000000000E+02
4853000000.000000      3.660583000000000E-01      3.908203000000000E+01      4.757080000000000E-01     -1.676953000000000E+02
4854000000.000000      3.669281000000000E-01      3.878711000000000E+01      4.730682000000000E-01     -1.685078000000000E+02
4855000000.000000      3.688354000000000E-01      3.862695000000000E+01      4.723206000000000E-01     -1.691641000000000E+02
4856000000.000000      3.701172000000000E-01      3.838476000000000E+01      4.697723000000000E-01     -1.699375000000000E+02
4857000000.000000      3.709717000000000E-01      3.821289000000000E+01      4.673157000000000E-01     -1.704297000000000E+02
4858000000.000000      3.719940000000000E-01      3.790430000000000E+01      4.647064000000000E-01     -1.712734000000000E+02
4859000000.000000      3.729095000000000E-01      3.762304000000000E+01      4.626465000000000E-01     -1.720078000000000E+02
4860000000.000000      3.745422000000000E-01      3.736719000000000E+01      4.595490000000000E-01     -1.725859000000000E+02
4861000000.000000      3.748932000000000E-01      3.716015000000000E+01      4.568634000000000E-01     -1.732969000000000E+02
4862000000.000000      3.750916000000000E-01      3.684765000000000E+01      4.558716000000000E-01     -1.740937000000000E+02
4863000000.000000      3.765717000000000E-01      3.664258000000000E+01      4.500885000000000E-01     -1.746328000000000E+02
4864000000.000000      3.779755000000000E-01      3.628320000000000E+01      4.491730000000000E-01     -1.751875000000000E+02
4865000000.000000      3.784332000000000E-01      3.604297000000000E+01      4.450989000000000E-01     -1.759297000000000E+02
4866000000.000000      3.800507000000000E-01      3.566992000000000E+01      4.427185000000000E-01     -1.766328000000000E+02
4867000000.000000      3.795319000000000E-01      3.545703000000000E+01      4.399109000000000E-01     -1.773672000000000E+02
4868000000.000000      3.813477000000000E-01      3.514648000000000E+01      4.368744000000000E-01     -1.780313000000000E+02
4869000000.000000      3.813629000000000E-01      3.492578000000000E+01      4.342651000000000E-01     -1.785312000000000E+02
4870000000.000000      3.823242000000000E-01      3.472070000000000E+01      4.315186000000000E-01     -1.791250000000000E+02
4871000000.000000      3.831329000000000E-01      3.439258000000000E+01      4.279327000000000E-01     -1.797969000000000E+02
4872000000.000000      3.837585000000000E-01      3.425195000000000E+01      4.239960000000000E-01      1.796953000000000E+02
4873000000.000000      3.836823000000000E-01      3.391211000000000E+01      4.193573000000000E-01      1.790781000000000E+02
4874000000.000000      3.847046000000000E-01      3.368359000000000E+01      4.167328000000000E-01      1.782344000000000E+02
4875000000.000000      3.851776000000000E-01      3.336914000000000E+01      4.134827000000000E-01      1.778750000000000E+02
4876000000.000000      3.851013000000000E-01      3.322070000000000E+01      4.103851000000000E-01      1.772031000000000E+02
4877000000.000000      3.865051000000000E-01      3.275586000000000E+01      4.071350000000000E-01      1.763906000000000E+02
4878000000.000000      3.853149000000000E-01      3.253515000000000E+01      4.040070000000000E-01      1.762344000000000E+02
4879000000.000000      3.872223000000000E-01      3.237109000000000E+01      3.994293000000000E-01      1.756250000000000E+02
4880000000.000000      3.871918000000000E-01      3.193848000000000E+01      3.959198000000000E-01      1.748672000000000E+02
4881000000.000000      3.878326000000000E-01      3.185156000000000E+01      3.934784000000000E-01      1.745234000000000E+02
4882000000.000000      3.876343000000000E-01      3.160058000000000E+01      3.897095000000000E-01      1.739766000000000E+02
4883000000.000000      3.869171000000000E-01      3.115723000000000E+01      3.849945000000000E-01      1.733984000000000E+02
4884000000.000000      3.889313000000000E-01      3.106152000000000E+01      3.816833000000000E-01      1.728281000000000E+02
4885000000.000000      3.888702000000000E-01      3.075879000000000E+01      3.784485000000000E-01      1.725859000000000E+02
4886000000.000000      3.884888000000000E-01      3.051367000000000E+01      3.750763000000000E-01      1.718984000000000E+02
4887000000.000000      3.881073000000000E-01      3.026562000000000E+01      3.712158000000000E-01      1.712656000000000E+02
4888000000.000000      3.886414000000000E-01      2.978222000000000E+01      3.679810000000000E-01      1.708281000000000E+02
4889000000.000000      3.885651000000000E-01      2.976269000000000E+01      3.653717000000000E-01      1.703906000000000E+02
4890000000.000000      3.877716000000000E-01      2.939453000000000E+01      3.603973000000000E-01      1.695313000000000E+02
4891000000.000000      3.877563000000000E-01      2.934570000000000E+01      3.562927000000000E-01      1.694766000000000E+02
4892000000.000000      3.882141000000000E-01      2.891797000000000E+01      3.541260000000000E-01      1.692734000000000E+02
4893000000.000000      3.888855000000000E-01      2.876172000000000E+01      3.494110000000000E-01      1.683828000000000E+02
4894000000.000000      3.883820000000000E-01      2.848437000000000E+01      3.447876000000000E-01      1.681719000000000E+02
4895000000.000000      3.887329000000000E-01      2.822754000000000E+01      3.423920000000000E-01      1.678594000000000E+02
4896000000.000000      3.875580000000000E-01      2.806933000000000E+01      3.404388000000000E-01      1.672969000000000E+02
4897000000.000000      3.872833000000000E-01      2.779882000000000E+01      3.360138000000000E-01      1.668281000000000E+02
4898000000.000000      3.875275000000000E-01      2.763281000000000E+01      3.331909000000000E-01      1.665781000000000E+02
4899000000.000000      3.881073000000000E-01      2.734082000000000E+01      3.292694000000000E-01      1.659922000000000E+02
4900000000.000000      3.873138000000000E-01      2.705371000000000E+01      3.275604000000000E-01      1.655781000000000E+02
4901000000.000000      3.879852000000000E-01      2.690820000000000E+01      3.225708000000000E-01      1.652422000000000E+02
4902000000.000000      3.873138000000000E-01      2.660449000000000E+01      3.195038000000000E-01      1.648438000000000E+02
4903000000.000000      3.874054000000000E-01      2.668945000000000E+01      3.151703000000000E-01      1.645156000000000E+02
4904000000.000000      3.866577000000000E-01      2.612207000000000E+01      3.118286000000000E-01      1.640078000000000E+02
4905000000.000000      3.866119000000000E-01      2.605469000000000E+01      3.089294000000000E-01      1.635391000000000E+02
4906000000.000000      3.858185000000000E-01      2.579590000000000E+01      3.045807000000000E-01      1.635078000000000E+02
4907000000.000000      3.860779000000000E-01      2.564550000000000E+01      3.023987000000000E-01      1.628594000000000E+02
4908000000.000000      3.854828000000000E-01      2.540722000000000E+01      2.986298000000000E-01      1.624141000000000E+02
4909000000.000000      3.852081000000000E-01      2.530078000000000E+01      2.949066000000000E-01      1.621328000000000E+02
4910000000.000000      3.844147000000000E-01      2.493066000000000E+01      2.910309000000000E-01      1.617812000000000E+02
4911000000.000000      3.848114000000000E-01      2.488770000000000E+01      2.882080000000000E-01      1.613984000000000E+02
4912000000.000000      3.842773000000000E-01      2.459375000000000E+01      2.846832000000000E-01      1.608438000000000E+02
4913000000.000000      3.844910000000000E-01      2.443457000000000E+01      2.813110000000000E-01      1.605937000000000E+02
4914000000.000000      3.849792000000000E-01      2.412695000000000E+01      2.770081000000000E-01      1.603672000000000E+02
4915000000.000000      3.844147000000000E-01      2.412012000000000E+01      2.728882000000000E-01      1.598359000000000E+02
4916000000.000000      3.843689000000000E-01      2.384766000000000E+01      2.698669000000000E-01      1.593672000000000E+02
4917000000.000000      3.833466000000000E-01      2.372265000000000E+01      2.660675000000000E-01      1.592813000000000E+02
4918000000.000000      3.840790000000000E-01      2.355567000000000E+01      2.620850000000000E-01      1.587344000000000E+02
4919000000.000000      3.824768000000000E-01      2.326172000000000E+01      2.586365000000000E-01      1.586250000000000E+02
4920000000.000000      3.830719000000000E-01      2.307910000000000E+01      2.545471000000000E-01      1.581094000000000E+02
4921000000.000000      3.817444000000000E-01      2.305469000000000E+01      2.506256000000000E-01      1.579141000000000E+02
4922000000.000000      3.818970000000000E-01      2.274219000000000E+01      2.468567000000000E-01      1.578125000000000E+02
4923000000.000000      3.816681000000000E-01      2.248340000000000E+01      2.426300000000000E-01      1.575078000000000E+02
4924000000.000000      3.814392000000000E-01      2.228027000000000E+01      2.379608000000000E-01      1.571640000000000E+02
4925000000.000000      3.812866000000000E-01      2.219043000000000E+01      2.347641000000000E-01      1.569375000000000E+02
4926000000.000000      3.808594000000000E-01      2.205761000000000E+01      2.304306000000000E-01      1.566641000000000E+02
4927000000.000000      3.813477000000000E-01      2.186914000000000E+01      2.266769000000000E-01      1.564687000000000E+02
4928000000.000000      3.817139000000000E-01      2.153320000000000E+01      2.227936000000000E-01      1.564141000000000E+02
4929000000.000000      3.799286000000000E-01      2.150293000000000E+01      2.184753000000000E-01      1.562813000000000E+02
4930000000.000000      3.802338000000000E-01      2.136425000000000E+01      2.153397000000000E-01      1.560469000000000E+02
4931000000.000000      3.800964000000000E-01      2.112109000000000E+01      2.114029000000000E-01      1.560859000000000E+02
4932000000.000000      3.798676000000000E-01      2.105175000000000E+01      2.063217000000000E-01      1.559062000000000E+02
4933000000.000000      3.805237000000000E-01      2.084765000000000E+01      2.016296000000000E-01      1.561328000000000E+02
4934000000.000000      3.787537000000000E-01      2.049316000000000E+01      1.983109000000000E-01      1.559453000000000E+02
4935000000.000000      3.807831000000000E-01      2.039453000000000E+01      1.944885000000000E-01      1.560547000000000E+02
4936000000.000000      3.785400000000000E-01      2.025097000000000E+01      1.897736000000000E-01      1.561797000000000E+02
4937000000.000000      3.779907000000000E-01      1.997949000000000E+01      1.861191000000000E-01      1.561797000000000E+02
4938000000.000000      3.773041000000000E-01      1.997168000000000E+01      1.821365000000000E-01      1.565234000000000E+02
4939000000.000000      3.769836000000000E-01      1.987207000000000E+01      1.781387000000000E-01      1.566797000000000E+02
4940000000.000000      3.775177000000000E-01      1.958984000000000E+01      1.743164000000000E-01      1.569297000000000E+02
4941000000.000000      3.767853000000000E-01      1.929688000000000E+01      1.704636000000000E-01      1.573125000000000E+02
4942000000.000000      3.764954000000000E-01      1.934473000000000E+01      1.663818000000000E-01      1.575469000000000E+02
4943000000.000000      3.768158000000000E-01      1.918457000000000E+01      1.627274000000000E-01      1.580469000000000E+02
4944000000.000000      3.758698000000000E-01      1.875977000000000E+01      1.589127000000000E-01      1.585469000000000E+02
4945000000.000000      3.757935000000000E-01      1.866406000000000E+01      1.551666000000000E-01      1.591016000000000E+02
4946000000.000000      3.760986000000000E-01      1.859082000000000E+01      1.516342000000000E-01      1.597578000000000E+02
4947000000.000000      3.760681000000000E-01      1.829199000000000E+01      1.479187000000000E-01      1.606406000000000E+02
4948000000.000000      3.753510000000000E-01      1.816308000000000E+01      1.445618000000000E-01      1.613516000000000E+02
4949000000.000000      3.736725000000000E-01      1.804590000000000E+01      1.416016000000000E-01      1.624219000000000E+02
4950000000.000000      3.744049000000000E-01      1.786230000000000E+01      1.382904000000000E-01      1.632187000000000E+02
4951000000.000000      3.754730000000000E-01      1.779980000000000E+01      1.354828000000000E-01      1.640938000000000E+02
4952000000.000000      3.735657000000000E-01      1.753808000000000E+01      1.322479000000000E-01      1.651797000000000E+02
4953000000.000000      3.734436000000000E-01      1.744824000000000E+01      1.296539000000000E-01      1.667734000000000E+02
4954000000.000000      3.733063000000000E-01      1.732129000000000E+01      1.269760000000000E-01      1.678984000000000E+02
