! Network Analyzer HP8722D
! Hewlett-Packard
! Data name: Linha & Wilkinson
! Saver's name: Rodrigo Anjos
! Comments: Teste da utilização de aquisição
continua pelo VNA HP8722D
! Time and date: 23/5/2025 08:39
!              Frequency                     S11                                                   S21                                                   S12                                                   S22
# HZ  S  MA R 50
4800000000.000000      3.691101000000000E-01      3.230273000000000E+01      4.455414000000000E-01     -1.232305000000000E+02
4801000000.000000      3.699036000000000E-01      3.253320000000000E+01      4.459839000000000E-01     -1.240117000000000E+02
4802000000.000000      3.705139000000000E-01      3.264843000000000E+01      4.472046000000000E-01     -1.245976000000000E+02
4803000000.000000      3.704071000000000E-01      3.279687000000000E+01      4.492645000000000E-01     -1.253672000000000E+02
4804000000.000000      3.712463000000000E-01      3.302148000000000E+01      4.517059000000000E-01     -1.261719000000000E+02
4805000000.000000      3.729858000000000E-01      3.299414000000000E+01      4.522400000000000E-01     -1.268086000000000E+02
4806000000.000000      3.726349000000000E-01      3.320898000000000E+01      4.546814000000000E-01     -1.276055000000000E+02
4807000000.000000      3.735046000000000E-01      3.332226000000000E+01      4.556122000000000E-01     -1.282812000000000E+02
4808000000.000000      3.732758000000000E-01      3.346289000000000E+01      4.567413000000000E-01     -1.290313000000000E+02
4809000000.000000      3.748474000000000E-01      3.365625000000000E+01      4.578857000000000E-01     -1.301016000000000E+02
4810000000.000000      3.754120000000000E-01      3.373437000000000E+01      4.590912000000000E-01     -1.303437000000000E+02
4811000000.000000      3.772888000000000E-01      3.392187000000000E+01      4.587250000000000E-01     -1.313594000000000E+02
4812000000.000000      3.787537000000000E-01      3.408398000000000E+01      4.606781000000000E-01     -1.319141000000000E+02
4813000000.000000      3.792114000000000E-01      3.425000000000000E+01      4.614716000000000E-01     -1.326016000000000E+02
4814000000.000000      3.793335000000000E-01      3.423047000000000E+01      4.634552000000000E-01     -1.335078000000000E+02
4815000000.000000      3.805695000000000E-01      3.441211000000000E+01      4.638672000000000E-01     -1.341484000000000E+02
4816000000.000000      3.824005000000000E-01      3.451172000000000E+01      4.648743000000000E-01     -1.348828000000000E+02
4817000000.000000      3.824615000000000E-01      3.467968000000000E+01      4.637604000000000E-01     -1.356719000000000E+02
4818000000.000000      3.840790000000000E-01      3.464453000000000E+01      4.652100000000000E-01     -1.363984000000000E+02
4819000000.000000      3.853760000000000E-01      3.476367000000000E+01      4.638214000000000E-01     -1.372422000000000E+02
4820000000.000000      3.858337000000000E-01      3.484766000000000E+01      4.647827000000000E-01     -1.377344000000000E+02
4821000000.000000      3.879547000000000E-01      3.496484000000000E+01      4.658661000000000E-01     -1.386875000000000E+02
4822000000.000000      3.888550000000000E-01      3.491211000000000E+01      4.643860000000000E-01     -1.392187000000000E+02
4823000000.000000      3.901215000000000E-01      3.498632000000000E+01      4.657898000000000E-01     -1.401797000000000E+02
4824000000.000000      3.918762000000000E-01      3.519140000000000E+01      4.645691000000000E-01     -1.407344000000000E+02
4825000000.000000      3.927460000000000E-01      3.509375000000000E+01      4.649658000000000E-01     -1.415859000000000E+02
4826000000.000000      3.947144000000000E-01      3.505273000000000E+01      4.649963000000000E-01     -1.423828000000000E+02
4827000000.000000      3.956299000000000E-01      3.519726000000000E+01      4.653168000000000E-01     -1.428437000000000E+02
4828000000.000000      3.981171000000000E-01      3.512304000000000E+01      4.645233000000000E-01     -1.436484000000000E+02
4829000000.000000      3.992004000000000E-01      3.530859000000000E+01      4.640808000000000E-01     -1.444141000000000E+02
4830000000.000000      4.008484000000000E-01      3.509570000000000E+01      4.630127000000000E-01     -1.450859000000000E+02
4831000000.000000      4.015808000000000E-01      3.516992000000000E+01      4.625702000000000E-01     -1.460000000000000E+02
4832000000.000000      4.033661000000000E-01      3.525781000000000E+01      4.614563000000000E-01     -1.466094000000000E+02
4833000000.000000      4.043274000000000E-01      3.506054000000000E+01      4.614105000000000E-01     -1.473125000000000E+02
4834000000.000000      4.056396000000000E-01      3.508203000000000E+01      4.617310000000000E-01     -1.480625000000000E+02
4835000000.000000      4.079742000000000E-01      3.508789000000000E+01      4.616241000000000E-01     -1.487266000000000E+02
4836000000.000000      4.089355000000000E-01      3.519726000000000E+01      4.586029000000000E-01     -1.494922000000000E+02
4837000000.000000      4.101410000000000E-01      3.508984000000000E+01      4.586487000000000E-01     -1.502656000000000E+02
4838000000.000000      4.113770000000000E-01      3.492578000000000E+01      4.580994000000000E-01     -1.508125000000000E+02
4839000000.000000      4.149628000000000E-01      3.499609000000000E+01      4.584198000000000E-01     -1.516406000000000E+02
4840000000.000000      4.152069000000000E-01      3.486523000000000E+01      4.570465000000000E-01     -1.524062000000000E+02
4841000000.000000      4.168701000000000E-01      3.491406000000000E+01      4.557037000000000E-01     -1.530625000000000E+02
4842000000.000000      4.183502000000000E-01      3.465039000000000E+01      4.545288000000000E-01     -1.537812000000000E+02
4843000000.000000      4.208069000000000E-01      3.452148000000000E+01      4.546814000000000E-01     -1.545859000000000E+02
4844000000.000000      4.216003000000000E-01      3.449414000000000E+01      4.522705000000000E-01     -1.552109000000000E+02
4845000000.000000      4.226532000000000E-01      3.444921000000000E+01      4.508514000000000E-01     -1.559375000000000E+02
4846000000.000000      4.246826000000000E-01      3.436523000000000E+01      4.505310000000000E-01     -1.566328000000000E+02
4847000000.000000      4.256592000000000E-01      3.434179000000000E+01      4.486694000000000E-01     -1.574375000000000E+02
4848000000.000000      4.264221000000000E-01      3.406836000000000E+01      4.458923000000000E-01     -1.580156000000000E+02
4849000000.000000      4.285583000000000E-01      3.394922000000000E+01      4.457245000000000E-01     -1.588203000000000E+02
4850000000.000000      4.296570000000000E-01      3.389062000000000E+01      4.430389000000000E-01     -1.596953000000000E+02
4851000000.000000      4.315186000000000E-01      3.385156000000000E+01      4.441376000000000E-01     -1.604375000000000E+02
4852000000.000000      4.322815000000000E-01      3.363672000000000E+01      4.405975000000000E-01     -1.610234000000000E+02
4853000000.000000      4.336853000000000E-01      3.356640000000000E+01      4.371185000000000E-01     -1.617891000000000E+02
4854000000.000000      4.343567000000000E-01      3.331445000000000E+01      4.357452000000000E-01     -1.626641000000000E+02
4855000000.000000      4.357452000000000E-01      3.324414000000000E+01      4.347229000000000E-01     -1.632422000000000E+02
4856000000.000000      4.375000000000000E-01      3.299414000000000E+01      4.319153000000000E-01     -1.639609000000000E+02
4857000000.000000      4.387207000000000E-01      3.294726000000000E+01      4.314880000000000E-01     -1.645234000000000E+02
4858000000.000000      4.390564000000000E-01      3.276562000000000E+01      4.284363000000000E-01     -1.652969000000000E+02
4859000000.000000      4.398346000000000E-01      3.243555000000000E+01      4.255676000000000E-01     -1.660859000000000E+02
4860000000.000000      4.420166000000000E-01      3.246679000000000E+01      4.232483000000000E-01     -1.669297000000000E+02
4861000000.000000      4.429626000000000E-01      3.230664000000000E+01      4.210815000000000E-01     -1.674766000000000E+02
4862000000.000000      4.429321000000000E-01      3.209375000000000E+01      4.190063000000000E-01     -1.682656000000000E+02
4863000000.000000      4.448853000000000E-01      3.194824000000000E+01      4.150543000000000E-01     -1.689375000000000E+02
4864000000.000000      4.460907000000000E-01      3.176660000000000E+01      4.134827000000000E-01     -1.697031000000000E+02
4865000000.000000      4.474335000000000E-01      3.146484000000000E+01      4.101715000000000E-01     -1.701172000000000E+02
4866000000.000000      4.483032000000000E-01      3.130371000000000E+01      4.080505000000000E-01     -1.711953000000000E+02
4867000000.000000      4.484253000000000E-01      3.126758000000000E+01      4.056702000000000E-01     -1.717422000000000E+02
4868000000.000000      4.501648000000000E-01      3.095605000000000E+01      4.015503000000000E-01     -1.726406000000000E+02
4869000000.000000      4.503174000000000E-01      3.081347000000000E+01      3.977509000000000E-01     -1.731484000000000E+02
4870000000.000000      4.514008000000000E-01      3.070508000000000E+01      3.952179000000000E-01     -1.735703000000000E+02
4871000000.000000      4.533081000000000E-01      3.030957000000000E+01      3.925476000000000E-01     -1.744766000000000E+02
4872000000.000000      4.551086000000000E-01      3.006348000000000E+01      3.889771000000000E-01     -1.749375000000000E+02
4873000000.000000      4.536591000000000E-01      3.016894000000000E+01      3.857880000000000E-01     -1.758203000000000E+02
4874000000.000000      4.544678000000000E-01      2.999512000000000E+01      3.815155000000000E-01     -1.763984000000000E+02
4875000000.000000      4.551239000000000E-01      2.936328000000000E+01      3.795013000000000E-01     -1.768437000000000E+02
4876000000.000000      4.577332000000000E-01      2.965723000000000E+01      3.754425000000000E-01     -1.776250000000000E+02
4877000000.000000      4.571381000000000E-01      2.926172000000000E+01      3.719025000000000E-01     -1.779687000000000E+02
4878000000.000000      4.554749000000000E-01      2.906152000000000E+01      3.684540000000000E-01     -1.786719000000000E+02
4879000000.000000      4.573059000000000E-01      2.885937000000000E+01      3.656311000000000E-01     -1.791172000000000E+02
4880000000.000000      4.583130000000000E-01      2.879492000000000E+01      3.636627000000000E-01     -1.798594000000000E+02
4881000000.000000      4.582214000000000E-01      2.856152000000000E+01      3.583984000000000E-01      1.795469000000000E+02
4882000000.000000      4.593048000000000E-01      2.840429000000000E+01      3.562775000000000E-01      1.790547000000000E+02
4883000000.000000      4.599304000000000E-01      2.808984000000000E+01      3.517151000000000E-01      1.784688000000000E+02
4884000000.000000      4.611359000000000E-01      2.813574000000000E+01      3.488007000000000E-01      1.780156000000000E+02
4885000000.000000      4.612427000000000E-01      2.759277000000000E+01      3.452606000000000E-01      1.777266000000000E+02
4886000000.000000      4.610138000000000E-01      2.754785000000000E+01      3.422394000000000E-01      1.770859000000000E+02
4887000000.000000      4.604950000000000E-01      2.750781000000000E+01      3.390503000000000E-01      1.764453000000000E+02
4888000000.000000      4.622955000000000E-01      2.707226000000000E+01      3.359833000000000E-01      1.760156000000000E+02
4889000000.000000      4.624176000000000E-01      2.694238000000000E+01      3.306122000000000E-01      1.757187000000000E+02
4890000000.000000      4.618835000000000E-01      2.678808000000000E+01      3.273163000000000E-01      1.747109000000000E+02
4891000000.000000      4.611969000000000E-01      2.670215000000000E+01      3.231201000000000E-01      1.745312000000000E+02
4892000000.000000      4.624329000000000E-01      2.631152000000000E+01      3.213348000000000E-01      1.743594000000000E+02
4893000000.000000      4.634094000000000E-01      2.623926000000000E+01      3.179626000000000E-01      1.736406000000000E+02
4894000000.000000      4.611359000000000E-01      2.594238000000000E+01      3.148956000000000E-01      1.732734000000000E+02
4895000000.000000      4.644470000000000E-01      2.574902000000000E+01      3.112335000000000E-01      1.728359000000000E+02
4896000000.000000      4.634705000000000E-01      2.582031000000000E+01      3.082886000000000E-01      1.725469000000000E+02
4897000000.000000      4.633789000000000E-01      2.532324000000000E+01      3.041382000000000E-01      1.721172000000000E+02
4898000000.000000      4.637909000000000E-01      2.547363000000000E+01      3.007965000000000E-01      1.718281000000000E+02
4899000000.000000      4.631500000000000E-01      2.543164000000000E+01      2.987213000000000E-01      1.712109000000000E+02
4900000000.000000      4.648743000000000E-01      2.484668000000000E+01      2.940216000000000E-01      1.709687000000000E+02
4901000000.000000      4.639435000000000E-01      2.489453000000000E+01      2.913666000000000E-01      1.705391000000000E+02
4902000000.000000      4.644623000000000E-01      2.459082000000000E+01      2.885437000000000E-01      1.702031000000000E+02
4903000000.000000      4.637451000000000E-01      2.453320000000000E+01      2.842407000000000E-01      1.697734000000000E+02
4904000000.000000      4.642029000000000E-01      2.428320000000000E+01      2.811584000000000E-01      1.692891000000000E+02
4905000000.000000      4.645691000000000E-01      2.414746000000000E+01      2.784271000000000E-01      1.688984000000000E+02
4906000000.000000      4.623718000000000E-01      2.396582000000000E+01      2.757721000000000E-01      1.689219000000000E+02
4907000000.000000      4.632263000000000E-01      2.378320000000000E+01      2.727661000000000E-01      1.682266000000000E+02
4908000000.000000      4.631042000000000E-01      2.356836000000000E+01      2.688293000000000E-01      1.677500000000000E+02
4909000000.000000      4.615326000000000E-01      2.345801000000000E+01      2.650146000000000E-01      1.675625000000000E+02
4910000000.000000      4.640198000000000E-01      2.326855000000000E+01      2.620544000000000E-01      1.670625000000000E+02
4911000000.000000      4.642792000000000E-01      2.329590000000000E+01      2.587433000000000E-01      1.668047000000000E+02
4912000000.000000      4.616089000000000E-01      2.290234000000000E+01      2.548981000000000E-01      1.662969000000000E+02
4913000000.000000      4.646454000000000E-01      2.281836000000000E+01      2.525482000000000E-01      1.657422000000000E+02
4914000000.000000      4.636688000000000E-01      2.287012000000000E+01      2.490616000000000E-01      1.658672000000000E+02
4915000000.000000      4.632416000000000E-01      2.260156000000000E+01      2.453842000000000E-01      1.652891000000000E+02
4916000000.000000      4.637604000000000E-01      2.249707000000000E+01      2.424011000000000E-01      1.649297000000000E+02
4917000000.000000      4.617920000000000E-01      2.222656000000000E+01      2.382965000000000E-01      1.647500000000000E+02
4918000000.000000      4.626160000000000E-01      2.213574000000000E+01      2.347107000000000E-01      1.643594000000000E+02
4919000000.000000      4.621887000000000E-01      2.193652000000000E+01      2.318573000000000E-01      1.643672000000000E+02
4920000000.000000      4.621582000000000E-01      2.178906000000000E+01      2.278976000000000E-01      1.639062000000000E+02
4921000000.000000      4.626312000000000E-01      2.175488000000000E+01      2.248535000000000E-01      1.636016000000000E+02
4922000000.000000      4.618378000000000E-01      2.138281000000000E+01      2.206345000000000E-01      1.634766000000000E+02
4923000000.000000      4.619751000000000E-01      2.145703000000000E+01      2.166367000000000E-01      1.631875000000000E+02
4924000000.000000      4.631042000000000E-01      2.132715000000000E+01      2.132797000000000E-01      1.627812000000000E+02
4925000000.000000      4.617157000000000E-01      2.109179000000000E+01      2.098007000000000E-01      1.626328000000000E+02
4926000000.000000      4.614868000000000E-01      2.103027000000000E+01      2.066727000000000E-01      1.625469000000000E+02
4927000000.000000      4.629364000000000E-01      2.065820000000000E+01      2.026596000000000E-01      1.621562000000000E+02
4928000000.000000      4.618683000000000E-01      2.052637000000000E+01      1.993942000000000E-01      1.622890000000000E+02
4929000000.000000      4.632721000000000E-01      2.055371000000000E+01      1.954651000000000E-01      1.620937000000000E+02
4930000000.000000      4.630585000000000E-01      2.042187000000000E+01      1.916504000000000E-01      1.619609000000000E+02
4931000000.000000      4.604187000000000E-01      2.000586000000000E+01      1.879730000000000E-01      1.619922000000000E+02
4932000000.000000      4.632874000000000E-01      2.005762000000000E+01      1.842957000000000E-01      1.619141000000000E+02
4933000000.000000      4.610138000000000E-01      1.980957000000000E+01      1.801453000000000E-01      1.621250000000000E+02
4934000000.000000      4.608917000000000E-01      1.952929000000000E+01      1.764832000000000E-01      1.619688000000000E+02
4935000000.000000      4.621124000000000E-01      1.953613000000000E+01      1.734619000000000E-01      1.623047000000000E+02
4936000000.000000      4.609528000000000E-01      1.949512000000000E+01      1.696701000000000E-01      1.622578000000000E+02
4937000000.000000      4.599457000000000E-01      1.928418000000000E+01      1.656265000000000E-01      1.624453000000000E+02
4938000000.000000      4.602051000000000E-01      1.918457000000000E+01      1.626205000000000E-01      1.626172000000000E+02
4939000000.000000      4.594116000000000E-01      1.924805000000000E+01      1.588211000000000E-01      1.631250000000000E+02
4940000000.000000      4.612274000000000E-01      1.874804000000000E+01      1.554108000000000E-01      1.632266000000000E+02
4941000000.000000      4.589233000000000E-01      1.885937000000000E+01      1.519241000000000E-01      1.637812000000000E+02
4942000000.000000      4.589691000000000E-01      1.860254000000000E+01      1.480637000000000E-01      1.641641000000000E+02
4943000000.000000      4.598389000000000E-01      1.843359000000000E+01      1.444626000000000E-01      1.644063000000000E+02
4944000000.000000      4.584045000000000E-01      1.832910000000000E+01      1.416168000000000E-01      1.651719000000000E+02
4945000000.000000      4.591980000000000E-01      1.821582000000000E+01      1.375656000000000E-01      1.659688000000000E+02
4946000000.000000      4.599915000000000E-01      1.810742000000000E+01      1.347198000000000E-01      1.663828000000000E+02
4947000000.000000      4.596252000000000E-01      1.789355000000000E+01      1.314163000000000E-01      1.672109000000000E+02
4948000000.000000      4.587708000000000E-01      1.769531000000000E+01      1.287231000000000E-01      1.682969000000000E+02
4949000000.000000      4.582367000000000E-01      1.797461000000000E+01      1.263885000000000E-01      1.693438000000000E+02
4950000000.000000      4.598236000000000E-01      1.764648000000000E+01      1.232300000000000E-01      1.703516000000000E+02
4951000000.000000      4.587860000000000E-01      1.738574000000000E+01      1.206932000000000E-01      1.713438000000000E+02
4952000000.000000      4.584961000000000E-01      1.711523000000000E+01      1.178589000000000E-01      1.724922000000000E+02
4953000000.000000      4.594574000000000E-01      1.706250000000000E+01      1.158752000000000E-01      1.738516000000000E+02
4954000000.000000      4.573059000000000E-01      1.691308000000000E+01      1.135368000000000E-01      1.750937000000000E+02
