! Network Analyzer HP8722D
! Hewlett-Packard
! Data name: Linha & Wilkinson
! Saver's name: Rodrigo Anjos
! Comments: Teste da utilização de aquisição
continua pelo VNA HP8722D
! Time and date: 23/5/2025 14:46
!              Frequency                     S11                                                   S21                                                   S12                                                   S22
# HZ  S  MA R 50
4800000000.000000      2.878723000000000E-01      3.956445000000000E+01      4.823914000000000E-01     -1.293906000000000E+02
4801000000.000000      2.884369000000000E-01      3.991211000000000E+01      4.850006000000000E-01     -1.299609000000000E+02
4802000000.000000      2.896271000000000E-01      4.000586000000000E+01      4.868774000000000E-01     -1.306562000000000E+02
4803000000.000000      2.908020000000000E-01      4.026563000000000E+01      4.890137000000000E-01     -1.313672000000000E+02
4804000000.000000      2.917023000000000E-01      4.053711000000000E+01      4.908905000000000E-01     -1.321719000000000E+02
4805000000.000000      2.936707000000000E-01      4.054688000000000E+01      4.925079000000000E-01     -1.328984000000000E+02
4806000000.000000      2.942505000000000E-01      4.081445000000000E+01      4.941101000000000E-01     -1.333437000000000E+02
4807000000.000000      2.956238000000000E-01      4.098633000000000E+01      4.949341000000000E-01     -1.344141000000000E+02
4808000000.000000      2.967224000000000E-01      4.119336000000000E+01      4.962463000000000E-01     -1.350234000000000E+02
4809000000.000000      2.986755000000000E-01      4.145703000000000E+01      4.978027000000000E-01     -1.357734000000000E+02
4810000000.000000      2.999115000000000E-01      4.152344000000000E+01      4.988556000000000E-01     -1.364219000000000E+02
4811000000.000000      3.021545000000000E-01      4.166992000000000E+01      4.996948000000000E-01     -1.373047000000000E+02
4812000000.000000      3.041077000000000E-01      4.172852000000000E+01      5.004272000000000E-01     -1.378984000000000E+02
4813000000.000000      3.053284000000000E-01      4.195117000000000E+01      4.996185000000000E-01     -1.386172000000000E+02
4814000000.000000      3.063354000000000E-01      4.190820000000000E+01      5.010071000000000E-01     -1.393750000000000E+02
4815000000.000000      3.076477000000000E-01      4.212110000000000E+01      5.030823000000000E-01     -1.402266000000000E+02
4816000000.000000      3.097076000000000E-01      4.234375000000000E+01      5.032654000000000E-01     -1.407812000000000E+02
4817000000.000000      3.111267000000000E-01      4.231641000000000E+01      5.033875000000000E-01     -1.416328000000000E+02
4818000000.000000      3.125916000000000E-01      4.230469000000000E+01      5.028076000000000E-01     -1.423672000000000E+02
4819000000.000000      3.147583000000000E-01      4.244141000000000E+01      5.039063000000000E-01     -1.432266000000000E+02
4820000000.000000      3.160400000000000E-01      4.241211000000000E+01      5.047302000000000E-01     -1.438281000000000E+02
4821000000.000000      3.189697000000000E-01      4.251562000000000E+01      5.058289000000000E-01     -1.445547000000000E+02
4822000000.000000      3.191986000000000E-01      4.243945000000000E+01      5.037537000000000E-01     -1.454375000000000E+02
4823000000.000000      3.215790000000000E-01      4.243360000000000E+01      5.050354000000000E-01     -1.460234000000000E+02
4824000000.000000      3.240051000000000E-01      4.248047000000000E+01      5.042114000000000E-01     -1.468516000000000E+02
4825000000.000000      3.250427000000000E-01      4.235156000000000E+01      5.046082000000000E-01     -1.473984000000000E+02
4826000000.000000      3.263092000000000E-01      4.245898000000000E+01      5.042114000000000E-01     -1.483828000000000E+02
4827000000.000000      3.284912000000000E-01      4.241406000000000E+01      5.037842000000000E-01     -1.488672000000000E+02
4828000000.000000      3.312225000000000E-01      4.235742000000000E+01      5.036926000000000E-01     -1.498281000000000E+02
4829000000.000000      3.330383000000000E-01      4.237305000000000E+01      5.037231000000000E-01     -1.503828000000000E+02
4830000000.000000      3.345947000000000E-01      4.217187000000000E+01      5.021362000000000E-01     -1.510234000000000E+02
4831000000.000000      3.358612000000000E-01      4.211523000000000E+01      5.025024000000000E-01     -1.518281000000000E+02
4832000000.000000      3.382721000000000E-01      4.210351000000000E+01      5.023193000000000E-01     -1.525703000000000E+02
4833000000.000000      3.388367000000000E-01      4.193164000000000E+01      5.002747000000000E-01     -1.531406000000000E+02
4834000000.000000      3.407745000000000E-01      4.184766000000000E+01      4.991150000000000E-01     -1.538281000000000E+02
4835000000.000000      3.434143000000000E-01      4.173828000000000E+01      4.985657000000000E-01     -1.547188000000000E+02
4836000000.000000      3.451996000000000E-01      4.166016000000000E+01      4.978790000000000E-01     -1.552969000000000E+02
4837000000.000000      3.462982000000000E-01      4.163086000000000E+01      4.960785000000000E-01     -1.563359000000000E+02
4838000000.000000      3.476410000000000E-01      4.143555000000000E+01      4.957275000000000E-01     -1.566953000000000E+02
4839000000.000000      3.515930000000000E-01      4.125781000000000E+01      4.932098000000000E-01     -1.574609000000000E+02
4840000000.000000      3.520508000000000E-01      4.100976000000000E+01      4.939423000000000E-01     -1.581563000000000E+02
4841000000.000000      3.537292000000000E-01      4.091601000000000E+01      4.926300000000000E-01     -1.589922000000000E+02
4842000000.000000      3.551636000000000E-01      4.080078000000000E+01      4.915314000000000E-01     -1.597578000000000E+02
4843000000.000000      3.575439000000000E-01      4.039453000000000E+01      4.903870000000000E-01     -1.604453000000000E+02
4844000000.000000      3.584595000000000E-01      4.040625000000000E+01      4.882050000000000E-01     -1.610703000000000E+02
4845000000.000000      3.605499000000000E-01      4.028906000000000E+01      4.866943000000000E-01     -1.618438000000000E+02
4846000000.000000      3.621826000000000E-01      4.004296000000000E+01      4.861603000000000E-01     -1.624766000000000E+02
4847000000.000000      3.636475000000000E-01      4.004492000000000E+01      4.846191000000000E-01     -1.630625000000000E+02
4848000000.000000      3.637543000000000E-01      3.954883000000000E+01      4.810181000000000E-01     -1.639688000000000E+02
4849000000.000000      3.652039000000000E-01      3.938672000000000E+01      4.804688000000000E-01     -1.645234000000000E+02
4850000000.000000      3.670959000000000E-01      3.927148000000000E+01      4.789429000000000E-01     -1.653203000000000E+02
4851000000.000000      3.688354000000000E-01      3.912500000000000E+01      4.779358000000000E-01     -1.659688000000000E+02
4852000000.000000      3.698425000000000E-01      3.872461000000000E+01      4.750214000000000E-01     -1.667578000000000E+02
4853000000.000000      3.719788000000000E-01      3.864258000000000E+01      4.714966000000000E-01     -1.673906000000000E+02
4854000000.000000      3.723602000000000E-01      3.832617000000000E+01      4.695892000000000E-01     -1.682109000000000E+02
4855000000.000000      3.730469000000000E-01      3.810547000000000E+01      4.698486000000000E-01     -1.688437000000000E+02
4856000000.000000      3.748016000000000E-01      3.785547000000000E+01      4.661865000000000E-01     -1.696094000000000E+02
4857000000.000000      3.763885000000000E-01      3.775000000000000E+01      4.650116000000000E-01     -1.700234000000000E+02
4858000000.000000      3.770599000000000E-01      3.743555000000000E+01      4.606781000000000E-01     -1.708047000000000E+02
4859000000.000000      3.781281000000000E-01      3.714844000000000E+01      4.608612000000000E-01     -1.716563000000000E+02
4860000000.000000      3.793182000000000E-01      3.703711000000000E+01      4.567108000000000E-01     -1.722812000000000E+02
4861000000.000000      3.804932000000000E-01      3.674805000000000E+01      4.536133000000000E-01     -1.731797000000000E+02
4862000000.000000      3.807068000000000E-01      3.636328000000000E+01      4.524689000000000E-01     -1.736250000000000E+02
4863000000.000000      3.825989000000000E-01      3.618164000000000E+01      4.476318000000000E-01     -1.744297000000000E+02
4864000000.000000      3.827820000000000E-01      3.604883000000000E+01      4.468689000000000E-01     -1.748750000000000E+02
4865000000.000000      3.839111000000000E-01      3.564648000000000E+01      4.432678000000000E-01     -1.755156000000000E+02
4866000000.000000      3.845825000000000E-01      3.541211000000000E+01      4.404144000000000E-01     -1.764453000000000E+02
4867000000.000000      3.843689000000000E-01      3.509766000000000E+01      4.369202000000000E-01     -1.772109000000000E+02
4868000000.000000      3.862305000000000E-01      3.483007000000000E+01      4.335022000000000E-01     -1.776719000000000E+02
4869000000.000000      3.867798000000000E-01      3.456445000000000E+01      4.295959000000000E-01     -1.784141000000000E+02
4870000000.000000      3.868561000000000E-01      3.442968000000000E+01      4.277344000000000E-01     -1.789766000000000E+02
4871000000.000000      3.870087000000000E-01      3.398828000000000E+01      4.216309000000000E-01     -1.794765000000000E+02
4872000000.000000      3.890228000000000E-01      3.380078000000000E+01      4.197235000000000E-01      1.799922000000000E+02
4873000000.000000      3.888702000000000E-01      3.351367000000000E+01      4.170074000000000E-01      1.790937000000000E+02
4874000000.000000      3.901062000000000E-01      3.338281000000000E+01      4.143677000000000E-01      1.784219000000000E+02
4875000000.000000      3.900146000000000E-01      3.300000000000000E+01      4.104614000000000E-01      1.781563000000000E+02
4876000000.000000      3.905182000000000E-01      3.293164000000000E+01      4.068298000000000E-01      1.773828000000000E+02
4877000000.000000      3.927002000000000E-01      3.249804000000000E+01      4.037781000000000E-01      1.767422000000000E+02
4878000000.000000      3.914185000000000E-01      3.228320000000000E+01      4.001312000000000E-01      1.763281000000000E+02
4879000000.000000      3.927460000000000E-01      3.204297000000000E+01      3.958435000000000E-01      1.759297000000000E+02
4880000000.000000      3.930817000000000E-01      3.171679000000000E+01      3.923492000000000E-01      1.752344000000000E+02
4881000000.000000      3.929749000000000E-01      3.143555000000000E+01      3.890991000000000E-01      1.749063000000000E+02
4882000000.000000      3.938141000000000E-01      3.120312000000000E+01      3.861694000000000E-01      1.741172000000000E+02
4883000000.000000      3.928528000000000E-01      3.089844000000000E+01      3.822327000000000E-01      1.734766000000000E+02
4884000000.000000      3.944550000000000E-01      3.080664000000000E+01      3.774719000000000E-01      1.731250000000000E+02
4885000000.000000      3.941193000000000E-01      3.045410000000000E+01      3.745880000000000E-01      1.728203000000000E+02
4886000000.000000      3.948059000000000E-01      3.033398000000000E+01      3.724670000000000E-01      1.724062000000000E+02
4887000000.000000      3.939362000000000E-01      3.003906000000000E+01      3.693237000000000E-01      1.716640000000000E+02
4888000000.000000      3.950806000000000E-01      2.970703000000000E+01      3.651733000000000E-01      1.710625000000000E+02
4889000000.000000      3.945007000000000E-01      2.950976000000000E+01      3.614655000000000E-01      1.708437000000000E+02
4890000000.000000      3.934479000000000E-01      2.921093000000000E+01      3.573456000000000E-01      1.698281000000000E+02
4891000000.000000      3.936920000000000E-01      2.898535000000000E+01      3.534088000000000E-01      1.696563000000000E+02
4892000000.000000      3.932953000000000E-01      2.887012000000000E+01      3.493500000000000E-01      1.694687000000000E+02
4893000000.000000      3.949432000000000E-01      2.856250000000000E+01      3.469238000000000E-01      1.687344000000000E+02
4894000000.000000      3.937836000000000E-01      2.832129000000000E+01      3.429871000000000E-01      1.682812000000000E+02
4895000000.000000      3.950043000000000E-01      2.800000000000000E+01      3.413544000000000E-01      1.680625000000000E+02
4896000000.000000      3.940430000000000E-01      2.776172000000000E+01      3.365631000000000E-01      1.675156000000000E+02
4897000000.000000      3.932190000000000E-01      2.766602000000000E+01      3.334351000000000E-01      1.671016000000000E+02
4898000000.000000      3.937531000000000E-01      2.744922000000000E+01      3.293915000000000E-01      1.668828000000000E+02
4899000000.000000      3.936768000000000E-01      2.716601000000000E+01      3.260193000000000E-01      1.661562000000000E+02
4900000000.000000      3.931580000000000E-01      2.694921000000000E+01      3.228912000000000E-01      1.657422000000000E+02
4901000000.000000      3.934631000000000E-01      2.670312000000000E+01      3.199158000000000E-01      1.655000000000000E+02
4902000000.000000      3.941345000000000E-01      2.645508000000000E+01      3.163147000000000E-01      1.651016000000000E+02
4903000000.000000      3.931885000000000E-01      2.648438000000000E+01      3.113556000000000E-01      1.646875000000000E+02
4904000000.000000      3.930969000000000E-01      2.603418000000000E+01      3.088989000000000E-01      1.644063000000000E+02
4905000000.000000      3.923950000000000E-01      2.587597000000000E+01      3.064575000000000E-01      1.638281000000000E+02
4906000000.000000      3.919678000000000E-01      2.568457000000000E+01      3.024292000000000E-01      1.636797000000000E+02
4907000000.000000      3.918915000000000E-01      2.552637000000000E+01      2.992096000000000E-01      1.630469000000000E+02
4908000000.000000      3.924866000000000E-01      2.518847000000000E+01      2.964172000000000E-01      1.627578000000000E+02
4909000000.000000      3.917389000000000E-01      2.515722000000000E+01      2.920532000000000E-01      1.623828000000000E+02
4910000000.000000      3.911285000000000E-01      2.474902000000000E+01      2.883453000000000E-01      1.620859000000000E+02
4911000000.000000      3.910370000000000E-01      2.476563000000000E+01      2.847290000000000E-01      1.617656000000000E+02
4912000000.000000      3.908844000000000E-01      2.444726000000000E+01      2.817383000000000E-01      1.611562000000000E+02
4913000000.000000      3.908997000000000E-01      2.426855000000000E+01      2.784271000000000E-01      1.609531000000000E+02
4914000000.000000      3.900757000000000E-01      2.405273000000000E+01      2.742615000000000E-01      1.606797000000000E+02
4915000000.000000      3.905945000000000E-01      2.400293000000000E+01      2.701416000000000E-01      1.600391000000000E+02
4916000000.000000      3.897247000000000E-01      2.383984000000000E+01      2.670746000000000E-01      1.595781000000000E+02
4917000000.000000      3.901062000000000E-01      2.355175000000000E+01      2.630005000000000E-01      1.597265000000000E+02
4918000000.000000      3.896790000000000E-01      2.339648000000000E+01      2.586060000000000E-01      1.591563000000000E+02
4919000000.000000      3.875275000000000E-01      2.323047000000000E+01      2.562256000000000E-01      1.590859000000000E+02
4920000000.000000      3.892365000000000E-01      2.307812000000000E+01      2.510681000000000E-01      1.584453000000000E+02
4921000000.000000      3.887024000000000E-01      2.290234000000000E+01      2.487488000000000E-01      1.584063000000000E+02
4922000000.000000      3.882904000000000E-01      2.268750000000000E+01      2.443314000000000E-01      1.581719000000000E+02
4923000000.000000      3.887329000000000E-01      2.257813000000000E+01      2.395630000000000E-01      1.578203000000000E+02
4924000000.000000      3.887177000000000E-01      2.246680000000000E+01      2.360077000000000E-01      1.574297000000000E+02
4925000000.000000      3.869171000000000E-01      2.211524000000000E+01      2.324219000000000E-01      1.573516000000000E+02
4926000000.000000      3.872986000000000E-01      2.201367000000000E+01      2.287598000000000E-01      1.570391000000000E+02
4927000000.000000      3.862915000000000E-01      2.183887000000000E+01      2.241669000000000E-01      1.568906000000000E+02
4928000000.000000      3.879852000000000E-01      2.156250000000000E+01      2.207489000000000E-01      1.566328000000000E+02
4929000000.000000      3.864746000000000E-01      2.136523000000000E+01      2.157822000000000E-01      1.567031000000000E+02
4930000000.000000      3.860321000000000E-01      2.124609000000000E+01      2.127762000000000E-01      1.564609000000000E+02
4931000000.000000      3.864594000000000E-01      2.096875000000000E+01      2.088852000000000E-01      1.562109000000000E+02
4932000000.000000      3.863678000000000E-01      2.089942000000000E+01      2.043228000000000E-01      1.563672000000000E+02
4933000000.000000      3.854370000000000E-01      2.071387000000000E+01      1.991730000000000E-01      1.564453000000000E+02
4934000000.000000      3.849487000000000E-01      2.053027000000000E+01      1.962585000000000E-01      1.562969000000000E+02
4935000000.000000      3.847351000000000E-01      2.044922000000000E+01      1.924667000000000E-01      1.566641000000000E+02
4936000000.000000      3.848267000000000E-01      2.030273000000000E+01      1.878128000000000E-01      1.565703000000000E+02
4937000000.000000      3.837891000000000E-01      2.003613000000000E+01      1.841202000000000E-01      1.565938000000000E+02
4938000000.000000      3.838043000000000E-01      2.003027000000000E+01      1.799698000000000E-01      1.569922000000000E+02
4939000000.000000      3.841400000000000E-01      1.984766000000000E+01      1.763000000000000E-01      1.570937000000000E+02
4940000000.000000      3.843384000000000E-01      1.963867000000000E+01      1.720200000000000E-01      1.571563000000000E+02
4941000000.000000      3.835144000000000E-01      1.930273000000000E+01      1.681061000000000E-01      1.578828000000000E+02
4942000000.000000      3.824005000000000E-01      1.933301000000000E+01      1.644745000000000E-01      1.581797000000000E+02
4943000000.000000      3.826141000000000E-01      1.910058000000000E+01      1.606522000000000E-01      1.585391000000000E+02
4944000000.000000      3.818512000000000E-01      1.878906000000000E+01      1.571121000000000E-01      1.591250000000000E+02
4945000000.000000      3.830261000000000E-01      1.871289000000000E+01      1.532745000000000E-01      1.595547000000000E+02
4946000000.000000      3.823700000000000E-01      1.871191000000000E+01      1.497345000000000E-01      1.601953000000000E+02
4947000000.000000      3.822327000000000E-01      1.830859000000000E+01      1.461258000000000E-01      1.610156000000000E+02
4948000000.000000      3.821564000000000E-01      1.826953000000000E+01      1.426010000000000E-01      1.618984000000000E+02
4949000000.000000      3.802948000000000E-01      1.802539000000000E+01      1.399078000000000E-01      1.629766000000000E+02
4950000000.000000      3.807068000000000E-01      1.785352000000000E+01      1.365433000000000E-01      1.636016000000000E+02
4951000000.000000      3.810730000000000E-01      1.774121000000000E+01      1.338196000000000E-01      1.647969000000000E+02
4952000000.000000      3.803253000000000E-01      1.741699000000000E+01      1.305542000000000E-01      1.659453000000000E+02
4953000000.000000      3.795166000000000E-01      1.734179000000000E+01      1.283875000000000E-01      1.674219000000000E+02
4954000000.000000      3.800964000000000E-01      1.720801000000000E+01      1.255798000000000E-01      1.684609000000000E+02
