! Network Analyzer HP8722D
! Hewlett-Packard
! Data name: Linha & Wilkinson
! Saver's name: Rodrigo Anjos
! Comments: Teste da utilização de aquisição
continua pelo VNA HP8722D
! Time and date: 23/5/2025 07:53
!              Frequency                     S11                                                   S21                                                   S12                                                   S22
# HZ  S  MA R 50
4800000000.000000      5.299377000000000E-01      1.987793000000000E+01      4.279327000000000E-01     -1.060859000000000E+02
4801000000.000000      5.284729000000000E-01      1.992871000000000E+01      4.280853000000000E-01     -1.067578000000000E+02
4802000000.000000      5.281067000000000E-01      1.995996000000000E+01      4.291382000000000E-01     -1.073008000000000E+02
4803000000.000000      5.267029000000000E-01      2.007324000000000E+01      4.320831000000000E-01     -1.080234000000000E+02
4804000000.000000      5.264893000000000E-01      1.995801000000000E+01      4.326630000000000E-01     -1.088711000000000E+02
4805000000.000000      5.265198000000000E-01      2.003027000000000E+01      4.327240000000000E-01     -1.097031000000000E+02
4806000000.000000      5.252075000000000E-01      2.013574000000000E+01      4.353638000000000E-01     -1.103164000000000E+02
4807000000.000000      5.250244000000000E-01      2.029297000000000E+01      4.358978000000000E-01     -1.115000000000000E+02
4808000000.000000      5.218201000000000E-01      2.031054000000000E+01      4.369507000000000E-01     -1.119102000000000E+02
4809000000.000000      5.238342000000000E-01      2.071387000000000E+01      4.381256000000000E-01     -1.127383000000000E+02
4810000000.000000      5.231628000000000E-01      2.058496000000000E+01      4.398346000000000E-01     -1.131406000000000E+02
4811000000.000000      5.222778000000000E-01      2.075781000000000E+01      4.414368000000000E-01     -1.142188000000000E+02
4812000000.000000      5.232239000000000E-01      2.097558000000000E+01      4.409027000000000E-01     -1.148984000000000E+02
4813000000.000000      5.229492000000000E-01      2.100976000000000E+01      4.440613000000000E-01     -1.155976000000000E+02
4814000000.000000      5.215759000000000E-01      2.103516000000000E+01      4.427795000000000E-01     -1.162422000000000E+02
4815000000.000000      5.205994000000000E-01      2.106055000000000E+01      4.431915000000000E-01     -1.171367000000000E+02
4816000000.000000      5.226746000000000E-01      2.134472000000000E+01      4.438629000000000E-01     -1.179023000000000E+02
4817000000.000000      5.221863000000000E-01      2.134766000000000E+01      4.447937000000000E-01     -1.185742000000000E+02
4818000000.000000      5.205994000000000E-01      2.131054000000000E+01      4.450836000000000E-01     -1.193398000000000E+02
4819000000.000000      5.209351000000000E-01      2.154101000000000E+01      4.443054000000000E-01     -1.201406000000000E+02
4820000000.000000      5.208130000000000E-01      2.158203000000000E+01      4.458923000000000E-01     -1.206406000000000E+02
4821000000.000000      5.207825000000000E-01      2.172070000000000E+01      4.470367000000000E-01     -1.216445000000000E+02
4822000000.000000      5.215149000000000E-01      2.183789000000000E+01      4.454041000000000E-01     -1.222031000000000E+02
4823000000.000000      5.221863000000000E-01      2.182227000000000E+01      4.458771000000000E-01     -1.231055000000000E+02
4824000000.000000      5.204163000000000E-01      2.216015000000000E+01      4.470215000000000E-01     -1.238398000000000E+02
4825000000.000000      5.214539000000000E-01      2.204590000000000E+01      4.451141000000000E-01     -1.246523000000000E+02
4826000000.000000      5.233765000000000E-01      2.205176000000000E+01      4.474792000000000E-01     -1.254883000000000E+02
4827000000.000000      5.238647000000000E-01      2.205859000000000E+01      4.466553000000000E-01     -1.259219000000000E+02
4828000000.000000      5.249329000000000E-01      2.251074000000000E+01      4.469757000000000E-01     -1.266640000000000E+02
4829000000.000000      5.250244000000000E-01      2.245996000000000E+01      4.465485000000000E-01     -1.273555000000000E+02
4830000000.000000      5.250244000000000E-01      2.255273000000000E+01      4.452515000000000E-01     -1.282891000000000E+02
4831000000.000000      5.263672000000000E-01      2.250391000000000E+01      4.451141000000000E-01     -1.289687000000000E+02
4832000000.000000      5.258789000000000E-01      2.258789000000000E+01      4.461060000000000E-01     -1.295000000000000E+02
4833000000.000000      5.265808000000000E-01      2.265234000000000E+01      4.450073000000000E-01     -1.302656000000000E+02
4834000000.000000      5.267029000000000E-01      2.269726000000000E+01      4.436035000000000E-01     -1.312187000000000E+02
4835000000.000000      5.294800000000000E-01      2.287304000000000E+01      4.454956000000000E-01     -1.320234000000000E+02
4836000000.000000      5.311584000000000E-01      2.280566000000000E+01      4.430847000000000E-01     -1.326797000000000E+02
4837000000.000000      5.302124000000000E-01      2.299023000000000E+01      4.430389000000000E-01     -1.334922000000000E+02
4838000000.000000      5.307007000000000E-01      2.297070000000000E+01      4.423828000000000E-01     -1.341094000000000E+02
4839000000.000000      5.330505000000000E-01      2.321191000000000E+01      4.417267000000000E-01     -1.347969000000000E+02
4840000000.000000      5.339966000000000E-01      2.283008000000000E+01      4.432831000000000E-01     -1.356250000000000E+02
4841000000.000000      5.349121000000000E-01      2.318652000000000E+01      4.410706000000000E-01     -1.365000000000000E+02
4842000000.000000      5.351563000000000E-01      2.310059000000000E+01      4.398804000000000E-01     -1.372500000000000E+02
4843000000.000000      5.383911000000000E-01      2.309277000000000E+01      4.391174000000000E-01     -1.380781000000000E+02
4844000000.000000      5.384827000000000E-01      2.295117000000000E+01      4.385834000000000E-01     -1.387578000000000E+02
4845000000.000000      5.388184000000000E-01      2.313379000000000E+01      4.358673000000000E-01     -1.392031000000000E+02
4846000000.000000      5.425415000000000E-01      2.328223000000000E+01      4.361572000000000E-01     -1.403359000000000E+02
4847000000.000000      5.430603000000000E-01      2.315722000000000E+01      4.346313000000000E-01     -1.408047000000000E+02
4848000000.000000      5.436096000000000E-01      2.323437000000000E+01      4.324951000000000E-01     -1.417734000000000E+02
4849000000.000000      5.444946000000000E-01      2.319043000000000E+01      4.317322000000000E-01     -1.425390000000000E+02
4850000000.000000      5.448303000000000E-01      2.312891000000000E+01      4.303894000000000E-01     -1.433438000000000E+02
4851000000.000000      5.469055000000000E-01      2.316016000000000E+01      4.292450000000000E-01     -1.441562000000000E+02
4852000000.000000      5.468140000000000E-01      2.305664000000000E+01      4.271698000000000E-01     -1.450547000000000E+02
4853000000.000000      5.492554000000000E-01      2.309668000000000E+01      4.248962000000000E-01     -1.457734000000000E+02
4854000000.000000      5.488892000000000E-01      2.316797000000000E+01      4.228058000000000E-01     -1.466172000000000E+02
4855000000.000000      5.507202000000000E-01      2.315918000000000E+01      4.205170000000000E-01     -1.475312000000000E+02
4856000000.000000      5.533752000000000E-01      2.301465000000000E+01      4.173126000000000E-01     -1.481797000000000E+02
4857000000.000000      5.542297000000000E-01      2.303809000000000E+01      4.169922000000000E-01     -1.488672000000000E+02
4858000000.000000      5.538330000000000E-01      2.292383000000000E+01      4.148407000000000E-01     -1.498750000000000E+02
4859000000.000000      5.553284000000000E-01      2.270020000000000E+01      4.117126000000000E-01     -1.505469000000000E+02
4860000000.000000      5.574646000000000E-01      2.280762000000000E+01      4.098053000000000E-01     -1.512344000000000E+02
4861000000.000000      5.594482000000000E-01      2.281933000000000E+01      4.065399000000000E-01     -1.524609000000000E+02
4862000000.000000      5.596619000000000E-01      2.264062000000000E+01      4.048004000000000E-01     -1.528437000000000E+02
4863000000.000000      5.611877000000000E-01      2.257519000000000E+01      4.007874000000000E-01     -1.537812000000000E+02
4864000000.000000      5.627441000000000E-01      2.248145000000000E+01      3.985138000000000E-01     -1.543516000000000E+02
4865000000.000000      5.627136000000000E-01      2.245996000000000E+01      3.958893000000000E-01     -1.552344000000000E+02
4866000000.000000      5.641174000000000E-01      2.241015000000000E+01      3.909149000000000E-01     -1.558750000000000E+02
4867000000.000000      5.630188000000000E-01      2.234668000000000E+01      3.893738000000000E-01     -1.568594000000000E+02
4868000000.000000      5.671387000000000E-01      2.215234000000000E+01      3.866272000000000E-01     -1.574609000000000E+02
4869000000.000000      5.675049000000000E-01      2.233301000000000E+01      3.823547000000000E-01     -1.581875000000000E+02
4870000000.000000      5.675354000000000E-01      2.206738000000000E+01      3.802338000000000E-01     -1.587422000000000E+02
4871000000.000000      5.685120000000000E-01      2.199023000000000E+01      3.747864000000000E-01     -1.593516000000000E+02
4872000000.000000      5.723267000000000E-01      2.188672000000000E+01      3.727417000000000E-01     -1.601484000000000E+02
4873000000.000000      5.710449000000000E-01      2.186328000000000E+01      3.677979000000000E-01     -1.608672000000000E+02
4874000000.000000      5.734253000000000E-01      2.169629000000000E+01      3.657074000000000E-01     -1.615391000000000E+02
4875000000.000000      5.748291000000000E-01      2.142969000000000E+01      3.616180000000000E-01     -1.618594000000000E+02
4876000000.000000      5.752869000000000E-01      2.160547000000000E+01      3.578186000000000E-01     -1.627500000000000E+02
4877000000.000000      5.766296000000000E-01      2.125683000000000E+01      3.547058000000000E-01     -1.635156000000000E+02
4878000000.000000      5.765991000000000E-01      2.136523000000000E+01      3.503876000000000E-01     -1.639219000000000E+02
4879000000.000000      5.775146000000000E-01      2.130762000000000E+01      3.459625000000000E-01     -1.645313000000000E+02
4880000000.000000      5.794678000000000E-01      2.099707000000000E+01      3.433075000000000E-01     -1.651094000000000E+02
4881000000.000000      5.802002000000000E-01      2.102344000000000E+01      3.404541000000000E-01     -1.656484000000000E+02
4882000000.000000      5.821838000000000E-01      2.092968000000000E+01      3.350220000000000E-01     -1.660391000000000E+02
4883000000.000000      5.816040000000000E-01      2.072070000000000E+01      3.312836000000000E-01     -1.667500000000000E+02
4884000000.000000      5.842590000000000E-01      2.060742000000000E+01      3.294678000000000E-01     -1.672266000000000E+02
4885000000.000000      5.819397000000000E-01      2.051270000000000E+01      3.240204000000000E-01     -1.673906000000000E+02
4886000000.000000      5.860901000000000E-01      2.041308000000000E+01      3.203430000000000E-01     -1.680547000000000E+02
4887000000.000000      5.864868000000000E-01      2.028711000000000E+01      3.183594000000000E-01     -1.687813000000000E+02
4888000000.000000      5.859985000000000E-01      2.002246000000000E+01      3.143921000000000E-01     -1.693672000000000E+02
4889000000.000000      5.868835000000000E-01      1.997168000000000E+01      3.104248000000000E-01     -1.695000000000000E+02
4890000000.000000      5.849915000000000E-01      1.976660000000000E+01      3.070068000000000E-01     -1.704766000000000E+02
4891000000.000000      5.866394000000000E-01      1.970215000000000E+01      3.029480000000000E-01     -1.707422000000000E+02
4892000000.000000      5.876770000000000E-01      1.962402000000000E+01      2.999573000000000E-01     -1.709844000000000E+02
4893000000.000000      5.894775000000000E-01      1.964746000000000E+01      2.961578000000000E-01     -1.716094000000000E+02
4894000000.000000      5.887756000000000E-01      1.954590000000000E+01      2.926025000000000E-01     -1.718828000000000E+02
4895000000.000000      5.910339000000000E-01      1.927930000000000E+01      2.901611000000000E-01     -1.723125000000000E+02
4896000000.000000      5.902405000000000E-01      1.910840000000000E+01      2.858582000000000E-01     -1.724219000000000E+02
4897000000.000000      5.916138000000000E-01      1.925977000000000E+01      2.822571000000000E-01     -1.730312000000000E+02
4898000000.000000      5.907898000000000E-01      1.900000000000000E+01      2.795410000000000E-01     -1.733281000000000E+02
4899000000.000000      5.919800000000000E-01      1.878613000000000E+01      2.765045000000000E-01     -1.738672000000000E+02
4900000000.000000      5.918884000000000E-01      1.869726000000000E+01      2.731171000000000E-01     -1.739297000000000E+02
4901000000.000000      5.925903000000000E-01      1.862402000000000E+01      2.702637000000000E-01     -1.744609000000000E+02
4902000000.000000      5.947876000000000E-01      1.856934000000000E+01      2.669220000000000E-01     -1.746562000000000E+02
4903000000.000000      5.933838000000000E-01      1.847168000000000E+01      2.624054000000000E-01     -1.752500000000000E+02
4904000000.000000      5.947266000000000E-01      1.828223000000000E+01      2.595367000000000E-01     -1.755703000000000E+02
4905000000.000000      5.935364000000000E-01      1.810742000000000E+01      2.570343000000000E-01     -1.757969000000000E+02
4906000000.000000      5.945435000000000E-01      1.791406000000000E+01      2.536621000000000E-01     -1.760078000000000E+02
4907000000.000000      5.953369000000000E-01      1.783008000000000E+01      2.514038000000000E-01     -1.766953000000000E+02
4908000000.000000      5.948486000000000E-01      1.750391000000000E+01      2.472534000000000E-01     -1.769453000000000E+02
4909000000.000000      5.972900000000000E-01      1.762305000000000E+01      2.444305000000000E-01     -1.771328000000000E+02
4910000000.000000      5.946655000000000E-01      1.751074000000000E+01      2.412720000000000E-01     -1.774062000000000E+02
4911000000.000000      5.959473000000000E-01      1.745312000000000E+01      2.382889000000000E-01     -1.777031000000000E+02
4912000000.000000      5.963440000000000E-01      1.732812000000000E+01      2.349930000000000E-01     -1.782812000000000E+02
4913000000.000000      5.972595000000000E-01      1.719629000000000E+01      2.322769000000000E-01     -1.784062000000000E+02
4914000000.000000      5.986938000000000E-01      1.692676000000000E+01      2.276306000000000E-01     -1.785859000000000E+02
4915000000.000000      5.987854000000000E-01      1.682519000000000E+01      2.249298000000000E-01     -1.789531000000000E+02
4916000000.000000      5.981445000000000E-01      1.682910000000000E+01      2.219849000000000E-01     -1.792187000000000E+02
4917000000.000000      5.967102000000000E-01      1.655566000000000E+01      2.187119000000000E-01     -1.794609000000000E+02
4918000000.000000      5.995789000000000E-01      1.646777000000000E+01      2.147751000000000E-01     -1.798906000000000E+02
4919000000.000000      5.982056000000000E-01      1.643359000000000E+01      2.123337000000000E-01     -1.798125000000000E+02
4920000000.000000      5.994263000000000E-01      1.625684000000000E+01      2.088394000000000E-01      1.795625000000000E+02
4921000000.000000      5.989685000000000E-01      1.636133000000000E+01      2.056808000000000E-01      1.795391000000000E+02
4922000000.000000      6.007385000000000E-01      1.589014000000000E+01      2.017593000000000E-01      1.794688000000000E+02
4923000000.000000      6.004333000000000E-01      1.609179000000000E+01      1.988068000000000E-01      1.792422000000000E+02
4924000000.000000      5.995483000000000E-01      1.579004000000000E+01      1.946640000000000E-01      1.789063000000000E+02
4925000000.000000      6.008301000000000E-01      1.583105000000000E+01      1.918716000000000E-01      1.788828000000000E+02
4926000000.000000      6.005859000000000E-01      1.550146000000000E+01      1.877136000000000E-01      1.786562000000000E+02
4927000000.000000      6.005249000000000E-01      1.531592000000000E+01      1.845932000000000E-01      1.785547000000000E+02
4928000000.000000      6.015320000000000E-01      1.531055000000000E+01      1.817551000000000E-01      1.784765000000000E+02
4929000000.000000      6.018677000000000E-01      1.520752000000000E+01      1.776886000000000E-01      1.784297000000000E+02
4930000000.000000      6.029358000000000E-01      1.520215000000000E+01      1.749649000000000E-01      1.785781000000000E+02
4931000000.000000      6.016541000000000E-01      1.513477000000000E+01      1.715851000000000E-01      1.783516000000000E+02
4932000000.000000      6.019897000000000E-01      1.492627000000000E+01      1.673431000000000E-01      1.786328000000000E+02
4933000000.000000      6.022034000000000E-01      1.472852000000000E+01      1.636581000000000E-01      1.787969000000000E+02
4934000000.000000      6.022644000000000E-01      1.473242000000000E+01      1.606827000000000E-01      1.786875000000000E+02
4935000000.000000      6.032104000000000E-01      1.455518000000000E+01      1.580353000000000E-01      1.789609000000000E+02
4936000000.000000      6.030884000000000E-01      1.445898000000000E+01      1.540985000000000E-01      1.792187000000000E+02
4937000000.000000      6.034546000000000E-01      1.428613000000000E+01      1.503906000000000E-01      1.792969000000000E+02
4938000000.000000      6.026001000000000E-01      1.428076000000000E+01      1.472473000000000E-01      1.796094000000000E+02
4939000000.000000      6.012878000000000E-01      1.404297000000000E+01      1.440430000000000E-01     -1.798750000000000E+02
4940000000.000000      6.043396000000000E-01      1.410742000000000E+01      1.407928000000000E-01     -1.797188000000000E+02
4941000000.000000      6.033936000000000E-01      1.395117000000000E+01      1.376724000000000E-01     -1.789766000000000E+02
4942000000.000000      6.020203000000000E-01      1.374072000000000E+01      1.341782000000000E-01     -1.785391000000000E+02
4943000000.000000      6.037292000000000E-01      1.365576000000000E+01      1.312561000000000E-01     -1.778047000000000E+02
4944000000.000000      6.047363000000000E-01      1.349219000000000E+01      1.289673000000000E-01     -1.774062000000000E+02
4945000000.000000      6.042480000000000E-01      1.351318000000000E+01      1.253891000000000E-01     -1.763984000000000E+02
4946000000.000000      6.050720000000000E-01      1.345508000000000E+01      1.225204000000000E-01     -1.756094000000000E+02
4947000000.000000      6.037292000000000E-01      1.319141000000000E+01      1.196365000000000E-01     -1.748437000000000E+02
4948000000.000000      6.054382000000000E-01      1.307080000000000E+01      1.168480000000000E-01     -1.738125000000000E+02
4949000000.000000      6.037292000000000E-01      1.295117000000000E+01      1.147346000000000E-01     -1.724375000000000E+02
4950000000.000000      6.061707000000000E-01      1.298584000000000E+01      1.123734000000000E-01     -1.715391000000000E+02
4951000000.000000      6.054993000000000E-01      1.265332000000000E+01      1.100693000000000E-01     -1.704062000000000E+02
4952000000.000000      6.059265000000000E-01      1.243506000000000E+01      1.084137000000000E-01     -1.689375000000000E+02
4953000000.000000      6.068726000000000E-01      1.262842000000000E+01      1.060638000000000E-01     -1.674141000000000E+02
4954000000.000000      6.079102000000000E-01      1.236768000000000E+01      1.040611000000000E-01     -1.660156000000000E+02
