! Network Analyzer HP8722D
! Hewlett-Packard
! Data name: Linha & Wilkinson
! Saver's name: Rodrigo Anjos
! Comments: Teste da utilização de aquisição
continua pelo VNA HP8722D
! Time and date: 25/4/2025 17:04
!              Frequency                     S11                                                   S21                                                   S12                                                   S22
# HZ  S  MA R 50
4800000000.000000      4.355011000000000E-01      9.101563000000000E+01      1.846848000000000E-01     -6.358788000000000E+01      1.901855000000000E-01      6.991015000000000E+01      2.488556000000000E-01      7.717187000000000E+01
4801000000.000000      4.390106000000000E-01      9.114843000000000E+01      1.811676000000000E-01     -6.246875000000000E+01      1.864700000000000E-01      7.071484000000000E+01      2.535400000000000E-01      7.630468000000000E+01
4802000000.000000      4.413300000000000E-01      9.144531000000000E+01      1.778488000000000E-01     -6.127343000000000E+01      1.831589000000000E-01      7.174609000000000E+01      2.552185000000000E-01      7.534765000000000E+01
4803000000.000000      4.446869000000000E-01      9.167578000000000E+01      1.747360000000000E-01     -5.997851000000000E+01      1.796494000000000E-01      7.286718000000000E+01      2.583771000000000E-01      7.476563000000000E+01
4804000000.000000      4.466705000000000E-01      9.204687000000000E+01      1.718903000000000E-01     -5.854297000000000E+01      1.769638000000000E-01      7.400391000000000E+01      2.589874000000000E-01      7.455468000000000E+01
4805000000.000000      4.503937000000000E-01      9.220312000000000E+01      1.688538000000000E-01     -5.752734000000000E+01      1.741791000000000E-01      7.531250000000000E+01      2.598267000000000E-01      7.375781000000000E+01
4806000000.000000      4.516449000000000E-01      9.247265000000000E+01      1.664200000000000E-01     -5.576953000000000E+01      1.715469000000000E-01      7.674218000000000E+01      2.619019000000000E-01      7.310547000000000E+01
4807000000.000000      4.541321000000000E-01      9.280077000000000E+01      1.647339000000000E-01     -5.438867000000000E+01      1.694260000000000E-01      7.788280000000000E+01      2.621307000000000E-01      7.223046000000000E+01
4808000000.000000      4.544525000000000E-01      9.305468000000000E+01      1.622314000000000E-01     -5.280078000000000E+01      1.673279000000000E-01      7.939843000000000E+01      2.637329000000000E-01      7.162109000000000E+01
4809000000.000000      4.557343000000000E-01      9.355078000000000E+01      1.609726000000000E-01     -5.122070000000000E+01      1.662216000000000E-01      8.081249000000000E+01      2.660675000000000E-01      7.101563000000000E+01
4810000000.000000      4.580383000000000E-01      9.382030000000000E+01      1.598663000000000E-01     -4.915234000000000E+01      1.646042000000000E-01      8.245703000000000E+01      2.681427000000000E-01      6.987109000000000E+01
4811000000.000000      4.582367000000000E-01      9.401953000000000E+01      1.582413000000000E-01     -4.780078000000000E+01      1.640167000000000E-01      8.416016000000000E+01      2.678680000000000E-01      6.917578000000000E+01
4812000000.000000      4.607849000000000E-01      9.441797000000000E+01      1.576385000000000E-01     -4.606054000000000E+01      1.629486000000000E-01      8.552734000000000E+01      2.685089000000000E-01      6.837891000000000E+01
4813000000.000000      4.603882000000000E-01      9.482031000000000E+01      1.573334000000000E-01     -4.421679000000000E+01      1.625977000000000E-01      8.727343000000000E+01      2.704163000000000E-01      6.772265000000000E+01
4814000000.000000      4.593811000000000E-01      9.504686000000000E+01      1.567078000000000E-01     -4.254492000000000E+01      1.620560000000000E-01      8.893749000000000E+01      2.713623000000000E-01      6.683203000000000E+01
4815000000.000000      4.587860000000000E-01      9.542187000000000E+01      1.567154000000000E-01     -4.075000000000000E+01      1.619568000000000E-01      9.055859000000000E+01      2.707367000000000E-01      6.601171000000000E+01
4816000000.000000      4.603119000000000E-01      9.580078000000000E+01      1.572876000000000E-01     -3.895898000000000E+01      1.625290000000000E-01      9.228907000000000E+01      2.719879000000000E-01      6.482031000000000E+01
4817000000.000000      4.590454000000000E-01      9.617577000000000E+01      1.577454000000000E-01     -3.726171000000000E+01      1.630707000000000E-01      9.392187000000000E+01      2.708435000000000E-01      6.422656000000000E+01
4818000000.000000      4.577637000000000E-01      9.654686000000000E+01      1.584549000000000E-01     -3.544336000000000E+01      1.640701000000000E-01      9.559765000000000E+01      2.716675000000000E-01      6.374218000000000E+01
4819000000.000000      4.576111000000000E-01      9.689453000000000E+01      1.601105000000000E-01     -3.384766000000000E+01      1.653824000000000E-01      9.703905000000000E+01      2.720795000000000E-01      6.261913000000000E+01
4820000000.000000      4.548950000000000E-01      9.719530000000000E+01      1.609192000000000E-01     -3.219336000000000E+01      1.668625000000000E-01      9.860155000000000E+01      2.736816000000000E-01      6.164063000000000E+01
4821000000.000000      4.549408000000000E-01      9.757030000000000E+01      1.634216000000000E-01     -3.054394000000000E+01      1.680832000000000E-01      1.001367000000000E+02      2.724304000000000E-01      6.057617000000000E+01
4822000000.000000      4.524078000000000E-01      9.785156000000000E+01      1.648026000000000E-01     -2.920801000000000E+01      1.702652000000000E-01      1.014453000000000E+02      2.723389000000000E-01      5.934765000000000E+01
4823000000.000000      4.510040000000000E-01      9.824219000000000E+01      1.674957000000000E-01     -2.763379000000000E+01      1.719513000000000E-01      1.029883000000000E+02      2.704163000000000E-01      5.853516000000000E+01
4824000000.000000      4.497223000000000E-01      9.862499000000000E+01      1.696472000000000E-01     -2.626172000000000E+01      1.748505000000000E-01      1.041680000000000E+02      2.691040000000000E-01      5.742578000000000E+01
4825000000.000000      4.472351000000000E-01      9.906639000000000E+01      1.723022000000000E-01     -2.491015000000000E+01      1.779480000000000E-01      1.055351000000000E+02      2.709656000000000E-01      5.668945000000000E+01
4826000000.000000      4.442444000000000E-01      9.943359000000000E+01      1.754684000000000E-01     -2.372949000000000E+01      1.804047000000000E-01      1.067578000000000E+02      2.691803000000000E-01      5.555469000000000E+01
4827000000.000000      4.416199000000000E-01      9.982811000000000E+01      1.786423000000000E-01     -2.222168000000000E+01      1.834641000000000E-01      1.077969000000000E+02      2.693634000000000E-01      5.429688000000000E+01
4828000000.000000      4.394226000000000E-01      1.002031000000000E+02      1.820831000000000E-01     -2.126074000000000E+01      1.866837000000000E-01      1.088281000000000E+02      2.659760000000000E-01      5.308007000000000E+01
4829000000.000000      4.350433000000000E-01      1.007734000000000E+02      1.852646000000000E-01     -2.012890000000000E+01      1.904221000000000E-01      1.100586000000000E+02      2.680511000000000E-01      5.209374000000000E+01
4830000000.000000      4.319000000000000E-01      1.010195000000000E+02      1.885605000000000E-01     -1.924707000000000E+01      1.935883000000000E-01      1.109805000000000E+02      2.651825000000000E-01      5.107031000000000E+01
4831000000.000000      4.284058000000000E-01      1.014297000000000E+02      1.921005000000000E-01     -1.845508000000000E+01      1.973038000000000E-01      1.119687000000000E+02      2.641907000000000E-01      5.008398000000000E+01
4832000000.000000      4.249725000000000E-01      1.019336000000000E+02      1.955719000000000E-01     -1.739844000000000E+01      2.010422000000000E-01      1.127930000000000E+02      2.629242000000000E-01      4.934765000000000E+01
4833000000.000000      4.207764000000000E-01      1.022656000000000E+02      2.000427000000000E-01     -1.661328000000000E+01      2.049484000000000E-01      1.134375000000000E+02      2.601776000000000E-01      4.827343000000000E+01
4834000000.000000      4.172363000000000E-01      1.026992000000000E+02      2.043991000000000E-01     -1.578760000000000E+01      2.090683000000000E-01      1.143047000000000E+02      2.596283000000000E-01      4.684570000000000E+01
4835000000.000000      4.129181000000000E-01      1.030976000000000E+02      2.083664000000000E-01     -1.518066000000000E+01      2.136536000000000E-01      1.148828000000000E+02      2.589874000000000E-01      4.589648000000000E+01
4836000000.000000      4.089661000000000E-01      1.035508000000000E+02      2.125702000000000E-01     -1.453516000000000E+01      2.171555000000000E-01      1.157148000000000E+02      2.557068000000000E-01      4.465625000000000E+01
4837000000.000000      4.046783000000000E-01      1.041797000000000E+02      2.169724000000000E-01     -1.427539000000000E+01      2.217331000000000E-01      1.162226000000000E+02      2.547455000000000E-01      4.389257000000000E+01
4838000000.000000      3.992462000000000E-01      1.044687000000000E+02      2.215271000000000E-01     -1.356543000000000E+01      2.258682000000000E-01      1.167344000000000E+02      2.521515000000000E-01      4.265821000000000E+01
4839000000.000000      3.948059000000000E-01      1.049297000000000E+02      2.262344000000000E-01     -1.291992000000000E+01      2.303772000000000E-01      1.172305000000000E+02      2.511749000000000E-01      4.089063000000000E+01
4840000000.000000      3.890839000000000E-01      1.052617000000000E+02      2.303925000000000E-01     -1.255762000000000E+01      2.350769000000000E-01      1.178281000000000E+02      2.474365000000000E-01      3.993555000000000E+01
4841000000.000000      3.847504000000000E-01      1.058164000000000E+02      2.357407000000000E-01     -1.239160000000000E+01      2.398453000000000E-01      1.181172000000000E+02      2.469101000000000E-01      3.875977000000000E+01
4842000000.000000      3.790741000000000E-01      1.062852000000000E+02      2.403030000000000E-01     -1.195605000000000E+01      2.441406000000000E-01      1.186875000000000E+02      2.460480000000000E-01      3.773046000000000E+01
4843000000.000000      3.738403000000000E-01      1.066875000000000E+02      2.453613000000000E-01     -1.175537000000000E+01      2.489319000000000E-01      1.189101000000000E+02      2.426224000000000E-01      3.674023000000000E+01
4844000000.000000      3.681183000000000E-01      1.071289000000000E+02      2.499390000000000E-01     -1.154541000000000E+01      2.531738000000000E-01      1.192148000000000E+02      2.395706000000000E-01      3.565820000000000E+01
4845000000.000000      3.620300000000000E-01      1.075977000000000E+02      2.545013000000000E-01     -1.124902000000000E+01      2.584381000000000E-01      1.194844000000000E+02      2.382965000000000E-01      3.438672000000000E+01
4846000000.000000      3.566742000000000E-01      1.080742000000000E+02      2.597961000000000E-01     -1.116113000000000E+01      2.638092000000000E-01      1.197148000000000E+02      2.357559000000000E-01      3.332617000000000E+01
4847000000.000000      3.507385000000000E-01      1.086523000000000E+02      2.645721000000000E-01     -1.092041000000000E+01      2.682037000000000E-01      1.199961000000000E+02      2.329559000000000E-01      3.215625000000000E+01
4848000000.000000      3.442535000000000E-01      1.090156000000000E+02      2.688904000000000E-01     -1.082568000000000E+01      2.730103000000000E-01      1.201523000000000E+02      2.299957000000000E-01      3.071484000000000E+01
4849000000.000000      3.382416000000000E-01      1.094062000000000E+02      2.750702000000000E-01     -1.079297000000000E+01      2.779388000000000E-01      1.203477000000000E+02      2.288208000000000E-01      2.979980000000000E+01
4850000000.000000      3.318787000000000E-01      1.099414000000000E+02      2.797699000000000E-01     -1.091260000000000E+01      2.824402000000000E-01      1.205391000000000E+02      2.252960000000000E-01      2.862207000000000E+01
4851000000.000000      3.257751000000000E-01      1.105586000000000E+02      2.847137000000000E-01     -1.077637000000000E+01      2.876740000000000E-01      1.206719000000000E+02      2.238846000000000E-01      2.733105000000000E+01
4852000000.000000      3.190613000000000E-01      1.110117000000000E+02      2.894897000000000E-01     -1.086035000000000E+01      2.925110000000000E-01      1.209023000000000E+02      2.211075000000000E-01      2.632324000000000E+01
4853000000.000000      3.130035000000000E-01      1.115039000000000E+02      2.940674000000000E-01     -1.082568000000000E+01      2.973785000000000E-01      1.209297000000000E+02      2.188416000000000E-01      2.458301000000000E+01
4854000000.000000      3.053589000000000E-01      1.118984000000000E+02      2.986603000000000E-01     -1.098242000000000E+01      3.025360000000000E-01      1.210039000000000E+02      2.171631000000000E-01      2.368750000000000E+01
4855000000.000000      2.988892000000000E-01      1.123750000000000E+02      3.043671000000000E-01     -1.098535000000000E+01      3.083038000000000E-01      1.210273000000000E+02      2.125168000000000E-01      2.269824000000000E+01
4856000000.000000      2.920532000000000E-01      1.129883000000000E+02      3.088684000000000E-01     -1.122021000000000E+01      3.125000000000000E-01      1.211055000000000E+02      2.108307000000000E-01      2.166699000000000E+01
4857000000.000000      2.852173000000000E-01      1.134609000000000E+02      3.147736000000000E-01     -1.134521000000000E+01      3.173523000000000E-01      1.212148000000000E+02      2.072067000000000E-01      2.045898000000000E+01
4858000000.000000      2.774048000000000E-01      1.137539000000000E+02      3.199005000000000E-01     -1.152881000000000E+01      3.225555000000000E-01      1.210508000000000E+02      2.054672000000000E-01      1.901660000000000E+01
4859000000.000000      2.711029000000000E-01      1.143711000000000E+02      3.241882000000000E-01     -1.178320000000000E+01      3.269501000000000E-01      1.210547000000000E+02      2.034912000000000E-01      1.772754000000000E+01
4860000000.000000      2.638550000000000E-01      1.149492000000000E+02      3.296356000000000E-01     -1.181592000000000E+01      3.315582000000000E-01      1.210781000000000E+02      2.003098000000000E-01      1.691602000000000E+01
4861000000.000000      2.563171000000000E-01      1.155039000000000E+02      3.338318000000000E-01     -1.225391000000000E+01      3.374939000000000E-01      1.210703000000000E+02      1.971207000000000E-01      1.561279000000000E+01
4862000000.000000      2.486725000000000E-01      1.159570000000000E+02      3.396606000000000E-01     -1.235693000000000E+01      3.430939000000000E-01      1.210781000000000E+02      1.956329000000000E-01      1.447998000000000E+01
4863000000.000000      2.414169000000000E-01      1.164375000000000E+02      3.435516000000000E-01     -1.269482000000000E+01      3.472595000000000E-01      1.210586000000000E+02      1.923828000000000E-01      1.344434000000000E+01
4864000000.000000      2.340851000000000E-01      1.169922000000000E+02      3.488617000000000E-01     -1.269092000000000E+01      3.524475000000000E-01      1.210078000000000E+02      1.896057000000000E-01      1.206299000000000E+01
4865000000.000000      2.264786000000000E-01      1.174805000000000E+02      3.530426000000000E-01     -1.302979000000000E+01      3.573456000000000E-01      1.208203000000000E+02      1.877670000000000E-01      1.106982000000000E+01
4866000000.000000      2.185822000000000E-01      1.179844000000000E+02      3.573608000000000E-01     -1.338867000000000E+01      3.629913000000000E-01      1.206914000000000E+02      1.849213000000000E-01      9.812012000000000E+00
4867000000.000000      2.107773000000000E-01      1.187226000000000E+02      3.622437000000000E-01     -1.382373000000000E+01      3.669891000000000E-01      1.207187000000000E+02      1.829834000000000E-01      8.708008000000000E+00
4868000000.000000      2.041245000000000E-01      1.192422000000000E+02      3.679962000000000E-01     -1.397363000000000E+01      3.731232000000000E-01      1.205820000000000E+02      1.796799000000000E-01      7.585938000000000E+00
4869000000.000000      1.958008000000000E-01      1.198125000000000E+02      3.719330000000000E-01     -1.430322000000000E+01      3.779144000000000E-01      1.203281000000000E+02      1.765747000000000E-01      6.525879000000000E+00
4870000000.000000      1.886826000000000E-01      1.205156000000000E+02      3.770905000000000E-01     -1.461475000000000E+01      3.821564000000000E-01      1.202109000000000E+02      1.746826000000000E-01      5.490234000000000E+00
4871000000.000000      1.809845000000000E-01      1.212266000000000E+02      3.811646000000000E-01     -1.493457000000000E+01      3.870544000000000E-01      1.201289000000000E+02      1.717072000000000E-01      4.419189000000000E+00
4872000000.000000      1.738052000000000E-01      1.218789000000000E+02      3.856964000000000E-01     -1.513232000000000E+01      3.927307000000000E-01      1.199687000000000E+02      1.694489000000000E-01      3.396118000000000E+00
4873000000.000000      1.658249000000000E-01      1.227305000000000E+02      3.905029000000000E-01     -1.571875000000000E+01      3.971863000000000E-01      1.198203000000000E+02      1.662598000000000E-01      2.184814000000000E+00
4874000000.000000      1.582108000000000E-01      1.234297000000000E+02      3.955536000000000E-01     -1.596631000000000E+01      4.027863000000000E-01      1.194922000000000E+02      1.647873000000000E-01      1.132935000000000E+00
4875000000.000000      1.512985000000000E-01      1.242188000000000E+02      3.990936000000000E-01     -1.624609000000000E+01      4.085999000000000E-01      1.194297000000000E+02      1.616745000000000E-01      5.630493000000000E-02
4876000000.000000      1.441498000000000E-01      1.250156000000000E+02      4.040680000000000E-01     -1.675195000000000E+01      4.129333000000000E-01      1.192031000000000E+02      1.588211000000000E-01     -1.115112000000000E+00
4877000000.000000      1.362915000000000E-01      1.257930000000000E+02      4.084778000000000E-01     -1.711816000000000E+01      4.176178000000000E-01      1.188320000000000E+02      1.562195000000000E-01     -1.899292000000000E+00
4878000000.000000      1.289063000000000E-01      1.269141000000000E+02      4.138641000000000E-01     -1.743262000000000E+01      4.219971000000000E-01      1.187500000000000E+02      1.536255000000000E-01     -3.040527000000000E+00
4879000000.000000      1.222572000000000E-01      1.279297000000000E+02      4.170227000000000E-01     -1.778320000000000E+01      4.273529000000000E-01      1.186016000000000E+02      1.507797000000000E-01     -4.010010000000000E+00
4880000000.000000      1.142502000000000E-01      1.289297000000000E+02      4.223022000000000E-01     -1.833301000000000E+01      4.326782000000000E-01      1.182383000000000E+02      1.481018000000000E-01     -5.064697000000000E+00
4881000000.000000      1.074600000000000E-01      1.306328000000000E+02      4.263153000000000E-01     -1.852734000000000E+01      4.378052000000000E-01      1.179922000000000E+02      1.455841000000000E-01     -5.782959000000000E+00
4882000000.000000      1.004829000000000E-01      1.315625000000000E+02      4.311218000000000E-01     -1.912109000000000E+01      4.423981000000000E-01      1.180039000000000E+02      1.426086000000000E-01     -6.495850000000000E+00
