! Network Analyzer HP8722D
! Hewlett-Packard
! Data name: Linha & Wilkinson
! Saver's name: Rodrigo Anjos
! Comments: Teste da utilização de aquisição
continua pelo VNA HP8722D
! Time and date: 25/4/2025 15:46
!              Frequency                     S11                                                   S21                                                   S12                                                   S22
# HZ  S  MA R 50
4800000000.000000      4.340363000000000E-01      9.049219000000000E+01      1.858826000000000E-01     -6.365624000000000E+01      1.908722000000000E-01      6.974999000000000E+01      2.499619000000000E-01      7.739843000000000E+01
4801000000.000000      4.372864000000000E-01      9.073828000000000E+01      1.819000000000000E-01     -6.255077000000000E+01      1.869278000000000E-01      7.060547000000000E+01      2.534943000000000E-01      7.626562000000000E+01
4802000000.000000      4.401245000000000E-01      9.098436000000000E+01      1.777649000000000E-01     -6.130664000000000E+01      1.837387000000000E-01      7.162499000000000E+01      2.566681000000000E-01      7.567187000000000E+01
4803000000.000000      4.426117000000000E-01      9.125780000000000E+01      1.754227000000000E-01     -6.009179000000000E+01      1.803894000000000E-01      7.292969000000000E+01      2.556763000000000E-01      7.526562000000000E+01
4804000000.000000      4.457550000000000E-01      9.167969000000000E+01      1.724472000000000E-01     -5.870898000000000E+01      1.777573000000000E-01      7.391015000000000E+01      2.577820000000000E-01      7.428515000000000E+01
4805000000.000000      4.482422000000000E-01      9.178125000000000E+01      1.700516000000000E-01     -5.738671000000000E+01      1.748047000000000E-01      7.518749000000000E+01      2.601929000000000E-01      7.362499000000000E+01
4806000000.000000      4.495544000000000E-01      9.207031000000000E+01      1.667404000000000E-01     -5.586328000000000E+01      1.721802000000000E-01      7.670703000000000E+01      2.603302000000000E-01      7.277344000000000E+01
4807000000.000000      4.523163000000000E-01      9.246874000000000E+01      1.652222000000000E-01     -5.442773000000000E+01      1.699600000000000E-01      7.788671000000000E+01      2.621002000000000E-01      7.246484000000000E+01
4808000000.000000      4.533539000000000E-01      9.272264000000000E+01      1.637421000000000E-01     -5.291601000000000E+01      1.681824000000000E-01      7.939062000000000E+01      2.637024000000000E-01      7.130077000000000E+01
4809000000.000000      4.546051000000000E-01      9.304688000000000E+01      1.616592000000000E-01     -5.141211000000000E+01      1.666794000000000E-01      8.074610000000000E+01      2.669525000000000E-01      7.128124000000000E+01
4810000000.000000      4.555664000000000E-01      9.338282000000000E+01      1.602783000000000E-01     -4.970117000000000E+01      1.652298000000000E-01      8.241796000000000E+01      2.660675000000000E-01      6.992188000000000E+01
4811000000.000000      4.564819000000000E-01      9.372656000000000E+01      1.587219000000000E-01     -4.799414000000000E+01      1.642532000000000E-01      8.406641000000000E+01      2.675629000000000E-01      6.962891000000000E+01
4812000000.000000      4.585114000000000E-01      9.410156000000000E+01      1.579285000000000E-01     -4.626172000000000E+01      1.637878000000000E-01      8.560938000000000E+01      2.673035000000000E-01      6.839453000000000E+01
4813000000.000000      4.575043000000000E-01      9.442577000000000E+01      1.576233000000000E-01     -4.443359000000000E+01      1.630783000000000E-01      8.724218000000000E+01      2.705383000000000E-01      6.807812000000000E+01
4814000000.000000      4.572296000000000E-01      9.457811000000000E+01      1.576004000000000E-01     -4.249413000000000E+01      1.625366000000000E-01      8.882813000000000E+01      2.692413000000000E-01      6.707031000000000E+01
4815000000.000000      4.571533000000000E-01      9.508984000000000E+01      1.572723000000000E-01     -4.101367000000000E+01      1.625671000000000E-01      9.048828000000000E+01      2.709808000000000E-01      6.585546000000000E+01
4816000000.000000      4.584351000000000E-01      9.535547000000000E+01      1.585236000000000E-01     -3.901367000000000E+01      1.634979000000000E-01      9.219141000000000E+01      2.725830000000000E-01      6.494531000000000E+01
4817000000.000000      4.568939000000000E-01      9.580858000000000E+01      1.584091000000000E-01     -3.747070000000000E+01      1.636810000000000E-01      9.376171000000000E+01      2.729187000000000E-01      6.444140000000000E+01
4818000000.000000      4.559937000000000E-01      9.611328000000000E+01      1.593704000000000E-01     -3.585742000000000E+01      1.646271000000000E-01      9.541796000000000E+01      2.719574000000000E-01      6.353516000000000E+01
4819000000.000000      4.561157000000000E-01      9.655077000000000E+01      1.602173000000000E-01     -3.399023000000000E+01      1.658859000000000E-01      9.700781000000000E+01      2.710266000000000E-01      6.238086000000000E+01
4820000000.000000      4.529572000000000E-01      9.683983000000000E+01      1.619873000000000E-01     -3.222851000000000E+01      1.675797000000000E-01      9.847265000000000E+01      2.717438000000000E-01      6.189453000000000E+01
4821000000.000000      4.534302000000000E-01      9.719921000000000E+01      1.640320000000000E-01     -3.079687000000000E+01      1.691360000000000E-01      9.998436000000000E+01      2.723541000000000E-01      6.103906000000000E+01
4822000000.000000      4.514160000000000E-01      9.745703000000000E+01      1.653671000000000E-01     -2.941406000000000E+01      1.705856000000000E-01      1.013945000000000E+02      2.723083000000000E-01      5.957031000000000E+01
4823000000.000000      4.487152000000000E-01      9.789452000000000E+01      1.678543000000000E-01     -2.784375000000000E+01      1.730347000000000E-01      1.029453000000000E+02      2.702789000000000E-01      5.858007000000000E+01
4824000000.000000      4.477844000000000E-01      9.829687000000000E+01      1.699982000000000E-01     -2.656152000000000E+01      1.755066000000000E-01      1.040547000000000E+02      2.700653000000000E-01      5.749023000000000E+01
4825000000.000000      4.447327000000000E-01      9.864452000000000E+01      1.728439000000000E-01     -2.510449000000000E+01      1.788635000000000E-01      1.054492000000000E+02      2.684021000000000E-01      5.630468000000000E+01
4826000000.000000      4.418945000000000E-01      9.903124000000000E+01      1.755981000000000E-01     -2.393164000000000E+01      1.808701000000000E-01      1.066328000000000E+02      2.693329000000000E-01      5.578711000000000E+01
4827000000.000000      4.394836000000000E-01      9.941795000000000E+01      1.791458000000000E-01     -2.249902000000000E+01      1.842651000000000E-01      1.078242000000000E+02      2.688293000000000E-01      5.434960000000000E+01
4828000000.000000      4.373169000000000E-01      9.976171000000000E+01      1.825333000000000E-01     -2.142285000000000E+01      1.874084000000000E-01      1.088789000000000E+02      2.673340000000000E-01      5.308984000000000E+01
4829000000.000000      4.330292000000000E-01      1.002734000000000E+02      1.858215000000000E-01     -2.027832000000000E+01      1.910706000000000E-01      1.099531000000000E+02      2.673187000000000E-01      5.210742000000000E+01
4830000000.000000      4.302063000000000E-01      1.006797000000000E+02      1.893692000000000E-01     -1.935156000000000E+01      1.944885000000000E-01      1.110273000000000E+02      2.637177000000000E-01      5.140625000000000E+01
4831000000.000000      4.262390000000000E-01      1.011016000000000E+02      1.931763000000000E-01     -1.845019000000000E+01      1.980591000000000E-01      1.119297000000000E+02      2.621002000000000E-01      4.982422000000000E+01
4832000000.000000      4.225616000000000E-01      1.014922000000000E+02      1.967239000000000E-01     -1.750684000000000E+01      2.018967000000000E-01      1.127148000000000E+02      2.616730000000000E-01      4.912890000000000E+01
4833000000.000000      4.189911000000000E-01      1.018555000000000E+02      2.009048000000000E-01     -1.665723000000000E+01      2.059708000000000E-01      1.134453000000000E+02      2.599335000000000E-01      4.779297000000000E+01
4834000000.000000      4.140015000000000E-01      1.022930000000000E+02      2.048950000000000E-01     -1.594531000000000E+01      2.101288000000000E-01      1.142344000000000E+02      2.589569000000000E-01      4.684960000000000E+01
4835000000.000000      4.111176000000000E-01      1.026836000000000E+02      2.093658000000000E-01     -1.534277000000000E+01      2.141571000000000E-01      1.149297000000000E+02      2.590027000000000E-01      4.559570000000000E+01
4836000000.000000      4.065399000000000E-01      1.031484000000000E+02      2.136459000000000E-01     -1.478516000000000E+01      2.181931000000000E-01      1.157539000000000E+02      2.551880000000000E-01      4.462891000000000E+01
4837000000.000000      4.015350000000000E-01      1.036484000000000E+02      2.174530000000000E-01     -1.432764000000000E+01      2.225800000000000E-01      1.161601000000000E+02      2.536011000000000E-01      4.359571000000000E+01
4838000000.000000      3.959961000000000E-01      1.039805000000000E+02      2.230682000000000E-01     -1.360693000000000E+01      2.269440000000000E-01      1.167188000000000E+02      2.519836000000000E-01      4.225976000000000E+01
4839000000.000000      3.925018000000000E-01      1.046016000000000E+02      2.268677000000000E-01     -1.306982000000000E+01      2.315292000000000E-01      1.171406000000000E+02      2.514191000000000E-01      4.122851000000000E+01
4840000000.000000      3.866425000000000E-01      1.049297000000000E+02      2.316360000000000E-01     -1.281982000000000E+01      2.360458000000000E-01      1.176680000000000E+02      2.474213000000000E-01      3.975976000000000E+01
4841000000.000000      3.823242000000000E-01      1.053867000000000E+02      2.366867000000000E-01     -1.252051000000000E+01      2.406616000000000E-01      1.180703000000000E+02      2.458649000000000E-01      3.895508000000000E+01
4842000000.000000      3.761444000000000E-01      1.058242000000000E+02      2.413254000000000E-01     -1.212109000000000E+01      2.448349000000000E-01      1.185156000000000E+02      2.443085000000000E-01      3.771093000000000E+01
4843000000.000000      3.712463000000000E-01      1.061523000000000E+02      2.462616000000000E-01     -1.183936000000000E+01      2.497940000000000E-01      1.188359000000000E+02      2.433395000000000E-01      3.671289000000000E+01
4844000000.000000      3.653107000000000E-01      1.066797000000000E+02      2.512817000000000E-01     -1.162646000000000E+01      2.539673000000000E-01      1.191055000000000E+02      2.394485000000000E-01      3.545312000000000E+01
4845000000.000000      3.592834000000000E-01      1.071797000000000E+02      2.556458000000000E-01     -1.137402000000000E+01      2.592468000000000E-01      1.194336000000000E+02      2.381592000000000E-01      3.421875000000000E+01
4846000000.000000      3.534698000000000E-01      1.076953000000000E+02      2.609253000000000E-01     -1.117480000000000E+01      2.647095000000000E-01      1.197266000000000E+02      2.356415000000000E-01      3.315234000000000E+01
4847000000.000000      3.477173000000000E-01      1.081719000000000E+02      2.659454000000000E-01     -1.101416000000000E+01      2.688751000000000E-01      1.198789000000000E+02      2.317810000000000E-01      3.193554000000000E+01
4848000000.000000      3.414917000000000E-01      1.085273000000000E+02      2.701721000000000E-01     -1.113232000000000E+01      2.739716000000000E-01      1.201094000000000E+02      2.304153000000000E-01      3.095605000000000E+01
4849000000.000000      3.352814000000000E-01      1.088359000000000E+02      2.755432000000000E-01     -1.111279000000000E+01      2.785645000000000E-01      1.202930000000000E+02      2.274475000000000E-01      2.959961000000000E+01
4850000000.000000      3.288727000000000E-01      1.093555000000000E+02      2.805176000000000E-01     -1.106641000000000E+01      2.838745000000000E-01      1.205703000000000E+02      2.263565000000000E-01      2.866796000000000E+01
4851000000.000000      3.226929000000000E-01      1.100820000000000E+02      2.862549000000000E-01     -1.096582000000000E+01      2.883301000000000E-01      1.206289000000000E+02      2.227173000000000E-01      2.714941000000000E+01
4852000000.000000      3.163605000000000E-01      1.105391000000000E+02      2.908325000000000E-01     -1.110059000000000E+01      2.932739000000000E-01      1.207461000000000E+02      2.215195000000000E-01      2.589062000000000E+01
4853000000.000000      3.094482000000000E-01      1.109101000000000E+02      2.948608000000000E-01     -1.120752000000000E+01      2.984009000000000E-01      1.208320000000000E+02      2.166901000000000E-01      2.427637000000000E+01
4854000000.000000      3.022614000000000E-01      1.113945000000000E+02      3.004303000000000E-01     -1.122119000000000E+01      3.040771000000000E-01      1.208516000000000E+02      2.162552000000000E-01      2.364356000000000E+01
4855000000.000000      2.961426000000000E-01      1.119219000000000E+02      3.057709000000000E-01     -1.136816000000000E+01      3.088989000000000E-01      1.210273000000000E+02      2.122192000000000E-01      2.261328000000000E+01
4856000000.000000      2.888794000000000E-01      1.124531000000000E+02      3.104858000000000E-01     -1.129297000000000E+01      3.139191000000000E-01      1.210156000000000E+02      2.104645000000000E-01      2.138184000000000E+01
4857000000.000000      2.819061000000000E-01      1.128789000000000E+02      3.156128000000000E-01     -1.150684000000000E+01      3.187714000000000E-01      1.211133000000000E+02      2.074738000000000E-01      2.009863000000000E+01
4858000000.000000      2.741699000000000E-01      1.133750000000000E+02      3.209991000000000E-01     -1.162939000000000E+01      3.235931000000000E-01      1.211523000000000E+02      2.056046000000000E-01      1.892773000000000E+01
4859000000.000000      2.672119000000000E-01      1.138633000000000E+02      3.260956000000000E-01     -1.187793000000000E+01      3.287659000000000E-01      1.211250000000000E+02      2.030945000000000E-01      1.772754000000000E+01
4860000000.000000      2.608948000000000E-01      1.145000000000000E+02      3.307648000000000E-01     -1.187500000000000E+01      3.331604000000000E-01      1.210547000000000E+02      1.998672000000000E-01      1.650195000000000E+01
4861000000.000000      2.528229000000000E-01      1.150234000000000E+02      3.353577000000000E-01     -1.239844000000000E+01      3.383484000000000E-01      1.210000000000000E+02      1.963120000000000E-01      1.530908000000000E+01
4862000000.000000      2.452850000000000E-01      1.154805000000000E+02      3.409882000000000E-01     -1.248340000000000E+01      3.436127000000000E-01      1.209883000000000E+02      1.951599000000000E-01      1.413525000000000E+01
4863000000.000000      2.376709000000000E-01      1.159687000000000E+02      3.447723000000000E-01     -1.281445000000000E+01      3.493652000000000E-01      1.210547000000000E+02      1.926346000000000E-01      1.309424000000000E+01
4864000000.000000      2.306671000000000E-01      1.165351000000000E+02      3.502045000000000E-01     -1.281445000000000E+01      3.536530000000000E-01      1.208828000000000E+02      1.891632000000000E-01      1.192822000000000E+01
4865000000.000000      2.230911000000000E-01      1.169609000000000E+02      3.551331000000000E-01     -1.319092000000000E+01      3.585663000000000E-01      1.208594000000000E+02      1.877518000000000E-01      1.089014000000000E+01
4866000000.000000      2.151489000000000E-01      1.175000000000000E+02      3.593140000000000E-01     -1.357129000000000E+01      3.648224000000000E-01      1.206602000000000E+02      1.853256000000000E-01      9.534668000000000E+00
4867000000.000000      2.077332000000000E-01      1.181562000000000E+02      3.644409000000000E-01     -1.399951000000000E+01      3.686523000000000E-01      1.206016000000000E+02      1.820755000000000E-01      8.458008000000000E+00
4868000000.000000      2.003555000000000E-01      1.186641000000000E+02      3.699493000000000E-01     -1.425928000000000E+01      3.739929000000000E-01      1.204062000000000E+02      1.797791000000000E-01      7.502197000000000E+00
4869000000.000000      1.926270000000000E-01      1.193633000000000E+02      3.737946000000000E-01     -1.445410000000000E+01      3.793030000000000E-01      1.204023000000000E+02      1.769714000000000E-01      6.244141000000000E+00
4870000000.000000      1.850967000000000E-01      1.200469000000000E+02      3.786774000000000E-01     -1.460254000000000E+01      3.847809000000000E-01      1.202148000000000E+02      1.745605000000000E-01      5.206055000000000E+00
4871000000.000000      1.772614000000000E-01      1.206094000000000E+02      3.840332000000000E-01     -1.506787000000000E+01      3.888397000000000E-01      1.201211000000000E+02      1.717224000000000E-01      4.010010000000000E+00
4872000000.000000      1.699524000000000E-01      1.213555000000000E+02      3.879852000000000E-01     -1.516016000000000E+01      3.934631000000000E-01      1.197266000000000E+02      1.697464000000000E-01      3.121460000000000E+00
4873000000.000000      1.623001000000000E-01      1.220469000000000E+02      3.930206000000000E-01     -1.580957000000000E+01      3.993073000000000E-01      1.197890000000000E+02      1.663742000000000E-01      1.749573000000000E+00
4874000000.000000      1.546173000000000E-01      1.229453000000000E+02      3.969574000000000E-01     -1.618750000000000E+01      4.052582000000000E-01      1.193945000000000E+02      1.642303000000000E-01      8.596802000000000E-01
4875000000.000000      1.471405000000000E-01      1.239531000000000E+02      4.018555000000000E-01     -1.637988000000000E+01      4.096375000000000E-01      1.192539000000000E+02      1.610107000000000E-01     -2.142334000000000E-01
4876000000.000000      1.400375000000000E-01      1.244609000000000E+02      4.060822000000000E-01     -1.684961000000000E+01      4.139709000000000E-01      1.190117000000000E+02      1.588058000000000E-01     -1.496887000000000E+00
4877000000.000000      1.321716000000000E-01      1.252187000000000E+02      4.105530000000000E-01     -1.718457000000000E+01      4.194946000000000E-01      1.187812000000000E+02      1.562424000000000E-01     -2.373047000000000E+00
4878000000.000000      1.248665000000000E-01      1.265547000000000E+02      4.154663000000000E-01     -1.763086000000000E+01      4.243774000000000E-01      1.187578000000000E+02      1.538239000000000E-01     -3.408569000000000E+00
4879000000.000000      1.179085000000000E-01      1.274492000000000E+02      4.194336000000000E-01     -1.791601000000000E+01      4.290314000000000E-01      1.183906000000000E+02      1.510315000000000E-01     -4.456543000000000E+00
4880000000.000000      1.104164000000000E-01      1.286484000000000E+02      4.237366000000000E-01     -1.840625000000000E+01      4.341278000000000E-01      1.182148000000000E+02      1.481552000000000E-01     -5.483643000000000E+00
4881000000.000000      1.035652000000000E-01      1.303125000000000E+02      4.297943000000000E-01     -1.879004000000000E+01      4.389038000000000E-01      1.178359000000000E+02      1.453781000000000E-01     -6.429932000000000E+00
4882000000.000000      9.645844000000000E-02      1.314766000000000E+02      4.330139000000000E-01     -1.935059000000000E+01      4.434052000000000E-01      1.178945000000000E+02      1.423492000000000E-01     -7.049316000000000E+00
