! Network Analyzer HP8722D
! Hewlett-Packard
! Data name: Linha & Wilkinson
! Saver's name: Rodrigo Anjos
! Comments: Teste da utilização de aquisição
continua pelo VNA HP8722D
! Time and date: 25/4/2025 16:49
!              Frequency                     S11                                                   S21                                                   S12                                                   S22
# HZ  S  MA R 50
4800000000.000000      4.355469000000000E-01      9.093750000000000E+01      1.861496000000000E-01     -6.383594000000000E+01      1.912842000000000E-01      6.953515000000000E+01      2.492523000000000E-01      7.705078000000000E+01
4801000000.000000      4.384613000000000E-01      9.125000000000000E+01      1.820068000000000E-01     -6.285742000000000E+01      1.875000000000000E-01      7.026953000000000E+01      2.512360000000000E-01      7.667187000000000E+01
4802000000.000000      4.416504000000000E-01      9.148829000000000E+01      1.784973000000000E-01     -6.149804000000000E+01      1.843338000000000E-01      7.132813000000000E+01      2.557831000000000E-01      7.595703000000000E+01
4803000000.000000      4.443665000000000E-01      9.173046000000000E+01      1.756897000000000E-01     -6.018359000000000E+01      1.807480000000000E-01      7.251171000000000E+01      2.560272000000000E-01      7.543750000000000E+01
4804000000.000000      4.465027000000000E-01      9.217188000000000E+01      1.723175000000000E-01     -5.902148000000000E+01      1.780014000000000E-01      7.353906000000000E+01      2.564392000000000E-01      7.476953000000000E+01
4805000000.000000      4.502869000000000E-01      9.232031000000000E+01      1.699371000000000E-01     -5.793945000000000E+01      1.747665000000000E-01      7.478125000000000E+01      2.595062000000000E-01      7.396484000000000E+01
4806000000.000000      4.510193000000000E-01      9.260157000000000E+01      1.671982000000000E-01     -5.622656000000000E+01      1.721725000000000E-01      7.625000000000000E+01      2.605591000000000E-01      7.347656000000000E+01
4807000000.000000      4.531403000000000E-01      9.287889000000000E+01      1.648026000000000E-01     -5.512695000000000E+01      1.699829000000000E-01      7.732812000000000E+01      2.617493000000000E-01      7.298828000000000E+01
4808000000.000000      4.544373000000000E-01      9.315233000000000E+01      1.630783000000000E-01     -5.325585000000000E+01      1.678925000000000E-01      7.893359000000000E+01      2.637482000000000E-01      7.186328000000000E+01
4809000000.000000      4.562073000000000E-01      9.352734000000000E+01      1.611328000000000E-01     -5.180469000000000E+01      1.668396000000000E-01      8.040234000000000E+01      2.672577000000000E-01      7.113281000000000E+01
4810000000.000000      4.574585000000000E-01      9.377344000000000E+01      1.602173000000000E-01     -4.988281000000000E+01      1.650314000000000E-01      8.195704000000000E+01      2.653809000000000E-01      7.029297000000000E+01
4811000000.000000      4.588470000000000E-01      9.416407000000000E+01      1.587448000000000E-01     -4.841797000000000E+01      1.645279000000000E-01      8.351563000000000E+01      2.674408000000000E-01      6.950781000000000E+01
4812000000.000000      4.598999000000000E-01      9.445704000000000E+01      1.578064000000000E-01     -4.665235000000000E+01      1.632004000000000E-01      8.512110000000000E+01      2.673492000000000E-01      6.857422000000000E+01
4813000000.000000      4.597626000000000E-01      9.484375000000000E+01      1.570892000000000E-01     -4.479101000000000E+01      1.625519000000000E-01      8.681250000000000E+01      2.709045000000000E-01      6.842187000000000E+01
4814000000.000000      4.591675000000000E-01      9.516796000000000E+01      1.570435000000000E-01     -4.307226000000000E+01      1.619492000000000E-01      8.840624000000000E+01      2.695923000000000E-01      6.715234000000000E+01
4815000000.000000      4.593658000000000E-01      9.551952000000000E+01      1.563950000000000E-01     -4.117578000000000E+01      1.614685000000000E-01      9.005859000000000E+01      2.702484000000000E-01      6.608593000000000E+01
4816000000.000000      4.602356000000000E-01      9.586329000000000E+01      1.568451000000000E-01     -3.937304000000000E+01      1.626663000000000E-01      9.187500000000000E+01      2.720032000000000E-01      6.539453000000000E+01
4817000000.000000      4.591980000000000E-01      9.624218000000000E+01      1.575089000000000E-01     -3.760156000000000E+01      1.629639000000000E-01      9.330469000000000E+01      2.710724000000000E-01      6.474609000000000E+01
4818000000.000000      4.583740000000000E-01      9.662889000000000E+01      1.584015000000000E-01     -3.624804000000000E+01      1.636200000000000E-01      9.500780000000000E+01      2.722015000000000E-01      6.364648000000000E+01
4819000000.000000      4.578094000000000E-01      9.686718000000000E+01      1.592484000000000E-01     -3.425000000000000E+01      1.649323000000000E-01      9.666796000000000E+01      2.718353000000000E-01      6.279882000000000E+01
4820000000.000000      4.544067000000000E-01      9.719139000000000E+01      1.607056000000000E-01     -3.262304000000000E+01      1.662598000000000E-01      9.817186000000000E+01      2.714081000000000E-01      6.188867000000000E+01
4821000000.000000      4.554443000000000E-01      9.767187000000000E+01      1.628189000000000E-01     -3.103125000000000E+01      1.677399000000000E-01      9.961718000000000E+01      2.719421000000000E-01      6.116601000000000E+01
4822000000.000000      4.531403000000000E-01      9.792969000000000E+01      1.640778000000000E-01     -2.955273000000000E+01      1.696625000000000E-01      1.010117000000000E+02      2.720947000000000E-01      5.943164000000000E+01
4823000000.000000      4.512177000000000E-01      9.835938000000000E+01      1.666489000000000E-01     -2.821191000000000E+01      1.715012000000000E-01      1.026133000000000E+02      2.702789000000000E-01      5.902344000000000E+01
4824000000.000000      4.498444000000000E-01      9.872265000000000E+01      1.689682000000000E-01     -2.673144000000000E+01      1.741028000000000E-01      1.037930000000000E+02      2.693787000000000E-01      5.764648000000000E+01
4825000000.000000      4.465942000000000E-01      9.905468000000000E+01      1.714706000000000E-01     -2.528027000000000E+01      1.771088000000000E-01      1.051836000000000E+02      2.696838000000000E-01      5.692968000000000E+01
4826000000.000000      4.445038000000000E-01      9.949608000000000E+01      1.748199000000000E-01     -2.405762000000000E+01      1.791840000000000E-01      1.063086000000000E+02      2.687683000000000E-01      5.588085000000000E+01
4827000000.000000      4.420776000000000E-01      9.989452000000000E+01      1.775589000000000E-01     -2.266211000000000E+01      1.824112000000000E-01      1.075078000000000E+02      2.688904000000000E-01      5.423046000000000E+01
4828000000.000000      4.399414000000000E-01      1.002812000000000E+02      1.805191000000000E-01     -2.156836000000000E+01      1.858139000000000E-01      1.086836000000000E+02      2.669525000000000E-01      5.344140000000000E+01
4829000000.000000      4.358978000000000E-01      1.007969000000000E+02      1.836853000000000E-01     -2.037890000000000E+01      1.894989000000000E-01      1.098438000000000E+02      2.674713000000000E-01      5.256249000000000E+01
4830000000.000000      4.323425000000000E-01      1.010547000000000E+02      1.877060000000000E-01     -1.949316000000000E+01      1.926880000000000E-01      1.107969000000000E+02      2.652893000000000E-01      5.173633000000000E+01
4831000000.000000      4.287720000000000E-01      1.015195000000000E+02      1.914139000000000E-01     -1.855371000000000E+01      1.963120000000000E-01      1.117461000000000E+02      2.650757000000000E-01      5.031640000000000E+01
4832000000.000000      4.253387000000000E-01      1.019141000000000E+02      1.953049000000000E-01     -1.755957000000000E+01      1.999893000000000E-01      1.125703000000000E+02      2.635651000000000E-01      4.969140000000000E+01
4833000000.000000      4.214325000000000E-01      1.023203000000000E+02      1.992569000000000E-01     -1.663965000000000E+01      2.037201000000000E-01      1.133047000000000E+02      2.609863000000000E-01      4.845898000000000E+01
4834000000.000000      4.168243000000000E-01      1.027070000000000E+02      2.026062000000000E-01     -1.593018000000000E+01      2.079468000000000E-01      1.142031000000000E+02      2.601929000000000E-01      4.736718000000000E+01
4835000000.000000      4.131317000000000E-01      1.031406000000000E+02      2.073975000000000E-01     -1.543213000000000E+01      2.121582000000000E-01      1.148789000000000E+02      2.587433000000000E-01      4.609961000000000E+01
4836000000.000000      4.092712000000000E-01      1.036094000000000E+02      2.113953000000000E-01     -1.473291000000000E+01      2.161102000000000E-01      1.156836000000000E+02      2.567139000000000E-01      4.471680000000000E+01
4837000000.000000      4.039154000000000E-01      1.041523000000000E+02      2.150421000000000E-01     -1.438525000000000E+01      2.203674000000000E-01      1.160390000000000E+02      2.552490000000000E-01      4.396484000000000E+01
4838000000.000000      3.991241000000000E-01      1.044805000000000E+02      2.201843000000000E-01     -1.357666000000000E+01      2.249146000000000E-01      1.166640000000000E+02      2.547760000000000E-01      4.237500000000000E+01
4839000000.000000      3.957214000000000E-01      1.049453000000000E+02      2.248840000000000E-01     -1.315625000000000E+01      2.294235000000000E-01      1.171328000000000E+02      2.510834000000000E-01      4.114258000000000E+01
4840000000.000000      3.894653000000000E-01      1.053047000000000E+02      2.294846000000000E-01     -1.267578000000000E+01      2.339020000000000E-01      1.177187000000000E+02      2.485352000000000E-01      4.013281000000000E+01
4841000000.000000      3.854065000000000E-01      1.058281000000000E+02      2.344437000000000E-01     -1.227588000000000E+01      2.382202000000000E-01      1.180937000000000E+02      2.477951000000000E-01      3.923047000000000E+01
4842000000.000000      3.789978000000000E-01      1.063242000000000E+02      2.387238000000000E-01     -1.199854000000000E+01      2.424088000000000E-01      1.185352000000000E+02      2.448959000000000E-01      3.809179000000000E+01
4843000000.000000      3.739777000000000E-01      1.065937000000000E+02      2.439575000000000E-01     -1.170068000000000E+01      2.475357000000000E-01      1.187930000000000E+02      2.425079000000000E-01      3.714844000000000E+01
4844000000.000000      3.680725000000000E-01      1.071289000000000E+02      2.483215000000000E-01     -1.163330000000000E+01      2.520905000000000E-01      1.191680000000000E+02      2.393799000000000E-01      3.610352000000000E+01
4845000000.000000      3.627167000000000E-01      1.076211000000000E+02      2.531891000000000E-01     -1.113086000000000E+01      2.573547000000000E-01      1.194062000000000E+02      2.382584000000000E-01      3.452734000000000E+01
4846000000.000000      3.567047000000000E-01      1.080742000000000E+02      2.591400000000000E-01     -1.108008000000000E+01      2.621613000000000E-01      1.197344000000000E+02      2.370377000000000E-01      3.336914000000000E+01
4847000000.000000      3.513947000000000E-01      1.085859000000000E+02      2.635956000000000E-01     -1.089063000000000E+01      2.670135000000000E-01      1.200078000000000E+02      2.326431000000000E-01      3.216015000000000E+01
4848000000.000000      3.447723000000000E-01      1.089883000000000E+02      2.675018000000000E-01     -1.093311000000000E+01      2.712860000000000E-01      1.201523000000000E+02      2.316971000000000E-01      3.097363000000000E+01
4849000000.000000      3.384552000000000E-01      1.094141000000000E+02      2.730255000000000E-01     -1.086865000000000E+01      2.767029000000000E-01      1.203945000000000E+02      2.277298000000000E-01      3.005566000000000E+01
4850000000.000000      3.324280000000000E-01      1.100000000000000E+02      2.780609000000000E-01     -1.064746000000000E+01      2.815094000000000E-01      1.204844000000000E+02      2.262344000000000E-01      2.889257000000000E+01
4851000000.000000      3.263855000000000E-01      1.104531000000000E+02      2.831573000000000E-01     -1.086182000000000E+01      2.863617000000000E-01      1.207930000000000E+02      2.245483000000000E-01      2.767285000000000E+01
4852000000.000000      3.190613000000000E-01      1.108242000000000E+02      2.881012000000000E-01     -1.088623000000000E+01      2.910461000000000E-01      1.209062000000000E+02      2.229767000000000E-01      2.637500000000000E+01
4853000000.000000      3.130951000000000E-01      1.114297000000000E+02      2.924194000000000E-01     -1.078467000000000E+01      2.959900000000000E-01      1.209336000000000E+02      2.187042000000000E-01      2.521973000000000E+01
4854000000.000000      3.058014000000000E-01      1.118047000000000E+02      2.976532000000000E-01     -1.107715000000000E+01      3.010254000000000E-01      1.210234000000000E+02      2.169647000000000E-01      2.413671000000000E+01
4855000000.000000      2.992096000000000E-01      1.123281000000000E+02      3.034210000000000E-01     -1.098926000000000E+01      3.060760000000000E-01      1.211484000000000E+02      2.132721000000000E-01      2.287304000000000E+01
4856000000.000000      2.924805000000000E-01      1.128984000000000E+02      3.078918000000000E-01     -1.115820000000000E+01      3.115845000000000E-01      1.211055000000000E+02      2.123184000000000E-01      2.170898000000000E+01
4857000000.000000      2.855682000000000E-01      1.133945000000000E+02      3.132629000000000E-01     -1.124316000000000E+01      3.162079000000000E-01      1.212226000000000E+02      2.084885000000000E-01      2.065918000000000E+01
4858000000.000000      2.779694000000000E-01      1.137617000000000E+02      3.173676000000000E-01     -1.159375000000000E+01      3.210297000000000E-01      1.211875000000000E+02      2.061615000000000E-01      1.940039000000000E+01
4859000000.000000      2.711792000000000E-01      1.142734000000000E+02      3.233795000000000E-01     -1.159912000000000E+01      3.258514000000000E-01      1.213359000000000E+02      2.038574000000000E-01      1.811035000000000E+01
4860000000.000000      2.644501000000000E-01      1.148438000000000E+02      3.279572000000000E-01     -1.183643000000000E+01      3.307953000000000E-01      1.212305000000000E+02      2.014542000000000E-01      1.718457000000000E+01
4861000000.000000      2.567749000000000E-01      1.154180000000000E+02      3.328705000000000E-01     -1.193262000000000E+01      3.360138000000000E-01      1.211875000000000E+02      1.972961000000000E-01      1.589697000000000E+01
4862000000.000000      2.490921000000000E-01      1.158789000000000E+02      3.378448000000000E-01     -1.209229000000000E+01      3.415070000000000E-01      1.212734000000000E+02      1.955719000000000E-01      1.462256000000000E+01
4863000000.000000      2.418289000000000E-01      1.163477000000000E+02      3.427124000000000E-01     -1.257959000000000E+01      3.465424000000000E-01      1.211836000000000E+02      1.937637000000000E-01      1.362305000000000E+01
4864000000.000000      2.343750000000000E-01      1.169023000000000E+02      3.479767000000000E-01     -1.271143000000000E+01      3.515472000000000E-01      1.211250000000000E+02      1.907959000000000E-01      1.237988000000000E+01
4865000000.000000      2.265320000000000E-01      1.173594000000000E+02      3.527832000000000E-01     -1.280322000000000E+01      3.563232000000000E-01      1.209453000000000E+02      1.886444000000000E-01      1.130859000000000E+01
4866000000.000000      2.187042000000000E-01      1.178945000000000E+02      3.561249000000000E-01     -1.332373000000000E+01      3.611450000000000E-01      1.207851000000000E+02      1.859055000000000E-01      1.021729000000000E+01
4867000000.000000      2.116852000000000E-01      1.185976000000000E+02      3.617554000000000E-01     -1.363965000000000E+01      3.661804000000000E-01      1.208320000000000E+02      1.831436000000000E-01      9.011230000000000E+00
4868000000.000000      2.042160000000000E-01      1.190664000000000E+02      3.670197000000000E-01     -1.389941000000000E+01      3.712158000000000E-01      1.206367000000000E+02      1.801071000000000E-01      8.018555000000000E+00
4869000000.000000      1.963806000000000E-01      1.198125000000000E+02      3.712006000000000E-01     -1.422461000000000E+01      3.762207000000000E-01      1.205078000000000E+02      1.775284000000000E-01      6.815430000000000E+00
4870000000.000000      1.892014000000000E-01      1.202695000000000E+02      3.758545000000000E-01     -1.434961000000000E+01      3.820190000000000E-01      1.203125000000000E+02      1.753693000000000E-01      5.812988000000000E+00
4871000000.000000      1.812210000000000E-01      1.210234000000000E+02      3.808136000000000E-01     -1.494434000000000E+01      3.863983000000000E-01      1.202617000000000E+02      1.727371000000000E-01      4.656738000000000E+00
4872000000.000000      1.740112000000000E-01      1.215898000000000E+02      3.854828000000000E-01     -1.506787000000000E+01      3.912354000000000E-01      1.198789000000000E+02      1.704636000000000E-01      3.622681000000000E+00
4873000000.000000      1.665726000000000E-01      1.225273000000000E+02      3.907623000000000E-01     -1.537695000000000E+01      3.957214000000000E-01      1.198594000000000E+02      1.668549000000000E-01      2.282349000000000E+00
4874000000.000000      1.585541000000000E-01      1.231133000000000E+02      3.933716000000000E-01     -1.593750000000000E+01      4.025879000000000E-01      1.196055000000000E+02      1.652832000000000E-01      1.288147000000000E+00
4875000000.000000      1.512985000000000E-01      1.241523000000000E+02      3.986664000000000E-01     -1.623926000000000E+01      4.066010000000000E-01      1.195234000000000E+02      1.619110000000000E-01      3.996277000000000E-01
4876000000.000000      1.444092000000000E-01      1.247461000000000E+02      4.040070000000000E-01     -1.670215000000000E+01      4.116974000000000E-01      1.192734000000000E+02      1.597137000000000E-01     -1.002502000000000E+00
4877000000.000000      1.359253000000000E-01      1.255234000000000E+02      4.078217000000000E-01     -1.698144000000000E+01      4.155731000000000E-01      1.190703000000000E+02      1.564026000000000E-01     -1.723511000000000E+00
4878000000.000000      1.290817000000000E-01      1.267344000000000E+02      4.121704000000000E-01     -1.741406000000000E+01      4.201660000000000E-01      1.190469000000000E+02      1.541214000000000E-01     -2.981445000000000E+00
4879000000.000000      1.222038000000000E-01      1.276094000000000E+02      4.161224000000000E-01     -1.758398000000000E+01      4.263306000000000E-01      1.186055000000000E+02      1.517105000000000E-01     -3.951050000000000E+00
4880000000.000000      1.142082000000000E-01      1.285859000000000E+02      4.212494000000000E-01     -1.806055000000000E+01      4.311218000000000E-01      1.183945000000000E+02      1.491699000000000E-01     -4.920654000000000E+00
4881000000.000000      1.077805000000000E-01      1.301875000000000E+02      4.251251000000000E-01     -1.854785000000000E+01      4.360962000000000E-01      1.182070000000000E+02      1.463547000000000E-01     -5.689697000000000E+00
4882000000.000000      1.003456000000000E-01      1.312500000000000E+02      4.299774000000000E-01     -1.904297000000000E+01      4.425964000000000E-01      1.179648000000000E+02      1.433029000000000E-01     -6.547852000000000E+00
