! Network Analyzer HP8722D
! Hewlett-Packard
! Data name: Linha & Wilkinson
! Saver's name: Rodrigo Anjos
! Comments: Teste da utilização de aquisição
continua pelo VNA HP8722D
! Time and date: 25/4/2025 16:52
!              Frequency                     S11                                                   S21                                                   S12                                                   S22
# HZ  S  MA R 50
4800000000.000000      4.359131000000000E-01      9.103516000000000E+01      1.862946000000000E-01     -6.404687000000000E+01      1.911545000000000E-01      6.953906000000000E+01      2.485428000000000E-01      7.712109000000000E+01
4801000000.000000      4.385834000000000E-01      9.121094000000000E+01      1.820145000000000E-01     -6.278906000000000E+01      1.874695000000000E-01      7.030468000000000E+01      2.518311000000000E-01      7.664844000000000E+01
4802000000.000000      4.412842000000000E-01      9.144922000000000E+01      1.788940000000000E-01     -6.155663000000000E+01      1.843033000000000E-01      7.128906000000000E+01      2.558746000000000E-01      7.585938000000000E+01
4803000000.000000      4.442596000000000E-01      9.173828000000000E+01      1.756363000000000E-01     -6.042578000000000E+01      1.806717000000000E-01      7.244922000000000E+01      2.557373000000000E-01      7.539844000000000E+01
4804000000.000000      4.466705000000000E-01      9.207422000000000E+01      1.727829000000000E-01     -5.916016000000000E+01      1.777878000000000E-01      7.352344000000000E+01      2.565460000000000E-01      7.446484000000000E+01
4805000000.000000      4.499817000000000E-01      9.224609000000000E+01      1.697998000000000E-01     -5.791016000000000E+01      1.752090000000000E-01      7.478906000000000E+01      2.609100000000000E-01      7.404687000000000E+01
4806000000.000000      4.510956000000000E-01      9.251562000000000E+01      1.675339000000000E-01     -5.636719000000000E+01      1.722488000000000E-01      7.623437000000000E+01      2.625885000000000E-01      7.330859000000000E+01
4807000000.000000      4.535675000000000E-01      9.284374000000000E+01      1.649857000000000E-01     -5.508203000000000E+01      1.700363000000000E-01      7.745312000000000E+01      2.614594000000000E-01      7.276562000000000E+01
4808000000.000000      4.545288000000000E-01      9.310547000000000E+01      1.637039000000000E-01     -5.312500000000000E+01      1.682358000000000E-01      7.887109000000000E+01      2.626495000000000E-01      7.180469000000000E+01
4809000000.000000      4.556885000000000E-01      9.347265000000000E+01      1.612015000000000E-01     -5.183788000000000E+01      1.665192000000000E-01      8.036718000000000E+01      2.666321000000000E-01      7.139453000000000E+01
4810000000.000000      4.575806000000000E-01      9.380468000000000E+01      1.594543000000000E-01     -4.990624000000000E+01      1.650314000000000E-01      8.182032000000000E+01      2.665405000000000E-01      7.017187000000000E+01
4811000000.000000      4.586029000000000E-01      9.410156000000000E+01      1.590118000000000E-01     -4.845117000000000E+01      1.643143000000000E-01      8.358593000000000E+01      2.668304000000000E-01      6.954296000000000E+01
4812000000.000000      4.595184000000000E-01      9.446875000000000E+01      1.577835000000000E-01     -4.666601000000000E+01      1.631088000000000E-01      8.502344000000000E+01      2.682648000000000E-01      6.886328000000000E+01
4813000000.000000      4.595184000000000E-01      9.491014000000000E+01      1.571198000000000E-01     -4.493945000000000E+01      1.625443000000000E-01      8.675390000000000E+01      2.723236000000000E-01      6.815624000000000E+01
4814000000.000000      4.591980000000000E-01      9.512110000000000E+01      1.567917000000000E-01     -4.289063000000000E+01      1.621017000000000E-01      8.842968000000000E+01      2.698822000000000E-01      6.713281000000000E+01
4815000000.000000      4.593811000000000E-01      9.551561000000000E+01      1.565781000000000E-01     -4.145898000000000E+01      1.616821000000000E-01      9.006639000000000E+01      2.708282000000000E-01      6.641015000000000E+01
4816000000.000000      4.602509000000000E-01      9.587500000000000E+01      1.571579000000000E-01     -3.950390000000000E+01      1.627731000000000E-01      9.169922000000000E+01      2.720490000000000E-01      6.496484000000000E+01
4817000000.000000      4.591217000000000E-01      9.621483000000000E+01      1.569901000000000E-01     -3.795507000000000E+01      1.629028000000000E-01      9.332031000000000E+01      2.717438000000000E-01      6.500000000000000E+01
4818000000.000000      4.583435000000000E-01      9.660545000000000E+01      1.581116000000000E-01     -3.603906000000000E+01      1.638107000000000E-01      9.502733000000000E+01      2.736206000000000E-01      6.386328000000000E+01
4819000000.000000      4.583130000000000E-01      9.689453000000000E+01      1.592484000000000E-01     -3.439844000000000E+01      1.645966000000000E-01      9.649609000000000E+01      2.710571000000000E-01      6.282227000000000E+01
4820000000.000000      4.548645000000000E-01      9.732422000000000E+01      1.609039000000000E-01     -3.267383000000000E+01      1.663513000000000E-01      9.808594000000000E+01      2.732086000000000E-01      6.194530000000000E+01
4821000000.000000      4.554443000000000E-01      9.759375000000000E+01      1.627274000000000E-01     -3.105371000000000E+01      1.678696000000000E-01      9.960546000000000E+01      2.727814000000000E-01      6.114258000000000E+01
4822000000.000000      4.530334000000000E-01      9.796093000000000E+01      1.641312000000000E-01     -2.945508000000000E+01      1.697617000000000E-01      1.010195000000000E+02      2.727051000000000E-01      5.983007000000000E+01
4823000000.000000      4.513702000000000E-01      9.839844000000000E+01      1.667557000000000E-01     -2.801172000000000E+01      1.715393000000000E-01      1.025039000000000E+02      2.719269000000000E-01      5.879296000000000E+01
4824000000.000000      4.495544000000000E-01      9.875389000000000E+01      1.687164000000000E-01     -2.678515000000000E+01      1.740646000000000E-01      1.036914000000000E+02      2.700653000000000E-01      5.780273000000000E+01
4825000000.000000      4.469299000000000E-01      9.906250000000000E+01      1.715012000000000E-01     -2.532227000000000E+01      1.772232000000000E-01      1.050859000000000E+02      2.710876000000000E-01      5.703320000000000E+01
4826000000.000000      4.444275000000000E-01      9.949219000000000E+01      1.743317000000000E-01     -2.416113000000000E+01      1.797562000000000E-01      1.063515000000000E+02      2.703552000000000E-01      5.586132000000000E+01
4827000000.000000      4.422760000000000E-01      9.987499000000000E+01      1.774063000000000E-01     -2.268750000000000E+01      1.824951000000000E-01      1.075625000000000E+02      2.689056000000000E-01      5.486523000000000E+01
4828000000.000000      4.394226000000000E-01      1.002266000000000E+02      1.805649000000000E-01     -2.146094000000000E+01      1.860657000000000E-01      1.086367000000000E+02      2.675934000000000E-01      5.351953000000000E+01
4829000000.000000      4.356689000000000E-01      1.008047000000000E+02      1.839447000000000E-01     -2.030762000000000E+01      1.893768000000000E-01      1.098047000000000E+02      2.672729000000000E-01      5.273828000000000E+01
4830000000.000000      4.326324000000000E-01      1.011094000000000E+02      1.879959000000000E-01     -1.948340000000000E+01      1.925278000000000E-01      1.107187000000000E+02      2.656250000000000E-01      5.132226000000000E+01
4831000000.000000      4.287262000000000E-01      1.014297000000000E+02      1.908112000000000E-01     -1.837695000000000E+01      1.964722000000000E-01      1.117930000000000E+02      2.638702000000000E-01      5.007813000000000E+01
4832000000.000000      4.252472000000000E-01      1.019414000000000E+02      1.943207000000000E-01     -1.754883000000000E+01      1.997375000000000E-01      1.125547000000000E+02      2.625732000000000E-01      4.984765000000000E+01
4833000000.000000      4.210052000000000E-01      1.022734000000000E+02      1.991653000000000E-01     -1.678906000000000E+01      2.038040000000000E-01      1.133711000000000E+02      2.614136000000000E-01      4.813671000000000E+01
4834000000.000000      4.176941000000000E-01      1.027226000000000E+02      2.026672000000000E-01     -1.612305000000000E+01      2.079620000000000E-01      1.141445000000000E+02      2.602844000000000E-01      4.751953000000000E+01
4835000000.000000      4.131775000000000E-01      1.031641000000000E+02      2.077255000000000E-01     -1.537012000000000E+01      2.118683000000000E-01      1.148828000000000E+02      2.591705000000000E-01      4.585938000000000E+01
4836000000.000000      4.093170000000000E-01      1.035508000000000E+02      2.117386000000000E-01     -1.469971000000000E+01      2.162323000000000E-01      1.155156000000000E+02      2.567139000000000E-01      4.499023000000000E+01
4837000000.000000      4.040070000000000E-01      1.039297000000000E+02      2.157745000000000E-01     -1.427148000000000E+01      2.201843000000000E-01      1.160508000000000E+02      2.563324000000000E-01      4.404101000000000E+01
4838000000.000000      3.990784000000000E-01      1.045156000000000E+02      2.200089000000000E-01     -1.361768000000000E+01      2.246475000000000E-01      1.166758000000000E+02      2.537994000000000E-01      4.288086000000000E+01
4839000000.000000      3.956451000000000E-01      1.048984000000000E+02      2.249146000000000E-01     -1.306982000000000E+01      2.294769000000000E-01      1.171250000000000E+02      2.516632000000000E-01      4.132421000000000E+01
4840000000.000000      3.893890000000000E-01      1.053203000000000E+02      2.296219000000000E-01     -1.251660000000000E+01      2.337265000000000E-01      1.176797000000000E+02      2.490234000000000E-01      4.011328000000000E+01
4841000000.000000      3.854065000000000E-01      1.058594000000000E+02      2.352600000000000E-01     -1.242578000000000E+01      2.385635000000000E-01      1.180195000000000E+02      2.475662000000000E-01      3.899219000000000E+01
4842000000.000000      3.791199000000000E-01      1.063164000000000E+02      2.387924000000000E-01     -1.200439000000000E+01      2.429199000000000E-01      1.185859000000000E+02      2.465057000000000E-01      3.809179000000000E+01
4843000000.000000      3.739777000000000E-01      1.065742000000000E+02      2.438431000000000E-01     -1.178711000000000E+01      2.474518000000000E-01      1.188594000000000E+02      2.440262000000000E-01      3.716601000000000E+01
4844000000.000000      3.682251000000000E-01      1.071172000000000E+02      2.486343000000000E-01     -1.152637000000000E+01      2.518616000000000E-01      1.191484000000000E+02      2.394028000000000E-01      3.573242000000000E+01
4845000000.000000      3.626404000000000E-01      1.076641000000000E+02      2.530060000000000E-01     -1.122021000000000E+01      2.571564000000000E-01      1.194219000000000E+02      2.381973000000000E-01      3.462305000000000E+01
4846000000.000000      3.570251000000000E-01      1.080039000000000E+02      2.584991000000000E-01     -1.110889000000000E+01      2.622223000000000E-01      1.197422000000000E+02      2.369080000000000E-01      3.330078000000000E+01
4847000000.000000      3.513336000000000E-01      1.086289000000000E+02      2.632904000000000E-01     -1.092041000000000E+01      2.666321000000000E-01      1.199922000000000E+02      2.330856000000000E-01      3.210156000000000E+01
4848000000.000000      3.445435000000000E-01      1.090195000000000E+02      2.674866000000000E-01     -1.089307000000000E+01      2.711029000000000E-01      1.202266000000000E+02      2.327347000000000E-01      3.112793000000000E+01
4849000000.000000      3.384399000000000E-01      1.093711000000000E+02      2.729187000000000E-01     -1.082715000000000E+01      2.764740000000000E-01      1.203906000000000E+02      2.278214000000000E-01      3.033789000000000E+01
4850000000.000000      3.322754000000000E-01      1.098398000000000E+02      2.781219000000000E-01     -1.079834000000000E+01      2.814789000000000E-01      1.205547000000000E+02      2.256241000000000E-01      2.877832000000000E+01
4851000000.000000      3.262024000000000E-01      1.103867000000000E+02      2.831421000000000E-01     -1.077637000000000E+01      2.861328000000000E-01      1.206953000000000E+02      2.250290000000000E-01      2.758789000000000E+01
4852000000.000000      3.193665000000000E-01      1.108359000000000E+02      2.882080000000000E-01     -1.086963000000000E+01      2.909241000000000E-01      1.209961000000000E+02      2.219696000000000E-01      2.670605000000000E+01
4853000000.000000      3.134308000000000E-01      1.114219000000000E+02      2.926178000000000E-01     -1.085205000000000E+01      2.960205000000000E-01      1.209961000000000E+02      2.191544000000000E-01      2.525586000000000E+01
4854000000.000000      3.055725000000000E-01      1.117617000000000E+02      2.976837000000000E-01     -1.102783000000000E+01      3.015594000000000E-01      1.210547000000000E+02      2.178879000000000E-01      2.412012000000000E+01
4855000000.000000      2.991180000000000E-01      1.122617000000000E+02      3.032379000000000E-01     -1.115527000000000E+01      3.062286000000000E-01      1.210469000000000E+02      2.135162000000000E-01      2.310254000000000E+01
4856000000.000000      2.925110000000000E-01      1.128516000000000E+02      3.079834000000000E-01     -1.107568000000000E+01      3.109283000000000E-01      1.211875000000000E+02      2.117081000000000E-01      2.176074000000000E+01
4857000000.000000      2.856903000000000E-01      1.133594000000000E+02      3.127899000000000E-01     -1.129150000000000E+01      3.161011000000000E-01      1.211836000000000E+02      2.083588000000000E-01      2.070508000000000E+01
4858000000.000000      2.778778000000000E-01      1.136914000000000E+02      3.178406000000000E-01     -1.136279000000000E+01      3.207855000000000E-01      1.212500000000000E+02      2.060394000000000E-01      1.929394000000000E+01
4859000000.000000      2.710571000000000E-01      1.142930000000000E+02      3.238373000000000E-01     -1.162939000000000E+01      3.262177000000000E-01      1.212812000000000E+02      2.037888000000000E-01      1.811230000000000E+01
4860000000.000000      2.641754000000000E-01      1.148047000000000E+02      3.278046000000000E-01     -1.165527000000000E+01      3.300323000000000E-01      1.211523000000000E+02      2.019043000000000E-01      1.717676000000000E+01
4861000000.000000      2.564850000000000E-01      1.153437000000000E+02      3.325500000000000E-01     -1.206055000000000E+01      3.358917000000000E-01      1.212891000000000E+02      1.971512000000000E-01      1.597412000000000E+01
4862000000.000000      2.485199000000000E-01      1.158594000000000E+02      3.377380000000000E-01     -1.224170000000000E+01      3.411407000000000E-01      1.212969000000000E+02      1.956482000000000E-01      1.469141000000000E+01
4863000000.000000      2.418137000000000E-01      1.164101000000000E+02      3.420563000000000E-01     -1.252051000000000E+01      3.464203000000000E-01      1.211914000000000E+02      1.935806000000000E-01      1.364502000000000E+01
4864000000.000000      2.341919000000000E-01      1.168086000000000E+02      3.476563000000000E-01     -1.267139000000000E+01      3.505554000000000E-01      1.211953000000000E+02      1.902924000000000E-01      1.247070000000000E+01
4865000000.000000      2.264786000000000E-01      1.173633000000000E+02      3.519745000000000E-01     -1.283350000000000E+01      3.565216000000000E-01      1.209727000000000E+02      1.886978000000000E-01      1.139404000000000E+01
4866000000.000000      2.187347000000000E-01      1.178750000000000E+02      3.570251000000000E-01     -1.328271000000000E+01      3.610992000000000E-01      1.207265000000000E+02      1.864548000000000E-01      1.006885000000000E+01
4867000000.000000      2.112198000000000E-01      1.185352000000000E+02      3.616791000000000E-01     -1.372510000000000E+01      3.655243000000000E-01      1.208281000000000E+02      1.830063000000000E-01      8.960449000000000E+00
4868000000.000000      2.043686000000000E-01      1.191367000000000E+02      3.668213000000000E-01     -1.385254000000000E+01      3.719025000000000E-01      1.206758000000000E+02      1.800690000000000E-01      7.992432000000000E+00
4869000000.000000      1.961136000000000E-01      1.197227000000000E+02      3.713684000000000E-01     -1.422217000000000E+01      3.766327000000000E-01      1.206055000000000E+02      1.782455000000000E-01      6.815430000000000E+00
4870000000.000000      1.888428000000000E-01      1.203750000000000E+02      3.755493000000000E-01     -1.426318000000000E+01      3.815765000000000E-01      1.204492000000000E+02      1.752777000000000E-01      5.845947000000000E+00
4871000000.000000      1.809845000000000E-01      1.209297000000000E+02      3.805695000000000E-01     -1.483301000000000E+01      3.859863000000000E-01      1.203008000000000E+02      1.729126000000000E-01      4.529053000000000E+00
4872000000.000000      1.741867000000000E-01      1.215898000000000E+02      3.849182000000000E-01     -1.492920000000000E+01      3.904572000000000E-01      1.200664000000000E+02      1.706467000000000E-01      3.688599000000000E+00
4873000000.000000      1.662598000000000E-01      1.224570000000000E+02      3.895874000000000E-01     -1.562842000000000E+01      3.956909000000000E-01      1.198945000000000E+02      1.669006000000000E-01      2.307129000000000E+00
4874000000.000000      1.587296000000000E-01      1.231172000000000E+02      3.938446000000000E-01     -1.589453000000000E+01      4.018707000000000E-01      1.196992000000000E+02      1.653748000000000E-01      1.366394000000000E+00
4875000000.000000      1.513367000000000E-01      1.239726000000000E+02      3.991852000000000E-01     -1.618848000000000E+01      4.061127000000000E-01      1.195508000000000E+02      1.621933000000000E-01      3.831482000000000E-01
4876000000.000000      1.439590000000000E-01      1.246523000000000E+02      4.031525000000000E-01     -1.648730000000000E+01      4.116364000000000E-01      1.194492000000000E+02      1.599121000000000E-01     -8.720398000000000E-01
4877000000.000000      1.361465000000000E-01      1.254726000000000E+02      4.071655000000000E-01     -1.699805000000000E+01      4.166870000000000E-01      1.190703000000000E+02      1.572647000000000E-01     -1.595764000000000E+00
4878000000.000000      1.289215000000000E-01      1.267578000000000E+02      4.134827000000000E-01     -1.743457000000000E+01      4.207611000000000E-01      1.190625000000000E+02      1.543198000000000E-01     -2.923828000000000E+00
4879000000.000000      1.215286000000000E-01      1.277617000000000E+02      4.160614000000000E-01     -1.761523000000000E+01      4.253693000000000E-01      1.185586000000000E+02      1.515045000000000E-01     -4.017090000000000E+00
4880000000.000000      1.143303000000000E-01      1.286328000000000E+02      4.211273000000000E-01     -1.813574000000000E+01      4.316101000000000E-01      1.184375000000000E+02      1.494064000000000E-01     -4.721436000000000E+00
4881000000.000000      1.071205000000000E-01      1.301797000000000E+02      4.258423000000000E-01     -1.842285000000000E+01      4.367371000000000E-01      1.181680000000000E+02      1.463013000000000E-01     -5.500244000000000E+00
4882000000.000000      1.000519000000000E-01      1.312422000000000E+02      4.302063000000000E-01     -1.888867000000000E+01      4.420471000000000E-01      1.179062000000000E+02      1.433945000000000E-01     -6.604248000000000E+00
