! Network Analyzer HP8722D
! Hewlett-Packard
! Data name: Linha & Wilkinson
! Saver's name: Rodrigo Anjos
! Comments: Teste da utilização de aquisição
continua pelo VNA HP8722D
! Time and date: 25/4/2025 16:45
!              Frequency                     S11                                                   S21                                                   S12                                                   S22
# HZ  S  MA R 50
4800000000.000000      4.347382000000000E-01      9.101563000000000E+01      1.857300000000000E-01     -6.392968000000000E+01      1.910782000000000E-01      6.954296000000000E+01      2.485123000000000E-01      7.744141000000000E+01
4801000000.000000      4.385834000000000E-01      9.119921000000000E+01      1.816635000000000E-01     -6.269921000000000E+01      1.873093000000000E-01      7.041797000000000E+01      2.511749000000000E-01      7.680078000000000E+01
4802000000.000000      4.417114000000000E-01      9.145702000000000E+01      1.784744000000000E-01     -6.158984000000000E+01      1.842728000000000E-01      7.140234000000000E+01      2.552795000000000E-01      7.593359000000000E+01
4803000000.000000      4.433594000000000E-01      9.175390000000000E+01      1.755219000000000E-01     -6.047265000000000E+01      1.807404000000000E-01      7.260547000000000E+01      2.568207000000000E-01      7.554296000000000E+01
4804000000.000000      4.475861000000000E-01      9.207811000000000E+01      1.724625000000000E-01     -5.901757000000000E+01      1.779404000000000E-01      7.366405000000000E+01      2.586823000000000E-01      7.474609000000000E+01
4805000000.000000      4.505005000000000E-01      9.225389000000000E+01      1.691666000000000E-01     -5.770898000000000E+01      1.748657000000000E-01      7.498047000000000E+01      2.596436000000000E-01      7.410937000000000E+01
4806000000.000000      4.519806000000000E-01      9.254297000000000E+01      1.675262000000000E-01     -5.625586000000000E+01      1.719589000000000E-01      7.623437000000000E+01      2.601929000000000E-01      7.330468000000000E+01
4807000000.000000      4.531555000000000E-01      9.278906000000000E+01      1.646423000000000E-01     -5.505077000000000E+01      1.700134000000000E-01      7.759375000000000E+01      2.626648000000000E-01      7.258203000000000E+01
4808000000.000000      4.553375000000000E-01      9.312891000000000E+01      1.628189000000000E-01     -5.318359000000000E+01      1.679459000000000E-01      7.898046000000000E+01      2.628784000000000E-01      7.211719000000000E+01
4809000000.000000      4.556274000000000E-01      9.350780000000000E+01      1.612473000000000E-01     -5.173242000000000E+01      1.664429000000000E-01      8.042969000000000E+01      2.671967000000000E-01      7.150781000000000E+01
4810000000.000000      4.575500000000000E-01      9.385546000000000E+01      1.599197000000000E-01     -4.979687000000000E+01      1.647263000000000E-01      8.207422000000000E+01      2.648926000000000E-01      7.048046000000000E+01
4811000000.000000      4.588776000000000E-01      9.412889000000000E+01      1.586227000000000E-01     -4.832226000000000E+01      1.639862000000000E-01      8.360546000000000E+01      2.687836000000000E-01      6.958202000000000E+01
4812000000.000000      4.597015000000000E-01      9.445313000000000E+01      1.575851000000000E-01     -4.666211000000000E+01      1.629333000000000E-01      8.523829000000000E+01      2.677765000000000E-01      6.885937000000000E+01
4813000000.000000      4.602203000000000E-01      9.481249000000000E+01      1.568909000000000E-01     -4.476953000000000E+01      1.621857000000000E-01      8.694921000000000E+01      2.696686000000000E-01      6.802734000000000E+01
4814000000.000000      4.602509000000000E-01      9.512499000000000E+01      1.564407000000000E-01     -4.298633000000000E+01      1.621246000000000E-01      8.843750000000000E+01      2.696075000000000E-01      6.721484000000000E+01
4815000000.000000      4.593811000000000E-01      9.550390000000000E+01      1.564484000000000E-01     -4.122070000000000E+01      1.617508000000000E-01      9.014452000000000E+01      2.710419000000000E-01      6.619141000000000E+01
4816000000.000000      4.597626000000000E-01      9.582422000000000E+01      1.574631000000000E-01     -3.934375000000000E+01      1.623917000000000E-01      9.180859000000000E+01      2.707062000000000E-01      6.544922000000000E+01
4817000000.000000      4.584961000000000E-01      9.620703000000000E+01      1.573029000000000E-01     -3.760937000000000E+01      1.629944000000000E-01      9.339844000000000E+01      2.720032000000000E-01      6.487890000000000E+01
4818000000.000000      4.588013000000000E-01      9.653124000000000E+01      1.585464000000000E-01     -3.590039000000000E+01      1.638107000000000E-01      9.499218000000000E+01      2.708893000000000E-01      6.357812000000000E+01
4819000000.000000      4.576569000000000E-01      9.685156000000000E+01      1.594849000000000E-01     -3.429688000000000E+01      1.648178000000000E-01      9.661718000000000E+01      2.703247000000000E-01      6.310937000000000E+01
4820000000.000000      4.549561000000000E-01      9.721874000000000E+01      1.606293000000000E-01     -3.249218000000000E+01      1.663361000000000E-01      9.821484000000000E+01      2.713013000000000E-01      6.176171000000000E+01
4821000000.000000      4.552917000000000E-01      9.760546000000000E+01      1.629028000000000E-01     -3.097656000000000E+01      1.677094000000000E-01      9.966406000000000E+01      2.721100000000000E-01      6.091210000000000E+01
4822000000.000000      4.531403000000000E-01      9.790625000000000E+01      1.643372000000000E-01     -2.944531000000000E+01      1.697388000000000E-01      1.010898000000000E+02      2.713013000000000E-01      5.966797000000000E+01
4823000000.000000      4.510651000000000E-01      9.838671000000000E+01      1.666107000000000E-01     -2.781738000000000E+01      1.718521000000000E-01      1.026797000000000E+02      2.701874000000000E-01      5.865429000000000E+01
4824000000.000000      4.494934000000000E-01      9.875389000000000E+01      1.688385000000000E-01     -2.662695000000000E+01      1.742096000000000E-01      1.038750000000000E+02      2.697601000000000E-01      5.757813000000000E+01
4825000000.000000      4.468384000000000E-01      9.903124000000000E+01      1.714706000000000E-01     -2.512500000000000E+01      1.774902000000000E-01      1.051836000000000E+02      2.701874000000000E-01      5.669726000000000E+01
4826000000.000000      4.444427000000000E-01      9.947266000000000E+01      1.744156000000000E-01     -2.383105000000000E+01      1.796570000000000E-01      1.064023000000000E+02      2.691498000000000E-01      5.579296000000000E+01
4827000000.000000      4.421082000000000E-01      9.983984000000000E+01      1.772308000000000E-01     -2.271582000000000E+01      1.827927000000000E-01      1.076211000000000E+02      2.682953000000000E-01      5.441211000000000E+01
4828000000.000000      4.397430000000000E-01      1.002617000000000E+02      1.809998000000000E-01     -2.151269000000000E+01      1.861038000000000E-01      1.086641000000000E+02      2.674255000000000E-01      5.341406000000000E+01
4829000000.000000      4.352417000000000E-01      1.007344000000000E+02      1.840897000000000E-01     -2.041699000000000E+01      1.898651000000000E-01      1.099062000000000E+02      2.672729000000000E-01      5.245117000000000E+01
4830000000.000000      4.324188000000000E-01      1.010547000000000E+02      1.874924000000000E-01     -1.943652000000000E+01      1.931076000000000E-01      1.107773000000000E+02      2.656250000000000E-01      5.181250000000000E+01
4831000000.000000      4.287262000000000E-01      1.015156000000000E+02      1.914673000000000E-01     -1.852930000000000E+01      1.966400000000000E-01      1.116836000000000E+02      2.655487000000000E-01      5.075585000000000E+01
4832000000.000000      4.257507000000000E-01      1.019531000000000E+02      1.951294000000000E-01     -1.758301000000000E+01      2.002869000000000E-01      1.126601000000000E+02      2.627869000000000E-01      4.961328000000000E+01
4833000000.000000      4.211884000000000E-01      1.022969000000000E+02      1.992950000000000E-01     -1.677832000000000E+01      2.040405000000000E-01      1.133555000000000E+02      2.622986000000000E-01      4.809570000000000E+01
4834000000.000000      4.175873000000000E-01      1.026992000000000E+02      2.032547000000000E-01     -1.601758000000000E+01      2.083664000000000E-01      1.140937000000000E+02      2.601776000000000E-01      4.717382000000000E+01
4835000000.000000      4.129944000000000E-01      1.030820000000000E+02      2.074356000000000E-01     -1.532080000000000E+01      2.125778000000000E-01      1.148906000000000E+02      2.586670000000000E-01      4.592187000000000E+01
4836000000.000000      4.092712000000000E-01      1.036055000000000E+02      2.116852000000000E-01     -1.474268000000000E+01      2.165985000000000E-01      1.155859000000000E+02      2.553406000000000E-01      4.505273000000000E+01
4837000000.000000      4.047852000000000E-01      1.041797000000000E+02      2.158966000000000E-01     -1.427686000000000E+01      2.207489000000000E-01      1.161484000000000E+02      2.563171000000000E-01      4.383594000000000E+01
4838000000.000000      3.991089000000000E-01      1.043750000000000E+02      2.204971000000000E-01     -1.359570000000000E+01      2.248459000000000E-01      1.167266000000000E+02      2.526550000000000E-01      4.259570000000000E+01
4839000000.000000      3.955994000000000E-01      1.049258000000000E+02      2.253571000000000E-01     -1.313037000000000E+01      2.294769000000000E-01      1.172227000000000E+02      2.518768000000000E-01      4.159961000000000E+01
4840000000.000000      3.893890000000000E-01      1.053398000000000E+02      2.298355000000000E-01     -1.270313000000000E+01      2.342072000000000E-01      1.177187000000000E+02      2.478256000000000E-01      3.993750000000000E+01
4841000000.000000      3.852997000000000E-01      1.057969000000000E+02      2.344818000000000E-01     -1.242285000000000E+01      2.387772000000000E-01      1.181367000000000E+02      2.464600000000000E-01      3.910351000000000E+01
4842000000.000000      3.793488000000000E-01      1.063398000000000E+02      2.389526000000000E-01     -1.184766000000000E+01      2.428513000000000E-01      1.185312000000000E+02      2.445374000000000E-01      3.807422000000000E+01
4843000000.000000      3.739471000000000E-01      1.065508000000000E+02      2.445831000000000E-01     -1.184229000000000E+01      2.478790000000000E-01      1.188633000000000E+02      2.436600000000000E-01      3.713086000000000E+01
4844000000.000000      3.680725000000000E-01      1.070937000000000E+02      2.485199000000000E-01     -1.153027000000000E+01      2.522278000000000E-01      1.192578000000000E+02      2.407532000000000E-01      3.571875000000000E+01
4845000000.000000      3.620453000000000E-01      1.076758000000000E+02      2.534790000000000E-01     -1.137646000000000E+01      2.575684000000000E-01      1.193984000000000E+02      2.403793000000000E-01      3.452539000000000E+01
4846000000.000000      3.567963000000000E-01      1.080312000000000E+02      2.586212000000000E-01     -1.116797000000000E+01      2.627258000000000E-01      1.196758000000000E+02      2.350540000000000E-01      3.349609000000000E+01
4847000000.000000      3.512421000000000E-01      1.084766000000000E+02      2.632141000000000E-01     -1.097168000000000E+01      2.674255000000000E-01      1.199453000000000E+02      2.323685000000000E-01      3.210938000000000E+01
4848000000.000000      3.444519000000000E-01      1.089805000000000E+02      2.677460000000000E-01     -1.072998000000000E+01      2.719879000000000E-01      1.201289000000000E+02      2.313461000000000E-01      3.074512000000000E+01
4849000000.000000      3.387451000000000E-01      1.092891000000000E+02      2.734528000000000E-01     -1.089990000000000E+01      2.769775000000000E-01      1.203437000000000E+02      2.293015000000000E-01      2.998632000000000E+01
4850000000.000000      3.315125000000000E-01      1.098516000000000E+02      2.781219000000000E-01     -1.091943000000000E+01      2.815399000000000E-01      1.204609000000000E+02      2.273636000000000E-01      2.870996000000000E+01
4851000000.000000      3.260956000000000E-01      1.104922000000000E+02      2.838135000000000E-01     -1.080371000000000E+01      2.864685000000000E-01      1.206992000000000E+02      2.246552000000000E-01      2.752344000000000E+01
4852000000.000000      3.191071000000000E-01      1.108555000000000E+02      2.889252000000000E-01     -1.092627000000000E+01      2.913666000000000E-01      1.208672000000000E+02      2.207260000000000E-01      2.626660000000000E+01
4853000000.000000      3.127441000000000E-01      1.114023000000000E+02      2.926025000000000E-01     -1.090576000000000E+01      2.963409000000000E-01      1.209062000000000E+02      2.200699000000000E-01      2.518555000000000E+01
4854000000.000000      3.056183000000000E-01      1.117422000000000E+02      2.979279000000000E-01     -1.107178000000000E+01      3.010864000000000E-01      1.210195000000000E+02      2.173920000000000E-01      2.396777000000000E+01
4855000000.000000      2.991180000000000E-01      1.123594000000000E+02      3.030853000000000E-01     -1.112256000000000E+01      3.066864000000000E-01      1.210547000000000E+02      2.131042000000000E-01      2.296777000000000E+01
4856000000.000000      2.920227000000000E-01      1.128281000000000E+02      3.085175000000000E-01     -1.123389000000000E+01      3.118134000000000E-01      1.210742000000000E+02      2.110672000000000E-01      2.164844000000000E+01
4857000000.000000      2.853851000000000E-01      1.133476000000000E+02      3.135681000000000E-01     -1.114990000000000E+01      3.165588000000000E-01      1.211992000000000E+02      2.087097000000000E-01      2.043555000000000E+01
4858000000.000000      2.776947000000000E-01      1.136445000000000E+02      3.183136000000000E-01     -1.156201000000000E+01      3.212585000000000E-01      1.211836000000000E+02      2.059097000000000E-01      1.921289000000000E+01
4859000000.000000      2.710876000000000E-01      1.143008000000000E+02      3.235931000000000E-01     -1.158789000000000E+01      3.258820000000000E-01      1.212852000000000E+02      2.042770000000000E-01      1.808984000000000E+01
4860000000.000000      2.642670000000000E-01      1.148750000000000E+02      3.284149000000000E-01     -1.177881000000000E+01      3.307343000000000E-01      1.212266000000000E+02      2.004013000000000E-01      1.717285000000000E+01
4861000000.000000      2.560272000000000E-01      1.153828000000000E+02      3.331451000000000E-01     -1.205762000000000E+01      3.360138000000000E-01      1.211875000000000E+02      1.972733000000000E-01      1.577637000000000E+01
4862000000.000000      2.488708000000000E-01      1.159101000000000E+02      3.385773000000000E-01     -1.223633000000000E+01      3.418274000000000E-01      1.211055000000000E+02      1.958008000000000E-01      1.457715000000000E+01
4863000000.000000      2.416992000000000E-01      1.162891000000000E+02      3.420868000000000E-01     -1.256836000000000E+01      3.468170000000000E-01      1.210820000000000E+02      1.934814000000000E-01      1.357324000000000E+01
4864000000.000000      2.340775000000000E-01      1.169531000000000E+02      3.480072000000000E-01     -1.253418000000000E+01      3.514404000000000E-01      1.211055000000000E+02      1.900482000000000E-01      1.227832000000000E+01
4865000000.000000      2.266235000000000E-01      1.174023000000000E+02      3.525696000000000E-01     -1.292578000000000E+01      3.566284000000000E-01      1.210312000000000E+02      1.883698000000000E-01      1.122070000000000E+01
4866000000.000000      2.190094000000000E-01      1.178906000000000E+02      3.567657000000000E-01     -1.323730000000000E+01      3.619537000000000E-01      1.207851000000000E+02      1.861038000000000E-01      1.029688000000000E+01
4867000000.000000      2.115250000000000E-01      1.185430000000000E+02      3.621979000000000E-01     -1.372510000000000E+01      3.662109000000000E-01      1.208047000000000E+02      1.830750000000000E-01      8.980957000000000E+00
4868000000.000000      2.038956000000000E-01      1.190586000000000E+02      3.670044000000000E-01     -1.403809000000000E+01      3.726349000000000E-01      1.205156000000000E+02      1.800842000000000E-01      7.845459000000000E+00
4869000000.000000      1.961288000000000E-01      1.197539000000000E+02      3.714142000000000E-01     -1.424121000000000E+01      3.770142000000000E-01      1.205508000000000E+02      1.772461000000000E-01      6.610840000000000E+00
4870000000.000000      1.889191000000000E-01      1.203984000000000E+02      3.762665000000000E-01     -1.437158000000000E+01      3.821411000000000E-01      1.203828000000000E+02      1.753998000000000E-01      5.829590000000000E+00
4871000000.000000      1.810913000000000E-01      1.208984000000000E+02      3.809052000000000E-01     -1.496240000000000E+01      3.863525000000000E-01      1.201836000000000E+02      1.723480000000000E-01      4.498779000000000E+00
4872000000.000000      1.738205000000000E-01      1.215859000000000E+02      3.853302000000000E-01     -1.510107000000000E+01      3.916473000000000E-01      1.198828000000000E+02      1.703568000000000E-01      3.602051000000000E+00
4873000000.000000      1.662598000000000E-01      1.225273000000000E+02      3.890686000000000E-01     -1.551709000000000E+01      3.959045000000000E-01      1.198164000000000E+02      1.673813000000000E-01      2.311157000000000E+00
4874000000.000000      1.587296000000000E-01      1.230859000000000E+02      3.943481000000000E-01     -1.590967000000000E+01      4.025574000000000E-01      1.196094000000000E+02      1.656723000000000E-01      1.371887000000000E+00
4875000000.000000      1.511917000000000E-01      1.240664000000000E+02      3.987579000000000E-01     -1.617969000000000E+01      4.072876000000000E-01      1.195195000000000E+02      1.618652000000000E-01      3.749084000000000E-01
4876000000.000000      1.442795000000000E-01      1.245625000000000E+02      4.041595000000000E-01     -1.657519000000000E+01      4.117432000000000E-01      1.192266000000000E+02      1.594543000000000E-01     -1.124756000000000E+00
4877000000.000000      1.357040000000000E-01      1.255351000000000E+02      4.073639000000000E-01     -1.697266000000000E+01      4.163055000000000E-01      1.189687000000000E+02      1.570587000000000E-01     -1.908875000000000E+00
4878000000.000000      1.289673000000000E-01      1.267226000000000E+02      4.124756000000000E-01     -1.743164000000000E+01      4.211884000000000E-01      1.188203000000000E+02      1.547012000000000E-01     -2.901855000000000E+00
4879000000.000000      1.217842000000000E-01      1.276445000000000E+02      4.163971000000000E-01     -1.770508000000000E+01      4.256592000000000E-01      1.185469000000000E+02      1.515884000000000E-01     -4.003174000000000E+00
4880000000.000000      1.144867000000000E-01      1.287500000000000E+02      4.207611000000000E-01     -1.822851000000000E+01      4.316254000000000E-01      1.184414000000000E+02      1.485748000000000E-01     -4.949463000000000E+00
4881000000.000000      1.073914000000000E-01      1.303437000000000E+02      4.263611000000000E-01     -1.853320000000000E+01      4.366760000000000E-01      1.180508000000000E+02      1.458282000000000E-01     -5.634766000000000E+00
4882000000.000000      1.005669000000000E-01      1.312031000000000E+02      4.306488000000000E-01     -1.901465000000000E+01      4.416351000000000E-01      1.179219000000000E+02      1.432648000000000E-01     -6.442139000000000E+00
