! Network Analyzer HP8722D
! Hewlett-Packard
! Data name: Linha & Wilkinson
! Saver's name: Rodrigo Anjos
! Comments: Teste da utilização de aquisição
continua pelo VNA HP8722D
! Time and date: 25/4/2025 15:32
!              Frequency                     S11                                                   S21                                                   S12                                                   S22
# HZ  S  MA R 50
4800000000.000000      4.336700000000000E-01      9.049608000000000E+01      1.855850000000000E-01     -6.379101000000000E+01      1.907501000000000E-01      6.984765000000000E+01      2.492523000000000E-01      7.719921000000000E+01
4801000000.000000      4.366608000000000E-01      9.076952000000000E+01      1.818924000000000E-01     -6.264062000000000E+01      1.870728000000000E-01      7.064453000000000E+01      2.540741000000000E-01      7.650000000000000E+01
4802000000.000000      4.398041000000000E-01      9.095703000000000E+01      1.783981000000000E-01     -6.131640000000000E+01      1.840668000000000E-01      7.161718000000000E+01      2.572327000000000E-01      7.565234000000000E+01
4803000000.000000      4.424286000000000E-01      9.120703000000000E+01      1.760712000000000E-01     -6.008789000000000E+01      1.804276000000000E-01      7.286718000000000E+01      2.560730000000000E-01      7.501953000000000E+01
4804000000.000000      4.446869000000000E-01      9.150391000000000E+01      1.726379000000000E-01     -5.878711000000000E+01      1.775970000000000E-01      7.387890000000000E+01      2.578888000000000E-01      7.440234000000000E+01
4805000000.000000      4.483185000000000E-01      9.169922000000000E+01      1.698990000000000E-01     -5.751562000000000E+01      1.749039000000000E-01      7.521874000000000E+01      2.605591000000000E-01      7.338672000000000E+01
4806000000.000000      4.488983000000000E-01      9.198437000000000E+01      1.670685000000000E-01     -5.601953000000000E+01      1.725082000000000E-01      7.661327000000000E+01      2.614746000000000E-01      7.335938000000000E+01
4807000000.000000      4.515991000000000E-01      9.229687000000000E+01      1.651077000000000E-01     -5.468750000000000E+01      1.697159000000000E-01      7.780468000000000E+01      2.626801000000000E-01      7.215625000000000E+01
4808000000.000000      4.527283000000000E-01      9.258204000000000E+01      1.639709000000000E-01     -5.300586000000000E+01      1.680832000000000E-01      7.932812000000000E+01      2.632446000000000E-01      7.195703000000000E+01
4809000000.000000      4.530182000000000E-01      9.298828000000000E+01      1.617584000000000E-01     -5.164063000000000E+01      1.666565000000000E-01      8.075390000000000E+01      2.668304000000000E-01      7.105078000000000E+01
4810000000.000000      4.555054000000000E-01      9.326952000000000E+01      1.604614000000000E-01     -4.961328000000000E+01      1.650620000000000E-01      8.227734000000000E+01      2.654724000000000E-01      7.043359000000000E+01
4811000000.000000      4.563904000000000E-01      9.358593000000000E+01      1.594162000000000E-01     -4.813867000000000E+01      1.644516000000000E-01      8.390234000000000E+01      2.675018000000000E-01      6.977344000000000E+01
4812000000.000000      4.570923000000000E-01      9.394531000000000E+01      1.582413000000000E-01     -4.631640000000000E+01      1.634674000000000E-01      8.550390000000000E+01      2.686310000000000E-01      6.828515000000000E+01
4813000000.000000      4.573059000000000E-01      9.428125000000000E+01      1.577148000000000E-01     -4.467382000000000E+01      1.630859000000000E-01      8.720312000000000E+01      2.704620000000000E-01      6.819530000000000E+01
4814000000.000000      4.572906000000000E-01      9.460155000000000E+01      1.576614000000000E-01     -4.266406000000000E+01      1.623993000000000E-01      8.882421000000000E+01      2.667084000000000E-01      6.692187000000000E+01
4815000000.000000      4.569702000000000E-01      9.499218000000000E+01      1.572342000000000E-01     -4.108007000000000E+01      1.624680000000000E-01      9.043749000000000E+01      2.711334000000000E-01      6.587109000000000E+01
4816000000.000000      4.574585000000000E-01      9.533983000000000E+01      1.581116000000000E-01     -3.922656000000000E+01      1.633835000000000E-01      9.217577000000000E+01      2.700348000000000E-01      6.526172000000000E+01
4817000000.000000      4.568939000000000E-01      9.568359000000000E+01      1.581879000000000E-01     -3.740234000000000E+01      1.637268000000000E-01      9.374609000000000E+01      2.715607000000000E-01      6.451172000000000E+01
4818000000.000000      4.555817000000000E-01      9.597656000000000E+01      1.593323000000000E-01     -3.575195000000000E+01      1.645813000000000E-01      9.530077000000000E+01      2.714539000000000E-01      6.369922000000000E+01
4819000000.000000      4.553375000000000E-01      9.630859000000000E+01      1.603775000000000E-01     -3.401562000000000E+01      1.660995000000000E-01      9.701952000000000E+01      2.700958000000000E-01      6.272851000000000E+01
4820000000.000000      4.522095000000000E-01      9.669531000000000E+01      1.619568000000000E-01     -3.224804000000000E+01      1.673431000000000E-01      9.852343000000000E+01      2.724304000000000E-01      6.191015000000000E+01
4821000000.000000      4.524841000000000E-01      9.708984000000000E+01      1.639252000000000E-01     -3.086230000000000E+01      1.686859000000000E-01      9.997656000000000E+01      2.721863000000000E-01      6.099023000000000E+01
4822000000.000000      4.503021000000000E-01      9.731249000000000E+01      1.658630000000000E-01     -2.929004000000000E+01      1.707916000000000E-01      1.013906000000000E+02      2.717133000000000E-01      5.942968000000000E+01
4823000000.000000      4.485931000000000E-01      9.775000000000000E+01      1.681213000000000E-01     -2.786035000000000E+01      1.728592000000000E-01      1.029102000000000E+02      2.713623000000000E-01      5.882617000000000E+01
4824000000.000000      4.469452000000000E-01      9.822266000000000E+01      1.702881000000000E-01     -2.649219000000000E+01      1.754303000000000E-01      1.040234000000000E+02      2.708130000000000E-01      5.748632000000000E+01
4825000000.000000      4.437714000000000E-01      9.850389000000000E+01      1.731873000000000E-01     -2.507715000000000E+01      1.782303000000000E-01      1.054570000000000E+02      2.707672000000000E-01      5.662304000000000E+01
4826000000.000000      4.420013000000000E-01      9.890234000000000E+01      1.759415000000000E-01     -2.386035000000000E+01      1.809464000000000E-01      1.065820000000000E+02      2.697144000000000E-01      5.543945000000000E+01
4827000000.000000      4.385986000000000E-01      9.929296000000000E+01      1.793289000000000E-01     -2.247851000000000E+01      1.838913000000000E-01      1.077617000000000E+02      2.679291000000000E-01      5.430078000000000E+01
4828000000.000000      4.371948000000000E-01      9.970703000000000E+01      1.824265000000000E-01     -2.145312000000000E+01      1.873856000000000E-01      1.088398000000000E+02      2.674255000000000E-01      5.334961000000000E+01
4829000000.000000      4.321899000000000E-01      1.001992000000000E+02      1.855774000000000E-01     -2.029395000000000E+01      1.911240000000000E-01      1.099844000000000E+02      2.672729000000000E-01      5.200195000000000E+01
4830000000.000000      4.293213000000000E-01      1.005859000000000E+02      1.895447000000000E-01     -1.943555000000000E+01      1.941910000000000E-01      1.108711000000000E+02      2.644043000000000E-01      5.117969000000000E+01
4831000000.000000      4.252472000000000E-01      1.009531000000000E+02      1.927109000000000E-01     -1.849023000000000E+01      1.982498000000000E-01      1.118828000000000E+02      2.633362000000000E-01      4.988086000000000E+01
4832000000.000000      4.219818000000000E-01      1.013789000000000E+02      1.967621000000000E-01     -1.764355000000000E+01      2.016449000000000E-01      1.126914000000000E+02      2.628632000000000E-01      4.940820000000000E+01
4833000000.000000      4.178925000000000E-01      1.017266000000000E+02      2.009811000000000E-01     -1.667383000000000E+01      2.057419000000000E-01      1.134844000000000E+02      2.612457000000000E-01      4.798047000000000E+01
4834000000.000000      4.144745000000000E-01      1.023008000000000E+02      2.053223000000000E-01     -1.605469000000000E+01      2.097321000000000E-01      1.142070000000000E+02      2.591553000000000E-01      4.687109000000000E+01
4835000000.000000      4.096680000000000E-01      1.026328000000000E+02      2.095718000000000E-01     -1.554590000000000E+01      2.140045000000000E-01      1.149023000000000E+02      2.574463000000000E-01      4.578711000000000E+01
4836000000.000000      4.061737000000000E-01      1.030859000000000E+02      2.135010000000000E-01     -1.479199000000000E+01      2.179718000000000E-01      1.155820000000000E+02      2.562714000000000E-01      4.489258000000000E+01
4837000000.000000      4.014587000000000E-01      1.034805000000000E+02      2.174835000000000E-01     -1.441553000000000E+01      2.224350000000000E-01      1.161172000000000E+02      2.543945000000000E-01      4.351563000000000E+01
4838000000.000000      3.954926000000000E-01      1.039414000000000E+02      2.226563000000000E-01     -1.355469000000000E+01      2.266998000000000E-01      1.167539000000000E+02      2.514496000000000E-01      4.244141000000000E+01
4839000000.000000      3.924255000000000E-01      1.043945000000000E+02      2.263718000000000E-01     -1.321680000000000E+01      2.314758000000000E-01      1.172187000000000E+02      2.498474000000000E-01      4.097852000000000E+01
4840000000.000000      3.862000000000000E-01      1.047812000000000E+02      2.321472000000000E-01     -1.272510000000000E+01      2.357407000000000E-01      1.176875000000000E+02      2.481842000000000E-01      3.961328000000000E+01
4841000000.000000      3.816833000000000E-01      1.053359000000000E+02      2.364044000000000E-01     -1.252881000000000E+01      2.405167000000000E-01      1.179805000000000E+02      2.468109000000000E-01      3.864648000000000E+01
4842000000.000000      3.753052000000000E-01      1.056914000000000E+02      2.412186000000000E-01     -1.215674000000000E+01      2.443924000000000E-01      1.184883000000000E+02      2.446442000000000E-01      3.768555000000000E+01
4843000000.000000      3.705139000000000E-01      1.060547000000000E+02      2.462006000000000E-01     -1.193555000000000E+01      2.498932000000000E-01      1.187617000000000E+02      2.421112000000000E-01      3.668164000000000E+01
4844000000.000000      3.648376000000000E-01      1.065547000000000E+02      2.512054000000000E-01     -1.167871000000000E+01      2.536469000000000E-01      1.191484000000000E+02      2.394714000000000E-01      3.570508000000000E+01
4845000000.000000      3.584442000000000E-01      1.071016000000000E+02      2.555695000000000E-01     -1.134619000000000E+01      2.591400000000000E-01      1.193164000000000E+02      2.379684000000000E-01      3.441406000000000E+01
4846000000.000000      3.530426000000000E-01      1.075391000000000E+02      2.608643000000000E-01     -1.125830000000000E+01      2.644806000000000E-01      1.196367000000000E+02      2.357864000000000E-01      3.312500000000000E+01
4847000000.000000      3.470764000000000E-01      1.080664000000000E+02      2.659302000000000E-01     -1.114600000000000E+01      2.693329000000000E-01      1.198867000000000E+02      2.331085000000000E-01      3.219531000000000E+01
4848000000.000000      3.408051000000000E-01      1.084687000000000E+02      2.705231000000000E-01     -1.106201000000000E+01      2.739105000000000E-01      1.200156000000000E+02      2.303391000000000E-01      3.052246000000000E+01
4849000000.000000      3.345642000000000E-01      1.088086000000000E+02      2.752991000000000E-01     -1.115967000000000E+01      2.784119000000000E-01      1.202851000000000E+02      2.268829000000000E-01      2.965332000000000E+01
4850000000.000000      3.280487000000000E-01      1.093711000000000E+02      2.803650000000000E-01     -1.104980000000000E+01      2.837067000000000E-01      1.205000000000000E+02      2.257690000000000E-01      2.836035000000000E+01
4851000000.000000      3.218994000000000E-01      1.099453000000000E+02      2.861176000000000E-01     -1.102344000000000E+01      2.884064000000000E-01      1.207617000000000E+02      2.235947000000000E-01      2.716699000000000E+01
4852000000.000000      3.151093000000000E-01      1.103789000000000E+02      2.906036000000000E-01     -1.095654000000000E+01      2.933502000000000E-01      1.207813000000000E+02      2.212601000000000E-01      2.594824000000000E+01
4853000000.000000      3.085785000000000E-01      1.110078000000000E+02      2.954102000000000E-01     -1.105127000000000E+01      2.985840000000000E-01      1.208164000000000E+02      2.182846000000000E-01      2.457715000000000E+01
4854000000.000000      3.013611000000000E-01      1.112383000000000E+02      3.002319000000000E-01     -1.126416000000000E+01      3.038635000000000E-01      1.208242000000000E+02      2.170715000000000E-01      2.372461000000000E+01
4855000000.000000      2.954559000000000E-01      1.118672000000000E+02      3.059845000000000E-01     -1.133252000000000E+01      3.086548000000000E-01      1.210078000000000E+02      2.121811000000000E-01      2.271484000000000E+01
4856000000.000000      2.881012000000000E-01      1.122852000000000E+02      3.108521000000000E-01     -1.139160000000000E+01      3.133698000000000E-01      1.210938000000000E+02      2.111969000000000E-01      2.127344000000000E+01
4857000000.000000      2.811737000000000E-01      1.127383000000000E+02      3.153839000000000E-01     -1.150439000000000E+01      3.186340000000000E-01      1.210664000000000E+02      2.076950000000000E-01      2.017969000000000E+01
4858000000.000000      2.738190000000000E-01      1.132070000000000E+02      3.206635000000000E-01     -1.167041000000000E+01      3.233795000000000E-01      1.209727000000000E+02      2.051773000000000E-01      1.904394000000000E+01
4859000000.000000      2.667389000000000E-01      1.137578000000000E+02      3.259430000000000E-01     -1.179834000000000E+01      3.284912000000000E-01      1.211016000000000E+02      2.023849000000000E-01      1.768652000000000E+01
4860000000.000000      2.600708000000000E-01      1.143203000000000E+02      3.309937000000000E-01     -1.191064000000000E+01      3.327332000000000E-01      1.209961000000000E+02      2.006454000000000E-01      1.675879000000000E+01
4861000000.000000      2.521667000000000E-01      1.148164000000000E+02      3.356781000000000E-01     -1.238330000000000E+01      3.382721000000000E-01      1.210156000000000E+02      1.968460000000000E-01      1.536279000000000E+01
4862000000.000000      2.443237000000000E-01      1.153789000000000E+02      3.411713000000000E-01     -1.252441000000000E+01      3.442993000000000E-01      1.210234000000000E+02      1.951294000000000E-01      1.417920000000000E+01
4863000000.000000      2.372131000000000E-01      1.158086000000000E+02      3.449097000000000E-01     -1.280469000000000E+01      3.482666000000000E-01      1.211289000000000E+02      1.925125000000000E-01      1.316016000000000E+01
4864000000.000000      2.299728000000000E-01      1.164258000000000E+02      3.507690000000000E-01     -1.295313000000000E+01      3.530579000000000E-01      1.209727000000000E+02      1.895828000000000E-01      1.190332000000000E+01
4865000000.000000      2.221298000000000E-01      1.169102000000000E+02      3.546906000000000E-01     -1.319775000000000E+01      3.590393000000000E-01      1.207656000000000E+02      1.875916000000000E-01      1.091064000000000E+01
4866000000.000000      2.144470000000000E-01      1.174570000000000E+02      3.597107000000000E-01     -1.359570000000000E+01      3.638306000000000E-01      1.205820000000000E+02      1.853180000000000E-01      9.520996000000000E+00
4867000000.000000      2.070923000000000E-01      1.180898000000000E+02      3.649445000000000E-01     -1.380176000000000E+01      3.683624000000000E-01      1.206406000000000E+02      1.824570000000000E-01      8.529297000000000E+00
4868000000.000000      1.997833000000000E-01      1.187226000000000E+02      3.700714000000000E-01     -1.428369000000000E+01      3.737640000000000E-01      1.204023000000000E+02      1.797409000000000E-01      7.470703000000000E+00
4869000000.000000      1.914978000000000E-01      1.192148000000000E+02      3.744049000000000E-01     -1.466162000000000E+01      3.791046000000000E-01      1.203164000000000E+02      1.768265000000000E-01      6.201660000000000E+00
4870000000.000000      1.843567000000000E-01      1.199219000000000E+02      3.794403000000000E-01     -1.471777000000000E+01      3.843079000000000E-01      1.201758000000000E+02      1.746902000000000E-01      5.277344000000000E+00
4871000000.000000      1.766968000000000E-01      1.205391000000000E+02      3.844452000000000E-01     -1.507617000000000E+01      3.886108000000000E-01      1.199805000000000E+02      1.722488000000000E-01      4.033203000000000E+00
4872000000.000000      1.690826000000000E-01      1.211992000000000E+02      3.880157000000000E-01     -1.531250000000000E+01      3.940582000000000E-01      1.197148000000000E+02      1.692963000000000E-01      3.224487000000000E+00
4873000000.000000      1.615906000000000E-01      1.219883000000000E+02      3.927460000000000E-01     -1.586426000000000E+01      3.988953000000000E-01      1.197539000000000E+02      1.662140000000000E-01      1.842957000000000E+00
4874000000.000000      1.535416000000000E-01      1.226953000000000E+02      3.962555000000000E-01     -1.619043000000000E+01      4.042511000000000E-01      1.194062000000000E+02      1.642761000000000E-01      8.198547000000000E-01
4875000000.000000      1.466904000000000E-01      1.237383000000000E+02      4.013062000000000E-01     -1.652637000000000E+01      4.089813000000000E-01      1.193437000000000E+02      1.614075000000000E-01     -1.647949000000000E-01
4876000000.000000      1.393661000000000E-01      1.242734000000000E+02      4.067993000000000E-01     -1.684961000000000E+01      4.144440000000000E-01      1.190664000000000E+02      1.585770000000000E-01     -1.441956000000000E+00
4877000000.000000      1.313171000000000E-01      1.252031000000000E+02      4.106903000000000E-01     -1.732715000000000E+01      4.192657000000000E-01      1.188359000000000E+02      1.557465000000000E-01     -2.234375000000000E+00
4878000000.000000      1.242218000000000E-01      1.263164000000000E+02      4.158478000000000E-01     -1.774609000000000E+01      4.236603000000000E-01      1.186367000000000E+02      1.531830000000000E-01     -3.431885000000000E+00
4879000000.000000      1.172562000000000E-01      1.275625000000000E+02      4.190674000000000E-01     -1.801562000000000E+01      4.293518000000000E-01      1.184609000000000E+02      1.516418000000000E-01     -4.342529000000000E+00
4880000000.000000      1.095543000000000E-01      1.284062000000000E+02      4.244690000000000E-01     -1.839551000000000E+01      4.336548000000000E-01      1.182344000000000E+02      1.487122000000000E-01     -5.446533000000000E+00
4881000000.000000      1.029739000000000E-01      1.301875000000000E+02      4.290314000000000E-01     -1.868555000000000E+01      4.392548000000000E-01      1.179453000000000E+02      1.456375000000000E-01     -6.082520000000000E+00
4882000000.000000      9.583282000000000E-02      1.312656000000000E+02      4.333801000000000E-01     -1.933105000000000E+01      4.433746000000000E-01      1.176328000000000E+02      1.428909000000000E-01     -7.095947000000000E+00
