! Network Analyzer HP8722D
! Hewlett-Packard
! Data name: Linha & Wilkinson
! Saver's name: Rodrigo Anjos
! Comments: Teste da utilização de aquisição
continua pelo VNA HP8722D
! Time and date: 25/4/2025 16:21
!              Frequency                     S11                                                   S21                                                   S12                                                   S22
# HZ  S  MA R 50
4800000000.000000      4.346313000000000E-01      9.080858000000000E+01      1.858215000000000E-01     -6.391992000000000E+01      1.913147000000000E-01      6.966406000000000E+01      2.504883000000000E-01      7.759375000000000E+01
4801000000.000000      4.371643000000000E-01      9.105860000000000E+01      1.820526000000000E-01     -6.268945000000000E+01      1.874390000000000E-01      7.042969000000000E+01      2.522125000000000E-01      7.650000000000000E+01
4802000000.000000      4.406586000000000E-01      9.129686000000000E+01      1.783829000000000E-01     -6.144726000000000E+01      1.843033000000000E-01      7.134766000000000E+01      2.565765000000000E-01      7.588672000000000E+01
4803000000.000000      4.432983000000000E-01      9.153515000000000E+01      1.757507000000000E-01     -6.009960000000000E+01      1.806030000000000E-01      7.266015000000000E+01      2.559357000000000E-01      7.536718000000000E+01
4804000000.000000      4.459076000000000E-01      9.189062000000000E+01      1.728287000000000E-01     -5.905273000000000E+01      1.779861000000000E-01      7.373828000000000E+01      2.595062000000000E-01      7.495703000000000E+01
4805000000.000000      4.489441000000000E-01      9.208202000000000E+01      1.698303000000000E-01     -5.758007000000000E+01      1.749878000000000E-01      7.499609000000000E+01      2.599335000000000E-01      7.407421000000000E+01
4806000000.000000      4.507904000000000E-01      9.236328000000000E+01      1.675415000000000E-01     -5.615624000000000E+01      1.724625000000000E-01      7.640234000000000E+01      2.604065000000000E-01      7.351953000000000E+01
4807000000.000000      4.530182000000000E-01      9.260546000000000E+01      1.654510000000000E-01     -5.456055000000000E+01      1.701508000000000E-01      7.754687000000000E+01      2.623596000000000E-01      7.232812000000000E+01
4808000000.000000      4.535980000000000E-01      9.294140000000000E+01      1.631775000000000E-01     -5.306835000000000E+01      1.679230000000000E-01      7.916016000000000E+01      2.629700000000000E-01      7.174218000000000E+01
4809000000.000000      4.550323000000000E-01      9.332422000000000E+01      1.615295000000000E-01     -5.155859000000000E+01      1.665039000000000E-01      8.056641000000000E+01      2.663574000000000E-01      7.150000000000000E+01
4810000000.000000      4.561920000000000E-01      9.350389000000000E+01      1.601334000000000E-01     -4.994335000000000E+01      1.648636000000000E-01      8.212500000000000E+01      2.669678000000000E-01      6.987109000000000E+01
4811000000.000000      4.577026000000000E-01      9.397264000000000E+01      1.589508000000000E-01     -4.810937000000000E+01      1.643295000000000E-01      8.376171000000000E+01      2.670746000000000E-01      6.967187000000000E+01
4812000000.000000      4.582520000000000E-01      9.432421000000000E+01      1.581421000000000E-01     -4.640821000000000E+01      1.632462000000000E-01      8.517969000000000E+01      2.687073000000000E-01      6.863281000000000E+01
4813000000.000000      4.588776000000000E-01      9.458202000000000E+01      1.571198000000000E-01     -4.471680000000000E+01      1.628113000000000E-01      8.699219000000000E+01      2.701263000000000E-01      6.807812000000000E+01
4814000000.000000      4.579620000000000E-01      9.488672000000000E+01      1.574860000000000E-01     -4.276172000000000E+01      1.621628000000000E-01      8.866405000000000E+01      2.708740000000000E-01      6.732031000000000E+01
4815000000.000000      4.580536000000000E-01      9.527735000000000E+01      1.569901000000000E-01     -4.132617000000000E+01      1.621170000000000E-01      9.023046000000000E+01      2.714539000000000E-01      6.623828000000000E+01
4816000000.000000      4.592285000000000E-01      9.555079000000000E+01      1.573486000000000E-01     -3.916601000000000E+01      1.632614000000000E-01      9.193359000000000E+01      2.724457000000000E-01      6.543359000000000E+01
4817000000.000000      4.583435000000000E-01      9.603125000000000E+01      1.579056000000000E-01     -3.787500000000000E+01      1.632080000000000E-01      9.358984000000000E+01      2.723389000000000E-01      6.484765000000000E+01
4818000000.000000      4.577026000000000E-01      9.628124000000000E+01      1.589279000000000E-01     -3.590429000000000E+01      1.640854000000000E-01      9.523438000000000E+01      2.729034000000000E-01      6.363476000000000E+01
4819000000.000000      4.571686000000000E-01      9.673437000000000E+01      1.600113000000000E-01     -3.429296000000000E+01      1.654053000000000E-01      9.671484000000000E+01      2.700043000000000E-01      6.295898000000000E+01
4820000000.000000      4.533691000000000E-01      9.708202000000000E+01      1.616669000000000E-01     -3.248242000000000E+01      1.669769000000000E-01      9.827343000000000E+01      2.729492000000000E-01      6.200390000000000E+01
4821000000.000000      4.534149000000000E-01      9.734375000000000E+01      1.628799000000000E-01     -3.106738000000000E+01      1.681519000000000E-01      9.975389000000000E+01      2.716675000000000E-01      6.129687000000000E+01
4822000000.000000      4.524231000000000E-01      9.771484000000000E+01      1.649857000000000E-01     -2.949707000000000E+01      1.700668000000000E-01      1.010703000000000E+02      2.725830000000000E-01      5.989648000000000E+01
4823000000.000000      4.502563000000000E-01      9.803514000000000E+01      1.668854000000000E-01     -2.785351000000000E+01      1.721649000000000E-01      1.027070000000000E+02      2.704926000000000E-01      5.880859000000000E+01
4824000000.000000      4.480591000000000E-01      9.850780000000000E+01      1.691895000000000E-01     -2.666406000000000E+01      1.746521000000000E-01      1.039063000000000E+02      2.702179000000000E-01      5.778906000000000E+01
4825000000.000000      4.455109000000000E-01      9.885937000000000E+01      1.724472000000000E-01     -2.522265000000000E+01      1.776123000000000E-01      1.053359000000000E+02      2.701263000000000E-01      5.666601000000000E+01
4826000000.000000      4.431915000000000E-01      9.917969000000000E+01      1.751862000000000E-01     -2.387500000000000E+01      1.799240000000000E-01      1.064883000000000E+02      2.685699000000000E-01      5.559179000000000E+01
4827000000.000000      4.413147000000000E-01      9.960155000000000E+01      1.781006000000000E-01     -2.250293000000000E+01      1.833649000000000E-01      1.076992000000000E+02      2.681427000000000E-01      5.463476000000000E+01
4828000000.000000      4.381866000000000E-01      1.000781000000000E+02      1.814423000000000E-01     -2.145801000000000E+01      1.866989000000000E-01      1.087187000000000E+02      2.673492000000000E-01      5.328906000000000E+01
4829000000.000000      4.341736000000000E-01      1.004492000000000E+02      1.847305000000000E-01     -2.048438000000000E+01      1.902466000000000E-01      1.098203000000000E+02      2.674713000000000E-01      5.250977000000000E+01
4830000000.000000      4.308167000000000E-01      1.008906000000000E+02      1.884003000000000E-01     -1.943848000000000E+01      1.932983000000000E-01      1.108867000000000E+02      2.658997000000000E-01      5.159961000000000E+01
4831000000.000000      4.272919000000000E-01      1.012305000000000E+02      1.919708000000000E-01     -1.852637000000000E+01      1.972122000000000E-01      1.118008000000000E+02      2.623901000000000E-01      5.033203000000000E+01
4832000000.000000      4.234314000000000E-01      1.016406000000000E+02      1.960373000000000E-01     -1.759961000000000E+01      2.005997000000000E-01      1.126055000000000E+02      2.622223000000000E-01      4.945898000000000E+01
4833000000.000000      4.190674000000000E-01      1.020820000000000E+02      1.999054000000000E-01     -1.666406000000000E+01      2.046356000000000E-01      1.134219000000000E+02      2.599792000000000E-01      4.829687000000000E+01
4834000000.000000      4.156342000000000E-01      1.025117000000000E+02      2.038193000000000E-01     -1.591943000000000E+01      2.088165000000000E-01      1.141094000000000E+02      2.595825000000000E-01      4.727539000000000E+01
4835000000.000000      4.111023000000000E-01      1.028320000000000E+02      2.086182000000000E-01     -1.535352000000000E+01      2.132797000000000E-01      1.147773000000000E+02      2.587585000000000E-01      4.585742000000000E+01
4836000000.000000      4.076996000000000E-01      1.033633000000000E+02      2.123260000000000E-01     -1.476318000000000E+01      2.170944000000000E-01      1.155508000000000E+02      2.565765000000000E-01      4.500781000000000E+01
4837000000.000000      4.028320000000000E-01      1.038437000000000E+02      2.168121000000000E-01     -1.432617000000000E+01      2.214050000000000E-01      1.160312000000000E+02      2.559662000000000E-01      4.399023000000000E+01
4838000000.000000      3.975067000000000E-01      1.041914000000000E+02      2.210693000000000E-01     -1.346533000000000E+01      2.257309000000000E-01      1.166640000000000E+02      2.525940000000000E-01      4.257226000000000E+01
4839000000.000000      3.943787000000000E-01      1.046641000000000E+02      2.257309000000000E-01     -1.302734000000000E+01      2.303696000000000E-01      1.171367000000000E+02      2.503357000000000E-01      4.112305000000000E+01
4840000000.000000      3.872528000000000E-01      1.050781000000000E+02      2.302094000000000E-01     -1.264551000000000E+01      2.346191000000000E-01      1.176641000000000E+02      2.474365000000000E-01      4.033399000000000E+01
4841000000.000000      3.836823000000000E-01      1.055039000000000E+02      2.355347000000000E-01     -1.254102000000000E+01      2.393951000000000E-01      1.180898000000000E+02      2.478104000000000E-01      3.915820000000000E+01
4842000000.000000      3.771057000000000E-01      1.060586000000000E+02      2.400818000000000E-01     -1.206201000000000E+01      2.437057000000000E-01      1.185430000000000E+02      2.458878000000000E-01      3.785742000000000E+01
4843000000.000000      3.725281000000000E-01      1.064687000000000E+02      2.449112000000000E-01     -1.174609000000000E+01      2.483978000000000E-01      1.188945000000000E+02      2.415314000000000E-01      3.701562000000000E+01
4844000000.000000      3.667908000000000E-01      1.068711000000000E+02      2.502289000000000E-01     -1.158691000000000E+01      2.529907000000000E-01      1.191719000000000E+02      2.395172000000000E-01      3.567187000000000E+01
4845000000.000000      3.604736000000000E-01      1.073906000000000E+02      2.544250000000000E-01     -1.133789000000000E+01      2.581329000000000E-01      1.194062000000000E+02      2.377777000000000E-01      3.443750000000000E+01
4846000000.000000      3.551178000000000E-01      1.078984000000000E+02      2.589264000000000E-01     -1.126514000000000E+01      2.633209000000000E-01      1.197070000000000E+02      2.358093000000000E-01      3.333789000000000E+01
4847000000.000000      3.490906000000000E-01      1.084180000000000E+02      2.644501000000000E-01     -1.093848000000000E+01      2.675171000000000E-01      1.199101000000000E+02      2.324982000000000E-01      3.194043000000000E+01
4848000000.000000      3.429718000000000E-01      1.087187000000000E+02      2.689209000000000E-01     -1.100439000000000E+01      2.723236000000000E-01      1.201250000000000E+02      2.308655000000000E-01      3.098633000000000E+01
4849000000.000000      3.366089000000000E-01      1.091719000000000E+02      2.748413000000000E-01     -1.091260000000000E+01      2.772064000000000E-01      1.204062000000000E+02      2.271042000000000E-01      2.988379000000000E+01
4850000000.000000      3.299561000000000E-01      1.096680000000000E+02      2.787476000000000E-01     -1.086279000000000E+01      2.824402000000000E-01      1.205430000000000E+02      2.259750000000000E-01      2.870312000000000E+01
4851000000.000000      3.238525000000000E-01      1.102383000000000E+02      2.844849000000000E-01     -1.088477000000000E+01      2.870636000000000E-01      1.206758000000000E+02      2.238770000000000E-01      2.743652000000000E+01
4852000000.000000      3.174286000000000E-01      1.106953000000000E+02      2.892303000000000E-01     -1.093311000000000E+01      2.919464000000000E-01      1.208633000000000E+02      2.202148000000000E-01      2.629980000000000E+01
4853000000.000000      3.112488000000000E-01      1.110938000000000E+02      2.934723000000000E-01     -1.084229000000000E+01      2.975159000000000E-01      1.209453000000000E+02      2.180939000000000E-01      2.496484000000000E+01
4854000000.000000      3.036957000000000E-01      1.115664000000000E+02      2.981415000000000E-01     -1.112402000000000E+01      3.023224000000000E-01      1.209766000000000E+02      2.168884000000000E-01      2.389355000000000E+01
4855000000.000000      2.972412000000000E-01      1.121094000000000E+02      3.042603000000000E-01     -1.111963000000000E+01      3.069916000000000E-01      1.209805000000000E+02      2.125473000000000E-01      2.277148000000000E+01
4856000000.000000      2.903137000000000E-01      1.126094000000000E+02      3.092499000000000E-01     -1.130811000000000E+01      3.119354000000000E-01      1.211055000000000E+02      2.113953000000000E-01      2.158105000000000E+01
4857000000.000000      2.834930000000000E-01      1.130859000000000E+02      3.142548000000000E-01     -1.142578000000000E+01      3.171387000000000E-01      1.211484000000000E+02      2.077560000000000E-01      2.043457000000000E+01
4858000000.000000      2.755280000000000E-01      1.134805000000000E+02      3.193970000000000E-01     -1.142480000000000E+01      3.228760000000000E-01      1.212617000000000E+02      2.053070000000000E-01      1.913672000000000E+01
4859000000.000000      2.686615000000000E-01      1.140195000000000E+02      3.240356000000000E-01     -1.168701000000000E+01      3.271332000000000E-01      1.212305000000000E+02      2.031250000000000E-01      1.796777000000000E+01
4860000000.000000      2.623749000000000E-01      1.146680000000000E+02      3.288116000000000E-01     -1.177881000000000E+01      3.314362000000000E-01      1.211523000000000E+02      2.013931000000000E-01      1.706836000000000E+01
4861000000.000000      2.543488000000000E-01      1.151211000000000E+02      3.339691000000000E-01     -1.214307000000000E+01      3.372803000000000E-01      1.211875000000000E+02      1.977386000000000E-01      1.561426000000000E+01
4862000000.000000      2.463913000000000E-01      1.156680000000000E+02      3.393860000000000E-01     -1.229932000000000E+01      3.424988000000000E-01      1.211016000000000E+02      1.957474000000000E-01      1.440674000000000E+01
4863000000.000000      2.392578000000000E-01      1.161250000000000E+02      3.442993000000000E-01     -1.255762000000000E+01      3.475952000000000E-01      1.212187000000000E+02      1.932907000000000E-01      1.335938000000000E+01
4864000000.000000      2.321396000000000E-01      1.166875000000000E+02      3.497009000000000E-01     -1.269629000000000E+01      3.514099000000000E-01      1.209961000000000E+02      1.899414000000000E-01      1.226074000000000E+01
4865000000.000000      2.242050000000000E-01      1.171523000000000E+02      3.538666000000000E-01     -1.298486000000000E+01      3.570404000000000E-01      1.209648000000000E+02      1.880341000000000E-01      1.102588000000000E+01
4866000000.000000      2.169952000000000E-01      1.176601000000000E+02      3.578796000000000E-01     -1.334033000000000E+01      3.632355000000000E-01      1.207031000000000E+02      1.855392000000000E-01      9.984863000000000E+00
4867000000.000000      2.092743000000000E-01      1.183867000000000E+02      3.632965000000000E-01     -1.384033000000000E+01      3.672638000000000E-01      1.207383000000000E+02      1.832733000000000E-01      8.714844000000000E+00
4868000000.000000      2.016907000000000E-01      1.188594000000000E+02      3.683472000000000E-01     -1.401855000000000E+01      3.722382000000000E-01      1.205859000000000E+02      1.794510000000000E-01      7.774170000000000E+00
4869000000.000000      1.938553000000000E-01      1.195820000000000E+02      3.718719000000000E-01     -1.429346000000000E+01      3.774261000000000E-01      1.205391000000000E+02      1.771011000000000E-01      6.505127000000000E+00
4870000000.000000      1.863785000000000E-01      1.201641000000000E+02      3.771973000000000E-01     -1.444580000000000E+01      3.836212000000000E-01      1.203359000000000E+02      1.748734000000000E-01      5.620850000000000E+00
4871000000.000000      1.788940000000000E-01      1.207422000000000E+02      3.817902000000000E-01     -1.491260000000000E+01      3.879547000000000E-01      1.202266000000000E+02      1.715012000000000E-01      4.401367000000000E+00
4872000000.000000      1.713562000000000E-01      1.215117000000000E+02      3.861694000000000E-01     -1.500049000000000E+01      3.928070000000000E-01      1.198594000000000E+02      1.703491000000000E-01      3.396118000000000E+00
4873000000.000000      1.637650000000000E-01      1.222031000000000E+02      3.910980000000000E-01     -1.555811000000000E+01      3.976440000000000E-01      1.197969000000000E+02      1.665344000000000E-01      2.260376000000000E+00
4874000000.000000      1.563187000000000E-01      1.228867000000000E+02      3.950500000000000E-01     -1.608887000000000E+01      4.035339000000000E-01      1.195781000000000E+02      1.645889000000000E-01      1.076660000000000E+00
4875000000.000000      1.489029000000000E-01      1.237344000000000E+02      4.002533000000000E-01     -1.627832000000000E+01      4.067993000000000E-01      1.194258000000000E+02      1.619492000000000E-01      7.827759000000000E-02
4876000000.000000      1.415176000000000E-01      1.244961000000000E+02      4.046173000000000E-01     -1.671875000000000E+01      4.123993000000000E-01      1.193437000000000E+02      1.592636000000000E-01     -1.237366000000000E+00
4877000000.000000      1.334686000000000E-01      1.253203000000000E+02      4.095764000000000E-01     -1.708691000000000E+01      4.179077000000000E-01      1.190469000000000E+02      1.561966000000000E-01     -1.998169000000000E+00
4878000000.000000      1.263275000000000E-01      1.264922000000000E+02      4.142609000000000E-01     -1.753613000000000E+01      4.232483000000000E-01      1.189219000000000E+02      1.538696000000000E-01     -3.180542000000000E+00
4879000000.000000      1.196518000000000E-01      1.274844000000000E+02      4.170227000000000E-01     -1.785058000000000E+01      4.275665000000000E-01      1.184297000000000E+02      1.517792000000000E-01     -4.104980000000000E+00
4880000000.000000      1.118469000000000E-01      1.285312000000000E+02      4.225311000000000E-01     -1.833008000000000E+01      4.329376000000000E-01      1.184180000000000E+02      1.483307000000000E-01     -5.173340000000000E+00
4881000000.000000      1.051254000000000E-01      1.302031000000000E+02      4.266205000000000E-01     -1.851758000000000E+01      4.386139000000000E-01      1.179531000000000E+02      1.460037000000000E-01     -5.760986000000000E+00
4882000000.000000      9.818268000000000E-02      1.311875000000000E+02      4.316559000000000E-01     -1.906054000000000E+01      4.426880000000000E-01      1.178711000000000E+02      1.427841000000000E-01     -6.660645000000000E+00
