! Network Analyzer HP8722D
! Hewlett-Packard
! Data name: Linha & Wilkinson
! Saver's name: Rodrigo Anjos
! Comments: Teste da utilização de aquisição
continua pelo VNA HP8722D
! Time and date: 25/4/2025 16:11
!              Frequency                     S11                                                   S21                                                   S12                                                   S22
# HZ  S  MA R 50
4800000000.000000      4.347534000000000E-01      9.062109000000000E+01      1.847992000000000E-01     -6.333398000000000E+01      1.897888000000000E-01      7.003515000000000E+01      2.500763000000000E-01      7.637500000000000E+01
4801000000.000000      4.385376000000000E-01      9.077734000000000E+01      1.812592000000000E-01     -6.215820000000000E+01      1.861801000000000E-01      7.097265000000000E+01      2.538300000000000E-01      7.592968000000000E+01
4802000000.000000      4.410248000000000E-01      9.100780000000000E+01      1.767654000000000E-01     -6.104882000000000E+01      1.828613000000000E-01      7.202734000000000E+01      2.569427000000000E-01      7.470703000000000E+01
4803000000.000000      4.428864000000000E-01      9.128906000000000E+01      1.746979000000000E-01     -5.962891000000000E+01      1.797943000000000E-01      7.325390000000000E+01      2.558594000000000E-01      7.458593000000000E+01
4804000000.000000      4.456329000000000E-01      9.169922000000000E+01      1.718140000000000E-01     -5.836719000000000E+01      1.770554000000000E-01      7.424218000000000E+01      2.574158000000000E-01      7.437890000000000E+01
4805000000.000000      4.490356000000000E-01      9.181250000000000E+01      1.691589000000000E-01     -5.705468000000000E+01      1.743393000000000E-01      7.558984000000000E+01      2.586975000000000E-01      7.339453000000000E+01
4806000000.000000      4.502563000000000E-01      9.214844000000000E+01      1.664276000000000E-01     -5.549999000000000E+01      1.715317000000000E-01      7.697656000000000E+01      2.615509000000000E-01      7.329687000000000E+01
4807000000.000000      4.528351000000000E-01      9.243750000000000E+01      1.650009000000000E-01     -5.396679000000000E+01      1.694260000000000E-01      7.827343000000000E+01      2.628784000000000E-01      7.233203000000000E+01
4808000000.000000      4.532471000000000E-01      9.272264000000000E+01      1.628723000000000E-01     -5.244141000000000E+01      1.677933000000000E-01      7.977344000000000E+01      2.624207000000000E-01      7.123437000000000E+01
4809000000.000000      4.546509000000000E-01      9.317968000000000E+01      1.609802000000000E-01     -5.097070000000000E+01      1.664276000000000E-01      8.114843000000000E+01      2.664490000000000E-01      7.089062000000000E+01
4810000000.000000      4.565277000000000E-01      9.339844000000000E+01      1.599274000000000E-01     -4.918554000000000E+01      1.647415000000000E-01      8.283203000000000E+01      2.655792000000000E-01      6.994141000000000E+01
4811000000.000000      4.565277000000000E-01      9.380859000000000E+01      1.586533000000000E-01     -4.751953000000000E+01      1.642303000000000E-01      8.444530000000000E+01      2.675476000000000E-01      6.870703000000000E+01
4812000000.000000      4.584808000000000E-01      9.412500000000000E+01      1.580276000000000E-01     -4.576757000000000E+01      1.632614000000000E-01      8.598436000000000E+01      2.680359000000000E-01      6.810937000000000E+01
4813000000.000000      4.589539000000000E-01      9.447266000000000E+01      1.574173000000000E-01     -4.390234000000000E+01      1.626968000000000E-01      8.769140000000000E+01      2.714386000000000E-01      6.766406000000000E+01
4814000000.000000      4.575958000000000E-01      9.471094000000000E+01      1.575623000000000E-01     -4.215625000000000E+01      1.624985000000000E-01      8.930079000000000E+01      2.688141000000000E-01      6.650000000000000E+01
4815000000.000000      4.585266000000000E-01      9.510157000000000E+01      1.570587000000000E-01     -4.038476000000000E+01      1.622162000000000E-01      9.086718000000000E+01      2.711792000000000E-01      6.570313000000000E+01
4816000000.000000      4.589844000000000E-01      9.544531000000000E+01      1.581345000000000E-01     -3.857617000000000E+01      1.634903000000000E-01      9.261719000000000E+01      2.712708000000000E-01      6.462891000000000E+01
4817000000.000000      4.576111000000000E-01      9.585155000000000E+01      1.584396000000000E-01     -3.715820000000000E+01      1.640320000000000E-01      9.406250000000000E+01      2.718658000000000E-01      6.416797000000000E+01
4818000000.000000      4.567261000000000E-01      9.619141000000000E+01      1.594009000000000E-01     -3.526953000000000E+01      1.646271000000000E-01      9.576563000000000E+01      2.709198000000000E-01      6.305078000000000E+01
4819000000.000000      4.559174000000000E-01      9.655077000000000E+01      1.605682000000000E-01     -3.365429000000000E+01      1.661377000000000E-01      9.742577000000000E+01      2.709198000000000E-01      6.218945000000000E+01
4820000000.000000      4.534302000000000E-01      9.689842000000000E+01      1.623459000000000E-01     -3.192578000000000E+01      1.678467000000000E-01      9.892187000000000E+01      2.713623000000000E-01      6.160351000000000E+01
4821000000.000000      4.539337000000000E-01      9.723827000000000E+01      1.647339000000000E-01     -3.035742000000000E+01      1.693649000000000E-01      1.002344000000000E+02      2.713470000000000E-01      6.043359000000000E+01
4822000000.000000      4.512482000000000E-01      9.750780000000000E+01      1.656570000000000E-01     -2.891797000000000E+01      1.711807000000000E-01      1.017109000000000E+02      2.724762000000000E-01      5.935741000000000E+01
4823000000.000000      4.487610000000000E-01      9.786718000000000E+01      1.687241000000000E-01     -2.744824000000000E+01      1.733551000000000E-01      1.032265000000000E+02      2.716522000000000E-01      5.818359000000000E+01
4824000000.000000      4.477234000000000E-01      9.841406000000000E+01      1.707916000000000E-01     -2.621973000000000E+01      1.758270000000000E-01      1.044023000000000E+02      2.687683000000000E-01      5.753124000000000E+01
4825000000.000000      4.445190000000000E-01      9.870312000000000E+01      1.738205000000000E-01     -2.465137000000000E+01      1.790009000000000E-01      1.056562000000000E+02      2.690735000000000E-01      5.633203000000000E+01
4826000000.000000      4.424744000000000E-01      9.909374000000000E+01      1.766129000000000E-01     -2.355078000000000E+01      1.815643000000000E-01      1.069062000000000E+02      2.693787000000000E-01      5.549805000000000E+01
4827000000.000000      4.396667000000000E-01      9.951952000000000E+01      1.798553000000000E-01     -2.234668000000000E+01      1.846390000000000E-01      1.081914000000000E+02      2.684174000000000E-01      5.391992000000000E+01
4828000000.000000      4.376526000000000E-01      9.990234000000000E+01      1.831131000000000E-01     -2.102149000000000E+01      1.881866000000000E-01      1.091133000000000E+02      2.667694000000000E-01      5.307422000000000E+01
4829000000.000000      4.331665000000000E-01      1.004766000000000E+02      1.867218000000000E-01     -1.991308000000000E+01      1.920471000000000E-01      1.101797000000000E+02      2.675629000000000E-01      5.202538000000000E+01
4830000000.000000      4.301147000000000E-01      1.007539000000000E+02      1.901703000000000E-01     -1.903711000000000E+01      1.951599000000000E-01      1.111758000000000E+02      2.646942000000000E-01      5.115429000000000E+01
4831000000.000000      4.268188000000000E-01      1.011328000000000E+02      1.937561000000000E-01     -1.813477000000000E+01      1.990814000000000E-01      1.121172000000000E+02      2.631836000000000E-01      4.974218000000000E+01
4832000000.000000      4.230804000000000E-01      1.016055000000000E+02      1.978760000000000E-01     -1.745508000000000E+01      2.022552000000000E-01      1.129570000000000E+02      2.616119000000000E-01      4.921288000000000E+01
4833000000.000000      4.188080000000000E-01      1.018828000000000E+02      2.016678000000000E-01     -1.653906000000000E+01      2.064819000000000E-01      1.136289000000000E+02      2.605896000000000E-01      4.772070000000000E+01
4834000000.000000      4.145508000000000E-01      1.023945000000000E+02      2.060242000000000E-01     -1.579980000000000E+01      2.104111000000000E-01      1.143555000000000E+02      2.586823000000000E-01      4.691406000000000E+01
4835000000.000000      4.110260000000000E-01      1.028203000000000E+02      2.097397000000000E-01     -1.513672000000000E+01      2.151947000000000E-01      1.150234000000000E+02      2.572784000000000E-01      4.569726000000000E+01
4836000000.000000      4.064331000000000E-01      1.032969000000000E+02      2.139587000000000E-01     -1.470410000000000E+01      2.187958000000000E-01      1.158164000000000E+02      2.548523000000000E-01      4.425977000000000E+01
4837000000.000000      4.010010000000000E-01      1.038359000000000E+02      2.180023000000000E-01     -1.428369000000000E+01      2.232056000000000E-01      1.162578000000000E+02      2.543488000000000E-01      4.333984000000000E+01
4838000000.000000      3.967590000000000E-01      1.041836000000000E+02      2.233734000000000E-01     -1.345557000000000E+01      2.273941000000000E-01      1.168281000000000E+02      2.514191000000000E-01      4.182031000000000E+01
4839000000.000000      3.932953000000000E-01      1.045547000000000E+02      2.280045000000000E-01     -1.306592000000000E+01      2.324371000000000E-01      1.173086000000000E+02      2.503204000000000E-01      4.088672000000000E+01
4840000000.000000      3.868561000000000E-01      1.050039000000000E+02      2.324142000000000E-01     -1.265088000000000E+01      2.367096000000000E-01      1.177148000000000E+02      2.474136000000000E-01      3.954102000000000E+01
4841000000.000000      3.825989000000000E-01      1.054922000000000E+02      2.375793000000000E-01     -1.243115000000000E+01      2.414322000000000E-01      1.182227000000000E+02      2.460709000000000E-01      3.886133000000000E+01
4842000000.000000      3.761139000000000E-01      1.059570000000000E+02      2.420883000000000E-01     -1.194922000000000E+01      2.455215000000000E-01      1.186289000000000E+02      2.438278000000000E-01      3.741796000000000E+01
4843000000.000000      3.713226000000000E-01      1.062539000000000E+02      2.471924000000000E-01     -1.177490000000000E+01      2.506409000000000E-01      1.189844000000000E+02      2.415924000000000E-01      3.638086000000000E+01
4844000000.000000      3.649750000000000E-01      1.067891000000000E+02      2.522278000000000E-01     -1.156348000000000E+01      2.545776000000000E-01      1.191836000000000E+02      2.382660000000000E-01      3.507617000000000E+01
4845000000.000000      3.595886000000000E-01      1.073047000000000E+02      2.568207000000000E-01     -1.130908000000000E+01      2.598267000000000E-01      1.194219000000000E+02      2.372665000000000E-01      3.398828000000000E+01
4846000000.000000      3.539734000000000E-01      1.077578000000000E+02      2.614899000000000E-01     -1.124219000000000E+01      2.650909000000000E-01      1.197383000000000E+02      2.367630000000000E-01      3.290039000000000E+01
4847000000.000000      3.482819000000000E-01      1.082851000000000E+02      2.669067000000000E-01     -1.095654000000000E+01      2.696381000000000E-01      1.199492000000000E+02      2.328186000000000E-01      3.179785000000000E+01
4848000000.000000      3.408356000000000E-01      1.087226000000000E+02      2.708282000000000E-01     -1.096045000000000E+01      2.744293000000000E-01      1.201445000000000E+02      2.299881000000000E-01      3.062695000000000E+01
4849000000.000000      3.354340000000000E-01      1.090977000000000E+02      2.764282000000000E-01     -1.095508000000000E+01      2.792511000000000E-01      1.202187000000000E+02      2.269135000000000E-01      2.940136000000000E+01
4850000000.000000      3.289032000000000E-01      1.095976000000000E+02      2.810669000000000E-01     -1.093018000000000E+01      2.845001000000000E-01      1.204414000000000E+02      2.252045000000000E-01      2.830761000000000E+01
4851000000.000000      3.224335000000000E-01      1.102187000000000E+02      2.867737000000000E-01     -1.098926000000000E+01      2.891846000000000E-01      1.206250000000000E+02      2.240372000000000E-01      2.694238000000000E+01
4852000000.000000      3.167114000000000E-01      1.105820000000000E+02      2.912445000000000E-01     -1.100049000000000E+01      2.941284000000000E-01      1.207461000000000E+02      2.216187000000000E-01      2.579394000000000E+01
4853000000.000000      3.099976000000000E-01      1.111016000000000E+02      2.956238000000000E-01     -1.108691000000000E+01      2.989349000000000E-01      1.208828000000000E+02      2.177887000000000E-01      2.479004000000000E+01
4854000000.000000      3.024139000000000E-01      1.115703000000000E+02      3.006897000000000E-01     -1.130518000000000E+01      3.040466000000000E-01      1.208867000000000E+02      2.160797000000000E-01      2.335351000000000E+01
4855000000.000000      2.965698000000000E-01      1.120703000000000E+02      3.058777000000000E-01     -1.132031000000000E+01      3.094940000000000E-01      1.209961000000000E+02      2.112274000000000E-01      2.241015000000000E+01
4856000000.000000      2.893219000000000E-01      1.125898000000000E+02      3.111420000000000E-01     -1.130371000000000E+01      3.141785000000000E-01      1.210078000000000E+02      2.107010000000000E-01      2.108789000000000E+01
4857000000.000000      2.825012000000000E-01      1.131055000000000E+02      3.170013000000000E-01     -1.149170000000000E+01      3.191986000000000E-01      1.210390000000000E+02      2.074203000000000E-01      2.005469000000000E+01
4858000000.000000      2.750397000000000E-01      1.134961000000000E+02      3.212433000000000E-01     -1.167041000000000E+01      3.243408000000000E-01      1.210195000000000E+02      2.048492000000000E-01      1.872461000000000E+01
4859000000.000000      2.678070000000000E-01      1.140078000000000E+02      3.262482000000000E-01     -1.203418000000000E+01      3.285980000000000E-01      1.211133000000000E+02      2.024689000000000E-01      1.749902000000000E+01
4860000000.000000      2.610016000000000E-01      1.146484000000000E+02      3.312225000000000E-01     -1.206445000000000E+01      3.329620000000000E-01      1.210859000000000E+02      2.001877000000000E-01      1.656738000000000E+01
4861000000.000000      2.535553000000000E-01      1.151680000000000E+02      3.359680000000000E-01     -1.233398000000000E+01      3.389130000000000E-01      1.210625000000000E+02      1.962891000000000E-01      1.515381000000000E+01
4862000000.000000      2.456665000000000E-01      1.157851000000000E+02      3.409882000000000E-01     -1.239014000000000E+01      3.443756000000000E-01      1.209492000000000E+02      1.939850000000000E-01      1.411035000000000E+01
4863000000.000000      2.380142000000000E-01      1.161758000000000E+02      3.451233000000000E-01     -1.292432000000000E+01      3.497925000000000E-01      1.209492000000000E+02      1.923904000000000E-01      1.318896000000000E+01
4864000000.000000      2.308960000000000E-01      1.167109000000000E+02      3.506470000000000E-01     -1.297510000000000E+01      3.541260000000000E-01      1.209336000000000E+02      1.889191000000000E-01      1.184717000000000E+01
4865000000.000000      2.232895000000000E-01      1.171523000000000E+02      3.551178000000000E-01     -1.316895000000000E+01      3.589325000000000E-01      1.208594000000000E+02      1.866760000000000E-01      1.068555000000000E+01
4866000000.000000      2.153320000000000E-01      1.177695000000000E+02      3.600006000000000E-01     -1.359570000000000E+01      3.651581000000000E-01      1.206211000000000E+02      1.848297000000000E-01      9.323242000000000E+00
4867000000.000000      2.081375000000000E-01      1.184375000000000E+02      3.648224000000000E-01     -1.405469000000000E+01      3.693085000000000E-01      1.206562000000000E+02      1.821136000000000E-01      8.372559000000000E+00
4868000000.000000      2.008972000000000E-01      1.189570000000000E+02      3.694763000000000E-01     -1.419043000000000E+01      3.746643000000000E-01      1.204726000000000E+02      1.793213000000000E-01      7.401855000000000E+00
4869000000.000000      1.925354000000000E-01      1.196445000000000E+02      3.737030000000000E-01     -1.447461000000000E+01      3.796387000000000E-01      1.203203000000000E+02      1.763992000000000E-01      6.067139000000000E+00
4870000000.000000      1.855545000000000E-01      1.202891000000000E+02      3.796082000000000E-01     -1.465576000000000E+01      3.845520000000000E-01      1.201914000000000E+02      1.738739000000000E-01      5.248535000000000E+00
4871000000.000000      1.781769000000000E-01      1.210078000000000E+02      3.836517000000000E-01     -1.513672000000000E+01      3.892059000000000E-01      1.200664000000000E+02      1.712646000000000E-01      3.912476000000000E+00
4872000000.000000      1.707077000000000E-01      1.215937000000000E+02      3.881836000000000E-01     -1.536475000000000E+01      3.933868000000000E-01      1.197109000000000E+02      1.688690000000000E-01      2.879761000000000E+00
4873000000.000000      1.630630000000000E-01      1.224297000000000E+02      3.930817000000000E-01     -1.598828000000000E+01      3.982239000000000E-01      1.197266000000000E+02      1.651077000000000E-01      1.774292000000000E+00
4874000000.000000      1.552429000000000E-01      1.233281000000000E+02      3.969421000000000E-01     -1.619531000000000E+01      4.047241000000000E-01      1.193633000000000E+02      1.641769000000000E-01      7.058716000000000E-01
4875000000.000000      1.481247000000000E-01      1.241562000000000E+02      4.016418000000000E-01     -1.646387000000000E+01      4.090881000000000E-01      1.191914000000000E+02      1.605911000000000E-01     -2.828979000000000E-01
4876000000.000000      1.406326000000000E-01      1.247930000000000E+02      4.058228000000000E-01     -1.685742000000000E+01      4.151459000000000E-01      1.190898000000000E+02      1.579132000000000E-01     -1.720764000000000E+00
4877000000.000000      1.330795000000000E-01      1.256289000000000E+02      4.106598000000000E-01     -1.730762000000000E+01      4.191437000000000E-01      1.187656000000000E+02      1.556549000000000E-01     -2.521362000000000E+00
4878000000.000000      1.257401000000000E-01      1.270039000000000E+02      4.151306000000000E-01     -1.765137000000000E+01      4.235077000000000E-01      1.186953000000000E+02      1.529083000000000E-01     -3.510132000000000E+00
4879000000.000000      1.190033000000000E-01      1.280859000000000E+02      4.185638000000000E-01     -1.792285000000000E+01      4.297485000000000E-01      1.183398000000000E+02      1.499100000000000E-01     -4.673340000000000E+00
4880000000.000000      1.111565000000000E-01      1.288906000000000E+02      4.237823000000000E-01     -1.859766000000000E+01      4.353333000000000E-01      1.181680000000000E+02      1.471100000000000E-01     -5.648438000000000E+00
4881000000.000000      1.045876000000000E-01      1.305703000000000E+02      4.290924000000000E-01     -1.869238000000000E+01      4.392395000000000E-01      1.178633000000000E+02      1.445618000000000E-01     -6.328125000000000E+00
4882000000.000000      9.785843000000000E-02      1.319062000000000E+02      4.333191000000000E-01     -1.922949000000000E+01      4.450226000000000E-01      1.176172000000000E+02      1.423416000000000E-01     -7.216797000000000E+00
