! Network Analyzer HP8722D
! Hewlett-Packard
! Data name: Linha & Wilkinson
! Saver's name: Rodrigo Anjos
! Comments: Teste da utilização de aquisição
continua pelo VNA HP8722D
! Time and date: 25/4/2025 16:29
!              Frequency                     S11                                                   S21                                                   S12                                                   S22
# HZ  S  MA R 50
4800000000.000000      4.356842000000000E-01      9.070313000000000E+01      1.845093000000000E-01     -6.333984000000000E+01      1.893005000000000E-01      7.019921000000000E+01      2.505341000000000E-01      7.667578000000000E+01
4801000000.000000      4.379883000000000E-01      9.091015000000000E+01      1.802902000000000E-01     -6.204687000000000E+01      1.857071000000000E-01      7.112109000000000E+01      2.528076000000000E-01      7.558203000000000E+01
4802000000.000000      4.411163000000000E-01      9.116796000000000E+01      1.772232000000000E-01     -6.076172000000000E+01      1.826019000000000E-01      7.219921000000000E+01      2.569275000000000E-01      7.529297000000000E+01
4803000000.000000      4.432526000000000E-01      9.138672000000000E+01      1.744843000000000E-01     -5.949609000000000E+01      1.791611000000000E-01      7.341015000000000E+01      2.583923000000000E-01      7.479687000000000E+01
4804000000.000000      4.465790000000000E-01      9.175390000000000E+01      1.710281000000000E-01     -5.803515000000000E+01      1.765594000000000E-01      7.447266000000000E+01      2.578430000000000E-01      7.439843000000000E+01
4805000000.000000      4.489746000000000E-01      9.186718000000000E+01      1.685333000000000E-01     -5.686913000000000E+01      1.738663000000000E-01      7.576953000000000E+01      2.614136000000000E-01      7.348437000000000E+01
4806000000.000000      4.510040000000000E-01      9.226563000000000E+01      1.663666000000000E-01     -5.533203000000000E+01      1.712036000000000E-01      7.719921000000000E+01      2.620392000000000E-01      7.293359000000000E+01
4807000000.000000      4.532928000000000E-01      9.248827000000000E+01      1.643066000000000E-01     -5.399414000000000E+01      1.692200000000000E-01      7.835546000000000E+01      2.635803000000000E-01      7.167969000000000E+01
4808000000.000000      4.539948000000000E-01      9.280077000000000E+01      1.624298000000000E-01     -5.214453000000000E+01      1.673889000000000E-01      7.997265000000000E+01      2.627716000000000E-01      7.092578000000000E+01
4809000000.000000      4.548035000000000E-01      9.313280000000000E+01      1.612091000000000E-01     -5.067773000000000E+01      1.658630000000000E-01      8.131639000000000E+01      2.669678000000000E-01      7.067577000000000E+01
4810000000.000000      4.561005000000000E-01      9.349609000000000E+01      1.596909000000000E-01     -4.885937000000000E+01      1.645432000000000E-01      8.298046000000000E+01      2.658081000000000E-01      6.952343000000000E+01
4811000000.000000      4.580078000000000E-01      9.382421000000000E+01      1.587601000000000E-01     -4.725390000000000E+01      1.637650000000000E-01      8.454296000000000E+01      2.673340000000000E-01      6.876171000000000E+01
4812000000.000000      4.586639000000000E-01      9.419922000000000E+01      1.579590000000000E-01     -4.553320000000000E+01      1.629944000000000E-01      8.616796000000000E+01      2.694702000000000E-01      6.813281000000000E+01
4813000000.000000      4.592590000000000E-01      9.453125000000000E+01      1.572037000000000E-01     -4.386328000000000E+01      1.624374000000000E-01      8.791407000000000E+01      2.709808000000000E-01      6.740624000000000E+01
4814000000.000000      4.578400000000000E-01      9.480860000000000E+01      1.573868000000000E-01     -4.190625000000000E+01      1.624680000000000E-01      8.956640000000000E+01      2.695618000000000E-01      6.667578000000000E+01
4815000000.000000      4.582977000000000E-01      9.520702000000000E+01      1.573563000000000E-01     -4.019727000000000E+01      1.625137000000000E-01      9.116796000000000E+01      2.698822000000000E-01      6.582031000000000E+01
4816000000.000000      4.584503000000000E-01      9.551952000000000E+01      1.581573000000000E-01     -3.829102000000000E+01      1.635208000000000E-01      9.283983000000000E+01      2.711639000000000E-01      6.468750000000000E+01
4817000000.000000      4.571228000000000E-01      9.588671000000000E+01      1.582336000000000E-01     -3.671679000000000E+01      1.635971000000000E-01      9.442186000000000E+01      2.714386000000000E-01      6.441015000000000E+01
4818000000.000000      4.569550000000000E-01      9.616796000000000E+01      1.593552000000000E-01     -3.518945000000000E+01      1.649170000000000E-01      9.595312000000000E+01      2.709198000000000E-01      6.289648000000000E+01
4819000000.000000      4.564972000000000E-01      9.661327000000000E+01      1.609421000000000E-01     -3.346289000000000E+01      1.660690000000000E-01      9.748047000000000E+01      2.704163000000000E-01      6.234765000000000E+01
4820000000.000000      4.530182000000000E-01      9.701172000000000E+01      1.622925000000000E-01     -3.179199000000000E+01      1.678085000000000E-01      9.911327000000000E+01      2.721252000000000E-01      6.119922000000000E+01
4821000000.000000      4.536591000000000E-01      9.729296000000000E+01      1.644058000000000E-01     -3.029297000000000E+01      1.691895000000000E-01      1.005351000000000E+02      2.722321000000000E-01      6.044335000000000E+01
4822000000.000000      4.517822000000000E-01      9.760546000000000E+01      1.659546000000000E-01     -2.867578000000000E+01      1.711655000000000E-01      1.018867000000000E+02      2.733917000000000E-01      5.906445000000000E+01
4823000000.000000      4.495392000000000E-01      9.803123000000000E+01      1.689301000000000E-01     -2.727148000000000E+01      1.733704000000000E-01      1.033945000000000E+02      2.709198000000000E-01      5.836719000000000E+01
4824000000.000000      4.481506000000000E-01      9.836327000000000E+01      1.707764000000000E-01     -2.590527000000000E+01      1.762543000000000E-01      1.044765000000000E+02      2.698669000000000E-01      5.745703000000000E+01
4825000000.000000      4.443512000000000E-01      9.875389000000000E+01      1.736221000000000E-01     -2.442480000000000E+01      1.792908000000000E-01      1.059101000000000E+02      2.712860000000000E-01      5.584374000000000E+01
4826000000.000000      4.434052000000000E-01      9.914843000000000E+01      1.773911000000000E-01     -2.344141000000000E+01      1.815872000000000E-01      1.070664000000000E+02      2.678223000000000E-01      5.521484000000000E+01
4827000000.000000      4.401550000000000E-01      9.959373000000000E+01      1.794434000000000E-01     -2.195703000000000E+01      1.849136000000000E-01      1.081797000000000E+02      2.691345000000000E-01      5.409765000000000E+01
4828000000.000000      4.377441000000000E-01      9.997265000000000E+01      1.832428000000000E-01     -2.108593000000000E+01      1.883316000000000E-01      1.091523000000000E+02      2.676544000000000E-01      5.309179000000000E+01
4829000000.000000      4.334106000000000E-01      1.005156000000000E+02      1.869812000000000E-01     -1.990234000000000E+01      1.919785000000000E-01      1.103047000000000E+02      2.661438000000000E-01      5.196289000000000E+01
4830000000.000000      4.307098000000000E-01      1.008125000000000E+02      1.904449000000000E-01     -1.900781000000000E+01      1.951370000000000E-01      1.112773000000000E+02      2.659760000000000E-01      5.109570000000000E+01
4831000000.000000      4.263458000000000E-01      1.012773000000000E+02      1.938782000000000E-01     -1.812012000000000E+01      1.990738000000000E-01      1.121250000000000E+02      2.622375000000000E-01      4.990820000000000E+01
4832000000.000000      4.237823000000000E-01      1.016758000000000E+02      1.980057000000000E-01     -1.709473000000000E+01      2.027206000000000E-01      1.129648000000000E+02      2.619476000000000E-01      4.904687000000000E+01
4833000000.000000      4.192810000000000E-01      1.020234000000000E+02      2.011948000000000E-01     -1.645898000000000E+01      2.068710000000000E-01      1.136211000000000E+02      2.608643000000000E-01      4.759961000000000E+01
4834000000.000000      4.153595000000000E-01      1.024844000000000E+02      2.058487000000000E-01     -1.571777000000000E+01      2.110291000000000E-01      1.144219000000000E+02      2.592773000000000E-01      4.645898000000000E+01
4835000000.000000      4.113159000000000E-01      1.028320000000000E+02      2.105484000000000E-01     -1.505713000000000E+01      2.152328000000000E-01      1.150937000000000E+02      2.574005000000000E-01      4.528125000000000E+01
4836000000.000000      4.074249000000000E-01      1.033672000000000E+02      2.145538000000000E-01     -1.458740000000000E+01      2.194138000000000E-01      1.158672000000000E+02      2.556610000000000E-01      4.413086000000000E+01
4837000000.000000      4.016418000000000E-01      1.039063000000000E+02      2.183990000000000E-01     -1.414941000000000E+01      2.236099000000000E-01      1.162578000000000E+02      2.544861000000000E-01      4.338281000000000E+01
4838000000.000000      3.966675000000000E-01      1.042422000000000E+02      2.237778000000000E-01     -1.343799000000000E+01      2.279129000000000E-01      1.168086000000000E+02      2.524719000000000E-01      4.213281000000000E+01
4839000000.000000      3.936310000000000E-01      1.047656000000000E+02      2.284393000000000E-01     -1.300244000000000E+01      2.323761000000000E-01      1.173008000000000E+02      2.515869000000000E-01      4.074219000000000E+01
4840000000.000000      3.865662000000000E-01      1.050781000000000E+02      2.325592000000000E-01     -1.249023000000000E+01      2.371216000000000E-01      1.178750000000000E+02      2.479172000000000E-01      3.941992000000000E+01
4841000000.000000      3.826294000000000E-01      1.056406000000000E+02      2.374344000000000E-01     -1.237354000000000E+01      2.414627000000000E-01      1.181680000000000E+02      2.461624000000000E-01      3.859961000000000E+01
4842000000.000000      3.768005000000000E-01      1.060898000000000E+02      2.423172000000000E-01     -1.201904000000000E+01      2.460709000000000E-01      1.186055000000000E+02      2.458038000000000E-01      3.750000000000000E+01
4843000000.000000      3.719025000000000E-01      1.064101000000000E+02      2.470856000000000E-01     -1.179688000000000E+01      2.513123000000000E-01      1.189297000000000E+02      2.424316000000000E-01      3.658398000000000E+01
4844000000.000000      3.664703000000000E-01      1.068906000000000E+02      2.517242000000000E-01     -1.149609000000000E+01      2.551270000000000E-01      1.192422000000000E+02      2.391663000000000E-01      3.506054000000000E+01
4845000000.000000      3.595428000000000E-01      1.074492000000000E+02      2.566528000000000E-01     -1.136572000000000E+01      2.602386000000000E-01      1.195078000000000E+02      2.384491000000000E-01      3.380468000000000E+01
4846000000.000000      3.544159000000000E-01      1.078437000000000E+02      2.619781000000000E-01     -1.118994000000000E+01      2.653503000000000E-01      1.197890000000000E+02      2.350464000000000E-01      3.284765000000000E+01
4847000000.000000      3.486023000000000E-01      1.084570000000000E+02      2.670746000000000E-01     -1.106738000000000E+01      2.701721000000000E-01      1.199375000000000E+02      2.314529000000000E-01      3.151758000000000E+01
4848000000.000000      3.419952000000000E-01      1.088125000000000E+02      2.709503000000000E-01     -1.090430000000000E+01      2.751465000000000E-01      1.201250000000000E+02      2.293243000000000E-01      3.072949000000000E+01
4849000000.000000      3.362885000000000E-01      1.092148000000000E+02      2.765045000000000E-01     -1.099072000000000E+01      2.795258000000000E-01      1.203437000000000E+02      2.277908000000000E-01      2.948828000000000E+01
4850000000.000000      3.295593000000000E-01      1.097500000000000E+02      2.813873000000000E-01     -1.099072000000000E+01      2.849274000000000E-01      1.204648000000000E+02      2.240982000000000E-01      2.821972000000000E+01
4851000000.000000      3.231964000000000E-01      1.103750000000000E+02      2.860413000000000E-01     -1.093457000000000E+01      2.896118000000000E-01      1.206367000000000E+02      2.224503000000000E-01      2.705761000000000E+01
4852000000.000000      3.168335000000000E-01      1.107031000000000E+02      2.913513000000000E-01     -1.104980000000000E+01      2.944794000000000E-01      1.208242000000000E+02      2.210846000000000E-01      2.563769000000000E+01
4853000000.000000      3.102417000000000E-01      1.112266000000000E+02      2.959442000000000E-01     -1.109375000000000E+01      2.997437000000000E-01      1.208906000000000E+02      2.172775000000000E-01      2.441699000000000E+01
4854000000.000000      3.029633000000000E-01      1.117188000000000E+02      3.005219000000000E-01     -1.123389000000000E+01      3.042145000000000E-01      1.209883000000000E+02      2.160339000000000E-01      2.343457000000000E+01
4855000000.000000      2.963562000000000E-01      1.122031000000000E+02      3.066559000000000E-01     -1.135742000000000E+01      3.098450000000000E-01      1.209922000000000E+02      2.119446000000000E-01      2.229492000000000E+01
4856000000.000000      2.901154000000000E-01      1.128047000000000E+02      3.111115000000000E-01     -1.139160000000000E+01      3.145447000000000E-01      1.210156000000000E+02      2.103195000000000E-01      2.117383000000000E+01
4857000000.000000      2.831421000000000E-01      1.132187000000000E+02      3.168488000000000E-01     -1.143311000000000E+01      3.192596000000000E-01      1.211406000000000E+02      2.066956000000000E-01      1.989062000000000E+01
4858000000.000000      2.753601000000000E-01      1.136406000000000E+02      3.217773000000000E-01     -1.160156000000000E+01      3.242645000000000E-01      1.209727000000000E+02      2.041779000000000E-01      1.862988000000000E+01
4859000000.000000      2.680206000000000E-01      1.142305000000000E+02      3.266449000000000E-01     -1.186279000000000E+01      3.295898000000000E-01      1.210469000000000E+02      2.024384000000000E-01      1.763281000000000E+01
4860000000.000000      2.614288000000000E-01      1.146992000000000E+02      3.313141000000000E-01     -1.199854000000000E+01      3.339081000000000E-01      1.209687000000000E+02      1.988754000000000E-01      1.659180000000000E+01
4861000000.000000      2.539368000000000E-01      1.153437000000000E+02      3.362274000000000E-01     -1.237646000000000E+01      3.396912000000000E-01      1.210352000000000E+02      1.959915000000000E-01      1.501660000000000E+01
4862000000.000000      2.459793000000000E-01      1.158828000000000E+02      3.408051000000000E-01     -1.239990000000000E+01      3.450317000000000E-01      1.210156000000000E+02      1.945877000000000E-01      1.384814000000000E+01
4863000000.000000      2.392426000000000E-01      1.163398000000000E+02      3.460083000000000E-01     -1.277051000000000E+01      3.498383000000000E-01      1.209414000000000E+02      1.919785000000000E-01      1.292529000000000E+01
4864000000.000000      2.317581000000000E-01      1.168828000000000E+02      3.513336000000000E-01     -1.299854000000000E+01      3.546143000000000E-01      1.208320000000000E+02      1.888580000000000E-01      1.171680000000000E+01
4865000000.000000      2.238464000000000E-01      1.175117000000000E+02      3.557892000000000E-01     -1.320850000000000E+01      3.591614000000000E-01      1.208672000000000E+02      1.874847000000000E-01      1.059619000000000E+01
4866000000.000000      2.161255000000000E-01      1.178672000000000E+02      3.601074000000000E-01     -1.351074000000000E+01      3.654480000000000E-01      1.204688000000000E+02      1.843872000000000E-01      9.393066000000000E+00
4867000000.000000      2.088699000000000E-01      1.186367000000000E+02      3.654480000000000E-01     -1.393359000000000E+01      3.690948000000000E-01      1.206953000000000E+02      1.812363000000000E-01      8.354980000000000E+00
4868000000.000000      2.015762000000000E-01      1.192226000000000E+02      3.695221000000000E-01     -1.420557000000000E+01      3.747711000000000E-01      1.204336000000000E+02      1.784058000000000E-01      7.278320000000000E+00
4869000000.000000      1.934280000000000E-01      1.197187000000000E+02      3.744659000000000E-01     -1.455713000000000E+01      3.800354000000000E-01      1.203047000000000E+02      1.759415000000000E-01      5.990234000000000E+00
4870000000.000000      1.862335000000000E-01      1.204258000000000E+02      3.788605000000000E-01     -1.468066000000000E+01      3.854980000000000E-01      1.200547000000000E+02      1.736221000000000E-01      5.111328000000000E+00
4871000000.000000      1.788101000000000E-01      1.211601000000000E+02      3.836517000000000E-01     -1.522852000000000E+01      3.893127000000000E-01      1.199062000000000E+02      1.709366000000000E-01      3.869873000000000E+00
4872000000.000000      1.714096000000000E-01      1.216992000000000E+02      3.876495000000000E-01     -1.523438000000000E+01      3.941193000000000E-01      1.195976000000000E+02      1.686172000000000E-01      3.033569000000000E+00
4873000000.000000      1.638641000000000E-01      1.226875000000000E+02      3.923492000000000E-01     -1.582471000000000E+01      3.990326000000000E-01      1.195742000000000E+02      1.654968000000000E-01      1.679504000000000E+00
4874000000.000000      1.561737000000000E-01      1.235586000000000E+02      3.971252000000000E-01     -1.635547000000000E+01      4.059906000000000E-01      1.193320000000000E+02      1.638947000000000E-01      7.237244000000000E-01
4875000000.000000      1.485977000000000E-01      1.241992000000000E+02      4.020844000000000E-01     -1.645410000000000E+01      4.093933000000000E-01      1.192578000000000E+02      1.602097000000000E-01     -3.955078000000000E-01
4876000000.000000      1.417313000000000E-01      1.250234000000000E+02      4.070435000000000E-01     -1.683008000000000E+01      4.151764000000000E-01      1.190859000000000E+02      1.578445000000000E-01     -1.584778000000000E+00
4877000000.000000      1.334686000000000E-01      1.258711000000000E+02      4.112396000000000E-01     -1.734668000000000E+01      4.195862000000000E-01      1.187422000000000E+02      1.555023000000000E-01     -2.510376000000000E+00
4878000000.000000      1.262970000000000E-01      1.271016000000000E+02      4.149323000000000E-01     -1.780273000000000E+01      4.244232000000000E-01      1.186562000000000E+02      1.526947000000000E-01     -3.514282000000000E+00
4879000000.000000      1.195908000000000E-01      1.283125000000000E+02      4.184875000000000E-01     -1.800195000000000E+01      4.299774000000000E-01      1.182891000000000E+02      1.499100000000000E-01     -4.448242000000000E+00
4880000000.000000      1.119080000000000E-01      1.293203000000000E+02      4.235840000000000E-01     -1.860742000000000E+01      4.346466000000000E-01      1.180391000000000E+02      1.468887000000000E-01     -5.516602000000000E+00
4881000000.000000      1.055183000000000E-01      1.309141000000000E+02      4.281769000000000E-01     -1.864453000000000E+01      4.404144000000000E-01      1.177891000000000E+02      1.442795000000000E-01     -6.170410000000000E+00
4882000000.000000      9.835815000000000E-02      1.319609000000000E+02      4.326935000000000E-01     -1.927441000000000E+01      4.451294000000000E-01      1.175078000000000E+02      1.416779000000000E-01     -7.061523000000000E+00
