! Network Analyzer HP8722D
! Hewlett-Packard
! Data name: Linha & Wilkinson
! Saver's name: Rodrigo Anjos
! Comments: Teste da utilização de aquisição
continua pelo VNA HP8722D
! Time and date: 25/4/2025 15:43
!              Frequency                     S11                                                   S21                                                   S12                                                   S22
# HZ  S  MA R 50
4800000000.000000      4.335022000000000E-01      9.053905000000000E+01      1.864014000000000E-01     -6.398438000000000E+01      1.916122000000000E-01      6.962891000000000E+01      2.497787000000000E-01      7.757030000000000E+01
4801000000.000000      4.373322000000000E-01      9.082811000000000E+01      1.825714000000000E-01     -6.284961000000000E+01      1.876221000000000E-01      7.037890000000000E+01      2.528687000000000E-01      7.678905000000000E+01
4802000000.000000      4.397583000000000E-01      9.101171000000000E+01      1.791382000000000E-01     -6.172265000000000E+01      1.843872000000000E-01      7.144531000000000E+01      2.555542000000000E-01      7.593359000000000E+01
4803000000.000000      4.423981000000000E-01      9.132421000000000E+01      1.763763000000000E-01     -6.025195000000000E+01      1.811600000000000E-01      7.261719000000000E+01      2.564392000000000E-01      7.541016000000000E+01
4804000000.000000      4.448242000000000E-01      9.171875000000000E+01      1.731491000000000E-01     -5.892968000000000E+01      1.781235000000000E-01      7.361718000000000E+01      2.562103000000000E-01      7.466797000000000E+01
4805000000.000000      4.479065000000000E-01      9.188671000000000E+01      1.701889000000000E-01     -5.778710000000000E+01      1.752090000000000E-01      7.491405000000000E+01      2.606506000000000E-01      7.362890000000000E+01
4806000000.000000      4.493408000000000E-01      9.217577000000000E+01      1.680145000000000E-01     -5.630273000000000E+01      1.728821000000000E-01      7.634375000000000E+01      2.608643000000000E-01      7.333593000000000E+01
4807000000.000000      4.526978000000000E-01      9.241796000000000E+01      1.656036000000000E-01     -5.499804000000000E+01      1.702347000000000E-01      7.758203000000000E+01      2.615967000000000E-01      7.241015000000000E+01
4808000000.000000      4.529724000000000E-01      9.272655000000000E+01      1.638565000000000E-01     -5.328125000000000E+01      1.682892000000000E-01      7.899609000000000E+01      2.637787000000000E-01      7.179296000000000E+01
4809000000.000000      4.541931000000000E-01      9.312500000000000E+01      1.619949000000000E-01     -5.174023000000000E+01      1.669388000000000E-01      8.048828000000000E+01      2.661896000000000E-01      7.123828000000000E+01
4810000000.000000      4.557343000000000E-01      9.338282000000000E+01      1.609497000000000E-01     -4.995507000000000E+01      1.653366000000000E-01      8.201952000000000E+01      2.655182000000000E-01      7.042578000000000E+01
4811000000.000000      4.565430000000000E-01      9.366796000000000E+01      1.599579000000000E-01     -4.829883000000000E+01      1.644669000000000E-01      8.366796000000000E+01      2.680511000000000E-01      6.959374000000000E+01
4812000000.000000      4.582214000000000E-01      9.411327000000000E+01      1.580887000000000E-01     -4.660156000000000E+01      1.636505000000000E-01      8.515234000000000E+01      2.679443000000000E-01      6.859765000000000E+01
4813000000.000000      4.576416000000000E-01      9.442186000000000E+01      1.578751000000000E-01     -4.489648000000000E+01      1.631622000000000E-01      8.681641000000000E+01      2.704773000000000E-01      6.835546000000000E+01
4814000000.000000      4.567108000000000E-01      9.467968000000000E+01      1.572876000000000E-01     -4.298437000000000E+01      1.624146000000000E-01      8.849218000000000E+01      2.691040000000000E-01      6.733203000000000E+01
4815000000.000000      4.569092000000000E-01      9.513281000000000E+01      1.573792000000000E-01     -4.120117000000000E+01      1.623154000000000E-01      9.009766000000000E+01      2.706146000000000E-01      6.604687000000000E+01
4816000000.000000      4.588928000000000E-01      9.541016000000000E+01      1.577682000000000E-01     -3.936718000000000E+01      1.634064000000000E-01      9.186718000000000E+01      2.718811000000000E-01      6.522655000000000E+01
4817000000.000000      4.570770000000000E-01      9.583984000000000E+01      1.587677000000000E-01     -3.785742000000000E+01      1.633530000000000E-01      9.335938000000000E+01      2.714081000000000E-01      6.496094000000000E+01
4818000000.000000      4.561768000000000E-01      9.607811000000000E+01      1.587753000000000E-01     -3.602734000000000E+01      1.643677000000000E-01      9.516016000000000E+01      2.734222000000000E-01      6.352929000000000E+01
4819000000.000000      4.558105000000000E-01      9.646093000000000E+01      1.601410000000000E-01     -3.432422000000000E+01      1.656189000000000E-01      9.664843000000000E+01      2.717896000000000E-01      6.305273000000000E+01
4820000000.000000      4.527283000000000E-01      9.692577000000000E+01      1.613083000000000E-01     -3.252539000000000E+01      1.670303000000000E-01      9.816406000000000E+01      2.736969000000000E-01      6.216015000000000E+01
4821000000.000000      4.528656000000000E-01      9.718750000000000E+01      1.633606000000000E-01     -3.115234000000000E+01      1.682816000000000E-01      9.966406000000000E+01      2.743378000000000E-01      6.132617000000000E+01
4822000000.000000      4.508057000000000E-01      9.742577000000000E+01      1.653595000000000E-01     -2.936035000000000E+01      1.702576000000000E-01      1.009922000000000E+02      2.718811000000000E-01      5.980859000000000E+01
4823000000.000000      4.490204000000000E-01      9.787889000000000E+01      1.677628000000000E-01     -2.804296000000000E+01      1.722794000000000E-01      1.026914000000000E+02      2.700195000000000E-01      5.867188000000000E+01
4824000000.000000      4.472046000000000E-01      9.827734000000000E+01      1.696777000000000E-01     -2.674511000000000E+01      1.746597000000000E-01      1.038789000000000E+02      2.692108000000000E-01      5.789257000000000E+01
4825000000.000000      4.440308000000000E-01      9.861717000000000E+01      1.725082000000000E-01     -2.532715000000000E+01      1.780624000000000E-01      1.052070000000000E+02      2.697601000000000E-01      5.667773000000000E+01
4826000000.000000      4.421234000000000E-01      9.910156000000000E+01      1.755219000000000E-01     -2.411133000000000E+01      1.802750000000000E-01      1.063750000000000E+02      2.679443000000000E-01      5.574413000000000E+01
4827000000.000000      4.396820000000000E-01      9.936718000000000E+01      1.781693000000000E-01     -2.268847000000000E+01      1.834183000000000E-01      1.075234000000000E+02      2.686920000000000E-01      5.460938000000000E+01
4828000000.000000      4.373474000000000E-01      9.980469000000000E+01      1.815186000000000E-01     -2.160547000000000E+01      1.863708000000000E-01      1.086914000000000E+02      2.677155000000000E-01      5.342382000000000E+01
4829000000.000000      4.334259000000000E-01      1.002891000000000E+02      1.852951000000000E-01     -2.049511000000000E+01      1.902161000000000E-01      1.097930000000000E+02      2.681580000000000E-01      5.252930000000000E+01
4830000000.000000      4.304657000000000E-01      1.006289000000000E+02      1.880951000000000E-01     -1.951465000000000E+01      1.931763000000000E-01      1.107305000000000E+02      2.650146000000000E-01      5.152734000000000E+01
4831000000.000000      4.259186000000000E-01      1.010039000000000E+02      1.920013000000000E-01     -1.872266000000000E+01      1.975327000000000E-01      1.118086000000000E+02      2.625427000000000E-01      5.031250000000000E+01
4832000000.000000      4.231567000000000E-01      1.015664000000000E+02      1.962051000000000E-01     -1.765429000000000E+01      2.008133000000000E-01      1.125977000000000E+02      2.620087000000000E-01      4.936328000000000E+01
4833000000.000000      4.181213000000000E-01      1.018594000000000E+02      1.998367000000000E-01     -1.679590000000000E+01      2.053146000000000E-01      1.132187000000000E+02      2.602234000000000E-01      4.830468000000000E+01
4834000000.000000      4.148560000000000E-01      1.023047000000000E+02      2.039413000000000E-01     -1.604883000000000E+01      2.092361000000000E-01      1.141328000000000E+02      2.596741000000000E-01      4.699804000000000E+01
4835000000.000000      4.109955000000000E-01      1.026641000000000E+02      2.083740000000000E-01     -1.553906000000000E+01      2.133408000000000E-01      1.147734000000000E+02      2.576752000000000E-01      4.582227000000000E+01
4836000000.000000      4.068298000000000E-01      1.030976000000000E+02      2.125244000000000E-01     -1.479346000000000E+01      2.171936000000000E-01      1.155781000000000E+02      2.555847000000000E-01      4.493360000000000E+01
4837000000.000000      4.013519000000000E-01      1.036953000000000E+02      2.167282000000000E-01     -1.445801000000000E+01      2.215042000000000E-01      1.160430000000000E+02      2.542877000000000E-01      4.400000000000000E+01
4838000000.000000      3.963776000000000E-01      1.039883000000000E+02      2.215118000000000E-01     -1.357129000000000E+01      2.256546000000000E-01      1.166328000000000E+02      2.518158000000000E-01      4.258789000000000E+01
4839000000.000000      3.927307000000000E-01      1.045156000000000E+02      2.262115000000000E-01     -1.328955000000000E+01      2.304688000000000E-01      1.170898000000000E+02      2.502136000000000E-01      4.148438000000000E+01
4840000000.000000      3.868408000000000E-01      1.049726000000000E+02      2.307892000000000E-01     -1.284180000000000E+01      2.347107000000000E-01      1.176563000000000E+02      2.479248000000000E-01      4.008594000000000E+01
4841000000.000000      3.823700000000000E-01      1.054062000000000E+02      2.356262000000000E-01     -1.262891000000000E+01      2.399673000000000E-01      1.180664000000000E+02      2.467422000000000E-01      3.918945000000000E+01
4842000000.000000      3.761749000000000E-01      1.058203000000000E+02      2.403946000000000E-01     -1.211816000000000E+01      2.441177000000000E-01      1.184101000000000E+02      2.459946000000000E-01      3.810351000000000E+01
4843000000.000000      3.717346000000000E-01      1.061641000000000E+02      2.456360000000000E-01     -1.200537000000000E+01      2.487793000000000E-01      1.188672000000000E+02      2.438354000000000E-01      3.701172000000000E+01
4844000000.000000      3.656464000000000E-01      1.066172000000000E+02      2.493668000000000E-01     -1.169775000000000E+01      2.532043000000000E-01      1.190820000000000E+02      2.397385000000000E-01      3.552929000000000E+01
4845000000.000000      3.596954000000000E-01      1.071914000000000E+02      2.548218000000000E-01     -1.144678000000000E+01      2.584991000000000E-01      1.193945000000000E+02      2.384109000000000E-01      3.434570000000000E+01
4846000000.000000      3.540039000000000E-01      1.075977000000000E+02      2.598419000000000E-01     -1.126514000000000E+01      2.634430000000000E-01      1.196953000000000E+02      2.361450000000000E-01      3.350195000000000E+01
4847000000.000000      3.480377000000000E-01      1.082148000000000E+02      2.647552000000000E-01     -1.113477000000000E+01      2.681427000000000E-01      1.198789000000000E+02      2.326126000000000E-01      3.204297000000000E+01
4848000000.000000      3.416443000000000E-01      1.085742000000000E+02      2.694550000000000E-01     -1.119385000000000E+01      2.730865000000000E-01      1.201211000000000E+02      2.301102000000000E-01      3.054688000000000E+01
4849000000.000000      3.357239000000000E-01      1.088437000000000E+02      2.745667000000000E-01     -1.093311000000000E+01      2.775574000000000E-01      1.203281000000000E+02      2.273102000000000E-01      3.004980000000000E+01
4850000000.000000      3.285217000000000E-01      1.094219000000000E+02      2.792664000000000E-01     -1.108154000000000E+01      2.823792000000000E-01      1.204883000000000E+02      2.268372000000000E-01      2.853906000000000E+01
4851000000.000000      3.228607000000000E-01      1.099805000000000E+02      2.847443000000000E-01     -1.102246000000000E+01      2.876892000000000E-01      1.206797000000000E+02      2.241287000000000E-01      2.750977000000000E+01
4852000000.000000      3.156433000000000E-01      1.104297000000000E+02      2.896576000000000E-01     -1.099219000000000E+01      2.923279000000000E-01      1.207383000000000E+02      2.211456000000000E-01      2.594824000000000E+01
4853000000.000000      3.095703000000000E-01      1.109609000000000E+02      2.945862000000000E-01     -1.097559000000000E+01      2.974854000000000E-01      1.209570000000000E+02      2.188797000000000E-01      2.478516000000000E+01
4854000000.000000      3.020325000000000E-01      1.113555000000000E+02      2.989807000000000E-01     -1.115527000000000E+01      3.027496000000000E-01      1.209336000000000E+02      2.172699000000000E-01      2.387109000000000E+01
4855000000.000000      2.961273000000000E-01      1.119023000000000E+02      3.050690000000000E-01     -1.125732000000000E+01      3.074188000000000E-01      1.209805000000000E+02      2.124405000000000E-01      2.265039000000000E+01
4856000000.000000      2.894287000000000E-01      1.123750000000000E+02      3.094482000000000E-01     -1.137793000000000E+01      3.127441000000000E-01      1.210312000000000E+02      2.114563000000000E-01      2.152050000000000E+01
4857000000.000000      2.824249000000000E-01      1.128984000000000E+02      3.146820000000000E-01     -1.134521000000000E+01      3.169250000000000E-01      1.210976000000000E+02      2.081375000000000E-01      2.034082000000000E+01
4858000000.000000      2.742157000000000E-01      1.131758000000000E+02      3.196106000000000E-01     -1.165967000000000E+01      3.226624000000000E-01      1.211836000000000E+02      2.059326000000000E-01      1.910156000000000E+01
4859000000.000000      2.672119000000000E-01      1.137617000000000E+02      3.245850000000000E-01     -1.172266000000000E+01      3.272095000000000E-01      1.212578000000000E+02      2.033005000000000E-01      1.788379000000000E+01
4860000000.000000      2.608490000000000E-01      1.144102000000000E+02      3.292236000000000E-01     -1.197803000000000E+01      3.320160000000000E-01      1.210976000000000E+02      2.006607000000000E-01      1.677539000000000E+01
4861000000.000000      2.527161000000000E-01      1.149766000000000E+02      3.349152000000000E-01     -1.232129000000000E+01      3.369904000000000E-01      1.212031000000000E+02      1.965866000000000E-01      1.563330000000000E+01
4862000000.000000      2.454147000000000E-01      1.153555000000000E+02      3.397980000000000E-01     -1.235596000000000E+01      3.428650000000000E-01      1.210312000000000E+02      1.953735000000000E-01      1.439307000000000E+01
4863000000.000000      2.380676000000000E-01      1.159414000000000E+02      3.442993000000000E-01     -1.267969000000000E+01      3.483276000000000E-01      1.210586000000000E+02      1.931839000000000E-01      1.337305000000000E+01
4864000000.000000      2.306290000000000E-01      1.163867000000000E+02      3.493958000000000E-01     -1.283203000000000E+01      3.523560000000000E-01      1.210000000000000E+02      1.903305000000000E-01      1.221777000000000E+01
4865000000.000000      2.228851000000000E-01      1.168906000000000E+02      3.542633000000000E-01     -1.308887000000000E+01      3.583832000000000E-01      1.209258000000000E+02      1.884079000000000E-01      1.096826000000000E+01
4866000000.000000      2.149811000000000E-01      1.174844000000000E+02      3.581543000000000E-01     -1.341064000000000E+01      3.632202000000000E-01      1.206680000000000E+02      1.854782000000000E-01      9.806641000000000E+00
4867000000.000000      2.076263000000000E-01      1.180898000000000E+02      3.636017000000000E-01     -1.388135000000000E+01      3.669891000000000E-01      1.207578000000000E+02      1.832733000000000E-01      8.586914000000000E+00
4868000000.000000      2.001114000000000E-01      1.185039000000000E+02      3.694916000000000E-01     -1.413574000000000E+01      3.740082000000000E-01      1.205234000000000E+02      1.801910000000000E-01      7.550293000000000E+00
4869000000.000000      1.923218000000000E-01      1.192344000000000E+02      3.737335000000000E-01     -1.432764000000000E+01      3.785858000000000E-01      1.204805000000000E+02      1.770859000000000E-01      6.483154000000000E+00
4870000000.000000      1.849136000000000E-01      1.198164000000000E+02      3.782959000000000E-01     -1.455713000000000E+01      3.833923000000000E-01      1.202539000000000E+02      1.751099000000000E-01      5.457275000000000E+00
4871000000.000000      1.771240000000000E-01      1.204531000000000E+02      3.830261000000000E-01     -1.501172000000000E+01      3.878632000000000E-01      1.201445000000000E+02      1.725388000000000E-01      4.211670000000000E+00
4872000000.000000      1.701584000000000E-01      1.211523000000000E+02      3.873901000000000E-01     -1.524658000000000E+01      3.927917000000000E-01      1.198125000000000E+02      1.704636000000000E-01      3.239502000000000E+00
4873000000.000000      1.620865000000000E-01      1.220547000000000E+02      3.912354000000000E-01     -1.567627000000000E+01      3.974152000000000E-01      1.198281000000000E+02      1.671143000000000E-01      2.035156000000000E+00
4874000000.000000      1.546631000000000E-01      1.227461000000000E+02      3.957825000000000E-01     -1.614355000000000E+01      4.032440000000000E-01      1.195313000000000E+02      1.645432000000000E-01      9.585571000000000E-01
4875000000.000000      1.471329000000000E-01      1.235117000000000E+02      4.005890000000000E-01     -1.631348000000000E+01      4.087219000000000E-01      1.194609000000000E+02      1.615524000000000E-01      5.355835000000000E-02
4876000000.000000      1.398849000000000E-01      1.244023000000000E+02      4.050140000000000E-01     -1.691406000000000E+01      4.128265000000000E-01      1.191680000000000E+02      1.595078000000000E-01     -1.288147000000000E+00
4877000000.000000      1.320496000000000E-01      1.251484000000000E+02      4.101563000000000E-01     -1.715820000000000E+01      4.184570000000000E-01      1.189570000000000E+02      1.568375000000000E-01     -2.176758000000000E+00
4878000000.000000      1.248665000000000E-01      1.262930000000000E+02      4.149017000000000E-01     -1.754199000000000E+01      4.228973000000000E-01      1.187812000000000E+02      1.539459000000000E-01     -3.140747000000000E+00
4879000000.000000      1.176720000000000E-01      1.271172000000000E+02      4.183502000000000E-01     -1.773926000000000E+01      4.282684000000000E-01      1.184687000000000E+02      1.520767000000000E-01     -4.345215000000000E+00
4880000000.000000      1.102562000000000E-01      1.283984000000000E+02      4.231415000000000E-01     -1.823926000000000E+01      4.330444000000000E-01      1.182656000000000E+02      1.487427000000000E-01     -5.265381000000000E+00
4881000000.000000      1.037941000000000E-01      1.298437000000000E+02      4.281311000000000E-01     -1.867285000000000E+01      4.382019000000000E-01      1.180312000000000E+02      1.460419000000000E-01     -5.997314000000000E+00
4882000000.000000      9.672165000000000E-02      1.310078000000000E+02      4.328156000000000E-01     -1.919043000000000E+01      4.427032000000000E-01      1.178516000000000E+02      1.439514000000000E-01     -6.948975000000000E+00
