! Network Analyzer HP8722D
! Hewlett-Packard
! Data name: Linha & Wilkinson
! Saver's name: Rodrigo Anjos
! Comments: Teste da utilização de aquisição
continua pelo VNA HP8722D
! Time and date: 25/4/2025 16:22
!              Frequency                     S11                                                   S21                                                   S12                                                   S22
# HZ  S  MA R 50
4800000000.000000      4.345551000000000E-01      9.077343000000000E+01      1.854019000000000E-01     -6.397851000000000E+01      1.913147000000000E-01      6.957812000000000E+01      2.481613000000000E-01      7.748047000000000E+01
4801000000.000000      4.375610000000000E-01      9.106249000000000E+01      1.820984000000000E-01     -6.270702000000000E+01      1.875305000000000E-01      7.048828000000000E+01      2.530365000000000E-01      7.668359000000000E+01
4802000000.000000      4.412842000000000E-01      9.124609000000000E+01      1.790237000000000E-01     -6.152538000000000E+01      1.842880000000000E-01      7.142968000000000E+01      2.554474000000000E-01      7.543750000000000E+01
4803000000.000000      4.435120000000000E-01      9.152344000000000E+01      1.756592000000000E-01     -6.039257000000000E+01      1.805496000000000E-01      7.263672000000000E+01      2.554932000000000E-01      7.525391000000000E+01
4804000000.000000      4.458771000000000E-01      9.178125000000000E+01      1.726151000000000E-01     -5.902734000000000E+01      1.779480000000000E-01      7.369531000000000E+01      2.580414000000000E-01      7.508203000000000E+01
4805000000.000000      4.488525000000000E-01      9.204687000000000E+01      1.698761000000000E-01     -5.775000000000000E+01      1.752472000000000E-01      7.495312000000000E+01      2.606812000000000E-01      7.402344000000000E+01
4806000000.000000      4.504700000000000E-01      9.235155000000000E+01      1.672668000000000E-01     -5.624218000000000E+01      1.724548000000000E-01      7.640234000000000E+01      2.615356000000000E-01      7.314453000000000E+01
4807000000.000000      4.527893000000000E-01      9.260546000000000E+01      1.656723000000000E-01     -5.480663000000000E+01      1.702805000000000E-01      7.756640000000000E+01      2.627869000000000E-01      7.205468000000000E+01
4808000000.000000      4.537964000000000E-01      9.298437000000000E+01      1.632614000000000E-01     -5.313477000000000E+01      1.680450000000000E-01      7.912890000000000E+01      2.642212000000000E-01      7.157812000000000E+01
4809000000.000000      4.544525000000000E-01      9.333593000000000E+01      1.611328000000000E-01     -5.168554000000000E+01      1.667786000000000E-01      8.046093000000000E+01      2.664337000000000E-01      7.138281000000000E+01
4810000000.000000      4.565125000000000E-01      9.357813000000000E+01      1.600418000000000E-01     -4.986328000000000E+01      1.652603000000000E-01      8.207031000000000E+01      2.671967000000000E-01      7.025781000000000E+01
4811000000.000000      4.584656000000000E-01      9.391016000000000E+01      1.588898000000000E-01     -4.829687000000000E+01      1.641693000000000E-01      8.373827000000000E+01      2.693481000000000E-01      6.933984000000000E+01
4812000000.000000      4.593353000000000E-01      9.428125000000000E+01      1.581116000000000E-01     -4.668359000000000E+01      1.632385000000000E-01      8.513672000000000E+01      2.692566000000000E-01      6.851953000000000E+01
4813000000.000000      4.591370000000000E-01      9.458984000000000E+01      1.576462000000000E-01     -4.459765000000000E+01      1.627884000000000E-01      8.694530000000000E+01      2.707825000000000E-01      6.778125000000000E+01
4814000000.000000      4.582062000000000E-01      9.488672000000000E+01      1.570206000000000E-01     -4.296094000000000E+01      1.621246000000000E-01      8.859766000000000E+01      2.704773000000000E-01      6.749218000000000E+01
4815000000.000000      4.581757000000000E-01      9.532421000000000E+01      1.573639000000000E-01     -4.128515000000000E+01      1.620865000000000E-01      9.018749000000000E+01      2.693176000000000E-01      6.621875000000000E+01
4816000000.000000      4.590149000000000E-01      9.561718000000000E+01      1.575241000000000E-01     -3.929492000000000E+01      1.630020000000000E-01      9.207422000000000E+01      2.731781000000000E-01      6.496484000000000E+01
4817000000.000000      4.580383000000000E-01      9.605858000000000E+01      1.577911000000000E-01     -3.763086000000000E+01      1.630249000000000E-01      9.337109000000000E+01      2.716980000000000E-01      6.469140000000000E+01
4818000000.000000      4.570313000000000E-01      9.636719000000000E+01      1.591034000000000E-01     -3.586523000000000E+01      1.641769000000000E-01      9.516796000000000E+01      2.720795000000000E-01      6.393555000000000E+01
4819000000.000000      4.560089000000000E-01      9.670702000000000E+01      1.601563000000000E-01     -3.430078000000000E+01      1.652679000000000E-01      9.668358000000000E+01      2.717133000000000E-01      6.264062000000000E+01
4820000000.000000      4.538422000000000E-01      9.698828000000000E+01      1.611557000000000E-01     -3.254297000000000E+01      1.668320000000000E-01      9.816406000000000E+01      2.721252000000000E-01      6.192577000000000E+01
4821000000.000000      4.543304000000000E-01      9.737499000000000E+01      1.632996000000000E-01     -3.100293000000000E+01      1.682968000000000E-01      9.983593000000000E+01      2.729187000000000E-01      6.128320000000000E+01
4822000000.000000      4.526215000000000E-01      9.771873000000000E+01      1.646729000000000E-01     -2.943457000000000E+01      1.700745000000000E-01      1.011367000000000E+02      2.723389000000000E-01      5.977929000000000E+01
4823000000.000000      4.500580000000000E-01      9.808594000000000E+01      1.673355000000000E-01     -2.788086000000000E+01      1.721954000000000E-01      1.026367000000000E+02      2.720184000000000E-01      5.883398000000000E+01
4824000000.000000      4.486694000000000E-01      9.854296000000000E+01      1.691742000000000E-01     -2.654882000000000E+01      1.748352000000000E-01      1.038398000000000E+02      2.695923000000000E-01      5.743554000000000E+01
4825000000.000000      4.454498000000000E-01      9.884766000000000E+01      1.721573000000000E-01     -2.514453000000000E+01      1.778259000000000E-01      1.051914000000000E+02      2.711945000000000E-01      5.690820000000000E+01
4826000000.000000      4.439240000000000E-01      9.925781000000000E+01      1.751938000000000E-01     -2.394922000000000E+01      1.799164000000000E-01      1.064570000000000E+02      2.681732000000000E-01      5.603710000000000E+01
4827000000.000000      4.403229000000000E-01      9.966797000000000E+01      1.781235000000000E-01     -2.273828000000000E+01      1.831741000000000E-01      1.076445000000000E+02      2.686157000000000E-01      5.465625000000000E+01
4828000000.000000      4.387512000000000E-01      1.000078000000000E+02      1.813736000000000E-01     -2.154297000000000E+01      1.862488000000000E-01      1.087344000000000E+02      2.689514000000000E-01      5.339062000000000E+01
4829000000.000000      4.342194000000000E-01      1.005195000000000E+02      1.844711000000000E-01     -2.038281000000000E+01      1.897812000000000E-01      1.098867000000000E+02      2.668152000000000E-01      5.264453000000000E+01
4830000000.000000      4.309082000000000E-01      1.008867000000000E+02      1.881180000000000E-01     -1.944629000000000E+01      1.934280000000000E-01      1.107539000000000E+02      2.656403000000000E-01      5.171288000000000E+01
4831000000.000000      4.272003000000000E-01      1.013086000000000E+02      1.915588000000000E-01     -1.855664000000000E+01      1.970978000000000E-01      1.117109000000000E+02      2.646179000000000E-01      5.013672000000000E+01
4832000000.000000      4.237976000000000E-01      1.017226000000000E+02      1.956177000000000E-01     -1.758105000000000E+01      2.006226000000000E-01      1.126133000000000E+02      2.627106000000000E-01      4.965820000000000E+01
4833000000.000000      4.201050000000000E-01      1.020742000000000E+02      1.991272000000000E-01     -1.678613000000000E+01      2.043381000000000E-01      1.133906000000000E+02      2.610168000000000E-01      4.831445000000000E+01
4834000000.000000      4.160309000000000E-01      1.025625000000000E+02      2.037582000000000E-01     -1.595361000000000E+01      2.086182000000000E-01      1.141992000000000E+02      2.605133000000000E-01      4.715820000000000E+01
4835000000.000000      4.115601000000000E-01      1.028398000000000E+02      2.082901000000000E-01     -1.543994000000000E+01      2.127914000000000E-01      1.149101000000000E+02      2.583008000000000E-01      4.611914000000000E+01
4836000000.000000      4.076691000000000E-01      1.033945000000000E+02      2.121658000000000E-01     -1.464502000000000E+01      2.168655000000000E-01      1.156055000000000E+02      2.553711000000000E-01      4.496289000000000E+01
4837000000.000000      4.030457000000000E-01      1.039805000000000E+02      2.167435000000000E-01     -1.435107000000000E+01      2.212601000000000E-01      1.160781000000000E+02      2.542114000000000E-01      4.399023000000000E+01
4838000000.000000      3.973389000000000E-01      1.042930000000000E+02      2.213440000000000E-01     -1.361914000000000E+01      2.257614000000000E-01      1.167461000000000E+02      2.522736000000000E-01      4.282031000000000E+01
4839000000.000000      3.941498000000000E-01      1.046523000000000E+02      2.257767000000000E-01     -1.313721000000000E+01      2.300720000000000E-01      1.170976000000000E+02      2.524414000000000E-01      4.100781000000000E+01
4840000000.000000      3.880615000000000E-01      1.051641000000000E+02      2.305298000000000E-01     -1.278711000000000E+01      2.345047000000000E-01      1.176406000000000E+02      2.475967000000000E-01      4.008985000000000E+01
4841000000.000000      3.836060000000000E-01      1.056016000000000E+02      2.353210000000000E-01     -1.245068000000000E+01      2.387772000000000E-01      1.180547000000000E+02      2.488327000000000E-01      3.905078000000000E+01
4842000000.000000      3.774109000000000E-01      1.060430000000000E+02      2.397461000000000E-01     -1.212500000000000E+01      2.434540000000000E-01      1.185390000000000E+02      2.454453000000000E-01      3.782031000000000E+01
4843000000.000000      3.724670000000000E-01      1.064101000000000E+02      2.451477000000000E-01     -1.187793000000000E+01      2.486954000000000E-01      1.187656000000000E+02      2.442398000000000E-01      3.696680000000000E+01
4844000000.000000      3.666687000000000E-01      1.068867000000000E+02      2.499313000000000E-01     -1.152490000000000E+01      2.525177000000000E-01      1.192031000000000E+02      2.401352000000000E-01      3.580664000000000E+01
4845000000.000000      3.607788000000000E-01      1.073789000000000E+02      2.538757000000000E-01     -1.127637000000000E+01      2.578888000000000E-01      1.193789000000000E+02      2.389526000000000E-01      3.424023000000000E+01
4846000000.000000      3.548126000000000E-01      1.077891000000000E+02      2.593536000000000E-01     -1.118018000000000E+01      2.631683000000000E-01      1.196758000000000E+02      2.354355000000000E-01      3.363867000000000E+01
4847000000.000000      3.492889000000000E-01      1.084414000000000E+02      2.644501000000000E-01     -1.109082000000000E+01      2.677460000000000E-01      1.199180000000000E+02      2.332993000000000E-01      3.220508000000000E+01
4848000000.000000      3.430328000000000E-01      1.087148000000000E+02      2.689819000000000E-01     -1.089160000000000E+01      2.728424000000000E-01      1.201523000000000E+02      2.313843000000000E-01      3.080957000000000E+01
4849000000.000000      3.366089000000000E-01      1.090859000000000E+02      2.739105000000000E-01     -1.098242000000000E+01      2.768402000000000E-01      1.202695000000000E+02      2.279663000000000E-01      3.011816000000000E+01
4850000000.000000      3.303223000000000E-01      1.097109000000000E+02      2.783203000000000E-01     -1.089307000000000E+01      2.822876000000000E-01      1.205195000000000E+02      2.260895000000000E-01      2.869141000000000E+01
4851000000.000000      3.241425000000000E-01      1.102930000000000E+02      2.841949000000000E-01     -1.088623000000000E+01      2.869263000000000E-01      1.207773000000000E+02      2.246933000000000E-01      2.741308000000000E+01
4852000000.000000      3.179321000000000E-01      1.106719000000000E+02      2.891846000000000E-01     -1.089453000000000E+01      2.923279000000000E-01      1.208789000000000E+02      2.223587000000000E-01      2.615234000000000E+01
4853000000.000000      3.111725000000000E-01      1.111992000000000E+02      2.936554000000000E-01     -1.099902000000000E+01      2.968903000000000E-01      1.209258000000000E+02      2.190704000000000E-01      2.496094000000000E+01
4854000000.000000      3.037567000000000E-01      1.115586000000000E+02      2.990723000000000E-01     -1.121729000000000E+01      3.021088000000000E-01      1.210586000000000E+02      2.168884000000000E-01      2.386328000000000E+01
4855000000.000000      2.972870000000000E-01      1.120664000000000E+02      3.038025000000000E-01     -1.120752000000000E+01      3.066406000000000E-01      1.210664000000000E+02      2.132034000000000E-01      2.284180000000000E+01
4856000000.000000      2.905273000000000E-01      1.126758000000000E+02      3.091431000000000E-01     -1.116113000000000E+01      3.125763000000000E-01      1.211289000000000E+02      2.113266000000000E-01      2.167187000000000E+01
4857000000.000000      2.839355000000000E-01      1.131602000000000E+02      3.136597000000000E-01     -1.137646000000000E+01      3.160858000000000E-01      1.211914000000000E+02      2.079086000000000E-01      2.040918000000000E+01
4858000000.000000      2.760010000000000E-01      1.134727000000000E+02      3.195190000000000E-01     -1.154297000000000E+01      3.219452000000000E-01      1.211836000000000E+02      2.059937000000000E-01      1.902539000000000E+01
4859000000.000000      2.689514000000000E-01      1.140586000000000E+02      3.241272000000000E-01     -1.176367000000000E+01      3.268890000000000E-01      1.211836000000000E+02      2.039795000000000E-01      1.796777000000000E+01
4860000000.000000      2.622375000000000E-01      1.145937000000000E+02      3.290100000000000E-01     -1.179004000000000E+01      3.318024000000000E-01      1.210859000000000E+02      2.003784000000000E-01      1.687304000000000E+01
4861000000.000000      2.548065000000000E-01      1.151367000000000E+02      3.336639000000000E-01     -1.206592000000000E+01      3.370361000000000E-01      1.212031000000000E+02      1.971436000000000E-01      1.565820000000000E+01
4862000000.000000      2.466965000000000E-01      1.157227000000000E+02      3.385620000000000E-01     -1.236670000000000E+01      3.422241000000000E-01      1.211953000000000E+02      1.956940000000000E-01      1.448926000000000E+01
4863000000.000000      2.397308000000000E-01      1.161953000000000E+02      3.432007000000000E-01     -1.272803000000000E+01      3.477936000000000E-01      1.211641000000000E+02      1.927490000000000E-01      1.344971000000000E+01
4864000000.000000      2.321396000000000E-01      1.166523000000000E+02      3.486176000000000E-01     -1.269629000000000E+01      3.518524000000000E-01      1.211250000000000E+02      1.906433000000000E-01      1.214648000000000E+01
4865000000.000000      2.246399000000000E-01      1.171992000000000E+02      3.533478000000000E-01     -1.303125000000000E+01      3.572388000000000E-01      1.208945000000000E+02      1.884995000000000E-01      1.109717000000000E+01
4866000000.000000      2.165756000000000E-01      1.177617000000000E+02      3.573456000000000E-01     -1.324951000000000E+01      3.625183000000000E-01      1.207617000000000E+02      1.856003000000000E-01      9.932617000000000E+00
4867000000.000000      2.092285000000000E-01      1.183672000000000E+02      3.634033000000000E-01     -1.370020000000000E+01      3.662567000000000E-01      1.208711000000000E+02      1.835327000000000E-01      8.861816000000000E+00
4868000000.000000      2.019043000000000E-01      1.188867000000000E+02      3.675995000000000E-01     -1.398730000000000E+01      3.726807000000000E-01      1.206367000000000E+02      1.798172000000000E-01      7.699951000000000E+00
4869000000.000000      1.942978000000000E-01      1.195000000000000E+02      3.718262000000000E-01     -1.430029000000000E+01      3.779755000000000E-01      1.204844000000000E+02      1.770172000000000E-01      6.520264000000000E+00
4870000000.000000      1.868286000000000E-01      1.202422000000000E+02      3.777161000000000E-01     -1.438525000000000E+01      3.829956000000000E-01      1.202891000000000E+02      1.747742000000000E-01      5.560303000000000E+00
4871000000.000000      1.792297000000000E-01      1.209023000000000E+02      3.814392000000000E-01     -1.487842000000000E+01      3.874512000000000E-01      1.200898000000000E+02      1.722870000000000E-01      4.380615000000000E+00
4872000000.000000      1.716690000000000E-01      1.214219000000000E+02      3.866119000000000E-01     -1.515186000000000E+01      3.923340000000000E-01      1.198633000000000E+02      1.700974000000000E-01      3.398804000000000E+00
4873000000.000000      1.643219000000000E-01      1.222852000000000E+02      3.910370000000000E-01     -1.565039000000000E+01      3.972473000000000E-01      1.198476000000000E+02      1.666870000000000E-01      2.090088000000000E+00
4874000000.000000      1.562271000000000E-01      1.230117000000000E+02      3.950195000000000E-01     -1.604980000000000E+01      4.038544000000000E-01      1.196719000000000E+02      1.644821000000000E-01      1.083496000000000E+00
4875000000.000000      1.487808000000000E-01      1.238320000000000E+02      3.995819000000000E-01     -1.634668000000000E+01      4.079590000000000E-01      1.195351000000000E+02      1.619797000000000E-01      7.278442000000000E-02
4876000000.000000      1.419678000000000E-01      1.244844000000000E+02      4.052887000000000E-01     -1.676562000000000E+01      4.131012000000000E-01      1.193047000000000E+02      1.588821000000000E-01     -1.354065000000000E+00
4877000000.000000      1.338425000000000E-01      1.252930000000000E+02      4.091339000000000E-01     -1.714453000000000E+01      4.171295000000000E-01      1.189609000000000E+02      1.566925000000000E-01     -1.869080000000000E+00
4878000000.000000      1.268921000000000E-01      1.264961000000000E+02      4.136353000000000E-01     -1.744922000000000E+01      4.217987000000000E-01      1.188672000000000E+02      1.540146000000000E-01     -3.231445000000000E+00
4879000000.000000      1.197777000000000E-01      1.275430000000000E+02      4.169922000000000E-01     -1.781934000000000E+01      4.275665000000000E-01      1.186992000000000E+02      1.517639000000000E-01     -4.117188000000000E+00
4880000000.000000      1.119003000000000E-01      1.288125000000000E+02      4.225616000000000E-01     -1.818164000000000E+01      4.313965000000000E-01      1.182070000000000E+02      1.483994000000000E-01     -4.985107000000000E+00
4881000000.000000      1.055603000000000E-01      1.300625000000000E+02      4.281158000000000E-01     -1.856152000000000E+01      4.373932000000000E-01      1.180273000000000E+02      1.462631000000000E-01     -5.883301000000000E+00
4882000000.000000      9.825516000000000E-02      1.309062000000000E+02      4.310913000000000E-01     -1.915527000000000E+01      4.424438000000000E-01      1.178750000000000E+02      1.433182000000000E-01     -6.859619000000000E+00
