! Network Analyzer HP8722D
! Hewlett-Packard
! Data name: Linha & Wilkinson
! Saver's name: Rodrigo Anjos
! Comments: Teste da utilização de aquisição
continua pelo VNA HP8722D
! Time and date: 25/4/2025 16:50
!              Frequency                     S11                                                   S21                                                   S12                                                   S22
# HZ  S  MA R 50
4800000000.000000      4.349518000000000E-01      9.098436000000000E+01      1.856003000000000E-01     -6.406640000000000E+01      1.914139000000000E-01      6.948437000000000E+01      2.486267000000000E-01      7.743359000000000E+01
4801000000.000000      4.384003000000000E-01      9.122265000000000E+01      1.824951000000000E-01     -6.296288000000000E+01      1.876526000000000E-01      7.031640000000000E+01      2.502289000000000E-01      7.670312000000000E+01
4802000000.000000      4.413757000000000E-01      9.146875000000000E+01      1.784439000000000E-01     -6.149219000000000E+01      1.843262000000000E-01      7.135937000000000E+01      2.552948000000000E-01      7.638672000000000E+01
4803000000.000000      4.443817000000000E-01      9.171093000000000E+01      1.761246000000000E-01     -6.034961000000000E+01      1.808243000000000E-01      7.249218000000000E+01      2.548370000000000E-01      7.519140000000000E+01
4804000000.000000      4.474335000000000E-01      9.207422000000000E+01      1.723404000000000E-01     -5.908203000000000E+01      1.781311000000000E-01      7.356640000000000E+01      2.570496000000000E-01      7.489062000000000E+01
4805000000.000000      4.497223000000000E-01      9.230860000000000E+01      1.695251000000000E-01     -5.788476000000000E+01      1.749496000000000E-01      7.487890000000000E+01      2.599335000000000E-01      7.392187000000000E+01
4806000000.000000      4.516754000000000E-01      9.260157000000000E+01      1.673660000000000E-01     -5.617969000000000E+01      1.724472000000000E-01      7.622265000000000E+01      2.604523000000000E-01      7.345703000000000E+01
4807000000.000000      4.533081000000000E-01      9.287500000000000E+01      1.651230000000000E-01     -5.490429000000000E+01      1.701813000000000E-01      7.744531000000000E+01      2.630920000000000E-01      7.264062000000000E+01
4808000000.000000      4.548950000000000E-01      9.317968000000000E+01      1.627197000000000E-01     -5.337500000000000E+01      1.680527000000000E-01      7.885937000000000E+01      2.641602000000000E-01      7.178905000000000E+01
4809000000.000000      4.561768000000000E-01      9.355469000000000E+01      1.616364000000000E-01     -5.166016000000000E+01      1.667023000000000E-01      8.031250000000000E+01      2.667389000000000E-01      7.150781000000000E+01
4810000000.000000      4.575043000000000E-01      9.380859000000000E+01      1.603241000000000E-01     -5.008007000000000E+01      1.647644000000000E-01      8.199610000000000E+01      2.671051000000000E-01      7.039453000000000E+01
4811000000.000000      4.587097000000000E-01      9.410936000000000E+01      1.588593000000000E-01     -4.843359000000000E+01      1.639786000000000E-01      8.363281000000000E+01      2.673187000000000E-01      6.955468000000000E+01
4812000000.000000      4.598236000000000E-01      9.457811000000000E+01      1.577682000000000E-01     -4.661133000000000E+01      1.629028000000000E-01      8.511328000000000E+01      2.684021000000000E-01      6.867578000000000E+01
4813000000.000000      4.598083000000000E-01      9.478907000000000E+01      1.571274000000000E-01     -4.476953000000000E+01      1.624298000000000E-01      8.678905000000000E+01      2.705536000000000E-01      6.869922000000000E+01
4814000000.000000      4.596405000000000E-01      9.508204000000000E+01      1.571045000000000E-01     -4.297852000000000E+01      1.619034000000000E-01      8.836329000000000E+01      2.710114000000000E-01      6.723827000000000E+01
4815000000.000000      4.592133000000000E-01      9.555079000000000E+01      1.567383000000000E-01     -4.138281000000000E+01      1.616669000000000E-01      9.001562000000000E+01      2.696533000000000E-01      6.641015000000000E+01
4816000000.000000      4.602356000000000E-01      9.587891000000000E+01      1.570511000000000E-01     -3.950781000000000E+01      1.625671000000000E-01      9.172266000000000E+01      2.715607000000000E-01      6.561718000000000E+01
4817000000.000000      4.587402000000000E-01      9.625780000000000E+01      1.574860000000000E-01     -3.771679000000000E+01      1.628876000000000E-01      9.338282000000000E+01      2.720184000000000E-01      6.477344000000000E+01
4818000000.000000      4.578247000000000E-01      9.653906000000000E+01      1.582642000000000E-01     -3.626367000000000E+01      1.637268000000000E-01      9.499218000000000E+01      2.717133000000000E-01      6.381249000000000E+01
4819000000.000000      4.572754000000000E-01      9.690233000000000E+01      1.596832000000000E-01     -3.438086000000000E+01      1.648941000000000E-01      9.656639000000000E+01      2.706146000000000E-01      6.275976000000000E+01
4820000000.000000      4.546814000000000E-01      9.724218000000000E+01      1.604538000000000E-01     -3.248828000000000E+01      1.664047000000000E-01      9.812500000000000E+01      2.724762000000000E-01      6.199023000000000E+01
4821000000.000000      4.550629000000000E-01      9.766014000000000E+01      1.628342000000000E-01     -3.117285000000000E+01      1.678085000000000E-01      9.963280000000000E+01      2.720337000000000E-01      6.104297000000000E+01
4822000000.000000      4.528046000000000E-01      9.795311000000000E+01      1.643372000000000E-01     -2.951953000000000E+01      1.693420000000000E-01      1.010664000000000E+02      2.716675000000000E-01      5.968359000000000E+01
4823000000.000000      4.513855000000000E-01      9.837500000000000E+01      1.669235000000000E-01     -2.812500000000000E+01      1.718369000000000E-01      1.025625000000000E+02      2.710876000000000E-01      5.876758000000000E+01
4824000000.000000      4.502563000000000E-01      9.871483000000000E+01      1.691284000000000E-01     -2.664941000000000E+01      1.741943000000000E-01      1.037773000000000E+02      2.697144000000000E-01      5.822851000000000E+01
4825000000.000000      4.467621000000000E-01      9.898827000000000E+01      1.713715000000000E-01     -2.533496000000000E+01      1.771164000000000E-01      1.052031000000000E+02      2.694855000000000E-01      5.670898000000000E+01
4826000000.000000      4.446106000000000E-01      9.947655000000000E+01      1.744003000000000E-01     -2.396973000000000E+01      1.793671000000000E-01      1.063984000000000E+02      2.686157000000000E-01      5.571094000000000E+01
4827000000.000000      4.414978000000000E-01      9.984375000000000E+01      1.774979000000000E-01     -2.269238000000000E+01      1.825104000000000E-01      1.076406000000000E+02      2.690735000000000E-01      5.485546000000000E+01
4828000000.000000      4.398804000000000E-01      1.002305000000000E+02      1.806870000000000E-01     -2.150195000000000E+01      1.856537000000000E-01      1.086250000000000E+02      2.689514000000000E-01      5.370898000000000E+01
4829000000.000000      4.351654000000000E-01      1.007578000000000E+02      1.838455000000000E-01     -2.044629000000000E+01      1.893082000000000E-01      1.098047000000000E+02      2.674103000000000E-01      5.293554000000000E+01
4830000000.000000      4.329376000000000E-01      1.010625000000000E+02      1.876373000000000E-01     -1.948340000000000E+01      1.926041000000000E-01      1.108320000000000E+02      2.654266000000000E-01      5.181835000000000E+01
4831000000.000000      4.283752000000000E-01      1.015820000000000E+02      1.912384000000000E-01     -1.851660000000000E+01      1.961746000000000E-01      1.117266000000000E+02      2.641449000000000E-01      5.035546000000000E+01
4832000000.000000      4.252930000000000E-01      1.018789000000000E+02      1.948853000000000E-01     -1.754590000000000E+01      2.001572000000000E-01      1.125937000000000E+02      2.621002000000000E-01      4.972265000000000E+01
4833000000.000000      4.207764000000000E-01      1.022656000000000E+02      1.985626000000000E-01     -1.678515000000000E+01      2.039261000000000E-01      1.133555000000000E+02      2.606812000000000E-01      4.851563000000000E+01
4834000000.000000      4.172974000000000E-01      1.026992000000000E+02      2.033234000000000E-01     -1.596875000000000E+01      2.080688000000000E-01      1.141211000000000E+02      2.595978000000000E-01      4.721875000000000E+01
4835000000.000000      4.132233000000000E-01      1.030351000000000E+02      2.073669000000000E-01     -1.550049000000000E+01      2.125702000000000E-01      1.148047000000000E+02      2.570343000000000E-01      4.597070000000000E+01
4836000000.000000      4.093475000000000E-01      1.035390000000000E+02      2.115479000000000E-01     -1.470801000000000E+01      2.162399000000000E-01      1.156016000000000E+02      2.557831000000000E-01      4.498047000000000E+01
4837000000.000000      4.043732000000000E-01      1.041211000000000E+02      2.154465000000000E-01     -1.430566000000000E+01      2.203064000000000E-01      1.161172000000000E+02      2.547455000000000E-01      4.383789000000000E+01
4838000000.000000      3.991547000000000E-01      1.044844000000000E+02      2.199097000000000E-01     -1.354346000000000E+01      2.246246000000000E-01      1.166523000000000E+02      2.527771000000000E-01      4.286523000000000E+01
4839000000.000000      3.957062000000000E-01      1.048945000000000E+02      2.246933000000000E-01     -1.313721000000000E+01      2.294464000000000E-01      1.170117000000000E+02      2.518005000000000E-01      4.148438000000000E+01
4840000000.000000      3.890381000000000E-01      1.052930000000000E+02      2.298813000000000E-01     -1.264404000000000E+01      2.342911000000000E-01      1.177031000000000E+02      2.490845000000000E-01      4.003515000000000E+01
4841000000.000000      3.851318000000000E-01      1.058047000000000E+02      2.344284000000000E-01     -1.237793000000000E+01      2.381439000000000E-01      1.180664000000000E+02      2.467041000000000E-01      3.914453000000000E+01
4842000000.000000      3.791046000000000E-01      1.062852000000000E+02      2.392349000000000E-01     -1.201660000000000E+01      2.426605000000000E-01      1.185625000000000E+02      2.452087000000000E-01      3.783203000000000E+01
4843000000.000000      3.741608000000000E-01      1.066484000000000E+02      2.438278000000000E-01     -1.176807000000000E+01      2.474823000000000E-01      1.188867000000000E+02      2.434692000000000E-01      3.704883000000000E+01
4844000000.000000      3.682556000000000E-01      1.071250000000000E+02      2.488556000000000E-01     -1.158252000000000E+01      2.518921000000000E-01      1.192344000000000E+02      2.408905000000000E-01      3.568359000000000E+01
4845000000.000000      3.620911000000000E-01      1.075977000000000E+02      2.536926000000000E-01     -1.135303000000000E+01      2.571716000000000E-01      1.194922000000000E+02      2.380295000000000E-01      3.468164000000000E+01
4846000000.000000      3.565979000000000E-01      1.080156000000000E+02      2.580261000000000E-01     -1.102344000000000E+01      2.621460000000000E-01      1.197266000000000E+02      2.363968000000000E-01      3.350586000000000E+01
4847000000.000000      3.513794000000000E-01      1.085625000000000E+02      2.634277000000000E-01     -1.078613000000000E+01      2.668915000000000E-01      1.199687000000000E+02      2.327805000000000E-01      3.219336000000000E+01
4848000000.000000      3.443756000000000E-01      1.089687000000000E+02      2.678680000000000E-01     -1.100439000000000E+01      2.712860000000000E-01      1.202109000000000E+02      2.312088000000000E-01      3.115723000000000E+01
4849000000.000000      3.388367000000000E-01      1.093164000000000E+02      2.729034000000000E-01     -1.090576000000000E+01      2.762146000000000E-01      1.203867000000000E+02      2.285614000000000E-01      3.009961000000000E+01
4850000000.000000      3.322754000000000E-01      1.098906000000000E+02      2.781372000000000E-01     -1.078467000000000E+01      2.816467000000000E-01      1.206406000000000E+02      2.267303000000000E-01      2.883984000000000E+01
4851000000.000000      3.254852000000000E-01      1.105508000000000E+02      2.833710000000000E-01     -1.077393000000000E+01      2.863312000000000E-01      1.207187000000000E+02      2.233887000000000E-01      2.797168000000000E+01
4852000000.000000      3.191376000000000E-01      1.108516000000000E+02      2.881012000000000E-01     -1.075732000000000E+01      2.910309000000000E-01      1.208828000000000E+02      2.219620000000000E-01      2.641992000000000E+01
4853000000.000000      3.127899000000000E-01      1.114297000000000E+02      2.925568000000000E-01     -1.087939000000000E+01      2.962494000000000E-01      1.209414000000000E+02      2.190781000000000E-01      2.509668000000000E+01
4854000000.000000      3.057861000000000E-01      1.117070000000000E+02      2.977142000000000E-01     -1.109912000000000E+01      3.016815000000000E-01      1.209844000000000E+02      2.178192000000000E-01      2.394043000000000E+01
4855000000.000000      2.989044000000000E-01      1.122812000000000E+02      3.025970000000000E-01     -1.100830000000000E+01      3.058472000000000E-01      1.211562000000000E+02      2.132111000000000E-01      2.304492000000000E+01
4856000000.000000      2.929688000000000E-01      1.129140000000000E+02      3.074493000000000E-01     -1.113916000000000E+01      3.114624000000000E-01      1.211953000000000E+02      2.118073000000000E-01      2.181933000000000E+01
4857000000.000000      2.854767000000000E-01      1.134297000000000E+02      3.130646000000000E-01     -1.129541000000000E+01      3.153839000000000E-01      1.211758000000000E+02      2.080994000000000E-01      2.064941000000000E+01
4858000000.000000      2.777863000000000E-01      1.136445000000000E+02      3.177795000000000E-01     -1.141650000000000E+01      3.210449000000000E-01      1.212226000000000E+02      2.060242000000000E-01      1.933105000000000E+01
4859000000.000000      2.707520000000000E-01      1.142695000000000E+02      3.233490000000000E-01     -1.171436000000000E+01      3.261414000000000E-01      1.213242000000000E+02      2.037354000000000E-01      1.815722000000000E+01
4860000000.000000      2.644043000000000E-01      1.148750000000000E+02      3.281097000000000E-01     -1.173096000000000E+01      3.314667000000000E-01      1.211680000000000E+02      2.009048000000000E-01      1.712402000000000E+01
4861000000.000000      2.563324000000000E-01      1.153672000000000E+02      3.326111000000000E-01     -1.211816000000000E+01      3.358765000000000E-01      1.212031000000000E+02      1.979980000000000E-01      1.583496000000000E+01
4862000000.000000      2.488708000000000E-01      1.158906000000000E+02      3.380280000000000E-01     -1.207422000000000E+01      3.412933000000000E-01      1.213047000000000E+02      1.958694000000000E-01      1.458154000000000E+01
4863000000.000000      2.417679000000000E-01      1.162969000000000E+02      3.419952000000000E-01     -1.247119000000000E+01      3.462067000000000E-01      1.210820000000000E+02      1.939163000000000E-01      1.362695000000000E+01
4864000000.000000      2.346573000000000E-01      1.168281000000000E+02      3.472900000000000E-01     -1.269775000000000E+01      3.515320000000000E-01      1.211562000000000E+02      1.912766000000000E-01      1.242139000000000E+01
4865000000.000000      2.266006000000000E-01      1.173945000000000E+02      3.515625000000000E-01     -1.287500000000000E+01      3.563080000000000E-01      1.208984000000000E+02      1.886978000000000E-01      1.138184000000000E+01
4866000000.000000      2.189560000000000E-01      1.178242000000000E+02      3.566589000000000E-01     -1.339258000000000E+01      3.617554000000000E-01      1.208047000000000E+02      1.860580000000000E-01      1.010449000000000E+01
4867000000.000000      2.112579000000000E-01      1.186250000000000E+02      3.619232000000000E-01     -1.367285000000000E+01      3.663788000000000E-01      1.208476000000000E+02      1.832886000000000E-01      8.968750000000000E+00
4868000000.000000      2.040253000000000E-01      1.190664000000000E+02      3.665161000000000E-01     -1.385693000000000E+01      3.712311000000000E-01      1.207187000000000E+02      1.804504000000000E-01      8.007324000000000E+00
4869000000.000000      1.960449000000000E-01      1.197266000000000E+02      3.710938000000000E-01     -1.424951000000000E+01      3.767395000000000E-01      1.205117000000000E+02      1.778412000000000E-01      6.749512000000000E+00
4870000000.000000      1.886139000000000E-01      1.204180000000000E+02      3.759460000000000E-01     -1.428516000000000E+01      3.820801000000000E-01      1.203945000000000E+02      1.758804000000000E-01      5.789795000000000E+00
4871000000.000000      1.809769000000000E-01      1.210312000000000E+02      3.809204000000000E-01     -1.484961000000000E+01      3.858795000000000E-01      1.202851000000000E+02      1.720886000000000E-01      4.655273000000000E+00
4872000000.000000      1.740875000000000E-01      1.215937000000000E+02      3.846588000000000E-01     -1.513135000000000E+01      3.908997000000000E-01      1.199883000000000E+02      1.707077000000000E-01      3.713379000000000E+00
4873000000.000000      1.660004000000000E-01      1.223906000000000E+02      3.891296000000000E-01     -1.559521000000000E+01      3.960114000000000E-01      1.197852000000000E+02      1.668472000000000E-01      2.305664000000000E+00
4874000000.000000      1.582413000000000E-01      1.230586000000000E+02      3.943176000000000E-01     -1.594971000000000E+01      4.025574000000000E-01      1.197383000000000E+02      1.654053000000000E-01      1.455688000000000E+00
4875000000.000000      1.507874000000000E-01      1.239570000000000E+02      3.984070000000000E-01     -1.618164000000000E+01      4.061737000000000E-01      1.196133000000000E+02      1.618729000000000E-01      2.925110000000000E-01
4876000000.000000      1.437302000000000E-01      1.247070000000000E+02      4.040985000000000E-01     -1.660937000000000E+01      4.115753000000000E-01      1.192773000000000E+02      1.594543000000000E-01     -9.269714000000000E-01
4877000000.000000      1.355896000000000E-01      1.254922000000000E+02      4.080658000000000E-01     -1.696289000000000E+01      4.159851000000000E-01      1.190742000000000E+02      1.568909000000000E-01     -1.819641000000000E+00
4878000000.000000      1.284866000000000E-01      1.266875000000000E+02      4.128265000000000E-01     -1.736816000000000E+01      4.207458000000000E-01      1.190312000000000E+02      1.547699000000000E-01     -2.901855000000000E+00
4879000000.000000      1.216660000000000E-01      1.275703000000000E+02      4.156189000000000E-01     -1.770801000000000E+01      4.267426000000000E-01      1.186211000000000E+02      1.519928000000000E-01     -3.764282000000000E+00
4880000000.000000      1.141434000000000E-01      1.284844000000000E+02      4.216309000000000E-01     -1.827441000000000E+01      4.313812000000000E-01      1.183125000000000E+02      1.487656000000000E-01     -4.809326000000000E+00
4881000000.000000      1.071434000000000E-01      1.301484000000000E+02      4.255371000000000E-01     -1.839941000000000E+01      4.362793000000000E-01      1.181641000000000E+02      1.466522000000000E-01     -5.656738000000000E+00
4882000000.000000      1.000175000000000E-01      1.310859000000000E+02      4.307404000000000E-01     -1.909570000000000E+01      4.420319000000000E-01      1.178398000000000E+02      1.433868000000000E-01     -6.519043000000000E+00
