! Network Analyzer HP8722D
! Hewlett-Packard
! Data name: Linha & Wilkinson
! Saver's name: Rodrigo Anjos
! Comments: Teste da utilização de aquisição
continua pelo VNA HP8722D
! Time and date: 25/4/2025 15:21
!              Frequency                     S11                                                   S21                                                   S12                                                   S22
# HZ  S  MA R 50
4800000000.000000      4.402771000000000E-01      9.114061000000000E+01      1.847000000000000E-01     -6.391211000000000E+01      1.892776000000000E-01      6.944140000000000E+01      2.486496000000000E-01      7.657031000000000E+01
4801000000.000000      4.430084000000000E-01      9.148829000000000E+01      1.810150000000000E-01     -6.264257000000000E+01      1.858368000000000E-01      7.025000000000000E+01      2.527161000000000E-01      7.624218000000000E+01
4802000000.000000      4.462585000000000E-01      9.168749000000000E+01      1.771851000000000E-01     -6.164063000000000E+01      1.826096000000000E-01      7.123828000000000E+01      2.568970000000000E-01      7.542187000000000E+01
4803000000.000000      4.478149000000000E-01      9.197266000000000E+01      1.740036000000000E-01     -6.032617000000000E+01      1.792526000000000E-01      7.241796000000000E+01      2.565308000000000E-01      7.472265000000000E+01
4804000000.000000      4.513855000000000E-01      9.229687000000000E+01      1.713104000000000E-01     -5.899804000000000E+01      1.763840000000000E-01      7.352344000000000E+01      2.586060000000000E-01      7.462500000000000E+01
4805000000.000000      4.543304000000000E-01      9.246874000000000E+01      1.683807000000000E-01     -5.773438000000000E+01      1.733398000000000E-01      7.471874000000000E+01      2.608795000000000E-01      7.349609000000000E+01
4806000000.000000      4.556732000000000E-01      9.272655000000000E+01      1.661224000000000E-01     -5.629296000000000E+01      1.707687000000000E-01      7.623437000000000E+01      2.630615000000000E-01      7.331249000000000E+01
4807000000.000000      4.579468000000000E-01      9.306250000000000E+01      1.644516000000000E-01     -5.488867000000000E+01      1.686859000000000E-01      7.732031000000000E+01      2.620239000000000E-01      7.251562000000000E+01
4808000000.000000      4.594574000000000E-01      9.331640000000000E+01      1.618958000000000E-01     -5.326366000000000E+01      1.663971000000000E-01      7.887500000000000E+01      2.628021000000000E-01      7.167578000000000E+01
4809000000.000000      4.607849000000000E-01      9.374609000000000E+01      1.599045000000000E-01     -5.179688000000000E+01      1.654968000000000E-01      8.029688000000000E+01      2.671356000000000E-01      7.130468000000000E+01
4810000000.000000      4.623718000000000E-01      9.392578000000000E+01      1.590118000000000E-01     -4.986914000000000E+01      1.637497000000000E-01      8.189844000000000E+01      2.668915000000000E-01      6.997265000000000E+01
4811000000.000000      4.628906000000000E-01      9.433594000000000E+01      1.571579000000000E-01     -4.828906000000000E+01      1.625671000000000E-01      8.352734000000000E+01      2.684479000000000E-01      6.974609000000000E+01
4812000000.000000      4.640045000000000E-01      9.471483000000000E+01      1.568069000000000E-01     -4.652734000000000E+01      1.619263000000000E-01      8.500391000000000E+01      2.693634000000000E-01      6.860937000000000E+01
4813000000.000000      4.643860000000000E-01      9.505468000000000E+01      1.561279000000000E-01     -4.491796000000000E+01      1.613388000000000E-01      8.675390000000000E+01      2.720947000000000E-01      6.801562000000000E+01
4814000000.000000      4.632874000000000E-01      9.525782000000000E+01      1.557236000000000E-01     -4.301171000000000E+01      1.608353000000000E-01      8.837500000000000E+01      2.710876000000000E-01      6.705468000000000E+01
4815000000.000000      4.636993000000000E-01      9.566797000000000E+01      1.553574000000000E-01     -4.129296000000000E+01      1.606522000000000E-01      8.993359000000000E+01      2.700958000000000E-01      6.589844000000000E+01
4816000000.000000      4.649506000000000E-01      9.600780000000000E+01      1.565247000000000E-01     -3.941015000000000E+01      1.613235000000000E-01      9.171875000000000E+01      2.726135000000000E-01      6.523046000000000E+01
4817000000.000000      4.636688000000000E-01      9.650391000000000E+01      1.564102000000000E-01     -3.777148000000000E+01      1.614838000000000E-01      9.328125000000000E+01      2.713623000000000E-01      6.477734000000000E+01
4818000000.000000      4.629364000000000E-01      9.679296000000000E+01      1.571274000000000E-01     -3.614648000000000E+01      1.625366000000000E-01      9.494921000000000E+01      2.736053000000000E-01      6.386132000000000E+01
4819000000.000000      4.622650000000000E-01      9.714453000000000E+01      1.584549000000000E-01     -3.425976000000000E+01      1.636047000000000E-01      9.661327000000000E+01      2.713623000000000E-01      6.281445000000000E+01
4820000000.000000      4.594269000000000E-01      9.745703000000000E+01      1.597824000000000E-01     -3.258594000000000E+01      1.654358000000000E-01      9.798437000000000E+01      2.723999000000000E-01      6.170703000000000E+01
4821000000.000000      4.602661000000000E-01      9.778515000000000E+01      1.619415000000000E-01     -3.121289000000000E+01      1.665649000000000E-01      9.951561000000000E+01      2.735291000000000E-01      6.080664000000000E+01
4822000000.000000      4.575195000000000E-01      9.810547000000000E+01      1.634445000000000E-01     -2.950195000000000E+01      1.687469000000000E-01      1.009727000000000E+02      2.715454000000000E-01      5.964648000000000E+01
4823000000.000000      4.562073000000000E-01      9.846874000000000E+01      1.658325000000000E-01     -2.815039000000000E+01      1.708145000000000E-01      1.025391000000000E+02      2.708893000000000E-01      5.877930000000000E+01
4824000000.000000      4.544220000000000E-01      9.888672000000000E+01      1.677322000000000E-01     -2.683008000000000E+01      1.730118000000000E-01      1.037266000000000E+02      2.709656000000000E-01      5.782227000000000E+01
4825000000.000000      4.512329000000000E-01      9.928514000000000E+01      1.705475000000000E-01     -2.539648000000000E+01      1.762161000000000E-01      1.050742000000000E+02      2.716370000000000E-01      5.674805000000000E+01
4826000000.000000      4.496918000000000E-01      9.966797000000000E+01      1.737213000000000E-01     -2.409375000000000E+01      1.787262000000000E-01      1.062734000000000E+02      2.692413000000000E-01      5.573242000000000E+01
4827000000.000000      4.468384000000000E-01      1.000391000000000E+02      1.765671000000000E-01     -2.279004000000000E+01      1.815643000000000E-01      1.074101000000000E+02      2.708130000000000E-01      5.443554000000000E+01
4828000000.000000      4.445038000000000E-01      1.004883000000000E+02      1.794891000000000E-01     -2.158594000000000E+01      1.847305000000000E-01      1.085039000000000E+02      2.691345000000000E-01      5.362305000000000E+01
4829000000.000000      4.407196000000000E-01      1.009336000000000E+02      1.829376000000000E-01     -2.038867000000000E+01      1.882477000000000E-01      1.095937000000000E+02      2.686157000000000E-01      5.267968000000000E+01
4830000000.000000      4.375763000000000E-01      1.013086000000000E+02      1.862106000000000E-01     -1.935449000000000E+01      1.915741000000000E-01      1.105547000000000E+02      2.665863000000000E-01      5.161914000000000E+01
4831000000.000000      4.332581000000000E-01      1.017109000000000E+02      1.902466000000000E-01     -1.865820000000000E+01      1.952515000000000E-01      1.115547000000000E+02      2.650146000000000E-01      5.036133000000000E+01
4832000000.000000      4.302979000000000E-01      1.021953000000000E+02      1.935806000000000E-01     -1.768457000000000E+01      1.986008000000000E-01      1.124180000000000E+02      2.635651000000000E-01      4.936718000000000E+01
4833000000.000000      4.262695000000000E-01      1.025039000000000E+02      1.977844000000000E-01     -1.701465000000000E+01      2.025604000000000E-01      1.131719000000000E+02      2.596130000000000E-01      4.819726000000000E+01
4834000000.000000      4.221802000000000E-01      1.029922000000000E+02      2.019272000000000E-01     -1.626465000000000E+01      2.065048000000000E-01      1.139180000000000E+02      2.597656000000000E-01      4.706250000000000E+01
4835000000.000000      4.184875000000000E-01      1.033867000000000E+02      2.063675000000000E-01     -1.539893000000000E+01      2.109985000000000E-01      1.146680000000000E+02      2.578125000000000E-01      4.616406000000000E+01
4836000000.000000      4.142303000000000E-01      1.038672000000000E+02      2.104416000000000E-01     -1.480859000000000E+01      2.147446000000000E-01      1.154258000000000E+02      2.558289000000000E-01      4.497656000000000E+01
4837000000.000000      4.098663000000000E-01      1.043437000000000E+02      2.139282000000000E-01     -1.448438000000000E+01      2.190857000000000E-01      1.158672000000000E+02      2.559814000000000E-01      4.404687000000000E+01
4838000000.000000      4.038696000000000E-01      1.047148000000000E+02      2.194290000000000E-01     -1.378271000000000E+01      2.231064000000000E-01      1.164648000000000E+02      2.526245000000000E-01      4.304688000000000E+01
4839000000.000000      4.010010000000000E-01      1.052187000000000E+02      2.238007000000000E-01     -1.326074000000000E+01      2.277222000000000E-01      1.169570000000000E+02      2.522125000000000E-01      4.132031000000000E+01
4840000000.000000      3.951111000000000E-01      1.055273000000000E+02      2.281342000000000E-01     -1.285840000000000E+01      2.322998000000000E-01      1.173516000000000E+02      2.488861000000000E-01      4.016211000000000E+01
4841000000.000000      3.905640000000000E-01      1.061133000000000E+02      2.329941000000000E-01     -1.262061000000000E+01      2.369537000000000E-01      1.178047000000000E+02      2.483444000000000E-01      3.924023000000000E+01
4842000000.000000      3.846436000000000E-01      1.065547000000000E+02      2.373581000000000E-01     -1.208496000000000E+01      2.409286000000000E-01      1.183555000000000E+02      2.451172000000000E-01      3.818945000000000E+01
4843000000.000000      3.794861000000000E-01      1.068594000000000E+02      2.427444000000000E-01     -1.190527000000000E+01      2.461700000000000E-01      1.186250000000000E+02      2.435455000000000E-01      3.703516000000000E+01
4844000000.000000      3.738098000000000E-01      1.073086000000000E+02      2.464371000000000E-01     -1.180225000000000E+01      2.504578000000000E-01      1.189609000000000E+02      2.404480000000000E-01      3.594727000000000E+01
4845000000.000000      3.684082000000000E-01      1.079414000000000E+02      2.517395000000000E-01     -1.152197000000000E+01      2.552185000000000E-01      1.192344000000000E+02      2.396393000000000E-01      3.461523000000000E+01
4846000000.000000      3.625031000000000E-01      1.083476000000000E+02      2.570953000000000E-01     -1.128320000000000E+01      2.602539000000000E-01      1.195273000000000E+02      2.377625000000000E-01      3.365039000000000E+01
4847000000.000000      3.571472000000000E-01      1.088984000000000E+02      2.615662000000000E-01     -1.107861000000000E+01      2.654114000000000E-01      1.197109000000000E+02      2.327957000000000E-01      3.228711000000000E+01
4848000000.000000      3.505554000000000E-01      1.093203000000000E+02      2.662354000000000E-01     -1.100439000000000E+01      2.695465000000000E-01      1.199531000000000E+02      2.328033000000000E-01      3.139551000000000E+01
4849000000.000000      3.443604000000000E-01      1.096601000000000E+02      2.716064000000000E-01     -1.103760000000000E+01      2.745361000000000E-01      1.201133000000000E+02      2.284012000000000E-01      3.016894000000000E+01
4850000000.000000      3.378754000000000E-01      1.101836000000000E+02      2.763672000000000E-01     -1.103467000000000E+01      2.794342000000000E-01      1.202891000000000E+02      2.262726000000000E-01      2.915136000000000E+01
4851000000.000000      3.316803000000000E-01      1.107813000000000E+02      2.816315000000000E-01     -1.111963000000000E+01      2.839508000000000E-01      1.204609000000000E+02      2.238235000000000E-01      2.782422000000000E+01
4852000000.000000      3.254852000000000E-01      1.112539000000000E+02      2.859650000000000E-01     -1.108398000000000E+01      2.892761000000000E-01      1.206250000000000E+02      2.222595000000000E-01      2.662109000000000E+01
4853000000.000000      3.188934000000000E-01      1.117617000000000E+02      2.903595000000000E-01     -1.099365000000000E+01      2.936859000000000E-01      1.206602000000000E+02      2.179947000000000E-01      2.559765000000000E+01
4854000000.000000      3.115082000000000E-01      1.120508000000000E+02      2.957611000000000E-01     -1.134521000000000E+01      2.989349000000000E-01      1.206992000000000E+02      2.178421000000000E-01      2.430371000000000E+01
4855000000.000000      3.050385000000000E-01      1.127500000000000E+02      3.007660000000000E-01     -1.130664000000000E+01      3.041229000000000E-01      1.207734000000000E+02      2.136688000000000E-01      2.316601000000000E+01
4856000000.000000      2.988586000000000E-01      1.132070000000000E+02      3.059998000000000E-01     -1.142041000000000E+01      3.090363000000000E-01      1.209258000000000E+02      2.121048000000000E-01      2.208789000000000E+01
4857000000.000000      2.920837000000000E-01      1.137187000000000E+02      3.110809000000000E-01     -1.151270000000000E+01      3.130493000000000E-01      1.209062000000000E+02      2.079849000000000E-01      2.087402000000000E+01
4858000000.000000      2.839508000000000E-01      1.140508000000000E+02      3.159485000000000E-01     -1.164453000000000E+01      3.190155000000000E-01      1.209766000000000E+02      2.062836000000000E-01      1.956250000000000E+01
4859000000.000000      2.776031000000000E-01      1.145937000000000E+02      3.209229000000000E-01     -1.185156000000000E+01      3.233337000000000E-01      1.209727000000000E+02      2.039413000000000E-01      1.843066000000000E+01
4860000000.000000      2.705383000000000E-01      1.151641000000000E+02      3.257294000000000E-01     -1.182031000000000E+01      3.283081000000000E-01      1.209023000000000E+02      2.006912000000000E-01      1.754102000000000E+01
4861000000.000000      2.628479000000000E-01      1.157539000000000E+02      3.301849000000000E-01     -1.224023000000000E+01      3.338776000000000E-01      1.208984000000000E+02      1.974869000000000E-01      1.629102000000000E+01
4862000000.000000      2.555237000000000E-01      1.162422000000000E+02      3.357239000000000E-01     -1.239258000000000E+01      3.388062000000000E-01      1.209453000000000E+02      1.961594000000000E-01      1.497949000000000E+01
4863000000.000000      2.476807000000000E-01      1.166914000000000E+02      3.392487000000000E-01     -1.279102000000000E+01      3.434296000000000E-01      1.209258000000000E+02      1.929703000000000E-01      1.414453000000000E+01
4864000000.000000      2.410049000000000E-01      1.172969000000000E+02      3.455353000000000E-01     -1.296826000000000E+01      3.479462000000000E-01      1.207578000000000E+02      1.905670000000000E-01      1.283887000000000E+01
4865000000.000000      2.334442000000000E-01      1.178437000000000E+02      3.496399000000000E-01     -1.311768000000000E+01      3.538666000000000E-01      1.206914000000000E+02      1.888885000000000E-01      1.179346000000000E+01
4866000000.000000      2.259903000000000E-01      1.182031000000000E+02      3.543091000000000E-01     -1.337598000000000E+01      3.588715000000000E-01      1.205391000000000E+02      1.861115000000000E-01      1.057422000000000E+01
4867000000.000000      2.182541000000000E-01      1.189101000000000E+02      3.588562000000000E-01     -1.380713000000000E+01      3.627167000000000E-01      1.205625000000000E+02      1.834412000000000E-01      9.667969000000000E+00
4868000000.000000      2.112198000000000E-01      1.193672000000000E+02      3.634491000000000E-01     -1.410547000000000E+01      3.687439000000000E-01      1.204688000000000E+02      1.801224000000000E-01      8.510254000000000E+00
4869000000.000000      2.034073000000000E-01      1.201289000000000E+02      3.678284000000000E-01     -1.438428000000000E+01      3.736572000000000E-01      1.203281000000000E+02      1.775436000000000E-01      7.289307000000000E+00
4870000000.000000      1.960220000000000E-01      1.206367000000000E+02      3.732910000000000E-01     -1.457764000000000E+01      3.788452000000000E-01      1.202070000000000E+02      1.751251000000000E-01      6.400879000000000E+00
4871000000.000000      1.885147000000000E-01      1.214180000000000E+02      3.776093000000000E-01     -1.504053000000000E+01      3.829956000000000E-01      1.198828000000000E+02      1.725464000000000E-01      5.366699000000000E+00
4872000000.000000      1.809845000000000E-01      1.220000000000000E+02      3.826447000000000E-01     -1.516846000000000E+01      3.876801000000000E-01      1.196992000000000E+02      1.704712000000000E-01      4.309326000000000E+00
4873000000.000000      1.736221000000000E-01      1.227383000000000E+02      3.869171000000000E-01     -1.567480000000000E+01      3.928375000000000E-01      1.195313000000000E+02      1.669693000000000E-01      2.945679000000000E+00
4874000000.000000      1.660995000000000E-01      1.234766000000000E+02      3.906403000000000E-01     -1.607910000000000E+01      3.993225000000000E-01      1.194258000000000E+02      1.652679000000000E-01      1.945923000000000E+00
4875000000.000000      1.587372000000000E-01      1.242148000000000E+02      3.956757000000000E-01     -1.646875000000000E+01      4.018250000000000E-01      1.193476000000000E+02      1.620255000000000E-01      1.073914000000000E+00
4876000000.000000      1.516418000000000E-01      1.249258000000000E+02      4.003601000000000E-01     -1.671094000000000E+01      4.083252000000000E-01      1.190469000000000E+02      1.599579000000000E-01     -2.018738000000000E-01
4877000000.000000      1.439362000000000E-01      1.256211000000000E+02      4.040527000000000E-01     -1.720117000000000E+01      4.126892000000000E-01      1.188242000000000E+02      1.568146000000000E-01     -9.585571000000000E-01
4878000000.000000      1.365433000000000E-01      1.267344000000000E+02      4.096680000000000E-01     -1.745410000000000E+01      4.177094000000000E-01      1.186797000000000E+02      1.542587000000000E-01     -2.099854000000000E+00
4879000000.000000      1.296463000000000E-01      1.276601000000000E+02      4.130096000000000E-01     -1.780762000000000E+01      4.230499000000000E-01      1.183555000000000E+02      1.518402000000000E-01     -2.908691000000000E+00
4880000000.000000      1.223145000000000E-01      1.286562000000000E+02      4.171295000000000E-01     -1.848340000000000E+01      4.271393000000000E-01      1.181016000000000E+02      1.484146000000000E-01     -4.031982000000000E+00
4881000000.000000      1.156387000000000E-01      1.301016000000000E+02      4.225464000000000E-01     -1.849023000000000E+01      4.324188000000000E-01      1.179609000000000E+02      1.465683000000000E-01     -4.791504000000000E+00
4882000000.000000      1.087799000000000E-01      1.309297000000000E+02      4.271240000000000E-01     -1.910156000000000E+01      4.375458000000000E-01      1.176406000000000E+02      1.434097000000000E-01     -5.476807000000000E+00
