! Network Analyzer HP8722D
! Hewlett-Packard
! Data name: Linha & Wilkinson
! Saver's name: Rodrigo Anjos
! Comments: Teste da utilizacao de aquisicao continua pelo VNA HP8722D
! Time and date: 25/4/2025 15:16
!              Frequency                     S11                                                   S21                                                   S12                                                   S22
# HZ  S  MA R 50
4800000000.000000      1.599121000000000E-01      4.645898000000000E+01      5.743103000000000E-01     -1.371328000000000E+02      5.365906000000000E-01     -1.326875000000000E+02      4.009552000000000E-01     -1.029258000000000E+02
4801000000.000000      1.622543000000000E-01      4.688672000000000E+01      5.759583000000000E-01     -1.378438000000000E+02      5.369568000000000E-01     -1.335391000000000E+02      3.984375000000000E-01     -1.030547000000000E+02
4802000000.000000      1.641541000000000E-01      4.732031000000000E+01      5.774536000000000E-01     -1.386016000000000E+02      5.396423000000000E-01     -1.341797000000000E+02      3.948822000000000E-01     -1.033398000000000E+02
4803000000.000000      1.664734000000000E-01      4.768164000000000E+01      5.802917000000000E-01     -1.391953000000000E+02      5.387878000000000E-01     -1.348750000000000E+02      3.927765000000000E-01     -1.037695000000000E+02
4804000000.000000      1.684189000000000E-01      4.792578000000000E+01      5.795593000000000E-01     -1.398359000000000E+02      5.421143000000000E-01     -1.356797000000000E+02      3.900299000000000E-01     -1.040000000000000E+02
4805000000.000000      1.714172000000000E-01      4.824609000000000E+01      5.816650000000000E-01     -1.406094000000000E+02      5.434875000000000E-01     -1.364297000000000E+02      3.873138000000000E-01     -1.044414000000000E+02
4806000000.000000      1.737366000000000E-01      4.840429000000000E+01      5.845947000000000E-01     -1.412266000000000E+02      5.422058000000000E-01     -1.367734000000000E+02      3.854675000000000E-01     -1.047734000000000E+02
4807000000.000000      1.755142000000000E-01      4.860546000000000E+01      5.869751000000000E-01     -1.423437000000000E+02      5.450745000000000E-01     -1.377344000000000E+02      3.802795000000000E-01     -1.050664000000000E+02
4808000000.000000      1.778564000000000E-01      4.897461000000000E+01      5.872803000000000E-01     -1.426250000000000E+02      5.468445000000000E-01     -1.384063000000000E+02      3.776245000000000E-01     -1.051367000000000E+02
4809000000.000000      1.807480000000000E-01      4.916797000000000E+01      5.886841000000000E-01     -1.435937000000000E+02      5.480042000000000E-01     -1.392812000000000E+02      3.744049000000000E-01     -1.056875000000000E+02
4810000000.000000      1.828766000000000E-01      4.918750000000000E+01      5.900879000000000E-01     -1.440781000000000E+02      5.483398000000000E-01     -1.397656000000000E+02      3.719940000000000E-01     -1.058555000000000E+02
4811000000.000000      1.856918000000000E-01      4.925390000000000E+01      5.911255000000000E-01     -1.450859000000000E+02      5.508728000000000E-01     -1.405937000000000E+02      3.676758000000000E-01     -1.059961000000000E+02
4812000000.000000      1.888733000000000E-01      4.934765000000000E+01      5.923157000000000E-01     -1.458750000000000E+02      5.494995000000000E-01     -1.411406000000000E+02      3.654480000000000E-01     -1.062031000000000E+02
4813000000.000000      1.907578000000000E-01      4.928320000000000E+01      5.937195000000000E-01     -1.465312000000000E+02      5.520325000000000E-01     -1.418281000000000E+02      3.612061000000000E-01     -1.064063000000000E+02
4814000000.000000      1.931152000000000E-01      4.945703000000000E+01      5.937500000000000E-01     -1.470625000000000E+02      5.510864000000000E-01     -1.428047000000000E+02      3.575745000000000E-01     -1.067617000000000E+02
4815000000.000000      1.953506000000000E-01      4.936132000000000E+01      5.924988000000000E-01     -1.479375000000000E+02      5.513306000000000E-01     -1.434219000000000E+02      3.537292000000000E-01     -1.067344000000000E+02
4816000000.000000      1.986313000000000E-01      4.939062000000000E+01      5.947266000000000E-01     -1.485312000000000E+02      5.537109000000000E-01     -1.439141000000000E+02      3.513031000000000E-01     -1.068203000000000E+02
4817000000.000000      2.006149000000000E-01      4.939453000000000E+01      5.947266000000000E-01     -1.493281000000000E+02      5.533447000000000E-01     -1.447734000000000E+02      3.472443000000000E-01     -1.072109000000000E+02
4818000000.000000      2.033463000000000E-01      4.925586000000000E+01      5.945435000000000E-01     -1.500469000000000E+02      5.557861000000000E-01     -1.454297000000000E+02      3.430634000000000E-01     -1.072422000000000E+02
4819000000.000000      2.057953000000000E-01      4.905859000000000E+01      5.944214000000000E-01     -1.508828000000000E+02      5.525818000000000E-01     -1.461484000000000E+02      3.423309000000000E-01     -1.075156000000000E+02
4820000000.000000      2.080765000000000E-01      4.887304000000000E+01      5.949097000000000E-01     -1.515781000000000E+02      5.557251000000000E-01     -1.468516000000000E+02      3.373871000000000E-01     -1.074766000000000E+02
4821000000.000000      2.113800000000000E-01      4.890820000000000E+01      5.953979000000000E-01     -1.524765000000000E+02      5.552979000000000E-01     -1.476328000000000E+02      3.324890000000000E-01     -1.077344000000000E+02
4822000000.000000      2.129440000000000E-01      4.861718000000000E+01      5.928955000000000E-01     -1.530547000000000E+02      5.537109000000000E-01     -1.482656000000000E+02      3.302307000000000E-01     -1.076055000000000E+02
4823000000.000000      2.155533000000000E-01      4.844336000000000E+01      5.952148000000000E-01     -1.536641000000000E+02      5.525208000000000E-01     -1.490234000000000E+02      3.269348000000000E-01     -1.077187000000000E+02
4824000000.000000      2.182846000000000E-01      4.835155000000000E+01      5.944214000000000E-01     -1.545781000000000E+02      5.550842000000000E-01     -1.496250000000000E+02      3.232880000000000E-01     -1.076719000000000E+02
4825000000.000000      2.209320000000000E-01      4.794531000000000E+01      5.925903000000000E-01     -1.552734000000000E+02      5.547485000000000E-01     -1.502344000000000E+02      3.199310000000000E-01     -1.075547000000000E+02
4826000000.000000      2.228470000000000E-01      4.785352000000000E+01      5.935364000000000E-01     -1.561172000000000E+02      5.531616000000000E-01     -1.510703000000000E+02      3.167725000000000E-01     -1.075078000000000E+02
4827000000.000000      2.262726000000000E-01      4.762304000000000E+01      5.931091000000000E-01     -1.566406000000000E+02      5.518799000000000E-01     -1.517422000000000E+02      3.136749000000000E-01     -1.072109000000000E+02
4828000000.000000      2.282104000000000E-01      4.733007000000000E+01      5.936279000000000E-01     -1.574922000000000E+02      5.520325000000000E-01     -1.525234000000000E+02      3.121338000000000E-01     -1.073125000000000E+02
4829000000.000000      2.306976000000000E-01      4.720899000000000E+01      5.911255000000000E-01     -1.580312000000000E+02      5.515442000000000E-01     -1.530547000000000E+02      3.078156000000000E-01     -1.070703000000000E+02
4830000000.000000      2.330475000000000E-01      4.675195000000000E+01      5.911560000000000E-01     -1.589766000000000E+02      5.515442000000000E-01     -1.536875000000000E+02      3.040466000000000E-01     -1.070742000000000E+02
4831000000.000000      2.348099000000000E-01      4.635351000000000E+01      5.897827000000000E-01     -1.596719000000000E+02      5.503540000000000E-01     -1.545312000000000E+02      3.013458000000000E-01     -1.068594000000000E+02
4832000000.000000      2.372971000000000E-01      4.616406000000000E+01      5.899048000000000E-01     -1.602734000000000E+02      5.492859000000000E-01     -1.550703000000000E+02      2.986145000000000E-01     -1.066758000000000E+02
4833000000.000000      2.393417000000000E-01      4.581836000000000E+01      5.879822000000000E-01     -1.609141000000000E+02      5.488892000000000E-01     -1.560078000000000E+02      2.963562000000000E-01     -1.064609000000000E+02
4834000000.000000      2.409897000000000E-01      4.552148000000000E+01      5.871582000000000E-01     -1.618203000000000E+02      5.473633000000000E-01     -1.567422000000000E+02      2.929535000000000E-01     -1.062226000000000E+02
4835000000.000000      2.440796000000000E-01      4.509179000000000E+01      5.849609000000000E-01     -1.625703000000000E+02      5.478210000000000E-01     -1.572500000000000E+02      2.903290000000000E-01     -1.060234000000000E+02
4836000000.000000      2.455826000000000E-01      4.487890000000000E+01      5.845947000000000E-01     -1.632578000000000E+02      5.454712000000000E-01     -1.580234000000000E+02      2.887726000000000E-01     -1.056250000000000E+02
4837000000.000000      2.471542000000000E-01      4.453711000000000E+01      5.819702000000000E-01     -1.642109000000000E+02      5.429688000000000E-01     -1.586328000000000E+02      2.856140000000000E-01     -1.053047000000000E+02
4838000000.000000      2.489700000000000E-01      4.421094000000000E+01      5.820618000000000E-01     -1.645547000000000E+02      5.439148000000000E-01     -1.593437000000000E+02      2.841339000000000E-01     -1.051484000000000E+02
4839000000.000000      2.527771000000000E-01      4.388867000000000E+01      5.806274000000000E-01     -1.653125000000000E+02      5.422363000000000E-01     -1.600391000000000E+02      2.827301000000000E-01     -1.046367000000000E+02
4840000000.000000      2.535553000000000E-01      4.329687000000000E+01      5.788269000000000E-01     -1.660391000000000E+02      5.406189000000000E-01     -1.606875000000000E+02      2.800293000000000E-01     -1.042695000000000E+02
4841000000.000000      2.556915000000000E-01      4.303515000000000E+01      5.772705000000000E-01     -1.668203000000000E+02      5.391846000000000E-01     -1.613906000000000E+02      2.774353000000000E-01     -1.038398000000000E+02
4842000000.000000      2.573395000000000E-01      4.269727000000000E+01      5.744324000000000E-01     -1.674453000000000E+02      5.356445000000000E-01     -1.620937000000000E+02      2.767639000000000E-01     -1.035547000000000E+02
4843000000.000000      2.600403000000000E-01      4.210351000000000E+01      5.729370000000000E-01     -1.682891000000000E+02      5.351257000000000E-01     -1.627578000000000E+02      2.747040000000000E-01     -1.031016000000000E+02
4844000000.000000      2.609863000000000E-01      4.174805000000000E+01      5.704651000000000E-01     -1.689766000000000E+02      5.327148000000000E-01     -1.634375000000000E+02      2.739868000000000E-01     -1.027695000000000E+02
4845000000.000000      2.631683000000000E-01      4.144727000000000E+01      5.682068000000000E-01     -1.696563000000000E+02      5.321350000000000E-01     -1.641797000000000E+02      2.724152000000000E-01     -1.022227000000000E+02
4846000000.000000      2.649994000000000E-01      4.109961000000000E+01      5.661011000000000E-01     -1.700938000000000E+02      5.317688000000000E-01     -1.648125000000000E+02      2.709808000000000E-01     -1.019062000000000E+02
4847000000.000000      2.666931000000000E-01      4.071094000000000E+01      5.643005000000000E-01     -1.708437000000000E+02      5.292358000000000E-01     -1.653906000000000E+02      2.703094000000000E-01     -1.015664000000000E+02
4848000000.000000      2.676086000000000E-01      4.021484000000000E+01      5.610657000000000E-01     -1.717266000000000E+02      5.263977000000000E-01     -1.661484000000000E+02      2.698669000000000E-01     -1.010664000000000E+02
4849000000.000000      2.691803000000000E-01      3.979687000000000E+01      5.585632000000000E-01     -1.722109000000000E+02      5.246887000000000E-01     -1.667812000000000E+02      2.684937000000000E-01     -1.006797000000000E+02
4850000000.000000      2.710419000000000E-01      3.946680000000000E+01      5.563354000000000E-01     -1.730625000000000E+02      5.231934000000000E-01     -1.674375000000000E+02      2.691040000000000E-01     -1.001953000000000E+02
4851000000.000000      2.725983000000000E-01      3.901758000000000E+01      5.555115000000000E-01     -1.738047000000000E+02      5.213928000000000E-01     -1.681172000000000E+02      2.686310000000000E-01     -9.983984000000000E+01
4852000000.000000      2.740784000000000E-01      3.855469000000000E+01      5.511780000000000E-01     -1.742812000000000E+02      5.191650000000000E-01     -1.687109000000000E+02      2.678223000000000E-01     -9.945313000000000E+01
4853000000.000000      2.752838000000000E-01      3.815820000000000E+01      5.482788000000000E-01     -1.750156000000000E+02      5.160828000000000E-01     -1.693359000000000E+02      2.680359000000000E-01     -9.908203000000000E+01
4854000000.000000      2.763367000000000E-01      3.754687000000000E+01      5.459290000000000E-01     -1.759922000000000E+02      5.141296000000000E-01     -1.699922000000000E+02      2.678375000000000E-01     -9.862499000000000E+01
4855000000.000000      2.780304000000000E-01      3.719141000000000E+01      5.412292000000000E-01     -1.764297000000000E+02      5.130005000000000E-01     -1.706250000000000E+02      2.676697000000000E-01     -9.838280000000000E+01
4856000000.000000      2.792664000000000E-01      3.696484000000000E+01      5.380859000000000E-01     -1.771953000000000E+02      5.086975000000000E-01     -1.713125000000000E+02      2.689362000000000E-01     -9.803514000000000E+01
4857000000.000000      2.813110000000000E-01      3.650000000000000E+01      5.368042000000000E-01     -1.776797000000000E+02      5.073242000000000E-01     -1.719063000000000E+02      2.684937000000000E-01     -9.763672000000000E+01
4858000000.000000      2.815094000000000E-01      3.592382000000000E+01      5.352783000000000E-01     -1.786250000000000E+02      5.036926000000000E-01     -1.726250000000000E+02      2.696075000000000E-01     -9.750780000000000E+01
4859000000.000000      2.829895000000000E-01      3.542969000000000E+01      5.320435000000000E-01     -1.792812000000000E+02      4.999237000000000E-01     -1.732500000000000E+02      2.699127000000000E-01     -9.716406000000000E+01
4860000000.000000      2.839355000000000E-01      3.511328000000000E+01      5.284729000000000E-01     -1.796094000000000E+02      4.980316000000000E-01     -1.738359000000000E+02      2.705688000000000E-01     -9.691015000000000E+01
4861000000.000000      2.842102000000000E-01      3.473437000000000E+01      5.246582000000000E-01      1.794531000000000E+02      4.964905000000000E-01     -1.744219000000000E+02      2.718658000000000E-01     -9.667187000000000E+01
4862000000.000000      2.854919000000000E-01      3.419726000000000E+01      5.213623000000000E-01      1.789687000000000E+02      4.933777000000000E-01     -1.750703000000000E+02      2.726746000000000E-01     -9.647655000000000E+01
4863000000.000000      2.865295000000000E-01      3.381445000000000E+01      5.162964000000000E-01      1.782578000000000E+02      4.907379000000000E-01     -1.757344000000000E+02      2.738342000000000E-01     -9.637499000000000E+01
4864000000.000000      2.879181000000000E-01      3.327148000000000E+01      5.133972000000000E-01      1.777422000000000E+02      4.872742000000000E-01     -1.762578000000000E+02      2.747650000000000E-01     -9.612499000000000E+01
4865000000.000000      2.883301000000000E-01      3.280468000000000E+01      5.095520000000000E-01      1.770859000000000E+02      4.834137000000000E-01     -1.767969000000000E+02      2.760925000000000E-01     -9.576172000000000E+01
4866000000.000000      2.897949000000000E-01      3.236523000000000E+01      5.059509000000000E-01      1.765078000000000E+02      4.816589000000000E-01     -1.775000000000000E+02      2.770081000000000E-01     -9.568359000000000E+01
4867000000.000000      2.899475000000000E-01      3.196875000000000E+01      5.028381000000000E-01      1.758281000000000E+02      4.780731000000000E-01     -1.780547000000000E+02      2.781830000000000E-01     -9.557812000000000E+01
4868000000.000000      2.915802000000000E-01      3.151269000000000E+01      4.991150000000000E-01      1.752422000000000E+02      4.767609000000000E-01     -1.785781000000000E+02      2.792053000000000E-01     -9.562500000000000E+01
4869000000.000000      2.918396000000000E-01      3.123535000000000E+01      4.961090000000000E-01      1.746016000000000E+02      4.719696000000000E-01     -1.791875000000000E+02      2.804565000000000E-01     -9.568359000000000E+01
4870000000.000000      2.918701000000000E-01      3.070215000000000E+01      4.927826000000000E-01      1.741562000000000E+02      4.696503000000000E-01     -1.798594000000000E+02      2.832184000000000E-01     -9.542578000000000E+01
4871000000.000000      2.924042000000000E-01      3.023144000000000E+01      4.874573000000000E-01      1.734844000000000E+02      4.663849000000000E-01      1.796250000000000E+02      2.837067000000000E-01     -9.558985000000000E+01
4872000000.000000      2.942200000000000E-01      2.985449000000000E+01      4.845886000000000E-01      1.731406000000000E+02      4.632721000000000E-01      1.788125000000000E+02      2.852783000000000E-01     -9.563280000000000E+01
4873000000.000000      2.942352000000000E-01      2.943359000000000E+01      4.808960000000000E-01      1.724531000000000E+02      4.597321000000000E-01      1.783281000000000E+02      2.868042000000000E-01     -9.565233000000000E+01
4874000000.000000      2.939453000000000E-01      2.901758000000000E+01      4.770203000000000E-01      1.719063000000000E+02      4.581146000000000E-01      1.778984000000000E+02      2.873383000000000E-01     -9.549999000000000E+01
4875000000.000000      2.943268000000000E-01      2.839258000000000E+01      4.713135000000000E-01      1.712344000000000E+02      4.544678000000000E-01      1.772891000000000E+02      2.888336000000000E-01     -9.570704000000000E+01
4876000000.000000      2.952728000000000E-01      2.823339000000000E+01      4.689331000000000E-01      1.706797000000000E+02      4.490204000000000E-01      1.769922000000000E+02      2.911682000000000E-01     -9.596483000000000E+01
4877000000.000000      2.961884000000000E-01      2.763672000000000E+01      4.639282000000000E-01      1.701172000000000E+02      4.472961000000000E-01      1.762578000000000E+02      2.917786000000000E-01     -9.609375000000000E+01
4878000000.000000      2.958984000000000E-01      2.721386000000000E+01      4.606323000000000E-01      1.697109000000000E+02      4.435577000000000E-01      1.757813000000000E+02      2.931824000000000E-01     -9.634375000000000E+01
4879000000.000000      2.965698000000000E-01      2.699414000000000E+01      4.556427000000000E-01      1.692656000000000E+02      4.393005000000000E-01      1.751953000000000E+02      2.946625000000000E-01     -9.647264000000000E+01
4880000000.000000      2.965088000000000E-01      2.640332000000000E+01      4.543304000000000E-01      1.688125000000000E+02      4.373322000000000E-01      1.746875000000000E+02      2.959137000000000E-01     -9.665234000000000E+01
4881000000.000000      2.971039000000000E-01      2.625097000000000E+01      4.495087000000000E-01      1.683125000000000E+02      4.338837000000000E-01      1.739063000000000E+02      2.970123000000000E-01     -9.694530000000000E+01
4882000000.000000      2.977295000000000E-01      2.571875000000000E+01      4.454193000000000E-01      1.677422000000000E+02      4.311066000000000E-01      1.734062000000000E+02      2.977600000000000E-01     -9.724998000000000E+01
