! Network Analyzer HP8722D
! Hewlett-Packard
! Data name: Linha & Wilkinson
! Saver's name: Rodrigo Anjos
! Comments: Teste da utilização de aquisição
continua pelo VNA HP8722D
! Time and date: 25/4/2025 15:38
!              Frequency                     S11                                                   S21                                                   S12                                                   S22
# HZ  S  MA R 50
4800000000.000000      4.346771000000000E-01      9.057421000000000E+01      1.861191000000000E-01     -6.401172000000000E+01      1.913681000000000E-01      6.954687000000000E+01      2.494278000000000E-01      7.733593000000000E+01
4801000000.000000      4.364319000000000E-01      9.075781000000000E+01      1.827087000000000E-01     -6.275781000000000E+01      1.876221000000000E-01      7.044140000000000E+01      2.527924000000000E-01      7.642968000000000E+01
4802000000.000000      4.400330000000000E-01      9.113281000000000E+01      1.789932000000000E-01     -6.166406000000000E+01      1.842346000000000E-01      7.140625000000000E+01      2.545776000000000E-01      7.567187000000000E+01
4803000000.000000      4.420624000000000E-01      9.129297000000000E+01      1.764145000000000E-01     -6.040039000000000E+01      1.808319000000000E-01      7.270312000000000E+01      2.569733000000000E-01      7.503515000000000E+01
4804000000.000000      4.455109000000000E-01      9.164454000000000E+01      1.732330000000000E-01     -5.902538000000000E+01      1.781769000000000E-01      7.367188000000000E+01      2.581177000000000E-01      7.480469000000000E+01
4805000000.000000      4.477844000000000E-01      9.175390000000000E+01      1.702576000000000E-01     -5.768945000000000E+01      1.751785000000000E-01      7.503124000000000E+01      2.604370000000000E-01      7.389062000000000E+01
4806000000.000000      4.498901000000000E-01      9.212500000000000E+01      1.676025000000000E-01     -5.623047000000000E+01      1.724319000000000E-01      7.640625000000000E+01      2.622681000000000E-01      7.326953000000000E+01
4807000000.000000      4.517670000000000E-01      9.244141000000000E+01      1.655197000000000E-01     -5.488476000000000E+01      1.703644000000000E-01      7.752734000000000E+01      2.613678000000000E-01      7.269921000000000E+01
4808000000.000000      4.526672000000000E-01      9.276953000000000E+01      1.634750000000000E-01     -5.307617000000000E+01      1.682816000000000E-01      7.903906000000000E+01      2.627411000000000E-01      7.153125000000000E+01
4809000000.000000      4.542236000000000E-01      9.308985000000000E+01      1.618118000000000E-01     -5.157421000000000E+01      1.669159000000000E-01      8.046484000000000E+01      2.662964000000000E-01      7.144140000000000E+01
4810000000.000000      4.558716000000000E-01      9.335155000000000E+01      1.602325000000000E-01     -4.992773000000000E+01      1.654053000000000E-01      8.208593000000000E+01      2.668304000000000E-01      7.007421000000000E+01
4811000000.000000      4.573212000000000E-01      9.367188000000000E+01      1.592026000000000E-01     -4.816601000000000E+01      1.646652000000000E-01      8.367188000000000E+01      2.692108000000000E-01      6.965625000000000E+01
4812000000.000000      4.582672000000000E-01      9.401953000000000E+01      1.580887000000000E-01     -4.653125000000000E+01      1.635284000000000E-01      8.525782000000000E+01      2.698517000000000E-01      6.860546000000000E+01
4813000000.000000      4.579468000000000E-01      9.443359000000000E+01      1.575775000000000E-01     -4.453906000000000E+01      1.629486000000000E-01      8.703516000000000E+01      2.717743000000000E-01      6.813281000000000E+01
4814000000.000000      4.572449000000000E-01      9.464062000000000E+01      1.570206000000000E-01     -4.289453000000000E+01      1.623459000000000E-01      8.858593000000000E+01      2.705383000000000E-01      6.707031000000000E+01
4815000000.000000      4.568787000000000E-01      9.509766000000000E+01      1.569977000000000E-01     -4.111914000000000E+01      1.622772000000000E-01      9.032030000000000E+01      2.706604000000000E-01      6.634375000000000E+01
4816000000.000000      4.579773000000000E-01      9.536718000000000E+01      1.578903000000000E-01     -3.938086000000000E+01      1.630478000000000E-01      9.194139000000000E+01      2.710571000000000E-01      6.547265000000000E+01
4817000000.000000      4.568939000000000E-01      9.580469000000000E+01      1.579666000000000E-01     -3.778320000000000E+01      1.637878000000000E-01      9.347656000000000E+01      2.702637000000000E-01      6.482812000000000E+01
4818000000.000000      4.565582000000000E-01      9.603905000000000E+01      1.590729000000000E-01     -3.609766000000000E+01      1.645279000000000E-01      9.513672000000000E+01      2.733459000000000E-01      6.380664000000000E+01
4819000000.000000      4.558258000000000E-01      9.645311000000000E+01      1.599808000000000E-01     -3.428711000000000E+01      1.653290000000000E-01      9.669531000000000E+01      2.716675000000000E-01      6.292187000000000E+01
4820000000.000000      4.527130000000000E-01      9.676952000000000E+01      1.616135000000000E-01     -3.250195000000000E+01      1.673355000000000E-01      9.835546000000000E+01      2.714539000000000E-01      6.164257000000000E+01
4821000000.000000      4.532928000000000E-01      9.717577000000000E+01      1.634445000000000E-01     -3.102539000000000E+01      1.686020000000000E-01      9.977343000000000E+01      2.727966000000000E-01      6.094336000000000E+01
4822000000.000000      4.509583000000000E-01      9.744921000000000E+01      1.648483000000000E-01     -2.951367000000000E+01      1.703873000000000E-01      1.010781000000000E+02      2.726746000000000E-01      5.968554000000000E+01
4823000000.000000      4.493256000000000E-01      9.787889000000000E+01      1.676636000000000E-01     -2.800781000000000E+01      1.724091000000000E-01      1.027617000000000E+02      2.709808000000000E-01      5.870507000000000E+01
4824000000.000000      4.474945000000000E-01      9.833202000000000E+01      1.700439000000000E-01     -2.677246000000000E+01      1.750946000000000E-01      1.039961000000000E+02      2.704926000000000E-01      5.781250000000000E+01
4825000000.000000      4.444275000000000E-01      9.861717000000000E+01      1.725006000000000E-01     -2.530859000000000E+01      1.783371000000000E-01      1.052734000000000E+02      2.707367000000000E-01      5.695313000000000E+01
4826000000.000000      4.426727000000000E-01      9.900000000000000E+01      1.759567000000000E-01     -2.397559000000000E+01      1.804352000000000E-01      1.064648000000000E+02      2.705231000000000E-01      5.572656000000000E+01
4827000000.000000      4.396973000000000E-01      9.939453000000000E+01      1.783295000000000E-01     -2.262012000000000E+01      1.836319000000000E-01      1.076094000000000E+02      2.695770000000000E-01      5.462500000000000E+01
4828000000.000000      4.373779000000000E-01      9.980858000000000E+01      1.822739000000000E-01     -2.156641000000000E+01      1.871262000000000E-01      1.086758000000000E+02      2.674408000000000E-01      5.374804000000000E+01
4829000000.000000      4.330902000000000E-01      1.003477000000000E+02      1.853561000000000E-01     -2.043750000000000E+01      1.906052000000000E-01      1.098164000000000E+02      2.683105000000000E-01      5.251171000000000E+01
4830000000.000000      4.305878000000000E-01      1.006562000000000E+02      1.889191000000000E-01     -1.948242000000000E+01      1.936111000000000E-01      1.107773000000000E+02      2.655334000000000E-01      5.149804000000000E+01
4831000000.000000      4.259796000000000E-01      1.010039000000000E+02      1.923370000000000E-01     -1.876758000000000E+01      1.975555000000000E-01      1.117188000000000E+02      2.636719000000000E-01      5.017383000000000E+01
4832000000.000000      4.230194000000000E-01      1.015469000000000E+02      1.962891000000000E-01     -1.767773000000000E+01      2.010574000000000E-01      1.125508000000000E+02      2.635956000000000E-01      4.958398000000000E+01
4833000000.000000      4.183197000000000E-01      1.018047000000000E+02      2.004318000000000E-01     -1.671191000000000E+01      2.049408000000000E-01      1.134023000000000E+02      2.617340000000000E-01      4.828125000000000E+01
4834000000.000000      4.145966000000000E-01      1.022344000000000E+02      2.042770000000000E-01     -1.617969000000000E+01      2.091064000000000E-01      1.141094000000000E+02      2.595062000000000E-01      4.685156000000000E+01
4835000000.000000      4.105530000000000E-01      1.026328000000000E+02      2.087631000000000E-01     -1.548535000000000E+01      2.133102000000000E-01      1.148555000000000E+02      2.576447000000000E-01      4.598437000000000E+01
4836000000.000000      4.069977000000000E-01      1.031445000000000E+02      2.128067000000000E-01     -1.487158000000000E+01      2.175751000000000E-01      1.156250000000000E+02      2.554779000000000E-01      4.496679000000000E+01
4837000000.000000      4.018097000000000E-01      1.036680000000000E+02      2.166138000000000E-01     -1.443359000000000E+01      2.216492000000000E-01      1.159766000000000E+02      2.558136000000000E-01      4.359961000000000E+01
4838000000.000000      3.959045000000000E-01      1.039805000000000E+02      2.217484000000000E-01     -1.362061000000000E+01      2.259140000000000E-01      1.167070000000000E+02      2.525635000000000E-01      4.280663000000000E+01
4839000000.000000      3.931427000000000E-01      1.045234000000000E+02      2.263947000000000E-01     -1.328418000000000E+01      2.303543000000000E-01      1.171758000000000E+02      2.501221000000000E-01      4.108984000000000E+01
4840000000.000000      3.867950000000000E-01      1.048633000000000E+02      2.312927000000000E-01     -1.282666000000000E+01      2.353516000000000E-01      1.176680000000000E+02      2.486191000000000E-01      4.019336000000000E+01
4841000000.000000      3.823090000000000E-01      1.053359000000000E+02      2.360916000000000E-01     -1.251367000000000E+01      2.400131000000000E-01      1.180000000000000E+02      2.466736000000000E-01      3.905859000000000E+01
4842000000.000000      3.765259000000000E-01      1.057891000000000E+02      2.407990000000000E-01     -1.210693000000000E+01      2.439880000000000E-01      1.184336000000000E+02      2.457199000000000E-01      3.787109000000000E+01
4843000000.000000      3.710175000000000E-01      1.062031000000000E+02      2.453308000000000E-01     -1.204541000000000E+01      2.493134000000000E-01      1.187500000000000E+02      2.424393000000000E-01      3.685742000000000E+01
4844000000.000000      3.653870000000000E-01      1.066133000000000E+02      2.503052000000000E-01     -1.172412000000000E+01      2.533264000000000E-01      1.191523000000000E+02      2.397156000000000E-01      3.531054000000000E+01
4845000000.000000      3.594971000000000E-01      1.072148000000000E+02      2.546234000000000E-01     -1.141211000000000E+01      2.585449000000000E-01      1.193906000000000E+02      2.382431000000000E-01      3.437304000000000E+01
4846000000.000000      3.539124000000000E-01      1.076445000000000E+02      2.598114000000000E-01     -1.127783000000000E+01      2.637329000000000E-01      1.197461000000000E+02      2.347946000000000E-01      3.353711000000000E+01
4847000000.000000      3.483582000000000E-01      1.081367000000000E+02      2.654114000000000E-01     -1.116113000000000E+01      2.685089000000000E-01      1.199648000000000E+02      2.329559000000000E-01      3.210742000000000E+01
4848000000.000000      3.413696000000000E-01      1.085117000000000E+02      2.691650000000000E-01     -1.101270000000000E+01      2.729645000000000E-01      1.200820000000000E+02      2.316132000000000E-01      3.090234000000000E+01
4849000000.000000      3.354340000000000E-01      1.088906000000000E+02      2.747192000000000E-01     -1.117334000000000E+01      2.778473000000000E-01      1.203516000000000E+02      2.274933000000000E-01      2.943457000000000E+01
4850000000.000000      3.291016000000000E-01      1.093984000000000E+02      2.793121000000000E-01     -1.093701000000000E+01      2.829742000000000E-01      1.205625000000000E+02      2.261429000000000E-01      2.865918000000000E+01
4851000000.000000      3.229218000000000E-01      1.100234000000000E+02      2.848663000000000E-01     -1.103857000000000E+01      2.876740000000000E-01      1.205664000000000E+02      2.240219000000000E-01      2.741308000000000E+01
4852000000.000000      3.157959000000000E-01      1.104844000000000E+02      2.898254000000000E-01     -1.104443000000000E+01      2.928009000000000E-01      1.207265000000000E+02      2.213364000000000E-01      2.612500000000000E+01
4853000000.000000      3.096466000000000E-01      1.109961000000000E+02      2.940979000000000E-01     -1.102783000000000E+01      2.979736000000000E-01      1.209336000000000E+02      2.187805000000000E-01      2.473242000000000E+01
4854000000.000000      3.020020000000000E-01      1.113359000000000E+02      2.990570000000000E-01     -1.117334000000000E+01      3.027802000000000E-01      1.209570000000000E+02      2.170105000000000E-01      2.374804000000000E+01
4855000000.000000      2.959442000000000E-01      1.118984000000000E+02      3.045044000000000E-01     -1.140967000000000E+01      3.076630000000000E-01      1.209062000000000E+02      2.130356000000000E-01      2.268066000000000E+01
4856000000.000000      2.892761000000000E-01      1.123633000000000E+02      3.096466000000000E-01     -1.135059000000000E+01      3.128052000000000E-01      1.211641000000000E+02      2.113342000000000E-01      2.164160000000000E+01
4857000000.000000      2.823029000000000E-01      1.128711000000000E+02      3.150787000000000E-01     -1.147803000000000E+01      3.175049000000000E-01      1.211758000000000E+02      2.076874000000000E-01      2.023535000000000E+01
4858000000.000000      2.744446000000000E-01      1.131953000000000E+02      3.197632000000000E-01     -1.164990000000000E+01      3.227844000000000E-01      1.211055000000000E+02      2.058411000000000E-01      1.913379000000000E+01
4859000000.000000      2.675629000000000E-01      1.138281000000000E+02      3.247833000000000E-01     -1.176660000000000E+01      3.274384000000000E-01      1.211328000000000E+02      2.033081000000000E-01      1.783398000000000E+01
4860000000.000000      2.608948000000000E-01      1.143906000000000E+02      3.294983000000000E-01     -1.195215000000000E+01      3.324890000000000E-01      1.209883000000000E+02      2.010040000000000E-01      1.697851000000000E+01
4861000000.000000      2.529449000000000E-01      1.149648000000000E+02      3.340759000000000E-01     -1.226221000000000E+01      3.376923000000000E-01      1.211055000000000E+02      1.968307000000000E-01      1.555762000000000E+01
4862000000.000000      2.451935000000000E-01      1.154688000000000E+02      3.398743000000000E-01     -1.237646000000000E+01      3.434296000000000E-01      1.210742000000000E+02      1.953430000000000E-01      1.426709000000000E+01
4863000000.000000      2.380905000000000E-01      1.159180000000000E+02      3.443604000000000E-01     -1.271289000000000E+01      3.489990000000000E-01      1.209805000000000E+02      1.928940000000000E-01      1.338672000000000E+01
4864000000.000000      2.306213000000000E-01      1.163477000000000E+02      3.492279000000000E-01     -1.290088000000000E+01      3.528442000000000E-01      1.209766000000000E+02      1.904068000000000E-01      1.207373000000000E+01
4865000000.000000      2.231140000000000E-01      1.169102000000000E+02      3.544617000000000E-01     -1.316748000000000E+01      3.584137000000000E-01      1.208125000000000E+02      1.883163000000000E-01      1.091211000000000E+01
4866000000.000000      2.151489000000000E-01      1.173906000000000E+02      3.588257000000000E-01     -1.346924000000000E+01      3.631592000000000E-01      1.205820000000000E+02      1.863174000000000E-01      9.673340000000000E+00
4867000000.000000      2.079391000000000E-01      1.180312000000000E+02      3.639679000000000E-01     -1.389941000000000E+01      3.680725000000000E-01      1.206914000000000E+02      1.824493000000000E-01      8.648926000000000E+00
4868000000.000000      2.005920000000000E-01      1.187187000000000E+02      3.683167000000000E-01     -1.412305000000000E+01      3.734741000000000E-01      1.204961000000000E+02      1.798782000000000E-01      7.562500000000000E+00
4869000000.000000      1.926727000000000E-01      1.192930000000000E+02      3.729553000000000E-01     -1.442236000000000E+01      3.786011000000000E-01      1.203906000000000E+02      1.773834000000000E-01      6.481934000000000E+00
4870000000.000000      1.851501000000000E-01      1.198476000000000E+02      3.782196000000000E-01     -1.469727000000000E+01      3.835602000000000E-01      1.203281000000000E+02      1.746674000000000E-01      5.325439000000000E+00
4871000000.000000      1.775284000000000E-01      1.206172000000000E+02      3.829651000000000E-01     -1.514648000000000E+01      3.882599000000000E-01      1.202383000000000E+02      1.720886000000000E-01      4.130859000000000E+00
4872000000.000000      1.701660000000000E-01      1.211953000000000E+02      3.872223000000000E-01     -1.523291000000000E+01      3.932037000000000E-01      1.197227000000000E+02      1.700516000000000E-01      3.214844000000000E+00
4873000000.000000      1.624451000000000E-01      1.219727000000000E+02      3.916168000000000E-01     -1.573242000000000E+01      3.978424000000000E-01      1.197266000000000E+02      1.669617000000000E-01      1.837463000000000E+00
4874000000.000000      1.548157000000000E-01      1.226875000000000E+02      3.961029000000000E-01     -1.618457000000000E+01      4.041443000000000E-01      1.195937000000000E+02      1.644592000000000E-01      9.709167000000000E-01
4875000000.000000      1.474609000000000E-01      1.234844000000000E+02      4.004211000000000E-01     -1.640332000000000E+01      4.080963000000000E-01      1.193906000000000E+02      1.617279000000000E-01     -1.002502000000000E-01
4876000000.000000      1.402740000000000E-01      1.243516000000000E+02      4.058838000000000E-01     -1.679492000000000E+01      4.143219000000000E-01      1.191914000000000E+02      1.590576000000000E-01     -1.376038000000000E+00
4877000000.000000      1.318893000000000E-01      1.252500000000000E+02      4.096375000000000E-01     -1.721582000000000E+01      4.190063000000000E-01      1.190039000000000E+02      1.569138000000000E-01     -2.282471000000000E+00
4878000000.000000      1.249313000000000E-01      1.263398000000000E+02      4.146881000000000E-01     -1.758789000000000E+01      4.239197000000000E-01      1.187773000000000E+02      1.543808000000000E-01     -3.416748000000000E+00
4879000000.000000      1.177940000000000E-01      1.272773000000000E+02      4.183044000000000E-01     -1.794141000000000E+01      4.279938000000000E-01      1.183750000000000E+02      1.517792000000000E-01     -4.375488000000000E+00
4880000000.000000      1.101761000000000E-01      1.284531000000000E+02      4.228516000000000E-01     -1.846191000000000E+01      4.326630000000000E-01      1.183203000000000E+02      1.483383000000000E-01     -5.391602000000000E+00
4881000000.000000      1.034431000000000E-01      1.300781000000000E+02      4.277039000000000E-01     -1.860742000000000E+01      4.392700000000000E-01      1.178984000000000E+02      1.461487000000000E-01     -6.085205000000000E+00
4882000000.000000      9.643173000000000E-02      1.311563000000000E+02      4.321594000000000E-01     -1.923926000000000E+01      4.443054000000000E-01      1.176601000000000E+02      1.426239000000000E-01     -6.980469000000000E+00
