! Network Analyzer HP8722D
! Hewlett-Packard
! Data name: Linha & Wilkinson
! Saver's name: Rodrigo Anjos
! Comments: Teste da utilização de aquisição
continua pelo VNA HP8722D
! Time and date: 25/4/2025 15:28
!              Frequency                     S11                                                   S21                                                   S12                                                   S22
# HZ  S  MA R 50
4800000000.000000      4.330750000000000E-01      9.041796000000000E+01      1.855545000000000E-01     -6.380077000000000E+01      1.913223000000000E-01      6.966015000000000E+01      2.487335000000000E-01      7.705468000000000E+01
4801000000.000000      4.362946000000000E-01      9.063280000000000E+01      1.821365000000000E-01     -6.273632000000000E+01      1.874619000000000E-01      7.052343000000000E+01      2.532959000000000E-01      7.617188000000000E+01
4802000000.000000      4.387665000000000E-01      9.079687000000000E+01      1.786652000000000E-01     -6.139062000000000E+01      1.845703000000000E-01      7.160546000000000E+01      2.541962000000000E-01      7.538280000000000E+01
4803000000.000000      4.417419000000000E-01      9.128515000000000E+01      1.764297000000000E-01     -6.020312000000000E+01      1.810608000000000E-01      7.272655000000000E+01      2.568970000000000E-01      7.509375000000000E+01
4804000000.000000      4.440155000000000E-01      9.144140000000000E+01      1.728973000000000E-01     -5.875781000000000E+01      1.781540000000000E-01      7.384766000000000E+01      2.577972000000000E-01      7.440624000000000E+01
4805000000.000000      4.477234000000000E-01      9.158983000000000E+01      1.698837000000000E-01     -5.757030000000000E+01      1.752396000000000E-01      7.506640000000000E+01      2.602844000000000E-01      7.399219000000000E+01
4806000000.000000      4.490662000000000E-01      9.203125000000000E+01      1.678696000000000E-01     -5.615039000000000E+01      1.727066000000000E-01      7.666016000000000E+01      2.587891000000000E-01      7.296875000000000E+01
4807000000.000000      4.509277000000000E-01      9.227343000000000E+01      1.652985000000000E-01     -5.481835000000000E+01      1.704254000000000E-01      7.768359000000000E+01      2.630615000000000E-01      7.233984000000000E+01
4808000000.000000      4.526825000000000E-01      9.257030000000000E+01      1.640701000000000E-01     -5.307226000000000E+01      1.683578000000000E-01      7.934375000000000E+01      2.632599000000000E-01      7.190234000000000E+01
4809000000.000000      4.538422000000000E-01      9.287109000000000E+01      1.616135000000000E-01     -5.149023000000000E+01      1.669693000000000E-01      8.075390000000000E+01      2.661438000000000E-01      7.111718000000000E+01
4810000000.000000      4.554138000000000E-01      9.322266000000000E+01      1.609421000000000E-01     -4.976171000000000E+01      1.653824000000000E-01      8.224609000000000E+01      2.651825000000000E-01      7.011328000000000E+01
4811000000.000000      4.559479000000000E-01      9.350389000000000E+01      1.598282000000000E-01     -4.830859000000000E+01      1.648102000000000E-01      8.399218000000000E+01      2.672272000000000E-01      6.912499000000000E+01
4812000000.000000      4.572449000000000E-01      9.394531000000000E+01      1.584778000000000E-01     -4.642968000000000E+01      1.638947000000000E-01      8.549999000000000E+01      2.688599000000000E-01      6.823437000000000E+01
4813000000.000000      4.576416000000000E-01      9.423437000000000E+01      1.578217000000000E-01     -4.462110000000000E+01      1.632996000000000E-01      8.716406000000000E+01      2.711334000000000E-01      6.794531000000000E+01
4814000000.000000      4.563599000000000E-01      9.458593000000000E+01      1.581116000000000E-01     -4.271484000000000E+01      1.630859000000000E-01      8.889063000000000E+01      2.700195000000000E-01      6.703125000000000E+01
4815000000.000000      4.564819000000000E-01      9.485155000000000E+01      1.576309000000000E-01     -4.111524000000000E+01      1.625824000000000E-01      9.037889000000000E+01      2.700043000000000E-01      6.608203000000000E+01
4816000000.000000      4.577026000000000E-01      9.521875000000000E+01      1.583023000000000E-01     -3.922852000000000E+01      1.636047000000000E-01      9.217968000000000E+01      2.702484000000000E-01      6.508594000000000E+01
4817000000.000000      4.559326000000000E-01      9.568359000000000E+01      1.586304000000000E-01     -3.750391000000000E+01      1.637115000000000E-01      9.370312000000000E+01      2.716064000000000E-01      6.455078000000000E+01
4818000000.000000      4.546967000000000E-01      9.594530000000000E+01      1.596375000000000E-01     -3.569726000000000E+01      1.648865000000000E-01      9.528515000000000E+01      2.727966000000000E-01      6.364062000000000E+01
4819000000.000000      4.546661000000000E-01      9.624218000000000E+01      1.605682000000000E-01     -3.415820000000000E+01      1.660080000000000E-01      9.686718000000000E+01      2.697449000000000E-01      6.282812000000000E+01
4820000000.000000      4.513855000000000E-01      9.666796000000000E+01      1.623688000000000E-01     -3.238086000000000E+01      1.677017000000000E-01      9.846874000000000E+01      2.719574000000000E-01      6.147655000000000E+01
4821000000.000000      4.516144000000000E-01      9.705078000000000E+01      1.642303000000000E-01     -3.087305000000000E+01      1.691132000000000E-01      9.999609000000000E+01      2.719269000000000E-01      6.087891000000000E+01
4822000000.000000      4.499359000000000E-01      9.728125000000000E+01      1.653824000000000E-01     -2.928320000000000E+01      1.710052000000000E-01      1.013515000000000E+02      2.716064000000000E-01      5.949609000000000E+01
4823000000.000000      4.478149000000000E-01      9.760546000000000E+01      1.686096000000000E-01     -2.795215000000000E+01      1.733170000000000E-01      1.028164000000000E+02      2.696686000000000E-01      5.883789000000000E+01
4824000000.000000      4.461670000000000E-01      9.810936000000000E+01      1.704636000000000E-01     -2.666406000000000E+01      1.758423000000000E-01      1.040078000000000E+02      2.683411000000000E-01      5.754883000000000E+01
4825000000.000000      4.434357000000000E-01      9.840233000000000E+01      1.735382000000000E-01     -2.513574000000000E+01      1.786346000000000E-01      1.055312000000000E+02      2.693329000000000E-01      5.641211000000000E+01
4826000000.000000      4.409790000000000E-01      9.884375000000000E+01      1.763611000000000E-01     -2.391113000000000E+01      1.812363000000000E-01      1.065664000000000E+02      2.683868000000000E-01      5.569726000000000E+01
4827000000.000000      4.384155000000000E-01      9.921875000000000E+01      1.795044000000000E-01     -2.264453000000000E+01      1.841888000000000E-01      1.076914000000000E+02      2.672424000000000E-01      5.420507000000000E+01
4828000000.000000      4.359894000000000E-01      9.969530000000000E+01      1.827698000000000E-01     -2.134961000000000E+01      1.874466000000000E-01      1.087226000000000E+02      2.666016000000000E-01      5.342187000000000E+01
4829000000.000000      4.324646000000000E-01      1.001601000000000E+02      1.864548000000000E-01     -2.033203000000000E+01      1.912842000000000E-01      1.099297000000000E+02      2.666168000000000E-01      5.243554000000000E+01
4830000000.000000      4.291077000000000E-01      1.004297000000000E+02      1.896210000000000E-01     -1.934863000000000E+01      1.945724000000000E-01      1.108555000000000E+02      2.652740000000000E-01      5.121094000000000E+01
4831000000.000000      4.253082000000000E-01      1.008437000000000E+02      1.933060000000000E-01     -1.851953000000000E+01      1.986771000000000E-01      1.118516000000000E+02      2.637024000000000E-01      5.024219000000000E+01
4832000000.000000      4.217377000000000E-01      1.013867000000000E+02      1.970978000000000E-01     -1.756738000000000E+01      2.020111000000000E-01      1.126601000000000E+02      2.613525000000000E-01      4.919922000000000E+01
4833000000.000000      4.169464000000000E-01      1.016836000000000E+02      2.009354000000000E-01     -1.681055000000000E+01      2.059021000000000E-01      1.134023000000000E+02      2.604980000000000E-01      4.779492000000000E+01
4834000000.000000      4.137268000000000E-01      1.021680000000000E+02      2.054596000000000E-01     -1.616308000000000E+01      2.099533000000000E-01      1.140977000000000E+02      2.606964000000000E-01      4.673047000000000E+01
4835000000.000000      4.094391000000000E-01      1.024961000000000E+02      2.097244000000000E-01     -1.541260000000000E+01      2.144012000000000E-01      1.148906000000000E+02      2.577972000000000E-01      4.550586000000000E+01
4836000000.000000      4.053802000000000E-01      1.030039000000000E+02      2.139893000000000E-01     -1.480029000000000E+01      2.185669000000000E-01      1.156523000000000E+02      2.546997000000000E-01      4.478125000000000E+01
4837000000.000000      3.999176000000000E-01      1.035508000000000E+02      2.177505000000000E-01     -1.443213000000000E+01      2.229691000000000E-01      1.161523000000000E+02      2.550964000000000E-01      4.342382000000000E+01
4838000000.000000      3.949585000000000E-01      1.038203000000000E+02      2.230988000000000E-01     -1.362744000000000E+01      2.269592000000000E-01      1.167500000000000E+02      2.524261000000000E-01      4.243750000000000E+01
4839000000.000000      3.918915000000000E-01      1.043516000000000E+02      2.274246000000000E-01     -1.324561000000000E+01      2.315979000000000E-01      1.171875000000000E+02      2.520752000000000E-01      4.102148000000000E+01
4840000000.000000      3.851471000000000E-01      1.047422000000000E+02      2.319031000000000E-01     -1.278271000000000E+01      2.359314000000000E-01      1.176914000000000E+02      2.470474000000000E-01      3.985937000000000E+01
4841000000.000000      3.805847000000000E-01      1.052226000000000E+02      2.371826000000000E-01     -1.263330000000000E+01      2.405853000000000E-01      1.181250000000000E+02      2.476349000000000E-01      3.883203000000000E+01
4842000000.000000      3.745270000000000E-01      1.057383000000000E+02      2.414932000000000E-01     -1.220605000000000E+01      2.450867000000000E-01      1.185234000000000E+02      2.455521000000000E-01      3.766211000000000E+01
4843000000.000000      3.699188000000000E-01      1.060039000000000E+02      2.463074000000000E-01     -1.193262000000000E+01      2.499619000000000E-01      1.188164000000000E+02      2.427673000000000E-01      3.647265000000000E+01
4844000000.000000      3.636932000000000E-01      1.064922000000000E+02      2.514343000000000E-01     -1.157959000000000E+01      2.543488000000000E-01      1.191445000000000E+02      2.396851000000000E-01      3.538671000000000E+01
4845000000.000000      3.583374000000000E-01      1.070508000000000E+02      2.559204000000000E-01     -1.139160000000000E+01      2.595978000000000E-01      1.194141000000000E+02      2.365570000000000E-01      3.393945000000000E+01
4846000000.000000      3.525085000000000E-01      1.074648000000000E+02      2.613983000000000E-01     -1.133105000000000E+01      2.650604000000000E-01      1.196367000000000E+02      2.349396000000000E-01      3.323437000000000E+01
4847000000.000000      3.468170000000000E-01      1.079648000000000E+02      2.656555000000000E-01     -1.116943000000000E+01      2.695007000000000E-01      1.198633000000000E+02      2.322006000000000E-01      3.180761000000000E+01
4848000000.000000      3.404083000000000E-01      1.084219000000000E+02      2.705231000000000E-01     -1.109766000000000E+01      2.743835000000000E-01      1.200508000000000E+02      2.297211000000000E-01      3.033398000000000E+01
4849000000.000000      3.340149000000000E-01      1.087539000000000E+02      2.760468000000000E-01     -1.107422000000000E+01      2.788239000000000E-01      1.202148000000000E+02      2.266083000000000E-01      2.963086000000000E+01
4850000000.000000      3.273010000000000E-01      1.092226000000000E+02      2.807465000000000E-01     -1.099072000000000E+01      2.839203000000000E-01      1.204766000000000E+02      2.268753000000000E-01      2.810937000000000E+01
4851000000.000000      3.214417000000000E-01      1.099101000000000E+02      2.859192000000000E-01     -1.108545000000000E+01      2.888947000000000E-01      1.206133000000000E+02      2.233963000000000E-01      2.725976000000000E+01
4852000000.000000      3.146515000000000E-01      1.102851000000000E+02      2.909698000000000E-01     -1.093311000000000E+01      2.942810000000000E-01      1.207969000000000E+02      2.210083000000000E-01      2.588867000000000E+01
4853000000.000000      3.084717000000000E-01      1.107500000000000E+02      2.955017000000000E-01     -1.103174000000000E+01      2.989960000000000E-01      1.209492000000000E+02      2.181625000000000E-01      2.471972000000000E+01
4854000000.000000      3.009338000000000E-01      1.112891000000000E+02      3.007507000000000E-01     -1.119531000000000E+01      3.038483000000000E-01      1.209141000000000E+02      2.169800000000000E-01      2.361230000000000E+01
4855000000.000000      2.947540000000000E-01      1.116758000000000E+02      3.060608000000000E-01     -1.124902000000000E+01      3.088074000000000E-01      1.209531000000000E+02      2.127457000000000E-01      2.248145000000000E+01
4856000000.000000      2.875366000000000E-01      1.122734000000000E+02      3.105316000000000E-01     -1.137256000000000E+01      3.137665000000000E-01      1.209570000000000E+02      2.107925000000000E-01      2.125391000000000E+01
4857000000.000000      2.803497000000000E-01      1.126797000000000E+02      3.173370000000000E-01     -1.161133000000000E+01      3.187561000000000E-01      1.210312000000000E+02      2.075348000000000E-01      1.996289000000000E+01
4858000000.000000      2.728119000000000E-01      1.130234000000000E+02      3.209991000000000E-01     -1.169678000000000E+01      3.238068000000000E-01      1.210039000000000E+02      2.053146000000000E-01      1.894727000000000E+01
4859000000.000000      2.657471000000000E-01      1.135938000000000E+02      3.264771000000000E-01     -1.189160000000000E+01      3.290100000000000E-01      1.211172000000000E+02      2.030029000000000E-01      1.760351000000000E+01
4860000000.000000      2.597198000000000E-01      1.142383000000000E+02      3.311310000000000E-01     -1.207275000000000E+01      3.333588000000000E-01      1.210547000000000E+02      2.004929000000000E-01      1.655469000000000E+01
4861000000.000000      2.514496000000000E-01      1.147969000000000E+02      3.355560000000000E-01     -1.229541000000000E+01      3.392792000000000E-01      1.210469000000000E+02      1.968918000000000E-01      1.529004000000000E+01
4862000000.000000      2.437820000000000E-01      1.152305000000000E+02      3.411102000000000E-01     -1.248193000000000E+01      3.448181000000000E-01      1.210781000000000E+02      1.949005000000000E-01      1.403223000000000E+01
4863000000.000000      2.363434000000000E-01      1.157656000000000E+02      3.451080000000000E-01     -1.283936000000000E+01      3.493042000000000E-01      1.210508000000000E+02      1.929855000000000E-01      1.305029000000000E+01
4864000000.000000      2.289505000000000E-01      1.162891000000000E+02      3.508606000000000E-01     -1.292578000000000E+01      3.540955000000000E-01      1.209570000000000E+02      1.898193000000000E-01      1.177832000000000E+01
4865000000.000000      2.212982000000000E-01      1.168711000000000E+02      3.557434000000000E-01     -1.322070000000000E+01      3.597870000000000E-01      1.208125000000000E+02      1.881027000000000E-01      1.078564000000000E+01
4866000000.000000      2.138672000000000E-01      1.173242000000000E+02      3.598328000000000E-01     -1.351611000000000E+01      3.648071000000000E-01      1.206523000000000E+02      1.852417000000000E-01      9.509766000000000E+00
4867000000.000000      2.060623000000000E-01      1.180078000000000E+02      3.654327000000000E-01     -1.396094000000000E+01      3.689728000000000E-01      1.206250000000000E+02      1.826935000000000E-01      8.299805000000000E+00
4868000000.000000      1.992722000000000E-01      1.184922000000000E+02      3.700867000000000E-01     -1.424121000000000E+01      3.748627000000000E-01      1.204375000000000E+02      1.794662000000000E-01      7.351074000000000E+00
4869000000.000000      1.902542000000000E-01      1.191562000000000E+02      3.744965000000000E-01     -1.444873000000000E+01      3.802032000000000E-01      1.203242000000000E+02      1.770935000000000E-01      6.027344000000000E+00
4870000000.000000      1.836777000000000E-01      1.198008000000000E+02      3.784332000000000E-01     -1.469287000000000E+01      3.849640000000000E-01      1.202383000000000E+02      1.744385000000000E-01      5.019287000000000E+00
4871000000.000000      1.755295000000000E-01      1.204258000000000E+02      3.850555000000000E-01     -1.505420000000000E+01      3.893585000000000E-01      1.201445000000000E+02      1.717377000000000E-01      4.088135000000000E+00
4872000000.000000      1.684494000000000E-01      1.210742000000000E+02      3.882599000000000E-01     -1.525635000000000E+01      3.947144000000000E-01      1.197773000000000E+02      1.702957000000000E-01      3.006104000000000E+00
4873000000.000000      1.606140000000000E-01      1.218789000000000E+02      3.927307000000000E-01     -1.583691000000000E+01      3.990021000000000E-01      1.197461000000000E+02      1.663666000000000E-01      1.565552000000000E+00
4874000000.000000      1.527710000000000E-01      1.226406000000000E+02      3.970947000000000E-01     -1.622168000000000E+01      4.053345000000000E-01      1.194844000000000E+02      1.644211000000000E-01      7.278442000000000E-01
4875000000.000000      1.454926000000000E-01      1.235586000000000E+02      4.019470000000000E-01     -1.645215000000000E+01      4.089203000000000E-01      1.193711000000000E+02      1.617203000000000E-01     -4.943848000000000E-01
4876000000.000000      1.383362000000000E-01      1.242305000000000E+02      4.082489000000000E-01     -1.703223000000000E+01      4.154816000000000E-01      1.190859000000000E+02      1.589508000000000E-01     -1.707031000000000E+00
4877000000.000000      1.299362000000000E-01      1.251250000000000E+02      4.115906000000000E-01     -1.739355000000000E+01      4.206390000000000E-01      1.189141000000000E+02      1.563721000000000E-01     -2.518677000000000E+00
4878000000.000000      1.229057000000000E-01      1.261601000000000E+02      4.166260000000000E-01     -1.767187000000000E+01      4.244385000000000E-01      1.187070000000000E+02      1.536179000000000E-01     -3.706543000000000E+00
4879000000.000000      1.161575000000000E-01      1.273516000000000E+02      4.192963000000000E-01     -1.795605000000000E+01      4.293060000000000E-01      1.184648000000000E+02      1.511765000000000E-01     -4.617188000000000E+00
4880000000.000000      1.083527000000000E-01      1.285000000000000E+02      4.245148000000000E-01     -1.853027000000000E+01      4.347229000000000E-01      1.181445000000000E+02      1.488419000000000E-01     -5.754150000000000E+00
4881000000.000000      1.019783000000000E-01      1.300859000000000E+02      4.288788000000000E-01     -1.871387000000000E+01      4.404144000000000E-01      1.180078000000000E+02      1.450577000000000E-01     -6.503906000000000E+00
4882000000.000000      9.481430000000000E-02      1.310781000000000E+02      4.335480000000000E-01     -1.925683000000000E+01      4.456177000000000E-01      1.177578000000000E+02      1.429520000000000E-01     -7.269043000000000E+00
