! Network Analyzer HP8722D
! Hewlett-Packard
! Data name: Linha & Wilkinson
! Saver's name: Rodrigo Anjos
! Comments: Teste da utilização de aquisição
continua pelo VNA HP8722D
! Time and date: 25/4/2025 16:58
!              Frequency                     S11                                                   S21                                                   S12                                                   S22
# HZ  S  MA R 50
4800000000.000000      4.356995000000000E-01      9.096483000000000E+01      1.854248000000000E-01     -6.384766000000000E+01      1.909561000000000E-01      6.953515000000000E+01      2.497635000000000E-01      7.736328000000000E+01
4801000000.000000      4.386444000000000E-01      9.120703000000000E+01      1.813278000000000E-01     -6.275585000000000E+01      1.872864000000000E-01      7.042187000000000E+01      2.538757000000000E-01      7.617578000000000E+01
4802000000.000000      4.412689000000000E-01      9.142187000000000E+01      1.780014000000000E-01     -6.161718000000000E+01      1.841507000000000E-01      7.148046000000000E+01      2.562866000000000E-01      7.565234000000000E+01
4803000000.000000      4.439697000000000E-01      9.175390000000000E+01      1.757355000000000E-01     -6.021093000000000E+01      1.808090000000000E-01      7.275000000000000E+01      2.578735000000000E-01      7.537890000000000E+01
4804000000.000000      4.469147000000000E-01      9.207422000000000E+01      1.724014000000000E-01     -5.889062000000000E+01      1.773911000000000E-01      7.376953000000000E+01      2.598572000000000E-01      7.435156000000000E+01
4805000000.000000      4.499054000000000E-01      9.225389000000000E+01      1.697311000000000E-01     -5.758789000000000E+01      1.747818000000000E-01      7.488281000000000E+01      2.597046000000000E-01      7.391406000000000E+01
4806000000.000000      4.509888000000000E-01      9.262110000000000E+01      1.673279000000000E-01     -5.613867000000000E+01      1.720505000000000E-01      7.650000000000000E+01      2.610931000000000E-01      7.363671000000000E+01
4807000000.000000      4.539490000000000E-01      9.285547000000000E+01      1.647110000000000E-01     -5.480469000000000E+01      1.699219000000000E-01      7.753515000000000E+01      2.641754000000000E-01      7.255859000000000E+01
4808000000.000000      4.546814000000000E-01      9.318750000000000E+01      1.625519000000000E-01     -5.310547000000000E+01      1.677475000000000E-01      7.910156000000000E+01      2.642517000000000E-01      7.190624000000000E+01
4809000000.000000      4.559326000000000E-01      9.351563000000000E+01      1.611862000000000E-01     -5.159180000000000E+01      1.666107000000000E-01      8.054296000000000E+01      2.671967000000000E-01      7.119141000000000E+01
4810000000.000000      4.567261000000000E-01      9.379686000000000E+01      1.599197000000000E-01     -4.970508000000000E+01      1.647568000000000E-01      8.210938000000000E+01      2.659912000000000E-01      7.007421000000000E+01
4811000000.000000      4.583588000000000E-01      9.412500000000000E+01      1.588440000000000E-01     -4.816406000000000E+01      1.641617000000000E-01      8.363281000000000E+01      2.675781000000000E-01      6.969921000000000E+01
4812000000.000000      4.602814000000000E-01      9.453125000000000E+01      1.577454000000000E-01     -4.655469000000000E+01      1.628647000000000E-01      8.511328000000000E+01      2.687988000000000E-01      6.850390000000000E+01
4813000000.000000      4.601746000000000E-01      9.482422000000000E+01      1.571350000000000E-01     -4.467773000000000E+01      1.626740000000000E-01      8.700781000000000E+01      2.711334000000000E-01      6.792969000000000E+01
4814000000.000000      4.587097000000000E-01      9.505859000000000E+01      1.565094000000000E-01     -4.280273000000000E+01      1.621170000000000E-01      8.859766000000000E+01      2.718353000000000E-01      6.692187000000000E+01
4815000000.000000      4.591675000000000E-01      9.548828000000000E+01      1.568146000000000E-01     -4.110742000000000E+01      1.615601000000000E-01      9.028124000000000E+01      2.718506000000000E-01      6.645702000000000E+01
4816000000.000000      4.600067000000000E-01      9.583593000000000E+01      1.575623000000000E-01     -3.940430000000000E+01      1.626663000000000E-01      9.197657000000000E+01      2.726135000000000E-01      6.518359000000000E+01
4817000000.000000      4.588776000000000E-01      9.621874000000000E+01      1.576767000000000E-01     -3.767969000000000E+01      1.628036000000000E-01      9.356640000000000E+01      2.732697000000000E-01      6.454296000000000E+01
4818000000.000000      4.585724000000000E-01      9.653124000000000E+01      1.580276000000000E-01     -3.587695000000000E+01      1.639557000000000E-01      9.520311000000000E+01      2.715759000000000E-01      6.390038000000000E+01
4819000000.000000      4.580688000000000E-01      9.685156000000000E+01      1.591568000000000E-01     -3.425781000000000E+01      1.647873000000000E-01      9.675781000000000E+01      2.714691000000000E-01      6.282421000000000E+01
4820000000.000000      4.550629000000000E-01      9.721874000000000E+01      1.607437000000000E-01     -3.246875000000000E+01      1.665039000000000E-01      9.826952000000000E+01      2.717590000000000E-01      6.235156000000000E+01
4821000000.000000      4.548950000000000E-01      9.760155000000000E+01      1.630249000000000E-01     -3.093262000000000E+01      1.678238000000000E-01      9.972265000000000E+01      2.720947000000000E-01      6.097265000000000E+01
4822000000.000000      4.528198000000000E-01      9.788671000000000E+01      1.640930000000000E-01     -2.944531000000000E+01      1.695786000000000E-01      1.010938000000000E+02      2.726440000000000E-01      5.974218000000000E+01
4823000000.000000      4.511108000000000E-01      9.834764000000000E+01      1.671600000000000E-01     -2.808984000000000E+01      1.717682000000000E-01      1.027344000000000E+02      2.723846000000000E-01      5.872265000000000E+01
4824000000.000000      4.491730000000000E-01      9.876953000000000E+01      1.692200000000000E-01     -2.664258000000000E+01      1.743011000000000E-01      1.039922000000000E+02      2.697601000000000E-01      5.777929000000000E+01
4825000000.000000      4.472198000000000E-01      9.903906000000000E+01      1.717529000000000E-01     -2.500293000000000E+01      1.775436000000000E-01      1.053047000000000E+02      2.712250000000000E-01      5.657031000000000E+01
4826000000.000000      4.445496000000000E-01      9.948046000000000E+01      1.751404000000000E-01     -2.395020000000000E+01      1.794891000000000E-01      1.065977000000000E+02      2.705383000000000E-01      5.565624000000000E+01
4827000000.000000      4.416199000000000E-01      9.988281000000000E+01      1.774521000000000E-01     -2.258984000000000E+01      1.826859000000000E-01      1.076172000000000E+02      2.696075000000000E-01      5.451366000000000E+01
4828000000.000000      4.397125000000000E-01      1.001992000000000E+02      1.816254000000000E-01     -2.134961000000000E+01      1.861115000000000E-01      1.087226000000000E+02      2.679138000000000E-01      5.351367000000000E+01
4829000000.000000      4.353790000000000E-01      1.007070000000000E+02      1.846313000000000E-01     -2.035547000000000E+01      1.898346000000000E-01      1.099023000000000E+02      2.683105000000000E-01      5.255077000000000E+01
4830000000.000000      4.324036000000000E-01      1.010273000000000E+02      1.880035000000000E-01     -1.944726000000000E+01      1.928940000000000E-01      1.109258000000000E+02      2.642975000000000E-01      5.164648000000000E+01
4831000000.000000      4.283447000000000E-01      1.014453000000000E+02      1.910629000000000E-01     -1.848047000000000E+01      1.964417000000000E-01      1.117812000000000E+02      2.641602000000000E-01      5.036914000000000E+01
4832000000.000000      4.258728000000000E-01      1.019609000000000E+02      1.952744000000000E-01     -1.756933000000000E+01      2.001419000000000E-01      1.127070000000000E+02      2.618408000000000E-01      4.959765000000000E+01
4833000000.000000      4.206696000000000E-01      1.022227000000000E+02      1.990738000000000E-01     -1.672168000000000E+01      2.044296000000000E-01      1.134101000000000E+02      2.609253000000000E-01      4.812890000000000E+01
4834000000.000000      4.169464000000000E-01      1.026601000000000E+02      2.035904000000000E-01     -1.600390000000000E+01      2.086258000000000E-01      1.141992000000000E+02      2.592010000000000E-01      4.712110000000000E+01
4835000000.000000      4.130096000000000E-01      1.031094000000000E+02      2.075958000000000E-01     -1.524902000000000E+01      2.125015000000000E-01      1.148476000000000E+02      2.581787000000000E-01      4.591601000000000E+01
4836000000.000000      4.095154000000000E-01      1.037148000000000E+02      2.114258000000000E-01     -1.462451000000000E+01      2.167435000000000E-01      1.156562000000000E+02      2.563782000000000E-01      4.481835000000000E+01
4837000000.000000      4.037323000000000E-01      1.040937000000000E+02      2.168121000000000E-01     -1.413672000000000E+01      2.208557000000000E-01      1.161016000000000E+02      2.550049000000000E-01      4.357812000000000E+01
4838000000.000000      3.986816000000000E-01      1.044531000000000E+02      2.206650000000000E-01     -1.358057000000000E+01      2.249908000000000E-01      1.166640000000000E+02      2.534027000000000E-01      4.269727000000000E+01
4839000000.000000      3.955536000000000E-01      1.049141000000000E+02      2.259750000000000E-01     -1.290234000000000E+01      2.300186000000000E-01      1.171562000000000E+02      2.515411000000000E-01      4.136132000000000E+01
4840000000.000000      3.890381000000000E-01      1.053789000000000E+02      2.296524000000000E-01     -1.263184000000000E+01      2.345352000000000E-01      1.176601000000000E+02      2.485886000000000E-01      4.043554000000000E+01
4841000000.000000      3.855286000000000E-01      1.057265000000000E+02      2.345428000000000E-01     -1.243555000000000E+01      2.388229000000000E-01      1.181016000000000E+02      2.470856000000000E-01      3.908594000000000E+01
4842000000.000000      3.788452000000000E-01      1.063086000000000E+02      2.398071000000000E-01     -1.200293000000000E+01      2.429581000000000E-01      1.185430000000000E+02      2.457733000000000E-01      3.807812000000000E+01
4843000000.000000      3.739166000000000E-01      1.066133000000000E+02      2.443695000000000E-01     -1.173242000000000E+01      2.477646000000000E-01      1.188477000000000E+02      2.421494000000000E-01      3.707226000000000E+01
4844000000.000000      3.681335000000000E-01      1.070703000000000E+02      2.490082000000000E-01     -1.148486000000000E+01      2.525482000000000E-01      1.191992000000000E+02      2.398758000000000E-01      3.619922000000000E+01
4845000000.000000      3.620758000000000E-01      1.076680000000000E+02      2.540131000000000E-01     -1.115283000000000E+01      2.578583000000000E-01      1.194375000000000E+02      2.388687000000000E-01      3.466211000000000E+01
4846000000.000000      3.564148000000000E-01      1.080937000000000E+02      2.590332000000000E-01     -1.113916000000000E+01      2.624512000000000E-01      1.197852000000000E+02      2.355499000000000E-01      3.345703000000000E+01
4847000000.000000      3.508301000000000E-01      1.086523000000000E+02      2.636566000000000E-01     -1.096875000000000E+01      2.673035000000000E-01      1.199180000000000E+02      2.323837000000000E-01      3.215234000000000E+01
4848000000.000000      3.442078000000000E-01      1.090000000000000E+02      2.685852000000000E-01     -1.074463000000000E+01      2.720642000000000E-01      1.201758000000000E+02      2.314072000000000E-01      3.086328000000000E+01
4849000000.000000      3.382568000000000E-01      1.094141000000000E+02      2.733765000000000E-01     -1.080811000000000E+01      2.768402000000000E-01      1.203789000000000E+02      2.294312000000000E-01      2.984570000000000E+01
4850000000.000000      3.315277000000000E-01      1.098359000000000E+02      2.788696000000000E-01     -1.090283000000000E+01      2.818298000000000E-01      1.206172000000000E+02      2.265091000000000E-01      2.897168000000000E+01
4851000000.000000      3.258972000000000E-01      1.104805000000000E+02      2.837219000000000E-01     -1.082178000000000E+01      2.866821000000000E-01      1.207891000000000E+02      2.232971000000000E-01      2.742188000000000E+01
4852000000.000000      3.191986000000000E-01      1.109101000000000E+02      2.883148000000000E-01     -1.083838000000000E+01      2.915955000000000E-01      1.209414000000000E+02      2.219086000000000E-01      2.626074000000000E+01
4853000000.000000      3.126373000000000E-01      1.113750000000000E+02      2.932434000000000E-01     -1.085742000000000E+01      2.965393000000000E-01      1.209648000000000E+02      2.199936000000000E-01      2.504004000000000E+01
4854000000.000000      3.053436000000000E-01      1.118359000000000E+02      2.983093000000000E-01     -1.110059000000000E+01      3.017426000000000E-01      1.210390000000000E+02      2.173462000000000E-01      2.403906000000000E+01
4855000000.000000      2.989502000000000E-01      1.123203000000000E+02      3.032227000000000E-01     -1.108252000000000E+01      3.062439000000000E-01      1.210664000000000E+02      2.128296000000000E-01      2.283691000000000E+01
4856000000.000000      2.922363000000000E-01      1.128516000000000E+02      3.083038000000000E-01     -1.119141000000000E+01      3.119354000000000E-01      1.211328000000000E+02      2.112808000000000E-01      2.184180000000000E+01
4857000000.000000      2.853699000000000E-01      1.132851000000000E+02      3.135376000000000E-01     -1.115967000000000E+01      3.164673000000000E-01      1.212031000000000E+02      2.083359000000000E-01      2.034375000000000E+01
4858000000.000000      2.775574000000000E-01      1.136445000000000E+02      3.188782000000000E-01     -1.148779000000000E+01      3.212585000000000E-01      1.212148000000000E+02      2.059937000000000E-01      1.924023000000000E+01
4859000000.000000      2.704315000000000E-01      1.142031000000000E+02      3.235474000000000E-01     -1.163086000000000E+01      3.267365000000000E-01      1.212930000000000E+02      2.031784000000000E-01      1.806836000000000E+01
4860000000.000000      2.640381000000000E-01      1.147852000000000E+02      3.281708000000000E-01     -1.183545000000000E+01      3.310394000000000E-01      1.211719000000000E+02      2.010803000000000E-01      1.685840000000000E+01
4861000000.000000      2.556458000000000E-01      1.154180000000000E+02      3.330994000000000E-01     -1.200000000000000E+01      3.370667000000000E-01      1.211367000000000E+02      1.974411000000000E-01      1.577051000000000E+01
4862000000.000000      2.483139000000000E-01      1.159805000000000E+02      3.388672000000000E-01     -1.228711000000000E+01      3.422394000000000E-01      1.211758000000000E+02      1.952362000000000E-01      1.454688000000000E+01
4863000000.000000      2.410049000000000E-01      1.164336000000000E+02      3.435211000000000E-01     -1.270020000000000E+01      3.468781000000000E-01      1.211523000000000E+02      1.932144000000000E-01      1.363086000000000E+01
4864000000.000000      2.340012000000000E-01      1.168633000000000E+02      3.477936000000000E-01     -1.266357000000000E+01      3.509369000000000E-01      1.211758000000000E+02      1.904907000000000E-01      1.224121000000000E+01
4865000000.000000      2.261658000000000E-01      1.173086000000000E+02      3.530121000000000E-01     -1.297119000000000E+01      3.565674000000000E-01      1.210000000000000E+02      1.885300000000000E-01      1.131152000000000E+01
4866000000.000000      2.187271000000000E-01      1.179609000000000E+02      3.577576000000000E-01     -1.335938000000000E+01      3.621368000000000E-01      1.207265000000000E+02      1.852646000000000E-01      1.003711000000000E+01
4867000000.000000      2.108994000000000E-01      1.185195000000000E+02      3.624725000000000E-01     -1.362891000000000E+01      3.663635000000000E-01      1.207344000000000E+02      1.835022000000000E-01      8.993652000000000E+00
4868000000.000000      2.037430000000000E-01      1.190898000000000E+02      3.670959000000000E-01     -1.396533000000000E+01      3.724823000000000E-01      1.206211000000000E+02      1.800003000000000E-01      7.914063000000000E+00
4869000000.000000      1.960297000000000E-01      1.197187000000000E+02      3.720245000000000E-01     -1.426465000000000E+01      3.764801000000000E-01      1.205117000000000E+02      1.774063000000000E-01      6.569824000000000E+00
4870000000.000000      1.885529000000000E-01      1.202773000000000E+02      3.765411000000000E-01     -1.444043000000000E+01      3.824921000000000E-01      1.203867000000000E+02      1.751862000000000E-01      5.623535000000000E+00
4871000000.000000      1.810913000000000E-01      1.210078000000000E+02      3.810883000000000E-01     -1.490723000000000E+01      3.867035000000000E-01      1.202187000000000E+02      1.722260000000000E-01      4.491943000000000E+00
4872000000.000000      1.737442000000000E-01      1.217617000000000E+02      3.854218000000000E-01     -1.503076000000000E+01      3.915405000000000E-01      1.200000000000000E+02      1.704025000000000E-01      3.555420000000000E+00
4873000000.000000      1.660156000000000E-01      1.225039000000000E+02      3.906097000000000E-01     -1.561475000000000E+01      3.970032000000000E-01      1.199297000000000E+02      1.665726000000000E-01      2.477417000000000E+00
4874000000.000000      1.583099000000000E-01      1.232148000000000E+02      3.948212000000000E-01     -1.600390000000000E+01      4.019470000000000E-01      1.195547000000000E+02      1.650009000000000E-01      1.369141000000000E+00
4875000000.000000      1.508713000000000E-01      1.240742000000000E+02      3.991394000000000E-01     -1.628125000000000E+01      4.064789000000000E-01      1.195195000000000E+02      1.620026000000000E-01      4.806519000000000E-01
4876000000.000000      1.435089000000000E-01      1.247890000000000E+02      4.041595000000000E-01     -1.672461000000000E+01      4.128418000000000E-01      1.193086000000000E+02      1.594391000000000E-01     -9.242249000000000E-01
4877000000.000000      1.356430000000000E-01      1.255898000000000E+02      4.080048000000000E-01     -1.696094000000000E+01      4.168396000000000E-01      1.189141000000000E+02      1.569672000000000E-01     -1.701538000000000E+00
4878000000.000000      1.284485000000000E-01      1.267656000000000E+02      4.130402000000000E-01     -1.737793000000000E+01      4.218140000000000E-01      1.188945000000000E+02      1.537323000000000E-01     -2.846924000000000E+00
4879000000.000000      1.216698000000000E-01      1.276680000000000E+02      4.170380000000000E-01     -1.777539000000000E+01      4.268799000000000E-01      1.185234000000000E+02      1.516571000000000E-01     -4.029297000000000E+00
4880000000.000000      1.141777000000000E-01      1.287812000000000E+02      4.213715000000000E-01     -1.814453000000000E+01      4.320374000000000E-01      1.183320000000000E+02      1.489563000000000E-01     -4.927490000000000E+00
4881000000.000000      1.071129000000000E-01      1.302891000000000E+02      4.262543000000000E-01     -1.852344000000000E+01      4.369812000000000E-01      1.180976000000000E+02      1.461945000000000E-01     -5.728027000000000E+00
4882000000.000000      9.991455000000000E-02      1.314375000000000E+02      4.297943000000000E-01     -1.907715000000000E+01      4.423676000000000E-01      1.178242000000000E+02      1.432495000000000E-01     -6.494385000000000E+00
