! Network Analyzer HP8722D
! Hewlett-Packard
! Data name: Linha & Wilkinson
! Saver's name: Rodrigo Anjos
! Comments: Teste da utilização de aquisição
continua pelo VNA HP8722D
! Time and date: 25/4/2025 16:17
!              Frequency                     S11                                                   S21                                                   S12                                                   S22
# HZ  S  MA R 50
4800000000.000000      4.344025000000000E-01      9.080469000000000E+01      1.857300000000000E-01     -6.370703000000000E+01      1.909103000000000E-01      6.977344000000000E+01      2.505951000000000E-01      7.698437000000000E+01
4801000000.000000      4.372559000000000E-01      9.096874000000000E+01      1.819916000000000E-01     -6.270898000000000E+01      1.869278000000000E-01      7.049999000000000E+01      2.517395000000000E-01      7.651562000000000E+01
4802000000.000000      4.413147000000000E-01      9.123827000000000E+01      1.783524000000000E-01     -6.143945000000000E+01      1.837158000000000E-01      7.150781000000000E+01      2.567596000000000E-01      7.567187000000000E+01
4803000000.000000      4.433441000000000E-01      9.146093000000000E+01      1.751328000000000E-01     -6.035351000000000E+01      1.805115000000000E-01      7.278906000000000E+01      2.575378000000000E-01      7.528906000000000E+01
4804000000.000000      4.462585000000000E-01      9.181250000000000E+01      1.721191000000000E-01     -5.885937000000000E+01      1.776962000000000E-01      7.382421000000000E+01      2.567902000000000E-01      7.456640000000000E+01
4805000000.000000      4.488678000000000E-01      9.186718000000000E+01      1.694641000000000E-01     -5.746679000000000E+01      1.746521000000000E-01      7.511328000000000E+01      2.607422000000000E-01      7.365234000000000E+01
4806000000.000000      4.509583000000000E-01      9.232031000000000E+01      1.670303000000000E-01     -5.603906000000000E+01      1.719894000000000E-01      7.650391000000000E+01      2.610626000000000E-01      7.283984000000000E+01
4807000000.000000      4.527130000000000E-01      9.261328000000000E+01      1.653519000000000E-01     -5.485937000000000E+01      1.700745000000000E-01      7.785937000000000E+01      2.611847000000000E-01      7.250781000000000E+01
4808000000.000000      4.535217000000000E-01      9.289063000000000E+01      1.632919000000000E-01     -5.293750000000000E+01      1.678619000000000E-01      7.933203000000000E+01      2.637177000000000E-01      7.167578000000000E+01
4809000000.000000      4.549103000000000E-01      9.327734000000000E+01      1.612549000000000E-01     -5.146289000000000E+01      1.666412000000000E-01      8.065233000000000E+01      2.660370000000000E-01      7.120312000000000E+01
4810000000.000000      4.554138000000000E-01      9.350389000000000E+01      1.603241000000000E-01     -4.974218000000000E+01      1.650391000000000E-01      8.216015000000000E+01      2.680206000000000E-01      7.014453000000000E+01
4811000000.000000      4.570770000000000E-01      9.387499000000000E+01      1.590424000000000E-01     -4.814648000000000E+01      1.643143000000000E-01      8.394140000000000E+01      2.690735000000000E-01      6.924218000000000E+01
4812000000.000000      4.590759000000000E-01      9.432421000000000E+01      1.577301000000000E-01     -4.630468000000000E+01      1.633759000000000E-01      8.542578000000000E+01      2.667542000000000E-01      6.832812000000000E+01
4813000000.000000      4.585114000000000E-01      9.453125000000000E+01      1.572876000000000E-01     -4.443945000000000E+01      1.628265000000000E-01      8.718359000000000E+01      2.696838000000000E-01      6.814453000000000E+01
4814000000.000000      4.584808000000000E-01      9.476563000000000E+01      1.571655000000000E-01     -4.268750000000000E+01      1.622314000000000E-01      8.888672000000000E+01      2.701263000000000E-01      6.718750000000000E+01
4815000000.000000      4.578400000000000E-01      9.524218000000000E+01      1.571121000000000E-01     -4.116211000000000E+01      1.620789000000000E-01      9.035936000000000E+01      2.712708000000000E-01      6.580468000000000E+01
4816000000.000000      4.587555000000000E-01      9.558203000000000E+01      1.573944000000000E-01     -3.911718000000000E+01      1.628647000000000E-01      9.212500000000000E+01      2.716827000000000E-01      6.511328000000000E+01
4817000000.000000      4.575806000000000E-01      9.596874000000000E+01      1.580353000000000E-01     -3.763672000000000E+01      1.630859000000000E-01      9.364452000000000E+01      2.709351000000000E-01      6.474999000000000E+01
4818000000.000000      4.569244000000000E-01      9.622265000000000E+01      1.588440000000000E-01     -3.575390000000000E+01      1.644440000000000E-01      9.530859000000000E+01      2.718811000000000E-01      6.369726000000000E+01
4819000000.000000      4.563293000000000E-01      9.663280000000000E+01      1.603012000000000E-01     -3.405468000000000E+01      1.654968000000000E-01      9.694139000000000E+01      2.708435000000000E-01      6.297852000000000E+01
4820000000.000000      4.541473000000000E-01      9.701561000000000E+01      1.610565000000000E-01     -3.250195000000000E+01      1.670227000000000E-01      9.847656000000000E+01      2.713776000000000E-01      6.165625000000000E+01
4821000000.000000      4.541931000000000E-01      9.731249000000000E+01      1.632614000000000E-01     -3.100293000000000E+01      1.683807000000000E-01      9.986328000000000E+01      2.727203000000000E-01      6.092773000000000E+01
4822000000.000000      4.518280000000000E-01      9.764061000000000E+01      1.652527000000000E-01     -2.920117000000000E+01      1.702194000000000E-01      1.013203000000000E+02      2.710419000000000E-01      5.925390000000000E+01
4823000000.000000      4.494324000000000E-01      9.808983000000000E+01      1.675415000000000E-01     -2.795117000000000E+01      1.724472000000000E-01      1.027578000000000E+02      2.711945000000000E-01      5.860352000000000E+01
4824000000.000000      4.480896000000000E-01      9.849218000000000E+01      1.700668000000000E-01     -2.650391000000000E+01      1.750641000000000E-01      1.039844000000000E+02      2.689667000000000E-01      5.743359000000000E+01
4825000000.000000      4.455109000000000E-01      9.880859000000000E+01      1.723862000000000E-01     -2.510449000000000E+01      1.779099000000000E-01      1.054062000000000E+02      2.694092000000000E-01      5.648828000000000E+01
4826000000.000000      4.431610000000000E-01      9.910545000000000E+01      1.754990000000000E-01     -2.385449000000000E+01      1.804276000000000E-01      1.066328000000000E+02      2.691040000000000E-01      5.566601000000000E+01
4827000000.000000      4.403687000000000E-01      9.961327000000000E+01      1.783524000000000E-01     -2.259766000000000E+01      1.835861000000000E-01      1.077226000000000E+02      2.690887000000000E-01      5.445507000000000E+01
4828000000.000000      4.382324000000000E-01      9.994530000000000E+01      1.823120000000000E-01     -2.137207000000000E+01      1.868820000000000E-01      1.088398000000000E+02      2.678223000000000E-01      5.337695000000000E+01
4829000000.000000      4.337311000000000E-01      1.005078000000000E+02      1.857224000000000E-01     -2.019238000000000E+01      1.905060000000000E-01      1.098398000000000E+02      2.667389000000000E-01      5.252539000000000E+01
4830000000.000000      4.307709000000000E-01      1.007930000000000E+02      1.887512000000000E-01     -1.940918000000000E+01      1.934280000000000E-01      1.109687000000000E+02      2.653198000000000E-01      5.132030000000000E+01
4831000000.000000      4.269409000000000E-01      1.012656000000000E+02      1.924362000000000E-01     -1.838086000000000E+01      1.976242000000000E-01      1.119219000000000E+02      2.648315000000000E-01      5.028125000000000E+01
4832000000.000000      4.237671000000000E-01      1.016445000000000E+02      1.962280000000000E-01     -1.746191000000000E+01      2.010880000000000E-01      1.127266000000000E+02      2.614899000000000E-01      4.951562000000000E+01
4833000000.000000      4.192047000000000E-01      1.020508000000000E+02      1.998062000000000E-01     -1.661035000000000E+01      2.053146000000000E-01      1.134844000000000E+02      2.590332000000000E-01      4.818554000000000E+01
4834000000.000000      4.155731000000000E-01      1.024609000000000E+02      2.044678000000000E-01     -1.609570000000000E+01      2.092972000000000E-01      1.141875000000000E+02      2.594910000000000E-01      4.691015000000000E+01
4835000000.000000      4.117584000000000E-01      1.028906000000000E+02      2.087326000000000E-01     -1.537402000000000E+01      2.135010000000000E-01      1.149062000000000E+02      2.587280000000000E-01      4.572656000000000E+01
4836000000.000000      4.080200000000000E-01      1.033906000000000E+02      2.129517000000000E-01     -1.469287000000000E+01      2.175522000000000E-01      1.156758000000000E+02      2.570190000000000E-01      4.476367000000000E+01
4837000000.000000      4.021912000000000E-01      1.038164000000000E+02      2.172699000000000E-01     -1.431934000000000E+01      2.216568000000000E-01      1.161016000000000E+02      2.545013000000000E-01      4.371289000000000E+01
4838000000.000000      3.974457000000000E-01      1.042148000000000E+02      2.218628000000000E-01     -1.361377000000000E+01      2.259827000000000E-01      1.166875000000000E+02      2.518768000000000E-01      4.236718000000000E+01
4839000000.000000      3.941345000000000E-01      1.047344000000000E+02      2.262192000000000E-01     -1.303711000000000E+01      2.306671000000000E-01      1.172695000000000E+02      2.516327000000000E-01      4.102148000000000E+01
4840000000.000000      3.875580000000000E-01      1.050859000000000E+02      2.309113000000000E-01     -1.261377000000000E+01      2.348709000000000E-01      1.177031000000000E+02      2.480011000000000E-01      3.974804000000000E+01
4841000000.000000      3.830872000000000E-01      1.055351000000000E+02      2.352676000000000E-01     -1.242432000000000E+01      2.397079000000000E-01      1.180117000000000E+02      2.463913000000000E-01      3.906641000000000E+01
4842000000.000000      3.771515000000000E-01      1.060586000000000E+02      2.406540000000000E-01     -1.202490000000000E+01      2.442703000000000E-01      1.185508000000000E+02      2.453461000000000E-01      3.795703000000000E+01
4843000000.000000      3.719788000000000E-01      1.063594000000000E+02      2.456665000000000E-01     -1.185596000000000E+01      2.492218000000000E-01      1.188320000000000E+02      2.427063000000000E-01      3.664063000000000E+01
4844000000.000000      3.662109000000000E-01      1.069336000000000E+02      2.500458000000000E-01     -1.152100000000000E+01      2.532959000000000E-01      1.191367000000000E+02      2.388840000000000E-01      3.561718000000000E+01
4845000000.000000      3.605347000000000E-01      1.074062000000000E+02      2.549133000000000E-01     -1.133691000000000E+01      2.583008000000000E-01      1.194375000000000E+02      2.390518000000000E-01      3.411718000000000E+01
4846000000.000000      3.552094000000000E-01      1.077695000000000E+02      2.599640000000000E-01     -1.114746000000000E+01      2.639465000000000E-01      1.197187000000000E+02      2.350235000000000E-01      3.355859000000000E+01
4847000000.000000      3.488770000000000E-01      1.084062000000000E+02      2.645721000000000E-01     -1.090674000000000E+01      2.685394000000000E-01      1.199180000000000E+02      2.329178000000000E-01      3.210546000000000E+01
4848000000.000000      3.427887000000000E-01      1.087773000000000E+02      2.693787000000000E-01     -1.100732000000000E+01      2.730103000000000E-01      1.201367000000000E+02      2.309952000000000E-01      3.087891000000000E+01
4849000000.000000      3.365326000000000E-01      1.091758000000000E+02      2.746735000000000E-01     -1.105518000000000E+01      2.779999000000000E-01      1.203398000000000E+02      2.284775000000000E-01      2.961133000000000E+01
4850000000.000000      3.295441000000000E-01      1.095976000000000E+02      2.799072000000000E-01     -1.093164000000000E+01      2.830505000000000E-01      1.205195000000000E+02      2.268753000000000E-01      2.874902000000000E+01
4851000000.000000      3.243408000000000E-01      1.102500000000000E+02      2.848358000000000E-01     -1.089307000000000E+01      2.872772000000000E-01      1.207187000000000E+02      2.246475000000000E-01      2.740918000000000E+01
4852000000.000000      3.170013000000000E-01      1.106523000000000E+02      2.893219000000000E-01     -1.097168000000000E+01      2.925873000000000E-01      1.208555000000000E+02      2.214890000000000E-01      2.584473000000000E+01
4853000000.000000      3.108826000000000E-01      1.112344000000000E+02      2.940979000000000E-01     -1.096338000000000E+01      2.975006000000000E-01      1.208906000000000E+02      2.178879000000000E-01      2.482324000000000E+01
4854000000.000000      3.033905000000000E-01      1.115742000000000E+02      2.991943000000000E-01     -1.111963000000000E+01      3.024902000000000E-01      1.209883000000000E+02      2.171707000000000E-01      2.383399000000000E+01
4855000000.000000      2.971497000000000E-01      1.120508000000000E+02      3.046722000000000E-01     -1.120068000000000E+01      3.076782000000000E-01      1.210469000000000E+02      2.130203000000000E-01      2.267969000000000E+01
4856000000.000000      2.899323000000000E-01      1.126328000000000E+02      3.096924000000000E-01     -1.110059000000000E+01      3.124390000000000E-01      1.210742000000000E+02      2.110519000000000E-01      2.155078000000000E+01
4857000000.000000      2.832336000000000E-01      1.131797000000000E+02      3.150482000000000E-01     -1.138770000000000E+01      3.175812000000000E-01      1.211367000000000E+02      2.077560000000000E-01      2.037109000000000E+01
4858000000.000000      2.751923000000000E-01      1.135390000000000E+02      3.198547000000000E-01     -1.147119000000000E+01      3.222504000000000E-01      1.211641000000000E+02      2.053986000000000E-01      1.900195000000000E+01
4859000000.000000      2.689514000000000E-01      1.139883000000000E+02      3.243256000000000E-01     -1.176514000000000E+01      3.276215000000000E-01      1.212226000000000E+02      2.034302000000000E-01      1.784180000000000E+01
4860000000.000000      2.617798000000000E-01      1.146875000000000E+02      3.297272000000000E-01     -1.186963000000000E+01      3.324585000000000E-01      1.211172000000000E+02      2.001190000000000E-01      1.688281000000000E+01
4861000000.000000      2.542572000000000E-01      1.152500000000000E+02      3.351440000000000E-01     -1.219775000000000E+01      3.378601000000000E-01      1.211211000000000E+02      1.972122000000000E-01      1.563330000000000E+01
4862000000.000000      2.465668000000000E-01      1.156484000000000E+02      3.399353000000000E-01     -1.224463000000000E+01      3.435364000000000E-01      1.210703000000000E+02      1.951828000000000E-01      1.431348000000000E+01
4863000000.000000      2.391281000000000E-01      1.161836000000000E+02      3.432770000000000E-01     -1.269922000000000E+01      3.483582000000000E-01      1.210469000000000E+02      1.933517000000000E-01      1.343994000000000E+01
4864000000.000000      2.322006000000000E-01      1.167773000000000E+02      3.491974000000000E-01     -1.275000000000000E+01      3.536682000000000E-01      1.209922000000000E+02      1.899719000000000E-01      1.224561000000000E+01
4865000000.000000      2.244186000000000E-01      1.172500000000000E+02      3.537750000000000E-01     -1.311768000000000E+01      3.577728000000000E-01      1.208281000000000E+02      1.878891000000000E-01      1.104639000000000E+01
4866000000.000000      2.166138000000000E-01      1.177578000000000E+02      3.584290000000000E-01     -1.348877000000000E+01      3.632813000000000E-01      1.206914000000000E+02      1.852951000000000E-01      9.875000000000000E+00
4867000000.000000      2.089920000000000E-01      1.184727000000000E+02      3.637848000000000E-01     -1.375781000000000E+01      3.680878000000000E-01      1.207539000000000E+02      1.823425000000000E-01      8.655762000000000E+00
4868000000.000000      2.016296000000000E-01      1.189258000000000E+02      3.683167000000000E-01     -1.398584000000000E+01      3.723145000000000E-01      1.206250000000000E+02      1.793594000000000E-01      7.631348000000000E+00
4869000000.000000      1.938629000000000E-01      1.195547000000000E+02      3.726196000000000E-01     -1.436768000000000E+01      3.778534000000000E-01      1.204766000000000E+02      1.771927000000000E-01      6.344482000000000E+00
4870000000.000000      1.868286000000000E-01      1.202461000000000E+02      3.774261000000000E-01     -1.457520000000000E+01      3.825226000000000E-01      1.202891000000000E+02      1.751175000000000E-01      5.460205000000000E+00
4871000000.000000      1.791153000000000E-01      1.208906000000000E+02      3.819427000000000E-01     -1.508594000000000E+01      3.885651000000000E-01      1.200898000000000E+02      1.722870000000000E-01      4.218750000000000E+00
4872000000.000000      1.716537000000000E-01      1.214180000000000E+02      3.865509000000000E-01     -1.527100000000000E+01      3.929901000000000E-01      1.198633000000000E+02      1.699066000000000E-01      3.448242000000000E+00
4873000000.000000      1.639252000000000E-01      1.223984000000000E+02      3.911438000000000E-01     -1.572168000000000E+01      3.972473000000000E-01      1.196562000000000E+02      1.663589000000000E-01      2.020020000000000E+00
4874000000.000000      1.558990000000000E-01      1.231992000000000E+02      3.963928000000000E-01     -1.613379000000000E+01      4.030151000000000E-01      1.195039000000000E+02      1.639633000000000E-01      8.720398000000000E-01
4875000000.000000      1.490402000000000E-01      1.238320000000000E+02      4.001770000000000E-01     -1.628125000000000E+01      4.084167000000000E-01      1.193672000000000E+02      1.615295000000000E-01      6.729126000000000E-02
4876000000.000000      1.415787000000000E-01      1.244219000000000E+02      4.053955000000000E-01     -1.683301000000000E+01      4.123688000000000E-01      1.191445000000000E+02      1.587296000000000E-01     -1.134338000000000E+00
4877000000.000000      1.335983000000000E-01      1.254023000000000E+02      4.096375000000000E-01     -1.716699000000000E+01      4.184875000000000E-01      1.189609000000000E+02      1.560898000000000E-01     -2.125854000000000E+00
4878000000.000000      1.262894000000000E-01      1.265820000000000E+02      4.145203000000000E-01     -1.749512000000000E+01      4.234009000000000E-01      1.188594000000000E+02      1.536255000000000E-01     -3.099609000000000E+00
4879000000.000000      1.191254000000000E-01      1.276992000000000E+02      4.176636000000000E-01     -1.777344000000000E+01      4.273071000000000E-01      1.184727000000000E+02      1.516266000000000E-01     -4.126953000000000E+00
4880000000.000000      1.117859000000000E-01      1.286953000000000E+02      4.227753000000000E-01     -1.831055000000000E+01      4.333801000000000E-01      1.182773000000000E+02      1.483383000000000E-01     -5.163574000000000E+00
4881000000.000000      1.053162000000000E-01      1.302656000000000E+02      4.286499000000000E-01     -1.841309000000000E+01      4.375610000000000E-01      1.180937000000000E+02      1.454010000000000E-01     -5.938232000000000E+00
4882000000.000000      9.793472000000000E-02      1.315625000000000E+02      4.324188000000000E-01     -1.916308000000000E+01      4.433289000000000E-01      1.177266000000000E+02      1.431274000000000E-01     -6.681152000000000E+00
