! Network Analyzer HP8722D
! Hewlett-Packard
! Data name: Linha & Wilkinson
! Saver's name: Rodrigo Anjos
! Comments: Teste da utilização de aquisição
continua pelo VNA HP8722D
! Time and date: 25/4/2025 15:29
!              Frequency                     S11                                                   S21                                                   S12                                                   S22
# HZ  S  MA R 50
4800000000.000000      4.329071000000000E-01      9.033203000000000E+01      1.857529000000000E-01     -6.392578000000000E+01      1.911316000000000E-01      6.974999000000000E+01      2.497330000000000E-01      7.713281000000000E+01
4801000000.000000      4.367676000000000E-01      9.060156000000000E+01      1.819763000000000E-01     -6.266211000000000E+01      1.875992000000000E-01      7.057422000000000E+01      2.530975000000000E-01      7.638281000000000E+01
4802000000.000000      4.391327000000000E-01      9.091797000000000E+01      1.788330000000000E-01     -6.130077000000000E+01      1.841354000000000E-01      7.160937000000000E+01      2.561951000000000E-01      7.554688000000000E+01
4803000000.000000      4.411621000000000E-01      9.117188000000000E+01      1.763611000000000E-01     -6.005273000000000E+01      1.808777000000000E-01      7.278125000000000E+01      2.573242000000000E-01      7.494141000000000E+01
4804000000.000000      4.447021000000000E-01      9.148438000000000E+01      1.729126000000000E-01     -5.887304000000000E+01      1.779861000000000E-01      7.387500000000000E+01      2.582092000000000E-01      7.486718000000000E+01
4805000000.000000      4.475403000000000E-01      9.165625000000000E+01      1.704102000000000E-01     -5.753711000000000E+01      1.750870000000000E-01      7.511328000000000E+01      2.613831000000000E-01      7.363281000000000E+01
4806000000.000000      4.488068000000000E-01      9.197657000000000E+01      1.679153000000000E-01     -5.604882000000000E+01      1.725311000000000E-01      7.651562000000000E+01      2.604980000000000E-01      7.326172000000000E+01
4807000000.000000      4.506531000000000E-01      9.223827000000000E+01      1.655807000000000E-01     -5.478710000000000E+01      1.703644000000000E-01      7.771484000000000E+01      2.627258000000000E-01      7.232031000000000E+01
4808000000.000000      4.518585000000000E-01      9.255077000000000E+01      1.635818000000000E-01     -5.298633000000000E+01      1.679916000000000E-01      7.931641000000000E+01      2.635803000000000E-01      7.154687000000000E+01
4809000000.000000      4.534912000000000E-01      9.291407000000000E+01      1.616821000000000E-01     -5.146484000000000E+01      1.670837000000000E-01      8.074219000000000E+01      2.668457000000000E-01      7.129687000000000E+01
4810000000.000000      4.542847000000000E-01      9.323046000000000E+01      1.608505000000000E-01     -4.969140000000000E+01      1.655502000000000E-01      8.230078000000000E+01      2.664795000000000E-01      7.034374000000000E+01
4811000000.000000      4.562531000000000E-01      9.353907000000000E+01      1.599579000000000E-01     -4.829102000000000E+01      1.647415000000000E-01      8.392578000000000E+01      2.679749000000000E-01      6.970312000000000E+01
4812000000.000000      4.565125000000000E-01      9.386719000000000E+01      1.584778000000000E-01     -4.635351000000000E+01      1.640320000000000E-01      8.541016000000000E+01      2.686310000000000E-01      6.821094000000000E+01
4813000000.000000      4.565430000000000E-01      9.426952000000000E+01      1.580505000000000E-01     -4.467187000000000E+01      1.633911000000000E-01      8.714453000000000E+01      2.720337000000000E-01      6.796875000000000E+01
4814000000.000000      4.567108000000000E-01      9.448437000000000E+01      1.578903000000000E-01     -4.280663000000000E+01      1.628876000000000E-01      8.884375000000000E+01      2.683563000000000E-01      6.739843000000000E+01
4815000000.000000      4.564362000000000E-01      9.495312000000000E+01      1.574783000000000E-01     -4.097461000000000E+01      1.625748000000000E-01      9.041407000000000E+01      2.707977000000000E-01      6.614843000000000E+01
4816000000.000000      4.574585000000000E-01      9.526562000000000E+01      1.581726000000000E-01     -3.910547000000000E+01      1.635056000000000E-01      9.222656000000000E+01      2.723694000000000E-01      6.525781000000000E+01
4817000000.000000      4.559479000000000E-01      9.565624000000000E+01      1.588364000000000E-01     -3.766406000000000E+01      1.638870000000000E-01      9.371485000000000E+01      2.717438000000000E-01      6.460546000000000E+01
4818000000.000000      4.552460000000000E-01      9.592577000000000E+01      1.591644000000000E-01     -3.585546000000000E+01      1.648788000000000E-01      9.539843000000000E+01      2.707367000000000E-01      6.388672000000000E+01
4819000000.000000      4.545135000000000E-01      9.635937000000000E+01      1.606293000000000E-01     -3.409375000000000E+01      1.662216000000000E-01      9.690624000000000E+01      2.702789000000000E-01      6.299414000000000E+01
4820000000.000000      4.516602000000000E-01      9.665234000000000E+01      1.619110000000000E-01     -3.233007000000000E+01      1.676254000000000E-01      9.835938000000000E+01      2.717590000000000E-01      6.147070000000000E+01
4821000000.000000      4.518433000000000E-01      9.703514000000000E+01      1.642838000000000E-01     -3.083398000000000E+01      1.688385000000000E-01      9.993359000000000E+01      2.718506000000000E-01      6.098437000000000E+01
4822000000.000000      4.501953000000000E-01      9.731640000000000E+01      1.657867000000000E-01     -2.954980000000000E+01      1.708603000000000E-01      1.012461000000000E+02      2.718811000000000E-01      5.976563000000000E+01
4823000000.000000      4.480743000000000E-01      9.771093000000000E+01      1.682663000000000E-01     -2.786426000000000E+01      1.734238000000000E-01      1.029414000000000E+02      2.711487000000000E-01      5.838085000000000E+01
4824000000.000000      4.464874000000000E-01      9.812500000000000E+01      1.705551000000000E-01     -2.653809000000000E+01      1.758804000000000E-01      1.039726000000000E+02      2.695770000000000E-01      5.773828000000000E+01
4825000000.000000      4.431915000000000E-01      9.844921000000000E+01      1.727982000000000E-01     -2.508886000000000E+01      1.788330000000000E-01      1.053633000000000E+02      2.705231000000000E-01      5.635937000000000E+01
4826000000.000000      4.409637000000000E-01      9.890625000000000E+01      1.765442000000000E-01     -2.408008000000000E+01      1.809921000000000E-01      1.066367000000000E+02      2.678528000000000E-01      5.547656000000000E+01
4827000000.000000      4.391174000000000E-01      9.930077000000000E+01      1.793671000000000E-01     -2.257226000000000E+01      1.843567000000000E-01      1.076953000000000E+02      2.677765000000000E-01      5.452343000000000E+01
4828000000.000000      4.367676000000000E-01      9.960938000000000E+01      1.826553000000000E-01     -2.170215000000000E+01      1.877823000000000E-01      1.087617000000000E+02      2.670441000000000E-01      5.331055000000000E+01
4829000000.000000      4.314575000000000E-01      1.002500000000000E+02      1.859436000000000E-01     -2.044922000000000E+01      1.912842000000000E-01      1.099297000000000E+02      2.672424000000000E-01      5.215038000000000E+01
4830000000.000000      4.287720000000000E-01      1.004726000000000E+02      1.894836000000000E-01     -1.941504000000000E+01      1.945343000000000E-01      1.109141000000000E+02      2.654877000000000E-01      5.136719000000000E+01
4831000000.000000      4.245453000000000E-01      1.008594000000000E+02      1.927948000000000E-01     -1.861523000000000E+01      1.982498000000000E-01      1.118242000000000E+02      2.641602000000000E-01      5.009766000000000E+01
4832000000.000000      4.217834000000000E-01      1.013008000000000E+02      1.971512000000000E-01     -1.751269000000000E+01      2.018204000000000E-01      1.126523000000000E+02      2.619629000000000E-01      4.924805000000000E+01
4833000000.000000      4.175262000000000E-01      1.016953000000000E+02      2.009583000000000E-01     -1.670508000000000E+01      2.056122000000000E-01      1.133789000000000E+02      2.602692000000000E-01      4.792188000000000E+01
4834000000.000000      4.131470000000000E-01      1.021172000000000E+02      2.054443000000000E-01     -1.611621000000000E+01      2.100449000000000E-01      1.141602000000000E+02      2.599335000000000E-01      4.696875000000000E+01
4835000000.000000      4.094543000000000E-01      1.025195000000000E+02      2.099686000000000E-01     -1.558008000000000E+01      2.142715000000000E-01      1.149141000000000E+02      2.567902000000000E-01      4.592969000000000E+01
4836000000.000000      4.055634000000000E-01      1.030078000000000E+02      2.136383000000000E-01     -1.476172000000000E+01      2.187424000000000E-01      1.156680000000000E+02      2.562866000000000E-01      4.495703000000000E+01
4837000000.000000      4.004822000000000E-01      1.035781000000000E+02      2.178955000000000E-01     -1.452539000000000E+01      2.223358000000000E-01      1.161680000000000E+02      2.550659000000000E-01      4.343163000000000E+01
4838000000.000000      3.949890000000000E-01      1.038281000000000E+02      2.229004000000000E-01     -1.364502000000000E+01      2.268372000000000E-01      1.167226000000000E+02      2.523651000000000E-01      4.231250000000000E+01
4839000000.000000      3.913727000000000E-01      1.043164000000000E+02      2.273941000000000E-01     -1.317822000000000E+01      2.314224000000000E-01      1.171172000000000E+02      2.499542000000000E-01      4.089063000000000E+01
4840000000.000000      3.856354000000000E-01      1.047422000000000E+02      2.318954000000000E-01     -1.277441000000000E+01      2.361374000000000E-01      1.176328000000000E+02      2.478485000000000E-01      3.991601000000000E+01
4841000000.000000      3.806152000000000E-01      1.052266000000000E+02      2.371140000000000E-01     -1.254932000000000E+01      2.406387000000000E-01      1.180234000000000E+02      2.467651000000000E-01      3.906054000000000E+01
4842000000.000000      3.747253000000000E-01      1.056562000000000E+02      2.412949000000000E-01     -1.215674000000000E+01      2.450638000000000E-01      1.185664000000000E+02      2.443390000000000E-01      3.752930000000000E+01
4843000000.000000      3.696747000000000E-01      1.059101000000000E+02      2.466202000000000E-01     -1.188477000000000E+01      2.501831000000000E-01      1.188828000000000E+02      2.430038000000000E-01      3.687500000000000E+01
4844000000.000000      3.640747000000000E-01      1.064766000000000E+02      2.511597000000000E-01     -1.162354000000000E+01      2.544708000000000E-01      1.190937000000000E+02      2.396698000000000E-01      3.529492000000000E+01
4845000000.000000      3.576813000000000E-01      1.070156000000000E+02      2.554626000000000E-01     -1.143701000000000E+01      2.589111000000000E-01      1.193320000000000E+02      2.383652000000000E-01      3.415039000000000E+01
4846000000.000000      3.517151000000000E-01      1.074101000000000E+02      2.612762000000000E-01     -1.123389000000000E+01      2.645111000000000E-01      1.197070000000000E+02      2.349014000000000E-01      3.297656000000000E+01
4847000000.000000      3.464050000000000E-01      1.079648000000000E+02      2.660065000000000E-01     -1.120215000000000E+01      2.694397000000000E-01      1.198828000000000E+02      2.328644000000000E-01      3.179492000000000E+01
4848000000.000000      3.400726000000000E-01      1.083672000000000E+02      2.705688000000000E-01     -1.104980000000000E+01      2.744446000000000E-01      1.200664000000000E+02      2.311478000000000E-01      3.079590000000000E+01
4849000000.000000      3.340759000000000E-01      1.087187000000000E+02      2.758789000000000E-01     -1.104834000000000E+01      2.789154000000000E-01      1.203242000000000E+02      2.269287000000000E-01      2.957226000000000E+01
4850000000.000000      3.273926000000000E-01      1.092188000000000E+02      2.803802000000000E-01     -1.097949000000000E+01      2.837219000000000E-01      1.203906000000000E+02      2.259293000000000E-01      2.825879000000000E+01
4851000000.000000      3.211212000000000E-01      1.098594000000000E+02      2.858887000000000E-01     -1.115430000000000E+01      2.886353000000000E-01      1.205898000000000E+02      2.246552000000000E-01      2.750488000000000E+01
4852000000.000000      3.144073000000000E-01      1.102812000000000E+02      2.910919000000000E-01     -1.122803000000000E+01      2.937775000000000E-01      1.207734000000000E+02      2.201920000000000E-01      2.592871000000000E+01
4853000000.000000      3.079987000000000E-01      1.107773000000000E+02      2.953186000000000E-01     -1.111963000000000E+01      2.984619000000000E-01      1.208711000000000E+02      2.187805000000000E-01      2.473926000000000E+01
4854000000.000000      3.003235000000000E-01      1.112148000000000E+02      3.002777000000000E-01     -1.116504000000000E+01      3.037262000000000E-01      1.209453000000000E+02      2.162552000000000E-01      2.359375000000000E+01
4855000000.000000      2.940216000000000E-01      1.116211000000000E+02      3.058167000000000E-01     -1.128711000000000E+01      3.081970000000000E-01      1.210078000000000E+02      2.127609000000000E-01      2.245019000000000E+01
4856000000.000000      2.871704000000000E-01      1.122695000000000E+02      3.103943000000000E-01     -1.143164000000000E+01      3.139038000000000E-01      1.210352000000000E+02      2.107468000000000E-01      2.134766000000000E+01
4857000000.000000      2.806549000000000E-01      1.127578000000000E+02      3.156433000000000E-01     -1.154541000000000E+01      3.190002000000000E-01      1.211484000000000E+02      2.074738000000000E-01      2.002734000000000E+01
4858000000.000000      2.722778000000000E-01      1.130547000000000E+02      3.214722000000000E-01     -1.170361000000000E+01      3.242340000000000E-01      1.211055000000000E+02      2.052460000000000E-01      1.882226000000000E+01
4859000000.000000      2.660828000000000E-01      1.136953000000000E+02      3.263397000000000E-01     -1.181445000000000E+01      3.288879000000000E-01      1.211328000000000E+02      2.031937000000000E-01      1.757324000000000E+01
4860000000.000000      2.593689000000000E-01      1.141875000000000E+02      3.307343000000000E-01     -1.208789000000000E+01      3.337860000000000E-01      1.210156000000000E+02      2.006760000000000E-01      1.648828000000000E+01
4861000000.000000      2.511597000000000E-01      1.147890000000000E+02      3.363647000000000E-01     -1.231592000000000E+01      3.393707000000000E-01      1.210625000000000E+02      1.967773000000000E-01      1.526660000000000E+01
4862000000.000000      2.435760000000000E-01      1.152461000000000E+02      3.414764000000000E-01     -1.245068000000000E+01      3.441162000000000E-01      1.210625000000000E+02      1.953049000000000E-01      1.417480000000000E+01
4863000000.000000      2.361298000000000E-01      1.157773000000000E+02      3.453217000000000E-01     -1.287500000000000E+01      3.491974000000000E-01      1.209492000000000E+02      1.923523000000000E-01      1.318457000000000E+01
4864000000.000000      2.287674000000000E-01      1.162226000000000E+02      3.513641000000000E-01     -1.289258000000000E+01      3.542786000000000E-01      1.209375000000000E+02      1.901932000000000E-01      1.184180000000000E+01
4865000000.000000      2.209702000000000E-01      1.167266000000000E+02      3.555603000000000E-01     -1.328125000000000E+01      3.586273000000000E-01      1.209180000000000E+02      1.879807000000000E-01      1.075928000000000E+01
4866000000.000000      2.135239000000000E-01      1.172305000000000E+02      3.595886000000000E-01     -1.359863000000000E+01      3.642731000000000E-01      1.206836000000000E+02      1.858215000000000E-01      9.616699000000000E+00
4867000000.000000      2.060776000000000E-01      1.179961000000000E+02      3.649902000000000E-01     -1.386914000000000E+01      3.691864000000000E-01      1.206289000000000E+02      1.823730000000000E-01      8.350586000000000E+00
4868000000.000000      1.983185000000000E-01      1.184258000000000E+02      3.692932000000000E-01     -1.421924000000000E+01      3.744812000000000E-01      1.205547000000000E+02      1.795654000000000E-01      7.362061000000000E+00
4869000000.000000      1.908646000000000E-01      1.191719000000000E+02      3.743286000000000E-01     -1.450342000000000E+01      3.799591000000000E-01      1.202969000000000E+02      1.770401000000000E-01      6.062988000000000E+00
4870000000.000000      1.830368000000000E-01      1.196914000000000E+02      3.784180000000000E-01     -1.470947000000000E+01      3.847656000000000E-01      1.202344000000000E+02      1.748657000000000E-01      5.119629000000000E+00
4871000000.000000      1.757050000000000E-01      1.204297000000000E+02      3.831940000000000E-01     -1.505127000000000E+01      3.893585000000000E-01      1.201211000000000E+02      1.719360000000000E-01      3.945435000000000E+00
4872000000.000000      1.683731000000000E-01      1.211016000000000E+02      3.884430000000000E-01     -1.528223000000000E+01      3.939362000000000E-01      1.197578000000000E+02      1.702728000000000E-01      2.973145000000000E+00
4873000000.000000      1.604843000000000E-01      1.219805000000000E+02      3.927765000000000E-01     -1.573535000000000E+01      3.991241000000000E-01      1.197695000000000E+02      1.662064000000000E-01      1.827820000000000E+00
4874000000.000000      1.527481000000000E-01      1.225391000000000E+02      3.975067000000000E-01     -1.619043000000000E+01      4.045715000000000E-01      1.194922000000000E+02      1.643524000000000E-01      6.948853000000000E-01
4875000000.000000      1.452179000000000E-01      1.235820000000000E+02      4.023132000000000E-01     -1.654492000000000E+01      4.093628000000000E-01      1.192851000000000E+02      1.615982000000000E-01     -2.650452000000000E-01
4876000000.000000      1.378555000000000E-01      1.242109000000000E+02      4.071350000000000E-01     -1.682226000000000E+01      4.149628000000000E-01      1.192148000000000E+02      1.586609000000000E-01     -1.584778000000000E+00
4877000000.000000      1.302643000000000E-01      1.252226000000000E+02      4.117279000000000E-01     -1.727344000000000E+01      4.196777000000000E-01      1.188555000000000E+02      1.567993000000000E-01     -2.444458000000000E+00
4878000000.000000      1.233025000000000E-01      1.262578000000000E+02      4.163666000000000E-01     -1.765723000000000E+01      4.246368000000000E-01      1.187617000000000E+02      1.534271000000000E-01     -3.574707000000000E+00
4879000000.000000      1.163216000000000E-01      1.274922000000000E+02      4.193726000000000E-01     -1.803027000000000E+01      4.294891000000000E-01      1.183203000000000E+02      1.509171000000000E-01     -4.518311000000000E+00
4880000000.000000      1.084251000000000E-01      1.284141000000000E+02      4.247437000000000E-01     -1.848047000000000E+01      4.342651000000000E-01      1.180820000000000E+02      1.484680000000000E-01     -5.750000000000000E+00
4881000000.000000      1.015816000000000E-01      1.299922000000000E+02      4.294891000000000E-01     -1.872949000000000E+01      4.401398000000000E-01      1.179766000000000E+02      1.457672000000000E-01     -6.457275000000000E+00
4882000000.000000      9.445953000000000E-02      1.310703000000000E+02      4.333801000000000E-01     -1.936914000000000E+01      4.452820000000000E-01      1.178398000000000E+02      1.429520000000000E-01     -7.194824000000000E+00
