! Network Analyzer HP8722D
! Hewlett-Packard
! Data name: Linha & Wilkinson
! Saver's name: Rodrigo Anjos
! Comments: Teste da utilização de aquisição
continua pelo VNA HP8722D
! Time and date: 25/4/2025 16:35
!              Frequency                     S11                                                   S21                                                   S12                                                   S22
# HZ  S  MA R 50
4800000000.000000      4.352570000000000E-01      9.080469000000000E+01      1.849594000000000E-01     -6.331445000000000E+01      1.900635000000000E-01      7.000000000000000E+01      2.506714000000000E-01      7.706249000000000E+01
4801000000.000000      4.377441000000000E-01      9.092968000000000E+01      1.807785000000000E-01     -6.230273000000000E+01      1.862717000000000E-01      7.092578000000000E+01      2.535858000000000E-01      7.613281000000000E+01
4802000000.000000      4.416046000000000E-01      9.126171000000000E+01      1.779785000000000E-01     -6.102929000000000E+01      1.829758000000000E-01      7.192187000000000E+01      2.577820000000000E-01      7.533593000000000E+01
4803000000.000000      4.433899000000000E-01      9.146484000000000E+01      1.746902000000000E-01     -5.967187000000000E+01      1.796646000000000E-01      7.310937000000000E+01      2.581177000000000E-01      7.484375000000000E+01
4804000000.000000      4.468994000000000E-01      9.187109000000000E+01      1.717911000000000E-01     -5.825195000000000E+01      1.766739000000000E-01      7.424609000000000E+01      2.573242000000000E-01      7.423437000000000E+01
4805000000.000000      4.495087000000000E-01      9.201172000000000E+01      1.688461000000000E-01     -5.706055000000000E+01      1.741104000000000E-01      7.541016000000000E+01      2.622833000000000E-01      7.352344000000000E+01
4806000000.000000      4.509277000000000E-01      9.233202000000000E+01      1.666031000000000E-01     -5.566992000000000E+01      1.714020000000000E-01      7.694921000000000E+01      2.606049000000000E-01      7.305078000000000E+01
4807000000.000000      4.528351000000000E-01      9.257813000000000E+01      1.646118000000000E-01     -5.410156000000000E+01      1.695099000000000E-01      7.813281000000000E+01      2.627869000000000E-01      7.245312000000000E+01
4808000000.000000      4.544678000000000E-01      9.294531000000000E+01      1.625519000000000E-01     -5.247070000000000E+01      1.672516000000000E-01      7.969921000000000E+01      2.638092000000000E-01      7.142187000000000E+01
4809000000.000000      4.556732000000000E-01      9.332422000000000E+01      1.609726000000000E-01     -5.077929000000000E+01      1.664352000000000E-01      8.110155000000000E+01      2.665253000000000E-01      7.122656000000000E+01
4810000000.000000      4.571838000000000E-01      9.357422000000000E+01      1.600342000000000E-01     -4.918163000000000E+01      1.644974000000000E-01      8.278515000000000E+01      2.667694000000000E-01      6.992578000000000E+01
4811000000.000000      4.584198000000000E-01      9.386719000000000E+01      1.586761000000000E-01     -4.762891000000000E+01      1.638489000000000E-01      8.429688000000000E+01      2.671051000000000E-01      6.917187000000000E+01
4812000000.000000      4.599915000000000E-01      9.417578000000000E+01      1.577835000000000E-01     -4.603906000000000E+01      1.632004000000000E-01      8.574219000000000E+01      2.674713000000000E-01      6.832421000000000E+01
4813000000.000000      4.582672000000000E-01      9.466015000000000E+01      1.574478000000000E-01     -4.405273000000000E+01      1.626816000000000E-01      8.762110000000000E+01      2.705383000000000E-01      6.777734000000000E+01
4814000000.000000      4.579620000000000E-01      9.484766000000000E+01      1.570816000000000E-01     -4.200781000000000E+01      1.622543000000000E-01      8.917969000000000E+01      2.710266000000000E-01      6.680078000000000E+01
4815000000.000000      4.577484000000000E-01      9.527344000000000E+01      1.570435000000000E-01     -4.058789000000000E+01      1.622849000000000E-01      9.078905000000000E+01      2.718353000000000E-01      6.569530000000000E+01
4816000000.000000      4.589539000000000E-01      9.561718000000000E+01      1.576614000000000E-01     -3.873632000000000E+01      1.633377000000000E-01      9.255859000000000E+01      2.712097000000000E-01      6.483984000000000E+01
4817000000.000000      4.580688000000000E-01      9.606249000000000E+01      1.580811000000000E-01     -3.701757000000000E+01      1.633759000000000E-01      9.413671000000000E+01      2.714081000000000E-01      6.430078000000000E+01
4818000000.000000      4.572449000000000E-01      9.630468000000000E+01      1.586304000000000E-01     -3.527539000000000E+01      1.646194000000000E-01      9.574610000000000E+01      2.713013000000000E-01      6.341015000000000E+01
4819000000.000000      4.569397000000000E-01      9.667969000000000E+01      1.600800000000000E-01     -3.370508000000000E+01      1.658249000000000E-01      9.722656000000000E+01      2.711639000000000E-01      6.243750000000000E+01
4820000000.000000      4.536133000000000E-01      9.707420000000000E+01      1.617050000000000E-01     -3.187988000000000E+01      1.672592000000000E-01      9.873436000000000E+01      2.722321000000000E-01      6.174609000000000E+01
4821000000.000000      4.538574000000000E-01      9.733984000000000E+01      1.638641000000000E-01     -3.033691000000000E+01      1.688309000000000E-01      1.002734000000000E+02      2.725220000000000E-01      6.052343000000000E+01
4822000000.000000      4.520111000000000E-01      9.770311000000000E+01      1.655197000000000E-01     -2.901660000000000E+01      1.708755000000000E-01      1.016680000000000E+02      2.719269000000000E-01      5.959374000000000E+01
4823000000.000000      4.499054000000000E-01      9.810156000000000E+01      1.679993000000000E-01     -2.755859000000000E+01      1.730957000000000E-01      1.031406000000000E+02      2.720032000000000E-01      5.836132000000000E+01
4824000000.000000      4.486389000000000E-01      9.853905000000000E+01      1.704788000000000E-01     -2.618066000000000E+01      1.755142000000000E-01      1.044219000000000E+02      2.703247000000000E-01      5.738086000000000E+01
4825000000.000000      4.457092000000000E-01      9.882813000000000E+01      1.731033000000000E-01     -2.469238000000000E+01      1.787949000000000E-01      1.057109000000000E+02      2.701111000000000E-01      5.643749000000000E+01
4826000000.000000      4.435120000000000E-01      9.924999000000000E+01      1.760178000000000E-01     -2.342773000000000E+01      1.809540000000000E-01      1.068203000000000E+02      2.695770000000000E-01      5.544531000000000E+01
4827000000.000000      4.406433000000000E-01      9.964062000000000E+01      1.790543000000000E-01     -2.235644000000000E+01      1.842804000000000E-01      1.080117000000000E+02      2.694092000000000E-01      5.432422000000000E+01
4828000000.000000      4.382477000000000E-01      1.000703000000000E+02      1.830521000000000E-01     -2.108984000000000E+01      1.875153000000000E-01      1.090820000000000E+02      2.661438000000000E-01      5.318945000000000E+01
4829000000.000000      4.341431000000000E-01      1.006055000000000E+02      1.860352000000000E-01     -2.011230000000000E+01      1.913300000000000E-01      1.102070000000000E+02      2.678528000000000E-01      5.219727000000000E+01
4830000000.000000      4.315033000000000E-01      1.008789000000000E+02      1.900406000000000E-01     -1.925390000000000E+01      1.946182000000000E-01      1.111172000000000E+02      2.646637000000000E-01      5.113867000000000E+01
4831000000.000000      4.273376000000000E-01      1.012695000000000E+02      1.933899000000000E-01     -1.830957000000000E+01      1.986389000000000E-01      1.120000000000000E+02      2.637329000000000E-01      5.031836000000000E+01
4832000000.000000      4.238739000000000E-01      1.018008000000000E+02      1.971664000000000E-01     -1.734375000000000E+01      2.017746000000000E-01      1.128281000000000E+02      2.622681000000000E-01      4.910937000000000E+01
4833000000.000000      4.192810000000000E-01      1.021055000000000E+02      2.009888000000000E-01     -1.645410000000000E+01      2.058182000000000E-01      1.135781000000000E+02      2.597046000000000E-01      4.812109000000000E+01
4834000000.000000      4.157715000000000E-01      1.025703000000000E+02      2.051010000000000E-01     -1.593311000000000E+01      2.102585000000000E-01      1.143320000000000E+02      2.598877000000000E-01      4.703515000000000E+01
4835000000.000000      4.106140000000000E-01      1.029258000000000E+02      2.099686000000000E-01     -1.525635000000000E+01      2.145386000000000E-01      1.150547000000000E+02      2.575226000000000E-01      4.559960000000000E+01
4836000000.000000      4.078217000000000E-01      1.033906000000000E+02      2.133484000000000E-01     -1.454492000000000E+01      2.182007000000000E-01      1.157578000000000E+02      2.565613000000000E-01      4.459570000000000E+01
4837000000.000000      4.025421000000000E-01      1.039648000000000E+02      2.178116000000000E-01     -1.419336000000000E+01      2.226105000000000E-01      1.162500000000000E+02      2.556152000000000E-01      4.346289000000000E+01
4838000000.000000      3.970795000000000E-01      1.043281000000000E+02      2.225266000000000E-01     -1.354346000000000E+01      2.270432000000000E-01      1.169453000000000E+02      2.522736000000000E-01      4.241992000000000E+01
4839000000.000000      3.938904000000000E-01      1.048242000000000E+02      2.273254000000000E-01     -1.308887000000000E+01      2.318344000000000E-01      1.172852000000000E+02      2.508240000000000E-01      4.074609000000000E+01
4840000000.000000      3.869629000000000E-01      1.051289000000000E+02      2.321777000000000E-01     -1.243799000000000E+01      2.362289000000000E-01      1.178320000000000E+02      2.474747000000000E-01      3.996094000000000E+01
4841000000.000000      3.833618000000000E-01      1.056836000000000E+02      2.362595000000000E-01     -1.238330000000000E+01      2.407379000000000E-01      1.181758000000000E+02      2.469254000000000E-01      3.867969000000000E+01
4842000000.000000      3.775024000000000E-01      1.060859000000000E+02      2.409897000000000E-01     -1.194531000000000E+01      2.446671000000000E-01      1.186211000000000E+02      2.455139000000000E-01      3.785351000000000E+01
4843000000.000000      3.723755000000000E-01      1.064531000000000E+02      2.462463000000000E-01     -1.186279000000000E+01      2.501678000000000E-01      1.189609000000000E+02      2.432556000000000E-01      3.645312000000000E+01
4844000000.000000      3.666229000000000E-01      1.069336000000000E+02      2.502136000000000E-01     -1.160596000000000E+01      2.541351000000000E-01      1.192422000000000E+02      2.388992000000000E-01      3.563477000000000E+01
4845000000.000000      3.600006000000000E-01      1.074961000000000E+02      2.552490000000000E-01     -1.135596000000000E+01      2.592621000000000E-01      1.195156000000000E+02      2.383804000000000E-01      3.425390000000000E+01
4846000000.000000      3.550110000000000E-01      1.079609000000000E+02      2.610626000000000E-01     -1.109375000000000E+01      2.644653000000000E-01      1.197656000000000E+02      2.364578000000000E-01      3.328906000000000E+01
4847000000.000000      3.489532000000000E-01      1.084648000000000E+02      2.657318000000000E-01     -1.086279000000000E+01      2.691650000000000E-01      1.199258000000000E+02      2.316589000000000E-01      3.188769000000000E+01
4848000000.000000      3.424530000000000E-01      1.089219000000000E+02      2.701416000000000E-01     -1.084521000000000E+01      2.738495000000000E-01      1.200898000000000E+02      2.310257000000000E-01      3.061035000000000E+01
4849000000.000000      3.367310000000000E-01      1.092266000000000E+02      2.757568000000000E-01     -1.093018000000000E+01      2.785034000000000E-01      1.204102000000000E+02      2.283249000000000E-01      2.945019000000000E+01
4850000000.000000      3.304749000000000E-01      1.097734000000000E+02      2.804565000000000E-01     -1.098633000000000E+01      2.834167000000000E-01      1.205039000000000E+02      2.251434000000000E-01      2.835351000000000E+01
4851000000.000000      3.238525000000000E-01      1.103164000000000E+02      2.864990000000000E-01     -1.090674000000000E+01      2.883606000000000E-01      1.206836000000000E+02      2.242966000000000E-01      2.718359000000000E+01
4852000000.000000      3.172760000000000E-01      1.108633000000000E+02      2.904510000000000E-01     -1.088232000000000E+01      2.939911000000000E-01      1.208594000000000E+02      2.210999000000000E-01      2.577734000000000E+01
4853000000.000000      3.110199000000000E-01      1.113359000000000E+02      2.944794000000000E-01     -1.091943000000000E+01      2.982941000000000E-01      1.209297000000000E+02      2.177734000000000E-01      2.485742000000000E+01
4854000000.000000      3.035126000000000E-01      1.117773000000000E+02      3.002014000000000E-01     -1.120068000000000E+01      3.037567000000000E-01      1.210156000000000E+02      2.164078000000000E-01      2.363379000000000E+01
4855000000.000000      2.977142000000000E-01      1.122500000000000E+02      3.053284000000000E-01     -1.126953000000000E+01      3.083649000000000E-01      1.210976000000000E+02      2.121506000000000E-01      2.249512000000000E+01
4856000000.000000      2.908936000000000E-01      1.127266000000000E+02      3.106689000000000E-01     -1.130371000000000E+01      3.134613000000000E-01      1.211094000000000E+02      2.106018000000000E-01      2.141602000000000E+01
4857000000.000000      2.834778000000000E-01      1.133242000000000E+02      3.154602000000000E-01     -1.128467000000000E+01      3.181000000000000E-01      1.210508000000000E+02      2.070313000000000E-01      2.025683000000000E+01
4858000000.000000      2.754822000000000E-01      1.136250000000000E+02      3.204498000000000E-01     -1.158691000000000E+01      3.237610000000000E-01      1.212148000000000E+02      2.049942000000000E-01      1.895898000000000E+01
4859000000.000000      2.687225000000000E-01      1.142695000000000E+02      3.251038000000000E-01     -1.190381000000000E+01      3.281403000000000E-01      1.211641000000000E+02      2.020645000000000E-01      1.775586000000000E+01
4860000000.000000      2.626190000000000E-01      1.148398000000000E+02      3.303528000000000E-01     -1.202344000000000E+01      3.324738000000000E-01      1.210469000000000E+02      2.002411000000000E-01      1.666601000000000E+01
4861000000.000000      2.550049000000000E-01      1.153477000000000E+02      3.351593000000000E-01     -1.223193000000000E+01      3.385620000000000E-01      1.210508000000000E+02      1.977005000000000E-01      1.546436000000000E+01
4862000000.000000      2.470169000000000E-01      1.159101000000000E+02      3.403931000000000E-01     -1.246436000000000E+01      3.440552000000000E-01      1.211133000000000E+02      1.945419000000000E-01      1.422021000000000E+01
4863000000.000000      2.395935000000000E-01      1.164492000000000E+02      3.439484000000000E-01     -1.287744000000000E+01      3.486481000000000E-01      1.209766000000000E+02      1.925354000000000E-01      1.321631000000000E+01
4864000000.000000      2.325974000000000E-01      1.169492000000000E+02      3.503265000000000E-01     -1.281006000000000E+01      3.534851000000000E-01      1.209414000000000E+02      1.893921000000000E-01      1.191602000000000E+01
4865000000.000000      2.249603000000000E-01      1.174726000000000E+02      3.550720000000000E-01     -1.318506000000000E+01      3.582916000000000E-01      1.208086000000000E+02      1.875763000000000E-01      1.107422000000000E+01
4866000000.000000      2.170334000000000E-01      1.179258000000000E+02      3.591003000000000E-01     -1.342676000000000E+01      3.642578000000000E-01      1.206758000000000E+02      1.849365000000000E-01      9.581055000000000E+00
4867000000.000000      2.092285000000000E-01      1.185273000000000E+02      3.644104000000000E-01     -1.400635000000000E+01      3.687286000000000E-01      1.206953000000000E+02      1.822815000000000E-01      8.620117000000000E+00
4868000000.000000      2.023544000000000E-01      1.191523000000000E+02      3.687744000000000E-01     -1.415186000000000E+01      3.737183000000000E-01      1.204531000000000E+02      1.792068000000000E-01      7.536621000000000E+00
4869000000.000000      1.943207000000000E-01      1.199297000000000E+02      3.736725000000000E-01     -1.431689000000000E+01      3.789215000000000E-01      1.204453000000000E+02      1.764984000000000E-01      6.274414000000000E+00
4870000000.000000      1.871262000000000E-01      1.203750000000000E+02      3.782349000000000E-01     -1.461475000000000E+01      3.840942000000000E-01      1.203125000000000E+02      1.740417000000000E-01      5.347412000000000E+00
4871000000.000000      1.793747000000000E-01      1.211211000000000E+02      3.826141000000000E-01     -1.508057000000000E+01      3.885498000000000E-01      1.201758000000000E+02      1.712341000000000E-01      4.221436000000000E+00
4872000000.000000      1.723175000000000E-01      1.218008000000000E+02      3.867188000000000E-01     -1.537842000000000E+01      3.931274000000000E-01      1.197930000000000E+02      1.691589000000000E-01      3.243652000000000E+00
4873000000.000000      1.643906000000000E-01      1.226015000000000E+02      3.912964000000000E-01     -1.568604000000000E+01      3.983917000000000E-01      1.197383000000000E+02      1.656036000000000E-01      2.021484000000000E+00
4874000000.000000      1.567841000000000E-01      1.233516000000000E+02      3.966370000000000E-01     -1.612109000000000E+01      4.042969000000000E-01      1.195859000000000E+02      1.641464000000000E-01      1.094482000000000E+00
4875000000.000000      1.492996000000000E-01      1.242031000000000E+02      4.010925000000000E-01     -1.642676000000000E+01      4.086304000000000E-01      1.193086000000000E+02      1.609116000000000E-01      0.000000000000000E+00
4876000000.000000      1.422119000000000E-01      1.250469000000000E+02      4.057617000000000E-01     -1.684668000000000E+01      4.138489000000000E-01      1.190586000000000E+02      1.585388000000000E-01     -1.359558000000000E+00
4877000000.000000      1.344528000000000E-01      1.257695000000000E+02      4.102783000000000E-01     -1.735644000000000E+01      4.190521000000000E-01      1.186797000000000E+02      1.554871000000000E-01     -2.132813000000000E+00
4878000000.000000      1.272202000000000E-01      1.270117000000000E+02      4.151001000000000E-01     -1.763086000000000E+01      4.239502000000000E-01      1.187695000000000E+02      1.532898000000000E-01     -3.206665000000000E+00
4879000000.000000      1.205788000000000E-01      1.281406000000000E+02      4.182281000000000E-01     -1.784668000000000E+01      4.288483000000000E-01      1.183555000000000E+02      1.509323000000000E-01     -4.401611000000000E+00
4880000000.000000      1.127739000000000E-01      1.291250000000000E+02      4.229584000000000E-01     -1.839551000000000E+01      4.334717000000000E-01      1.182227000000000E+02      1.473312000000000E-01     -5.283203000000000E+00
4881000000.000000      1.057243000000000E-01      1.308047000000000E+02      4.280853000000000E-01     -1.857519000000000E+01      4.382019000000000E-01      1.178437000000000E+02      1.452560000000000E-01     -6.104492000000000E+00
4882000000.000000      9.900665000000000E-02      1.318281000000000E+02      4.321747000000000E-01     -1.918848000000000E+01      4.437866000000000E-01      1.175859000000000E+02      1.425323000000000E-01     -6.796631000000000E+00
