! Network Analyzer HP8722D
! Hewlett-Packard
! Data name: Linha & Wilkinson
! Saver's name: Rodrigo Anjos
! Comments: Teste da utilização de aquisição
continua pelo VNA HP8722D
! Time and date: 25/4/2025 15:22
!              Frequency                     S11                                                   S21                                                   S12                                                   S22
# HZ  S  MA R 50
4800000000.000000      4.376526000000000E-01      9.080078000000000E+01      1.855240000000000E-01     -6.392968000000000E+01      1.903458000000000E-01      6.954687000000000E+01      2.493973000000000E-01      7.720703000000000E+01
4801000000.000000      4.407806000000000E-01      9.128124000000000E+01      1.812363000000000E-01     -6.283398000000000E+01      1.866150000000000E-01      7.036327000000000E+01      2.532196000000000E-01      7.632030000000000E+01
4802000000.000000      4.435883000000000E-01      9.137499000000000E+01      1.772461000000000E-01     -6.163280000000000E+01      1.831894000000000E-01      7.130859000000000E+01      2.568359000000000E-01      7.537890000000000E+01
4803000000.000000      4.461670000000000E-01      9.171484000000000E+01      1.750565000000000E-01     -6.044531000000000E+01      1.797638000000000E-01      7.254296000000000E+01      2.575378000000000E-01      7.513672000000000E+01
4804000000.000000      4.488220000000000E-01      9.202734000000000E+01      1.718216000000000E-01     -5.919531000000000E+01      1.769562000000000E-01      7.357812000000000E+01      2.595062000000000E-01      7.479687000000000E+01
4805000000.000000      4.521790000000000E-01      9.219530000000000E+01      1.691742000000000E-01     -5.783789000000000E+01      1.743164000000000E-01      7.485937000000000E+01      2.608490000000000E-01      7.356250000000000E+01
4806000000.000000      4.534607000000000E-01      9.251562000000000E+01      1.665344000000000E-01     -5.620507000000000E+01      1.715317000000000E-01      7.625000000000000E+01      2.607117000000000E-01      7.323047000000000E+01
4807000000.000000      4.549713000000000E-01      9.278906000000000E+01      1.645355000000000E-01     -5.480469000000000E+01      1.691666000000000E-01      7.747656000000000E+01      2.633667000000000E-01      7.267187000000000E+01
4808000000.000000      4.575500000000000E-01      9.309765000000000E+01      1.629715000000000E-01     -5.325585000000000E+01      1.672821000000000E-01      7.894921000000000E+01      2.645416000000000E-01      7.151953000000000E+01
4809000000.000000      4.584045000000000E-01      9.348827000000000E+01      1.605072000000000E-01     -5.171093000000000E+01      1.660004000000000E-01      8.043360000000000E+01      2.670135000000000E-01      7.100390000000000E+01
4810000000.000000      4.586792000000000E-01      9.382030000000000E+01      1.590881000000000E-01     -5.003515000000000E+01      1.641464000000000E-01      8.194530000000000E+01      2.657623000000000E-01      7.041797000000000E+01
4811000000.000000      4.610596000000000E-01      9.408594000000000E+01      1.583939000000000E-01     -4.837695000000000E+01      1.633682000000000E-01      8.354296000000000E+01      2.677307000000000E-01      6.930078000000000E+01
4812000000.000000      4.619598000000000E-01      9.443750000000000E+01      1.578598000000000E-01     -4.654882000000000E+01      1.625671000000000E-01      8.514843000000000E+01      2.682037000000000E-01      6.839453000000000E+01
4813000000.000000      4.619904000000000E-01      9.483984000000000E+01      1.566238000000000E-01     -4.485937000000000E+01      1.617279000000000E-01      8.687109000000000E+01      2.714996000000000E-01      6.812500000000000E+01
4814000000.000000      4.612885000000000E-01      9.506639000000000E+01      1.564941000000000E-01     -4.292773000000000E+01      1.613693000000000E-01      8.851171000000000E+01      2.697754000000000E-01      6.703515000000000E+01
4815000000.000000      4.613647000000000E-01      9.545702000000000E+01      1.563950000000000E-01     -4.141992000000000E+01      1.612778000000000E-01      9.010937000000000E+01      2.719879000000000E-01      6.629687000000000E+01
4816000000.000000      4.621277000000000E-01      9.582811000000000E+01      1.568756000000000E-01     -3.953125000000000E+01      1.622772000000000E-01      9.175781000000000E+01      2.724304000000000E-01      6.551562000000000E+01
4817000000.000000      4.606323000000000E-01      9.624609000000000E+01      1.573257000000000E-01     -3.766406000000000E+01      1.622009000000000E-01      9.330469000000000E+01      2.720032000000000E-01      6.451172000000000E+01
4818000000.000000      4.600525000000000E-01      9.651953000000000E+01      1.581802000000000E-01     -3.595703000000000E+01      1.633453000000000E-01      9.501171000000000E+01      2.728577000000000E-01      6.355078000000000E+01
4819000000.000000      4.596252000000000E-01      9.682030000000000E+01      1.593399000000000E-01     -3.451562000000000E+01      1.643295000000000E-01      9.663280000000000E+01      2.713318000000000E-01      6.313086000000000E+01
4820000000.000000      4.564362000000000E-01      9.716797000000000E+01      1.602173000000000E-01     -3.270508000000000E+01      1.659775000000000E-01      9.814453000000000E+01      2.721558000000000E-01      6.157617000000000E+01
4821000000.000000      4.573517000000000E-01      9.760155000000000E+01      1.622086000000000E-01     -3.109179000000000E+01      1.674194000000000E-01      9.955078000000000E+01      2.722321000000000E-01      6.093359000000000E+01
4822000000.000000      4.547882000000000E-01      9.784374000000000E+01      1.635513000000000E-01     -2.962109000000000E+01      1.691055000000000E-01      1.009766000000000E+02      2.724762000000000E-01      5.968359000000000E+01
4823000000.000000      4.530487000000000E-01      9.825390000000000E+01      1.664658000000000E-01     -2.799609000000000E+01      1.712189000000000E-01      1.024922000000000E+02      2.704620000000000E-01      5.879687000000000E+01
4824000000.000000      4.518127000000000E-01      9.865234000000000E+01      1.687393000000000E-01     -2.672852000000000E+01      1.739120000000000E-01      1.037187000000000E+02      2.710876000000000E-01      5.764062000000000E+01
4825000000.000000      4.490356000000000E-01      9.905077000000000E+01      1.711044000000000E-01     -2.531836000000000E+01      1.765671000000000E-01      1.050352000000000E+02      2.691193000000000E-01      5.687109000000000E+01
4826000000.000000      4.464874000000000E-01      9.942577000000000E+01      1.743317000000000E-01     -2.416308000000000E+01      1.794968000000000E-01      1.062383000000000E+02      2.689819000000000E-01      5.578711000000000E+01
4827000000.000000      4.434967000000000E-01      9.974998000000000E+01      1.772537000000000E-01     -2.286621000000000E+01      1.824722000000000E-01      1.074336000000000E+02      2.689972000000000E-01      5.465625000000000E+01
4828000000.000000      4.420929000000000E-01      1.001563000000000E+02      1.808014000000000E-01     -2.168457000000000E+01      1.854706000000000E-01      1.085898000000000E+02      2.674255000000000E-01      5.333398000000000E+01
4829000000.000000      4.376221000000000E-01      1.007578000000000E+02      1.841354000000000E-01     -2.050000000000000E+01      1.890411000000000E-01      1.097305000000000E+02      2.652588000000000E-01      5.240039000000000E+01
4830000000.000000      4.345093000000000E-01      1.009805000000000E+02      1.874619000000000E-01     -1.935547000000000E+01      1.921692000000000E-01      1.106836000000000E+02      2.651062000000000E-01      5.142383000000000E+01
4831000000.000000      4.303436000000000E-01      1.014609000000000E+02      1.908569000000000E-01     -1.865918000000000E+01      1.961136000000000E-01      1.115351000000000E+02      2.644043000000000E-01      5.005859000000000E+01
4832000000.000000      4.272614000000000E-01      1.020156000000000E+02      1.944962000000000E-01     -1.772168000000000E+01      1.995010000000000E-01      1.125195000000000E+02      2.633209000000000E-01      4.949023000000000E+01
4833000000.000000      4.229431000000000E-01      1.022890000000000E+02      1.984024000000000E-01     -1.679590000000000E+01      2.035904000000000E-01      1.132695000000000E+02      2.604675000000000E-01      4.811523000000000E+01
4834000000.000000      4.196167000000000E-01      1.027500000000000E+02      2.028275000000000E-01     -1.605566000000000E+01      2.077484000000000E-01      1.140430000000000E+02      2.611542000000000E-01      4.709765000000000E+01
4835000000.000000      4.153595000000000E-01      1.030508000000000E+02      2.075577000000000E-01     -1.546484000000000E+01      2.113342000000000E-01      1.147031000000000E+02      2.584686000000000E-01      4.598242000000000E+01
4836000000.000000      4.111633000000000E-01      1.035508000000000E+02      2.109299000000000E-01     -1.488525000000000E+01      2.160950000000000E-01      1.153984000000000E+02      2.554321000000000E-01      4.497460000000000E+01
4837000000.000000      4.064178000000000E-01      1.041133000000000E+02      2.153931000000000E-01     -1.448291000000000E+01      2.202148000000000E-01      1.158633000000000E+02      2.545929000000000E-01      4.406446000000000E+01
4838000000.000000      4.014587000000000E-01      1.044922000000000E+02      2.203674000000000E-01     -1.379639000000000E+01      2.242126000000000E-01      1.164805000000000E+02      2.527771000000000E-01      4.268945000000000E+01
4839000000.000000      3.981476000000000E-01      1.049062000000000E+02      2.247162000000000E-01     -1.323486000000000E+01      2.289047000000000E-01      1.169844000000000E+02      2.518158000000000E-01      4.129883000000000E+01
4840000000.000000      3.913879000000000E-01      1.053320000000000E+02      2.290421000000000E-01     -1.278955000000000E+01      2.333832000000000E-01      1.173711000000000E+02      2.480392000000000E-01      4.009961000000000E+01
4841000000.000000      3.871307000000000E-01      1.058164000000000E+02      2.340164000000000E-01     -1.243652000000000E+01      2.381058000000000E-01      1.179062000000000E+02      2.482910000000000E-01      3.895898000000000E+01
4842000000.000000      3.813324000000000E-01      1.062656000000000E+02      2.383347000000000E-01     -1.219092000000000E+01      2.420349000000000E-01      1.183359000000000E+02      2.456360000000000E-01      3.845117000000000E+01
4843000000.000000      3.761139000000000E-01      1.066055000000000E+02      2.436218000000000E-01     -1.206445000000000E+01      2.473984000000000E-01      1.186992000000000E+02      2.436600000000000E-01      3.688672000000000E+01
4844000000.000000      3.707581000000000E-01      1.070742000000000E+02      2.486801000000000E-01     -1.166357000000000E+01      2.516785000000000E-01      1.189922000000000E+02      2.395706000000000E-01      3.572656000000000E+01
4845000000.000000      3.651123000000000E-01      1.076680000000000E+02      2.528687000000000E-01     -1.156592000000000E+01      2.565460000000000E-01      1.192461000000000E+02      2.388687000000000E-01      3.458593000000000E+01
4846000000.000000      3.588409000000000E-01      1.080781000000000E+02      2.572174000000000E-01     -1.131348000000000E+01      2.614899000000000E-01      1.195469000000000E+02      2.358856000000000E-01      3.376758000000000E+01
4847000000.000000      3.536530000000000E-01      1.085781000000000E+02      2.630768000000000E-01     -1.107422000000000E+01      2.663727000000000E-01      1.198047000000000E+02      2.332993000000000E-01      3.211328000000000E+01
4848000000.000000      3.468933000000000E-01      1.089531000000000E+02      2.673187000000000E-01     -1.103613000000000E+01      2.708130000000000E-01      1.199609000000000E+02      2.317734000000000E-01      3.092773000000000E+01
4849000000.000000      3.412476000000000E-01      1.093633000000000E+02      2.729187000000000E-01     -1.108545000000000E+01      2.751923000000000E-01      1.201953000000000E+02      2.278595000000000E-01      3.033789000000000E+01
4850000000.000000      3.346863000000000E-01      1.099258000000000E+02      2.776794000000000E-01     -1.102637000000000E+01      2.805481000000000E-01      1.203359000000000E+02      2.255936000000000E-01      2.864648000000000E+01
4851000000.000000      3.283386000000000E-01      1.103945000000000E+02      2.828369000000000E-01     -1.104297000000000E+01      2.854309000000000E-01      1.204805000000000E+02      2.246704000000000E-01      2.746777000000000E+01
4852000000.000000      3.220978000000000E-01      1.108750000000000E+02      2.870789000000000E-01     -1.108691000000000E+01      2.902679000000000E-01      1.206992000000000E+02      2.231445000000000E-01      2.652344000000000E+01
4853000000.000000      3.155060000000000E-01      1.114414000000000E+02      2.917938000000000E-01     -1.096045000000000E+01      2.954712000000000E-01      1.207265000000000E+02      2.184448000000000E-01      2.528906000000000E+01
4854000000.000000      3.082123000000000E-01      1.118086000000000E+02      2.975769000000000E-01     -1.134375000000000E+01      3.004608000000000E-01      1.208750000000000E+02      2.170334000000000E-01      2.419531000000000E+01
4855000000.000000      3.019867000000000E-01      1.123203000000000E+02      3.024139000000000E-01     -1.132178000000000E+01      3.050995000000000E-01      1.209414000000000E+02      2.134323000000000E-01      2.310351000000000E+01
4856000000.000000      2.949066000000000E-01      1.128672000000000E+02      3.069153000000000E-01     -1.138086000000000E+01      3.098755000000000E-01      1.208945000000000E+02      2.115173000000000E-01      2.182129000000000E+01
4857000000.000000      2.878571000000000E-01      1.133711000000000E+02      3.128967000000000E-01     -1.138184000000000E+01      3.149567000000000E-01      1.210352000000000E+02      2.083969000000000E-01      2.070019000000000E+01
4858000000.000000      2.807007000000000E-01      1.137109000000000E+02      3.173065000000000E-01     -1.171436000000000E+01      3.206635000000000E-01      1.209570000000000E+02      2.062378000000000E-01      1.934668000000000E+01
4859000000.000000      2.739563000000000E-01      1.143008000000000E+02      3.229675000000000E-01     -1.184473000000000E+01      3.247528000000000E-01      1.209922000000000E+02      2.033234000000000E-01      1.830371000000000E+01
4860000000.000000      2.670441000000000E-01      1.148828000000000E+02      3.267059000000000E-01     -1.196289000000000E+01      3.299255000000000E-01      1.210195000000000E+02      2.009888000000000E-01      1.713965000000000E+01
4861000000.000000      2.590942000000000E-01      1.154453000000000E+02      3.321686000000000E-01     -1.226904000000000E+01      3.358307000000000E-01      1.209375000000000E+02      1.975403000000000E-01      1.591504000000000E+01
4862000000.000000      2.515411000000000E-01      1.160273000000000E+02      3.373413000000000E-01     -1.231885000000000E+01      3.406982000000000E-01      1.209141000000000E+02      1.950073000000000E-01      1.472412000000000E+01
4863000000.000000      2.442474000000000E-01      1.163867000000000E+02      3.406982000000000E-01     -1.287061000000000E+01      3.452606000000000E-01      1.210430000000000E+02      1.934052000000000E-01      1.379883000000000E+01
4864000000.000000      2.374039000000000E-01      1.168359000000000E+02      3.471222000000000E-01     -1.275537000000000E+01      3.495789000000000E-01      1.208945000000000E+02      1.906433000000000E-01      1.259277000000000E+01
4865000000.000000      2.293701000000000E-01      1.173516000000000E+02      3.512115000000000E-01     -1.315625000000000E+01      3.554382000000000E-01      1.207305000000000E+02      1.881866000000000E-01      1.158057000000000E+01
4866000000.000000      2.219238000000000E-01      1.179453000000000E+02      3.552094000000000E-01     -1.349561000000000E+01      3.594208000000000E-01      1.206133000000000E+02      1.860580000000000E-01      1.046826000000000E+01
4867000000.000000      2.143250000000000E-01      1.185039000000000E+02      3.615723000000000E-01     -1.379883000000000E+01      3.649597000000000E-01      1.205273000000000E+02      1.830368000000000E-01      9.364258000000000E+00
4868000000.000000      2.072296000000000E-01      1.191289000000000E+02      3.658905000000000E-01     -1.410107000000000E+01      3.705292000000000E-01      1.204492000000000E+02      1.795502000000000E-01      8.117188000000000E+00
4869000000.000000      1.993713000000000E-01      1.197695000000000E+02      3.706055000000000E-01     -1.447607000000000E+01      3.750305000000000E-01      1.202773000000000E+02      1.772232000000000E-01      6.957031000000000E+00
4870000000.000000      1.918793000000000E-01      1.203555000000000E+02      3.759918000000000E-01     -1.455322000000000E+01      3.803711000000000E-01      1.202031000000000E+02      1.752930000000000E-01      6.148193000000000E+00
4871000000.000000      1.845093000000000E-01      1.210898000000000E+02      3.792267000000000E-01     -1.504053000000000E+01      3.849640000000000E-01      1.200703000000000E+02      1.723938000000000E-01      4.873779000000000E+00
4872000000.000000      1.772385000000000E-01      1.216758000000000E+02      3.845673000000000E-01     -1.521094000000000E+01      3.892670000000000E-01      1.197461000000000E+02      1.703720000000000E-01      3.902832000000000E+00
4873000000.000000      1.691284000000000E-01      1.223242000000000E+02      3.889313000000000E-01     -1.568066000000000E+01      3.951416000000000E-01      1.196406000000000E+02      1.664886000000000E-01      2.804199000000000E+00
4874000000.000000      1.615906000000000E-01      1.231523000000000E+02      3.935242000000000E-01     -1.607324000000000E+01      4.013672000000000E-01      1.194141000000000E+02      1.647568000000000E-01      1.634216000000000E+00
4875000000.000000      1.543884000000000E-01      1.240234000000000E+02      3.970490000000000E-01     -1.633594000000000E+01      4.055481000000000E-01      1.192461000000000E+02      1.619263000000000E-01      7.017517000000000E-01
4876000000.000000      1.470871000000000E-01      1.245937000000000E+02      4.016571000000000E-01     -1.690527000000000E+01      4.109955000000000E-01      1.190547000000000E+02      1.594238000000000E-01     -4.463196000000000E-01
4877000000.000000      1.392822000000000E-01      1.254102000000000E+02      4.071808000000000E-01     -1.710058000000000E+01      4.153137000000000E-01      1.188672000000000E+02      1.565170000000000E-01     -1.418640000000000E+00
4878000000.000000      1.320419000000000E-01      1.266367000000000E+02      4.119873000000000E-01     -1.755957000000000E+01      4.192505000000000E-01      1.187187000000000E+02      1.539993000000000E-01     -2.460938000000000E+00
4879000000.000000      1.249123000000000E-01      1.276172000000000E+02      4.144440000000000E-01     -1.787793000000000E+01      4.241638000000000E-01      1.184219000000000E+02      1.515961000000000E-01     -3.534912000000000E+00
4880000000.000000      1.176987000000000E-01      1.285547000000000E+02      4.197693000000000E-01     -1.824707000000000E+01      4.297791000000000E-01      1.182031000000000E+02      1.487656000000000E-01     -4.383545000000000E+00
4881000000.000000      1.107941000000000E-01      1.298672000000000E+02      4.239960000000000E-01     -1.870215000000000E+01      4.349213000000000E-01      1.179805000000000E+02      1.459198000000000E-01     -5.177490000000000E+00
4882000000.000000      1.041641000000000E-01      1.309844000000000E+02      4.293365000000000E-01     -1.921973000000000E+01      4.400330000000000E-01      1.175977000000000E+02      1.433792000000000E-01     -6.050781000000000E+00
