! Network Analyzer HP8722D
! Hewlett-Packard
! Data name: Linha & Wilkinson
! Saver's name: Rodrigo Anjos
! Comments: Teste da utilização de aquisição
continua pelo VNA HP8722D
! Time and date: 25/4/2025 15:49
!              Frequency                     S11                                                   S21                                                   S12                                                   S22
# HZ  S  MA R 50
4800000000.000000      4.342957000000000E-01      9.053125000000000E+01      1.851654000000000E-01     -6.354492000000000E+01      1.904068000000000E-01      6.985937000000000E+01      2.494354000000000E-01      7.718359000000000E+01
4801000000.000000      4.375000000000000E-01      9.083593000000000E+01      1.813965000000000E-01     -6.244531000000000E+01      1.868210000000000E-01      7.070313000000000E+01      2.530823000000000E-01      7.604297000000000E+01
4802000000.000000      4.403076000000000E-01      9.105469000000000E+01      1.781845000000000E-01     -6.130273000000000E+01      1.837997000000000E-01      7.170703000000000E+01      2.562103000000000E-01      7.547656000000000E+01
4803000000.000000      4.427795000000000E-01      9.122265000000000E+01      1.747208000000000E-01     -6.002148000000000E+01      1.801682000000000E-01      7.296875000000000E+01      2.558136000000000E-01      7.473046000000000E+01
4804000000.000000      4.447021000000000E-01      9.156641000000000E+01      1.722183000000000E-01     -5.861523000000000E+01      1.774139000000000E-01      7.405078000000000E+01      2.561340000000000E-01      7.456249000000000E+01
4805000000.000000      4.488831000000000E-01      9.173437000000000E+01      1.693497000000000E-01     -5.740234000000000E+01      1.744232000000000E-01      7.535156000000000E+01      2.609558000000000E-01      7.353516000000000E+01
4806000000.000000      4.494476000000000E-01      9.212109000000000E+01      1.671600000000000E-01     -5.588867000000000E+01      1.719818000000000E-01      7.681250000000000E+01      2.606812000000000E-01      7.321094000000000E+01
4807000000.000000      4.523926000000000E-01      9.248438000000000E+01      1.649857000000000E-01     -5.459374000000000E+01      1.699982000000000E-01      7.796484000000000E+01      2.621460000000000E-01      7.181641000000000E+01
4808000000.000000      4.528198000000000E-01      9.265234000000000E+01      1.630936000000000E-01     -5.269921000000000E+01      1.680527000000000E-01      7.942187000000000E+01      2.624969000000000E-01      7.119922000000000E+01
4809000000.000000      4.544373000000000E-01      9.305079000000000E+01      1.611557000000000E-01     -5.128515000000000E+01      1.667709000000000E-01      8.094921000000000E+01      2.660217000000000E-01      7.117188000000000E+01
4810000000.000000      4.559784000000000E-01      9.339844000000000E+01      1.599808000000000E-01     -4.933594000000000E+01      1.650085000000000E-01      8.260937000000000E+01      2.660980000000000E-01      6.977344000000000E+01
4811000000.000000      4.574432000000000E-01      9.361328000000000E+01      1.589508000000000E-01     -4.782227000000000E+01      1.644592000000000E-01      8.412109000000000E+01      2.680054000000000E-01      6.918750000000000E+01
4812000000.000000      4.582520000000000E-01      9.403124000000000E+01      1.581421000000000E-01     -4.620898000000000E+01      1.634598000000000E-01      8.569921000000000E+01      2.680511000000000E-01      6.795312000000000E+01
4813000000.000000      4.577942000000000E-01      9.437500000000000E+01      1.574173000000000E-01     -4.416211000000000E+01      1.627655000000000E-01      8.739452000000000E+01      2.723083000000000E-01      6.726563000000000E+01
4814000000.000000      4.570313000000000E-01      9.465624000000000E+01      1.575470000000000E-01     -4.247460000000000E+01      1.624222000000000E-01      8.892969000000000E+01      2.721252000000000E-01      6.685937000000000E+01
4815000000.000000      4.582825000000000E-01      9.504297000000000E+01      1.576080000000000E-01     -4.070703000000000E+01      1.622696000000000E-01      9.057812000000000E+01      2.712555000000000E-01      6.572656000000000E+01
4816000000.000000      4.587708000000000E-01      9.532812000000000E+01      1.581726000000000E-01     -3.884570000000000E+01      1.632156000000000E-01      9.231640000000000E+01      2.717590000000000E-01      6.438281000000000E+01
4817000000.000000      4.570007000000000E-01      9.580858000000000E+01      1.587296000000000E-01     -3.732812000000000E+01      1.635284000000000E-01      9.402344000000000E+01      2.715302000000000E-01      6.441406000000000E+01
4818000000.000000      4.562531000000000E-01      9.608984000000000E+01      1.593323000000000E-01     -3.553906000000000E+01      1.647720000000000E-01      9.551172000000000E+01      2.722626000000000E-01      6.351367000000000E+01
4819000000.000000      4.555664000000000E-01      9.643749000000000E+01      1.605682000000000E-01     -3.385742000000000E+01      1.657944000000000E-01      9.718750000000000E+01      2.696228000000000E-01      6.268945000000000E+01
4820000000.000000      4.528351000000000E-01      9.678514000000000E+01      1.618423000000000E-01     -3.214258000000000E+01      1.675186000000000E-01      9.868750000000000E+01      2.723541000000000E-01      6.150000000000000E+01
4821000000.000000      4.533691000000000E-01      9.714844000000000E+01      1.639709000000000E-01     -3.063867000000000E+01      1.688004000000000E-01      1.000820000000000E+02      2.723389000000000E-01      6.081249000000000E+01
4822000000.000000      4.505615000000000E-01      9.743750000000000E+01      1.656723000000000E-01     -2.916113000000000E+01      1.708832000000000E-01      1.014297000000000E+02      2.713623000000000E-01      5.951562000000000E+01
4823000000.000000      4.493866000000000E-01      9.791796000000000E+01      1.681366000000000E-01     -2.765722000000000E+01      1.728516000000000E-01      1.030898000000000E+02      2.715607000000000E-01      5.839062000000000E+01
4824000000.000000      4.476776000000000E-01      9.830078000000000E+01      1.704483000000000E-01     -2.624023000000000E+01      1.753082000000000E-01      1.041914000000000E+02      2.705688000000000E-01      5.766406000000000E+01
4825000000.000000      4.440308000000000E-01      9.857811000000000E+01      1.737137000000000E-01     -2.481543000000000E+01      1.789322000000000E-01      1.055664000000000E+02      2.691650000000000E-01      5.656640000000000E+01
4826000000.000000      4.416656000000000E-01      9.902733000000000E+01      1.762695000000000E-01     -2.364844000000000E+01      1.810989000000000E-01      1.067695000000000E+02      2.690582000000000E-01      5.546288000000000E+01
4827000000.000000      4.392395000000000E-01      9.941406000000000E+01      1.787033000000000E-01     -2.246387000000000E+01      1.841660000000000E-01      1.078945000000000E+02      2.702637000000000E-01      5.400000000000000E+01
4828000000.000000      4.376068000000000E-01      9.974998000000000E+01      1.828842000000000E-01     -2.129785000000000E+01      1.874771000000000E-01      1.089063000000000E+02      2.668915000000000E-01      5.306250000000000E+01
4829000000.000000      4.331512000000000E-01      1.003711000000000E+02      1.859360000000000E-01     -2.025488000000000E+01      1.913681000000000E-01      1.100586000000000E+02      2.673645000000000E-01      5.215429000000000E+01
4830000000.000000      4.300995000000000E-01      1.006133000000000E+02      1.894226000000000E-01     -1.932129000000000E+01      1.944962000000000E-01      1.109844000000000E+02      2.658081000000000E-01      5.121875000000000E+01
4831000000.000000      4.254456000000000E-01      1.010312000000000E+02      1.932144000000000E-01     -1.847265000000000E+01      1.983032000000000E-01      1.119453000000000E+02      2.634430000000000E-01      5.012500000000000E+01
4832000000.000000      4.223022000000000E-01      1.015547000000000E+02      1.967239000000000E-01     -1.746973000000000E+01      2.020035000000000E-01      1.127773000000000E+02      2.625580000000000E-01      4.910742000000000E+01
4833000000.000000      4.183807000000000E-01      1.018359000000000E+02      2.009430000000000E-01     -1.664648000000000E+01      2.060318000000000E-01      1.134805000000000E+02      2.606812000000000E-01      4.811132000000000E+01
4834000000.000000      4.141083000000000E-01      1.023750000000000E+02      2.053223000000000E-01     -1.596191000000000E+01      2.101212000000000E-01      1.143164000000000E+02      2.588196000000000E-01      4.692773000000000E+01
4835000000.000000      4.109802000000000E-01      1.026953000000000E+02      2.100143000000000E-01     -1.544287000000000E+01      2.142410000000000E-01      1.149531000000000E+02      2.571716000000000E-01      4.559960000000000E+01
4836000000.000000      4.064178000000000E-01      1.031250000000000E+02      2.135086000000000E-01     -1.479199000000000E+01      2.180939000000000E-01      1.156992000000000E+02      2.559814000000000E-01      4.458789000000000E+01
4837000000.000000      4.013367000000000E-01      1.037187000000000E+02      2.178345000000000E-01     -1.435791000000000E+01      2.227478000000000E-01      1.162109000000000E+02      2.550354000000000E-01      4.339063000000000E+01
4838000000.000000      3.962402000000000E-01      1.040664000000000E+02      2.235260000000000E-01     -1.358643000000000E+01      2.270584000000000E-01      1.167461000000000E+02      2.515259000000000E-01      4.215039000000000E+01
4839000000.000000      3.928070000000000E-01      1.044844000000000E+02      2.277451000000000E-01     -1.305078000000000E+01      2.318039000000000E-01      1.172500000000000E+02      2.508087000000000E-01      4.086133000000000E+01
4840000000.000000      3.867798000000000E-01      1.049180000000000E+02      2.323608000000000E-01     -1.274414000000000E+01      2.362747000000000E-01      1.176406000000000E+02      2.470016000000000E-01      3.983593000000000E+01
4841000000.000000      3.819733000000000E-01      1.053945000000000E+02      2.365952000000000E-01     -1.258789000000000E+01      2.407227000000000E-01      1.179844000000000E+02      2.458878000000000E-01      3.863281000000000E+01
4842000000.000000      3.755493000000000E-01      1.058867000000000E+02      2.414780000000000E-01     -1.199609000000000E+01      2.448654000000000E-01      1.185312000000000E+02      2.451859000000000E-01      3.753906000000000E+01
4843000000.000000      3.706055000000000E-01      1.061836000000000E+02      2.463379000000000E-01     -1.182568000000000E+01      2.500916000000000E-01      1.188789000000000E+02      2.424850000000000E-01      3.658789000000000E+01
4844000000.000000      3.647003000000000E-01      1.066562000000000E+02      2.513733000000000E-01     -1.161426000000000E+01      2.542572000000000E-01      1.191953000000000E+02      2.399750000000000E-01      3.528906000000000E+01
4845000000.000000      3.587952000000000E-01      1.072578000000000E+02      2.562103000000000E-01     -1.143164000000000E+01      2.593384000000000E-01      1.194727000000000E+02      2.371140000000000E-01      3.409180000000000E+01
4846000000.000000      3.531189000000000E-01      1.076563000000000E+02      2.612915000000000E-01     -1.122266000000000E+01      2.646942000000000E-01      1.197305000000000E+02      2.353592000000000E-01      3.295898000000000E+01
4847000000.000000      3.481750000000000E-01      1.081914000000000E+02      2.662354000000000E-01     -1.114160000000000E+01      2.693634000000000E-01      1.199336000000000E+02      2.323608000000000E-01      3.202343000000000E+01
4848000000.000000      3.414307000000000E-01      1.085469000000000E+02      2.707520000000000E-01     -1.107861000000000E+01      2.740479000000000E-01      1.200937000000000E+02      2.318802000000000E-01      3.057812000000000E+01
4849000000.000000      3.350525000000000E-01      1.089063000000000E+02      2.754517000000000E-01     -1.117480000000000E+01      2.789307000000000E-01      1.202187000000000E+02      2.278366000000000E-01      2.942871000000000E+01
4850000000.000000      3.288269000000000E-01      1.095469000000000E+02      2.805176000000000E-01     -1.097852000000000E+01      2.837982000000000E-01      1.204180000000000E+02      2.257843000000000E-01      2.870312000000000E+01
4851000000.000000      3.221283000000000E-01      1.100586000000000E+02      2.863159000000000E-01     -1.100732000000000E+01      2.892151000000000E-01      1.206250000000000E+02      2.235947000000000E-01      2.701172000000000E+01
4852000000.000000      3.157349000000000E-01      1.104688000000000E+02      2.905884000000000E-01     -1.114160000000000E+01      2.939148000000000E-01      1.207187000000000E+02      2.203903000000000E-01      2.602246000000000E+01
4853000000.000000      3.094788000000000E-01      1.110742000000000E+02      2.951355000000000E-01     -1.117627000000000E+01      2.982330000000000E-01      1.208476000000000E+02      2.180862000000000E-01      2.462988000000000E+01
4854000000.000000      3.021393000000000E-01      1.114141000000000E+02      3.003998000000000E-01     -1.128857000000000E+01      3.037415000000000E-01      1.208437000000000E+02      2.166901000000000E-01      2.345117000000000E+01
4855000000.000000      2.955933000000000E-01      1.118828000000000E+02      3.059692000000000E-01     -1.125830000000000E+01      3.088379000000000E-01      1.209180000000000E+02      2.122726000000000E-01      2.237988000000000E+01
4856000000.000000      2.887115000000000E-01      1.125195000000000E+02      3.106079000000000E-01     -1.130908000000000E+01      3.136292000000000E-01      1.210352000000000E+02      2.104721000000000E-01      2.131445000000000E+01
4857000000.000000      2.817993000000000E-01      1.129844000000000E+02      3.159027000000000E-01     -1.144385000000000E+01      3.187866000000000E-01      1.210586000000000E+02      2.076263000000000E-01      2.012793000000000E+01
4858000000.000000      2.737885000000000E-01      1.132930000000000E+02      3.202515000000000E-01     -1.172559000000000E+01      3.233490000000000E-01      1.209883000000000E+02      2.052231000000000E-01      1.896094000000000E+01
4859000000.000000      2.671509000000000E-01      1.138437000000000E+02      3.265381000000000E-01     -1.199316000000000E+01      3.288727000000000E-01      1.211680000000000E+02      2.024841000000000E-01      1.754199000000000E+01
4860000000.000000      2.607422000000000E-01      1.145508000000000E+02      3.299408000000000E-01     -1.192188000000000E+01      3.338013000000000E-01      1.209844000000000E+02      2.001266000000000E-01      1.666211000000000E+01
4861000000.000000      2.527313000000000E-01      1.150312000000000E+02      3.354645000000000E-01     -1.232275000000000E+01      3.385010000000000E-01      1.210976000000000E+02      1.969147000000000E-01      1.525146000000000E+01
4862000000.000000      2.451248000000000E-01      1.155351000000000E+02      3.406067000000000E-01     -1.242432000000000E+01      3.442383000000000E-01      1.210234000000000E+02      1.948013000000000E-01      1.411572000000000E+01
4863000000.000000      2.377319000000000E-01      1.160664000000000E+02      3.447571000000000E-01     -1.280615000000000E+01      3.491211000000000E-01      1.209883000000000E+02      1.921158000000000E-01      1.323438000000000E+01
4864000000.000000      2.304535000000000E-01      1.164687000000000E+02      3.500366000000000E-01     -1.289551000000000E+01      3.536072000000000E-01      1.209766000000000E+02      1.895599000000000E-01      1.179639000000000E+01
4865000000.000000      2.231445000000000E-01      1.170313000000000E+02      3.546448000000000E-01     -1.333496000000000E+01      3.593445000000000E-01      1.207461000000000E+02      1.876678000000000E-01      1.079395000000000E+01
4866000000.000000      2.152100000000000E-01      1.176094000000000E+02      3.596802000000000E-01     -1.353125000000000E+01      3.637390000000000E-01      1.205937000000000E+02      1.851730000000000E-01      9.427246000000000E+00
4867000000.000000      2.072601000000000E-01      1.183398000000000E+02      3.650055000000000E-01     -1.391602000000000E+01      3.681793000000000E-01      1.206602000000000E+02      1.818085000000000E-01      8.401367000000000E+00
4868000000.000000      2.001953000000000E-01      1.188086000000000E+02      3.694305000000000E-01     -1.417969000000000E+01      3.746338000000000E-01      1.202656000000000E+02      1.793289000000000E-01      7.344238000000000E+00
4869000000.000000      1.922607000000000E-01      1.194648000000000E+02      3.739929000000000E-01     -1.457617000000000E+01      3.791351000000000E-01      1.203437000000000E+02      1.763840000000000E-01      6.237305000000000E+00
4870000000.000000      1.849823000000000E-01      1.201211000000000E+02      3.795471000000000E-01     -1.466553000000000E+01      3.841705000000000E-01      1.202305000000000E+02      1.744690000000000E-01      5.122314000000000E+00
4871000000.000000      1.772919000000000E-01      1.207422000000000E+02      3.832092000000000E-01     -1.521240000000000E+01      3.890076000000000E-01      1.200937000000000E+02      1.716156000000000E-01      3.912476000000000E+00
4872000000.000000      1.698608000000000E-01      1.214258000000000E+02      3.879852000000000E-01     -1.521924000000000E+01      3.939362000000000E-01      1.196641000000000E+02      1.697311000000000E-01      2.967651000000000E+00
4873000000.000000      1.622696000000000E-01      1.222305000000000E+02      3.929749000000000E-01     -1.573535000000000E+01      3.984833000000000E-01      1.196523000000000E+02      1.659927000000000E-01      1.716614000000000E+00
4874000000.000000      1.543579000000000E-01      1.231094000000000E+02      3.967438000000000E-01     -1.620703000000000E+01      4.040985000000000E-01      1.195078000000000E+02      1.640549000000000E-01      7.786560000000000E-01
4875000000.000000      1.472549000000000E-01      1.238945000000000E+02      4.010773000000000E-01     -1.653125000000000E+01      4.092102000000000E-01      1.193281000000000E+02      1.609116000000000E-01     -1.867676000000000E-01
4876000000.000000      1.399918000000000E-01      1.246484000000000E+02      4.063110000000000E-01     -1.687012000000000E+01      4.142151000000000E-01      1.190586000000000E+02      1.582794000000000E-01     -1.579285000000000E+00
4877000000.000000      1.322098000000000E-01      1.253555000000000E+02      4.104767000000000E-01     -1.739160000000000E+01      4.196167000000000E-01      1.188281000000000E+02      1.559067000000000E-01     -2.443115000000000E+00
4878000000.000000      1.249733000000000E-01      1.268047000000000E+02      4.153137000000000E-01     -1.752637000000000E+01      4.239044000000000E-01      1.186875000000000E+02      1.531372000000000E-01     -3.333008000000000E+00
4879000000.000000      1.180115000000000E-01      1.276406000000000E+02      4.187775000000000E-01     -1.808789000000000E+01      4.289856000000000E-01      1.183594000000000E+02      1.510239000000000E-01     -4.531982000000000E+00
4880000000.000000      1.104698000000000E-01      1.288828000000000E+02      4.226532000000000E-01     -1.840527000000000E+01      4.335938000000000E-01      1.181484000000000E+02      1.478348000000000E-01     -5.519287000000000E+00
4881000000.000000      1.038284000000000E-01      1.304766000000000E+02      4.285431000000000E-01     -1.869238000000000E+01      4.392395000000000E-01      1.178555000000000E+02      1.454086000000000E-01     -6.167480000000000E+00
4882000000.000000      9.657288000000000E-02      1.315234000000000E+02      4.324036000000000E-01     -1.922070000000000E+01      4.439392000000000E-01      1.176914000000000E+02      1.420364000000000E-01     -6.884521000000000E+00
