! Network Analyzer HP8722D
! Hewlett-Packard
! Data name: Linha & Wilkinson
! Saver's name: Rodrigo Anjos
! Comments: Teste da utilização de aquisição
continua pelo VNA HP8722D
! Time and date: 25/4/2025 15:27
!              Frequency                     S11                                                   S21                                                   S12                                                   S22
# HZ  S  MA R 50
4800000000.000000      4.342346000000000E-01      9.048828000000000E+01      1.856995000000000E-01     -6.389062000000000E+01      1.909256000000000E-01      6.970312000000000E+01      2.479401000000000E-01      7.722265000000000E+01
4801000000.000000      4.368744000000000E-01      9.078125000000000E+01      1.820450000000000E-01     -6.263866000000000E+01      1.872711000000000E-01      7.048437000000000E+01      2.539673000000000E-01      7.583593000000000E+01
4802000000.000000      4.397278000000000E-01      9.098047000000000E+01      1.782913000000000E-01     -6.151562000000000E+01      1.839066000000000E-01      7.155859000000000E+01      2.578583000000000E-01      7.568749000000000E+01
4803000000.000000      4.420776000000000E-01      9.122265000000000E+01      1.757126000000000E-01     -6.013672000000000E+01      1.807098000000000E-01      7.275391000000000E+01      2.582245000000000E-01      7.504296000000000E+01
4804000000.000000      4.453125000000000E-01      9.162109000000000E+01      1.730728000000000E-01     -5.893945000000000E+01      1.775360000000000E-01      7.383203000000000E+01      2.586212000000000E-01      7.437890000000000E+01
4805000000.000000      4.488220000000000E-01      9.170313000000000E+01      1.704407000000000E-01     -5.745898000000000E+01      1.750717000000000E-01      7.510156000000000E+01      2.610321000000000E-01      7.357031000000000E+01
4806000000.000000      4.499054000000000E-01      9.207811000000000E+01      1.672821000000000E-01     -5.620117000000000E+01      1.723785000000000E-01      7.649219000000000E+01      2.613373000000000E-01      7.290234000000000E+01
4807000000.000000      4.512329000000000E-01      9.234766000000000E+01      1.653366000000000E-01     -5.476367000000000E+01      1.699905000000000E-01      7.766406000000000E+01      2.644501000000000E-01      7.299609000000000E+01
4808000000.000000      4.530640000000000E-01      9.269140000000000E+01      1.636658000000000E-01     -5.306835000000000E+01      1.681747000000000E-01      7.914063000000000E+01      2.642365000000000E-01      7.176562000000000E+01
4809000000.000000      4.543915000000000E-01      9.301952000000000E+01      1.619568000000000E-01     -5.162109000000000E+01      1.671295000000000E-01      8.068750000000000E+01      2.662506000000000E-01      7.119531000000000E+01
4810000000.000000      4.555511000000000E-01      9.323046000000000E+01      1.606674000000000E-01     -4.973242000000000E+01      1.651840000000000E-01      8.230469000000000E+01      2.674713000000000E-01      7.032421000000000E+01
4811000000.000000      4.564209000000000E-01      9.363672000000000E+01      1.593933000000000E-01     -4.805859000000000E+01      1.646500000000000E-01      8.385157000000000E+01      2.680054000000000E-01      6.928124000000000E+01
4812000000.000000      4.577332000000000E-01      9.400000000000000E+01      1.590042000000000E-01     -4.627539000000000E+01      1.634216000000000E-01      8.536718000000000E+01      2.683258000000000E-01      6.823437000000000E+01
4813000000.000000      4.579926000000000E-01      9.432032000000000E+01      1.575546000000000E-01     -4.464063000000000E+01      1.630630000000000E-01      8.710546000000000E+01      2.703857000000000E-01      6.778515000000000E+01
4814000000.000000      4.566650000000000E-01      9.454687000000000E+01      1.572876000000000E-01     -4.295117000000000E+01      1.625443000000000E-01      8.874609000000000E+01      2.695923000000000E-01      6.728516000000000E+01
4815000000.000000      4.571381000000000E-01      9.498047000000000E+01      1.577606000000000E-01     -4.106054000000000E+01      1.624146000000000E-01      9.036327000000000E+01      2.710114000000000E-01      6.586328000000000E+01
4816000000.000000      4.579010000000000E-01      9.527344000000000E+01      1.580200000000000E-01     -3.927539000000000E+01      1.634293000000000E-01      9.219530000000000E+01      2.736816000000000E-01      6.510937000000000E+01
4817000000.000000      4.569855000000000E-01      9.561327000000000E+01      1.585922000000000E-01     -3.760351000000000E+01      1.637039000000000E-01      9.360546000000000E+01      2.716980000000000E-01      6.490234000000000E+01
4818000000.000000      4.559479000000000E-01      9.595703000000000E+01      1.593552000000000E-01     -3.581836000000000E+01      1.647186000000000E-01      9.529297000000000E+01      2.729340000000000E-01      6.351563000000000E+01
4819000000.000000      4.554596000000000E-01      9.635155000000000E+01      1.610947000000000E-01     -3.411133000000000E+01      1.658707000000000E-01      9.691015000000000E+01      2.698212000000000E-01      6.282227000000000E+01
4820000000.000000      4.526672000000000E-01      9.673828000000000E+01      1.619339000000000E-01     -3.242773000000000E+01      1.675186000000000E-01      9.833984000000000E+01      2.715607000000000E-01      6.166992000000000E+01
4821000000.000000      4.525146000000000E-01      9.707031000000000E+01      1.635513000000000E-01     -3.095312000000000E+01      1.687775000000000E-01      9.990234000000000E+01      2.722473000000000E-01      6.097851000000000E+01
4822000000.000000      4.506531000000000E-01      9.742188000000000E+01      1.652451000000000E-01     -2.933691000000000E+01      1.707611000000000E-01      1.012578000000000E+02      2.713470000000000E-01      5.955273000000000E+01
4823000000.000000      4.490509000000000E-01      9.785545000000000E+01      1.683655000000000E-01     -2.796191000000000E+01      1.727371000000000E-01      1.028789000000000E+02      2.706451000000000E-01      5.848827000000000E+01
4824000000.000000      4.472198000000000E-01      9.814453000000000E+01      1.705170000000000E-01     -2.658886000000000E+01      1.754837000000000E-01      1.039648000000000E+02      2.688904000000000E-01      5.750000000000000E+01
4825000000.000000      4.438782000000000E-01      9.852343000000000E+01      1.731339000000000E-01     -2.511230000000000E+01      1.786041000000000E-01      1.053437000000000E+02      2.713776000000000E-01      5.625781000000000E+01
4826000000.000000      4.419403000000000E-01      9.900000000000000E+01      1.761551000000000E-01     -2.398340000000000E+01      1.807938000000000E-01      1.065195000000000E+02      2.699127000000000E-01      5.564843000000000E+01
4827000000.000000      4.388885000000000E-01      9.929296000000000E+01      1.788712000000000E-01     -2.265039000000000E+01      1.839447000000000E-01      1.077305000000000E+02      2.690125000000000E-01      5.412109000000000E+01
4828000000.000000      4.367981000000000E-01      9.970312000000000E+01      1.825409000000000E-01     -2.148730000000000E+01      1.871490000000000E-01      1.087070000000000E+02      2.687225000000000E-01      5.315624000000000E+01
4829000000.000000      4.325867000000000E-01      1.002734000000000E+02      1.856613000000000E-01     -2.047656000000000E+01      1.910324000000000E-01      1.098516000000000E+02      2.675171000000000E-01      5.222461000000000E+01
4830000000.000000      4.302673000000000E-01      1.006250000000000E+02      1.891174000000000E-01     -1.944336000000000E+01      1.941528000000000E-01      1.108945000000000E+02      2.648315000000000E-01      5.127734000000000E+01
4831000000.000000      4.254761000000000E-01      1.009101000000000E+02      1.932983000000000E-01     -1.863183000000000E+01      1.979980000000000E-01      1.117812000000000E+02      2.644958000000000E-01      4.993750000000000E+01
4832000000.000000      4.230042000000000E-01      1.013828000000000E+02      1.965256000000000E-01     -1.752539000000000E+01      2.015305000000000E-01      1.126523000000000E+02      2.621460000000000E-01      4.920507000000000E+01
4833000000.000000      4.182587000000000E-01      1.017773000000000E+02      2.005386000000000E-01     -1.686719000000000E+01      2.056198000000000E-01      1.134023000000000E+02      2.605133000000000E-01      4.829492000000000E+01
4834000000.000000      4.141693000000000E-01      1.022344000000000E+02      2.049026000000000E-01     -1.621875000000000E+01      2.097702000000000E-01      1.142070000000000E+02      2.594147000000000E-01      4.666992000000000E+01
4835000000.000000      4.098663000000000E-01      1.025469000000000E+02      2.092133000000000E-01     -1.549512000000000E+01      2.140808000000000E-01      1.148242000000000E+02      2.588501000000000E-01      4.590039000000000E+01
4836000000.000000      4.062805000000000E-01      1.030937000000000E+02      2.132034000000000E-01     -1.470264000000000E+01      2.178574000000000E-01      1.156016000000000E+02      2.554932000000000E-01      4.440234000000000E+01
4837000000.000000      4.009552000000000E-01      1.035742000000000E+02      2.175522000000000E-01     -1.456006000000000E+01      2.222672000000000E-01      1.160781000000000E+02      2.550049000000000E-01      4.358398000000000E+01
4838000000.000000      3.962250000000000E-01      1.040273000000000E+02      2.223358000000000E-01     -1.368896000000000E+01      2.262650000000000E-01      1.166523000000000E+02      2.529907000000000E-01      4.225586000000000E+01
4839000000.000000      3.924561000000000E-01      1.044023000000000E+02      2.274094000000000E-01     -1.320850000000000E+01      2.310638000000000E-01      1.170781000000000E+02      2.494049000000000E-01      4.092382000000000E+01
4840000000.000000      3.864746000000000E-01      1.047578000000000E+02      2.316284000000000E-01     -1.278955000000000E+01      2.355499000000000E-01      1.175703000000000E+02      2.477798000000000E-01      3.987305000000000E+01
4841000000.000000      3.815918000000000E-01      1.052812000000000E+02      2.365341000000000E-01     -1.254785000000000E+01      2.400894000000000E-01      1.180312000000000E+02      2.468872000000000E-01      3.891016000000000E+01
4842000000.000000      3.753510000000000E-01      1.057031000000000E+02      2.411728000000000E-01     -1.207813000000000E+01      2.450485000000000E-01      1.185039000000000E+02      2.457199000000000E-01      3.779297000000000E+01
4843000000.000000      3.707733000000000E-01      1.060742000000000E+02      2.462006000000000E-01     -1.203174000000000E+01      2.498245000000000E-01      1.188086000000000E+02      2.438965000000000E-01      3.675000000000000E+01
4844000000.000000      3.649750000000000E-01      1.066289000000000E+02      2.508087000000000E-01     -1.167480000000000E+01      2.540741000000000E-01      1.191797000000000E+02      2.401810000000000E-01      3.541016000000000E+01
4845000000.000000      3.589935000000000E-01      1.070898000000000E+02      2.560120000000000E-01     -1.138086000000000E+01      2.592773000000000E-01      1.193711000000000E+02      2.378693000000000E-01      3.408398000000000E+01
4846000000.000000      3.531952000000000E-01      1.075156000000000E+02      2.609711000000000E-01     -1.130518000000000E+01      2.641754000000000E-01      1.196953000000000E+02      2.365875000000000E-01      3.291016000000000E+01
4847000000.000000      3.475494000000000E-01      1.081016000000000E+02      2.651825000000000E-01     -1.098926000000000E+01      2.691803000000000E-01      1.198828000000000E+02      2.338638000000000E-01      3.188965000000000E+01
4848000000.000000      3.412476000000000E-01      1.083984000000000E+02      2.700348000000000E-01     -1.111963000000000E+01      2.738647000000000E-01      1.201523000000000E+02      2.305984000000000E-01      3.066113000000000E+01
4849000000.000000      3.348083000000000E-01      1.087891000000000E+02      2.761383000000000E-01     -1.102490000000000E+01      2.787628000000000E-01      1.202305000000000E+02      2.281876000000000E-01      2.968359000000000E+01
4850000000.000000      3.283234000000000E-01      1.093516000000000E+02      2.805634000000000E-01     -1.107178000000000E+01      2.833862000000000E-01      1.205000000000000E+02      2.252502000000000E-01      2.863086000000000E+01
4851000000.000000      3.218231000000000E-01      1.099609000000000E+02      2.857056000000000E-01     -1.098633000000000E+01      2.883453000000000E-01      1.206250000000000E+02      2.243881000000000E-01      2.739160000000000E+01
4852000000.000000      3.155212000000000E-01      1.103750000000000E+02      2.906952000000000E-01     -1.104150000000000E+01      2.927704000000000E-01      1.206445000000000E+02      2.202759000000000E-01      2.634082000000000E+01
4853000000.000000      3.088684000000000E-01      1.109219000000000E+02      2.947693000000000E-01     -1.112939000000000E+01      2.984924000000000E-01      1.207930000000000E+02      2.178650000000000E-01      2.475000000000000E+01
4854000000.000000      3.015594000000000E-01      1.112852000000000E+02      3.004303000000000E-01     -1.141211000000000E+01      3.038177000000000E-01      1.209570000000000E+02      2.166824000000000E-01      2.357031000000000E+01
4855000000.000000      2.953949000000000E-01      1.117305000000000E+02      3.054199000000000E-01     -1.128174000000000E+01      3.075867000000000E-01      1.209766000000000E+02      2.126236000000000E-01      2.263867000000000E+01
4856000000.000000      2.882538000000000E-01      1.123476000000000E+02      3.101807000000000E-01     -1.136572000000000E+01      3.134613000000000E-01      1.209883000000000E+02      2.109375000000000E-01      2.142383000000000E+01
4857000000.000000      2.814941000000000E-01      1.128008000000000E+02      3.165283000000000E-01     -1.154004000000000E+01      3.180237000000000E-01      1.209727000000000E+02      2.080917000000000E-01      2.012207000000000E+01
4858000000.000000      2.740784000000000E-01      1.131484000000000E+02      3.208160000000000E-01     -1.168701000000000E+01      3.233948000000000E-01      1.209375000000000E+02      2.048569000000000E-01      1.873828000000000E+01
4859000000.000000      2.669830000000000E-01      1.137695000000000E+02      3.264465000000000E-01     -1.185596000000000E+01      3.279572000000000E-01      1.209687000000000E+02      2.029495000000000E-01      1.764453000000000E+01
4860000000.000000      2.604828000000000E-01      1.143476000000000E+02      3.306122000000000E-01     -1.202344000000000E+01      3.326569000000000E-01      1.210273000000000E+02      2.007446000000000E-01      1.658301000000000E+01
4861000000.000000      2.525024000000000E-01      1.148945000000000E+02      3.354645000000000E-01     -1.232666000000000E+01      3.386993000000000E-01      1.210352000000000E+02      1.970749000000000E-01      1.533545000000000E+01
4862000000.000000      2.447433000000000E-01      1.153398000000000E+02      3.413544000000000E-01     -1.240527000000000E+01      3.438873000000000E-01      1.210195000000000E+02      1.948624000000000E-01      1.406250000000000E+01
4863000000.000000      2.373505000000000E-01      1.158437000000000E+02      3.441620000000000E-01     -1.278125000000000E+01      3.485870000000000E-01      1.209727000000000E+02      1.928711000000000E-01      1.319727000000000E+01
4864000000.000000      2.303543000000000E-01      1.163125000000000E+02      3.508301000000000E-01     -1.289697000000000E+01      3.527679000000000E-01      1.209687000000000E+02      1.898880000000000E-01      1.175635000000000E+01
4865000000.000000      2.225113000000000E-01      1.168867000000000E+02      3.548431000000000E-01     -1.323193000000000E+01      3.592834000000000E-01      1.207578000000000E+02      1.878815000000000E-01      1.070313000000000E+01
4866000000.000000      2.143326000000000E-01      1.174726000000000E+02      3.595886000000000E-01     -1.349854000000000E+01      3.640442000000000E-01      1.205898000000000E+02      1.851730000000000E-01      9.465820000000000E+00
4867000000.000000      2.068100000000000E-01      1.180391000000000E+02      3.643036000000000E-01     -1.392529000000000E+01      3.684692000000000E-01      1.204805000000000E+02      1.825638000000000E-01      8.475586000000000E+00
4868000000.000000      1.999054000000000E-01      1.185976000000000E+02      3.697510000000000E-01     -1.418896000000000E+01      3.736267000000000E-01      1.204844000000000E+02      1.795883000000000E-01      7.397705000000000E+00
4869000000.000000      1.917343000000000E-01      1.193359000000000E+02      3.740692000000000E-01     -1.434717000000000E+01      3.784180000000000E-01      1.202734000000000E+02      1.770477000000000E-01      6.139893000000000E+00
4870000000.000000      1.842041000000000E-01      1.198203000000000E+02      3.787384000000000E-01     -1.474805000000000E+01      3.847809000000000E-01      1.202617000000000E+02      1.747284000000000E-01      5.146973000000000E+00
4871000000.000000      1.768494000000000E-01      1.205469000000000E+02      3.831177000000000E-01     -1.508984000000000E+01      3.890228000000000E-01      1.200234000000000E+02      1.722336000000000E-01      3.974243000000000E+00
4872000000.000000      1.691971000000000E-01      1.211211000000000E+02      3.873749000000000E-01     -1.528076000000000E+01      3.937683000000000E-01      1.196836000000000E+02      1.697998000000000E-01      3.033569000000000E+00
4873000000.000000      1.615295000000000E-01      1.219531000000000E+02      3.919220000000000E-01     -1.586572000000000E+01      3.983002000000000E-01      1.195976000000000E+02      1.662903000000000E-01      1.665771000000000E+00
4874000000.000000      1.540298000000000E-01      1.228086000000000E+02      3.964691000000000E-01     -1.625195000000000E+01      4.048767000000000E-01      1.194609000000000E+02      1.643753000000000E-01      8.143616000000000E-01
4875000000.000000      1.466293000000000E-01      1.235000000000000E+02      4.010010000000000E-01     -1.659668000000000E+01      4.090118000000000E-01      1.192930000000000E+02      1.613770000000000E-01     -3.680420000000000E-01
4876000000.000000      1.393280000000000E-01      1.241836000000000E+02      4.059906000000000E-01     -1.687012000000000E+01      4.147491000000000E-01      1.191055000000000E+02      1.591187000000000E-01     -1.568298000000000E+00
4877000000.000000      1.313858000000000E-01      1.251992000000000E+02      4.107513000000000E-01     -1.714844000000000E+01      4.193878000000000E-01      1.188672000000000E+02      1.563187000000000E-01     -2.498047000000000E+00
4878000000.000000      1.242027000000000E-01      1.264492000000000E+02      4.155121000000000E-01     -1.759473000000000E+01      4.237213000000000E-01      1.187734000000000E+02      1.537247000000000E-01     -3.570557000000000E+00
4879000000.000000      1.173553000000000E-01      1.274023000000000E+02      4.183655000000000E-01     -1.801758000000000E+01      4.288177000000000E-01      1.183906000000000E+02      1.511230000000000E-01     -4.534668000000000E+00
4880000000.000000      1.095200000000000E-01      1.283281000000000E+02      4.239349000000000E-01     -1.847949000000000E+01      4.339600000000000E-01      1.181289000000000E+02      1.483154000000000E-01     -5.644287000000000E+00
4881000000.000000      1.029205000000000E-01      1.303203000000000E+02      4.281006000000000E-01     -1.868164000000000E+01      4.393311000000000E-01      1.179766000000000E+02      1.453476000000000E-01     -6.384521000000000E+00
4882000000.000000      9.589005000000000E-02      1.312891000000000E+02      4.325104000000000E-01     -1.931836000000000E+01      4.441833000000000E-01      1.177930000000000E+02      1.424484000000000E-01     -7.291016000000000E+00
