! Network Analyzer HP8722D
! Hewlett-Packard
! Data name: Linha & Wilkinson
! Saver's name: Rodrigo Anjos
! Comments: Teste da utilização de aquisição
continua pelo VNA HP8722D
! Time and date: 25/4/2025 15:49
!              Frequency                     S11                                                   S21                                                   S12                                                   S22
# HZ  S  MA R 50
4800000000.000000      4.342499000000000E-01      9.048437000000000E+01      1.851425000000000E-01     -6.347656000000000E+01      1.904831000000000E-01      6.994141000000000E+01      2.495346000000000E-01      7.697266000000000E+01
4801000000.000000      4.370117000000000E-01      9.068359000000000E+01      1.814346000000000E-01     -6.246288000000000E+01      1.868057000000000E-01      7.066406000000000E+01      2.514954000000000E-01      7.576953000000000E+01
4802000000.000000      4.400177000000000E-01      9.105860000000000E+01      1.783066000000000E-01     -6.125781000000000E+01      1.835556000000000E-01      7.178515000000000E+01      2.545624000000000E-01      7.544922000000000E+01
4803000000.000000      4.424438000000000E-01      9.128124000000000E+01      1.756821000000000E-01     -5.998828000000000E+01      1.802063000000000E-01      7.291406000000000E+01      2.562561000000000E-01      7.485156000000000E+01
4804000000.000000      4.453278000000000E-01      9.167187000000000E+01      1.722946000000000E-01     -5.862109000000000E+01      1.774826000000000E-01      7.407812000000000E+01      2.583618000000000E-01      7.423437000000000E+01
4805000000.000000      4.485626000000000E-01      9.173437000000000E+01      1.697159000000000E-01     -5.728906000000000E+01      1.746750000000000E-01      7.526562000000000E+01      2.614136000000000E-01      7.370312000000000E+01
4806000000.000000      4.496460000000000E-01      9.205858000000000E+01      1.669846000000000E-01     -5.577538000000000E+01      1.719437000000000E-01      7.675781000000000E+01      2.615356000000000E-01      7.301171000000000E+01
4807000000.000000      4.521332000000000E-01      9.243750000000000E+01      1.652222000000000E-01     -5.445117000000000E+01      1.700363000000000E-01      7.799999000000000E+01      2.635956000000000E-01      7.203515000000000E+01
4808000000.000000      4.527893000000000E-01      9.269531000000000E+01      1.633606000000000E-01     -5.276367000000000E+01      1.679916000000000E-01      7.948828000000000E+01      2.638702000000000E-01      7.150391000000000E+01
4809000000.000000      4.548187000000000E-01      9.304688000000000E+01      1.616592000000000E-01     -5.117188000000000E+01      1.668320000000000E-01      8.092188000000000E+01      2.655640000000000E-01      7.103125000000000E+01
4810000000.000000      4.553833000000000E-01      9.334764000000000E+01      1.600113000000000E-01     -4.937890000000000E+01      1.650391000000000E-01      8.250780000000000E+01      2.674713000000000E-01      7.000781000000000E+01
4811000000.000000      4.568329000000000E-01      9.366014000000000E+01      1.590118000000000E-01     -4.801171000000000E+01      1.643219000000000E-01      8.401171000000000E+01      2.673645000000000E-01      6.957421000000000E+01
4812000000.000000      4.581909000000000E-01      9.406250000000000E+01      1.583023000000000E-01     -4.611524000000000E+01      1.635284000000000E-01      8.563280000000000E+01      2.689667000000000E-01      6.791016000000000E+01
4813000000.000000      4.580841000000000E-01      9.438671000000000E+01      1.575012000000000E-01     -4.421875000000000E+01      1.629410000000000E-01      8.746874000000000E+01      2.705994000000000E-01      6.804296000000000E+01
4814000000.000000      4.569855000000000E-01      9.466797000000000E+01      1.572800000000000E-01     -4.260547000000000E+01      1.623230000000000E-01      8.902735000000000E+01      2.703247000000000E-01      6.705859000000000E+01
4815000000.000000      4.575195000000000E-01      9.508984000000000E+01      1.574402000000000E-01     -4.090234000000000E+01      1.623459000000000E-01      9.064062000000000E+01      2.714081000000000E-01      6.532421000000000E+01
4816000000.000000      4.581757000000000E-01      9.538671000000000E+01      1.578827000000000E-01     -3.891406000000000E+01      1.632004000000000E-01      9.226954000000000E+01      2.727509000000000E-01      6.481640000000000E+01
4817000000.000000      4.568329000000000E-01      9.582031000000000E+01      1.583557000000000E-01     -3.731640000000000E+01      1.635590000000000E-01      9.384375000000000E+01      2.725372000000000E-01      6.424609000000000E+01
4818000000.000000      4.565582000000000E-01      9.598047000000000E+01      1.593552000000000E-01     -3.565234000000000E+01      1.649704000000000E-01      9.558594000000000E+01      2.728729000000000E-01      6.312500000000000E+01
4819000000.000000      4.557953000000000E-01      9.656639000000000E+01      1.603775000000000E-01     -3.375000000000000E+01      1.661072000000000E-01      9.712891000000000E+01      2.704926000000000E-01      6.283398000000000E+01
4820000000.000000      4.530029000000000E-01      9.677734000000000E+01      1.622467000000000E-01     -3.206836000000000E+01      1.673660000000000E-01      9.862890000000000E+01      2.716522000000000E-01      6.162890000000000E+01
4821000000.000000      4.527740000000000E-01      9.716015000000000E+01      1.637573000000000E-01     -3.069336000000000E+01      1.690063000000000E-01      1.000742000000000E+02      2.714233000000000E-01      6.059179000000000E+01
4822000000.000000      4.509277000000000E-01      9.743359000000000E+01      1.657257000000000E-01     -2.912890000000000E+01      1.709061000000000E-01      1.015195000000000E+02      2.722168000000000E-01      5.956640000000000E+01
4823000000.000000      4.494171000000000E-01      9.786327000000000E+01      1.684036000000000E-01     -2.764746000000000E+01      1.730804000000000E-01      1.030781000000000E+02      2.710571000000000E-01      5.846289000000000E+01
4824000000.000000      4.478760000000000E-01      9.826952000000000E+01      1.707153000000000E-01     -2.630078000000000E+01      1.757965000000000E-01      1.042031000000000E+02      2.698364000000000E-01      5.727148000000000E+01
4825000000.000000      4.446869000000000E-01      9.861328000000000E+01      1.735306000000000E-01     -2.488281000000000E+01      1.787720000000000E-01      1.054531000000000E+02      2.699280000000000E-01      5.647070000000000E+01
4826000000.000000      4.423218000000000E-01      9.904297000000000E+01      1.759949000000000E-01     -2.366894000000000E+01      1.812897000000000E-01      1.066992000000000E+02      2.688141000000000E-01      5.560547000000000E+01
4827000000.000000      4.394684000000000E-01      9.942577000000000E+01      1.797028000000000E-01     -2.244727000000000E+01      1.844406000000000E-01      1.078906000000000E+02      2.690430000000000E-01      5.426367000000000E+01
4828000000.000000      4.367371000000000E-01      9.976563000000000E+01      1.827774000000000E-01     -2.133984000000000E+01      1.877823000000000E-01      1.089883000000000E+02      2.678833000000000E-01      5.300195000000000E+01
4829000000.000000      4.329681000000000E-01      1.003320000000000E+02      1.862564000000000E-01     -2.020312000000000E+01      1.914597000000000E-01      1.101328000000000E+02      2.661133000000000E-01      5.233593000000000E+01
4830000000.000000      4.302673000000000E-01      1.005820000000000E+02      1.895294000000000E-01     -1.932910000000000E+01      1.948166000000000E-01      1.109727000000000E+02      2.645874000000000E-01      5.124804000000000E+01
4831000000.000000      4.261780000000000E-01      1.010195000000000E+02      1.930618000000000E-01     -1.852051000000000E+01      1.981735000000000E-01      1.119805000000000E+02      2.629700000000000E-01      5.013085000000000E+01
4832000000.000000      4.228363000000000E-01      1.014687000000000E+02      1.972198000000000E-01     -1.752539000000000E+01      2.021027000000000E-01      1.127422000000000E+02      2.628784000000000E-01      4.905078000000000E+01
4833000000.000000      4.182434000000000E-01      1.018633000000000E+02      2.013016000000000E-01     -1.684277000000000E+01      2.062149000000000E-01      1.135664000000000E+02      2.602539000000000E-01      4.785742000000000E+01
4834000000.000000      4.143829000000000E-01      1.022890000000000E+02      2.055054000000000E-01     -1.605469000000000E+01      2.105179000000000E-01      1.142500000000000E+02      2.589722000000000E-01      4.653710000000000E+01
4835000000.000000      4.102783000000000E-01      1.026367000000000E+02      2.102127000000000E-01     -1.546875000000000E+01      2.146149000000000E-01      1.149258000000000E+02      2.580414000000000E-01      4.561132000000000E+01
4836000000.000000      4.067230000000000E-01      1.031875000000000E+02      2.140121000000000E-01     -1.469043000000000E+01      2.186279000000000E-01      1.156836000000000E+02      2.555542000000000E-01      4.443164000000000E+01
4837000000.000000      4.012756000000000E-01      1.036992000000000E+02      2.178955000000000E-01     -1.428516000000000E+01      2.227631000000000E-01      1.160508000000000E+02      2.537079000000000E-01      4.331055000000000E+01
4838000000.000000      3.961945000000000E-01      1.039961000000000E+02      2.222748000000000E-01     -1.360400000000000E+01      2.271347000000000E-01      1.167851000000000E+02      2.526245000000000E-01      4.231641000000000E+01
4839000000.000000      3.928986000000000E-01      1.045273000000000E+02      2.274017000000000E-01     -1.313721000000000E+01      2.319260000000000E-01      1.171797000000000E+02      2.514038000000000E-01      4.059766000000000E+01
4840000000.000000      3.863983000000000E-01      1.048672000000000E+02      2.321320000000000E-01     -1.273486000000000E+01      2.363205000000000E-01      1.177070000000000E+02      2.472076000000000E-01      3.948437000000000E+01
4841000000.000000      3.822632000000000E-01      1.054023000000000E+02      2.362976000000000E-01     -1.249854000000000E+01      2.406921000000000E-01      1.180430000000000E+02      2.465820000000000E-01      3.890234000000000E+01
4842000000.000000      3.759918000000000E-01      1.058789000000000E+02      2.415848000000000E-01     -1.213184000000000E+01      2.445450000000000E-01      1.185312000000000E+02      2.452698000000000E-01      3.772265000000000E+01
4843000000.000000      3.713379000000000E-01      1.062187000000000E+02      2.468796000000000E-01     -1.183545000000000E+01      2.500916000000000E-01      1.188672000000000E+02      2.414551000000000E-01      3.639648000000000E+01
4844000000.000000      3.651276000000000E-01      1.066797000000000E+02      2.512207000000000E-01     -1.160156000000000E+01      2.550201000000000E-01      1.191406000000000E+02      2.394943000000000E-01      3.531641000000000E+01
4845000000.000000      3.593445000000000E-01      1.071992000000000E+02      2.561035000000000E-01     -1.146045000000000E+01      2.595978000000000E-01      1.193906000000000E+02      2.373962000000000E-01      3.425000000000000E+01
4846000000.000000      3.537598000000000E-01      1.076523000000000E+02      2.611237000000000E-01     -1.119531000000000E+01      2.648010000000000E-01      1.196992000000000E+02      2.357635000000000E-01      3.302734000000000E+01
4847000000.000000      3.480988000000000E-01      1.081875000000000E+02      2.659302000000000E-01     -1.105518000000000E+01      2.691040000000000E-01      1.199062000000000E+02      2.333450000000000E-01      3.155078000000000E+01
4848000000.000000      3.415833000000000E-01      1.085703000000000E+02      2.703705000000000E-01     -1.103320000000000E+01      2.742004000000000E-01      1.201641000000000E+02      2.308426000000000E-01      3.059961000000000E+01
4849000000.000000      3.351135000000000E-01      1.090234000000000E+02      2.755890000000000E-01     -1.109912000000000E+01      2.791901000000000E-01      1.203555000000000E+02      2.289658000000000E-01      2.953320000000000E+01
4850000000.000000      3.284149000000000E-01      1.094844000000000E+02      2.808533000000000E-01     -1.111035000000000E+01      2.840576000000000E-01      1.205312000000000E+02      2.252426000000000E-01      2.843750000000000E+01
4851000000.000000      3.221436000000000E-01      1.101445000000000E+02      2.859650000000000E-01     -1.091797000000000E+01      2.886658000000000E-01      1.206211000000000E+02      2.245331000000000E-01      2.711426000000000E+01
4852000000.000000      3.159485000000000E-01      1.105000000000000E+02      2.911072000000000E-01     -1.095898000000000E+01      2.940826000000000E-01      1.207695000000000E+02      2.208252000000000E-01      2.589062000000000E+01
4853000000.000000      3.098297000000000E-01      1.109687000000000E+02      2.946320000000000E-01     -1.112793000000000E+01      2.987061000000000E-01      1.209336000000000E+02      2.179108000000000E-01      2.460449000000000E+01
4854000000.000000      3.020935000000000E-01      1.113906000000000E+02      3.005676000000000E-01     -1.132715000000000E+01      3.040314000000000E-01      1.209766000000000E+02      2.165451000000000E-01      2.367676000000000E+01
4855000000.000000      2.956848000000000E-01      1.119062000000000E+02      3.057251000000000E-01     -1.126123000000000E+01      3.086548000000000E-01      1.209844000000000E+02      2.125473000000000E-01      2.241992000000000E+01
4856000000.000000      2.887573000000000E-01      1.124844000000000E+02      3.102417000000000E-01     -1.142871000000000E+01      3.138733000000000E-01      1.210547000000000E+02      2.105484000000000E-01      2.124414000000000E+01
4857000000.000000      2.817535000000000E-01      1.129844000000000E+02      3.162231000000000E-01     -1.142725000000000E+01      3.186646000000000E-01      1.211133000000000E+02      2.074127000000000E-01      1.991797000000000E+01
4858000000.000000      2.743530000000000E-01      1.133047000000000E+02      3.213043000000000E-01     -1.162939000000000E+01      3.237610000000000E-01      1.210664000000000E+02      2.053299000000000E-01      1.901269000000000E+01
4859000000.000000      2.675171000000000E-01      1.139141000000000E+02      3.256836000000000E-01     -1.187109000000000E+01      3.286591000000000E-01      1.210547000000000E+02      2.030869000000000E-01      1.759277000000000E+01
4860000000.000000      2.609253000000000E-01      1.143672000000000E+02      3.302460000000000E-01     -1.198926000000000E+01      3.331451000000000E-01      1.211055000000000E+02      2.003937000000000E-01      1.662988000000000E+01
4861000000.000000      2.526093000000000E-01      1.150195000000000E+02      3.354034000000000E-01     -1.234082000000000E+01      3.395081000000000E-01      1.211094000000000E+02      1.967392000000000E-01      1.538086000000000E+01
4862000000.000000      2.453918000000000E-01      1.155820000000000E+02      3.411102000000000E-01     -1.245313000000000E+01      3.441010000000000E-01      1.210938000000000E+02      1.946869000000000E-01      1.404980000000000E+01
4863000000.000000      2.373886000000000E-01      1.159961000000000E+02      3.452911000000000E-01     -1.284180000000000E+01      3.491821000000000E-01      1.209297000000000E+02      1.921387000000000E-01      1.309668000000000E+01
4864000000.000000      2.309036000000000E-01      1.165781000000000E+02      3.504181000000000E-01     -1.296826000000000E+01      3.542480000000000E-01      1.209141000000000E+02      1.901627000000000E-01      1.164404000000000E+01
4865000000.000000      2.228928000000000E-01      1.171250000000000E+02      3.547516000000000E-01     -1.322217000000000E+01      3.593292000000000E-01      1.208906000000000E+02      1.881104000000000E-01      1.073047000000000E+01
4866000000.000000      2.147522000000000E-01      1.175859000000000E+02      3.592377000000000E-01     -1.348877000000000E+01      3.647156000000000E-01      1.204805000000000E+02      1.853638000000000E-01      9.428711000000000E+00
4867000000.000000      2.074432000000000E-01      1.183008000000000E+02      3.645020000000000E-01     -1.393359000000000E+01      3.692169000000000E-01      1.206680000000000E+02      1.823578000000000E-01      8.489258000000000E+00
4868000000.000000      2.005615000000000E-01      1.187695000000000E+02      3.702393000000000E-01     -1.420020000000000E+01      3.743439000000000E-01      1.204922000000000E+02      1.791153000000000E-01      7.362061000000000E+00
4869000000.000000      1.922989000000000E-01      1.195430000000000E+02      3.742523000000000E-01     -1.456689000000000E+01      3.789215000000000E-01      1.204140000000000E+02      1.763916000000000E-01      6.112305000000000E+00
4870000000.000000      1.850815000000000E-01      1.201172000000000E+02      3.788757000000000E-01     -1.464893000000000E+01      3.845673000000000E-01      1.202031000000000E+02      1.743240000000000E-01      5.273438000000000E+00
4871000000.000000      1.773376000000000E-01      1.206484000000000E+02      3.832245000000000E-01     -1.518457000000000E+01      3.893738000000000E-01      1.200664000000000E+02      1.713104000000000E-01      4.055176000000000E+00
4872000000.000000      1.702499000000000E-01      1.214258000000000E+02      3.881836000000000E-01     -1.539746000000000E+01      3.935699000000000E-01      1.196719000000000E+02      1.693954000000000E-01      2.907227000000000E+00
4873000000.000000      1.626968000000000E-01      1.222734000000000E+02      3.919983000000000E-01     -1.581250000000000E+01      3.983612000000000E-01      1.196445000000000E+02      1.659546000000000E-01      1.733093000000000E+00
4874000000.000000      1.547089000000000E-01      1.230156000000000E+02      3.967133000000000E-01     -1.618164000000000E+01      4.048920000000000E-01      1.193984000000000E+02      1.637192000000000E-01      7.498169000000000E-01
4875000000.000000      1.473770000000000E-01      1.239922000000000E+02      4.013062000000000E-01     -1.657031000000000E+01      4.093781000000000E-01      1.193281000000000E+02      1.610947000000000E-01     -1.579285000000000E-01
4876000000.000000      1.401596000000000E-01      1.245976000000000E+02      4.063416000000000E-01     -1.693848000000000E+01      4.145813000000000E-01      1.189726000000000E+02      1.586304000000000E-01     -1.642456000000000E+00
4877000000.000000      1.319962000000000E-01      1.253398000000000E+02      4.108582000000000E-01     -1.724805000000000E+01      4.195404000000000E-01      1.188398000000000E+02      1.556015000000000E-01     -2.298950000000000E+00
4878000000.000000      1.248703000000000E-01      1.267109000000000E+02      4.164124000000000E-01     -1.774707000000000E+01      4.238129000000000E-01      1.187930000000000E+02      1.534576000000000E-01     -3.545898000000000E+00
4879000000.000000      1.178780000000000E-01      1.276172000000000E+02      4.192505000000000E-01     -1.810351000000000E+01      4.297333000000000E-01      1.184453000000000E+02      1.506577000000000E-01     -4.467529000000000E+00
4880000000.000000      1.104279000000000E-01      1.287031000000000E+02      4.236908000000000E-01     -1.838476000000000E+01      4.341278000000000E-01      1.182734000000000E+02      1.476974000000000E-01     -5.527588000000000E+00
4881000000.000000      1.038475000000000E-01      1.304062000000000E+02      4.289093000000000E-01     -1.868164000000000E+01      4.396210000000000E-01      1.178711000000000E+02      1.456223000000000E-01     -6.200439000000000E+00
4882000000.000000      9.659195000000000E-02      1.314844000000000E+02      4.324493000000000E-01     -1.936133000000000E+01      4.445953000000000E-01      1.177500000000000E+02      1.426086000000000E-01     -6.990234000000000E+00
