! Network Analyzer HP8722D
! Hewlett-Packard
! Data name: Linha & Wilkinson
! Saver's name: Rodrigo Anjos
! Comments: Teste da utilização de aquisição
continua pelo VNA HP8722D
! Time and date: 25/4/2025 15:59
!              Frequency                     S11                                                   S21                                                   S12                                                   S22
# HZ  S  MA R 50
4800000000.000000      4.341583000000000E-01      9.066015000000000E+01      1.858368000000000E-01     -6.392968000000000E+01      1.912003000000000E-01      6.958593000000000E+01      2.498627000000000E-01      7.741796000000000E+01
4801000000.000000      4.374237000000000E-01      9.097265000000000E+01      1.818161000000000E-01     -6.288086000000000E+01      1.870575000000000E-01      7.042187000000000E+01      2.530670000000000E-01      7.643359000000000E+01
4802000000.000000      4.401245000000000E-01      9.124609000000000E+01      1.789322000000000E-01     -6.149414000000000E+01      1.840363000000000E-01      7.143359000000000E+01      2.543640000000000E-01      7.576562000000000E+01
4803000000.000000      4.423981000000000E-01      9.145311000000000E+01      1.758194000000000E-01     -6.021093000000000E+01      1.803741000000000E-01      7.260937000000000E+01      2.570496000000000E-01      7.516406000000000E+01
4804000000.000000      4.455109000000000E-01      9.179688000000000E+01      1.729050000000000E-01     -5.900000000000000E+01      1.778107000000000E-01      7.368750000000000E+01      2.565918000000000E-01      7.448437000000000E+01
4805000000.000000      4.493103000000000E-01      9.195313000000000E+01      1.700974000000000E-01     -5.758398000000000E+01      1.749115000000000E-01      7.493750000000000E+01      2.605133000000000E-01      7.364062000000000E+01
4806000000.000000      4.499054000000000E-01      9.228907000000000E+01      1.675110000000000E-01     -5.612499000000000E+01      1.723862000000000E-01      7.636719000000000E+01      2.621460000000000E-01      7.351563000000000E+01
4807000000.000000      4.526825000000000E-01      9.247656000000000E+01      1.654816000000000E-01     -5.478516000000000E+01      1.701813000000000E-01      7.761719000000000E+01      2.629547000000000E-01      7.243750000000000E+01
4808000000.000000      4.527435000000000E-01      9.287889000000000E+01      1.633530000000000E-01     -5.308984000000000E+01      1.680679000000000E-01      7.906640000000000E+01      2.643127000000000E-01      7.155859000000000E+01
4809000000.000000      4.546814000000000E-01      9.315233000000000E+01      1.619720000000000E-01     -5.168163000000000E+01      1.666031000000000E-01      8.050781000000000E+01      2.645569000000000E-01      7.112890000000000E+01
4810000000.000000      4.564667000000000E-01      9.350780000000000E+01      1.600952000000000E-01     -4.981640000000000E+01      1.649094000000000E-01      8.210546000000000E+01      2.657928000000000E-01      7.044922000000000E+01
4811000000.000000      4.573212000000000E-01      9.385157000000000E+01      1.594620000000000E-01     -4.829492000000000E+01      1.643524000000000E-01      8.369532000000000E+01      2.666779000000000E-01      6.955468000000000E+01
4812000000.000000      4.588470000000000E-01      9.418749000000000E+01      1.578751000000000E-01     -4.643555000000000E+01      1.634903000000000E-01      8.528124000000000E+01      2.674713000000000E-01      6.859375000000000E+01
4813000000.000000      4.592438000000000E-01      9.453516000000000E+01      1.577454000000000E-01     -4.476953000000000E+01      1.627121000000000E-01      8.700781000000000E+01      2.694397000000000E-01      6.821094000000000E+01
4814000000.000000      4.572601000000000E-01      9.479687000000000E+01      1.572952000000000E-01     -4.287890000000000E+01      1.623764000000000E-01      8.864843000000000E+01      2.688751000000000E-01      6.714062000000000E+01
4815000000.000000      4.578857000000000E-01      9.520702000000000E+01      1.572266000000000E-01     -4.123632000000000E+01      1.622772000000000E-01      9.015234000000000E+01      2.715302000000000E-01      6.625390000000000E+01
4816000000.000000      4.594727000000000E-01      9.550390000000000E+01      1.573944000000000E-01     -3.935742000000000E+01      1.632156000000000E-01      9.199610000000000E+01      2.723083000000000E-01      6.529687000000000E+01
4817000000.000000      4.577637000000000E-01      9.595312000000000E+01      1.574554000000000E-01     -3.784570000000000E+01      1.632690000000000E-01      9.358984000000000E+01      2.715302000000000E-01      6.458984000000000E+01
4818000000.000000      4.573975000000000E-01      9.626953000000000E+01      1.592636000000000E-01     -3.580078000000000E+01      1.641083000000000E-01      9.514843000000000E+01      2.734070000000000E-01      6.364062000000000E+01
4819000000.000000      4.561768000000000E-01      9.659374000000000E+01      1.598969000000000E-01     -3.439453000000000E+01      1.654892000000000E-01      9.680077000000000E+01      2.701416000000000E-01      6.296679000000000E+01
4820000000.000000      4.536896000000000E-01      9.695702000000000E+01      1.610718000000000E-01     -3.253906000000000E+01      1.670151000000000E-01      9.826172000000000E+01      2.712250000000000E-01      6.163867000000000E+01
4821000000.000000      4.533234000000000E-01      9.732422000000000E+01      1.635056000000000E-01     -3.097265000000000E+01      1.686783000000000E-01      9.981249000000000E+01      2.712250000000000E-01      6.100390000000000E+01
4822000000.000000      4.521027000000000E-01      9.763281000000000E+01      1.650543000000000E-01     -2.959082000000000E+01      1.703720000000000E-01      1.011211000000000E+02      2.722626000000000E-01      5.980078000000000E+01
4823000000.000000      4.496002000000000E-01      9.807030000000000E+01      1.674194000000000E-01     -2.800488000000000E+01      1.722488000000000E-01      1.027773000000000E+02      2.708282000000000E-01      5.868164000000000E+01
4824000000.000000      4.479523000000000E-01      9.839844000000000E+01      1.694870000000000E-01     -2.657324000000000E+01      1.747971000000000E-01      1.039219000000000E+02      2.700806000000000E-01      5.768359000000000E+01
4825000000.000000      4.455261000000000E-01      9.875389000000000E+01      1.722260000000000E-01     -2.516016000000000E+01      1.779175000000000E-01      1.053242000000000E+02      2.691650000000000E-01      5.650195000000000E+01
4826000000.000000      4.432831000000000E-01      9.920702000000000E+01      1.752853000000000E-01     -2.400195000000000E+01      1.804276000000000E-01      1.064922000000000E+02      2.680511000000000E-01      5.564453000000000E+01
4827000000.000000      4.405975000000000E-01      9.958593000000000E+01      1.785507000000000E-01     -2.269824000000000E+01      1.834412000000000E-01      1.077031000000000E+02      2.689819000000000E-01      5.446484000000000E+01
4828000000.000000      4.374084000000000E-01      9.996094000000000E+01      1.818466000000000E-01     -2.141797000000000E+01      1.865463000000000E-01      1.087930000000000E+02      2.675629000000000E-01      5.336132000000000E+01
4829000000.000000      4.339447000000000E-01      1.004531000000000E+02      1.850967000000000E-01     -2.043945000000000E+01      1.904984000000000E-01      1.098867000000000E+02      2.655029000000000E-01      5.236133000000000E+01
4830000000.000000      4.313507000000000E-01      1.007930000000000E+02      1.884155000000000E-01     -1.945898000000000E+01      1.936111000000000E-01      1.108203000000000E+02      2.643890000000000E-01      5.136328000000000E+01
4831000000.000000      4.267273000000000E-01      1.011953000000000E+02      1.920700000000000E-01     -1.859863000000000E+01      1.976395000000000E-01      1.117539000000000E+02      2.635651000000000E-01      5.017383000000000E+01
4832000000.000000      4.240570000000000E-01      1.016680000000000E+02      1.959000000000000E-01     -1.766406000000000E+01      2.009888000000000E-01      1.125625000000000E+02      2.631226000000000E-01      4.933398000000000E+01
4833000000.000000      4.196777000000000E-01      1.019609000000000E+02      1.998520000000000E-01     -1.665332000000000E+01      2.048645000000000E-01      1.133633000000000E+02      2.610779000000000E-01      4.826953000000000E+01
4834000000.000000      4.154510000000000E-01      1.024101000000000E+02      2.039719000000000E-01     -1.602637000000000E+01      2.092056000000000E-01      1.141367000000000E+02      2.594299000000000E-01      4.700195000000000E+01
4835000000.000000      4.114380000000000E-01      1.028242000000000E+02      2.084961000000000E-01     -1.551270000000000E+01      2.130432000000000E-01      1.148476000000000E+02      2.579041000000000E-01      4.607422000000000E+01
4836000000.000000      4.068451000000000E-01      1.031992000000000E+02      2.126617000000000E-01     -1.479492000000000E+01      2.172241000000000E-01      1.156406000000000E+02      2.560425000000000E-01      4.487500000000000E+01
4837000000.000000      4.022827000000000E-01      1.037852000000000E+02      2.169571000000000E-01     -1.450098000000000E+01      2.216415000000000E-01      1.160898000000000E+02      2.552032000000000E-01      4.374413000000000E+01
4838000000.000000      3.968811000000000E-01      1.041133000000000E+02      2.216415000000000E-01     -1.370313000000000E+01      2.259445000000000E-01      1.166719000000000E+02      2.527466000000000E-01      4.269921000000000E+01
4839000000.000000      3.936005000000000E-01      1.046484000000000E+02      2.261887000000000E-01     -1.326465000000000E+01      2.304535000000000E-01      1.171133000000000E+02      2.507629000000000E-01      4.116992000000000E+01
4840000000.000000      3.872681000000000E-01      1.050352000000000E+02      2.307968000000000E-01     -1.269629000000000E+01      2.347107000000000E-01      1.176719000000000E+02      2.487640000000000E-01      4.008008000000000E+01
4841000000.000000      3.832092000000000E-01      1.054766000000000E+02      2.356110000000000E-01     -1.232666000000000E+01      2.394409000000000E-01      1.180312000000000E+02      2.477570000000000E-01      3.873828000000000E+01
4842000000.000000      3.769836000000000E-01      1.059883000000000E+02      2.402725000000000E-01     -1.207568000000000E+01      2.437744000000000E-01      1.185195000000000E+02      2.446442000000000E-01      3.786523000000000E+01
4843000000.000000      3.720856000000000E-01      1.062852000000000E+02      2.457504000000000E-01     -1.186963000000000E+01      2.487793000000000E-01      1.188359000000000E+02      2.438049000000000E-01      3.680273000000000E+01
4844000000.000000      3.662567000000000E-01      1.068437000000000E+02      2.497787000000000E-01     -1.159766000000000E+01      2.532349000000000E-01      1.191133000000000E+02      2.396088000000000E-01      3.564648000000000E+01
4845000000.000000      3.601379000000000E-01      1.073476000000000E+02      2.545319000000000E-01     -1.131885000000000E+01      2.578125000000000E-01      1.194062000000000E+02      2.373962000000000E-01      3.433594000000000E+01
4846000000.000000      3.545990000000000E-01      1.076992000000000E+02      2.598724000000000E-01     -1.130908000000000E+01      2.633972000000000E-01      1.196523000000000E+02      2.370377000000000E-01      3.328711000000000E+01
4847000000.000000      3.489532000000000E-01      1.083359000000000E+02      2.641602000000000E-01     -1.109912000000000E+01      2.678528000000000E-01      1.198984000000000E+02      2.330704000000000E-01      3.213086000000000E+01
4848000000.000000      3.423309000000000E-01      1.086562000000000E+02      2.692261000000000E-01     -1.097852000000000E+01      2.730865000000000E-01      1.201094000000000E+02      2.320251000000000E-01      3.073828000000000E+01
4849000000.000000      3.364563000000000E-01      1.090937000000000E+02      2.743683000000000E-01     -1.108936000000000E+01      2.773895000000000E-01      1.203164000000000E+02      2.280502000000000E-01      2.954004000000000E+01
4850000000.000000      3.297119000000000E-01      1.095859000000000E+02      2.791748000000000E-01     -1.090967000000000E+01      2.823334000000000E-01      1.204805000000000E+02      2.263947000000000E-01      2.872851000000000E+01
4851000000.000000      3.241119000000000E-01      1.102734000000000E+02      2.847900000000000E-01     -1.094824000000000E+01      2.879181000000000E-01      1.207383000000000E+02      2.246704000000000E-01      2.746777000000000E+01
4852000000.000000      3.171997000000000E-01      1.105117000000000E+02      2.892151000000000E-01     -1.093555000000000E+01      2.923431000000000E-01      1.207930000000000E+02      2.229004000000000E-01      2.611425000000000E+01
4853000000.000000      3.102722000000000E-01      1.110352000000000E+02      2.939911000000000E-01     -1.108008000000000E+01      2.977448000000000E-01      1.208750000000000E+02      2.188568000000000E-01      2.461816000000000E+01
4854000000.000000      3.026123000000000E-01      1.115273000000000E+02      2.985687000000000E-01     -1.120508000000000E+01      3.023224000000000E-01      1.209961000000000E+02      2.172165000000000E-01      2.383887000000000E+01
4855000000.000000      2.971497000000000E-01      1.119375000000000E+02      3.044434000000000E-01     -1.124902000000000E+01      3.074799000000000E-01      1.210078000000000E+02      2.130432000000000E-01      2.264062000000000E+01
4856000000.000000      2.899475000000000E-01      1.125625000000000E+02      3.096466000000000E-01     -1.118555000000000E+01      3.123627000000000E-01      1.210703000000000E+02      2.112656000000000E-01      2.169629000000000E+01
4857000000.000000      2.832489000000000E-01      1.131602000000000E+02      3.145447000000000E-01     -1.145361000000000E+01      3.170776000000000E-01      1.210781000000000E+02      2.085342000000000E-01      2.034668000000000E+01
4858000000.000000      2.752838000000000E-01      1.133008000000000E+02      3.193512000000000E-01     -1.156348000000000E+01      3.221130000000000E-01      1.211367000000000E+02      2.061615000000000E-01      1.894727000000000E+01
4859000000.000000      2.686462000000000E-01      1.140508000000000E+02      3.241119000000000E-01     -1.183252000000000E+01      3.277893000000000E-01      1.211914000000000E+02      2.031403000000000E-01      1.785352000000000E+01
4860000000.000000      2.620239000000000E-01      1.145000000000000E+02      3.300171000000000E-01     -1.186426000000000E+01      3.319855000000000E-01      1.210469000000000E+02      2.001877000000000E-01      1.689941000000000E+01
4861000000.000000      2.535553000000000E-01      1.151015000000000E+02      3.342285000000000E-01     -1.221289000000000E+01      3.377075000000000E-01      1.210938000000000E+02      1.969223000000000E-01      1.550830000000000E+01
4862000000.000000      2.464600000000000E-01      1.155820000000000E+02      3.398132000000000E-01     -1.241455000000000E+01      3.428802000000000E-01      1.210156000000000E+02      1.955872000000000E-01      1.430127000000000E+01
4863000000.000000      2.391891000000000E-01      1.161016000000000E+02      3.436890000000000E-01     -1.269629000000000E+01      3.479309000000000E-01      1.210430000000000E+02      1.925354000000000E-01      1.350488000000000E+01
4864000000.000000      2.320175000000000E-01      1.165781000000000E+02      3.493347000000000E-01     -1.294092000000000E+01      3.520813000000000E-01      1.209570000000000E+02      1.898499000000000E-01      1.220947000000000E+01
4865000000.000000      2.237701000000000E-01      1.169922000000000E+02      3.534241000000000E-01     -1.299854000000000E+01      3.574371000000000E-01      1.208906000000000E+02      1.880951000000000E-01      1.116211000000000E+01
4866000000.000000      2.165070000000000E-01      1.176172000000000E+02      3.578491000000000E-01     -1.345459000000000E+01      3.632355000000000E-01      1.207930000000000E+02      1.850967000000000E-01      9.703613000000000E+00
4867000000.000000      2.090378000000000E-01      1.182344000000000E+02      3.630524000000000E-01     -1.377002000000000E+01      3.670959000000000E-01      1.207422000000000E+02      1.829453000000000E-01      8.850586000000000E+00
4868000000.000000      2.018509000000000E-01      1.188789000000000E+02      3.683319000000000E-01     -1.406396000000000E+01      3.728790000000000E-01      1.205430000000000E+02      1.797256000000000E-01      7.787842000000000E+00
4869000000.000000      1.934509000000000E-01      1.195273000000000E+02      3.725281000000000E-01     -1.434424000000000E+01      3.779144000000000E-01      1.204531000000000E+02      1.769028000000000E-01      6.414551000000000E+00
4870000000.000000      1.862793000000000E-01      1.200273000000000E+02      3.780823000000000E-01     -1.449951000000000E+01      3.828430000000000E-01      1.202656000000000E+02      1.752701000000000E-01      5.412109000000000E+00
4871000000.000000      1.786118000000000E-01      1.208086000000000E+02      3.822327000000000E-01     -1.501465000000000E+01      3.876648000000000E-01      1.201367000000000E+02      1.719742000000000E-01      4.094971000000000E+00
4872000000.000000      1.711655000000000E-01      1.214219000000000E+02      3.856354000000000E-01     -1.523828000000000E+01      3.925934000000000E-01      1.199141000000000E+02      1.698990000000000E-01      3.326050000000000E+00
4873000000.000000      1.635437000000000E-01      1.221172000000000E+02      3.907928000000000E-01     -1.569580000000000E+01      3.967896000000000E-01      1.197578000000000E+02      1.669540000000000E-01      2.175293000000000E+00
4874000000.000000      1.556625000000000E-01      1.229258000000000E+02      3.956299000000000E-01     -1.617383000000000E+01      4.031525000000000E-01      1.195898000000000E+02      1.646194000000000E-01      1.078003000000000E+00
4875000000.000000      1.486282000000000E-01      1.238398000000000E+02      4.002075000000000E-01     -1.644336000000000E+01      4.074402000000000E-01      1.194375000000000E+02      1.614075000000000E-01      3.707886000000000E-02
4876000000.000000      1.414032000000000E-01      1.245313000000000E+02      4.045258000000000E-01     -1.686816000000000E+01      4.122925000000000E-01      1.191953000000000E+02      1.592941000000000E-01     -1.192017000000000E+00
4877000000.000000      1.331558000000000E-01      1.253047000000000E+02      4.098511000000000E-01     -1.711133000000000E+01      4.178314000000000E-01      1.190273000000000E+02      1.565475000000000E-01     -2.021484000000000E+00
4878000000.000000      1.259766000000000E-01      1.266094000000000E+02      4.145813000000000E-01     -1.748926000000000E+01      4.226685000000000E-01      1.188164000000000E+02      1.541824000000000E-01     -3.054199000000000E+00
4879000000.000000      1.191864000000000E-01      1.275625000000000E+02      4.174652000000000E-01     -1.792187000000000E+01      4.282532000000000E-01      1.183711000000000E+02      1.511459000000000E-01     -4.176270000000000E+00
4880000000.000000      1.113396000000000E-01      1.285703000000000E+02      4.229736000000000E-01     -1.837793000000000E+01      4.330444000000000E-01      1.183320000000000E+02      1.486435000000000E-01     -5.182861000000000E+00
4881000000.000000      1.046562000000000E-01      1.301328000000000E+02      4.275513000000000E-01     -1.853418000000000E+01      4.379425000000000E-01      1.179922000000000E+02      1.459579000000000E-01     -6.041260000000000E+00
4882000000.000000      9.777832000000000E-02      1.310547000000000E+02      4.312286000000000E-01     -1.922070000000000E+01      4.429474000000000E-01      1.178945000000000E+02      1.428909000000000E-01     -6.694824000000000E+00
