! Network Analyzer HP8722D
! Hewlett-Packard
! Data name: Linha & Wilkinson
! Saver's name: Rodrigo Anjos
! Comments: Teste da utilização de aquisição
continua pelo VNA HP8722D
! Time and date: 25/4/2025 16:04
!              Frequency                     S11                                                   S21                                                   S12                                                   S22
# HZ  S  MA R 50
4800000000.000000      4.342346000000000E-01      9.065233000000000E+01      1.856995000000000E-01     -6.402344000000000E+01      1.911850000000000E-01      6.953906000000000E+01      2.506561000000000E-01      7.753124000000000E+01
4801000000.000000      4.374542000000000E-01      9.103907000000000E+01      1.820831000000000E-01     -6.285937000000000E+01      1.877060000000000E-01      7.036327000000000E+01      2.515869000000000E-01      7.636719000000000E+01
4802000000.000000      4.408722000000000E-01      9.121485000000000E+01      1.787720000000000E-01     -6.163867000000000E+01      1.842194000000000E-01      7.144921000000000E+01      2.553864000000000E-01      7.564453000000000E+01
4803000000.000000      4.435425000000000E-01      9.154297000000000E+01      1.760406000000000E-01     -6.035937000000000E+01      1.808319000000000E-01      7.256249000000000E+01      2.546387000000000E-01      7.526562000000000E+01
4804000000.000000      4.454193000000000E-01      9.182421000000000E+01      1.729813000000000E-01     -5.902734000000000E+01      1.782074000000000E-01      7.365234000000000E+01      2.589722000000000E-01      7.485937000000000E+01
4805000000.000000      4.485016000000000E-01      9.209375000000000E+01      1.696320000000000E-01     -5.766796000000000E+01      1.752319000000000E-01      7.491015000000000E+01      2.605133000000000E-01      7.405468000000000E+01
4806000000.000000      4.498291000000000E-01      9.226171000000000E+01      1.674042000000000E-01     -5.616796000000000E+01      1.722336000000000E-01      7.631249000000000E+01      2.601776000000000E-01      7.357031000000000E+01
4807000000.000000      4.528351000000000E-01      9.263672000000000E+01      1.652222000000000E-01     -5.499218000000000E+01      1.702194000000000E-01      7.750781000000000E+01      2.634277000000000E-01      7.260156000000000E+01
4808000000.000000      4.532471000000000E-01      9.290625000000000E+01      1.638641000000000E-01     -5.319336000000000E+01      1.679611000000000E-01      7.897655000000000E+01      2.637634000000000E-01      7.167578000000000E+01
4809000000.000000      4.545593000000000E-01      9.327734000000000E+01      1.617279000000000E-01     -5.182812000000000E+01      1.668091000000000E-01      8.038280000000000E+01      2.663422000000000E-01      7.104687000000000E+01
4810000000.000000      4.565582000000000E-01      9.360155000000000E+01      1.604004000000000E-01     -4.996875000000000E+01      1.651611000000000E-01      8.203125000000000E+01      2.643585000000000E-01      7.026562000000000E+01
4811000000.000000      4.580078000000000E-01      9.384766000000000E+01      1.589966000000000E-01     -4.823437000000000E+01      1.642838000000000E-01      8.361328000000000E+01      2.670746000000000E-01      6.933594000000000E+01
4812000000.000000      4.586945000000000E-01      9.424608000000000E+01      1.582260000000000E-01     -4.668164000000000E+01      1.632767000000000E-01      8.509375000000000E+01      2.676544000000000E-01      6.868750000000000E+01
4813000000.000000      4.590454000000000E-01      9.457422000000000E+01      1.569748000000000E-01     -4.494141000000000E+01      1.629715000000000E-01      8.686718000000000E+01      2.707214000000000E-01      6.798437000000000E+01
4814000000.000000      4.576263000000000E-01      9.478516000000000E+01      1.570587000000000E-01     -4.300195000000000E+01      1.624832000000000E-01      8.844530000000000E+01      2.698669000000000E-01      6.719140000000000E+01
4815000000.000000      4.576721000000000E-01      9.526171000000000E+01      1.568756000000000E-01     -4.130859000000000E+01      1.621628000000000E-01      9.000000000000000E+01      2.703857000000000E-01      6.621484000000000E+01
4816000000.000000      4.589539000000000E-01      9.555468000000000E+01      1.578064000000000E-01     -3.940430000000000E+01      1.631775000000000E-01      9.185156000000000E+01      2.721558000000000E-01      6.540234000000000E+01
4817000000.000000      4.578094000000000E-01      9.607811000000000E+01      1.583939000000000E-01     -3.794531000000000E+01      1.632690000000000E-01      9.351563000000000E+01      2.710724000000000E-01      6.466406000000000E+01
4818000000.000000      4.570618000000000E-01      9.625780000000000E+01      1.588974000000000E-01     -3.607226000000000E+01      1.642532000000000E-01      9.506639000000000E+01      2.720795000000000E-01      6.376367000000000E+01
4819000000.000000      4.565125000000000E-01      9.662498000000000E+01      1.600266000000000E-01     -3.434179000000000E+01      1.651077000000000E-01      9.671093000000000E+01      2.710419000000000E-01      6.296288000000000E+01
4820000000.000000      4.539032000000000E-01      9.696484000000000E+01      1.610718000000000E-01     -3.266406000000000E+01      1.669388000000000E-01      9.818359000000000E+01      2.715912000000000E-01      6.190624000000000E+01
4821000000.000000      4.545898000000000E-01      9.739061000000000E+01      1.633835000000000E-01     -3.120019000000000E+01      1.682892000000000E-01      9.962891000000000E+01      2.726898000000000E-01      6.103125000000000E+01
4822000000.000000      4.519653000000000E-01      9.760155000000000E+01      1.645508000000000E-01     -2.956445000000000E+01      1.698380000000000E-01      1.010625000000000E+02      2.706604000000000E-01      5.967968000000000E+01
4823000000.000000      4.501648000000000E-01      9.806641000000000E+01      1.674576000000000E-01     -2.808984000000000E+01      1.723862000000000E-01      1.025664000000000E+02      2.715912000000000E-01      5.883398000000000E+01
4824000000.000000      4.488983000000000E-01      9.850780000000000E+01      1.698990000000000E-01     -2.667773000000000E+01      1.745224000000000E-01      1.038633000000000E+02      2.695160000000000E-01      5.786718000000000E+01
4825000000.000000      4.455872000000000E-01      9.882813000000000E+01      1.720734000000000E-01     -2.531836000000000E+01      1.777191000000000E-01      1.051914000000000E+02      2.705994000000000E-01      5.695898000000000E+01
4826000000.000000      4.432831000000000E-01      9.919531000000000E+01      1.747513000000000E-01     -2.403418000000000E+01      1.801376000000000E-01      1.064609000000000E+02      2.684937000000000E-01      5.582226000000000E+01
4827000000.000000      4.403076000000000E-01      9.954687000000000E+01      1.781921000000000E-01     -2.273926000000000E+01      1.833038000000000E-01      1.076406000000000E+02      2.685547000000000E-01      5.446484000000000E+01
4828000000.000000      4.381561000000000E-01      1.000234000000000E+02      1.812897000000000E-01     -2.150586000000000E+01      1.865616000000000E-01      1.086875000000000E+02      2.667084000000000E-01      5.327343000000000E+01
4829000000.000000      4.333649000000000E-01      1.005000000000000E+02      1.842728000000000E-01     -2.051856000000000E+01      1.902390000000000E-01      1.097734000000000E+02      2.662659000000000E-01      5.230273000000000E+01
4830000000.000000      4.312439000000000E-01      1.007617000000000E+02      1.882553000000000E-01     -1.942578000000000E+01      1.932526000000000E-01      1.107578000000000E+02      2.655182000000000E-01      5.149414000000000E+01
4831000000.000000      4.270477000000000E-01      1.012266000000000E+02      1.919556000000000E-01     -1.856055000000000E+01      1.971893000000000E-01      1.117578000000000E+02      2.641907000000000E-01      5.040039000000000E+01
4832000000.000000      4.236145000000000E-01      1.016680000000000E+02      1.959686000000000E-01     -1.768750000000000E+01      2.004623000000000E-01      1.125391000000000E+02      2.621307000000000E-01      4.950390000000000E+01
4833000000.000000      4.195099000000000E-01      1.019609000000000E+02      1.996994000000000E-01     -1.683984000000000E+01      2.044907000000000E-01      1.132734000000000E+02      2.602081000000000E-01      4.818554000000000E+01
4834000000.000000      4.159851000000000E-01      1.024648000000000E+02      2.037048000000000E-01     -1.605566000000000E+01      2.087173000000000E-01      1.140508000000000E+02      2.597961000000000E-01      4.718163000000000E+01
4835000000.000000      4.115448000000000E-01      1.027773000000000E+02      2.083435000000000E-01     -1.546094000000000E+01      2.128448000000000E-01      1.148203000000000E+02      2.583771000000000E-01      4.595703000000000E+01
4836000000.000000      4.078827000000000E-01      1.033633000000000E+02      2.117920000000000E-01     -1.489648000000000E+01      2.167130000000000E-01      1.155781000000000E+02      2.573547000000000E-01      4.494726000000000E+01
4837000000.000000      4.033051000000000E-01      1.038867000000000E+02      2.166977000000000E-01     -1.434814000000000E+01      2.211685000000000E-01      1.160156000000000E+02      2.548218000000000E-01      4.397070000000000E+01
4838000000.000000      3.975983000000000E-01      1.041992000000000E+02      2.216263000000000E-01     -1.371387000000000E+01      2.252045000000000E-01      1.166758000000000E+02      2.538300000000000E-01      4.253906000000000E+01
4839000000.000000      3.939056000000000E-01      1.046367000000000E+02      2.259216000000000E-01     -1.312061000000000E+01      2.300644000000000E-01      1.171719000000000E+02      2.524719000000000E-01      4.134766000000000E+01
4840000000.000000      3.874054000000000E-01      1.050312000000000E+02      2.304230000000000E-01     -1.260449000000000E+01      2.348709000000000E-01      1.176133000000000E+02      2.484741000000000E-01      4.015429000000000E+01
4841000000.000000      3.834991000000000E-01      1.055742000000000E+02      2.348709000000000E-01     -1.250391000000000E+01      2.392120000000000E-01      1.180273000000000E+02      2.464142000000000E-01      3.931445000000000E+01
4842000000.000000      3.777771000000000E-01      1.060390000000000E+02      2.403641000000000E-01     -1.212207000000000E+01      2.433624000000000E-01      1.185273000000000E+02      2.456360000000000E-01      3.807031000000000E+01
4843000000.000000      3.723907000000000E-01      1.063125000000000E+02      2.453003000000000E-01     -1.178857000000000E+01      2.486649000000000E-01      1.187344000000000E+02      2.423172000000000E-01      3.715429000000000E+01
4844000000.000000      3.661652000000000E-01      1.068984000000000E+02      2.493896000000000E-01     -1.175684000000000E+01      2.525177000000000E-01      1.191602000000000E+02      2.389603000000000E-01      3.575000000000000E+01
4845000000.000000      3.603516000000000E-01      1.073828000000000E+02      2.542114000000000E-01     -1.123096000000000E+01      2.576752000000000E-01      1.194180000000000E+02      2.378235000000000E-01      3.447461000000000E+01
4846000000.000000      3.549652000000000E-01      1.077812000000000E+02      2.594147000000000E-01     -1.122021000000000E+01      2.631989000000000E-01      1.196953000000000E+02      2.352448000000000E-01      3.310156000000000E+01
4847000000.000000      3.495789000000000E-01      1.083281000000000E+02      2.642059000000000E-01     -1.097949000000000E+01      2.679138000000000E-01      1.199023000000000E+02      2.330170000000000E-01      3.221289000000000E+01
4848000000.000000      3.429108000000000E-01      1.087539000000000E+02      2.687073000000000E-01     -1.088379000000000E+01      2.725067000000000E-01      1.201563000000000E+02      2.307358000000000E-01      3.098340000000000E+01
4849000000.000000      3.369598000000000E-01      1.090039000000000E+02      2.742920000000000E-01     -1.093457000000000E+01      2.771606000000000E-01      1.203516000000000E+02      2.284241000000000E-01      2.963281000000000E+01
4850000000.000000      3.301239000000000E-01      1.096562000000000E+02      2.794495000000000E-01     -1.100732000000000E+01      2.822876000000000E-01      1.205117000000000E+02      2.260132000000000E-01      2.864062000000000E+01
4851000000.000000      3.235474000000000E-01      1.102266000000000E+02      2.846680000000000E-01     -1.091260000000000E+01      2.870331000000000E-01      1.206523000000000E+02      2.247086000000000E-01      2.753222000000000E+01
4852000000.000000      3.176422000000000E-01      1.106602000000000E+02      2.894745000000000E-01     -1.088232000000000E+01      2.918854000000000E-01      1.208164000000000E+02      2.218704000000000E-01      2.624023000000000E+01
4853000000.000000      3.110657000000000E-01      1.111523000000000E+02      2.931976000000000E-01     -1.082568000000000E+01      2.969818000000000E-01      1.209258000000000E+02      2.195511000000000E-01      2.506738000000000E+01
4854000000.000000      3.034210000000000E-01      1.115508000000000E+02      2.991486000000000E-01     -1.116113000000000E+01      3.021545000000000E-01      1.209883000000000E+02      2.174377000000000E-01      2.390137000000000E+01
4855000000.000000      2.973938000000000E-01      1.120937000000000E+02      3.038177000000000E-01     -1.121338000000000E+01      3.072205000000000E-01      1.210625000000000E+02      2.128677000000000E-01      2.276367000000000E+01
4856000000.000000      2.903137000000000E-01      1.125117000000000E+02      3.088531000000000E-01     -1.124316000000000E+01      3.122101000000000E-01      1.210781000000000E+02      2.109985000000000E-01      2.191406000000000E+01
4857000000.000000      2.833099000000000E-01      1.130742000000000E+02      3.141022000000000E-01     -1.123779000000000E+01      3.170013000000000E-01      1.211875000000000E+02      2.075119000000000E-01      2.031054000000000E+01
4858000000.000000      2.756348000000000E-01      1.133789000000000E+02      3.188934000000000E-01     -1.155225000000000E+01      3.219299000000000E-01      1.211719000000000E+02      2.058334000000000E-01      1.916699000000000E+01
4859000000.000000      2.695007000000000E-01      1.139258000000000E+02      3.241425000000000E-01     -1.169678000000000E+01      3.270111000000000E-01      1.211797000000000E+02      2.029190000000000E-01      1.799609000000000E+01
4860000000.000000      2.622681000000000E-01      1.144531000000000E+02      3.287201000000000E-01     -1.189551000000000E+01      3.314972000000000E-01      1.210938000000000E+02      2.013626000000000E-01      1.692578000000000E+01
4861000000.000000      2.543030000000000E-01      1.151172000000000E+02      3.335876000000000E-01     -1.222656000000000E+01      3.373566000000000E-01      1.211328000000000E+02      1.976852000000000E-01      1.579102000000000E+01
4862000000.000000      2.465286000000000E-01      1.156016000000000E+02      3.388519000000000E-01     -1.231445000000000E+01      3.428802000000000E-01      1.211289000000000E+02      1.947327000000000E-01      1.446191000000000E+01
4863000000.000000      2.394409000000000E-01      1.161367000000000E+02      3.432159000000000E-01     -1.260547000000000E+01      3.472443000000000E-01      1.210430000000000E+02      1.933212000000000E-01      1.345117000000000E+01
4864000000.000000      2.318878000000000E-01      1.165430000000000E+02      3.486786000000000E-01     -1.281006000000000E+01      3.512115000000000E-01      1.209180000000000E+02      1.905518000000000E-01      1.226318000000000E+01
4865000000.000000      2.244644000000000E-01      1.170586000000000E+02      3.531494000000000E-01     -1.303418000000000E+01      3.571014000000000E-01      1.209453000000000E+02      1.884995000000000E-01      1.108496000000000E+01
4866000000.000000      2.163467000000000E-01      1.176406000000000E+02      3.568726000000000E-01     -1.335547000000000E+01      3.618927000000000E-01      1.207930000000000E+02      1.861038000000000E-01      9.909668000000000E+00
4867000000.000000      2.092819000000000E-01      1.182461000000000E+02      3.626556000000000E-01     -1.383887000000000E+01      3.671112000000000E-01      1.207344000000000E+02      1.832962000000000E-01      8.816406000000000E+00
4868000000.000000      2.017899000000000E-01      1.188789000000000E+02      3.682251000000000E-01     -1.399561000000000E+01      3.717194000000000E-01      1.206797000000000E+02      1.799164000000000E-01      7.698486000000000E+00
4869000000.000000      1.936874000000000E-01      1.194727000000000E+02      3.715820000000000E-01     -1.430420000000000E+01      3.777313000000000E-01      1.203867000000000E+02      1.774902000000000E-01      6.509277000000000E+00
4870000000.000000      1.866684000000000E-01      1.200781000000000E+02      3.768463000000000E-01     -1.438965000000000E+01      3.826752000000000E-01      1.203633000000000E+02      1.752472000000000E-01      5.700439000000000E+00
4871000000.000000      1.788712000000000E-01      1.206875000000000E+02      3.816681000000000E-01     -1.504590000000000E+01      3.875427000000000E-01      1.202969000000000E+02      1.723099000000000E-01      4.469971000000000E+00
4872000000.000000      1.718826000000000E-01      1.213789000000000E+02      3.858337000000000E-01     -1.509131000000000E+01      3.924255000000000E-01      1.199258000000000E+02      1.707001000000000E-01      3.407104000000000E+00
4873000000.000000      1.639175000000000E-01      1.221328000000000E+02      3.911743000000000E-01     -1.567920000000000E+01      3.967896000000000E-01      1.198945000000000E+02      1.674194000000000E-01      2.020020000000000E+00
4874000000.000000      1.563110000000000E-01      1.229883000000000E+02      3.954468000000000E-01     -1.606250000000000E+01      4.031525000000000E-01      1.195898000000000E+02      1.649933000000000E-01      1.152161000000000E+00
4875000000.000000      1.491241000000000E-01      1.237344000000000E+02      3.993378000000000E-01     -1.626465000000000E+01      4.079132000000000E-01      1.194609000000000E+02      1.616821000000000E-01      3.982544000000000E-02
4876000000.000000      1.417007000000000E-01      1.244648000000000E+02      4.054413000000000E-01     -1.683594000000000E+01      4.125366000000000E-01      1.192070000000000E+02      1.595993000000000E-01     -1.189270000000000E+00
4877000000.000000      1.337585000000000E-01      1.251836000000000E+02      4.089508000000000E-01     -1.702246000000000E+01      4.184570000000000E-01      1.189961000000000E+02      1.567230000000000E-01     -1.999512000000000E+00
4878000000.000000      1.266403000000000E-01      1.264375000000000E+02      4.137726000000000E-01     -1.750879000000000E+01      4.223785000000000E-01      1.188398000000000E+02      1.539993000000000E-01     -3.157227000000000E+00
4879000000.000000      1.196442000000000E-01      1.272695000000000E+02      4.175262000000000E-01     -1.773242000000000E+01      4.270782000000000E-01      1.185039000000000E+02      1.515427000000000E-01     -4.084229000000000E+00
4880000000.000000      1.118202000000000E-01      1.283359000000000E+02      4.219666000000000E-01     -1.836133000000000E+01      4.325409000000000E-01      1.183711000000000E+02      1.488571000000000E-01     -5.019531000000000E+00
4881000000.000000      1.052475000000000E-01      1.299766000000000E+02      4.272461000000000E-01     -1.867285000000000E+01      4.377899000000000E-01      1.180898000000000E+02      1.461945000000000E-01     -6.104492000000000E+00
4882000000.000000      9.848022000000000E-02      1.310703000000000E+02      4.311371000000000E-01     -1.912598000000000E+01      4.436188000000000E-01      1.178594000000000E+02      1.431198000000000E-01     -6.731934000000000E+00
