! Network Analyzer HP8722D
! Hewlett-Packard
! Data name: Linha & Wilkinson
! Saver's name: Rodrigo Anjos
! Comments: Teste da utilização de aquisição
continua pelo VNA HP8722D
! Time and date: 25/4/2025 15:58
!              Frequency                     S11                                                   S21                                                   S12                                                   S22
# HZ  S  MA R 50
4800000000.000000      4.333954000000000E-01      9.074219000000000E+01      1.860886000000000E-01     -6.375000000000000E+01      1.911392000000000E-01      6.961328000000000E+01      2.499237000000000E-01      7.714453000000000E+01
4801000000.000000      4.379425000000000E-01      9.094921000000000E+01      1.819992000000000E-01     -6.272655000000000E+01      1.870728000000000E-01      7.044140000000000E+01      2.518921000000000E-01      7.632813000000000E+01
4802000000.000000      4.402618000000000E-01      9.114843000000000E+01      1.784439000000000E-01     -6.153710000000000E+01      1.838226000000000E-01      7.155078000000000E+01      2.552795000000000E-01      7.591015000000000E+01
4803000000.000000      4.429474000000000E-01      9.143358000000000E+01      1.759033000000000E-01     -6.033593000000000E+01      1.805878000000000E-01      7.269140000000000E+01      2.563324000000000E-01      7.503906000000000E+01
4804000000.000000      4.449921000000000E-01      9.174608000000000E+01      1.731949000000000E-01     -5.909374000000000E+01      1.778793000000000E-01      7.378124000000000E+01      2.579193000000000E-01      7.460546000000000E+01
4805000000.000000      4.489288000000000E-01      9.192186000000000E+01      1.701660000000000E-01     -5.767773000000000E+01      1.753693000000000E-01      7.496094000000000E+01      2.601471000000000E-01      7.391015000000000E+01
4806000000.000000      4.503174000000000E-01      9.226954000000000E+01      1.678238000000000E-01     -5.611718000000000E+01      1.723251000000000E-01      7.639843000000000E+01      2.613983000000000E-01      7.302343000000000E+01
4807000000.000000      4.517822000000000E-01      9.246874000000000E+01      1.655502000000000E-01     -5.465038000000000E+01      1.699448000000000E-01      7.757421000000000E+01      2.629089000000000E-01      7.223437000000000E+01
4808000000.000000      4.534607000000000E-01      9.287500000000000E+01      1.633606000000000E-01     -5.310156000000000E+01      1.680984000000000E-01      7.915625000000000E+01      2.631378000000000E-01      7.174999000000000E+01
4809000000.000000      4.547272000000000E-01      9.316406000000000E+01      1.614380000000000E-01     -5.169726000000000E+01      1.667862000000000E-01      8.049219000000000E+01      2.663727000000000E-01      7.138672000000000E+01
4810000000.000000      4.563293000000000E-01      9.349609000000000E+01      1.603546000000000E-01     -4.986523000000000E+01      1.649094000000000E-01      8.214453000000000E+01      2.660065000000000E-01      7.016796000000000E+01
4811000000.000000      4.578247000000000E-01      9.382813000000000E+01      1.590958000000000E-01     -4.800781000000000E+01      1.641693000000000E-01      8.375391000000000E+01      2.670135000000000E-01      6.960546000000000E+01
4812000000.000000      4.584656000000000E-01      9.420313000000000E+01      1.581497000000000E-01     -4.652148000000000E+01      1.631546000000000E-01      8.521875000000000E+01      2.688293000000000E-01      6.858984000000000E+01
4813000000.000000      4.587860000000000E-01      9.450781000000000E+01      1.575317000000000E-01     -4.460742000000000E+01      1.630096000000000E-01      8.696875000000000E+01      2.717896000000000E-01      6.812890000000000E+01
4814000000.000000      4.578705000000000E-01      9.489452000000000E+01      1.573105000000000E-01     -4.281250000000000E+01      1.624680000000000E-01      8.864452000000000E+01      2.702332000000000E-01      6.700000000000000E+01
4815000000.000000      4.577942000000000E-01      9.520702000000000E+01      1.573029000000000E-01     -4.110352000000000E+01      1.620636000000000E-01      9.032030000000000E+01      2.711182000000000E-01      6.614843000000000E+01
4816000000.000000      4.587860000000000E-01      9.554296000000000E+01      1.578064000000000E-01     -3.914648000000000E+01      1.628113000000000E-01      9.198437000000000E+01      2.727661000000000E-01      6.499609000000000E+01
4817000000.000000      4.577789000000000E-01      9.593359000000000E+01      1.579971000000000E-01     -3.754492000000000E+01      1.630936000000000E-01      9.364452000000000E+01      2.719727000000000E-01      6.453906000000000E+01
4818000000.000000      4.565125000000000E-01      9.616796000000000E+01      1.591873000000000E-01     -3.590625000000000E+01      1.644058000000000E-01      9.516405000000000E+01      2.729034000000000E-01      6.382421000000000E+01
4819000000.000000      4.566040000000000E-01      9.660545000000000E+01      1.598282000000000E-01     -3.430859000000000E+01      1.656494000000000E-01      9.683594000000000E+01      2.721558000000000E-01      6.273046000000000E+01
4820000000.000000      4.536133000000000E-01      9.690624000000000E+01      1.611252000000000E-01     -3.227344000000000E+01      1.668549000000000E-01      9.831249000000000E+01      2.718201000000000E-01      6.191015000000000E+01
4821000000.000000      4.537354000000000E-01      9.722265000000000E+01      1.632996000000000E-01     -3.102734000000000E+01      1.684799000000000E-01      9.975389000000000E+01      2.718964000000000E-01      6.103516000000000E+01
4822000000.000000      4.512329000000000E-01      9.756248000000000E+01      1.647034000000000E-01     -2.947168000000000E+01      1.702042000000000E-01      1.011601000000000E+02      2.728271000000000E-01      5.963672000000000E+01
4823000000.000000      4.495544000000000E-01      9.802343000000000E+01      1.677170000000000E-01     -2.795801000000000E+01      1.724777000000000E-01      1.027383000000000E+02      2.694855000000000E-01      5.886719000000000E+01
4824000000.000000      4.478760000000000E-01      9.829296000000000E+01      1.697922000000000E-01     -2.667383000000000E+01      1.748581000000000E-01      1.039375000000000E+02      2.705688000000000E-01      5.769726000000000E+01
4825000000.000000      4.451294000000000E-01      9.875000000000000E+01      1.719284000000000E-01     -2.518847000000000E+01      1.780777000000000E-01      1.052695000000000E+02      2.696991000000000E-01      5.685937000000000E+01
4826000000.000000      4.427185000000000E-01      9.908592000000000E+01      1.753387000000000E-01     -2.398633000000000E+01      1.802216000000000E-01      1.065547000000000E+02      2.684937000000000E-01      5.547461000000000E+01
4827000000.000000      4.401703000000000E-01      9.951172000000000E+01      1.785736000000000E-01     -2.252832000000000E+01      1.834869000000000E-01      1.076289000000000E+02      2.696991000000000E-01      5.445507000000000E+01
4828000000.000000      4.385071000000000E-01      9.990623000000000E+01      1.821442000000000E-01     -2.152539000000000E+01      1.870575000000000E-01      1.087422000000000E+02      2.676239000000000E-01      5.342773000000000E+01
4829000000.000000      4.340668000000000E-01      1.003516000000000E+02      1.850052000000000E-01     -2.040527000000000E+01      1.902161000000000E-01      1.099141000000000E+02      2.677307000000000E-01      5.233203000000000E+01
4830000000.000000      4.308472000000000E-01      1.007930000000000E+02      1.886368000000000E-01     -1.940918000000000E+01      1.934967000000000E-01      1.108672000000000E+02      2.651367000000000E-01      5.133984000000000E+01
4831000000.000000      4.269257000000000E-01      1.011836000000000E+02      1.925049000000000E-01     -1.851074000000000E+01      1.974792000000000E-01      1.118125000000000E+02      2.634888000000000E-01      5.009766000000000E+01
4832000000.000000      4.234924000000000E-01      1.016172000000000E+02      1.962509000000000E-01     -1.758984000000000E+01      2.010422000000000E-01      1.127031000000000E+02      2.609558000000000E-01      4.948242000000000E+01
4833000000.000000      4.191589000000000E-01      1.019453000000000E+02      2.002182000000000E-01     -1.674219000000000E+01      2.048492000000000E-01      1.133594000000000E+02      2.607117000000000E-01      4.808984000000000E+01
4834000000.000000      4.154053000000000E-01      1.023945000000000E+02      2.044830000000000E-01     -1.594678000000000E+01      2.090530000000000E-01      1.141211000000000E+02      2.599030000000000E-01      4.705468000000000E+01
4835000000.000000      4.111938000000000E-01      1.028242000000000E+02      2.093506000000000E-01     -1.550195000000000E+01      2.134781000000000E-01      1.148242000000000E+02      2.592926000000000E-01      4.590039000000000E+01
4836000000.000000      4.072876000000000E-01      1.032539000000000E+02      2.127380000000000E-01     -1.474268000000000E+01      2.174683000000000E-01      1.155976000000000E+02      2.564697000000000E-01      4.478125000000000E+01
4837000000.000000      4.019318000000000E-01      1.037891000000000E+02      2.169876000000000E-01     -1.425244000000000E+01      2.216949000000000E-01      1.160976000000000E+02      2.542877000000000E-01      4.390429000000000E+01
4838000000.000000      3.966675000000000E-01      1.040820000000000E+02      2.213821000000000E-01     -1.357910000000000E+01      2.259064000000000E-01      1.167109000000000E+02      2.538605000000000E-01      4.250196000000000E+01
4839000000.000000      3.936462000000000E-01      1.046406000000000E+02      2.263336000000000E-01     -1.324170000000000E+01      2.304001000000000E-01      1.171367000000000E+02      2.503357000000000E-01      4.111718000000000E+01
4840000000.000000      3.876953000000000E-01      1.049961000000000E+02      2.315292000000000E-01     -1.264844000000000E+01      2.347641000000000E-01      1.176133000000000E+02      2.495117000000000E-01      4.016015000000000E+01
4841000000.000000      3.833313000000000E-01      1.054961000000000E+02      2.355118000000000E-01     -1.252588000000000E+01      2.392273000000000E-01      1.180430000000000E+02      2.474747000000000E-01      3.906250000000000E+01
4842000000.000000      3.772125000000000E-01      1.059531000000000E+02      2.403641000000000E-01     -1.214697000000000E+01      2.439651000000000E-01      1.185703000000000E+02      2.455597000000000E-01      3.801367000000000E+01
4843000000.000000      3.718109000000000E-01      1.062539000000000E+02      2.453156000000000E-01     -1.188623000000000E+01      2.489090000000000E-01      1.188555000000000E+02      2.431564000000000E-01      3.698633000000000E+01
4844000000.000000      3.658142000000000E-01      1.067539000000000E+02      2.500610000000000E-01     -1.155762000000000E+01      2.535095000000000E-01      1.191211000000000E+02      2.402115000000000E-01      3.586328000000000E+01
4845000000.000000      3.602753000000000E-01      1.073438000000000E+02      2.549896000000000E-01     -1.132861000000000E+01      2.581940000000000E-01      1.193516000000000E+02      2.382202000000000E-01      3.414258000000000E+01
4846000000.000000      3.543701000000000E-01      1.077031000000000E+02      2.602386000000000E-01     -1.116357000000000E+01      2.636108000000000E-01      1.196875000000000E+02      2.359772000000000E-01      3.343164000000000E+01
4847000000.000000      3.489075000000000E-01      1.082813000000000E+02      2.644958000000000E-01     -1.092773000000000E+01      2.683868000000000E-01      1.198984000000000E+02      2.317810000000000E-01      3.196289000000000E+01
4848000000.000000      3.425140000000000E-01      1.086992000000000E+02      2.690277000000000E-01     -1.097949000000000E+01      2.729034000000000E-01      1.200312000000000E+02      2.302933000000000E-01      3.081640000000000E+01
4849000000.000000      3.361664000000000E-01      1.091602000000000E+02      2.746582000000000E-01     -1.100439000000000E+01      2.783203000000000E-01      1.202891000000000E+02      2.282486000000000E-01      2.979492000000000E+01
4850000000.000000      3.295898000000000E-01      1.095195000000000E+02      2.793427000000000E-01     -1.091650000000000E+01      2.824097000000000E-01      1.205000000000000E+02      2.255859000000000E-01      2.877148000000000E+01
4851000000.000000      3.237305000000000E-01      1.101758000000000E+02      2.850037000000000E-01     -1.084912000000000E+01      2.876434000000000E-01      1.206680000000000E+02      2.231216000000000E-01      2.724121000000000E+01
4852000000.000000      3.166504000000000E-01      1.105859000000000E+02      2.894592000000000E-01     -1.103467000000000E+01      2.927094000000000E-01      1.207969000000000E+02      2.210083000000000E-01      2.621875000000000E+01
4853000000.000000      3.108215000000000E-01      1.110703000000000E+02      2.940826000000000E-01     -1.098242000000000E+01      2.973785000000000E-01      1.208867000000000E+02      2.176056000000000E-01      2.461621000000000E+01
4854000000.000000      3.032837000000000E-01      1.115742000000000E+02      2.996979000000000E-01     -1.114600000000000E+01      3.029480000000000E-01      1.209258000000000E+02      2.171936000000000E-01      2.385742000000000E+01
4855000000.000000      2.967072000000000E-01      1.120508000000000E+02      3.040771000000000E-01     -1.118311000000000E+01      3.077545000000000E-01      1.210312000000000E+02      2.129669000000000E-01      2.285937000000000E+01
4856000000.000000      2.902679000000000E-01      1.125508000000000E+02      3.090057000000000E-01     -1.126416000000000E+01      3.127899000000000E-01      1.210625000000000E+02      2.116547000000000E-01      2.162793000000000E+01
4857000000.000000      2.827454000000000E-01      1.130117000000000E+02      3.149567000000000E-01     -1.129150000000000E+01      3.172455000000000E-01      1.210664000000000E+02      2.076645000000000E-01      2.046191000000000E+01
4858000000.000000      2.751312000000000E-01      1.133242000000000E+02      3.197784000000000E-01     -1.154395000000000E+01      3.224640000000000E-01      1.211875000000000E+02      2.052994000000000E-01      1.908789000000000E+01
4859000000.000000      2.685547000000000E-01      1.139219000000000E+02      3.247223000000000E-01     -1.177734000000000E+01      3.275146000000000E-01      1.210547000000000E+02      2.035065000000000E-01      1.789258000000000E+01
4860000000.000000      2.618103000000000E-01      1.145547000000000E+02      3.294067000000000E-01     -1.188623000000000E+01      3.325958000000000E-01      1.211328000000000E+02      2.008438000000000E-01      1.675488000000000E+01
4861000000.000000      2.539368000000000E-01      1.150234000000000E+02      3.344116000000000E-01     -1.224170000000000E+01      3.379211000000000E-01      1.210586000000000E+02      1.967087000000000E-01      1.543408000000000E+01
4862000000.000000      2.464600000000000E-01      1.155937000000000E+02      3.397522000000000E-01     -1.236816000000000E+01      3.427429000000000E-01      1.210547000000000E+02      1.947784000000000E-01      1.432715000000000E+01
4863000000.000000      2.387314000000000E-01      1.160625000000000E+02      3.433380000000000E-01     -1.275928000000000E+01      3.483276000000000E-01      1.209922000000000E+02      1.929398000000000E-01      1.333154000000000E+01
4864000000.000000      2.317047000000000E-01      1.166445000000000E+02      3.490143000000000E-01     -1.291895000000000E+01      3.524475000000000E-01      1.209961000000000E+02      1.900787000000000E-01      1.216162000000000E+01
4865000000.000000      2.238464000000000E-01      1.170859000000000E+02      3.532410000000000E-01     -1.312500000000000E+01      3.589478000000000E-01      1.208906000000000E+02      1.878281000000000E-01      1.111377000000000E+01
4866000000.000000      2.163086000000000E-01      1.175664000000000E+02      3.582153000000000E-01     -1.332813000000000E+01      3.633728000000000E-01      1.207109000000000E+02      1.855850000000000E-01      9.763672000000000E+00
4867000000.000000      2.087631000000000E-01      1.181758000000000E+02      3.631287000000000E-01     -1.375781000000000E+01      3.671722000000000E-01      1.207031000000000E+02      1.829529000000000E-01      8.720215000000000E+00
4868000000.000000      2.013702000000000E-01      1.188359000000000E+02      3.688049000000000E-01     -1.405029000000000E+01      3.727875000000000E-01      1.203828000000000E+02      1.799469000000000E-01      7.730225000000000E+00
4869000000.000000      1.933136000000000E-01      1.195234000000000E+02      3.726196000000000E-01     -1.447217000000000E+01      3.780060000000000E-01      1.204297000000000E+02      1.772003000000000E-01      6.452881000000000E+00
4870000000.000000      1.864700000000000E-01      1.201055000000000E+02      3.777313000000000E-01     -1.454883000000000E+01      3.832397000000000E-01      1.202812000000000E+02      1.752701000000000E-01      5.520508000000000E+00
4871000000.000000      1.784134000000000E-01      1.207148000000000E+02      3.829346000000000E-01     -1.493457000000000E+01      3.881989000000000E-01      1.202539000000000E+02      1.721878000000000E-01      4.235107000000000E+00
4872000000.000000      1.712036000000000E-01      1.213398000000000E+02      3.867493000000000E-01     -1.520654000000000E+01      3.923645000000000E-01      1.198867000000000E+02      1.702423000000000E-01      3.481201000000000E+00
4873000000.000000      1.633224000000000E-01      1.221992000000000E+02      3.913727000000000E-01     -1.570117000000000E+01      3.970947000000000E-01      1.197422000000000E+02      1.664581000000000E-01      2.103882000000000E+00
4874000000.000000      1.556091000000000E-01      1.228984000000000E+02      3.964996000000000E-01     -1.602539000000000E+01      4.026031000000000E-01      1.194492000000000E+02      1.644516000000000E-01      1.036804000000000E+00
4875000000.000000      1.479340000000000E-01      1.236953000000000E+02      3.999634000000000E-01     -1.632715000000000E+01      4.084625000000000E-01      1.195430000000000E+02      1.613159000000000E-01      3.707886000000000E-02
4876000000.000000      1.410904000000000E-01      1.245391000000000E+02      4.052124000000000E-01     -1.676855000000000E+01      4.136658000000000E-01      1.191445000000000E+02      1.590652000000000E-01     -1.359558000000000E+00
4877000000.000000      1.334457000000000E-01      1.251641000000000E+02      4.099121000000000E-01     -1.728516000000000E+01      4.188843000000000E-01      1.188398000000000E+02      1.561127000000000E-01     -2.068237000000000E+00
4878000000.000000      1.259155000000000E-01      1.265000000000000E+02      4.138184000000000E-01     -1.756250000000000E+01      4.232178000000000E-01      1.189258000000000E+02      1.538773000000000E-01     -3.131104000000000E+00
4879000000.000000      1.192398000000000E-01      1.273867000000000E+02      4.170685000000000E-01     -1.790723000000000E+01      4.277649000000000E-01      1.186094000000000E+02      1.513824000000000E-01     -4.155762000000000E+00
4880000000.000000      1.109810000000000E-01      1.283828000000000E+02      4.226532000000000E-01     -1.852051000000000E+01      4.326630000000000E-01      1.182734000000000E+02      1.485672000000000E-01     -5.165039000000000E+00
4881000000.000000      1.048470000000000E-01      1.301641000000000E+02      4.275818000000000E-01     -1.860547000000000E+01      4.386597000000000E-01      1.180469000000000E+02      1.459885000000000E-01     -6.008301000000000E+00
4882000000.000000      9.759903000000000E-02      1.311953000000000E+02      4.319000000000000E-01     -1.919531000000000E+01      4.432526000000000E-01      1.177187000000000E+02      1.429367000000000E-01     -6.718262000000000E+00
