! Network Analyzer HP8722D
! Hewlett-Packard
! Data name: Linha & Wilkinson
! Saver's name: Rodrigo Anjos
! Comments: Teste da utilização de aquisição
continua pelo VNA HP8722D
! Time and date: 25/4/2025 15:45
!              Frequency                     S11                                                   S21                                                   S12                                                   S22
# HZ  S  MA R 50
4800000000.000000      4.338226000000000E-01      9.051952000000000E+01      1.859741000000000E-01     -6.400000000000000E+01      1.909866000000000E-01      6.971874000000000E+01      2.503052000000000E-01      7.705468000000000E+01
4801000000.000000      4.369659000000000E-01      9.069530000000000E+01      1.820679000000000E-01     -6.260547000000000E+01      1.874313000000000E-01      7.057031000000000E+01      2.531586000000000E-01      7.599609000000000E+01
4802000000.000000      4.399414000000000E-01      9.106249000000000E+01      1.786346000000000E-01     -6.144531000000000E+01      1.841202000000000E-01      7.160156000000000E+01      2.567139000000000E-01      7.523828000000000E+01
4803000000.000000      4.423676000000000E-01      9.120703000000000E+01      1.761551000000000E-01     -6.014453000000000E+01      1.805115000000000E-01      7.277734000000000E+01      2.561493000000000E-01      7.516015000000000E+01
4804000000.000000      4.446869000000000E-01      9.163280000000000E+01      1.728210000000000E-01     -5.898242000000000E+01      1.779022000000000E-01      7.395702000000000E+01      2.576141000000000E-01      7.418750000000000E+01
4805000000.000000      4.488983000000000E-01      9.173828000000000E+01      1.700058000000000E-01     -5.751367000000000E+01      1.750717000000000E-01      7.519921000000000E+01      2.602844000000000E-01      7.369141000000000E+01
4806000000.000000      4.494781000000000E-01      9.208984000000000E+01      1.677246000000000E-01     -5.606054000000000E+01      1.725845000000000E-01      7.657031000000000E+01      2.610626000000000E-01      7.296093000000000E+01
4807000000.000000      4.512177000000000E-01      9.235546000000000E+01      1.655273000000000E-01     -5.461328000000000E+01      1.703568000000000E-01      7.775391000000000E+01      2.609253000000000E-01      7.237499000000000E+01
4808000000.000000      4.526825000000000E-01      9.268749000000000E+01      1.633377000000000E-01     -5.305273000000000E+01      1.681366000000000E-01      7.930859000000000E+01      2.642059000000000E-01      7.132421000000000E+01
4809000000.000000      4.544830000000000E-01      9.304688000000000E+01      1.614914000000000E-01     -5.156054000000000E+01      1.666565000000000E-01      8.077343000000000E+01      2.659760000000000E-01      7.128124000000000E+01
4810000000.000000      4.559174000000000E-01      9.326952000000000E+01      1.605759000000000E-01     -4.957421000000000E+01      1.654663000000000E-01      8.227734000000000E+01      2.665405000000000E-01      6.963672000000000E+01
4811000000.000000      4.565430000000000E-01      9.362890000000000E+01      1.590652000000000E-01     -4.816211000000000E+01      1.645966000000000E-01      8.389063000000000E+01      2.672424000000000E-01      6.943749000000000E+01
4812000000.000000      4.577789000000000E-01      9.410936000000000E+01      1.579895000000000E-01     -4.646680000000000E+01      1.635056000000000E-01      8.536718000000000E+01      2.676697000000000E-01      6.841015000000000E+01
4813000000.000000      4.580536000000000E-01      9.438280000000000E+01      1.578140000000000E-01     -4.464844000000000E+01      1.630173000000000E-01      8.716406000000000E+01      2.732544000000000E-01      6.787109000000000E+01
4814000000.000000      4.572449000000000E-01      9.465235000000000E+01      1.576767000000000E-01     -4.275195000000000E+01      1.626434000000000E-01      8.875780000000000E+01      2.695923000000000E-01      6.737890000000000E+01
4815000000.000000      4.570923000000000E-01      9.508593000000000E+01      1.571426000000000E-01     -4.100390000000000E+01      1.622467000000000E-01      9.041016000000000E+01      2.716064000000000E-01      6.605078000000000E+01
4816000000.000000      4.579010000000000E-01      9.538671000000000E+01      1.582108000000000E-01     -3.927734000000000E+01      1.635208000000000E-01      9.216015000000000E+01      2.723236000000000E-01      6.516015000000000E+01
4817000000.000000      4.566040000000000E-01      9.574999000000000E+01      1.582870000000000E-01     -3.756250000000000E+01      1.634598000000000E-01      9.366014000000000E+01      2.718506000000000E-01      6.437500000000000E+01
4818000000.000000      4.559479000000000E-01      9.610546000000000E+01      1.589813000000000E-01     -3.598242000000000E+01      1.649399000000000E-01      9.536327000000000E+01      2.723083000000000E-01      6.340625000000000E+01
4819000000.000000      4.555664000000000E-01      9.644920000000000E+01      1.606827000000000E-01     -3.418359000000000E+01      1.660614000000000E-01      9.683594000000000E+01      2.712708000000000E-01      6.266796000000000E+01
4820000000.000000      4.529877000000000E-01      9.676561000000000E+01      1.619034000000000E-01     -3.231054000000000E+01      1.672668000000000E-01      9.834373000000000E+01      2.720490000000000E-01      6.181835000000000E+01
4821000000.000000      4.531097000000000E-01      9.713280000000000E+01      1.638489000000000E-01     -3.099316000000000E+01      1.686630000000000E-01      9.991796000000000E+01      2.706146000000000E-01      6.098242000000000E+01
4822000000.000000      4.505310000000000E-01      9.741014000000000E+01      1.655960000000000E-01     -2.930371000000000E+01      1.707535000000000E-01      1.012773000000000E+02      2.727051000000000E-01      5.942187000000000E+01
4823000000.000000      4.485779000000000E-01      9.788671000000000E+01      1.679993000000000E-01     -2.790039000000000E+01      1.726532000000000E-01      1.028828000000000E+02      2.719727000000000E-01      5.847461000000000E+01
4824000000.000000      4.470520000000000E-01      9.824219000000000E+01      1.707535000000000E-01     -2.653906000000000E+01      1.753616000000000E-01      1.040430000000000E+02      2.705078000000000E-01      5.742773000000000E+01
4825000000.000000      4.442596000000000E-01      9.857422000000000E+01      1.729355000000000E-01     -2.500391000000000E+01      1.785431000000000E-01      1.054609000000000E+02      2.714386000000000E-01      5.651367000000000E+01
4826000000.000000      4.419403000000000E-01      9.899609000000000E+01      1.759796000000000E-01     -2.395215000000000E+01      1.808548000000000E-01      1.065977000000000E+02      2.702026000000000E-01      5.553515000000000E+01
4827000000.000000      4.391479000000000E-01      9.935156000000000E+01      1.784134000000000E-01     -2.268164000000000E+01      1.839066000000000E-01      1.077930000000000E+02      2.675781000000000E-01      5.424218000000000E+01
4828000000.000000      4.373474000000000E-01      9.976171000000000E+01      1.822357000000000E-01     -2.151269000000000E+01      1.870651000000000E-01      1.088789000000000E+02      2.682190000000000E-01      5.305078000000000E+01
4829000000.000000      4.330139000000000E-01      1.002930000000000E+02      1.855011000000000E-01     -2.035254000000000E+01      1.909866000000000E-01      1.099414000000000E+02      2.672272000000000E-01      5.244922000000000E+01
4830000000.000000      4.298248000000000E-01      1.005820000000000E+02      1.890030000000000E-01     -1.950781000000000E+01      1.942749000000000E-01      1.108750000000000E+02      2.669983000000000E-01      5.139648000000000E+01
4831000000.000000      4.251556000000000E-01      1.010742000000000E+02      1.926804000000000E-01     -1.850293000000000E+01      1.981430000000000E-01      1.118906000000000E+02      2.635040000000000E-01      4.988671000000000E+01
4832000000.000000      4.227753000000000E-01      1.014375000000000E+02      1.968002000000000E-01     -1.753613000000000E+01      2.016373000000000E-01      1.127344000000000E+02      2.630157000000000E-01      4.933788000000000E+01
4833000000.000000      4.178619000000000E-01      1.018516000000000E+02      2.008209000000000E-01     -1.674609000000000E+01      2.057648000000000E-01      1.134648000000000E+02      2.606812000000000E-01      4.809375000000000E+01
4834000000.000000      4.147186000000000E-01      1.022734000000000E+02      2.046967000000000E-01     -1.603223000000000E+01      2.096024000000000E-01      1.141797000000000E+02      2.593079000000000E-01      4.685547000000000E+01
4835000000.000000      4.105377000000000E-01      1.026445000000000E+02      2.094879000000000E-01     -1.539746000000000E+01      2.142334000000000E-01      1.148633000000000E+02      2.576599000000000E-01      4.573828000000000E+01
4836000000.000000      4.066010000000000E-01      1.031445000000000E+02      2.136765000000000E-01     -1.473584000000000E+01      2.179794000000000E-01      1.155976000000000E+02      2.566071000000000E-01      4.490820000000000E+01
4837000000.000000      4.014435000000000E-01      1.036211000000000E+02      2.173691000000000E-01     -1.445703000000000E+01      2.222214000000000E-01      1.161328000000000E+02      2.552795000000000E-01      4.366601000000000E+01
4838000000.000000      3.957672000000000E-01      1.039531000000000E+02      2.228317000000000E-01     -1.368652000000000E+01      2.264862000000000E-01      1.166836000000000E+02      2.532654000000000E-01      4.253906000000000E+01
4839000000.000000      3.930817000000000E-01      1.043789000000000E+02      2.269440000000000E-01     -1.310986000000000E+01      2.313919000000000E-01      1.171289000000000E+02      2.492065000000000E-01      4.121875000000000E+01
4840000000.000000      3.866119000000000E-01      1.048359000000000E+02      2.316208000000000E-01     -1.275684000000000E+01      2.354965000000000E-01      1.177266000000000E+02      2.477188000000000E-01      3.971094000000000E+01
4841000000.000000      3.813019000000000E-01      1.053164000000000E+02      2.366562000000000E-01     -1.250000000000000E+01      2.399368000000000E-01      1.180664000000000E+02      2.479553000000000E-01      3.905859000000000E+01
4842000000.000000      3.761139000000000E-01      1.058516000000000E+02      2.407761000000000E-01     -1.207959000000000E+01      2.444534000000000E-01      1.185664000000000E+02      2.447815000000000E-01      3.774219000000000E+01
4843000000.000000      3.707123000000000E-01      1.061523000000000E+02      2.458801000000000E-01     -1.187500000000000E+01      2.496719000000000E-01      1.188086000000000E+02      2.437363000000000E-01      3.672266000000000E+01
4844000000.000000      3.649445000000000E-01      1.065937000000000E+02      2.503967000000000E-01     -1.164014000000000E+01      2.541809000000000E-01      1.191640000000000E+02      2.394104000000000E-01      3.540234000000000E+01
4845000000.000000      3.588715000000000E-01      1.071406000000000E+02      2.556610000000000E-01     -1.147803000000000E+01      2.591248000000000E-01      1.193906000000000E+02      2.383499000000000E-01      3.450781000000000E+01
4846000000.000000      3.528290000000000E-01      1.076250000000000E+02      2.605133000000000E-01     -1.124316000000000E+01      2.642517000000000E-01      1.196133000000000E+02      2.357559000000000E-01      3.350000000000000E+01
4847000000.000000      3.476868000000000E-01      1.080351000000000E+02      2.656708000000000E-01     -1.110205000000000E+01      2.687073000000000E-01      1.199648000000000E+02      2.319336000000000E-01      3.212891000000000E+01
4848000000.000000      3.412628000000000E-01      1.085078000000000E+02      2.702637000000000E-01     -1.111279000000000E+01      2.736969000000000E-01      1.201445000000000E+02      2.311249000000000E-01      3.094433000000000E+01
4849000000.000000      3.348694000000000E-01      1.088594000000000E+02      2.749176000000000E-01     -1.109619000000000E+01      2.781982000000000E-01      1.202969000000000E+02      2.274017000000000E-01      2.943848000000000E+01
4850000000.000000      3.283081000000000E-01      1.093984000000000E+02      2.799835000000000E-01     -1.104004000000000E+01      2.837067000000000E-01      1.205273000000000E+02      2.266846000000000E-01      2.856543000000000E+01
4851000000.000000      3.220520000000000E-01      1.099219000000000E+02      2.861481000000000E-01     -1.099609000000000E+01      2.884979000000000E-01      1.206367000000000E+02      2.239990000000000E-01      2.745605000000000E+01
4852000000.000000      3.153687000000000E-01      1.104219000000000E+02      2.904358000000000E-01     -1.093848000000000E+01      2.933350000000000E-01      1.207695000000000E+02      2.213593000000000E-01      2.640332000000000E+01
4853000000.000000      3.090668000000000E-01      1.109766000000000E+02      2.943878000000000E-01     -1.101123000000000E+01      2.986603000000000E-01      1.208516000000000E+02      2.179413000000000E-01      2.481445000000000E+01
4854000000.000000      3.020325000000000E-01      1.112930000000000E+02      3.005219000000000E-01     -1.126123000000000E+01      3.032837000000000E-01      1.210078000000000E+02      2.168579000000000E-01      2.354199000000000E+01
4855000000.000000      2.956085000000000E-01      1.118203000000000E+02      3.052063000000000E-01     -1.126953000000000E+01      3.086548000000000E-01      1.209258000000000E+02      2.125092000000000E-01      2.262890000000000E+01
4856000000.000000      2.888336000000000E-01      1.123555000000000E+02      3.101349000000000E-01     -1.146191000000000E+01      3.132019000000000E-01      1.210859000000000E+02      2.108994000000000E-01      2.128320000000000E+01
4857000000.000000      2.817230000000000E-01      1.128320000000000E+02      3.163147000000000E-01     -1.146582000000000E+01      3.178253000000000E-01      1.210938000000000E+02      2.076416000000000E-01      2.006445000000000E+01
4858000000.000000      2.738037000000000E-01      1.132539000000000E+02      3.206787000000000E-01     -1.163330000000000E+01      3.234558000000000E-01      1.210938000000000E+02      2.056656000000000E-01      1.894043000000000E+01
4859000000.000000      2.669983000000000E-01      1.138242000000000E+02      3.257294000000000E-01     -1.191895000000000E+01      3.283691000000000E-01      1.211016000000000E+02      2.032852000000000E-01      1.797754000000000E+01
4860000000.000000      2.606964000000000E-01      1.143633000000000E+02      3.307037000000000E-01     -1.199170000000000E+01      3.323822000000000E-01      1.211250000000000E+02      2.007523000000000E-01      1.672754000000000E+01
4861000000.000000      2.523651000000000E-01      1.149414000000000E+02      3.349152000000000E-01     -1.227344000000000E+01      3.385925000000000E-01      1.212031000000000E+02      1.970139000000000E-01      1.533936000000000E+01
4862000000.000000      2.449112000000000E-01      1.153672000000000E+02      3.401642000000000E-01     -1.244385000000000E+01      3.436127000000000E-01      1.209375000000000E+02      1.951141000000000E-01      1.414307000000000E+01
4863000000.000000      2.373123000000000E-01      1.159727000000000E+02      3.451080000000000E-01     -1.283936000000000E+01      3.483734000000000E-01      1.210508000000000E+02      1.927185000000000E-01      1.318066000000000E+01
4864000000.000000      2.305450000000000E-01      1.164336000000000E+02      3.503113000000000E-01     -1.295459000000000E+01      3.533936000000000E-01      1.209766000000000E+02      1.902313000000000E-01      1.186621000000000E+01
4865000000.000000      2.221909000000000E-01      1.168359000000000E+02      3.542480000000000E-01     -1.302588000000000E+01      3.591766000000000E-01      1.207969000000000E+02      1.881180000000000E-01      1.081152000000000E+01
4866000000.000000      2.150192000000000E-01      1.174531000000000E+02      3.589325000000000E-01     -1.351318000000000E+01      3.643951000000000E-01      1.206836000000000E+02      1.847458000000000E-01      9.536133000000000E+00
4867000000.000000      2.070618000000000E-01      1.181133000000000E+02      3.641052000000000E-01     -1.384277000000000E+01      3.682404000000000E-01      1.206328000000000E+02      1.828308000000000E-01      8.478516000000000E+00
4868000000.000000      1.998215000000000E-01      1.186797000000000E+02      3.692627000000000E-01     -1.420020000000000E+01      3.736115000000000E-01      1.205508000000000E+02      1.794434000000000E-01      7.440430000000000E+00
4869000000.000000      1.919632000000000E-01      1.193281000000000E+02      3.735352000000000E-01     -1.435400000000000E+01      3.788757000000000E-01      1.204648000000000E+02      1.767349000000000E-01      6.274414000000000E+00
4870000000.000000      1.846313000000000E-01      1.199687000000000E+02      3.785858000000000E-01     -1.469873000000000E+01      3.839722000000000E-01      1.202344000000000E+02      1.743240000000000E-01      5.364014000000000E+00
4871000000.000000      1.771851000000000E-01      1.205312000000000E+02      3.834839000000000E-01     -1.513916000000000E+01      3.892365000000000E-01      1.200430000000000E+02      1.716766000000000E-01      4.071777000000000E+00
4872000000.000000      1.697388000000000E-01      1.212734000000000E+02      3.875275000000000E-01     -1.531641000000000E+01      3.935089000000000E-01      1.198164000000000E+02      1.701508000000000E-01      3.132446000000000E+00
4873000000.000000      1.618805000000000E-01      1.220391000000000E+02      3.919525000000000E-01     -1.572168000000000E+01      3.984985000000000E-01      1.197930000000000E+02      1.662369000000000E-01      1.704224000000000E+00
4874000000.000000      1.540070000000000E-01      1.229531000000000E+02      3.964233000000000E-01     -1.623144000000000E+01      4.042816000000000E-01      1.195234000000000E+02      1.643906000000000E-01      6.248474000000000E-01
4875000000.000000      1.469421000000000E-01      1.237461000000000E+02      4.014893000000000E-01     -1.651269000000000E+01      4.087219000000000E-01      1.193867000000000E+02      1.613693000000000E-01     -5.630493000000000E-02
4876000000.000000      1.396255000000000E-01      1.243711000000000E+02      4.061584000000000E-01     -1.681348000000000E+01      4.142914000000000E-01      1.191133000000000E+02      1.591721000000000E-01     -1.650696000000000E+00
4877000000.000000      1.314697000000000E-01      1.252383000000000E+02      4.105225000000000E-01     -1.724121000000000E+01      4.195557000000000E-01      1.189375000000000E+02      1.563568000000000E-01     -2.334595000000000E+00
4878000000.000000      1.245003000000000E-01      1.265078000000000E+02      4.145355000000000E-01     -1.758789000000000E+01      4.235535000000000E-01      1.188515000000000E+02      1.534119000000000E-01     -3.392090000000000E+00
4879000000.000000      1.175232000000000E-01      1.275547000000000E+02      4.196014000000000E-01     -1.794141000000000E+01      4.290009000000000E-01      1.184844000000000E+02      1.513062000000000E-01     -4.479736000000000E+00
4880000000.000000      1.099052000000000E-01      1.284844000000000E+02      4.235382000000000E-01     -1.842578000000000E+01      4.342804000000000E-01      1.182461000000000E+02      1.480026000000000E-01     -5.460205000000000E+00
4881000000.000000      1.031151000000000E-01      1.301484000000000E+02      4.286346000000000E-01     -1.877246000000000E+01      4.390106000000000E-01      1.179688000000000E+02      1.455078000000000E-01     -6.125000000000000E+00
4882000000.000000      9.614182000000000E-02      1.311484000000000E+02      4.335785000000000E-01     -1.925586000000000E+01      4.440460000000000E-01      1.177031000000000E+02      1.430893000000000E-01     -7.039551000000000E+00
