! Network Analyzer HP8722D
! Hewlett-Packard
! Data name: Linha & Wilkinson
! Saver's name: Rodrigo Anjos
! Comments: Teste da utilização de aquisição
continua pelo VNA HP8722D
! Time and date: 25/4/2025 16:47
!              Frequency                     S11                                                   S21                                                   S12                                                   S22
# HZ  S  MA R 50
4800000000.000000      4.356537000000000E-01      9.092968000000000E+01      1.857910000000000E-01     -6.401172000000000E+01      1.913223000000000E-01      6.951953000000000E+01      2.482147000000000E-01      7.734765000000000E+01
4801000000.000000      4.387665000000000E-01      9.119532000000000E+01      1.818695000000000E-01     -6.270898000000000E+01      1.874084000000000E-01      7.043750000000000E+01      2.533569000000000E-01      7.612109000000000E+01
4802000000.000000      4.409790000000000E-01      9.146875000000000E+01      1.784058000000000E-01     -6.149609000000000E+01      1.842422000000000E-01      7.143749000000000E+01      2.554932000000000E-01      7.561328000000000E+01
4803000000.000000      4.438171000000000E-01      9.178514000000000E+01      1.755753000000000E-01     -6.025000000000000E+01      1.806870000000000E-01      7.257421000000000E+01      2.567291000000000E-01      7.528515000000000E+01
4804000000.000000      4.465790000000000E-01      9.203516000000000E+01      1.721420000000000E-01     -5.914648000000000E+01      1.777344000000000E-01      7.368359000000000E+01      2.578125000000000E-01      7.455859000000000E+01
4805000000.000000      4.500580000000000E-01      9.221483000000000E+01      1.697083000000000E-01     -5.766211000000000E+01      1.750107000000000E-01      7.482422000000000E+01      2.606659000000000E-01      7.385547000000000E+01
4806000000.000000      4.518738000000000E-01      9.256250000000000E+01      1.673050000000000E-01     -5.624804000000000E+01      1.724167000000000E-01      7.632421000000000E+01      2.607880000000000E-01      7.324219000000000E+01
4807000000.000000      4.541321000000000E-01      9.280859000000000E+01      1.652908000000000E-01     -5.483593000000000E+01      1.698685000000000E-01      7.743359000000000E+01      2.626801000000000E-01      7.257030000000000E+01
4808000000.000000      4.545135000000000E-01      9.319530000000000E+01      1.629410000000000E-01     -5.319530000000000E+01      1.681290000000000E-01      7.896093000000000E+01      2.640381000000000E-01      7.214062000000000E+01
4809000000.000000      4.561768000000000E-01      9.354296000000000E+01      1.611328000000000E-01     -5.178905000000000E+01      1.667404000000000E-01      8.041016000000000E+01      2.665710000000000E-01      7.120703000000000E+01
4810000000.000000      4.579773000000000E-01      9.380859000000000E+01      1.598740000000000E-01     -5.008007000000000E+01      1.648178000000000E-01      8.198437000000000E+01      2.657471000000000E-01      7.028515000000000E+01
4811000000.000000      4.581604000000000E-01      9.412109000000000E+01      1.585617000000000E-01     -4.836914000000000E+01      1.641922000000000E-01      8.365625000000000E+01      2.664490000000000E-01      6.983984000000000E+01
4812000000.000000      4.605560000000000E-01      9.446484000000000E+01      1.581192000000000E-01     -4.660742000000000E+01      1.630554000000000E-01      8.511719000000000E+01      2.680511000000000E-01      6.892187000000000E+01
4813000000.000000      4.597626000000000E-01      9.483593000000000E+01      1.570206000000000E-01     -4.481835000000000E+01      1.624298000000000E-01      8.688280000000000E+01      2.709656000000000E-01      6.805078000000000E+01
4814000000.000000      4.592285000000000E-01      9.512110000000000E+01      1.565781000000000E-01     -4.306641000000000E+01      1.621170000000000E-01      8.863672000000000E+01      2.693634000000000E-01      6.744141000000000E+01
4815000000.000000      4.589386000000000E-01      9.547266000000000E+01      1.565781000000000E-01     -4.115820000000000E+01      1.616516000000000E-01      9.005859000000000E+01      2.719727000000000E-01      6.601171000000000E+01
4816000000.000000      4.600677000000000E-01      9.586329000000000E+01      1.571732000000000E-01     -3.936328000000000E+01      1.628647000000000E-01      9.176561000000000E+01      2.720032000000000E-01      6.537499000000000E+01
4817000000.000000      4.588776000000000E-01      9.620703000000000E+01      1.573715000000000E-01     -3.776172000000000E+01      1.628189000000000E-01      9.345312000000000E+01      2.715607000000000E-01      6.491405000000000E+01
4818000000.000000      4.586945000000000E-01      9.657812000000000E+01      1.583481000000000E-01     -3.605273000000000E+01      1.638870000000000E-01      9.506250000000000E+01      2.715302000000000E-01      6.403515000000000E+01
4819000000.000000      4.578094000000000E-01      9.694921000000000E+01      1.592560000000000E-01     -3.432031000000000E+01      1.648941000000000E-01      9.658203000000000E+01      2.716064000000000E-01      6.286327000000000E+01
4820000000.000000      4.544830000000000E-01      9.730469000000000E+01      1.604767000000000E-01     -3.263672000000000E+01      1.664658000000000E-01      9.814842000000000E+01      2.730408000000000E-01      6.221289000000000E+01
4821000000.000000      4.551392000000000E-01      9.754686000000000E+01      1.630173000000000E-01     -3.099316000000000E+01      1.679077000000000E-01      9.964062000000000E+01      2.725067000000000E-01      6.112305000000000E+01
4822000000.000000      4.530029000000000E-01      9.789843000000000E+01      1.645279000000000E-01     -2.958301000000000E+01      1.696472000000000E-01      1.010430000000000E+02      2.717133000000000E-01      5.996484000000000E+01
4823000000.000000      4.514160000000000E-01      9.833202000000000E+01      1.670990000000000E-01     -2.790722000000000E+01      1.716995000000000E-01      1.026484000000000E+02      2.719727000000000E-01      5.883984000000000E+01
4824000000.000000      4.492798000000000E-01      9.874609000000000E+01      1.692734000000000E-01     -2.669043000000000E+01      1.744461000000000E-01      1.037812000000000E+02      2.707672000000000E-01      5.779687000000000E+01
4825000000.000000      4.470215000000000E-01      9.904686000000000E+01      1.716919000000000E-01     -2.531152000000000E+01      1.772614000000000E-01      1.052891000000000E+02      2.704926000000000E-01      5.676952000000000E+01
4826000000.000000      4.440002000000000E-01      9.944530000000000E+01      1.741104000000000E-01     -2.385840000000000E+01      1.796036000000000E-01      1.063633000000000E+02      2.700348000000000E-01      5.567187000000000E+01
4827000000.000000      4.419861000000000E-01      9.980469000000000E+01      1.775131000000000E-01     -2.245410000000000E+01      1.827469000000000E-01      1.076211000000000E+02      2.699585000000000E-01      5.459570000000000E+01
4828000000.000000      4.401550000000000E-01      1.002344000000000E+02      1.808701000000000E-01     -2.157519000000000E+01      1.858673000000000E-01      1.086836000000000E+02      2.679749000000000E-01      5.356054000000000E+01
4829000000.000000      4.357300000000000E-01      1.008086000000000E+02      1.839981000000000E-01     -2.039941000000000E+01      1.892471000000000E-01      1.098242000000000E+02      2.679596000000000E-01      5.268359000000000E+01
4830000000.000000      4.321594000000000E-01      1.010625000000000E+02      1.878967000000000E-01     -1.958105000000000E+01      1.927872000000000E-01      1.107734000000000E+02      2.670441000000000E-01      5.162695000000000E+01
4831000000.000000      4.275360000000000E-01      1.014766000000000E+02      1.910934000000000E-01     -1.851563000000000E+01      1.963043000000000E-01      1.117773000000000E+02      2.633820000000000E-01      5.042969000000000E+01
4832000000.000000      4.254608000000000E-01      1.018906000000000E+02      1.950378000000000E-01     -1.750879000000000E+01      1.999207000000000E-01      1.126367000000000E+02      2.634583000000000E-01      4.973633000000000E+01
4833000000.000000      4.210510000000000E-01      1.022578000000000E+02      1.988220000000000E-01     -1.662695000000000E+01      2.040253000000000E-01      1.133476000000000E+02      2.617493000000000E-01      4.839453000000000E+01
4834000000.000000      4.171906000000000E-01      1.026719000000000E+02      2.031479000000000E-01     -1.599072000000000E+01      2.082367000000000E-01      1.141250000000000E+02      2.601166000000000E-01      4.709374000000000E+01
4835000000.000000      4.134674000000000E-01      1.030664000000000E+02      2.078323000000000E-01     -1.535645000000000E+01      2.124252000000000E-01      1.148398000000000E+02      2.581329000000000E-01      4.608007000000000E+01
4836000000.000000      4.092102000000000E-01      1.035781000000000E+02      2.113342000000000E-01     -1.483984000000000E+01      2.163391000000000E-01      1.156836000000000E+02      2.555389000000000E-01      4.514062000000000E+01
4837000000.000000      4.044800000000000E-01      1.040586000000000E+02      2.154236000000000E-01     -1.442383000000000E+01      2.205887000000000E-01      1.160078000000000E+02      2.557678000000000E-01      4.379492000000000E+01
4838000000.000000      3.988953000000000E-01      1.043516000000000E+02      2.204361000000000E-01     -1.359180000000000E+01      2.251205000000000E-01      1.166836000000000E+02      2.526398000000000E-01      4.249023000000000E+01
4839000000.000000      3.955994000000000E-01      1.049297000000000E+02      2.251511000000000E-01     -1.310840000000000E+01      2.295456000000000E-01      1.171484000000000E+02      2.512970000000000E-01      4.141602000000000E+01
4840000000.000000      3.892670000000000E-01      1.053125000000000E+02      2.297058000000000E-01     -1.268945000000000E+01      2.340927000000000E-01      1.177305000000000E+02      2.486420000000000E-01      3.999804000000000E+01
4841000000.000000      3.852234000000000E-01      1.058320000000000E+02      2.345963000000000E-01     -1.238721000000000E+01      2.384033000000000E-01      1.180898000000000E+02      2.480545000000000E-01      3.940820000000000E+01
4842000000.000000      3.790741000000000E-01      1.062578000000000E+02      2.391129000000000E-01     -1.204688000000000E+01      2.425842000000000E-01      1.185312000000000E+02      2.454910000000000E-01      3.803320000000000E+01
4843000000.000000      3.739319000000000E-01      1.065781000000000E+02      2.438431000000000E-01     -1.189307000000000E+01      2.477570000000000E-01      1.188633000000000E+02      2.426300000000000E-01      3.708984000000000E+01
4844000000.000000      3.685150000000000E-01      1.070313000000000E+02      2.485809000000000E-01     -1.156348000000000E+01      2.520905000000000E-01      1.192344000000000E+02      2.399521000000000E-01      3.578906000000000E+01
4845000000.000000      3.623352000000000E-01      1.076055000000000E+02      2.529144000000000E-01     -1.127197000000000E+01      2.573547000000000E-01      1.194180000000000E+02      2.380371000000000E-01      3.456055000000000E+01
4846000000.000000      3.566284000000000E-01      1.079609000000000E+02      2.586212000000000E-01     -1.111572000000000E+01      2.626953000000000E-01      1.196992000000000E+02      2.362442000000000E-01      3.377148000000000E+01
4847000000.000000      3.507080000000000E-01      1.086562000000000E+02      2.635498000000000E-01     -1.090967000000000E+01      2.671356000000000E-01      1.199766000000000E+02      2.333298000000000E-01      3.239843000000000E+01
4848000000.000000      3.445892000000000E-01      1.090156000000000E+02      2.678528000000000E-01     -1.088232000000000E+01      2.717590000000000E-01      1.201601000000000E+02      2.320023000000000E-01      3.096875000000000E+01
4849000000.000000      3.383026000000000E-01      1.093476000000000E+02      2.737732000000000E-01     -1.086719000000000E+01      2.764893000000000E-01      1.203398000000000E+02      2.279587000000000E-01      3.022168000000000E+01
4850000000.000000      3.318024000000000E-01      1.098476000000000E+02      2.776489000000000E-01     -1.077246000000000E+01      2.814178000000000E-01      1.205586000000000E+02      2.260132000000000E-01      2.892773000000000E+01
4851000000.000000      3.257599000000000E-01      1.104180000000000E+02      2.839661000000000E-01     -1.072998000000000E+01      2.860718000000000E-01      1.207265000000000E+02      2.240982000000000E-01      2.749512000000000E+01
4852000000.000000      3.191223000000000E-01      1.108594000000000E+02      2.882233000000000E-01     -1.091260000000000E+01      2.914429000000000E-01      1.208555000000000E+02      2.207947000000000E-01      2.652734000000000E+01
4853000000.000000      3.127441000000000E-01      1.113906000000000E+02      2.926178000000000E-01     -1.096191000000000E+01      2.964478000000000E-01      1.209844000000000E+02      2.192535000000000E-01      2.514355000000000E+01
4854000000.000000      3.052521000000000E-01      1.118594000000000E+02      2.971954000000000E-01     -1.117188000000000E+01      3.014221000000000E-01      1.210430000000000E+02      2.172623000000000E-01      2.410645000000000E+01
4855000000.000000      2.994385000000000E-01      1.123047000000000E+02      3.025055000000000E-01     -1.118018000000000E+01      3.062897000000000E-01      1.210820000000000E+02      2.131653000000000E-01      2.302734000000000E+01
4856000000.000000      2.921295000000000E-01      1.129844000000000E+02      3.074951000000000E-01     -1.119531000000000E+01      3.112183000000000E-01      1.211445000000000E+02      2.119141000000000E-01      2.176856000000000E+01
4857000000.000000      2.851257000000000E-01      1.133906000000000E+02      3.138885000000000E-01     -1.121729000000000E+01      3.168182000000000E-01      1.211953000000000E+02      2.089691000000000E-01      2.066308000000000E+01
4858000000.000000      2.777710000000000E-01      1.136601000000000E+02      3.174896000000000E-01     -1.136719000000000E+01      3.211060000000000E-01      1.213125000000000E+02      2.059326000000000E-01      1.924219000000000E+01
4859000000.000000      2.705383000000000E-01      1.142539000000000E+02      3.229370000000000E-01     -1.164014000000000E+01      3.259277000000000E-01      1.212695000000000E+02      2.038498000000000E-01      1.814746000000000E+01
4860000000.000000      2.642670000000000E-01      1.148867000000000E+02      3.282166000000000E-01     -1.178711000000000E+01      3.301392000000000E-01      1.212070000000000E+02      2.014313000000000E-01      1.712305000000000E+01
4861000000.000000      2.559204000000000E-01      1.154140000000000E+02      3.325500000000000E-01     -1.216504000000000E+01      3.361816000000000E-01      1.212969000000000E+02      1.980896000000000E-01      1.569922000000000E+01
4862000000.000000      2.488708000000000E-01      1.158672000000000E+02      3.387146000000000E-01     -1.224170000000000E+01      3.412170000000000E-01      1.211758000000000E+02      1.957321000000000E-01      1.453320000000000E+01
4863000000.000000      2.415695000000000E-01      1.163242000000000E+02      3.422394000000000E-01     -1.262061000000000E+01      3.464966000000000E-01      1.212187000000000E+02      1.934814000000000E-01      1.364502000000000E+01
4864000000.000000      2.342148000000000E-01      1.168476000000000E+02      3.478241000000000E-01     -1.265234000000000E+01      3.517914000000000E-01      1.210312000000000E+02      1.898422000000000E-01      1.226855000000000E+01
4865000000.000000      2.266235000000000E-01      1.174492000000000E+02      3.519135000000000E-01     -1.282813000000000E+01      3.561249000000000E-01      1.210000000000000E+02      1.886978000000000E-01      1.118652000000000E+01
4866000000.000000      2.189026000000000E-01      1.178242000000000E+02      3.566589000000000E-01     -1.327734000000000E+01      3.621826000000000E-01      1.207070000000000E+02      1.863480000000000E-01      1.000684000000000E+01
4867000000.000000      2.112274000000000E-01      1.185312000000000E+02      3.619080000000000E-01     -1.363135000000000E+01      3.659363000000000E-01      1.207305000000000E+02      1.832275000000000E-01      8.949707000000000E+00
4868000000.000000      2.042007000000000E-01      1.190664000000000E+02      3.676605000000000E-01     -1.393652000000000E+01      3.722076000000000E-01      1.207265000000000E+02      1.803970000000000E-01      7.851074000000000E+00
4869000000.000000      1.959991000000000E-01      1.197305000000000E+02      3.706360000000000E-01     -1.429736000000000E+01      3.765717000000000E-01      1.205781000000000E+02      1.774368000000000E-01      6.722168000000000E+00
4870000000.000000      1.890488000000000E-01      1.201875000000000E+02      3.765259000000000E-01     -1.444336000000000E+01      3.811798000000000E-01      1.204140000000000E+02      1.751099000000000E-01      5.870605000000000E+00
4871000000.000000      1.810989000000000E-01      1.208359000000000E+02      3.806458000000000E-01     -1.472461000000000E+01      3.861237000000000E-01      1.202578000000000E+02      1.724548000000000E-01      4.486328000000000E+00
4872000000.000000      1.737061000000000E-01      1.216406000000000E+02      3.855591000000000E-01     -1.509277000000000E+01      3.914642000000000E-01      1.199648000000000E+02      1.704407000000000E-01      3.636475000000000E+00
4873000000.000000      1.658783000000000E-01      1.225117000000000E+02      3.898010000000000E-01     -1.563525000000000E+01      3.958740000000000E-01      1.199062000000000E+02      1.670380000000000E-01      2.410034000000000E+00
4874000000.000000      1.584015000000000E-01      1.231367000000000E+02      3.927002000000000E-01     -1.599365000000000E+01      4.025421000000000E-01      1.196523000000000E+02      1.653290000000000E-01      1.351318000000000E+00
4875000000.000000      1.505051000000000E-01      1.240547000000000E+02      3.982086000000000E-01     -1.616992000000000E+01      4.073486000000000E-01      1.194922000000000E+02      1.613617000000000E-01      4.367065000000000E-01
4876000000.000000      1.436996000000000E-01      1.246875000000000E+02      4.040070000000000E-01     -1.655176000000000E+01      4.125214000000000E-01      1.193828000000000E+02      1.593857000000000E-01     -8.747864000000000E-01
4877000000.000000      1.354980000000000E-01      1.253906000000000E+02      4.081116000000000E-01     -1.702637000000000E+01      4.166565000000000E-01      1.190664000000000E+02      1.572342000000000E-01     -1.682312000000000E+00
4878000000.000000      1.288376000000000E-01      1.268320000000000E+02      4.125214000000000E-01     -1.744531000000000E+01      4.208527000000000E-01      1.189414000000000E+02      1.540833000000000E-01     -2.874390000000000E+00
4879000000.000000      1.216583000000000E-01      1.276758000000000E+02      4.166260000000000E-01     -1.774316000000000E+01      4.267578000000000E-01      1.185625000000000E+02      1.517487000000000E-01     -3.897461000000000E+00
4880000000.000000      1.144447000000000E-01      1.286328000000000E+02      4.207458000000000E-01     -1.822949000000000E+01      4.313049000000000E-01      1.183633000000000E+02      1.485748000000000E-01     -4.906982000000000E+00
4881000000.000000      1.076775000000000E-01      1.301563000000000E+02      4.264526000000000E-01     -1.842871000000000E+01      4.365387000000000E-01      1.181016000000000E+02      1.463394000000000E-01     -5.588135000000000E+00
4882000000.000000      1.005859000000000E-01      1.311797000000000E+02      4.302521000000000E-01     -1.894922000000000E+01      4.416656000000000E-01      1.179844000000000E+02      1.439514000000000E-01     -6.594727000000000E+00
