! Network Analyzer HP8722D
! Hewlett-Packard
! Data name: Linha & Wilkinson
! Saver's name: Rodrigo Anjos
! Comments: Teste da utilização de aquisição
continua pelo VNA HP8722D
! Time and date: 25/4/2025 15:57
!              Frequency                     S11                                                   S21                                                   S12                                                   S22
# HZ  S  MA R 50
4800000000.000000      4.339752000000000E-01      9.067968000000000E+01      1.860275000000000E-01     -6.389843000000000E+01      1.910477000000000E-01      6.967187000000000E+01      2.494507000000000E-01      7.712109000000000E+01
4801000000.000000      4.365387000000000E-01      9.093359000000000E+01      1.824417000000000E-01     -6.265429000000000E+01      1.874466000000000E-01      7.051562000000000E+01      2.511597000000000E-01      7.607422000000000E+01
4802000000.000000      4.402466000000000E-01      9.113281000000000E+01      1.783752000000000E-01     -6.147461000000000E+01      1.841431000000000E-01      7.150000000000000E+01      2.568512000000000E-01      7.593359000000000E+01
4803000000.000000      4.428406000000000E-01      9.150391000000000E+01      1.759338000000000E-01     -6.029297000000000E+01      1.809845000000000E-01      7.272655000000000E+01      2.577515000000000E-01      7.521874000000000E+01
4804000000.000000      4.460449000000000E-01      9.178514000000000E+01      1.727829000000000E-01     -5.887304000000000E+01      1.781082000000000E-01      7.367578000000000E+01      2.568970000000000E-01      7.437500000000000E+01
4805000000.000000      4.487152000000000E-01      9.190624000000000E+01      1.699982000000000E-01     -5.752734000000000E+01      1.750565000000000E-01      7.497656000000000E+01      2.605438000000000E-01      7.402344000000000E+01
4806000000.000000      4.497375000000000E-01      9.217577000000000E+01      1.671524000000000E-01     -5.621484000000000E+01      1.724625000000000E-01      7.645312000000000E+01      2.619324000000000E-01      7.351953000000000E+01
4807000000.000000      4.525299000000000E-01      9.251562000000000E+01      1.658020000000000E-01     -5.469140000000000E+01      1.701050000000000E-01      7.758203000000000E+01      2.615967000000000E-01      7.217968000000000E+01
4808000000.000000      4.535828000000000E-01      9.281250000000000E+01      1.632996000000000E-01     -5.307617000000000E+01      1.683273000000000E-01      7.917578000000000E+01      2.646790000000000E-01      7.131249000000000E+01
4809000000.000000      4.548645000000000E-01      9.321093000000000E+01      1.613617000000000E-01     -5.157421000000000E+01      1.669617000000000E-01      8.057032000000000E+01      2.673645000000000E-01      7.102344000000000E+01
4810000000.000000      4.566650000000000E-01      9.349609000000000E+01      1.603775000000000E-01     -4.961719000000000E+01      1.654205000000000E-01      8.224609000000000E+01      2.664032000000000E-01      6.971093000000000E+01
4811000000.000000      4.572296000000000E-01      9.385157000000000E+01      1.592865000000000E-01     -4.824804000000000E+01      1.641846000000000E-01      8.381639000000000E+01      2.689362000000000E-01      6.936328000000000E+01
4812000000.000000      4.588470000000000E-01      9.419140000000000E+01      1.573410000000000E-01     -4.643359000000000E+01      1.632004000000000E-01      8.528515000000000E+01      2.692719000000000E-01      6.824219000000000E+01
4813000000.000000      4.583893000000000E-01      9.453125000000000E+01      1.573410000000000E-01     -4.463086000000000E+01      1.628876000000000E-01      8.703905000000000E+01      2.713928000000000E-01      6.832812000000000E+01
4814000000.000000      4.579773000000000E-01      9.475389000000000E+01      1.571503000000000E-01     -4.284961000000000E+01      1.623001000000000E-01      8.866796000000000E+01      2.687378000000000E-01      6.724218000000000E+01
4815000000.000000      4.577332000000000E-01      9.516796000000000E+01      1.571350000000000E-01     -4.114258000000000E+01      1.623230000000000E-01      9.035156000000000E+01      2.711639000000000E-01      6.610937000000000E+01
4816000000.000000      4.588928000000000E-01      9.544922000000000E+01      1.575012000000000E-01     -3.922070000000000E+01      1.631851000000000E-01      9.198437000000000E+01      2.718811000000000E-01      6.533593000000000E+01
4817000000.000000      4.566498000000000E-01      9.594141000000000E+01      1.583252000000000E-01     -3.753515000000000E+01      1.632996000000000E-01      9.365625000000000E+01      2.722931000000000E-01      6.463672000000000E+01
4818000000.000000      4.564209000000000E-01      9.620703000000000E+01      1.589584000000000E-01     -3.582812000000000E+01      1.643600000000000E-01      9.527735000000000E+01      2.721863000000000E-01      6.354101000000000E+01
4819000000.000000      4.561615000000000E-01      9.659374000000000E+01      1.604156000000000E-01     -3.411133000000000E+01      1.656342000000000E-01      9.679688000000000E+01      2.703552000000000E-01      6.293163000000000E+01
4820000000.000000      4.534149000000000E-01      9.696484000000000E+01      1.613693000000000E-01     -3.251562000000000E+01      1.668777000000000E-01      9.834764000000000E+01      2.719116000000000E-01      6.174999000000000E+01
4821000000.000000      4.530640000000000E-01      9.727734000000000E+01      1.633987000000000E-01     -3.101660000000000E+01      1.685104000000000E-01      9.988670000000000E+01      2.716217000000000E-01      6.110546000000000E+01
4822000000.000000      4.513702000000000E-01      9.756248000000000E+01      1.650543000000000E-01     -2.936328000000000E+01      1.705246000000000E-01      1.011133000000000E+02      2.731934000000000E-01      5.965429000000000E+01
4823000000.000000      4.495239000000000E-01      9.799217000000000E+01      1.674042000000000E-01     -2.803613000000000E+01      1.726074000000000E-01      1.027070000000000E+02      2.717743000000000E-01      5.875390000000000E+01
4824000000.000000      4.477081000000000E-01      9.841406000000000E+01      1.700134000000000E-01     -2.658300000000000E+01      1.753006000000000E-01      1.038828000000000E+02      2.696686000000000E-01      5.768359000000000E+01
4825000000.000000      4.449768000000000E-01      9.870703000000000E+01      1.723938000000000E-01     -2.511621000000000E+01      1.779480000000000E-01      1.053828000000000E+02      2.702026000000000E-01      5.696679000000000E+01
4826000000.000000      4.430237000000000E-01      9.914452000000000E+01      1.752853000000000E-01     -2.393164000000000E+01      1.804657000000000E-01      1.065547000000000E+02      2.695618000000000E-01      5.569921000000000E+01
4827000000.000000      4.405212000000000E-01      9.957420000000000E+01      1.783142000000000E-01     -2.260449000000000E+01      1.834564000000000E-01      1.076133000000000E+02      2.695465000000000E-01      5.461719000000000E+01
4828000000.000000      4.383240000000000E-01      9.991405000000000E+01      1.818237000000000E-01     -2.151465000000000E+01      1.865463000000000E-01      1.088086000000000E+02      2.670593000000000E-01      5.339062000000000E+01
4829000000.000000      4.338684000000000E-01      1.005117000000000E+02      1.850586000000000E-01     -2.052246000000000E+01      1.903534000000000E-01      1.098828000000000E+02      2.682343000000000E-01      5.246875000000000E+01
4830000000.000000      4.308319000000000E-01      1.007656000000000E+02      1.885986000000000E-01     -1.947070000000000E+01      1.939545000000000E-01      1.108125000000000E+02      2.653809000000000E-01      5.154101000000000E+01
4831000000.000000      4.266205000000000E-01      1.011797000000000E+02      1.923294000000000E-01     -1.855371000000000E+01      1.977005000000000E-01      1.118164000000000E+02      2.638397000000000E-01      5.031445000000000E+01
4832000000.000000      4.237366000000000E-01      1.016797000000000E+02      1.962509000000000E-01     -1.762500000000000E+01      2.009430000000000E-01      1.126289000000000E+02      2.611847000000000E-01      4.951366000000000E+01
4833000000.000000      4.191895000000000E-01      1.019961000000000E+02      2.000198000000000E-01     -1.679590000000000E+01      2.049561000000000E-01      1.133437000000000E+02      2.611389000000000E-01      4.802148000000000E+01
4834000000.000000      4.154663000000000E-01      1.023672000000000E+02      2.042313000000000E-01     -1.603223000000000E+01      2.092590000000000E-01      1.141172000000000E+02      2.595367000000000E-01      4.695508000000000E+01
4835000000.000000      4.111023000000000E-01      1.027539000000000E+02      2.090683000000000E-01     -1.543994000000000E+01      2.133484000000000E-01      1.148516000000000E+02      2.572937000000000E-01      4.605469000000000E+01
4836000000.000000      4.073029000000000E-01      1.033164000000000E+02      2.126923000000000E-01     -1.478076000000000E+01      2.177429000000000E-01      1.155625000000000E+02      2.552185000000000E-01      4.486914000000000E+01
4837000000.000000      4.021606000000000E-01      1.038555000000000E+02      2.166672000000000E-01     -1.434424000000000E+01      2.217407000000000E-01      1.160859000000000E+02      2.543182000000000E-01      4.362890000000000E+01
4838000000.000000      3.967896000000000E-01      1.041484000000000E+02      2.215652000000000E-01     -1.369189000000000E+01      2.259521000000000E-01      1.166875000000000E+02      2.515564000000000E-01      4.234375000000000E+01
4839000000.000000      3.939209000000000E-01      1.046016000000000E+02      2.264175000000000E-01     -1.312598000000000E+01      2.306976000000000E-01      1.170976000000000E+02      2.515564000000000E-01      4.142383000000000E+01
4840000000.000000      3.875732000000000E-01      1.049609000000000E+02      2.305603000000000E-01     -1.267822000000000E+01      2.351303000000000E-01      1.176836000000000E+02      2.472687000000000E-01      4.022265000000000E+01
4841000000.000000      3.828583000000000E-01      1.055117000000000E+02      2.355881000000000E-01     -1.253027000000000E+01      2.395020000000000E-01      1.180234000000000E+02      2.476807000000000E-01      3.912500000000000E+01
4842000000.000000      3.771057000000000E-01      1.059727000000000E+02      2.405396000000000E-01     -1.210156000000000E+01      2.438965000000000E-01      1.185078000000000E+02      2.447205000000000E-01      3.809765000000000E+01
4843000000.000000      3.721924000000000E-01      1.062344000000000E+02      2.455521000000000E-01     -1.188184000000000E+01      2.488098000000000E-01      1.188047000000000E+02      2.418518000000000E-01      3.685351000000000E+01
4844000000.000000      3.661041000000000E-01      1.068047000000000E+02      2.500763000000000E-01     -1.171436000000000E+01      2.533722000000000E-01      1.191016000000000E+02      2.389984000000000E-01      3.551562000000000E+01
4845000000.000000      3.598480000000000E-01      1.073164000000000E+02      2.548370000000000E-01     -1.140674000000000E+01      2.584839000000000E-01      1.194180000000000E+02      2.380295000000000E-01      3.440039000000000E+01
4846000000.000000      3.549042000000000E-01      1.077305000000000E+02      2.598267000000000E-01     -1.122803000000000E+01      2.633209000000000E-01      1.196680000000000E+02      2.364197000000000E-01      3.315820000000000E+01
4847000000.000000      3.490753000000000E-01      1.082734000000000E+02      2.646332000000000E-01     -1.104297000000000E+01      2.684326000000000E-01      1.199180000000000E+02      2.321167000000000E-01      3.189648000000000E+01
4848000000.000000      3.424072000000000E-01      1.087266000000000E+02      2.689209000000000E-01     -1.102637000000000E+01      2.734222000000000E-01      1.200586000000000E+02      2.309341000000000E-01      3.090527000000000E+01
4849000000.000000      3.359375000000000E-01      1.090898000000000E+02      2.742615000000000E-01     -1.101953000000000E+01      2.774963000000000E-01      1.203633000000000E+02      2.287903000000000E-01      2.983105000000000E+01
4850000000.000000      3.295898000000000E-01      1.095703000000000E+02      2.794800000000000E-01     -1.093018000000000E+01      2.830353000000000E-01      1.205586000000000E+02      2.263412000000000E-01      2.845410000000000E+01
4851000000.000000      3.234711000000000E-01      1.101250000000000E+02      2.852020000000000E-01     -1.101660000000000E+01      2.875519000000000E-01      1.206445000000000E+02      2.236328000000000E-01      2.737305000000000E+01
4852000000.000000      3.166809000000000E-01      1.106211000000000E+02      2.898254000000000E-01     -1.101953000000000E+01      2.923431000000000E-01      1.208984000000000E+02      2.214890000000000E-01      2.606054000000000E+01
4853000000.000000      3.105927000000000E-01      1.110547000000000E+02      2.944336000000000E-01     -1.102246000000000E+01      2.976074000000000E-01      1.209023000000000E+02      2.188187000000000E-01      2.502636000000000E+01
4854000000.000000      3.026886000000000E-01      1.114453000000000E+02      2.993622000000000E-01     -1.111426000000000E+01      3.025513000000000E-01      1.210000000000000E+02      2.171860000000000E-01      2.375293000000000E+01
4855000000.000000      2.968597000000000E-01      1.120351000000000E+02      3.045654000000000E-01     -1.121729000000000E+01      3.074036000000000E-01      1.209922000000000E+02      2.130814000000000E-01      2.279590000000000E+01
4856000000.000000      2.895813000000000E-01      1.125352000000000E+02      3.097382000000000E-01     -1.131738000000000E+01      3.124542000000000E-01      1.210664000000000E+02      2.113571000000000E-01      2.141016000000000E+01
4857000000.000000      2.827606000000000E-01      1.130312000000000E+02      3.148193000000000E-01     -1.134619000000000E+01      3.173218000000000E-01      1.210781000000000E+02      2.079086000000000E-01      2.028809000000000E+01
4858000000.000000      2.750244000000000E-01      1.134101000000000E+02      3.194580000000000E-01     -1.151953000000000E+01      3.227539000000000E-01      1.211797000000000E+02      2.054062000000000E-01      1.904590000000000E+01
4859000000.000000      2.685547000000000E-01      1.139336000000000E+02      3.246002000000000E-01     -1.177051000000000E+01      3.273926000000000E-01      1.211328000000000E+02      2.037659000000000E-01      1.801855000000000E+01
4860000000.000000      2.618866000000000E-01      1.145391000000000E+02      3.295593000000000E-01     -1.184326000000000E+01      3.322296000000000E-01      1.212148000000000E+02      2.007751000000000E-01      1.676562000000000E+01
4861000000.000000      2.540283000000000E-01      1.151172000000000E+02      3.345032000000000E-01     -1.223779000000000E+01      3.373413000000000E-01      1.211328000000000E+02      1.971664000000000E-01      1.554932000000000E+01
4862000000.000000      2.461548000000000E-01      1.156719000000000E+02      3.399811000000000E-01     -1.247119000000000E+01      3.432312000000000E-01      1.210430000000000E+02      1.949615000000000E-01      1.433154000000000E+01
4863000000.000000      2.390289000000000E-01      1.160156000000000E+02      3.439789000000000E-01     -1.277734000000000E+01      3.480225000000000E-01      1.210664000000000E+02      1.928635000000000E-01      1.346338000000000E+01
4864000000.000000      2.317581000000000E-01      1.165469000000000E+02      3.497467000000000E-01     -1.270752000000000E+01      3.530273000000000E-01      1.210195000000000E+02      1.904297000000000E-01      1.198438000000000E+01
4865000000.000000      2.239838000000000E-01      1.170976000000000E+02      3.537750000000000E-01     -1.304395000000000E+01      3.575745000000000E-01      1.208750000000000E+02      1.878281000000000E-01      1.094482000000000E+01
4866000000.000000      2.161026000000000E-01      1.175781000000000E+02      3.581543000000000E-01     -1.346387000000000E+01      3.633728000000000E-01      1.206562000000000E+02      1.852798000000000E-01      9.750000000000000E+00
4867000000.000000      2.087173000000000E-01      1.183437000000000E+02      3.641510000000000E-01     -1.381299000000000E+01      3.672028000000000E-01      1.207383000000000E+02      1.828232000000000E-01      8.792969000000000E+00
4868000000.000000      2.014999000000000E-01      1.188008000000000E+02      3.683624000000000E-01     -1.414111000000000E+01      3.729553000000000E-01      1.206641000000000E+02      1.800156000000000E-01      7.502197000000000E+00
4869000000.000000      1.938629000000000E-01      1.194219000000000E+02      3.729248000000000E-01     -1.438281000000000E+01      3.777771000000000E-01      1.204492000000000E+02      1.771698000000000E-01      6.383057000000000E+00
4870000000.000000      1.861649000000000E-01      1.200273000000000E+02      3.782501000000000E-01     -1.453809000000000E+01      3.834686000000000E-01      1.201953000000000E+02      1.751328000000000E-01      5.469727000000000E+00
4871000000.000000      1.787491000000000E-01      1.207305000000000E+02      3.825073000000000E-01     -1.509131000000000E+01      3.875732000000000E-01      1.201055000000000E+02      1.714325000000000E-01      4.313477000000000E+00
4872000000.000000      1.711731000000000E-01      1.214258000000000E+02      3.861847000000000E-01     -1.533008000000000E+01      3.927917000000000E-01      1.197266000000000E+02      1.699600000000000E-01      3.457886000000000E+00
4873000000.000000      1.638794000000000E-01      1.222695000000000E+02      3.914795000000000E-01     -1.572314000000000E+01      3.968048000000000E-01      1.196797000000000E+02      1.666260000000000E-01      2.058472000000000E+00
4874000000.000000      1.556854000000000E-01      1.229258000000000E+02      3.958893000000000E-01     -1.611328000000000E+01      4.037628000000000E-01      1.194922000000000E+02      1.648941000000000E-01      9.681702000000000E-01
4875000000.000000      1.481857000000000E-01      1.238789000000000E+02      4.004517000000000E-01     -1.644824000000000E+01      4.083710000000000E-01      1.193711000000000E+02      1.615829000000000E-01      0.000000000000000E+00
4876000000.000000      1.410980000000000E-01      1.245898000000000E+02      4.048309000000000E-01     -1.684082000000000E+01      4.139709000000000E-01      1.192461000000000E+02      1.593018000000000E-01     -1.069824000000000E+00
4877000000.000000      1.334152000000000E-01      1.252148000000000E+02      4.091949000000000E-01     -1.725586000000000E+01      4.179382000000000E-01      1.189336000000000E+02      1.562958000000000E-01     -2.099854000000000E+00
4878000000.000000      1.261444000000000E-01      1.265469000000000E+02      4.147797000000000E-01     -1.757422000000000E+01      4.232941000000000E-01      1.189180000000000E+02      1.539078000000000E-01     -3.227295000000000E+00
4879000000.000000      1.191216000000000E-01      1.275977000000000E+02      4.169312000000000E-01     -1.795215000000000E+01      4.278259000000000E-01      1.185742000000000E+02      1.512909000000000E-01     -4.158447000000000E+00
4880000000.000000      1.116982000000000E-01      1.287031000000000E+02      4.238129000000000E-01     -1.834668000000000E+01      4.325256000000000E-01      1.182930000000000E+02      1.482391000000000E-01     -5.211670000000000E+00
4881000000.000000      1.049576000000000E-01      1.302266000000000E+02      4.277649000000000E-01     -1.871387000000000E+01      4.386902000000000E-01      1.182383000000000E+02      1.460419000000000E-01     -6.129150000000000E+00
4882000000.000000      9.760666000000000E-02      1.311094000000000E+02      4.314575000000000E-01     -1.922656000000000E+01      4.441376000000000E-01      1.178945000000000E+02      1.427536000000000E-01     -6.797852000000000E+00
