! Network Analyzer HP8722D
! Hewlett-Packard
! Data name: Linha & Wilkinson
! Saver's name: Rodrigo Anjos
! Comments: Teste da utilização de aquisição
continua pelo VNA HP8722D
! Time and date: 25/4/2025 15:53
!              Frequency                     S11                                                   S21                                                   S12                                                   S22
# HZ  S  MA R 50
4800000000.000000      4.345856000000000E-01      9.057421000000000E+01      1.851654000000000E-01     -6.345508000000000E+01      1.902695000000000E-01      6.994531000000000E+01      2.510223000000000E-01      7.716797000000000E+01
4801000000.000000      4.370422000000000E-01      9.080469000000000E+01      1.819382000000000E-01     -6.241601000000000E+01      1.866074000000000E-01      7.087500000000000E+01      2.525940000000000E-01      7.595312000000000E+01
4802000000.000000      4.405060000000000E-01      9.105078000000000E+01      1.780090000000000E-01     -6.125195000000000E+01      1.833649000000000E-01      7.180859000000000E+01      2.568207000000000E-01      7.553124000000000E+01
4803000000.000000      4.427338000000000E-01      9.130077000000000E+01      1.753311000000000E-01     -5.994726000000000E+01      1.800385000000000E-01      7.296484000000000E+01      2.592773000000000E-01      7.474218000000000E+01
4804000000.000000      4.458618000000000E-01      9.159765000000000E+01      1.725311000000000E-01     -5.841991000000000E+01      1.771622000000000E-01      7.405859000000000E+01      2.585907000000000E-01      7.464062000000000E+01
4805000000.000000      4.489136000000000E-01      9.174608000000000E+01      1.695328000000000E-01     -5.734179000000000E+01      1.742935000000000E-01      7.531250000000000E+01      2.613831000000000E-01      7.358203000000000E+01
4806000000.000000      4.498444000000000E-01      9.217577000000000E+01      1.670990000000000E-01     -5.567773000000000E+01      1.721115000000000E-01      7.680469000000000E+01      2.622986000000000E-01      7.302734000000000E+01
4807000000.000000      4.518280000000000E-01      9.236328000000000E+01      1.649399000000000E-01     -5.445703000000000E+01      1.696625000000000E-01      7.801171000000000E+01      2.623749000000000E-01      7.207031000000000E+01
4808000000.000000      4.530182000000000E-01      9.280468000000000E+01      1.634293000000000E-01     -5.268945000000000E+01      1.676941000000000E-01      7.958202000000000E+01      2.624969000000000E-01      7.135547000000000E+01
4809000000.000000      4.544220000000000E-01      9.310156000000000E+01      1.612473000000000E-01     -5.130468000000000E+01      1.666794000000000E-01      8.101954000000000E+01      2.661438000000000E-01      7.092187000000000E+01
4810000000.000000      4.560547000000000E-01      9.335938000000000E+01      1.605072000000000E-01     -4.923437000000000E+01      1.648941000000000E-01      8.260937000000000E+01      2.662506000000000E-01      7.004687000000000E+01
4811000000.000000      4.564209000000000E-01      9.372656000000000E+01      1.589127000000000E-01     -4.775781000000000E+01      1.641083000000000E-01      8.415234000000000E+01      2.678070000000000E-01      6.917969000000000E+01
4812000000.000000      4.588318000000000E-01      9.412500000000000E+01      1.580811000000000E-01     -4.602148000000000E+01      1.633377000000000E-01      8.568750000000000E+01      2.677307000000000E-01      6.831249000000000E+01
4813000000.000000      4.580536000000000E-01      9.441015000000000E+01      1.574478000000000E-01     -4.428320000000000E+01      1.627960000000000E-01      8.743359000000000E+01      2.698822000000000E-01      6.772655000000000E+01
4814000000.000000      4.578094000000000E-01      9.465624000000000E+01      1.578598000000000E-01     -4.245117000000000E+01      1.624298000000000E-01      8.915234000000000E+01      2.700958000000000E-01      6.681250000000000E+01
4815000000.000000      4.574890000000000E-01      9.508204000000000E+01      1.578293000000000E-01     -4.085156000000000E+01      1.624603000000000E-01      9.069530000000000E+01      2.717590000000000E-01      6.598046000000000E+01
4816000000.000000      4.588013000000000E-01      9.546875000000000E+01      1.578674000000000E-01     -3.880664000000000E+01      1.635513000000000E-01      9.250391000000000E+01      2.707977000000000E-01      6.467968000000000E+01
4817000000.000000      4.574127000000000E-01      9.582811000000000E+01      1.587677000000000E-01     -3.709179000000000E+01      1.635742000000000E-01      9.402735000000000E+01      2.708130000000000E-01      6.414063000000000E+01
4818000000.000000      4.568176000000000E-01      9.615234000000000E+01      1.593857000000000E-01     -3.549023000000000E+01      1.650314000000000E-01      9.560938000000000E+01      2.720032000000000E-01      6.343750000000000E+01
4819000000.000000      4.557648000000000E-01      9.645311000000000E+01      1.604385000000000E-01     -3.380468000000000E+01      1.657791000000000E-01      9.714844000000000E+01      2.707672000000000E-01      6.247070000000000E+01
4820000000.000000      4.528503000000000E-01      9.692186000000000E+01      1.623306000000000E-01     -3.210938000000000E+01      1.673431000000000E-01      9.870703000000000E+01      2.718811000000000E-01      6.130664000000000E+01
4821000000.000000      4.534760000000000E-01      9.723436000000000E+01      1.640472000000000E-01     -3.063867000000000E+01      1.688843000000000E-01      1.002383000000000E+02      2.720184000000000E-01      6.030078000000000E+01
4822000000.000000      4.514771000000000E-01      9.751171000000000E+01      1.660995000000000E-01     -2.921484000000000E+01      1.709595000000000E-01      1.015703000000000E+02      2.712860000000000E-01      5.960742000000000E+01
4823000000.000000      4.486237000000000E-01      9.798046000000000E+01      1.684036000000000E-01     -2.754883000000000E+01      1.732330000000000E-01      1.029844000000000E+02      2.714844000000000E-01      5.851171000000000E+01
4824000000.000000      4.473877000000000E-01      9.833984000000000E+01      1.706772000000000E-01     -2.631933000000000E+01      1.759872000000000E-01      1.042617000000000E+02      2.706299000000000E-01      5.749609000000000E+01
4825000000.000000      4.445190000000000E-01      9.863670000000000E+01      1.732483000000000E-01     -2.494238000000000E+01      1.789627000000000E-01      1.056016000000000E+02      2.701111000000000E-01      5.635156000000000E+01
4826000000.000000      4.421082000000000E-01      9.904686000000000E+01      1.766891000000000E-01     -2.358789000000000E+01      1.815567000000000E-01      1.068125000000000E+02      2.694702000000000E-01      5.554296000000000E+01
4827000000.000000      4.399719000000000E-01      9.956640000000000E+01      1.791534000000000E-01     -2.243750000000000E+01      1.845093000000000E-01      1.078750000000000E+02      2.680359000000000E-01      5.426952000000000E+01
4828000000.000000      4.378204000000000E-01      9.989452000000000E+01      1.827774000000000E-01     -2.128613000000000E+01      1.879959000000000E-01      1.089375000000000E+02      2.685699000000000E-01      5.327538000000000E+01
4829000000.000000      4.328613000000000E-01      1.003867000000000E+02      1.857910000000000E-01     -2.023438000000000E+01      1.915512000000000E-01      1.100547000000000E+02      2.678223000000000E-01      5.228320000000000E+01
4830000000.000000      4.301910000000000E-01      1.007109000000000E+02      1.900177000000000E-01     -1.910156000000000E+01      1.948547000000000E-01      1.110781000000000E+02      2.644043000000000E-01      5.107226000000000E+01
4831000000.000000      4.262085000000000E-01      1.010938000000000E+02      1.935883000000000E-01     -1.837500000000000E+01      1.986771000000000E-01      1.119453000000000E+02      2.636719000000000E-01      4.977344000000000E+01
4832000000.000000      4.229431000000000E-01      1.015937000000000E+02      1.975327000000000E-01     -1.749316000000000E+01      2.020798000000000E-01      1.127930000000000E+02      2.628937000000000E-01      4.915625000000000E+01
4833000000.000000      4.189148000000000E-01      1.018437000000000E+02      2.015228000000000E-01     -1.666699000000000E+01      2.062988000000000E-01      1.135703000000000E+02      2.601471000000000E-01      4.806054000000000E+01
4834000000.000000      4.152679000000000E-01      1.023125000000000E+02      2.054443000000000E-01     -1.596631000000000E+01      2.103806000000000E-01      1.142578000000000E+02      2.590790000000000E-01      4.689843000000000E+01
4835000000.000000      4.107208000000000E-01      1.027578000000000E+02      2.093811000000000E-01     -1.531104000000000E+01      2.144241000000000E-01      1.150312000000000E+02      2.573090000000000E-01      4.556836000000000E+01
4836000000.000000      4.067078000000000E-01      1.032148000000000E+02      2.136841000000000E-01     -1.476709000000000E+01      2.185593000000000E-01      1.156797000000000E+02      2.555542000000000E-01      4.463867000000000E+01
4837000000.000000      4.015045000000000E-01      1.037383000000000E+02      2.181396000000000E-01     -1.441699000000000E+01      2.227325000000000E-01      1.161523000000000E+02      2.552185000000000E-01      4.331640000000000E+01
4838000000.000000      3.973846000000000E-01      1.040898000000000E+02      2.231216000000000E-01     -1.347217000000000E+01      2.271347000000000E-01      1.167773000000000E+02      2.519531000000000E-01      4.200195000000000E+01
4839000000.000000      3.932037000000000E-01      1.045430000000000E+02      2.275696000000000E-01     -1.308643000000000E+01      2.316742000000000E-01      1.171875000000000E+02      2.497635000000000E-01      4.091016000000000E+01
4840000000.000000      3.869019000000000E-01      1.049687000000000E+02      2.325211000000000E-01     -1.276074000000000E+01      2.364044000000000E-01      1.177305000000000E+02      2.488174000000000E-01      3.969336000000000E+01
4841000000.000000      3.826294000000000E-01      1.054336000000000E+02      2.371902000000000E-01     -1.240381000000000E+01      2.409897000000000E-01      1.180820000000000E+02      2.468719000000000E-01      3.881640000000000E+01
4842000000.000000      3.762817000000000E-01      1.059336000000000E+02      2.417908000000000E-01     -1.214160000000000E+01      2.452011000000000E-01      1.184922000000000E+02      2.445755000000000E-01      3.744726000000000E+01
4843000000.000000      3.717346000000000E-01      1.062305000000000E+02      2.475052000000000E-01     -1.175684000000000E+01      2.501526000000000E-01      1.189453000000000E+02      2.421875000000000E-01      3.664453000000000E+01
4844000000.000000      3.654633000000000E-01      1.067695000000000E+02      2.519531000000000E-01     -1.168555000000000E+01      2.542877000000000E-01      1.191367000000000E+02      2.391052000000000E-01      3.548242000000000E+01
4845000000.000000      3.601227000000000E-01      1.071758000000000E+02      2.563324000000000E-01     -1.141895000000000E+01      2.595062000000000E-01      1.194531000000000E+02      2.379150000000000E-01      3.385156000000000E+01
4846000000.000000      3.537750000000000E-01      1.077109000000000E+02      2.612457000000000E-01     -1.131738000000000E+01      2.646027000000000E-01      1.196875000000000E+02      2.354584000000000E-01      3.284570000000000E+01
4847000000.000000      3.481445000000000E-01      1.082383000000000E+02      2.661133000000000E-01     -1.104297000000000E+01      2.699738000000000E-01      1.198594000000000E+02      2.319565000000000E-01      3.182714000000000E+01
4848000000.000000      3.420410000000000E-01      1.086328000000000E+02      2.710571000000000E-01     -1.090820000000000E+01      2.742920000000000E-01      1.200977000000000E+02      2.313156000000000E-01      3.049316000000000E+01
4849000000.000000      3.354187000000000E-01      1.089922000000000E+02      2.755432000000000E-01     -1.107422000000000E+01      2.788544000000000E-01      1.203008000000000E+02      2.280426000000000E-01      2.947558000000000E+01
4850000000.000000      3.290710000000000E-01      1.095313000000000E+02      2.807312000000000E-01     -1.111572000000000E+01      2.839966000000000E-01      1.205898000000000E+02      2.271347000000000E-01      2.840234000000000E+01
4851000000.000000      3.232117000000000E-01      1.101015000000000E+02      2.859955000000000E-01     -1.101953000000000E+01      2.889709000000000E-01      1.205508000000000E+02      2.256927000000000E-01      2.717676000000000E+01
4852000000.000000      3.162537000000000E-01      1.104961000000000E+02      2.913055000000000E-01     -1.102344000000000E+01      2.939453000000000E-01      1.207461000000000E+02      2.214584000000000E-01      2.611425000000000E+01
4853000000.000000      3.101959000000000E-01      1.109883000000000E+02      2.950287000000000E-01     -1.104688000000000E+01      2.991638000000000E-01      1.208906000000000E+02      2.179337000000000E-01      2.452246000000000E+01
4854000000.000000      3.025513000000000E-01      1.115234000000000E+02      3.008423000000000E-01     -1.126514000000000E+01      3.040771000000000E-01      1.208828000000000E+02      2.162323000000000E-01      2.363672000000000E+01
4855000000.000000      2.963715000000000E-01      1.120000000000000E+02      3.061676000000000E-01     -1.134766000000000E+01      3.087463000000000E-01      1.209961000000000E+02      2.124252000000000E-01      2.245605000000000E+01
4856000000.000000      2.891083000000000E-01      1.125117000000000E+02      3.109589000000000E-01     -1.130127000000000E+01      3.137665000000000E-01      1.210312000000000E+02      2.109985000000000E-01      2.123633000000000E+01
4857000000.000000      2.823029000000000E-01      1.130625000000000E+02      3.157349000000000E-01     -1.140527000000000E+01      3.190460000000000E-01      1.211211000000000E+02      2.072983000000000E-01      2.011230000000000E+01
4858000000.000000      2.745514000000000E-01      1.133320000000000E+02      3.209686000000000E-01     -1.173926000000000E+01      3.235321000000000E-01      1.210195000000000E+02      2.047882000000000E-01      1.874902000000000E+01
4859000000.000000      2.678223000000000E-01      1.138984000000000E+02      3.258514000000000E-01     -1.187939000000000E+01      3.289490000000000E-01      1.210586000000000E+02      2.029343000000000E-01      1.767383000000000E+01
4860000000.000000      2.611694000000000E-01      1.146172000000000E+02      3.310089000000000E-01     -1.200439000000000E+01      3.335266000000000E-01      1.210195000000000E+02      2.000732000000000E-01      1.667090000000000E+01
4861000000.000000      2.534943000000000E-01      1.151250000000000E+02      3.353729000000000E-01     -1.239258000000000E+01      3.390198000000000E-01      1.211133000000000E+02      1.970367000000000E-01      1.516357000000000E+01
4862000000.000000      2.455750000000000E-01      1.156250000000000E+02      3.410339000000000E-01     -1.241357000000000E+01      3.444824000000000E-01      1.209727000000000E+02      1.946793000000000E-01      1.399219000000000E+01
4863000000.000000      2.381516000000000E-01      1.161016000000000E+02      3.451080000000000E-01     -1.281836000000000E+01      3.493805000000000E-01      1.210469000000000E+02      1.921616000000000E-01      1.315869000000000E+01
4864000000.000000      2.308655000000000E-01      1.166484000000000E+02      3.512726000000000E-01     -1.293652000000000E+01      3.536530000000000E-01      1.210664000000000E+02      1.891327000000000E-01      1.185010000000000E+01
4865000000.000000      2.233734000000000E-01      1.171445000000000E+02      3.550873000000000E-01     -1.331445000000000E+01      3.596191000000000E-01      1.208164000000000E+02      1.874466000000000E-01      1.088037000000000E+01
4866000000.000000      2.156830000000000E-01      1.175469000000000E+02      3.596954000000000E-01     -1.353125000000000E+01      3.642120000000000E-01      1.206094000000000E+02      1.849747000000000E-01      9.575684000000000E+00
4867000000.000000      2.082367000000000E-01      1.183750000000000E+02      3.651428000000000E-01     -1.383203000000000E+01      3.687439000000000E-01      1.206641000000000E+02      1.823959000000000E-01      8.586914000000000E+00
4868000000.000000      2.007828000000000E-01      1.188125000000000E+02      3.695526000000000E-01     -1.416016000000000E+01      3.744507000000000E-01      1.204492000000000E+02      1.794968000000000E-01      7.364746000000000E+00
4869000000.000000      1.927567000000000E-01      1.194765000000000E+02      3.738861000000000E-01     -1.448730000000000E+01      3.792419000000000E-01      1.202539000000000E+02      1.765671000000000E-01      6.120605000000000E+00
4870000000.000000      1.851883000000000E-01      1.201406000000000E+02      3.789673000000000E-01     -1.471777000000000E+01      3.849487000000000E-01      1.201953000000000E+02      1.743698000000000E-01      5.126465000000000E+00
4871000000.000000      1.778259000000000E-01      1.207851000000000E+02      3.835449000000000E-01     -1.514063000000000E+01      3.897858000000000E-01      1.200273000000000E+02      1.716766000000000E-01      4.002930000000000E+00
4872000000.000000      1.709595000000000E-01      1.215195000000000E+02      3.877716000000000E-01     -1.531641000000000E+01      3.940582000000000E-01      1.196641000000000E+02      1.698685000000000E-01      3.120117000000000E+00
4873000000.000000      1.629868000000000E-01      1.223984000000000E+02      3.925323000000000E-01     -1.578223000000000E+01      3.987122000000000E-01      1.195976000000000E+02      1.661606000000000E-01      1.749573000000000E+00
4874000000.000000      1.555099000000000E-01      1.230586000000000E+02      3.966522000000000E-01     -1.627637000000000E+01      4.047089000000000E-01      1.194336000000000E+02      1.638184000000000E-01      7.910156000000000E-01
4875000000.000000      1.479340000000000E-01      1.237734000000000E+02      4.013824000000000E-01     -1.662988000000000E+01      4.091339000000000E-01      1.193750000000000E+02      1.606750000000000E-01     -2.416992000000000E-01
4876000000.000000      1.404572000000000E-01      1.245469000000000E+02      4.066467000000000E-01     -1.686719000000000E+01      4.141846000000000E-01      1.189883000000000E+02      1.581726000000000E-01     -1.509277000000000E+00
4877000000.000000      1.327362000000000E-01      1.254140000000000E+02      4.109802000000000E-01     -1.723535000000000E+01      4.198456000000000E-01      1.188437000000000E+02      1.558456000000000E-01     -2.411499000000000E+00
4878000000.000000      1.255798000000000E-01      1.266719000000000E+02      4.153595000000000E-01     -1.770801000000000E+01      4.241486000000000E-01      1.187422000000000E+02      1.536026000000000E-01     -3.541748000000000E+00
4879000000.000000      1.185341000000000E-01      1.277266000000000E+02      4.185791000000000E-01     -1.795508000000000E+01      4.295197000000000E-01      1.183594000000000E+02      1.507416000000000E-01     -4.607422000000000E+00
4880000000.000000      1.111031000000000E-01      1.288828000000000E+02      4.245300000000000E-01     -1.851367000000000E+01      4.346466000000000E-01      1.181523000000000E+02      1.475601000000000E-01     -5.354492000000000E+00
4881000000.000000      1.046562000000000E-01      1.305078000000000E+02      4.290924000000000E-01     -1.890234000000000E+01      4.392853000000000E-01      1.178672000000000E+02      1.448288000000000E-01     -6.357178000000000E+00
4882000000.000000      9.735489000000000E-02      1.316797000000000E+02      4.339142000000000E-01     -1.929101000000000E+01      4.445496000000000E-01      1.176563000000000E+02      1.429291000000000E-01     -7.198975000000000E+00
