! Network Analyzer HP8722D
! Hewlett-Packard
! Data name: Linha & Wilkinson
! Saver's name: Rodrigo Anjos
! Comments: Teste da utilização de aquisição
continua pelo VNA HP8722D
! Time and date: 25/4/2025 17:03
!              Frequency                     S11                                                   S21                                                   S12                                                   S22
# HZ  S  MA R 50
4800000000.000000      4.362640000000000E-01      9.095312000000000E+01      1.854095000000000E-01     -6.367773000000000E+01      1.900024000000000E-01      6.984765000000000E+01      2.496719000000000E-01      7.718359000000000E+01
4801000000.000000      4.384918000000000E-01      9.116796000000000E+01      1.805878000000000E-01     -6.256249000000000E+01      1.864090000000000E-01      7.065624000000000E+01      2.523346000000000E-01      7.582812000000000E+01
4802000000.000000      4.414520000000000E-01      9.146484000000000E+01      1.777649000000000E-01     -6.125977000000000E+01      1.832199000000000E-01      7.174999000000000E+01      2.559052000000000E-01      7.555469000000000E+01
4803000000.000000      4.450531000000000E-01      9.166016000000000E+01      1.750793000000000E-01     -5.994335000000000E+01      1.801834000000000E-01      7.286718000000000E+01      2.581177000000000E-01      7.483984000000000E+01
4804000000.000000      4.469757000000000E-01      9.206249000000000E+01      1.715622000000000E-01     -5.865234000000000E+01      1.771088000000000E-01      7.403125000000000E+01      2.573395000000000E-01      7.491015000000000E+01
4805000000.000000      4.505920000000000E-01      9.220703000000000E+01      1.693039000000000E-01     -5.739648000000000E+01      1.742706000000000E-01      7.517968000000000E+01      2.608185000000000E-01      7.358984000000000E+01
4806000000.000000      4.514923000000000E-01      9.255468000000000E+01      1.666641000000000E-01     -5.584961000000000E+01      1.718521000000000E-01      7.666797000000000E+01      2.617645000000000E-01      7.335546000000000E+01
4807000000.000000      4.537964000000000E-01      9.282030000000000E+01      1.640396000000000E-01     -5.447070000000000E+01      1.693039000000000E-01      7.796875000000000E+01      2.632294000000000E-01      7.222265000000000E+01
4808000000.000000      4.549866000000000E-01      9.314844000000000E+01      1.631851000000000E-01     -5.262500000000000E+01      1.678696000000000E-01      7.932812000000000E+01      2.654114000000000E-01      7.144140000000000E+01
4809000000.000000      4.564362000000000E-01      9.350389000000000E+01      1.612854000000000E-01     -5.152929000000000E+01      1.659927000000000E-01      8.078516000000000E+01      2.671051000000000E-01      7.110546000000000E+01
4810000000.000000      4.580994000000000E-01      9.377344000000000E+01      1.596451000000000E-01     -4.943749000000000E+01      1.644363000000000E-01      8.244141000000000E+01      2.656708000000000E-01      7.006249000000000E+01
4811000000.000000      4.593353000000000E-01      9.416407000000000E+01      1.585236000000000E-01     -4.781446000000000E+01      1.639633000000000E-01      8.394140000000000E+01      2.669983000000000E-01      6.924999000000000E+01
4812000000.000000      4.604797000000000E-01      9.441406000000000E+01      1.575317000000000E-01     -4.611524000000000E+01      1.627350000000000E-01      8.564062000000000E+01      2.683563000000000E-01      6.855859000000000E+01
4813000000.000000      4.596405000000000E-01      9.480078000000000E+01      1.573410000000000E-01     -4.436328000000000E+01      1.623611000000000E-01      8.732422000000000E+01      2.697144000000000E-01      6.795312000000000E+01
4814000000.000000      4.595642000000000E-01      9.500391000000000E+01      1.566620000000000E-01     -4.247266000000000E+01      1.622009000000000E-01      8.897264000000000E+01      2.680664000000000E-01      6.707031000000000E+01
4815000000.000000      4.594421000000000E-01      9.544140000000000E+01      1.564941000000000E-01     -4.080274000000000E+01      1.619720000000000E-01      9.051952000000000E+01      2.734375000000000E-01      6.616015000000000E+01
4816000000.000000      4.603119000000000E-01      9.572657000000000E+01      1.569290000000000E-01     -3.901758000000000E+01      1.627808000000000E-01      9.229296000000000E+01      2.723694000000000E-01      6.466797000000000E+01
4817000000.000000      4.584503000000000E-01      9.616014000000000E+01      1.575394000000000E-01     -3.721875000000000E+01      1.632004000000000E-01      9.388281000000000E+01      2.730713000000000E-01      6.465625000000000E+01
4818000000.000000      4.579773000000000E-01      9.642578000000000E+01      1.586533000000000E-01     -3.560937000000000E+01      1.639633000000000E-01      9.554296000000000E+01      2.726288000000000E-01      6.373437000000000E+01
4819000000.000000      4.577026000000000E-01      9.678905000000000E+01      1.598511000000000E-01     -3.386133000000000E+01      1.655045000000000E-01      9.701561000000000E+01      2.712250000000000E-01      6.260156000000000E+01
4820000000.000000      4.549103000000000E-01      9.723827000000000E+01      1.609344000000000E-01     -3.208203000000000E+01      1.670227000000000E-01      9.858202000000000E+01      2.715302000000000E-01      6.183594000000000E+01
4821000000.000000      4.557495000000000E-01      9.745312000000000E+01      1.624603000000000E-01     -3.061914000000000E+01      1.684113000000000E-01      1.000781000000000E+02      2.726135000000000E-01      6.094140000000000E+01
4822000000.000000      4.530487000000000E-01      9.783983000000000E+01      1.647568000000000E-01     -2.925293000000000E+01      1.701050000000000E-01      1.014805000000000E+02      2.726593000000000E-01      5.962500000000000E+01
4823000000.000000      4.511566000000000E-01      9.835155000000000E+01      1.671982000000000E-01     -2.777637000000000E+01      1.723862000000000E-01      1.030469000000000E+02      2.710571000000000E-01      5.860156000000000E+01
4824000000.000000      4.488220000000000E-01      9.871483000000000E+01      1.694489000000000E-01     -2.638672000000000E+01      1.749268000000000E-01      1.041953000000000E+02      2.694397000000000E-01      5.756054000000000E+01
4825000000.000000      4.467926000000000E-01      9.912498000000000E+01      1.726837000000000E-01     -2.492676000000000E+01      1.780701000000000E-01      1.055742000000000E+02      2.713928000000000E-01      5.640625000000000E+01
4826000000.000000      4.443054000000000E-01      9.946484000000000E+01      1.753311000000000E-01     -2.358301000000000E+01      1.805191000000000E-01      1.067773000000000E+02      2.689362000000000E-01      5.559570000000000E+01
4827000000.000000      4.417114000000000E-01      9.978125000000000E+01      1.782455000000000E-01     -2.231738000000000E+01      1.832809000000000E-01      1.078594000000000E+02      2.686157000000000E-01      5.433007000000000E+01
4828000000.000000      4.391785000000000E-01      1.002500000000000E+02      1.816559000000000E-01     -2.132617000000000E+01      1.867828000000000E-01      1.089726000000000E+02      2.679138000000000E-01      5.312500000000000E+01
4829000000.000000      4.350433000000000E-01      1.007773000000000E+02      1.846542000000000E-01     -2.017969000000000E+01      1.904602000000000E-01      1.100664000000000E+02      2.681427000000000E-01      5.225195000000000E+01
4830000000.000000      4.325104000000000E-01      1.010352000000000E+02      1.886520000000000E-01     -1.915625000000000E+01      1.938553000000000E-01      1.110586000000000E+02      2.654724000000000E-01      5.108398000000000E+01
4831000000.000000      4.282532000000000E-01      1.015469000000000E+02      1.923447000000000E-01     -1.832520000000000E+01      1.975555000000000E-01      1.120469000000000E+02      2.642059000000000E-01      5.010156000000000E+01
4832000000.000000      4.253082000000000E-01      1.019219000000000E+02      1.964188000000000E-01     -1.733789000000000E+01      2.012405000000000E-01      1.127930000000000E+02      2.621307000000000E-01      4.943164000000000E+01
4833000000.000000      4.208069000000000E-01      1.022656000000000E+02      2.001724000000000E-01     -1.665430000000000E+01      2.052383000000000E-01      1.135664000000000E+02      2.600708000000000E-01      4.814062000000000E+01
4834000000.000000      4.171600000000000E-01      1.027031000000000E+02      2.040710000000000E-01     -1.590820000000000E+01      2.088852000000000E-01      1.142891000000000E+02      2.595978000000000E-01      4.693555000000000E+01
4835000000.000000      4.131470000000000E-01      1.031719000000000E+02      2.084961000000000E-01     -1.512549000000000E+01      2.133636000000000E-01      1.149141000000000E+02      2.581024000000000E-01      4.576953000000000E+01
4836000000.000000      4.092102000000000E-01      1.036133000000000E+02      2.123871000000000E-01     -1.468750000000000E+01      2.173996000000000E-01      1.157969000000000E+02      2.560883000000000E-01      4.463086000000000E+01
4837000000.000000      4.036407000000000E-01      1.041406000000000E+02      2.166901000000000E-01     -1.420703000000000E+01      2.215500000000000E-01      1.161016000000000E+02      2.554016000000000E-01      4.380664000000000E+01
4838000000.000000      3.983154000000000E-01      1.045391000000000E+02      2.215729000000000E-01     -1.342676000000000E+01      2.257462000000000E-01      1.167773000000000E+02      2.526398000000000E-01      4.230664000000000E+01
4839000000.000000      3.952942000000000E-01      1.049687000000000E+02      2.262573000000000E-01     -1.306445000000000E+01      2.306290000000000E-01      1.172812000000000E+02      2.509003000000000E-01      4.106054000000000E+01
4840000000.000000      3.896942000000000E-01      1.054102000000000E+02      2.310715000000000E-01     -1.243555000000000E+01      2.351532000000000E-01      1.177422000000000E+02      2.481155000000000E-01      3.991406000000000E+01
4841000000.000000      3.849487000000000E-01      1.057969000000000E+02      2.352676000000000E-01     -1.234473000000000E+01      2.397766000000000E-01      1.181250000000000E+02      2.471924000000000E-01      3.895703000000000E+01
4842000000.000000      3.790741000000000E-01      1.062656000000000E+02      2.400436000000000E-01     -1.194775000000000E+01      2.437897000000000E-01      1.186094000000000E+02      2.455063000000000E-01      3.774219000000000E+01
4843000000.000000      3.740692000000000E-01      1.065625000000000E+02      2.452621000000000E-01     -1.169531000000000E+01      2.492447000000000E-01      1.189023000000000E+02      2.425156000000000E-01      3.654297000000000E+01
4844000000.000000      3.684387000000000E-01      1.071641000000000E+02      2.497177000000000E-01     -1.140967000000000E+01      2.531891000000000E-01      1.191680000000000E+02      2.398834000000000E-01      3.565430000000000E+01
4845000000.000000      3.620453000000000E-01      1.076133000000000E+02      2.545776000000000E-01     -1.118994000000000E+01      2.580261000000000E-01      1.194531000000000E+02      2.373199000000000E-01      3.440625000000000E+01
4846000000.000000      3.566132000000000E-01      1.081250000000000E+02      2.599640000000000E-01     -1.100049000000000E+01      2.635956000000000E-01      1.198086000000000E+02      2.358856000000000E-01      3.336719000000000E+01
4847000000.000000      3.507996000000000E-01      1.086328000000000E+02      2.642212000000000E-01     -1.102637000000000E+01      2.678986000000000E-01      1.200156000000000E+02      2.329407000000000E-01      3.203125000000000E+01
4848000000.000000      3.443298000000000E-01      1.089726000000000E+02      2.686462000000000E-01     -1.098926000000000E+01      2.728271000000000E-01      1.201367000000000E+02      2.305679000000000E-01      3.073144000000000E+01
4849000000.000000      3.384399000000000E-01      1.094765000000000E+02      2.742615000000000E-01     -1.092188000000000E+01      2.777557000000000E-01      1.202734000000000E+02      2.280426000000000E-01      2.950976000000000E+01
4850000000.000000      3.314819000000000E-01      1.099414000000000E+02      2.790222000000000E-01     -1.094824000000000E+01      2.826080000000000E-01      1.206484000000000E+02      2.260666000000000E-01      2.847754000000000E+01
4851000000.000000      3.250885000000000E-01      1.104883000000000E+02      2.847595000000000E-01     -1.076563000000000E+01      2.875366000000000E-01      1.206953000000000E+02      2.240295000000000E-01      2.754492000000000E+01
4852000000.000000      3.188324000000000E-01      1.109141000000000E+02      2.892914000000000E-01     -1.087793000000000E+01      2.925568000000000E-01      1.207500000000000E+02      2.216644000000000E-01      2.626465000000000E+01
4853000000.000000      3.128662000000000E-01      1.115195000000000E+02      2.938843000000000E-01     -1.088623000000000E+01      2.976685000000000E-01      1.208711000000000E+02      2.190704000000000E-01      2.475586000000000E+01
4854000000.000000      3.052216000000000E-01      1.119727000000000E+02      2.992401000000000E-01     -1.123242000000000E+01      3.030396000000000E-01      1.209766000000000E+02      2.167053000000000E-01      2.378320000000000E+01
4855000000.000000      2.989807000000000E-01      1.124180000000000E+02      3.040771000000000E-01     -1.115967000000000E+01      3.072357000000000E-01      1.211445000000000E+02      2.124023000000000E-01      2.271191000000000E+01
4856000000.000000      2.920380000000000E-01      1.128945000000000E+02      3.088531000000000E-01     -1.125586000000000E+01      3.122711000000000E-01      1.211250000000000E+02      2.115631000000000E-01      2.147363000000000E+01
4857000000.000000      2.848816000000000E-01      1.134805000000000E+02      3.148193000000000E-01     -1.133936000000000E+01      3.174591000000000E-01      1.210781000000000E+02      2.080765000000000E-01      2.033398000000000E+01
4858000000.000000      2.773590000000000E-01      1.137969000000000E+02      3.193970000000000E-01     -1.150293000000000E+01      3.226471000000000E-01      1.211055000000000E+02      2.054138000000000E-01      1.910352000000000E+01
4859000000.000000      2.708282000000000E-01      1.142969000000000E+02      3.249054000000000E-01     -1.174072000000000E+01      3.273773000000000E-01      1.212266000000000E+02      2.034760000000000E-01      1.785058000000000E+01
4860000000.000000      2.639771000000000E-01      1.149687000000000E+02      3.290405000000000E-01     -1.180518000000000E+01      3.321991000000000E-01      1.210469000000000E+02      2.004166000000000E-01      1.675879000000000E+01
4861000000.000000      2.557831000000000E-01      1.155039000000000E+02      3.337250000000000E-01     -1.211670000000000E+01      3.377380000000000E-01      1.211094000000000E+02      1.965561000000000E-01      1.568701000000000E+01
4862000000.000000      2.485275000000000E-01      1.160469000000000E+02      3.395538000000000E-01     -1.237500000000000E+01      3.432159000000000E-01      1.210547000000000E+02      1.956024000000000E-01      1.449609000000000E+01
4863000000.000000      2.412949000000000E-01      1.164570000000000E+02      3.426514000000000E-01     -1.264844000000000E+01      3.479309000000000E-01      1.210469000000000E+02      1.927567000000000E-01      1.355420000000000E+01
4864000000.000000      2.338333000000000E-01      1.170586000000000E+02      3.488617000000000E-01     -1.281836000000000E+01      3.519592000000000E-01      1.209297000000000E+02      1.901245000000000E-01      1.216553000000000E+01
4865000000.000000      2.266541000000000E-01      1.175000000000000E+02      3.533936000000000E-01     -1.309033000000000E+01      3.574524000000000E-01      1.208594000000000E+02      1.884766000000000E-01      1.089258000000000E+01
4866000000.000000      2.185059000000000E-01      1.179844000000000E+02      3.575287000000000E-01     -1.332666000000000E+01      3.631134000000000E-01      1.206289000000000E+02      1.857986000000000E-01      9.868164000000000E+00
4867000000.000000      2.111435000000000E-01      1.187773000000000E+02      3.634491000000000E-01     -1.379492000000000E+01      3.665314000000000E-01      1.207305000000000E+02      1.824188000000000E-01      8.713379000000000E+00
4868000000.000000      2.044601000000000E-01      1.192930000000000E+02      3.675995000000000E-01     -1.411084000000000E+01      3.731537000000000E-01      1.205351000000000E+02      1.795425000000000E-01      7.746582000000000E+00
4869000000.000000      1.958313000000000E-01      1.199297000000000E+02      3.718872000000000E-01     -1.434814000000000E+01      3.777466000000000E-01      1.203984000000000E+02      1.767807000000000E-01      6.472168000000000E+00
4870000000.000000      1.886597000000000E-01      1.205195000000000E+02      3.772583000000000E-01     -1.446924000000000E+01      3.826599000000000E-01      1.202461000000000E+02      1.749725000000000E-01      5.471191000000000E+00
4871000000.000000      1.812820000000000E-01      1.211680000000000E+02      3.808746000000000E-01     -1.492236000000000E+01      3.875885000000000E-01      1.201172000000000E+02      1.719894000000000E-01      4.273682000000000E+00
4872000000.000000      1.738205000000000E-01      1.218672000000000E+02      3.862000000000000E-01     -1.501465000000000E+01      3.925171000000000E-01      1.197266000000000E+02      1.696854000000000E-01      3.328857000000000E+00
4873000000.000000      1.660385000000000E-01      1.226211000000000E+02      3.911133000000000E-01     -1.554590000000000E+01      3.969421000000000E-01      1.197070000000000E+02      1.667404000000000E-01      2.065430000000000E+00
4874000000.000000      1.584473000000000E-01      1.233008000000000E+02      3.953705000000000E-01     -1.601269000000000E+01      4.027405000000000E-01      1.194844000000000E+02      1.648407000000000E-01      9.901428000000000E-01
4875000000.000000      1.512146000000000E-01      1.242734000000000E+02      4.001007000000000E-01     -1.634082000000000E+01      4.071960000000000E-01      1.193711000000000E+02      1.609802000000000E-01      1.249695000000000E-01
4876000000.000000      1.439285000000000E-01      1.249609000000000E+02      4.042969000000000E-01     -1.670117000000000E+01      4.127502000000000E-01      1.192109000000000E+02      1.592407000000000E-01     -1.153564000000000E+00
4877000000.000000      1.360550000000000E-01      1.258242000000000E+02      4.083710000000000E-01     -1.710351000000000E+01      4.174347000000000E-01      1.188555000000000E+02      1.560364000000000E-01     -1.761963000000000E+00
4878000000.000000      1.292496000000000E-01      1.269883000000000E+02      4.130249000000000E-01     -1.744141000000000E+01      4.221954000000000E-01      1.188320000000000E+02      1.533890000000000E-01     -3.102295000000000E+00
4879000000.000000      1.220169000000000E-01      1.279492000000000E+02      4.170227000000000E-01     -1.777246000000000E+01      4.283905000000000E-01      1.184687000000000E+02      1.513977000000000E-01     -4.140625000000000E+00
4880000000.000000      1.142921000000000E-01      1.288828000000000E+02      4.219055000000000E-01     -1.835156000000000E+01      4.319611000000000E-01      1.182109000000000E+02      1.482468000000000E-01     -5.222656000000000E+00
4881000000.000000      1.080971000000000E-01      1.306406000000000E+02      4.268646000000000E-01     -1.862793000000000E+01      4.376831000000000E-01      1.180859000000000E+02      1.456299000000000E-01     -5.907959000000000E+00
4882000000.000000      1.009674000000000E-01      1.314219000000000E+02      4.306488000000000E-01     -1.902734000000000E+01      4.426575000000000E-01      1.178164000000000E+02      1.431580000000000E-01     -6.667480000000000E+00
