! Network Analyzer HP8722D
! Hewlett-Packard
! Data name: Linha & Wilkinson
! Saver's name: Rodrigo Anjos
! Comments: Teste da utilização de aquisição
continua pelo VNA HP8722D
! Time and date: 25/4/2025 16:38
!              Frequency                     S11                                                   S21                                                   S12                                                   S22
# HZ  S  MA R 50
4800000000.000000      4.347839000000000E-01      9.094141000000000E+01      1.852264000000000E-01     -6.363086000000000E+01      1.904144000000000E-01      6.974999000000000E+01      2.480545000000000E-01      7.755859000000000E+01
4801000000.000000      4.381561000000000E-01      9.108593000000000E+01      1.819000000000000E-01     -6.256445000000000E+01      1.868973000000000E-01      7.055078000000000E+01      2.527618000000000E-01      7.621875000000000E+01
4802000000.000000      4.415283000000000E-01      9.134766000000000E+01      1.777802000000000E-01     -6.134766000000000E+01      1.836929000000000E-01      7.160546000000000E+01      2.582550000000000E-01      7.545312000000000E+01
4803000000.000000      4.434509000000000E-01      9.157421000000000E+01      1.752090000000000E-01     -6.018359000000000E+01      1.802521000000000E-01      7.278125000000000E+01      2.561188000000000E-01      7.480859000000000E+01
4804000000.000000      4.464417000000000E-01      9.196484000000000E+01      1.720505000000000E-01     -5.884179000000000E+01      1.774826000000000E-01      7.383203000000000E+01      2.566528000000000E-01      7.486328000000000E+01
4805000000.000000      4.498138000000000E-01      9.208593000000000E+01      1.693039000000000E-01     -5.758398000000000E+01      1.745911000000000E-01      7.518359000000000E+01      2.616882000000000E-01      7.353125000000000E+01
4806000000.000000      4.509125000000000E-01      9.243750000000000E+01      1.668549000000000E-01     -5.591406000000000E+01      1.720886000000000E-01      7.655078000000000E+01      2.617493000000000E-01      7.348046000000000E+01
4807000000.000000      4.534607000000000E-01      9.271484000000000E+01      1.649551000000000E-01     -5.460938000000000E+01      1.699142000000000E-01      7.763672000000000E+01      2.637177000000000E-01      7.229297000000000E+01
4808000000.000000      4.544373000000000E-01      9.305079000000000E+01      1.630936000000000E-01     -5.293945000000000E+01      1.678619000000000E-01      7.928905000000000E+01      2.638092000000000E-01      7.141015000000000E+01
4809000000.000000      4.556274000000000E-01      9.341406000000000E+01      1.607056000000000E-01     -5.168554000000000E+01      1.664352000000000E-01      8.069530000000000E+01      2.687531000000000E-01      7.089453000000000E+01
4810000000.000000      4.571228000000000E-01      9.370703000000000E+01      1.602631000000000E-01     -4.965038000000000E+01      1.646042000000000E-01      8.225389000000000E+01      2.647705000000000E-01      7.018359000000000E+01
4811000000.000000      4.577179000000000E-01      9.398046000000000E+01      1.585617000000000E-01     -4.810937000000000E+01      1.640320000000000E-01      8.385157000000000E+01      2.680969000000000E-01      6.957812000000000E+01
4812000000.000000      4.594879000000000E-01      9.433203000000000E+01      1.575775000000000E-01     -4.623242000000000E+01      1.632614000000000E-01      8.538671000000000E+01      2.691498000000000E-01      6.812109000000000E+01
4813000000.000000      4.593048000000000E-01      9.473436000000000E+01      1.573563000000000E-01     -4.454102000000000E+01      1.624451000000000E-01      8.725000000000000E+01      2.706909000000000E-01      6.814062000000000E+01
4814000000.000000      4.585114000000000E-01      9.505077000000000E+01      1.567612000000000E-01     -4.264062000000000E+01      1.622314000000000E-01      8.877344000000000E+01      2.713776000000000E-01      6.698828000000000E+01
4815000000.000000      4.584656000000000E-01      9.539454000000000E+01      1.566086000000000E-01     -4.087891000000000E+01      1.618118000000000E-01      9.035156000000000E+01      2.726440000000000E-01      6.604297000000000E+01
4816000000.000000      4.594269000000000E-01      9.569530000000000E+01      1.576233000000000E-01     -3.904687000000000E+01      1.629715000000000E-01      9.215624000000000E+01      2.724152000000000E-01      6.532421000000000E+01
4817000000.000000      4.584961000000000E-01      9.603125000000000E+01      1.577988000000000E-01     -3.756250000000000E+01      1.629105000000000E-01      9.365625000000000E+01      2.718353000000000E-01      6.474999000000000E+01
4818000000.000000      4.581909000000000E-01      9.642187000000000E+01      1.587601000000000E-01     -3.573437000000000E+01      1.637955000000000E-01      9.529688000000000E+01      2.729950000000000E-01      6.377343000000000E+01
4819000000.000000      4.571686000000000E-01      9.676561000000000E+01      1.598740000000000E-01     -3.417969000000000E+01      1.651306000000000E-01      9.692186000000000E+01      2.707977000000000E-01      6.245312000000000E+01
4820000000.000000      4.543610000000000E-01      9.718359000000000E+01      1.612549000000000E-01     -3.242773000000000E+01      1.667404000000000E-01      9.835938000000000E+01      2.719879000000000E-01      6.206640000000000E+01
4821000000.000000      4.544830000000000E-01      9.754295000000000E+01      1.631546000000000E-01     -3.082129000000000E+01      1.681824000000000E-01      9.988281000000000E+01      2.711639000000000E-01      6.082421000000000E+01
4822000000.000000      4.517975000000000E-01      9.782030000000000E+01      1.649399000000000E-01     -2.928223000000000E+01      1.702881000000000E-01      1.013008000000000E+02      2.724762000000000E-01      5.983788000000000E+01
4823000000.000000      4.503326000000000E-01      9.826561000000000E+01      1.674042000000000E-01     -2.774121000000000E+01      1.722107000000000E-01      1.028477000000000E+02      2.698364000000000E-01      5.879492000000000E+01
4824000000.000000      4.491577000000000E-01      9.856249000000000E+01      1.694489000000000E-01     -2.643457000000000E+01      1.751404000000000E-01      1.040859000000000E+02      2.700653000000000E-01      5.739648000000000E+01
4825000000.000000      4.458618000000000E-01      9.896873000000000E+01      1.723480000000000E-01     -2.494922000000000E+01      1.778793000000000E-01      1.054531000000000E+02      2.702026000000000E-01      5.685741000000000E+01
4826000000.000000      4.444122000000000E-01      9.944139000000000E+01      1.754761000000000E-01     -2.386230000000000E+01      1.800079000000000E-01      1.066406000000000E+02      2.697449000000000E-01      5.545898000000000E+01
4827000000.000000      4.416199000000000E-01      9.975389000000000E+01      1.785431000000000E-01     -2.253320000000000E+01      1.832428000000000E-01      1.077422000000000E+02      2.680664000000000E-01      5.458008000000000E+01
4828000000.000000      4.388885000000000E-01      1.001328000000000E+02      1.815109000000000E-01     -2.142676000000000E+01      1.867065000000000E-01      1.088750000000000E+02      2.682495000000000E-01      5.320507000000000E+01
4829000000.000000      4.349823000000000E-01      1.006562000000000E+02      1.844330000000000E-01     -2.020020000000000E+01      1.904831000000000E-01      1.099648000000000E+02      2.673492000000000E-01      5.232031000000000E+01
4830000000.000000      4.321136000000000E-01      1.009609000000000E+02      1.883469000000000E-01     -1.939941000000000E+01      1.933212000000000E-01      1.108984000000000E+02      2.654724000000000E-01      5.146679000000000E+01
4831000000.000000      4.268646000000000E-01      1.014023000000000E+02      1.920242000000000E-01     -1.842187000000000E+01      1.973953000000000E-01      1.118594000000000E+02      2.649078000000000E-01      5.028320000000000E+01
4832000000.000000      4.247131000000000E-01      1.017461000000000E+02      1.958847000000000E-01     -1.740234000000000E+01      2.008209000000000E-01      1.127422000000000E+02      2.628937000000000E-01      4.949219000000000E+01
4833000000.000000      4.203949000000000E-01      1.021641000000000E+02      1.999435000000000E-01     -1.656543000000000E+01      2.046204000000000E-01      1.134727000000000E+02      2.605896000000000E-01      4.840429000000000E+01
4834000000.000000      4.164429000000000E-01      1.025781000000000E+02      2.040787000000000E-01     -1.603125000000000E+01      2.092590000000000E-01      1.142851000000000E+02      2.605133000000000E-01      4.706836000000000E+01
4835000000.000000      4.123077000000000E-01      1.030195000000000E+02      2.082062000000000E-01     -1.538672000000000E+01      2.130203000000000E-01      1.149648000000000E+02      2.582855000000000E-01      4.593359000000000E+01
4836000000.000000      4.087372000000000E-01      1.034531000000000E+02      2.124939000000000E-01     -1.471484000000000E+01      2.169647000000000E-01      1.156016000000000E+02      2.566833000000000E-01      4.499219000000000E+01
4837000000.000000      4.040527000000000E-01      1.040312000000000E+02      2.162018000000000E-01     -1.421924000000000E+01      2.212601000000000E-01      1.162148000000000E+02      2.542725000000000E-01      4.375586000000000E+01
4838000000.000000      3.983459000000000E-01      1.044258000000000E+02      2.211609000000000E-01     -1.352295000000000E+01      2.257004000000000E-01      1.167461000000000E+02      2.513885000000000E-01      4.261132000000000E+01
4839000000.000000      3.945923000000000E-01      1.048516000000000E+02      2.261353000000000E-01     -1.306982000000000E+01      2.304535000000000E-01      1.171992000000000E+02      2.509308000000000E-01      4.108007000000000E+01
4840000000.000000      3.886871000000000E-01      1.052109000000000E+02      2.303925000000000E-01     -1.260547000000000E+01      2.349014000000000E-01      1.176914000000000E+02      2.487106000000000E-01      4.001172000000000E+01
4841000000.000000      3.841705000000000E-01      1.056875000000000E+02      2.353668000000000E-01     -1.229395000000000E+01      2.392426000000000E-01      1.180898000000000E+02      2.474365000000000E-01      3.905078000000000E+01
4842000000.000000      3.779449000000000E-01      1.061719000000000E+02      2.402573000000000E-01     -1.199609000000000E+01      2.437820000000000E-01      1.185390000000000E+02      2.458572000000000E-01      3.791601000000000E+01
4843000000.000000      3.733215000000000E-01      1.065117000000000E+02      2.449799000000000E-01     -1.157959000000000E+01      2.484665000000000E-01      1.188164000000000E+02      2.426376000000000E-01      3.682422000000000E+01
4844000000.000000      3.668365000000000E-01      1.070273000000000E+02      2.499542000000000E-01     -1.146875000000000E+01      2.528992000000000E-01      1.191445000000000E+02      2.393570000000000E-01      3.565430000000000E+01
4845000000.000000      3.613892000000000E-01      1.075273000000000E+02      2.544708000000000E-01     -1.128711000000000E+01      2.578430000000000E-01      1.195000000000000E+02      2.378159000000000E-01      3.444531000000000E+01
4846000000.000000      3.555603000000000E-01      1.079258000000000E+02      2.595520000000000E-01     -1.124072000000000E+01      2.632446000000000E-01      1.197109000000000E+02      2.363663000000000E-01      3.350195000000000E+01
4847000000.000000      3.501740000000000E-01      1.085390000000000E+02      2.647095000000000E-01     -1.101563000000000E+01      2.679596000000000E-01      1.198398000000000E+02      2.325439000000000E-01      3.219336000000000E+01
4848000000.000000      3.439941000000000E-01      1.088789000000000E+02      2.690582000000000E-01     -1.084229000000000E+01      2.728271000000000E-01      1.201484000000000E+02      2.306442000000000E-01      3.074707000000000E+01
4849000000.000000      3.377838000000000E-01      1.093008000000000E+02      2.743683000000000E-01     -1.093164000000000E+01      2.774811000000000E-01      1.203555000000000E+02      2.286758000000000E-01      2.994531000000000E+01
4850000000.000000      3.310394000000000E-01      1.098047000000000E+02      2.788239000000000E-01     -1.089844000000000E+01      2.821350000000000E-01      1.205078000000000E+02      2.254868000000000E-01      2.871484000000000E+01
4851000000.000000      3.251953000000000E-01      1.104297000000000E+02      2.844696000000000E-01     -1.082568000000000E+01      2.867126000000000E-01      1.206562000000000E+02      2.235794000000000E-01      2.733203000000000E+01
4852000000.000000      3.182373000000000E-01      1.108594000000000E+02      2.887726000000000E-01     -1.085742000000000E+01      2.918701000000000E-01      1.209180000000000E+02      2.216339000000000E-01      2.631348000000000E+01
4853000000.000000      3.117065000000000E-01      1.113359000000000E+02      2.940521000000000E-01     -1.100049000000000E+01      2.975616000000000E-01      1.209414000000000E+02      2.177887000000000E-01      2.518750000000000E+01
4854000000.000000      3.042450000000000E-01      1.117344000000000E+02      2.988129000000000E-01     -1.109375000000000E+01      3.022614000000000E-01      1.209687000000000E+02      2.171707000000000E-01      2.383399000000000E+01
4855000000.000000      2.984619000000000E-01      1.123125000000000E+02      3.041534000000000E-01     -1.106738000000000E+01      3.071136000000000E-01      1.211094000000000E+02      2.129974000000000E-01      2.285937000000000E+01
4856000000.000000      2.915192000000000E-01      1.128516000000000E+02      3.090668000000000E-01     -1.114990000000000E+01      3.120270000000000E-01      1.211875000000000E+02      2.113190000000000E-01      2.165527000000000E+01
4857000000.000000      2.844238000000000E-01      1.133398000000000E+02      3.144836000000000E-01     -1.123096000000000E+01      3.173370000000000E-01      1.211797000000000E+02      2.074127000000000E-01      2.038476000000000E+01
4858000000.000000      2.768250000000000E-01      1.136484000000000E+02      3.190308000000000E-01     -1.143555000000000E+01      3.220367000000000E-01      1.212578000000000E+02      2.060165000000000E-01      1.915820000000000E+01
4859000000.000000      2.701111000000000E-01      1.141836000000000E+02      3.243103000000000E-01     -1.174316000000000E+01      3.267365000000000E-01      1.213086000000000E+02      2.031326000000000E-01      1.805859000000000E+01
4860000000.000000      2.634125000000000E-01      1.148398000000000E+02      3.294830000000000E-01     -1.188184000000000E+01      3.316193000000000E-01      1.210586000000000E+02      2.003708000000000E-01      1.698340000000000E+01
4861000000.000000      2.556305000000000E-01      1.153477000000000E+02      3.334961000000000E-01     -1.219482000000000E+01      3.375092000000000E-01      1.213047000000000E+02      1.971741000000000E-01      1.560840000000000E+01
4862000000.000000      2.481384000000000E-01      1.158203000000000E+02      3.397980000000000E-01     -1.235693000000000E+01      3.424072000000000E-01      1.211406000000000E+02      1.948776000000000E-01      1.454980000000000E+01
4863000000.000000      2.406998000000000E-01      1.163203000000000E+02      3.428040000000000E-01     -1.267041000000000E+01      3.473969000000000E-01      1.211562000000000E+02      1.927948000000000E-01      1.346777000000000E+01
4864000000.000000      2.332687000000000E-01      1.168437000000000E+02      3.491669000000000E-01     -1.279785000000000E+01      3.520966000000000E-01      1.210547000000000E+02      1.902008000000000E-01      1.238135000000000E+01
4865000000.000000      2.257385000000000E-01      1.173164000000000E+02      3.532410000000000E-01     -1.310156000000000E+01      3.572845000000000E-01      1.209609000000000E+02      1.882095000000000E-01      1.107666000000000E+01
4866000000.000000      2.177811000000000E-01      1.179180000000000E+02      3.577728000000000E-01     -1.334717000000000E+01      3.623810000000000E-01      1.207265000000000E+02      1.854706000000000E-01      9.903809000000000E+00
4867000000.000000      2.100296000000000E-01      1.186367000000000E+02      3.629761000000000E-01     -1.384277000000000E+01      3.667755000000000E-01      1.207344000000000E+02      1.828690000000000E-01      8.846680000000000E+00
4868000000.000000      2.032776000000000E-01      1.191055000000000E+02      3.664551000000000E-01     -1.391309000000000E+01      3.732147000000000E-01      1.205156000000000E+02      1.797409000000000E-01      7.709473000000000E+00
4869000000.000000      1.952667000000000E-01      1.198711000000000E+02      3.716736000000000E-01     -1.428125000000000E+01      3.774872000000000E-01      1.204453000000000E+02      1.769638000000000E-01      6.465332000000000E+00
4870000000.000000      1.877136000000000E-01      1.203398000000000E+02      3.776855000000000E-01     -1.453125000000000E+01      3.831940000000000E-01      1.202734000000000E+02      1.746597000000000E-01      5.527344000000000E+00
4871000000.000000      1.804810000000000E-01      1.209805000000000E+02      3.819275000000000E-01     -1.494434000000000E+01      3.873444000000000E-01      1.201172000000000E+02      1.718979000000000E-01      4.383545000000000E+00
4872000000.000000      1.732559000000000E-01      1.215977000000000E+02      3.863831000000000E-01     -1.520508000000000E+01      3.928070000000000E-01      1.198555000000000E+02      1.699295000000000E-01      3.456543000000000E+00
4873000000.000000      1.653290000000000E-01      1.224492000000000E+02      3.909760000000000E-01     -1.551270000000000E+01      3.969574000000000E-01      1.197890000000000E+02      1.666489000000000E-01      2.276855000000000E+00
4874000000.000000      1.575317000000000E-01      1.231602000000000E+02      3.948822000000000E-01     -1.603320000000000E+01      4.030151000000000E-01      1.195508000000000E+02      1.646576000000000E-01      1.215332000000000E+00
4875000000.000000      1.503372000000000E-01      1.241211000000000E+02      3.993835000000000E-01     -1.629590000000000E+01      4.081116000000000E-01      1.194141000000000E+02      1.610184000000000E-01      1.167297000000000E-01
4876000000.000000      1.432495000000000E-01      1.247305000000000E+02      4.050293000000000E-01     -1.675195000000000E+01      4.130402000000000E-01      1.192305000000000E+02      1.587296000000000E-01     -9.860229000000000E-01
4877000000.000000      1.348343000000000E-01      1.255859000000000E+02      4.088745000000000E-01     -1.700488000000000E+01      4.182434000000000E-01      1.189063000000000E+02      1.566315000000000E-01     -1.895142000000000E+00
4878000000.000000      1.282806000000000E-01      1.268711000000000E+02      4.137726000000000E-01     -1.745508000000000E+01      4.216766000000000E-01      1.187109000000000E+02      1.541595000000000E-01     -3.106445000000000E+00
4879000000.000000      1.211548000000000E-01      1.278555000000000E+02      4.170837000000000E-01     -1.783496000000000E+01      4.270630000000000E-01      1.184531000000000E+02      1.514130000000000E-01     -4.169434000000000E+00
4880000000.000000      1.134949000000000E-01      1.287266000000000E+02      4.224243000000000E-01     -1.824902000000000E+01      4.318390000000000E-01      1.183047000000000E+02      1.482697000000000E-01     -5.012695000000000E+00
4881000000.000000      1.068611000000000E-01      1.304688000000000E+02      4.263763000000000E-01     -1.852051000000000E+01      4.373627000000000E-01      1.180000000000000E+02      1.456985000000000E-01     -5.877686000000000E+00
4882000000.000000      9.957886000000000E-02      1.316172000000000E+02      4.306946000000000E-01     -1.909765000000000E+01      4.422302000000000E-01      1.178633000000000E+02      1.431808000000000E-01     -6.884521000000000E+00
