! Network Analyzer HP8722D
! Hewlett-Packard
! Data name: Linha & Wilkinson
! Saver's name: Rodrigo Anjos
! Comments: Teste da utilização de aquisição
continua pelo VNA HP8722D
! Time and date: 25/4/2025 16:20
!              Frequency                     S11                                                   S21                                                   S12                                                   S22
# HZ  S  MA R 50
4800000000.000000      4.348602000000000E-01      9.073828000000000E+01      1.860580000000000E-01     -6.382617000000000E+01      1.908722000000000E-01      6.949609000000000E+01      2.502747000000000E-01      7.705859000000000E+01
4801000000.000000      4.374542000000000E-01      9.108202000000000E+01      1.818008000000000E-01     -6.282812000000000E+01      1.875381000000000E-01      7.042578000000000E+01      2.528839000000000E-01      7.639453000000000E+01
4802000000.000000      4.407349000000000E-01      9.119141000000000E+01      1.783676000000000E-01     -6.141992000000000E+01      1.842499000000000E-01      7.144921000000000E+01      2.565002000000000E-01      7.582031000000000E+01
4803000000.000000      4.430542000000000E-01      9.150000000000000E+01      1.755981000000000E-01     -6.033593000000000E+01      1.805954000000000E-01      7.264843000000000E+01      2.579041000000000E-01      7.519140000000000E+01
4804000000.000000      4.462891000000000E-01      9.181250000000000E+01      1.728592000000000E-01     -5.892578000000000E+01      1.778564000000000E-01      7.368750000000000E+01      2.570953000000000E-01      7.453906000000000E+01
4805000000.000000      4.497528000000000E-01      9.212891000000000E+01      1.696243000000000E-01     -5.766211000000000E+01      1.750565000000000E-01      7.489452000000000E+01      2.593994000000000E-01      7.421093000000000E+01
4806000000.000000      4.504089000000000E-01      9.232422000000000E+01      1.672668000000000E-01     -5.624609000000000E+01      1.722336000000000E-01      7.630859000000000E+01      2.604828000000000E-01      7.382030000000000E+01
4807000000.000000      4.532471000000000E-01      9.262499000000000E+01      1.652832000000000E-01     -5.478516000000000E+01      1.700058000000000E-01      7.759766000000000E+01      2.622681000000000E-01      7.251562000000000E+01
4808000000.000000      4.541168000000000E-01      9.289454000000000E+01      1.635895000000000E-01     -5.308594000000000E+01      1.681061000000000E-01      7.914453000000000E+01      2.651215000000000E-01      7.160546000000000E+01
4809000000.000000      4.550476000000000E-01      9.348047000000000E+01      1.613846000000000E-01     -5.162695000000000E+01      1.668167000000000E-01      8.051561000000000E+01      2.655640000000000E-01      7.129687000000000E+01
4810000000.000000      4.565430000000000E-01      9.363281000000000E+01      1.599045000000000E-01     -4.979297000000000E+01      1.648254000000000E-01      8.210155000000000E+01      2.668762000000000E-01      7.017968000000000E+01
4811000000.000000      4.574280000000000E-01      9.394922000000000E+01      1.588974000000000E-01     -4.799024000000000E+01      1.643600000000000E-01      8.374218000000000E+01      2.674561000000000E-01      6.978516000000000E+01
4812000000.000000      4.589996000000000E-01      9.428125000000000E+01      1.576920000000000E-01     -4.647265000000000E+01      1.633072000000000E-01      8.518358000000000E+01      2.676849000000000E-01      6.853516000000000E+01
4813000000.000000      4.595337000000000E-01      9.454687000000000E+01      1.570435000000000E-01     -4.476563000000000E+01      1.627960000000000E-01      8.701172000000000E+01      2.701416000000000E-01      6.796484000000000E+01
4814000000.000000      4.583588000000000E-01      9.485937000000000E+01      1.571045000000000E-01     -4.289063000000000E+01      1.622849000000000E-01      8.853125000000000E+01      2.694855000000000E-01      6.728125000000000E+01
4815000000.000000      4.585724000000000E-01      9.526562000000000E+01      1.567154000000000E-01     -4.118164000000000E+01      1.622391000000000E-01      9.019531000000000E+01      2.702484000000000E-01      6.640234000000000E+01
4816000000.000000      4.588928000000000E-01      9.564844000000000E+01      1.575623000000000E-01     -3.932031000000000E+01      1.630936000000000E-01      9.194530000000000E+01      2.711029000000000E-01      6.501562000000000E+01
4817000000.000000      4.579773000000000E-01      9.600000000000000E+01      1.577530000000000E-01     -3.783984000000000E+01      1.629944000000000E-01      9.356640000000000E+01      2.718201000000000E-01      6.459765000000000E+01
4818000000.000000      4.570618000000000E-01      9.630859000000000E+01      1.581879000000000E-01     -3.582226000000000E+01      1.642456000000000E-01      9.521875000000000E+01      2.731171000000000E-01      6.383984000000000E+01
4819000000.000000      4.569855000000000E-01      9.669140000000000E+01      1.600189000000000E-01     -3.418750000000000E+01      1.653519000000000E-01      9.674217000000000E+01      2.715454000000000E-01      6.310741000000000E+01
4820000000.000000      4.541473000000000E-01      9.699999000000000E+01      1.612549000000000E-01     -3.255859000000000E+01      1.667480000000000E-01      9.834764000000000E+01      2.719269000000000E-01      6.184179000000000E+01
4821000000.000000      4.536743000000000E-01      9.736717000000000E+01      1.631622000000000E-01     -3.101758000000000E+01      1.681671000000000E-01      9.977343000000000E+01      2.716675000000000E-01      6.095117000000000E+01
4822000000.000000      4.520111000000000E-01      9.765234000000000E+01      1.646805000000000E-01     -2.937207000000000E+01      1.701889000000000E-01      1.012031000000000E+02      2.711029000000000E-01      5.957421000000000E+01
4823000000.000000      4.501343000000000E-01      9.812889000000000E+01      1.675262000000000E-01     -2.789355000000000E+01      1.722412000000000E-01      1.028633000000000E+02      2.705994000000000E-01      5.882030000000000E+01
4824000000.000000      4.485168000000000E-01      9.848827000000000E+01      1.697388000000000E-01     -2.641602000000000E+01      1.746292000000000E-01      1.039766000000000E+02      2.686768000000000E-01      5.758398000000000E+01
4825000000.000000      4.453583000000000E-01      9.889061000000000E+01      1.722794000000000E-01     -2.520605000000000E+01      1.778946000000000E-01      1.052851000000000E+02      2.712250000000000E-01      5.654687000000000E+01
4826000000.000000      4.429474000000000E-01      9.926561000000000E+01      1.751022000000000E-01     -2.384668000000000E+01      1.801071000000000E-01      1.065664000000000E+02      2.689667000000000E-01      5.584179000000000E+01
4827000000.000000      4.412231000000000E-01      9.960938000000000E+01      1.780548000000000E-01     -2.245898000000000E+01      1.831436000000000E-01      1.076211000000000E+02      2.681274000000000E-01      5.444140000000000E+01
4828000000.000000      4.387665000000000E-01      1.000312000000000E+02      1.814651000000000E-01     -2.151953000000000E+01      1.865387000000000E-01      1.086562000000000E+02      2.680817000000000E-01      5.344531000000000E+01
4829000000.000000      4.344788000000000E-01      1.005508000000000E+02      1.847610000000000E-01     -2.029395000000000E+01      1.904221000000000E-01      1.098789000000000E+02      2.665253000000000E-01      5.243554000000000E+01
4830000000.000000      4.312286000000000E-01      1.008828000000000E+02      1.884308000000000E-01     -1.949805000000000E+01      1.935120000000000E-01      1.108594000000000E+02      2.638855000000000E-01      5.147265000000000E+01
4831000000.000000      4.271393000000000E-01      1.013047000000000E+02      1.922455000000000E-01     -1.837109000000000E+01      1.972198000000000E-01      1.117617000000000E+02      2.640533000000000E-01      5.071289000000000E+01
4832000000.000000      4.242859000000000E-01      1.017226000000000E+02      1.961670000000000E-01     -1.753711000000000E+01      2.004929000000000E-01      1.125469000000000E+02      2.623444000000000E-01      4.934179000000000E+01
4833000000.000000      4.196472000000000E-01      1.020391000000000E+02      1.995621000000000E-01     -1.684961000000000E+01      2.050171000000000E-01      1.134687000000000E+02      2.604370000000000E-01      4.860352000000000E+01
4834000000.000000      4.163513000000000E-01      1.024531000000000E+02      2.035522000000000E-01     -1.609961000000000E+01      2.088318000000000E-01      1.140820000000000E+02      2.603607000000000E-01      4.706250000000000E+01
4835000000.000000      4.116211000000000E-01      1.028672000000000E+02      2.083893000000000E-01     -1.532227000000000E+01      2.131424000000000E-01      1.148516000000000E+02      2.579803000000000E-01      4.584374000000000E+01
4836000000.000000      4.078217000000000E-01      1.033633000000000E+02      2.120743000000000E-01     -1.480420000000000E+01      2.169342000000000E-01      1.156953000000000E+02      2.572479000000000E-01      4.474414000000000E+01
4837000000.000000      4.027557000000000E-01      1.039414000000000E+02      2.166748000000000E-01     -1.441406000000000E+01      2.210922000000000E-01      1.161172000000000E+02      2.544250000000000E-01      4.366406000000000E+01
4838000000.000000      3.971863000000000E-01      1.042500000000000E+02      2.216110000000000E-01     -1.361377000000000E+01      2.257004000000000E-01      1.167344000000000E+02      2.527466000000000E-01      4.238671000000000E+01
4839000000.000000      3.943939000000000E-01      1.046797000000000E+02      2.261505000000000E-01     -1.307129000000000E+01      2.302094000000000E-01      1.171992000000000E+02      2.502289000000000E-01      4.112305000000000E+01
4840000000.000000      3.880463000000000E-01      1.051992000000000E+02      2.304459000000000E-01     -1.274707000000000E+01      2.350464000000000E-01      1.177070000000000E+02      2.478943000000000E-01      4.007226000000000E+01
4841000000.000000      3.834991000000000E-01      1.055625000000000E+02      2.358017000000000E-01     -1.234326000000000E+01      2.391434000000000E-01      1.180273000000000E+02      2.471542000000000E-01      3.915625000000000E+01
4842000000.000000      3.775940000000000E-01      1.060938000000000E+02      2.403030000000000E-01     -1.205908000000000E+01      2.436523000000000E-01      1.186133000000000E+02      2.456055000000000E-01      3.798242000000000E+01
4843000000.000000      3.725128000000000E-01      1.063398000000000E+02      2.450256000000000E-01     -1.193262000000000E+01      2.487640000000000E-01      1.188711000000000E+02      2.439651000000000E-01      3.663476000000000E+01
4844000000.000000      3.670349000000000E-01      1.069219000000000E+02      2.494965000000000E-01     -1.158252000000000E+01      2.527618000000000E-01      1.191758000000000E+02      2.405167000000000E-01      3.568945000000000E+01
4845000000.000000      3.605957000000000E-01      1.074570000000000E+02      2.543945000000000E-01     -1.138477000000000E+01      2.577515000000000E-01      1.194805000000000E+02      2.389069000000000E-01      3.442383000000000E+01
4846000000.000000      3.549652000000000E-01      1.078633000000000E+02      2.598724000000000E-01     -1.118311000000000E+01      2.630920000000000E-01      1.197422000000000E+02      2.360916000000000E-01      3.304101000000000E+01
4847000000.000000      3.491364000000000E-01      1.083555000000000E+02      2.640686000000000E-01     -1.103320000000000E+01      2.676697000000000E-01      1.199414000000000E+02      2.316360000000000E-01      3.217578000000000E+01
4848000000.000000      3.432617000000000E-01      1.087695000000000E+02      2.686768000000000E-01     -1.086865000000000E+01      2.730713000000000E-01      1.201523000000000E+02      2.299194000000000E-01      3.094629000000000E+01
4849000000.000000      3.367462000000000E-01      1.091523000000000E+02      2.746887000000000E-01     -1.093457000000000E+01      2.774353000000000E-01      1.203281000000000E+02      2.268753000000000E-01      2.972070000000000E+01
4850000000.000000      3.301239000000000E-01      1.096680000000000E+02      2.790375000000000E-01     -1.089063000000000E+01      2.826691000000000E-01      1.206055000000000E+02      2.257462000000000E-01      2.881933000000000E+01
4851000000.000000      3.241119000000000E-01      1.103164000000000E+02      2.846832000000000E-01     -1.087109000000000E+01      2.874603000000000E-01      1.207070000000000E+02      2.236099000000000E-01      2.760937000000000E+01
4852000000.000000      3.176422000000000E-01      1.106523000000000E+02      2.892914000000000E-01     -1.090283000000000E+01      2.917633000000000E-01      1.209844000000000E+02      2.225494000000000E-01      2.621582000000000E+01
4853000000.000000      3.110199000000000E-01      1.111719000000000E+02      2.929993000000000E-01     -1.097559000000000E+01      2.974854000000000E-01      1.208867000000000E+02      2.198563000000000E-01      2.471289000000000E+01
4854000000.000000      3.037567000000000E-01      1.115820000000000E+02      2.989502000000000E-01     -1.113623000000000E+01      3.023071000000000E-01      1.209844000000000E+02      2.172318000000000E-01      2.390723000000000E+01
4855000000.000000      2.973785000000000E-01      1.121406000000000E+02      3.039856000000000E-01     -1.118311000000000E+01      3.075409000000000E-01      1.210742000000000E+02      2.125473000000000E-01      2.278125000000000E+01
4856000000.000000      2.905579000000000E-01      1.126406000000000E+02      3.092651000000000E-01     -1.129004000000000E+01      3.116608000000000E-01      1.211055000000000E+02      2.105865000000000E-01      2.168945000000000E+01
4857000000.000000      2.833557000000000E-01      1.131602000000000E+02      3.141937000000000E-01     -1.133398000000000E+01      3.170013000000000E-01      1.211094000000000E+02      2.081985000000000E-01      2.037109000000000E+01
4858000000.000000      2.757263000000000E-01      1.134727000000000E+02      3.194885000000000E-01     -1.147119000000000E+01      3.223267000000000E-01      1.211641000000000E+02      2.059631000000000E-01      1.934668000000000E+01
4859000000.000000      2.688446000000000E-01      1.140312000000000E+02      3.243713000000000E-01     -1.181738000000000E+01      3.270569000000000E-01      1.211680000000000E+02      2.029343000000000E-01      1.799512000000000E+01
4860000000.000000      2.626801000000000E-01      1.146875000000000E+02      3.290100000000000E-01     -1.191504000000000E+01      3.317108000000000E-01      1.212031000000000E+02      2.008438000000000E-01      1.699121000000000E+01
4861000000.000000      2.544098000000000E-01      1.152070000000000E+02      3.340149000000000E-01     -1.209619000000000E+01      3.376770000000000E-01      1.211016000000000E+02      1.973190000000000E-01      1.560596000000000E+01
4862000000.000000      2.471390000000000E-01      1.156367000000000E+02      3.396759000000000E-01     -1.231445000000000E+01      3.429260000000000E-01      1.210976000000000E+02      1.954803000000000E-01      1.433691000000000E+01
4863000000.000000      2.395401000000000E-01      1.162031000000000E+02      3.434143000000000E-01     -1.264941000000000E+01      3.469849000000000E-01      1.211211000000000E+02      1.927185000000000E-01      1.335498000000000E+01
4864000000.000000      2.324905000000000E-01      1.165742000000000E+02      3.492279000000000E-01     -1.286670000000000E+01      3.520966000000000E-01      1.209687000000000E+02      1.903305000000000E-01      1.225635000000000E+01
4865000000.000000      2.245331000000000E-01      1.171211000000000E+02      3.534393000000000E-01     -1.304102000000000E+01      3.575745000000000E-01      1.208750000000000E+02      1.884918000000000E-01      1.104785000000000E+01
4866000000.000000      2.167053000000000E-01      1.176914000000000E+02      3.580780000000000E-01     -1.332275000000000E+01      3.621979000000000E-01      1.206875000000000E+02      1.854477000000000E-01      9.802246000000000E+00
4867000000.000000      2.093887000000000E-01      1.184687000000000E+02      3.627625000000000E-01     -1.374561000000000E+01      3.672028000000000E-01      1.207969000000000E+02      1.828079000000000E-01      8.761230000000000E+00
4868000000.000000      2.023315000000000E-01      1.189297000000000E+02      3.681488000000000E-01     -1.400488000000000E+01      3.721924000000000E-01      1.206328000000000E+02      1.800003000000000E-01      7.826172000000000E+00
4869000000.000000      1.944580000000000E-01      1.195703000000000E+02      3.724518000000000E-01     -1.439941000000000E+01      3.776093000000000E-01      1.204336000000000E+02      1.766968000000000E-01      6.472168000000000E+00
4870000000.000000      1.867523000000000E-01      1.200781000000000E+02      3.780823000000000E-01     -1.458984000000000E+01      3.830566000000000E-01      1.202734000000000E+02      1.749420000000000E-01      5.623535000000000E+00
4871000000.000000      1.791611000000000E-01      1.207734000000000E+02      3.815460000000000E-01     -1.507080000000000E+01      3.867188000000000E-01      1.201953000000000E+02      1.718674000000000E-01      4.342285000000000E+00
4872000000.000000      1.718979000000000E-01      1.215742000000000E+02      3.867493000000000E-01     -1.503906000000000E+01      3.926392000000000E-01      1.197773000000000E+02      1.702576000000000E-01      3.361816000000000E+00
4873000000.000000      1.643906000000000E-01      1.223359000000000E+02      3.907776000000000E-01     -1.557861000000000E+01      3.965912000000000E-01      1.197578000000000E+02      1.671982000000000E-01      2.096924000000000E+00
4874000000.000000      1.563416000000000E-01      1.231133000000000E+02      3.957367000000000E-01     -1.604297000000000E+01      4.029999000000000E-01      1.196445000000000E+02      1.643143000000000E-01      1.090393000000000E+00
4875000000.000000      1.490021000000000E-01      1.237070000000000E+02      3.998871000000000E-01     -1.621777000000000E+01      4.067841000000000E-01      1.194062000000000E+02      1.616745000000000E-01      1.194763000000000E-01
4876000000.000000      1.418839000000000E-01      1.246016000000000E+02      4.049835000000000E-01     -1.683301000000000E+01      4.127502000000000E-01      1.191562000000000E+02      1.588974000000000E-01     -1.295044000000000E+00
4877000000.000000      1.337357000000000E-01      1.253633000000000E+02      4.084015000000000E-01     -1.715527000000000E+01      4.176788000000000E-01      1.190351000000000E+02      1.563492000000000E-01     -2.015991000000000E+00
4878000000.000000      1.265793000000000E-01      1.266367000000000E+02      4.146423000000000E-01     -1.753027000000000E+01      4.226074000000000E-01      1.189492000000000E+02      1.539154000000000E-01     -3.078979000000000E+00
4879000000.000000      1.198120000000000E-01      1.276836000000000E+02      4.173279000000000E-01     -1.783691000000000E+01      4.275208000000000E-01      1.184922000000000E+02      1.518936000000000E-01     -4.040283000000000E+00
4880000000.000000      1.119347000000000E-01      1.285391000000000E+02      4.219360000000000E-01     -1.825000000000000E+01      4.322357000000000E-01      1.183633000000000E+02      1.486664000000000E-01     -5.055176000000000E+00
4881000000.000000      1.054573000000000E-01      1.301094000000000E+02      4.268341000000000E-01     -1.855957000000000E+01      4.380646000000000E-01      1.181523000000000E+02      1.459579000000000E-01     -5.891602000000000E+00
4882000000.000000      9.807205000000000E-02      1.313125000000000E+02      4.309235000000000E-01     -1.917480000000000E+01      4.431458000000000E-01      1.178750000000000E+02      1.432343000000000E-01     -6.734619000000000E+00
