! Network Analyzer HP8722D
! Hewlett-Packard
! Data name: Linha & Wilkinson
! Saver's name: Rodrigo Anjos
! Comments: Teste da utilização de aquisição
continua pelo VNA HP8722D
! Time and date: 25/4/2025 15:19
!              Frequency                     S11                                                   S21                                                   S12                                                   S22
# HZ  S  MA R 50
4800000000.000000      4.498444000000000E-01      9.213671000000000E+01      1.816254000000000E-01     -6.379492000000000E+01      1.865158000000000E-01      6.924218000000000E+01      2.509003000000000E-01      7.674218000000000E+01
4801000000.000000      4.531860000000000E-01      9.243359000000000E+01      1.778183000000000E-01     -6.266602000000000E+01      1.830521000000000E-01      7.013672000000000E+01      2.529907000000000E-01      7.633984000000000E+01
4802000000.000000      4.554291000000000E-01      9.258593000000000E+01      1.745224000000000E-01     -6.147265000000000E+01      1.800156000000000E-01      7.114062000000000E+01      2.574310000000000E-01      7.526953000000000E+01
4803000000.000000      4.587097000000000E-01      9.288280000000000E+01      1.718216000000000E-01     -6.027538000000000E+01      1.765594000000000E-01      7.234765000000000E+01      2.577972000000000E-01      7.467187000000000E+01
4804000000.000000      4.615631000000000E-01      9.321875000000000E+01      1.686401000000000E-01     -5.902734000000000E+01      1.739426000000000E-01      7.339062000000000E+01      2.582245000000000E-01      7.428515000000000E+01
4805000000.000000      4.651184000000000E-01      9.342577000000000E+01      1.661682000000000E-01     -5.776367000000000E+01      1.709671000000000E-01      7.454687000000000E+01      2.613068000000000E-01      7.334765000000000E+01
4806000000.000000      4.657745000000000E-01      9.369921000000000E+01      1.633682000000000E-01     -5.621484000000000E+01      1.685791000000000E-01      7.597656000000000E+01      2.621460000000000E-01      7.244141000000000E+01
4807000000.000000      4.684143000000000E-01      9.400391000000000E+01      1.608963000000000E-01     -5.478906000000000E+01      1.660309000000000E-01      7.726171000000000E+01      2.624969000000000E-01      7.224609000000000E+01
4808000000.000000      4.691315000000000E-01      9.436327000000000E+01      1.596832000000000E-01     -5.326172000000000E+01      1.641541000000000E-01      7.864062000000000E+01      2.656860000000000E-01      7.111718000000000E+01
4809000000.000000      4.707947000000000E-01      9.470312000000000E+01      1.577301000000000E-01     -5.174218000000000E+01      1.627197000000000E-01      8.026953000000000E+01      2.664032000000000E-01      7.124218000000000E+01
4810000000.000000      4.725647000000000E-01      9.499218000000000E+01      1.562958000000000E-01     -4.986718000000000E+01      1.611862000000000E-01      8.172655000000000E+01      2.674103000000000E-01      6.951172000000000E+01
4811000000.000000      4.733734000000000E-01      9.530468000000000E+01      1.548538000000000E-01     -4.831445000000000E+01      1.604843000000000E-01      8.338282000000000E+01      2.698822000000000E-01      6.932812000000000E+01
4812000000.000000      4.752960000000000E-01      9.564453000000000E+01      1.540527000000000E-01     -4.645508000000000E+01      1.593628000000000E-01      8.495703000000000E+01      2.703857000000000E-01      6.838672000000000E+01
4813000000.000000      4.752045000000000E-01      9.601952000000000E+01      1.535110000000000E-01     -4.482031000000000E+01      1.589127000000000E-01      8.657030000000000E+01      2.717133000000000E-01      6.814062000000000E+01
4814000000.000000      4.750366000000000E-01      9.626171000000000E+01      1.527328000000000E-01     -4.302539000000000E+01      1.583176000000000E-01      8.818750000000000E+01      2.714386000000000E-01      6.698437000000000E+01
4815000000.000000      4.747009000000000E-01      9.665625000000000E+01      1.535034000000000E-01     -4.139648000000000E+01      1.583557000000000E-01      8.973047000000000E+01      2.722626000000000E-01      6.607422000000000E+01
4816000000.000000      4.754181000000000E-01      9.694921000000000E+01      1.536560000000000E-01     -3.929101000000000E+01      1.590347000000000E-01      9.144140000000000E+01      2.736053000000000E-01      6.529297000000000E+01
4817000000.000000      4.740143000000000E-01      9.749218000000000E+01      1.536789000000000E-01     -3.767578000000000E+01      1.591949000000000E-01      9.309765000000000E+01      2.745056000000000E-01      6.453906000000000E+01
4818000000.000000      4.739838000000000E-01      9.764061000000000E+01      1.547089000000000E-01     -3.599023000000000E+01      1.601715000000000E-01      9.475389000000000E+01      2.748566000000000E-01      6.329492000000000E+01
4819000000.000000      4.732361000000000E-01      9.808594000000000E+01      1.558685000000000E-01     -3.445313000000000E+01      1.612091000000000E-01      9.625389000000000E+01      2.711945000000000E-01      6.285351000000000E+01
4820000000.000000      4.705048000000000E-01      9.841406000000000E+01      1.574173000000000E-01     -3.262695000000000E+01      1.626511000000000E-01      9.782812000000000E+01      2.728577000000000E-01      6.158789000000000E+01
4821000000.000000      4.713287000000000E-01      9.891014000000000E+01      1.594543000000000E-01     -3.107226000000000E+01      1.640854000000000E-01      9.922264000000000E+01      2.741089000000000E-01      6.109179000000000E+01
4822000000.000000      4.692535000000000E-01      9.908983000000000E+01      1.603851000000000E-01     -2.950684000000000E+01      1.657028000000000E-01      1.007695000000000E+02      2.745056000000000E-01      5.975586000000000E+01
4823000000.000000      4.669647000000000E-01      9.955078000000000E+01      1.632233000000000E-01     -2.809082000000000E+01      1.680374000000000E-01      1.023438000000000E+02      2.720795000000000E-01      5.901953000000000E+01
4824000000.000000      4.660645000000000E-01      1.000469000000000E+02      1.652908000000000E-01     -2.662012000000000E+01      1.705170000000000E-01      1.034297000000000E+02      2.714691000000000E-01      5.772655000000000E+01
4825000000.000000      4.636078000000000E-01      1.002383000000000E+02      1.673508000000000E-01     -2.529004000000000E+01      1.731644000000000E-01      1.048828000000000E+02      2.714386000000000E-01      5.690820000000000E+01
4826000000.000000      4.613037000000000E-01      1.006055000000000E+02      1.706009000000000E-01     -2.409375000000000E+01      1.755905000000000E-01      1.059766000000000E+02      2.712250000000000E-01      5.607422000000000E+01
4827000000.000000      4.582062000000000E-01      1.010195000000000E+02      1.736679000000000E-01     -2.266797000000000E+01      1.783905000000000E-01      1.073047000000000E+02      2.709198000000000E-01      5.466601000000000E+01
4828000000.000000      4.563293000000000E-01      1.014805000000000E+02      1.770859000000000E-01     -2.167383000000000E+01      1.818466000000000E-01      1.082461000000000E+02      2.704926000000000E-01      5.350390000000000E+01
4829000000.000000      4.519043000000000E-01      1.020234000000000E+02      1.799393000000000E-01     -2.058300000000000E+01      1.854324000000000E-01      1.094414000000000E+02      2.689667000000000E-01      5.297070000000000E+01
4830000000.000000      4.496613000000000E-01      1.023633000000000E+02      1.832275000000000E-01     -1.947754000000000E+01      1.884308000000000E-01      1.104219000000000E+02      2.673645000000000E-01      5.219531000000000E+01
4831000000.000000      4.459076000000000E-01      1.027148000000000E+02      1.869431000000000E-01     -1.864258000000000E+01      1.920547000000000E-01      1.113984000000000E+02      2.660065000000000E-01      5.051758000000000E+01
4832000000.000000      4.428711000000000E-01      1.033125000000000E+02      1.905746000000000E-01     -1.777344000000000E+01      1.953659000000000E-01      1.122812000000000E+02      2.646484000000000E-01      4.978125000000000E+01
4833000000.000000      4.381561000000000E-01      1.036055000000000E+02      1.941681000000000E-01     -1.672070000000000E+01      1.996231000000000E-01      1.130078000000000E+02      2.621002000000000E-01      4.862109000000000E+01
4834000000.000000      4.349976000000000E-01      1.040078000000000E+02      1.983414000000000E-01     -1.602637000000000E+01      2.034378000000000E-01      1.136992000000000E+02      2.611847000000000E-01      4.723633000000000E+01
4835000000.000000      4.309082000000000E-01      1.044570000000000E+02      2.024994000000000E-01     -1.556934000000000E+01      2.074661000000000E-01      1.143789000000000E+02      2.600250000000000E-01      4.604882000000000E+01
4836000000.000000      4.277191000000000E-01      1.049101000000000E+02      2.065964000000000E-01     -1.494971000000000E+01      2.110977000000000E-01      1.151523000000000E+02      2.575989000000000E-01      4.522461000000000E+01
4837000000.000000      4.223328000000000E-01      1.054883000000000E+02      2.105713000000000E-01     -1.439502000000000E+01      2.154160000000000E-01      1.156133000000000E+02      2.555695000000000E-01      4.404882000000000E+01
4838000000.000000      4.176483000000000E-01      1.058437000000000E+02      2.156296000000000E-01     -1.378809000000000E+01      2.194061000000000E-01      1.161289000000000E+02      2.540131000000000E-01      4.305469000000000E+01
4839000000.000000      4.143066000000000E-01      1.062773000000000E+02      2.193909000000000E-01     -1.324951000000000E+01      2.238235000000000E-01      1.166523000000000E+02      2.533417000000000E-01      4.154492000000000E+01
4840000000.000000      4.083405000000000E-01      1.066445000000000E+02      2.240219000000000E-01     -1.279248000000000E+01      2.286377000000000E-01      1.172266000000000E+02      2.501984000000000E-01      4.060547000000000E+01
4841000000.000000      4.035645000000000E-01      1.072266000000000E+02      2.287140000000000E-01     -1.252344000000000E+01      2.328186000000000E-01      1.176055000000000E+02      2.507935000000000E-01      3.973828000000000E+01
4842000000.000000      3.981476000000000E-01      1.076797000000000E+02      2.331161000000000E-01     -1.220313000000000E+01      2.371063000000000E-01      1.180898000000000E+02      2.463150000000000E-01      3.864843000000000E+01
4843000000.000000      3.936920000000000E-01      1.080078000000000E+02      2.380371000000000E-01     -1.193408000000000E+01      2.415619000000000E-01      1.185547000000000E+02      2.450180000000000E-01      3.771875000000000E+01
4844000000.000000      3.877869000000000E-01      1.085586000000000E+02      2.426910000000000E-01     -1.161133000000000E+01      2.457733000000000E-01      1.188125000000000E+02      2.420197000000000E-01      3.651758000000000E+01
4845000000.000000      3.820038000000000E-01      1.089766000000000E+02      2.475281000000000E-01     -1.140527000000000E+01      2.506866000000000E-01      1.190156000000000E+02      2.405396000000000E-01      3.532812000000000E+01
4846000000.000000      3.770447000000000E-01      1.095117000000000E+02      2.521820000000000E-01     -1.128320000000000E+01      2.559509000000000E-01      1.193242000000000E+02      2.370377000000000E-01      3.417383000000000E+01
4847000000.000000      3.713226000000000E-01      1.100508000000000E+02      2.571411000000000E-01     -1.110889000000000E+01      2.603149000000000E-01      1.195234000000000E+02      2.334213000000000E-01      3.287109000000000E+01
4848000000.000000      3.654938000000000E-01      1.104688000000000E+02      2.612457000000000E-01     -1.077490000000000E+01      2.653198000000000E-01      1.196719000000000E+02      2.332306000000000E-01      3.176953000000000E+01
4849000000.000000      3.588562000000000E-01      1.107695000000000E+02      2.666779000000000E-01     -1.114307000000000E+01      2.698212000000000E-01      1.198828000000000E+02      2.293243000000000E-01      3.083105000000000E+01
4850000000.000000      3.531799000000000E-01      1.113594000000000E+02      2.709656000000000E-01     -1.094971000000000E+01      2.745361000000000E-01      1.200469000000000E+02      2.264633000000000E-01      2.948828000000000E+01
4851000000.000000      3.467560000000000E-01      1.119141000000000E+02      2.759857000000000E-01     -1.109521000000000E+01      2.791138000000000E-01      1.202656000000000E+02      2.252579000000000E-01      2.833301000000000E+01
4852000000.000000      3.404388000000000E-01      1.124101000000000E+02      2.812500000000000E-01     -1.093555000000000E+01      2.837982000000000E-01      1.203789000000000E+02      2.231140000000000E-01      2.734863000000000E+01
4853000000.000000      3.344116000000000E-01      1.128789000000000E+02      2.851105000000000E-01     -1.092041000000000E+01      2.886658000000000E-01      1.205898000000000E+02      2.203369000000000E-01      2.585058000000000E+01
4854000000.000000      3.269196000000000E-01      1.133164000000000E+02      2.908173000000000E-01     -1.121436000000000E+01      2.937012000000000E-01      1.206992000000000E+02      2.181168000000000E-01      2.500586000000000E+01
4855000000.000000      3.211365000000000E-01      1.138203000000000E+02      2.950745000000000E-01     -1.116650000000000E+01      2.982788000000000E-01      1.206953000000000E+02      2.143555000000000E-01      2.392383000000000E+01
4856000000.000000      3.149109000000000E-01      1.142891000000000E+02      2.998199000000000E-01     -1.136816000000000E+01      3.030243000000000E-01      1.207305000000000E+02      2.124329000000000E-01      2.287890000000000E+01
4857000000.000000      3.080444000000000E-01      1.149453000000000E+02      3.047028000000000E-01     -1.143408000000000E+01      3.077850000000000E-01      1.208437000000000E+02      2.094345000000000E-01      2.184277000000000E+01
4858000000.000000      3.004303000000000E-01      1.152187000000000E+02      3.097992000000000E-01     -1.160986000000000E+01      3.130035000000000E-01      1.207383000000000E+02      2.058029000000000E-01      2.050586000000000E+01
4859000000.000000      2.940674000000000E-01      1.157695000000000E+02      3.147583000000000E-01     -1.166748000000000E+01      3.179321000000000E-01      1.208476000000000E+02      2.049179000000000E-01      1.936328000000000E+01
4860000000.000000      2.874756000000000E-01      1.163867000000000E+02      3.196106000000000E-01     -1.187354000000000E+01      3.218689000000000E-01      1.208008000000000E+02      2.015839000000000E-01      1.854492000000000E+01
4861000000.000000      2.797394000000000E-01      1.169375000000000E+02      3.238068000000000E-01     -1.233643000000000E+01      3.277893000000000E-01      1.207851000000000E+02      1.979752000000000E-01      1.733984000000000E+01
4862000000.000000      2.730103000000000E-01      1.174297000000000E+02      3.293304000000000E-01     -1.221289000000000E+01      3.325806000000000E-01      1.207070000000000E+02      1.959305000000000E-01      1.613183000000000E+01
4863000000.000000      2.657013000000000E-01      1.178867000000000E+02      3.321686000000000E-01     -1.260840000000000E+01      3.369446000000000E-01      1.208359000000000E+02      1.942673000000000E-01      1.511963000000000E+01
4864000000.000000      2.584839000000000E-01      1.184297000000000E+02      3.390503000000000E-01     -1.277051000000000E+01      3.420868000000000E-01      1.207383000000000E+02      1.912460000000000E-01      1.397314000000000E+01
4865000000.000000      2.506409000000000E-01      1.188750000000000E+02      3.426666000000000E-01     -1.297119000000000E+01      3.465881000000000E-01      1.205000000000000E+02      1.892548000000000E-01      1.270410000000000E+01
4866000000.000000      2.434006000000000E-01      1.193672000000000E+02      3.475952000000000E-01     -1.333496000000000E+01      3.519440000000000E-01      1.203828000000000E+02      1.866684000000000E-01      1.171680000000000E+01
4867000000.000000      2.360077000000000E-01      1.200703000000000E+02      3.519745000000000E-01     -1.370166000000000E+01      3.567963000000000E-01      1.204219000000000E+02      1.837311000000000E-01      1.064844000000000E+01
4868000000.000000      2.294159000000000E-01      1.205430000000000E+02      3.567810000000000E-01     -1.394043000000000E+01      3.623352000000000E-01      1.203242000000000E+02      1.807022000000000E-01      9.724121000000000E+00
4869000000.000000      2.212906000000000E-01      1.211562000000000E+02      3.615265000000000E-01     -1.430420000000000E+01      3.670959000000000E-01      1.201133000000000E+02      1.782684000000000E-01      8.602051000000000E+00
4870000000.000000      2.140961000000000E-01      1.216836000000000E+02      3.664551000000000E-01     -1.448145000000000E+01      3.714294000000000E-01      1.199922000000000E+02      1.754837000000000E-01      7.739746000000000E+00
4871000000.000000      2.069626000000000E-01      1.223711000000000E+02      3.708344000000000E-01     -1.482617000000000E+01      3.761597000000000E-01      1.199609000000000E+02      1.728821000000000E-01      6.718018000000000E+00
4872000000.000000      2.001877000000000E-01      1.229883000000000E+02      3.748322000000000E-01     -1.512695000000000E+01      3.815460000000000E-01      1.195859000000000E+02      1.711197000000000E-01      5.859619000000000E+00
4873000000.000000      1.925507000000000E-01      1.237266000000000E+02      3.793945000000000E-01     -1.555566000000000E+01      3.854218000000000E-01      1.194765000000000E+02      1.669846000000000E-01      4.782959000000000E+00
4874000000.000000      1.848907000000000E-01      1.242969000000000E+02      3.840179000000000E-01     -1.586035000000000E+01      3.910675000000000E-01      1.193672000000000E+02      1.652374000000000E-01      3.677612000000000E+00
4875000000.000000      1.774063000000000E-01      1.249883000000000E+02      3.872528000000000E-01     -1.615137000000000E+01      3.955536000000000E-01      1.191719000000000E+02      1.618958000000000E-01      2.894897000000000E+00
4876000000.000000      1.706314000000000E-01      1.255937000000000E+02      3.929138000000000E-01     -1.656054000000000E+01      4.008636000000000E-01      1.189961000000000E+02      1.598816000000000E-01      1.536682000000000E+00
4877000000.000000      1.628876000000000E-01      1.263945000000000E+02      3.968811000000000E-01     -1.702832000000000E+01      4.048157000000000E-01      1.187187000000000E+02      1.572418000000000E-01      7.278442000000000E-01
4878000000.000000      1.561279000000000E-01      1.273320000000000E+02      4.011536000000000E-01     -1.730371000000000E+01      4.097900000000000E-01      1.186055000000000E+02      1.548080000000000E-01     -1.222229000000000E-01
4879000000.000000      1.493912000000000E-01      1.279805000000000E+02      4.039917000000000E-01     -1.761328000000000E+01      4.146118000000000E-01      1.182734000000000E+02      1.518402000000000E-01     -1.100037000000000E+00
4880000000.000000      1.416702000000000E-01      1.287969000000000E+02      4.094086000000000E-01     -1.824512000000000E+01      4.206543000000000E-01      1.180859000000000E+02      1.487350000000000E-01     -1.892395000000000E+00
4881000000.000000      1.353760000000000E-01      1.300000000000000E+02      4.145966000000000E-01     -1.854004000000000E+01      4.235687000000000E-01      1.179414000000000E+02      1.465683000000000E-01     -2.493896000000000E+00
4882000000.000000      1.279755000000000E-01      1.308438000000000E+02      4.184113000000000E-01     -1.898242000000000E+01      4.295959000000000E-01      1.175430000000000E+02      1.435776000000000E-01     -3.280884000000000E+00
