! Network Analyzer HP8722D
! Hewlett-Packard
! Data name: Linha & Wilkinson
! Saver's name: Rodrigo Anjos
! Comments: Teste da utilização de aquisição
continua pelo VNA HP8722D
! Time and date: 25/4/2025 16:23
!              Frequency                     S11                                                   S21                                                   S12                                                   S22
# HZ  S  MA R 50
4800000000.000000      4.351501000000000E-01      9.080858000000000E+01      1.860199000000000E-01     -6.392773000000000E+01      1.912003000000000E-01      6.958593000000000E+01      2.510071000000000E-01      7.760156000000000E+01
4801000000.000000      4.375305000000000E-01      9.101954000000000E+01      1.822891000000000E-01     -6.280078000000000E+01      1.875687000000000E-01      7.049218000000000E+01      2.512817000000000E-01      7.648046000000000E+01
4802000000.000000      4.405365000000000E-01      9.130859000000000E+01      1.788788000000000E-01     -6.155273000000000E+01      1.843567000000000E-01      7.135156000000000E+01      2.567291000000000E-01      7.564062000000000E+01
4803000000.000000      4.435425000000000E-01      9.161327000000000E+01      1.758881000000000E-01     -6.017773000000000E+01      1.807632000000000E-01      7.262109000000000E+01      2.569580000000000E-01      7.543750000000000E+01
4804000000.000000      4.459076000000000E-01      9.185938000000000E+01      1.725845000000000E-01     -5.902538000000000E+01      1.776505000000000E-01      7.366796000000000E+01      2.578583000000000E-01      7.447266000000000E+01
4805000000.000000      4.492645000000000E-01      9.207031000000000E+01      1.698303000000000E-01     -5.758398000000000E+01      1.751709000000000E-01      7.489062000000000E+01      2.597046000000000E-01      7.387109000000000E+01
4806000000.000000      4.509125000000000E-01      9.231249000000000E+01      1.676865000000000E-01     -5.624413000000000E+01      1.724701000000000E-01      7.637500000000000E+01      2.604980000000000E-01      7.319140000000000E+01
4807000000.000000      4.526062000000000E-01      9.264063000000000E+01      1.655426000000000E-01     -5.477929000000000E+01      1.702957000000000E-01      7.751953000000000E+01      2.639618000000000E-01      7.281640000000000E+01
4808000000.000000      4.541473000000000E-01      9.300390000000000E+01      1.632156000000000E-01     -5.312890000000000E+01      1.681442000000000E-01      7.900781000000000E+01      2.626648000000000E-01      7.176171000000000E+01
4809000000.000000      4.547577000000000E-01      9.338282000000000E+01      1.615295000000000E-01     -5.172265000000000E+01      1.671295000000000E-01      8.044140000000000E+01      2.655182000000000E-01      7.154297000000000E+01
4810000000.000000      4.573669000000000E-01      9.360546000000000E+01      1.604233000000000E-01     -4.979297000000000E+01      1.647873000000000E-01      8.200390000000000E+01      2.663269000000000E-01      6.990624000000000E+01
4811000000.000000      4.576569000000000E-01      9.387890000000000E+01      1.589813000000000E-01     -4.856250000000000E+01      1.641922000000000E-01      8.365625000000000E+01      2.663422000000000E-01      6.976953000000000E+01
4812000000.000000      4.585876000000000E-01      9.430859000000000E+01      1.578751000000000E-01     -4.671484000000000E+01      1.632004000000000E-01      8.518358000000000E+01      2.679596000000000E-01      6.871875000000000E+01
4813000000.000000      4.589844000000000E-01      9.470703000000000E+01      1.574402000000000E-01     -4.472656000000000E+01      1.625366000000000E-01      8.691406000000000E+01      2.703247000000000E-01      6.802734000000000E+01
4814000000.000000      4.582825000000000E-01      9.493750000000000E+01      1.567612000000000E-01     -4.293750000000000E+01      1.622162000000000E-01      8.853516000000000E+01      2.701263000000000E-01      6.735156000000000E+01
4815000000.000000      4.580231000000000E-01      9.528124000000000E+01      1.567535000000000E-01     -4.116211000000000E+01      1.620636000000000E-01      9.015234000000000E+01      2.708893000000000E-01      6.616796000000000E+01
4816000000.000000      4.593964000000000E-01      9.562891000000000E+01      1.571655000000000E-01     -3.939062000000000E+01      1.631393000000000E-01      9.187891000000000E+01      2.716064000000000E-01      6.528515000000000E+01
4817000000.000000      4.582520000000000E-01      9.613281000000000E+01      1.575012000000000E-01     -3.783594000000000E+01      1.632462000000000E-01      9.344921000000000E+01      2.715454000000000E-01      6.512890000000000E+01
4818000000.000000      4.570923000000000E-01      9.633202000000000E+01      1.588058000000000E-01     -3.595703000000000E+01      1.638184000000000E-01      9.510937000000000E+01      2.718506000000000E-01      6.383007000000000E+01
4819000000.000000      4.566956000000000E-01      9.666796000000000E+01      1.595001000000000E-01     -3.411718000000000E+01      1.652451000000000E-01      9.661327000000000E+01      2.715759000000000E-01      6.278906000000000E+01
4820000000.000000      4.545898000000000E-01      9.710546000000000E+01      1.612549000000000E-01     -3.263672000000000E+01      1.669312000000000E-01      9.824999000000000E+01      2.714844000000000E-01      6.190234000000000E+01
4821000000.000000      4.538879000000000E-01      9.740234000000000E+01      1.632309000000000E-01     -3.095019000000000E+01      1.682587000000000E-01      9.961327000000000E+01      2.718353000000000E-01      6.109179000000000E+01
4822000000.000000      4.517822000000000E-01      9.772655000000000E+01      1.643600000000000E-01     -2.952637000000000E+01      1.698227000000000E-01      1.011133000000000E+02      2.712708000000000E-01      5.964648000000000E+01
4823000000.000000      4.503174000000000E-01      9.812500000000000E+01      1.671066000000000E-01     -2.800293000000000E+01      1.723175000000000E-01      1.026250000000000E+02      2.710419000000000E-01      5.865820000000000E+01
4824000000.000000      4.488831000000000E-01      9.851563000000000E+01      1.695557000000000E-01     -2.671093000000000E+01      1.747284000000000E-01      1.038281000000000E+02      2.691650000000000E-01      5.755859000000000E+01
4825000000.000000      4.458923000000000E-01      9.882813000000000E+01      1.717911000000000E-01     -2.518652000000000E+01      1.778412000000000E-01      1.053477000000000E+02      2.709961000000000E-01      5.677734000000000E+01
4826000000.000000      4.435425000000000E-01      9.927343000000000E+01      1.748886000000000E-01     -2.393261000000000E+01      1.800537000000000E-01      1.064883000000000E+02      2.694702000000000E-01      5.567383000000000E+01
4827000000.000000      4.409332000000000E-01      9.964062000000000E+01      1.783676000000000E-01     -2.253711000000000E+01      1.830521000000000E-01      1.075859000000000E+02      2.688141000000000E-01      5.444336000000000E+01
4828000000.000000      4.378815000000000E-01      1.000273000000000E+02      1.813583000000000E-01     -2.158203000000000E+01      1.863480000000000E-01      1.086914000000000E+02      2.674408000000000E-01      5.313086000000000E+01
4829000000.000000      4.342804000000000E-01      1.005898000000000E+02      1.845703000000000E-01     -2.030078000000000E+01      1.898880000000000E-01      1.098828000000000E+02      2.669983000000000E-01      5.256249000000000E+01
4830000000.000000      4.309998000000000E-01      1.008320000000000E+02      1.883240000000000E-01     -1.939160000000000E+01      1.931839000000000E-01      1.107695000000000E+02      2.656708000000000E-01      5.168163000000000E+01
4831000000.000000      4.275208000000000E-01      1.013164000000000E+02      1.919708000000000E-01     -1.856445000000000E+01      1.971283000000000E-01      1.118320000000000E+02      2.630005000000000E-01      5.009960000000000E+01
4832000000.000000      4.240265000000000E-01      1.016914000000000E+02      1.954575000000000E-01     -1.751367000000000E+01      2.005386000000000E-01      1.126523000000000E+02      2.624817000000000E-01      4.944921000000000E+01
4833000000.000000      4.196014000000000E-01      1.021562000000000E+02      1.995316000000000E-01     -1.671875000000000E+01      2.047501000000000E-01      1.133359000000000E+02      2.604370000000000E-01      4.834570000000000E+01
4834000000.000000      4.157104000000000E-01      1.025430000000000E+02      2.037659000000000E-01     -1.592920000000000E+01      2.086487000000000E-01      1.141640000000000E+02      2.603149000000000E-01      4.693359000000000E+01
4835000000.000000      4.117126000000000E-01      1.028906000000000E+02      2.076569000000000E-01     -1.536621000000000E+01      2.131424000000000E-01      1.148281000000000E+02      2.579041000000000E-01      4.600390000000000E+01
4836000000.000000      4.080353000000000E-01      1.034180000000000E+02      2.121811000000000E-01     -1.463379000000000E+01      2.171631000000000E-01      1.156211000000000E+02      2.557068000000000E-01      4.508203000000000E+01
4837000000.000000      4.033203000000000E-01      1.038789000000000E+02      2.165070000000000E-01     -1.435645000000000E+01      2.210159000000000E-01      1.159883000000000E+02      2.543488000000000E-01      4.371484000000000E+01
4838000000.000000      3.975525000000000E-01      1.042851000000000E+02      2.214508000000000E-01     -1.368506000000000E+01      2.253876000000000E-01      1.167305000000000E+02      2.529297000000000E-01      4.280273000000000E+01
4839000000.000000      3.939056000000000E-01      1.047578000000000E+02      2.253952000000000E-01     -1.312207000000000E+01      2.300797000000000E-01      1.172148000000000E+02      2.524414000000000E-01      4.128320000000000E+01
4840000000.000000      3.882751000000000E-01      1.051055000000000E+02      2.297668000000000E-01     -1.256299000000000E+01      2.343292000000000E-01      1.176211000000000E+02      2.483444000000000E-01      4.005859000000000E+01
4841000000.000000      3.837738000000000E-01      1.055820000000000E+02      2.350693000000000E-01     -1.244922000000000E+01      2.388153000000000E-01      1.180469000000000E+02      2.464523000000000E-01      3.912890000000000E+01
4842000000.000000      3.777924000000000E-01      1.061367000000000E+02      2.395782000000000E-01     -1.193848000000000E+01      2.435074000000000E-01      1.186211000000000E+02      2.460938000000000E-01      3.776172000000000E+01
4843000000.000000      3.730927000000000E-01      1.063828000000000E+02      2.451172000000000E-01     -1.175146000000000E+01      2.483826000000000E-01      1.188594000000000E+02      2.425766000000000E-01      3.721094000000000E+01
4844000000.000000      3.664551000000000E-01      1.069258000000000E+02      2.496033000000000E-01     -1.160742000000000E+01      2.528687000000000E-01      1.192422000000000E+02      2.402725000000000E-01      3.556445000000000E+01
4845000000.000000      3.609619000000000E-01      1.074258000000000E+02      2.545776000000000E-01     -1.141650000000000E+01      2.575531000000000E-01      1.194141000000000E+02      2.386017000000000E-01      3.419922000000000E+01
4846000000.000000      3.550262000000000E-01      1.078555000000000E+02      2.588806000000000E-01     -1.111133000000000E+01      2.632599000000000E-01      1.197187000000000E+02      2.362289000000000E-01      3.336914000000000E+01
4847000000.000000      3.491364000000000E-01      1.083516000000000E+02      2.641602000000000E-01     -1.096045000000000E+01      2.674255000000000E-01      1.200039000000000E+02      2.313919000000000E-01      3.223633000000000E+01
4848000000.000000      3.431549000000000E-01      1.088320000000000E+02      2.688751000000000E-01     -1.095654000000000E+01      2.725830000000000E-01      1.201914000000000E+02      2.302246000000000E-01      3.087011000000000E+01
4849000000.000000      3.376007000000000E-01      1.091367000000000E+02      2.739410000000000E-01     -1.099365000000000E+01      2.769623000000000E-01      1.203672000000000E+02      2.288284000000000E-01      2.986425000000000E+01
4850000000.000000      3.303223000000000E-01      1.096406000000000E+02      2.794495000000000E-01     -1.088379000000000E+01      2.823334000000000E-01      1.206133000000000E+02      2.265320000000000E-01      2.888086000000000E+01
4851000000.000000      3.249359000000000E-01      1.102851000000000E+02      2.844543000000000E-01     -1.099219000000000E+01      2.870789000000000E-01      1.206602000000000E+02      2.247772000000000E-01      2.768261000000000E+01
4852000000.000000      3.177795000000000E-01      1.107227000000000E+02      2.891083000000000E-01     -1.093018000000000E+01      2.918549000000000E-01      1.208398000000000E+02      2.213821000000000E-01      2.654492000000000E+01
4853000000.000000      3.111420000000000E-01      1.111953000000000E+02      2.931976000000000E-01     -1.085889000000000E+01      2.972260000000000E-01      1.210039000000000E+02      2.189941000000000E-01      2.509766000000000E+01
4854000000.000000      3.038635000000000E-01      1.116640000000000E+02      2.986145000000000E-01     -1.117480000000000E+01      3.019104000000000E-01      1.210469000000000E+02      2.169876000000000E-01      2.379492000000000E+01
4855000000.000000      2.976532000000000E-01      1.121133000000000E+02      3.037872000000000E-01     -1.114990000000000E+01      3.066101000000000E-01      1.210586000000000E+02      2.128830000000000E-01      2.280566000000000E+01
4856000000.000000      2.906799000000000E-01      1.127500000000000E+02      3.093262000000000E-01     -1.126660000000000E+01      3.119202000000000E-01      1.211641000000000E+02      2.115631000000000E-01      2.170898000000000E+01
4857000000.000000      2.839661000000000E-01      1.131602000000000E+02      3.146667000000000E-01     -1.131348000000000E+01      3.168488000000000E-01      1.211680000000000E+02      2.081604000000000E-01      2.042871000000000E+01
4858000000.000000      2.756805000000000E-01      1.134687000000000E+02      3.182831000000000E-01     -1.162646000000000E+01      3.213806000000000E-01      1.211523000000000E+02      2.060013000000000E-01      1.918164000000000E+01
4859000000.000000      2.691956000000000E-01      1.139961000000000E+02      3.237000000000000E-01     -1.166650000000000E+01      3.266907000000000E-01      1.211797000000000E+02      2.035141000000000E-01      1.794141000000000E+01
4860000000.000000      2.626801000000000E-01      1.146719000000000E+02      3.282928000000000E-01     -1.181055000000000E+01      3.319397000000000E-01      1.210898000000000E+02      2.010880000000000E-01      1.693945000000000E+01
4861000000.000000      2.544250000000000E-01      1.152031000000000E+02      3.334656000000000E-01     -1.223096000000000E+01      3.367462000000000E-01      1.210742000000000E+02      1.973038000000000E-01      1.570459000000000E+01
4862000000.000000      2.467804000000000E-01      1.157187000000000E+02      3.383636000000000E-01     -1.224707000000000E+01      3.427429000000000E-01      1.211797000000000E+02      1.955643000000000E-01      1.454590000000000E+01
4863000000.000000      2.398682000000000E-01      1.162148000000000E+02      3.432770000000000E-01     -1.261816000000000E+01      3.473358000000000E-01      1.210938000000000E+02      1.934662000000000E-01      1.351563000000000E+01
4864000000.000000      2.323685000000000E-01      1.166562000000000E+02      3.485565000000000E-01     -1.269922000000000E+01      3.522644000000000E-01      1.211484000000000E+02      1.905365000000000E-01      1.238672000000000E+01
4865000000.000000      2.249680000000000E-01      1.171289000000000E+02      3.531036000000000E-01     -1.301221000000000E+01      3.574066000000000E-01      1.209141000000000E+02      1.880112000000000E-01      1.126221000000000E+01
4866000000.000000      2.170410000000000E-01      1.176875000000000E+02      3.576355000000000E-01     -1.341064000000000E+01      3.618317000000000E-01      1.208555000000000E+02      1.857376000000000E-01      9.890137000000000E+00
4867000000.000000      2.093582000000000E-01      1.184219000000000E+02      3.632355000000000E-01     -1.372217000000000E+01      3.669739000000000E-01      1.207227000000000E+02      1.827850000000000E-01      8.673340000000000E+00
4868000000.000000      2.023010000000000E-01      1.189883000000000E+02      3.675079000000000E-01     -1.414355000000000E+01      3.719177000000000E-01      1.204570000000000E+02      1.798630000000000E-01      7.822266000000000E+00
4869000000.000000      1.943741000000000E-01      1.196367000000000E+02      3.717804000000000E-01     -1.428662000000000E+01      3.775330000000000E-01      1.204180000000000E+02      1.772537000000000E-01      6.553223000000000E+00
4870000000.000000      1.875229000000000E-01      1.201328000000000E+02      3.769836000000000E-01     -1.452148000000000E+01      3.826904000000000E-01      1.203008000000000E+02      1.754303000000000E-01      5.663330000000000E+00
4871000000.000000      1.792908000000000E-01      1.208281000000000E+02      3.813324000000000E-01     -1.502686000000000E+01      3.869476000000000E-01      1.203047000000000E+02      1.721725000000000E-01      4.538574000000000E+00
4872000000.000000      1.722717000000000E-01      1.214922000000000E+02      3.855133000000000E-01     -1.507471000000000E+01      3.922882000000000E-01      1.199453000000000E+02      1.704941000000000E-01      3.369995000000000E+00
4873000000.000000      1.642990000000000E-01      1.222578000000000E+02      3.905334000000000E-01     -1.556396000000000E+01      3.963013000000000E-01      1.198438000000000E+02      1.666718000000000E-01      2.237061000000000E+00
4874000000.000000      1.566162000000000E-01      1.229766000000000E+02      3.953094000000000E-01     -1.599902000000000E+01      4.037170000000000E-01      1.195586000000000E+02      1.651230000000000E-01      1.132935000000000E+00
4875000000.000000      1.492844000000000E-01      1.238828000000000E+02      3.984680000000000E-01     -1.631640000000000E+01      4.076080000000000E-01      1.194765000000000E+02      1.622086000000000E-01      2.101135000000000E-01
4876000000.000000      1.424408000000000E-01      1.245820000000000E+02      4.042969000000000E-01     -1.665723000000000E+01      4.125366000000000E-01      1.192500000000000E+02      1.594467000000000E-01     -1.157715000000000E+00
4877000000.000000      1.340332000000000E-01      1.252734000000000E+02      4.091339000000000E-01     -1.701562000000000E+01      4.177856000000000E-01      1.190859000000000E+02      1.570740000000000E-01     -2.003662000000000E+00
4878000000.000000      1.269302000000000E-01      1.265586000000000E+02      4.140320000000000E-01     -1.740820000000000E+01      4.218140000000000E-01      1.189492000000000E+02      1.540222000000000E-01     -2.974609000000000E+00
4879000000.000000      1.199722000000000E-01      1.275234000000000E+02      4.162750000000000E-01     -1.777344000000000E+01      4.274445000000000E-01      1.185195000000000E+02      1.514664000000000E-01     -4.095215000000000E+00
4880000000.000000      1.122627000000000E-01      1.283672000000000E+02      4.219208000000000E-01     -1.823340000000000E+01      4.314270000000000E-01      1.183984000000000E+02      1.488800000000000E-01     -4.930176000000000E+00
4881000000.000000      1.053505000000000E-01      1.300859000000000E+02      4.267120000000000E-01     -1.858203000000000E+01      4.372406000000000E-01      1.180234000000000E+02      1.459579000000000E-01     -6.012451000000000E+00
4882000000.000000      9.833908000000000E-02      1.309766000000000E+02      4.323730000000000E-01     -1.909863000000000E+01      4.435120000000000E-01      1.177891000000000E+02      1.430969000000000E-01     -6.642822000000000E+00
