! Network Analyzer HP8722D
! Hewlett-Packard
! Data name: Linha & Wilkinson
! Saver's name: Rodrigo Anjos
! Comments: Teste da utilização de aquisição
continua pelo VNA HP8722D
! Time and date: 25/4/2025 15:51
!              Frequency                     S11                                                   S21                                                   S12                                                   S22
# HZ  S  MA R 50
4800000000.000000      4.347992000000000E-01      9.056250000000000E+01      1.848679000000000E-01     -6.364843000000000E+01      1.902695000000000E-01      6.992188000000000E+01      2.482147000000000E-01      7.691406000000000E+01
4801000000.000000      4.380798000000000E-01      9.082422000000000E+01      1.815414000000000E-01     -6.237890000000000E+01      1.867371000000000E-01      7.078515000000000E+01      2.528534000000000E-01      7.652344000000000E+01
4802000000.000000      4.406128000000000E-01      9.100780000000000E+01      1.778946000000000E-01     -6.125977000000000E+01      1.835251000000000E-01      7.175781000000000E+01      2.571716000000000E-01      7.535937000000000E+01
4803000000.000000      4.419250000000000E-01      9.138672000000000E+01      1.755142000000000E-01     -5.990624000000000E+01      1.803970000000000E-01      7.296093000000000E+01      2.558746000000000E-01      7.495312000000000E+01
4804000000.000000      4.453430000000000E-01      9.168749000000000E+01      1.722946000000000E-01     -5.856835000000000E+01      1.771011000000000E-01      7.409765000000000E+01      2.588654000000000E-01      7.418750000000000E+01
4805000000.000000      4.488831000000000E-01      9.180079000000000E+01      1.697159000000000E-01     -5.722265000000000E+01      1.744461000000000E-01      7.529687000000000E+01      2.599945000000000E-01      7.371094000000000E+01
4806000000.000000      4.502869000000000E-01      9.210155000000000E+01      1.672211000000000E-01     -5.576562000000000E+01      1.718674000000000E-01      7.675781000000000E+01      2.621613000000000E-01      7.302734000000000E+01
4807000000.000000      4.523010000000000E-01      9.244921000000000E+01      1.647415000000000E-01     -5.443749000000000E+01      1.697922000000000E-01      7.789453000000000E+01      2.624664000000000E-01      7.225780000000000E+01
4808000000.000000      4.535217000000000E-01      9.268749000000000E+01      1.631470000000000E-01     -5.272655000000000E+01      1.680527000000000E-01      7.949609000000000E+01      2.643433000000000E-01      7.159765000000000E+01
4809000000.000000      4.541779000000000E-01      9.307812000000000E+01      1.610794000000000E-01     -5.129101000000000E+01      1.665344000000000E-01      8.098047000000000E+01      2.660980000000000E-01      7.101171000000000E+01
4810000000.000000      4.564209000000000E-01      9.338282000000000E+01      1.599121000000000E-01     -4.927929000000000E+01      1.649094000000000E-01      8.259766000000000E+01      2.672577000000000E-01      6.953125000000000E+01
4811000000.000000      4.568481000000000E-01      9.376562000000000E+01      1.591797000000000E-01     -4.784570000000000E+01      1.642303000000000E-01      8.420313000000000E+01      2.675018000000000E-01      6.925781000000000E+01
4812000000.000000      4.583588000000000E-01      9.405468000000000E+01      1.579132000000000E-01     -4.594922000000000E+01      1.634903000000000E-01      8.561718000000000E+01      2.676849000000000E-01      6.817187000000000E+01
4813000000.000000      4.582520000000000E-01      9.446484000000000E+01      1.579437000000000E-01     -4.430273000000000E+01      1.629181000000000E-01      8.737499000000000E+01      2.716980000000000E-01      6.752734000000000E+01
4814000000.000000      4.572906000000000E-01      9.459764000000000E+01      1.575699000000000E-01     -4.239453000000000E+01      1.625366000000000E-01      8.908983000000000E+01      2.690430000000000E-01      6.668750000000000E+01
4815000000.000000      4.573669000000000E-01      9.507421000000000E+01      1.572647000000000E-01     -4.093163000000000E+01      1.622696000000000E-01      9.062891000000000E+01      2.704620000000000E-01      6.583202000000000E+01
4816000000.000000      4.586487000000000E-01      9.541016000000000E+01      1.581268000000000E-01     -3.884375000000000E+01      1.635971000000000E-01      9.236328000000000E+01      2.713623000000000E-01      6.450390000000000E+01
4817000000.000000      4.574890000000000E-01      9.580078000000000E+01      1.583633000000000E-01     -3.732617000000000E+01      1.634293000000000E-01      9.388281000000000E+01      2.718506000000000E-01      6.433203000000000E+01
4818000000.000000      4.564056000000000E-01      9.607422000000000E+01      1.594772000000000E-01     -3.555469000000000E+01      1.647644000000000E-01      9.553905000000000E+01      2.715149000000000E-01      6.327343000000000E+01
4819000000.000000      4.557953000000000E-01      9.647264000000000E+01      1.606598000000000E-01     -3.391602000000000E+01      1.657944000000000E-01      9.714062000000000E+01      2.694855000000000E-01      6.261719000000000E+01
4820000000.000000      4.530487000000000E-01      9.684374000000000E+01      1.622467000000000E-01     -3.207812000000000E+01      1.675644000000000E-01      9.870703000000000E+01      2.714691000000000E-01      6.143555000000000E+01
4821000000.000000      4.534454000000000E-01      9.721874000000000E+01      1.638947000000000E-01     -3.049316000000000E+01      1.690826000000000E-01      1.001758000000000E+02      2.719574000000000E-01      6.048046000000000E+01
4822000000.000000      4.508667000000000E-01      9.747656000000000E+01      1.654434000000000E-01     -2.916797000000000E+01      1.709061000000000E-01      1.015234000000000E+02      2.710571000000000E-01      5.951953000000000E+01
4823000000.000000      4.487762000000000E-01      9.787889000000000E+01      1.682129000000000E-01     -2.751758000000000E+01      1.731796000000000E-01      1.030234000000000E+02      2.693481000000000E-01      5.856835000000000E+01
4824000000.000000      4.473572000000000E-01      9.832420000000000E+01      1.706772000000000E-01     -2.634863000000000E+01      1.757126000000000E-01      1.041875000000000E+02      2.696381000000000E-01      5.753124000000000E+01
4825000000.000000      4.446106000000000E-01      9.863281000000000E+01      1.733627000000000E-01     -2.475781000000000E+01      1.788101000000000E-01      1.055781000000000E+02      2.703094000000000E-01      5.637304000000000E+01
4826000000.000000      4.427185000000000E-01      9.908983000000000E+01      1.767120000000000E-01     -2.364746000000000E+01      1.813812000000000E-01      1.066875000000000E+02      2.688141000000000E-01      5.535546000000000E+01
4827000000.000000      4.397430000000000E-01      9.946093000000000E+01      1.795349000000000E-01     -2.244238000000000E+01      1.841660000000000E-01      1.078750000000000E+02      2.679291000000000E-01      5.458008000000000E+01
4828000000.000000      4.372406000000000E-01      9.987108000000000E+01      1.829300000000000E-01     -2.131543000000000E+01      1.875916000000000E-01      1.090117000000000E+02      2.672424000000000E-01      5.323437000000000E+01
4829000000.000000      4.327850000000000E-01      1.003945000000000E+02      1.864166000000000E-01     -2.023633000000000E+01      1.913681000000000E-01      1.101289000000000E+02      2.667084000000000E-01      5.207226000000000E+01
4830000000.000000      4.301453000000000E-01      1.007109000000000E+02      1.898041000000000E-01     -1.933496000000000E+01      1.946945000000000E-01      1.110430000000000E+02      2.653503000000000E-01      5.120898000000000E+01
4831000000.000000      4.260712000000000E-01      1.010976000000000E+02      1.932526000000000E-01     -1.834668000000000E+01      1.985779000000000E-01      1.119648000000000E+02      2.638702000000000E-01      5.005664000000000E+01
4832000000.000000      4.230804000000000E-01      1.014922000000000E+02      1.970749000000000E-01     -1.754883000000000E+01      2.021103000000000E-01      1.128125000000000E+02      2.616272000000000E-01      4.898632000000000E+01
4833000000.000000      4.195251000000000E-01      1.019570000000000E+02      2.014465000000000E-01     -1.665332000000000E+01      2.060242000000000E-01      1.136055000000000E+02      2.592163000000000E-01      4.786718000000000E+01
4834000000.000000      4.147797000000000E-01      1.023516000000000E+02      2.050247000000000E-01     -1.591943000000000E+01      2.101746000000000E-01      1.142891000000000E+02      2.581635000000000E-01      4.650195000000000E+01
4835000000.000000      4.102173000000000E-01      1.026836000000000E+02      2.097931000000000E-01     -1.547021000000000E+01      2.143478000000000E-01      1.149531000000000E+02      2.574615000000000E-01      4.569140000000000E+01
4836000000.000000      4.071198000000000E-01      1.032344000000000E+02      2.136078000000000E-01     -1.470947000000000E+01      2.184067000000000E-01      1.156172000000000E+02      2.563782000000000E-01      4.442187000000000E+01
4837000000.000000      4.012451000000000E-01      1.037187000000000E+02      2.182693000000000E-01     -1.440869000000000E+01      2.228851000000000E-01      1.162461000000000E+02      2.548981000000000E-01      4.356445000000000E+01
4838000000.000000      3.960419000000000E-01      1.040117000000000E+02      2.231750000000000E-01     -1.356982000000000E+01      2.270203000000000E-01      1.167578000000000E+02      2.528381000000000E-01      4.216406000000000E+01
4839000000.000000      3.928528000000000E-01      1.045078000000000E+02      2.275925000000000E-01     -1.312891000000000E+01      2.320633000000000E-01      1.171836000000000E+02      2.504730000000000E-01      4.066992000000000E+01
4840000000.000000      3.869781000000000E-01      1.049570000000000E+02      2.326050000000000E-01     -1.274316000000000E+01      2.362671000000000E-01      1.177656000000000E+02      2.485352000000000E-01      3.971094000000000E+01
4841000000.000000      3.822327000000000E-01      1.054531000000000E+02      2.368240000000000E-01     -1.246973000000000E+01      2.412109000000000E-01      1.180820000000000E+02      2.464218000000000E-01      3.871484000000000E+01
4842000000.000000      3.759918000000000E-01      1.059219000000000E+02      2.414474000000000E-01     -1.203418000000000E+01      2.451477000000000E-01      1.185586000000000E+02      2.450256000000000E-01      3.741015000000000E+01
4843000000.000000      3.712769000000000E-01      1.061601000000000E+02      2.466125000000000E-01     -1.189160000000000E+01      2.501678000000000E-01      1.188555000000000E+02      2.425766000000000E-01      3.663476000000000E+01
4844000000.000000      3.656311000000000E-01      1.067031000000000E+02      2.513123000000000E-01     -1.164844000000000E+01      2.543182000000000E-01      1.191758000000000E+02      2.380524000000000E-01      3.542383000000000E+01
4845000000.000000      3.594666000000000E-01      1.072656000000000E+02      2.555847000000000E-01     -1.146436000000000E+01      2.596741000000000E-01      1.193945000000000E+02      2.373810000000000E-01      3.414648000000000E+01
4846000000.000000      3.537903000000000E-01      1.076445000000000E+02      2.614594000000000E-01     -1.126123000000000E+01      2.646027000000000E-01      1.196758000000000E+02      2.368088000000000E-01      3.298633000000000E+01
4847000000.000000      3.482666000000000E-01      1.082461000000000E+02      2.661591000000000E-01     -1.109082000000000E+01      2.692413000000000E-01      1.198633000000000E+02      2.310257000000000E-01      3.203711000000000E+01
4848000000.000000      3.415833000000000E-01      1.086133000000000E+02      2.703857000000000E-01     -1.104834000000000E+01      2.741699000000000E-01      1.201367000000000E+02      2.302399000000000E-01      3.060742000000000E+01
4849000000.000000      3.354034000000000E-01      1.089492000000000E+02      2.760925000000000E-01     -1.109082000000000E+01      2.790833000000000E-01      1.203164000000000E+02      2.279205000000000E-01      2.954492000000000E+01
4850000000.000000      3.288116000000000E-01      1.095234000000000E+02      2.812042000000000E-01     -1.105957000000000E+01      2.840118000000000E-01      1.205234000000000E+02      2.262497000000000E-01      2.822851000000000E+01
4851000000.000000      3.226166000000000E-01      1.101523000000000E+02      2.861176000000000E-01     -1.101807000000000E+01      2.886658000000000E-01      1.206719000000000E+02      2.240753000000000E-01      2.703711000000000E+01
4852000000.000000      3.163910000000000E-01      1.105000000000000E+02      2.909241000000000E-01     -1.105371000000000E+01      2.937927000000000E-01      1.208008000000000E+02      2.214966000000000E-01      2.588867000000000E+01
4853000000.000000      3.097382000000000E-01      1.110352000000000E+02      2.954407000000000E-01     -1.112402000000000E+01      2.990723000000000E-01      1.208047000000000E+02      2.187805000000000E-01      2.473926000000000E+01
4854000000.000000      3.022308000000000E-01      1.114648000000000E+02      3.000946000000000E-01     -1.133545000000000E+01      3.034058000000000E-01      1.208828000000000E+02      2.162628000000000E-01      2.358398000000000E+01
4855000000.000000      2.958374000000000E-01      1.119805000000000E+02      3.061371000000000E-01     -1.122803000000000E+01      3.088989000000000E-01      1.209609000000000E+02      2.124786000000000E-01      2.238672000000000E+01
4856000000.000000      2.889709000000000E-01      1.125430000000000E+02      3.108368000000000E-01     -1.141211000000000E+01      3.143463000000000E-01      1.211172000000000E+02      2.109375000000000E-01      2.133203000000000E+01
4857000000.000000      2.820740000000000E-01      1.130547000000000E+02      3.162842000000000E-01     -1.156885000000000E+01      3.187408000000000E-01      1.210273000000000E+02      2.073288000000000E-01      2.007422000000000E+01
4858000000.000000      2.744141000000000E-01      1.132969000000000E+02      3.208923000000000E-01     -1.176367000000000E+01      3.241425000000000E-01      1.210664000000000E+02      2.052612000000000E-01      1.867676000000000E+01
4859000000.000000      2.672577000000000E-01      1.139414000000000E+02      3.261719000000000E-01     -1.188867000000000E+01      3.278046000000000E-01      1.210586000000000E+02      2.025604000000000E-01      1.767090000000000E+01
4860000000.000000      2.610168000000000E-01      1.145937000000000E+02      3.304443000000000E-01     -1.215234000000000E+01      3.330231000000000E-01      1.209492000000000E+02      2.003860000000000E-01      1.669922000000000E+01
4861000000.000000      2.531738000000000E-01      1.150859000000000E+02      3.362579000000000E-01     -1.221826000000000E+01      3.388062000000000E-01      1.211055000000000E+02      1.966476000000000E-01      1.533252000000000E+01
4862000000.000000      2.452240000000000E-01      1.156250000000000E+02      3.418274000000000E-01     -1.253418000000000E+01      3.439331000000000E-01      1.210859000000000E+02      1.947708000000000E-01      1.407861000000000E+01
4863000000.000000      2.376633000000000E-01      1.160547000000000E+02      3.451080000000000E-01     -1.280469000000000E+01      3.487396000000000E-01      1.210039000000000E+02      1.926346000000000E-01      1.323828000000000E+01
4864000000.000000      2.307892000000000E-01      1.165937000000000E+02      3.505707000000000E-01     -1.293506000000000E+01      3.536377000000000E-01      1.208633000000000E+02      1.890793000000000E-01      1.188135000000000E+01
4865000000.000000      2.232819000000000E-01      1.171016000000000E+02      3.546600000000000E-01     -1.310986000000000E+01      3.594971000000000E-01      1.207969000000000E+02      1.877823000000000E-01      1.087207000000000E+01
4866000000.000000      2.153931000000000E-01      1.176289000000000E+02      3.598480000000000E-01     -1.359863000000000E+01      3.642731000000000E-01      1.206055000000000E+02      1.850662000000000E-01      9.593750000000000E+00
4867000000.000000      2.076721000000000E-01      1.183555000000000E+02      3.648682000000000E-01     -1.396777000000000E+01      3.681946000000000E-01      1.205351000000000E+02      1.822510000000000E-01      8.475586000000000E+00
4868000000.000000      2.004929000000000E-01      1.189063000000000E+02      3.702545000000000E-01     -1.417969000000000E+01      3.741913000000000E-01      1.203828000000000E+02      1.796417000000000E-01      7.590088000000000E+00
4869000000.000000      1.924744000000000E-01      1.194727000000000E+02      3.740845000000000E-01     -1.447217000000000E+01      3.787689000000000E-01      1.202930000000000E+02      1.764221000000000E-01      6.138428000000000E+00
4870000000.000000      1.852798000000000E-01      1.201563000000000E+02      3.788605000000000E-01     -1.466992000000000E+01      3.847351000000000E-01      1.201875000000000E+02      1.747513000000000E-01      5.201904000000000E+00
4871000000.000000      1.778183000000000E-01      1.206719000000000E+02      3.835297000000000E-01     -1.512842000000000E+01      3.887939000000000E-01      1.200898000000000E+02      1.717758000000000E-01      4.049805000000000E+00
4872000000.000000      1.704178000000000E-01      1.214961000000000E+02      3.883514000000000E-01     -1.535352000000000E+01      3.937225000000000E-01      1.196641000000000E+02      1.693954000000000E-01      3.004761000000000E+00
4873000000.000000      1.624832000000000E-01      1.222578000000000E+02      3.925323000000000E-01     -1.574365000000000E+01      3.986053000000000E-01      1.196172000000000E+02      1.660156000000000E-01      1.753662000000000E+00
4874000000.000000      1.551208000000000E-01      1.231016000000000E+02      3.969727000000000E-01     -1.629980000000000E+01      4.050446000000000E-01      1.194844000000000E+02      1.640396000000000E-01      7.347107000000000E-01
4875000000.000000      1.475525000000000E-01      1.237812000000000E+02      4.017029000000000E-01     -1.649219000000000E+01      4.087677000000000E-01      1.192773000000000E+02      1.607819000000000E-01     -3.048706000000000E-01
4876000000.000000      1.403809000000000E-01      1.245313000000000E+02      4.068146000000000E-01     -1.691015000000000E+01      4.141998000000000E-01      1.190898000000000E+02      1.586151000000000E-01     -1.483154000000000E+00
4877000000.000000      1.324921000000000E-01      1.253516000000000E+02      4.092712000000000E-01     -1.715527000000000E+01      4.202881000000000E-01      1.188359000000000E+02      1.554260000000000E-01     -2.528320000000000E+00
4878000000.000000      1.253128000000000E-01      1.266797000000000E+02      4.148254000000000E-01     -1.765137000000000E+01      4.238129000000000E-01      1.187891000000000E+02      1.534805000000000E-01     -3.536255000000000E+00
4879000000.000000      1.183205000000000E-01      1.278008000000000E+02      4.182434000000000E-01     -1.799902000000000E+01      4.291687000000000E-01      1.183164000000000E+02      1.502533000000000E-01     -4.433105000000000E+00
4880000000.000000      1.107445000000000E-01      1.287812000000000E+02      4.233246000000000E-01     -1.855469000000000E+01      4.340210000000000E-01      1.182383000000000E+02      1.475067000000000E-01     -5.362793000000000E+00
4881000000.000000      1.041298000000000E-01      1.304062000000000E+02      4.279480000000000E-01     -1.879687000000000E+01      4.389038000000000E-01      1.178555000000000E+02      1.452026000000000E-01     -6.170410000000000E+00
4882000000.000000      9.753418000000000E-02      1.314609000000000E+02      4.333038000000000E-01     -1.925000000000000E+01      4.462280000000000E-01      1.177109000000000E+02      1.422348000000000E-01     -7.126221000000000E+00
