! Network Analyzer HP8722D
! Hewlett-Packard
! Data name: Linha & Wilkinson
! Saver's name: Rodrigo Anjos
! Comments: Teste da utilização de aquisição
continua pelo VNA HP8722D
! Time and date: 25/4/2025 16:09
!              Frequency                     S11                                                   S21                                                   S12                                                   S22
# HZ  S  MA R 50
4800000000.000000      4.347534000000000E-01      9.053905000000000E+01      1.842575000000000E-01     -6.353320000000000E+01      1.896744000000000E-01      7.008203000000000E+01      2.501678000000000E-01      7.719921000000000E+01
4801000000.000000      4.379120000000000E-01      9.084764000000000E+01      1.809692000000000E-01     -6.216406000000000E+01      1.861343000000000E-01      7.086328000000000E+01      2.533112000000000E-01      7.619922000000000E+01
4802000000.000000      4.409943000000000E-01      9.107813000000000E+01      1.775665000000000E-01     -6.085351000000000E+01      1.828232000000000E-01      7.194530000000000E+01      2.565918000000000E-01      7.510937000000000E+01
4803000000.000000      4.430084000000000E-01      9.140625000000000E+01      1.745453000000000E-01     -5.966406000000000E+01      1.797867000000000E-01      7.316406000000000E+01      2.573700000000000E-01      7.496875000000000E+01
4804000000.000000      4.461365000000000E-01      9.174219000000000E+01      1.716843000000000E-01     -5.843945000000000E+01      1.772690000000000E-01      7.419531000000000E+01      2.580261000000000E-01      7.431641000000000E+01
4805000000.000000      4.486237000000000E-01      9.184765000000000E+01      1.695557000000000E-01     -5.712891000000000E+01      1.741028000000000E-01      7.546875000000000E+01      2.604675000000000E-01      7.373047000000000E+01
4806000000.000000      4.500427000000000E-01      9.222656000000000E+01      1.666183000000000E-01     -5.546288000000000E+01      1.718216000000000E-01      7.696094000000000E+01      2.608032000000000E-01      7.301562000000000E+01
4807000000.000000      4.526215000000000E-01      9.252733000000000E+01      1.647263000000000E-01     -5.418554000000000E+01      1.694412000000000E-01      7.810937000000000E+01      2.615356000000000E-01      7.180078000000000E+01
4808000000.000000      4.534760000000000E-01      9.283203000000000E+01      1.626816000000000E-01     -5.257226000000000E+01      1.672745000000000E-01      7.965625000000000E+01      2.639008000000000E-01      7.119922000000000E+01
4809000000.000000      4.541779000000000E-01      9.311718000000000E+01      1.610565000000000E-01     -5.109179000000000E+01      1.664047000000000E-01      8.118359000000000E+01      2.668304000000000E-01      7.087500000000000E+01
4810000000.000000      4.571838000000000E-01      9.341015000000000E+01      1.598206000000000E-01     -4.928320000000000E+01      1.652145000000000E-01      8.271484000000000E+01      2.652130000000000E-01      6.982031000000000E+01
4811000000.000000      4.571686000000000E-01      9.377344000000000E+01      1.587448000000000E-01     -4.767383000000000E+01      1.640472000000000E-01      8.433203000000000E+01      2.676849000000000E-01      6.939453000000000E+01
4812000000.000000      4.587097000000000E-01      9.414843000000000E+01      1.580505000000000E-01     -4.587891000000000E+01      1.630630000000000E-01      8.583593000000000E+01      2.677612000000000E-01      6.818359000000000E+01
4813000000.000000      4.582977000000000E-01      9.452343000000000E+01      1.574249000000000E-01     -4.408399000000000E+01      1.626511000000000E-01      8.753906000000000E+01      2.704468000000000E-01      6.753515000000000E+01
4814000000.000000      4.581299000000000E-01      9.474609000000000E+01      1.573181000000000E-01     -4.230469000000000E+01      1.624680000000000E-01      8.929296000000000E+01      2.688446000000000E-01      6.645312000000000E+01
4815000000.000000      4.579010000000000E-01      9.516405000000000E+01      1.574020000000000E-01     -4.073632000000000E+01      1.624832000000000E-01      9.094530000000000E+01      2.716827000000000E-01      6.571484000000000E+01
4816000000.000000      4.587250000000000E-01      9.541407000000000E+01      1.581573000000000E-01     -3.875195000000000E+01      1.632919000000000E-01      9.247656000000000E+01      2.716675000000000E-01      6.504296000000000E+01
4817000000.000000      4.577179000000000E-01      9.586718000000000E+01      1.584244000000000E-01     -3.722461000000000E+01      1.636276000000000E-01      9.400391000000000E+01      2.723846000000000E-01      6.436328000000000E+01
4818000000.000000      4.561310000000000E-01      9.621874000000000E+01      1.595383000000000E-01     -3.541601000000000E+01      1.647339000000000E-01      9.576172000000000E+01      2.711334000000000E-01      6.345898000000000E+01
4819000000.000000      4.560089000000000E-01      9.656250000000000E+01      1.607590000000000E-01     -3.368164000000000E+01      1.660080000000000E-01      9.735546000000000E+01      2.701569000000000E-01      6.266992000000000E+01
4820000000.000000      4.527588000000000E-01      9.684765000000000E+01      1.622238000000000E-01     -3.210546000000000E+01      1.677628000000000E-01      9.884766000000000E+01      2.720795000000000E-01      6.157812000000000E+01
4821000000.000000      4.534149000000000E-01      9.724609000000000E+01      1.638947000000000E-01     -3.039844000000000E+01      1.692963000000000E-01      1.002461000000000E+02      2.718658000000000E-01      6.074609000000000E+01
4822000000.000000      4.509125000000000E-01      9.756248000000000E+01      1.658478000000000E-01     -2.896582000000000E+01      1.710281000000000E-01      1.016445000000000E+02      2.712097000000000E-01      5.938086000000000E+01
4823000000.000000      4.488831000000000E-01      9.792969000000000E+01      1.684418000000000E-01     -2.754590000000000E+01      1.729813000000000E-01      1.031641000000000E+02      2.708893000000000E-01      5.832226000000000E+01
4824000000.000000      4.479065000000000E-01      9.839062000000000E+01      1.708069000000000E-01     -2.619629000000000E+01      1.760025000000000E-01      1.043594000000000E+02      2.704468000000000E-01      5.728320000000000E+01
4825000000.000000      4.444427000000000E-01      9.872656000000000E+01      1.737289000000000E-01     -2.485058000000000E+01      1.791992000000000E-01      1.056680000000000E+02      2.705383000000000E-01      5.639257000000000E+01
4826000000.000000      4.425354000000000E-01      9.911327000000000E+01      1.767349000000000E-01     -2.353320000000000E+01      1.813431000000000E-01      1.069062000000000E+02      2.687836000000000E-01      5.531445000000000E+01
4827000000.000000      4.399567000000000E-01      9.949608000000000E+01      1.793289000000000E-01     -2.228613000000000E+01      1.847000000000000E-01      1.079570000000000E+02      2.675934000000000E-01      5.426952000000000E+01
4828000000.000000      4.376984000000000E-01      9.992188000000000E+01      1.834564000000000E-01     -2.106152000000000E+01      1.878738000000000E-01      1.090703000000000E+02      2.662659000000000E-01      5.288867000000000E+01
4829000000.000000      4.336700000000000E-01      1.004648000000000E+02      1.861420000000000E-01     -2.006934000000000E+01      1.914749000000000E-01      1.101914000000000E+02      2.673798000000000E-01      5.210546000000000E+01
4830000000.000000      4.304504000000000E-01      1.007422000000000E+02      1.901016000000000E-01     -1.922754000000000E+01      1.947327000000000E-01      1.110703000000000E+02      2.646332000000000E-01      5.112305000000000E+01
4831000000.000000      4.263000000000000E-01      1.011172000000000E+02      1.936417000000000E-01     -1.826269000000000E+01      1.986160000000000E-01      1.120625000000000E+02      2.623749000000000E-01      4.979492000000000E+01
4832000000.000000      4.231873000000000E-01      1.016640000000000E+02      1.974182000000000E-01     -1.735156000000000E+01      2.021942000000000E-01      1.129219000000000E+02      2.628174000000000E-01      4.905859000000000E+01
4833000000.000000      4.189301000000000E-01      1.019844000000000E+02      2.012863000000000E-01     -1.647754000000000E+01      2.062759000000000E-01      1.136172000000000E+02      2.592926000000000E-01      4.776367000000000E+01
4834000000.000000      4.148560000000000E-01      1.024453000000000E+02      2.051315000000000E-01     -1.587939000000000E+01      2.105179000000000E-01      1.143672000000000E+02      2.584076000000000E-01      4.672656000000000E+01
4835000000.000000      4.109344000000000E-01      1.028320000000000E+02      2.099304000000000E-01     -1.530713000000000E+01      2.148895000000000E-01      1.150234000000000E+02      2.572327000000000E-01      4.526757000000000E+01
4836000000.000000      4.071045000000000E-01      1.032969000000000E+02      2.141037000000000E-01     -1.454590000000000E+01      2.189026000000000E-01      1.158203000000000E+02      2.548828000000000E-01      4.430078000000000E+01
4837000000.000000      4.013824000000000E-01      1.037226000000000E+02      2.185059000000000E-01     -1.417383000000000E+01      2.229385000000000E-01      1.161797000000000E+02      2.545166000000000E-01      4.334180000000000E+01
4838000000.000000      3.963928000000000E-01      1.041523000000000E+02      2.232971000000000E-01     -1.339551000000000E+01      2.274170000000000E-01      1.168047000000000E+02      2.525635000000000E-01      4.208984000000000E+01
4839000000.000000      3.931427000000000E-01      1.046523000000000E+02      2.276382000000000E-01     -1.303711000000000E+01      2.320251000000000E-01      1.172852000000000E+02      2.495346000000000E-01      4.077538000000000E+01
4840000000.000000      3.867188000000000E-01      1.050859000000000E+02      2.322006000000000E-01     -1.274707000000000E+01      2.364883000000000E-01      1.177305000000000E+02      2.475433000000000E-01      3.977734000000000E+01
4841000000.000000      3.824310000000000E-01      1.055312000000000E+02      2.374191000000000E-01     -1.242725000000000E+01      2.414246000000000E-01      1.181875000000000E+02      2.468338000000000E-01      3.860156000000000E+01
4842000000.000000      3.766022000000000E-01      1.059883000000000E+02      2.417603000000000E-01     -1.197656000000000E+01      2.454681000000000E-01      1.185547000000000E+02      2.449951000000000E-01      3.746484000000000E+01
4843000000.000000      3.709412000000000E-01      1.062734000000000E+02      2.468567000000000E-01     -1.176953000000000E+01      2.505035000000000E-01      1.189219000000000E+02      2.422104000000000E-01      3.646875000000000E+01
4844000000.000000      3.656006000000000E-01      1.067305000000000E+02      2.511444000000000E-01     -1.162646000000000E+01      2.546692000000000E-01      1.191797000000000E+02      2.386932000000000E-01      3.510351000000000E+01
4845000000.000000      3.595886000000000E-01      1.073906000000000E+02      2.562256000000000E-01     -1.137500000000000E+01      2.595825000000000E-01      1.194570000000000E+02      2.375488000000000E-01      3.403515000000000E+01
4846000000.000000      3.536224000000000E-01      1.077187000000000E+02      2.612610000000000E-01     -1.122412000000000E+01      2.653351000000000E-01      1.197305000000000E+02      2.362518000000000E-01      3.272265000000000E+01
4847000000.000000      3.484955000000000E-01      1.083672000000000E+02      2.662811000000000E-01     -1.111035000000000E+01      2.697296000000000E-01      1.198789000000000E+02      2.325592000000000E-01      3.153711000000000E+01
4848000000.000000      3.419342000000000E-01      1.087734000000000E+02      2.708893000000000E-01     -1.097852000000000E+01      2.747040000000000E-01      1.201484000000000E+02      2.310791000000000E-01      3.060351000000000E+01
4849000000.000000      3.354645000000000E-01      1.091016000000000E+02      2.763977000000000E-01     -1.097021000000000E+01      2.795258000000000E-01      1.202851000000000E+02      2.278061000000000E-01      2.940820000000000E+01
4850000000.000000      3.287659000000000E-01      1.096094000000000E+02      2.813416000000000E-01     -1.103027000000000E+01      2.847900000000000E-01      1.204570000000000E+02      2.242737000000000E-01      2.832812000000000E+01
4851000000.000000      3.232117000000000E-01      1.102148000000000E+02      2.867432000000000E-01     -1.098096000000000E+01      2.889709000000000E-01      1.206641000000000E+02      2.233963000000000E-01      2.709473000000000E+01
4852000000.000000      3.167114000000000E-01      1.106875000000000E+02      2.906647000000000E-01     -1.090820000000000E+01      2.942657000000000E-01      1.209141000000000E+02      2.219543000000000E-01      2.580664000000000E+01
4853000000.000000      3.100433000000000E-01      1.111562000000000E+02      2.950745000000000E-01     -1.104541000000000E+01      2.990723000000000E-01      1.208789000000000E+02      2.177124000000000E-01      2.447168000000000E+01
4854000000.000000      3.023529000000000E-01      1.115273000000000E+02      3.005066000000000E-01     -1.117725000000000E+01      3.040009000000000E-01      1.209766000000000E+02      2.159500000000000E-01      2.344433000000000E+01
4855000000.000000      2.966003000000000E-01      1.120508000000000E+02      3.058777000000000E-01     -1.129395000000000E+01      3.091888000000000E-01      1.209922000000000E+02      2.122040000000000E-01      2.244043000000000E+01
4856000000.000000      2.894745000000000E-01      1.126445000000000E+02      3.106232000000000E-01     -1.138330000000000E+01      3.142853000000000E-01      1.210078000000000E+02      2.102356000000000E-01      2.129101000000000E+01
4857000000.000000      2.826385000000000E-01      1.131641000000000E+02      3.164063000000000E-01     -1.146875000000000E+01      3.189087000000000E-01      1.211133000000000E+02      2.075272000000000E-01      2.007519000000000E+01
4858000000.000000      2.749481000000000E-01      1.134375000000000E+02      3.211060000000000E-01     -1.171729000000000E+01      3.239441000000000E-01      1.210430000000000E+02      2.049866000000000E-01      1.875586000000000E+01
4859000000.000000      2.682800000000000E-01      1.140117000000000E+02      3.264618000000000E-01     -1.183936000000000E+01      3.289490000000000E-01      1.210547000000000E+02      2.025146000000000E-01      1.754102000000000E+01
4860000000.000000      2.612152000000000E-01      1.146445000000000E+02      3.307648000000000E-01     -1.206445000000000E+01      3.340149000000000E-01      1.211250000000000E+02      1.997604000000000E-01      1.646094000000000E+01
4861000000.000000      2.531891000000000E-01      1.152461000000000E+02      3.362122000000000E-01     -1.235596000000000E+01      3.389587000000000E-01      1.210703000000000E+02      1.963272000000000E-01      1.521045000000000E+01
4862000000.000000      2.458725000000000E-01      1.157265000000000E+02      3.415680000000000E-01     -1.247510000000000E+01      3.443451000000000E-01      1.210469000000000E+02      1.946259000000000E-01      1.406787000000000E+01
4863000000.000000      2.381897000000000E-01      1.162773000000000E+02      3.452301000000000E-01     -1.282129000000000E+01      3.495026000000000E-01      1.209805000000000E+02      1.922607000000000E-01      1.310938000000000E+01
4864000000.000000      2.312622000000000E-01      1.167773000000000E+02      3.508911000000000E-01     -1.296826000000000E+01      3.544922000000000E-01      1.208672000000000E+02      1.890030000000000E-01      1.177979000000000E+01
4865000000.000000      2.234573000000000E-01      1.171641000000000E+02      3.550568000000000E-01     -1.316309000000000E+01      3.591156000000000E-01      1.207109000000000E+02      1.873627000000000E-01      1.075684000000000E+01
4866000000.000000      2.154465000000000E-01      1.177891000000000E+02      3.594208000000000E-01     -1.368213000000000E+01      3.652191000000000E-01      1.206250000000000E+02      1.846924000000000E-01      9.581055000000000E+00
4867000000.000000      2.084045000000000E-01      1.184922000000000E+02      3.644714000000000E-01     -1.387988000000000E+01      3.694763000000000E-01      1.206055000000000E+02      1.821518000000000E-01      8.387695000000000E+00
4868000000.000000      2.009964000000000E-01      1.189961000000000E+02      3.695374000000000E-01     -1.423145000000000E+01      3.740540000000000E-01      1.203984000000000E+02      1.788406000000000E-01      7.293457000000000E+00
4869000000.000000      1.925583000000000E-01      1.196484000000000E+02      3.741302000000000E-01     -1.449414000000000E+01      3.794861000000000E-01      1.203086000000000E+02      1.764297000000000E-01      6.200195000000000E+00
4870000000.000000      1.859665000000000E-01      1.202344000000000E+02      3.784943000000000E-01     -1.471924000000000E+01      3.847046000000000E-01      1.201523000000000E+02      1.736450000000000E-01      5.266357000000000E+00
4871000000.000000      1.783142000000000E-01      1.209453000000000E+02      3.835907000000000E-01     -1.510645000000000E+01      3.890533000000000E-01      1.200586000000000E+02      1.707916000000000E-01      3.874023000000000E+00
4872000000.000000      1.710815000000000E-01      1.216445000000000E+02      3.878632000000000E-01     -1.532910000000000E+01      3.938904000000000E-01      1.197383000000000E+02      1.691589000000000E-01      2.964844000000000E+00
4873000000.000000      1.632385000000000E-01      1.225312000000000E+02      3.925171000000000E-01     -1.580957000000000E+01      3.995361000000000E-01      1.197187000000000E+02      1.657486000000000E-01      1.605347000000000E+00
4874000000.000000      1.554031000000000E-01      1.231875000000000E+02      3.978119000000000E-01     -1.625488000000000E+01      4.058685000000000E-01      1.194805000000000E+02      1.636429000000000E-01      6.729126000000000E-01
4875000000.000000      1.481705000000000E-01      1.240039000000000E+02      4.023590000000000E-01     -1.652832000000000E+01      4.089813000000000E-01      1.194141000000000E+02      1.606979000000000E-01     -3.666687000000000E-01
4876000000.000000      1.410828000000000E-01      1.248086000000000E+02      4.065247000000000E-01     -1.691797000000000E+01      4.148712000000000E-01      1.189883000000000E+02      1.580200000000000E-01     -1.639709000000000E+00
4877000000.000000      1.331253000000000E-01      1.255664000000000E+02      4.105377000000000E-01     -1.732324000000000E+01      4.199829000000000E-01      1.188867000000000E+02      1.559067000000000E-01     -2.473389000000000E+00
4878000000.000000      1.258163000000000E-01      1.268359000000000E+02      4.161072000000000E-01     -1.768164000000000E+01      4.236298000000000E-01      1.187539000000000E+02      1.527481000000000E-01     -3.518433000000000E+00
4879000000.000000      1.193275000000000E-01      1.279102000000000E+02      4.189148000000000E-01     -1.802930000000000E+01      4.288025000000000E-01      1.183906000000000E+02      1.502762000000000E-01     -4.455078000000000E+00
4880000000.000000      1.112442000000000E-01      1.289453000000000E+02      4.245758000000000E-01     -1.851660000000000E+01      4.343414000000000E-01      1.181523000000000E+02      1.480103000000000E-01     -5.415039000000000E+00
4881000000.000000      1.046333000000000E-01      1.306015000000000E+02      4.294128000000000E-01     -1.875586000000000E+01      4.390411000000000E-01      1.178437000000000E+02      1.445160000000000E-01     -6.421631000000000E+00
4882000000.000000      9.794998000000000E-02      1.317422000000000E+02      4.330750000000000E-01     -1.929394000000000E+01      4.457092000000000E-01      1.177500000000000E+02      1.424484000000000E-01     -7.156250000000000E+00
