! Network Analyzer HP8722D
! Hewlett-Packard
! Data name: Linha & Wilkinson
! Saver's name: Rodrigo Anjos
! Comments: Teste da utilização de aquisição
continua pelo VNA HP8722D
! Time and date: 25/4/2025 15:56
!              Frequency                     S11                                                   S21                                                   S12                                                   S22
# HZ  S  MA R 50
4800000000.000000      4.342194000000000E-01      9.064062000000000E+01      1.856461000000000E-01     -6.358203000000000E+01      1.908035000000000E-01      6.978125000000000E+01      2.512360000000000E-01      7.705468000000000E+01
4801000000.000000      4.376526000000000E-01      9.087500000000000E+01      1.819534000000000E-01     -6.257030000000000E+01      1.872787000000000E-01      7.057422000000000E+01      2.531281000000000E-01      7.671875000000000E+01
4802000000.000000      4.404449000000000E-01      9.119532000000000E+01      1.779633000000000E-01     -6.128711000000000E+01      1.840515000000000E-01      7.157421000000000E+01      2.557068000000000E-01      7.545703000000000E+01
4803000000.000000      4.425507000000000E-01      9.139843000000000E+01      1.759491000000000E-01     -5.999609000000000E+01      1.805725000000000E-01      7.285937000000000E+01      2.565460000000000E-01      7.527734000000000E+01
4804000000.000000      4.456940000000000E-01      9.169531000000000E+01      1.727142000000000E-01     -5.890625000000000E+01      1.778183000000000E-01      7.385937000000000E+01      2.595978000000000E-01      7.418750000000000E+01
4805000000.000000      4.486237000000000E-01      9.185938000000000E+01      1.695938000000000E-01     -5.732031000000000E+01      1.744995000000000E-01      7.505077000000000E+01      2.603912000000000E-01      7.348437000000000E+01
4806000000.000000      4.501953000000000E-01      9.222265000000000E+01      1.672821000000000E-01     -5.614062000000000E+01      1.721420000000000E-01      7.650781000000000E+01      2.633362000000000E-01      7.283593000000000E+01
4807000000.000000      4.519806000000000E-01      9.244532000000000E+01      1.651993000000000E-01     -5.452734000000000E+01      1.698456000000000E-01      7.781640000000000E+01      2.635651000000000E-01      7.211328000000000E+01
4808000000.000000      4.531555000000000E-01      9.279297000000000E+01      1.632919000000000E-01     -5.308984000000000E+01      1.679535000000000E-01      7.918750000000000E+01      2.646637000000000E-01      7.165625000000000E+01
4809000000.000000      4.551392000000000E-01      9.311327000000000E+01      1.619949000000000E-01     -5.159765000000000E+01      1.666031000000000E-01      8.068359000000000E+01      2.652130000000000E-01      7.136328000000000E+01
4810000000.000000      4.560089000000000E-01      9.343750000000000E+01      1.602020000000000E-01     -4.966406000000000E+01      1.649094000000000E-01      8.232031000000000E+01      2.665558000000000E-01      6.984765000000000E+01
4811000000.000000      4.572296000000000E-01      9.380859000000000E+01      1.589584000000000E-01     -4.812695000000000E+01      1.640854000000000E-01      8.388672000000000E+01      2.690277000000000E-01      6.969140000000000E+01
4812000000.000000      4.575195000000000E-01      9.419922000000000E+01      1.582642000000000E-01     -4.627343000000000E+01      1.632385000000000E-01      8.535936000000000E+01      2.672882000000000E-01      6.867188000000000E+01
4813000000.000000      4.583130000000000E-01      9.455858000000000E+01      1.575012000000000E-01     -4.466406000000000E+01      1.626282000000000E-01      8.721094000000000E+01      2.706451000000000E-01      6.802734000000000E+01
4814000000.000000      4.573669000000000E-01      9.476954000000000E+01      1.571579000000000E-01     -4.263672000000000E+01      1.624222000000000E-01      8.887110000000000E+01      2.694092000000000E-01      6.727734000000000E+01
4815000000.000000      4.573517000000000E-01      9.510157000000000E+01      1.566544000000000E-01     -4.090429000000000E+01      1.623383000000000E-01      9.044140000000000E+01      2.703400000000000E-01      6.596093000000000E+01
4816000000.000000      4.588776000000000E-01      9.547655000000000E+01      1.577759000000000E-01     -3.911523000000000E+01      1.633530000000000E-01      9.210155000000000E+01      2.714844000000000E-01      6.503906000000000E+01
4817000000.000000      4.572601000000000E-01      9.588282000000000E+01      1.585312000000000E-01     -3.761914000000000E+01      1.633835000000000E-01      9.366796000000000E+01      2.731171000000000E-01      6.473046000000000E+01
4818000000.000000      4.566650000000000E-01      9.612108000000000E+01      1.593170000000000E-01     -3.561523000000000E+01      1.646652000000000E-01      9.535936000000000E+01      2.728119000000000E-01      6.350586000000000E+01
4819000000.000000      4.561768000000000E-01      9.643358000000000E+01      1.600723000000000E-01     -3.422461000000000E+01      1.657867000000000E-01      9.684765000000000E+01      2.716370000000000E-01      6.275781000000000E+01
4820000000.000000      4.524841000000000E-01      9.694921000000000E+01      1.615372000000000E-01     -3.242188000000000E+01      1.671982000000000E-01      9.848045000000000E+01      2.719116000000000E-01      6.173046000000000E+01
4821000000.000000      4.536438000000000E-01      9.727734000000000E+01      1.642456000000000E-01     -3.099414000000000E+01      1.686859000000000E-01      9.987890000000000E+01      2.722778000000000E-01      6.096484000000000E+01
4822000000.000000      4.509277000000000E-01      9.748827000000000E+01      1.653519000000000E-01     -2.945117000000000E+01      1.704330000000000E-01      1.013164000000000E+02      2.712250000000000E-01      5.967187000000000E+01
4823000000.000000      4.492950000000000E-01      9.796093000000000E+01      1.679077000000000E-01     -2.780176000000000E+01      1.726379000000000E-01      1.029453000000000E+02      2.700958000000000E-01      5.856250000000000E+01
4824000000.000000      4.476471000000000E-01      9.841015000000000E+01      1.701508000000000E-01     -2.662012000000000E+01      1.752625000000000E-01      1.040078000000000E+02      2.704620000000000E-01      5.780859000000000E+01
4825000000.000000      4.449310000000000E-01      9.869141000000000E+01      1.726303000000000E-01     -2.498340000000000E+01      1.783142000000000E-01      1.054180000000000E+02      2.697296000000000E-01      5.653906000000000E+01
4826000000.000000      4.426880000000000E-01      9.912109000000000E+01      1.757507000000000E-01     -2.380078000000000E+01      1.804199000000000E-01      1.065898000000000E+02      2.684174000000000E-01      5.550390000000000E+01
4827000000.000000      4.399872000000000E-01      9.954687000000000E+01      1.787186000000000E-01     -2.259961000000000E+01      1.837921000000000E-01      1.076797000000000E+02      2.683868000000000E-01      5.436328000000000E+01
4828000000.000000      4.381714000000000E-01      9.991796000000000E+01      1.819077000000000E-01     -2.129981000000000E+01      1.868439000000000E-01      1.088242000000000E+02      2.667694000000000E-01      5.351953000000000E+01
4829000000.000000      4.332123000000000E-01      1.003789000000000E+02      1.855774000000000E-01     -2.031836000000000E+01      1.908112000000000E-01      1.099336000000000E+02      2.668915000000000E-01      5.233593000000000E+01
4830000000.000000      4.307861000000000E-01      1.007383000000000E+02      1.891098000000000E-01     -1.939453000000000E+01      1.940002000000000E-01      1.109141000000000E+02      2.652740000000000E-01      5.140038000000000E+01
4831000000.000000      4.266815000000000E-01      1.010820000000000E+02      1.924820000000000E-01     -1.840918000000000E+01      1.977844000000000E-01      1.118828000000000E+02      2.634583000000000E-01      5.004492000000000E+01
4832000000.000000      4.234161000000000E-01      1.015391000000000E+02      1.965332000000000E-01     -1.748242000000000E+01      2.014160000000000E-01      1.127070000000000E+02      2.611847000000000E-01      4.960742000000000E+01
4833000000.000000      4.189911000000000E-01      1.019570000000000E+02      2.005768000000000E-01     -1.669922000000000E+01      2.055130000000000E-01      1.133906000000000E+02      2.593384000000000E-01      4.832031000000000E+01
4834000000.000000      4.155731000000000E-01      1.023516000000000E+02      2.044907000000000E-01     -1.598828000000000E+01      2.097702000000000E-01      1.142109000000000E+02      2.604980000000000E-01      4.670312000000000E+01
4835000000.000000      4.105072000000000E-01      1.026992000000000E+02      2.086487000000000E-01     -1.531787000000000E+01      2.137756000000000E-01      1.149453000000000E+02      2.576294000000000E-01      4.576172000000000E+01
4836000000.000000      4.069672000000000E-01      1.032383000000000E+02      2.132187000000000E-01     -1.482373000000000E+01      2.178650000000000E-01      1.156562000000000E+02      2.552490000000000E-01      4.489843000000000E+01
4837000000.000000      4.019318000000000E-01      1.037734000000000E+02      2.172165000000000E-01     -1.434424000000000E+01      2.219162000000000E-01      1.160586000000000E+02      2.535858000000000E-01      4.371679000000000E+01
4838000000.000000      3.966064000000000E-01      1.041094000000000E+02      2.218704000000000E-01     -1.363281000000000E+01      2.263794000000000E-01      1.167773000000000E+02      2.521973000000000E-01      4.252149000000000E+01
4839000000.000000      3.931885000000000E-01      1.046289000000000E+02      2.265091000000000E-01     -1.318359000000000E+01      2.307587000000000E-01      1.171367000000000E+02      2.512817000000000E-01      4.130664000000000E+01
4840000000.000000      3.873749000000000E-01      1.049648000000000E+02      2.307510000000000E-01     -1.268262000000000E+01      2.355499000000000E-01      1.176563000000000E+02      2.470093000000000E-01      3.995312000000000E+01
4841000000.000000      3.828125000000000E-01      1.055000000000000E+02      2.361145000000000E-01     -1.243555000000000E+01      2.399063000000000E-01      1.181094000000000E+02      2.483444000000000E-01      3.880468000000000E+01
4842000000.000000      3.765259000000000E-01      1.059531000000000E+02      2.406769000000000E-01     -1.210010000000000E+01      2.442322000000000E-01      1.186016000000000E+02      2.456589000000000E-01      3.762500000000000E+01
4843000000.000000      3.717041000000000E-01      1.062148000000000E+02      2.460709000000000E-01     -1.191748000000000E+01      2.492752000000000E-01      1.188672000000000E+02      2.432556000000000E-01      3.689453000000000E+01
4844000000.000000      3.658905000000000E-01      1.067617000000000E+02      2.506104000000000E-01     -1.164551000000000E+01      2.535095000000000E-01      1.191055000000000E+02      2.389297000000000E-01      3.568750000000000E+01
4845000000.000000      3.595734000000000E-01      1.072812000000000E+02      2.550659000000000E-01     -1.145605000000000E+01      2.588043000000000E-01      1.194375000000000E+02      2.389603000000000E-01      3.424219000000000E+01
4846000000.000000      3.539124000000000E-01      1.076719000000000E+02      2.600250000000000E-01     -1.120605000000000E+01      2.640076000000000E-01      1.197422000000000E+02      2.355728000000000E-01      3.335156000000000E+01
4847000000.000000      3.484192000000000E-01      1.082813000000000E+02      2.647552000000000E-01     -1.118311000000000E+01      2.689819000000000E-01      1.199219000000000E+02      2.316666000000000E-01      3.190430000000000E+01
4848000000.000000      3.417664000000000E-01      1.086055000000000E+02      2.700195000000000E-01     -1.097949000000000E+01      2.732391000000000E-01      1.202148000000000E+02      2.298508000000000E-01      3.078906000000000E+01
4849000000.000000      3.357086000000000E-01      1.089961000000000E+02      2.747040000000000E-01     -1.107568000000000E+01      2.781982000000000E-01      1.203516000000000E+02      2.269669000000000E-01      2.978320000000000E+01
4850000000.000000      3.292084000000000E-01      1.095195000000000E+02      2.799530000000000E-01     -1.104443000000000E+01      2.834015000000000E-01      1.204609000000000E+02      2.251816000000000E-01      2.853516000000000E+01
4851000000.000000      3.228760000000000E-01      1.102500000000000E+02      2.854919000000000E-01     -1.094678000000000E+01      2.879944000000000E-01      1.205937000000000E+02      2.242279000000000E-01      2.739551000000000E+01
4852000000.000000      3.164215000000000E-01      1.105469000000000E+02      2.898560000000000E-01     -1.101807000000000E+01      2.926636000000000E-01      1.207930000000000E+02      2.207336000000000E-01      2.601074000000000E+01
4853000000.000000      3.100433000000000E-01      1.111172000000000E+02      2.937012000000000E-01     -1.102246000000000E+01      2.981567000000000E-01      1.208906000000000E+02      2.179489000000000E-01      2.459473000000000E+01
4854000000.000000      3.032837000000000E-01      1.114531000000000E+02      2.994995000000000E-01     -1.116504000000000E+01      3.027496000000000E-01      1.209101000000000E+02      2.172852000000000E-01      2.369043000000000E+01
4855000000.000000      2.964935000000000E-01      1.119492000000000E+02      3.048401000000000E-01     -1.130908000000000E+01      3.078003000000000E-01      1.209844000000000E+02      2.126999000000000E-01      2.274121000000000E+01
4856000000.000000      2.899628000000000E-01      1.125586000000000E+02      3.100586000000000E-01     -1.135303000000000E+01      3.126831000000000E-01      1.210859000000000E+02      2.111588000000000E-01      2.160156000000000E+01
4857000000.000000      2.824554000000000E-01      1.130273000000000E+02      3.150177000000000E-01     -1.140967000000000E+01      3.180695000000000E-01      1.211133000000000E+02      2.070160000000000E-01      2.033886000000000E+01
4858000000.000000      2.746735000000000E-01      1.132227000000000E+02      3.196716000000000E-01     -1.161133000000000E+01      3.227386000000000E-01      1.211367000000000E+02      2.054443000000000E-01      1.893457000000000E+01
4859000000.000000      2.682800000000000E-01      1.138828000000000E+02      3.250885000000000E-01     -1.178027000000000E+01      3.279114000000000E-01      1.211484000000000E+02      2.034302000000000E-01      1.761230000000000E+01
4860000000.000000      2.608490000000000E-01      1.144765000000000E+02      3.299255000000000E-01     -1.198242000000000E+01      3.324127000000000E-01      1.210781000000000E+02      2.005997000000000E-01      1.671777000000000E+01
4861000000.000000      2.535858000000000E-01      1.150820000000000E+02      3.347015000000000E-01     -1.222510000000000E+01      3.383636000000000E-01      1.210976000000000E+02      1.973038000000000E-01      1.558936000000000E+01
4862000000.000000      2.454834000000000E-01      1.155976000000000E+02      3.409729000000000E-01     -1.238574000000000E+01      3.432159000000000E-01      1.211250000000000E+02      1.949463000000000E-01      1.434229000000000E+01
4863000000.000000      2.384949000000000E-01      1.160390000000000E+02      3.434906000000000E-01     -1.273633000000000E+01      3.478699000000000E-01      1.209648000000000E+02      1.928864000000000E-01      1.324805000000000E+01
4864000000.000000      2.311096000000000E-01      1.165859000000000E+02      3.493805000000000E-01     -1.279932000000000E+01      3.526764000000000E-01      1.209375000000000E+02      1.899872000000000E-01      1.198193000000000E+01
4865000000.000000      2.236404000000000E-01      1.170351000000000E+02      3.541565000000000E-01     -1.317432000000000E+01      3.575745000000000E-01      1.208672000000000E+02      1.879883000000000E-01      1.079932000000000E+01
4866000000.000000      2.158508000000000E-01      1.175781000000000E+02      3.583984000000000E-01     -1.343115000000000E+01      3.630371000000000E-01      1.205976000000000E+02      1.855011000000000E-01      9.670410000000000E+00
4867000000.000000      2.083511000000000E-01      1.182773000000000E+02      3.639832000000000E-01     -1.395410000000000E+01      3.677368000000000E-01      1.206406000000000E+02      1.827621000000000E-01      8.669434000000000E+00
4868000000.000000      2.012329000000000E-01      1.188594000000000E+02      3.685455000000000E-01     -1.409717000000000E+01      3.736420000000000E-01      1.205898000000000E+02      1.797409000000000E-01      7.569580000000000E+00
4869000000.000000      1.931229000000000E-01      1.195195000000000E+02      3.726196000000000E-01     -1.445557000000000E+01      3.781891000000000E-01      1.204102000000000E+02      1.766281000000000E-01      6.296387000000000E+00
4870000000.000000      1.857529000000000E-01      1.200742000000000E+02      3.786316000000000E-01     -1.448438000000000E+01      3.840027000000000E-01      1.202383000000000E+02      1.745834000000000E-01      5.300781000000000E+00
4871000000.000000      1.781769000000000E-01      1.207187000000000E+02      3.824615000000000E-01     -1.507227000000000E+01      3.881836000000000E-01      1.200664000000000E+02      1.722870000000000E-01      4.184326000000000E+00
4872000000.000000      1.707077000000000E-01      1.213828000000000E+02      3.864136000000000E-01     -1.519971000000000E+01      3.930054000000000E-01      1.198633000000000E+02      1.697235000000000E-01      3.434570000000000E+00
4873000000.000000      1.630936000000000E-01      1.220898000000000E+02      3.919220000000000E-01     -1.566943000000000E+01      3.969727000000000E-01      1.197773000000000E+02      1.667480000000000E-01      2.068115000000000E+00
4874000000.000000      1.552734000000000E-01      1.230039000000000E+02      3.957367000000000E-01     -1.613574000000000E+01      4.042664000000000E-01      1.195742000000000E+02      1.647110000000000E-01      8.528137000000000E-01
4875000000.000000      1.478043000000000E-01      1.238828000000000E+02      4.007111000000000E-01     -1.637305000000000E+01      4.076385000000000E-01      1.194219000000000E+02      1.614380000000000E-01      5.355835000000000E-02
4876000000.000000      1.408768000000000E-01      1.245195000000000E+02      4.053040000000000E-01     -1.687109000000000E+01      4.137421000000000E-01      1.191562000000000E+02      1.593094000000000E-01     -1.229126000000000E+00
4877000000.000000      1.326828000000000E-01      1.253750000000000E+02      4.105530000000000E-01     -1.720801000000000E+01      4.187164000000000E-01      1.189180000000000E+02      1.566696000000000E-01     -2.117676000000000E+00
4878000000.000000      1.255341000000000E-01      1.264766000000000E+02      4.152985000000000E-01     -1.770215000000000E+01      4.232178000000000E-01      1.186836000000000E+02      1.532135000000000E-01     -3.282227000000000E+00
4879000000.000000      1.187363000000000E-01      1.275742000000000E+02      4.185181000000000E-01     -1.792285000000000E+01      4.280090000000000E-01      1.185234000000000E+02      1.513901000000000E-01     -4.277832000000000E+00
4880000000.000000      1.108589000000000E-01      1.287812000000000E+02      4.231720000000000E-01     -1.844141000000000E+01      4.331818000000000E-01      1.182851000000000E+02      1.484833000000000E-01     -5.371094000000000E+00
4881000000.000000      1.044312000000000E-01      1.302578000000000E+02      4.275360000000000E-01     -1.875586000000000E+01      4.385376000000000E-01      1.179102000000000E+02      1.456604000000000E-01     -6.120850000000000E+00
4882000000.000000      9.715652000000000E-02      1.311172000000000E+02      4.323578000000000E-01     -1.918164000000000E+01      4.433899000000000E-01      1.178008000000000E+02      1.428604000000000E-01     -6.965332000000000E+00
