! Network Analyzer HP8722D
! Hewlett-Packard
! Data name: Linha & Wilkinson
! Saver's name: Rodrigo Anjos
! Comments: Teste da utilização de aquisição
continua pelo VNA HP8722D
! Time and date: 17/4/2025 15:26
!              Frequency                     S11                                                   S21                                                   S12                                                   S22
# HZ  S  MA R 50
4800000000.000000      3.346252000000000E-01     -1.144375000000000E+02      2.973480000000000E-01     -6.113086000000000E+01      2.915344000000000E-01     -1.753438000000000E+02      6.567688000000000E-01     -9.042578000000000E+01
4801000000.000000      3.335114000000000E-01     -1.153906000000000E+02      3.019867000000000E-01     -6.131054000000000E+01      2.950287000000000E-01     -1.754219000000000E+02      6.549988000000000E-01     -9.049219000000000E+01
4802000000.000000      3.326263000000000E-01     -1.164219000000000E+02      3.058319000000000E-01     -6.139453000000000E+01      2.997589000000000E-01     -1.751797000000000E+02      6.543884000000000E-01     -9.046875000000000E+01
4803000000.000000      3.317413000000000E-01     -1.174141000000000E+02      3.114624000000000E-01     -6.144531000000000E+01      3.032837000000000E-01     -1.751875000000000E+02      6.540222000000000E-01     -9.077343000000000E+01
4804000000.000000      3.318939000000000E-01     -1.184453000000000E+02      3.158264000000000E-01     -6.163867000000000E+01      3.077850000000000E-01     -1.752266000000000E+02      6.530151000000000E-01     -9.073437000000000E+01
4805000000.000000      3.321228000000000E-01     -1.194492000000000E+02      3.198242000000000E-01     -6.182617000000000E+01      3.113251000000000E-01     -1.750000000000000E+02      6.520996000000000E-01     -9.096874000000000E+01
4806000000.000000      3.311768000000000E-01     -1.203594000000000E+02      3.249359000000000E-01     -6.192773000000000E+01      3.150330000000000E-01     -1.747578000000000E+02      6.528320000000000E-01     -9.099218000000000E+01
4807000000.000000      3.314056000000000E-01     -1.214766000000000E+02      3.287201000000000E-01     -6.227539000000000E+01      3.193054000000000E-01     -1.748203000000000E+02      6.510315000000000E-01     -9.103516000000000E+01
4808000000.000000      3.321381000000000E-01     -1.225391000000000E+02      3.330383000000000E-01     -6.213476000000000E+01      3.227234000000000E-01     -1.747422000000000E+02      6.502075000000000E-01     -9.113281000000000E+01
4809000000.000000      3.323669000000000E-01     -1.236133000000000E+02      3.375549000000000E-01     -6.270117000000000E+01      3.274231000000000E-01     -1.748281000000000E+02      6.500549000000000E-01     -9.126171000000000E+01
4810000000.000000      3.329620000000000E-01     -1.247656000000000E+02      3.422089000000000E-01     -6.268555000000000E+01      3.316956000000000E-01     -1.747422000000000E+02      6.501160000000000E-01     -9.132421000000000E+01
4811000000.000000      3.343048000000000E-01     -1.258008000000000E+02      3.456879000000000E-01     -6.293359000000000E+01      3.367920000000000E-01     -1.745859000000000E+02      6.490479000000000E-01     -9.137110000000000E+01
4812000000.000000      3.358154000000000E-01     -1.267617000000000E+02      3.498688000000000E-01     -6.334179000000000E+01      3.394165000000000E-01     -1.746172000000000E+02      6.496887000000000E-01     -9.144140000000000E+01
4813000000.000000      3.368073000000000E-01     -1.278828000000000E+02      3.535767000000000E-01     -6.349414000000000E+01      3.422241000000000E-01     -1.744219000000000E+02      6.500854000000000E-01     -9.151562000000000E+01
4814000000.000000      3.376312000000000E-01     -1.290859000000000E+02      3.578033000000000E-01     -6.366992000000000E+01      3.473663000000000E-01     -1.745312000000000E+02      6.495972000000000E-01     -9.169922000000000E+01
4815000000.000000      3.397522000000000E-01     -1.301016000000000E+02      3.613739000000000E-01     -6.376562000000000E+01      3.506927000000000E-01     -1.744453000000000E+02      6.488342000000000E-01     -9.158203000000000E+01
4816000000.000000      3.416290000000000E-01     -1.311719000000000E+02      3.659058000000000E-01     -6.403906000000000E+01      3.550110000000000E-01     -1.743750000000000E+02      6.492310000000000E-01     -9.170313000000000E+01
4817000000.000000      3.447571000000000E-01     -1.322266000000000E+02      3.695221000000000E-01     -6.424218000000000E+01      3.588257000000000E-01     -1.744219000000000E+02      6.486511000000000E-01     -9.191406000000000E+01
4818000000.000000      3.467865000000000E-01     -1.334063000000000E+02      3.740082000000000E-01     -6.462891000000000E+01      3.628540000000000E-01     -1.744375000000000E+02      6.501160000000000E-01     -9.200781000000000E+01
4819000000.000000      3.493195000000000E-01     -1.345000000000000E+02      3.772583000000000E-01     -6.480859000000000E+01      3.661957000000000E-01     -1.743438000000000E+02      6.513367000000000E-01     -9.207811000000000E+01
4820000000.000000      3.512115000000000E-01     -1.355156000000000E+02      3.813782000000000E-01     -6.495312000000000E+01      3.707275000000000E-01     -1.744219000000000E+02      6.515808000000000E-01     -9.216406000000000E+01
4821000000.000000      3.549194000000000E-01     -1.366250000000000E+02      3.852844000000000E-01     -6.537499000000000E+01      3.741913000000000E-01     -1.744922000000000E+02      6.505432000000000E-01     -9.229296000000000E+01
4822000000.000000      3.585663000000000E-01     -1.376484000000000E+02      3.891449000000000E-01     -6.551952000000000E+01      3.778687000000000E-01     -1.743750000000000E+02      6.525269000000000E-01     -9.231640000000000E+01
4823000000.000000      3.614197000000000E-01     -1.386484000000000E+02      3.930664000000000E-01     -6.580859000000000E+01      3.820038000000000E-01     -1.743047000000000E+02      6.528625000000000E-01     -9.234766000000000E+01
4824000000.000000      3.654327000000000E-01     -1.397656000000000E+02      3.959656000000000E-01     -6.622656000000000E+01      3.862152000000000E-01     -1.744219000000000E+02      6.557007000000000E-01     -9.253124000000000E+01
4825000000.000000      3.690643000000000E-01     -1.407500000000000E+02      3.996735000000000E-01     -6.639453000000000E+01      3.909912000000000E-01     -1.743594000000000E+02      6.554565000000000E-01     -9.248438000000000E+01
4826000000.000000      3.732605000000000E-01     -1.417500000000000E+02      4.038391000000000E-01     -6.684375000000000E+01      3.930054000000000E-01     -1.744844000000000E+02      6.573486000000000E-01     -9.262110000000000E+01
4827000000.000000      3.772888000000000E-01     -1.425937000000000E+02      4.065399000000000E-01     -6.683594000000000E+01      3.982697000000000E-01     -1.743828000000000E+02      6.579895000000000E-01     -9.262890000000000E+01
4828000000.000000      3.822937000000000E-01     -1.436719000000000E+02      4.110260000000000E-01     -6.721484000000000E+01      4.015503000000000E-01     -1.744141000000000E+02      6.601257000000000E-01     -9.269531000000000E+01
4829000000.000000      3.851013000000000E-01     -1.445937000000000E+02      4.136353000000000E-01     -6.763672000000000E+01      4.058990000000000E-01     -1.743984000000000E+02      6.608887000000000E-01     -9.264063000000000E+01
4830000000.000000      3.900299000000000E-01     -1.454844000000000E+02      4.163971000000000E-01     -6.795703000000000E+01      4.095001000000000E-01     -1.744219000000000E+02      6.628723000000000E-01     -9.286718000000000E+01
4831000000.000000      3.941803000000000E-01     -1.464062000000000E+02      4.206238000000000E-01     -6.820703000000000E+01      4.143829000000000E-01     -1.743828000000000E+02      6.645508000000000E-01     -9.287109000000000E+01
4832000000.000000      3.995667000000000E-01     -1.473359000000000E+02      4.248199000000000E-01     -6.845312000000000E+01      4.172516000000000E-01     -1.745312000000000E+02      6.659546000000000E-01     -9.299608000000000E+01
4833000000.000000      4.047852000000000E-01     -1.482969000000000E+02      4.272614000000000E-01     -6.876953000000000E+01      4.211884000000000E-01     -1.746172000000000E+02      6.675415000000000E-01     -9.305859000000000E+01
4834000000.000000      4.089050000000000E-01     -1.491016000000000E+02      4.301300000000000E-01     -6.896484000000000E+01      4.254608000000000E-01     -1.746016000000000E+02      6.692200000000000E-01     -9.316015000000000E+01
4835000000.000000      4.138489000000000E-01     -1.498906000000000E+02      4.333801000000000E-01     -6.946484000000000E+01      4.299164000000000E-01     -1.746094000000000E+02      6.719360000000000E-01     -9.321875000000000E+01
4836000000.000000      4.192963000000000E-01     -1.506719000000000E+02      4.366302000000000E-01     -6.969140000000000E+01      4.335938000000000E-01     -1.746797000000000E+02      6.720886000000000E-01     -9.318750000000000E+01
4837000000.000000      4.247284000000000E-01     -1.514688000000000E+02      4.391632000000000E-01     -7.035546000000000E+01      4.378357000000000E-01     -1.747890000000000E+02      6.749573000000000E-01     -9.329687000000000E+01
4838000000.000000      4.298096000000000E-01     -1.524453000000000E+02      4.440155000000000E-01     -7.032812000000000E+01      4.412537000000000E-01     -1.748047000000000E+02      6.769714000000000E-01     -9.327734000000000E+01
4839000000.000000      4.350891000000000E-01     -1.530391000000000E+02      4.456177000000000E-01     -7.059375000000000E+01      4.456787000000000E-01     -1.747969000000000E+02      6.796265000000000E-01     -9.333202000000000E+01
4840000000.000000      4.395294000000000E-01     -1.539531000000000E+02      4.482880000000000E-01     -7.100780000000000E+01      4.498596000000000E-01     -1.749531000000000E+02      6.809998000000000E-01     -9.342188000000000E+01
4841000000.000000      4.450836000000000E-01     -1.547109000000000E+02      4.523468000000000E-01     -7.132421000000000E+01      4.538422000000000E-01     -1.750859000000000E+02      6.847229000000000E-01     -9.354687000000000E+01
4842000000.000000      4.504395000000000E-01     -1.553437000000000E+02      4.553986000000000E-01     -7.161718000000000E+01      4.563293000000000E-01     -1.750703000000000E+02      6.862793000000000E-01     -9.346483000000000E+01
4843000000.000000      4.554596000000000E-01     -1.561484000000000E+02      4.569092000000000E-01     -7.203515000000000E+01      4.612579000000000E-01     -1.752031000000000E+02      6.886597000000000E-01     -9.356640000000000E+01
4844000000.000000      4.602356000000000E-01     -1.568438000000000E+02      4.588318000000000E-01     -7.235937000000000E+01      4.646149000000000E-01     -1.752734000000000E+02      6.910706000000000E-01     -9.358984000000000E+01
4845000000.000000      4.649353000000000E-01     -1.574687000000000E+02      4.615021000000000E-01     -7.263281000000000E+01      4.687958000000000E-01     -1.754375000000000E+02      6.930542000000000E-01     -9.360937000000000E+01
4846000000.000000      4.694214000000000E-01     -1.581016000000000E+02      4.650574000000000E-01     -7.278125000000000E+01      4.736023000000000E-01     -1.755156000000000E+02      6.976318000000000E-01     -9.360155000000000E+01
4847000000.000000      4.756012000000000E-01     -1.588047000000000E+02      4.671631000000000E-01     -7.315624000000000E+01      4.772491000000000E-01     -1.756484000000000E+02      6.999207000000000E-01     -9.378906000000000E+01
4848000000.000000      4.803314000000000E-01     -1.593906000000000E+02      4.694214000000000E-01     -7.350780000000000E+01      4.814911000000000E-01     -1.756953000000000E+02      7.002869000000000E-01     -9.375780000000000E+01
4849000000.000000      4.853821000000000E-01     -1.602969000000000E+02      4.725342000000000E-01     -7.392968000000000E+01      4.850464000000000E-01     -1.758984000000000E+02      7.050476000000000E-01     -9.371485000000000E+01
4850000000.000000      4.903107000000000E-01     -1.606250000000000E+02      4.733734000000000E-01     -7.415234000000000E+01      4.885101000000000E-01     -1.759140000000000E+02      7.075806000000000E-01     -9.386719000000000E+01
4851000000.000000      4.948578000000000E-01     -1.612500000000000E+02      4.775543000000000E-01     -7.461328000000000E+01      4.916992000000000E-01     -1.760625000000000E+02      7.108459000000000E-01     -9.382813000000000E+01
4852000000.000000      4.995880000000000E-01     -1.618828000000000E+02      4.789581000000000E-01     -7.487499000000000E+01      4.968567000000000E-01     -1.761797000000000E+02      7.128601000000000E-01     -9.400782000000000E+01
4853000000.000000      5.045471000000000E-01     -1.624375000000000E+02      4.799957000000000E-01     -7.518749000000000E+01      5.002747000000000E-01     -1.764219000000000E+02      7.145691000000000E-01     -9.408983000000000E+01
4854000000.000000      5.085754000000000E-01     -1.629922000000000E+02      4.828796000000000E-01     -7.559765000000000E+01      5.032349000000000E-01     -1.765078000000000E+02      7.187195000000000E-01     -9.404297000000000E+01
4855000000.000000      5.117188000000000E-01     -1.635781000000000E+02      4.840393000000000E-01     -7.589062000000000E+01      5.082703000000000E-01     -1.765938000000000E+02      7.217407000000000E-01     -9.408594000000000E+01
4856000000.000000      5.172424000000000E-01     -1.639531000000000E+02      4.865875000000000E-01     -7.614843000000000E+01      5.116272000000000E-01     -1.767187000000000E+02      7.250061000000000E-01     -9.420313000000000E+01
4857000000.000000      5.207825000000000E-01     -1.645547000000000E+02      4.887390000000000E-01     -7.655468000000000E+01      5.140381000000000E-01     -1.769219000000000E+02      7.259216000000000E-01     -9.410547000000000E+01
4858000000.000000      5.229797000000000E-01     -1.650781000000000E+02      4.895477000000000E-01     -7.671093000000000E+01      5.179749000000000E-01     -1.771406000000000E+02      7.302246000000000E-01     -9.426561000000000E+01
4859000000.000000      5.268250000000000E-01     -1.656328000000000E+02      4.925995000000000E-01     -7.714844000000000E+01      5.204468000000000E-01     -1.773438000000000E+02      7.345276000000000E-01     -9.433985000000000E+01
4860000000.000000      5.320435000000000E-01     -1.660312000000000E+02      4.944305000000000E-01     -7.723437000000000E+01      5.249939000000000E-01     -1.774375000000000E+02      7.368774000000000E-01     -9.428905000000000E+01
4861000000.000000      5.343628000000000E-01     -1.663594000000000E+02      4.952087000000000E-01     -7.790625000000000E+01      5.282593000000000E-01     -1.776719000000000E+02      7.377319000000000E-01     -9.439453000000000E+01
4862000000.000000      5.372009000000000E-01     -1.668672000000000E+02      4.986420000000000E-01     -7.789063000000000E+01      5.319519000000000E-01     -1.778516000000000E+02      7.431641000000000E-01     -9.437891000000000E+01
4863000000.000000      5.395203000000000E-01     -1.672656000000000E+02      4.974670000000000E-01     -7.841406000000000E+01      5.360718000000000E-01     -1.780234000000000E+02      7.450562000000000E-01     -9.448046000000000E+01
4864000000.000000      5.425720000000000E-01     -1.677187000000000E+02      5.000610000000000E-01     -7.855859000000000E+01      5.383911000000000E-01     -1.781406000000000E+02      7.460938000000000E-01     -9.457811000000000E+01
4865000000.000000      5.449524000000000E-01     -1.681797000000000E+02      5.001831000000000E-01     -7.879296000000000E+01      5.390320000000000E-01     -1.784765000000000E+02      7.499695000000000E-01     -9.441015000000000E+01
4866000000.000000      5.459290000000000E-01     -1.684375000000000E+02      5.019531000000000E-01     -7.917578000000000E+01      5.451660000000000E-01     -1.785938000000000E+02      7.533875000000000E-01     -9.450390000000000E+01
4867000000.000000      5.487671000000000E-01     -1.688203000000000E+02      5.043945000000000E-01     -7.941015000000000E+01      5.458374000000000E-01     -1.787734000000000E+02      7.565002000000000E-01     -9.462500000000000E+01
4868000000.000000      5.512390000000000E-01     -1.692109000000000E+02      5.051270000000000E-01     -7.978906000000000E+01      5.500488000000000E-01     -1.789297000000000E+02      7.589722000000000E-01     -9.449219000000000E+01
4869000000.000000      5.520325000000000E-01     -1.695156000000000E+02      5.046692000000000E-01     -8.017578000000000E+01      5.520020000000000E-01     -1.791719000000000E+02      7.615356000000000E-01     -9.484766000000000E+01
4870000000.000000      5.541382000000000E-01     -1.698281000000000E+02      5.057373000000000E-01     -8.001171000000000E+01      5.552673000000000E-01     -1.794765000000000E+02      7.640991000000000E-01     -9.473047000000000E+01
4871000000.000000      5.563660000000000E-01     -1.701953000000000E+02      5.080872000000000E-01     -8.050781000000000E+01      5.569458000000000E-01     -1.796953000000000E+02      7.664490000000000E-01     -9.479687000000000E+01
4872000000.000000      5.578918000000000E-01     -1.703672000000000E+02      5.082703000000000E-01     -8.041407000000000E+01      5.606079000000000E-01     -1.799609000000000E+02      7.697144000000000E-01     -9.492579000000000E+01
4873000000.000000      5.578308000000000E-01     -1.706563000000000E+02      5.093994000000000E-01     -8.097265000000000E+01      5.628662000000000E-01      1.798984000000000E+02      7.719727000000000E-01     -9.493359000000000E+01
4874000000.000000      5.584717000000000E-01     -1.708359000000000E+02      5.103760000000000E-01     -8.117579000000000E+01      5.667725000000000E-01      1.797344000000000E+02      7.720947000000000E-01     -9.475780000000000E+01
4875000000.000000      5.605164000000000E-01     -1.712188000000000E+02      5.112915000000000E-01     -8.147264000000000E+01      5.671387000000000E-01      1.794297000000000E+02      7.752991000000000E-01     -9.495312000000000E+01
4876000000.000000      5.596619000000000E-01     -1.714062000000000E+02      5.129395000000000E-01     -8.160936000000000E+01      5.680237000000000E-01      1.793984000000000E+02      7.791138000000000E-01     -9.493750000000000E+01
4877000000.000000      5.607910000000000E-01     -1.715703000000000E+02      5.126648000000000E-01     -8.191406000000000E+01      5.716858000000000E-01      1.789531000000000E+02      7.804565000000000E-01     -9.512110000000000E+01
4878000000.000000      5.612488000000000E-01     -1.718125000000000E+02      5.141602000000000E-01     -8.217968000000000E+01      5.740356000000000E-01      1.789063000000000E+02      7.830200000000000E-01     -9.512890000000000E+01
4879000000.000000      5.623779000000000E-01     -1.719531000000000E+02      5.151367000000000E-01     -8.218750000000000E+01      5.754700000000000E-01      1.787109000000000E+02      7.852478000000000E-01     -9.504297000000000E+01
4880000000.000000      5.615540000000000E-01     -1.721016000000000E+02      5.146179000000000E-01     -8.256250000000000E+01      5.775757000000000E-01      1.785547000000000E+02      7.886353000000000E-01     -9.515234000000000E+01
4881000000.000000      5.623779000000000E-01     -1.722188000000000E+02      5.176392000000000E-01     -8.254297000000000E+01      5.792542000000000E-01      1.782500000000000E+02      7.894287000000000E-01     -9.520311000000000E+01
4882000000.000000      5.603638000000000E-01     -1.723281000000000E+02      5.182800000000000E-01     -8.289063000000000E+01      5.811462000000000E-01      1.779922000000000E+02      7.895203000000000E-01     -9.523046000000000E+01
