! Network Analyzer HP8722D
! Hewlett-Packard
! Data name: Linha & Wilkinson
! Saver's name: Rodrigo Anjos
! Comments: Teste da utilização de aquisição
continua pelo VNA HP8722D
! Time and date: 17/4/2025 17:29
!              Frequency                     S11                                                   S21                                                   S12                                                   S22
# HZ  S  MA R 50
4800000000.000000      3.380737000000000E-01     -1.171445000000000E+02      3.172150000000000E-01     -6.241405000000000E+01      3.113556000000000E-01     -1.767187000000000E+02      6.585388000000000E-01     -9.151953000000000E+01
4801000000.000000      3.371582000000000E-01     -1.181680000000000E+02      3.221893000000000E-01     -6.260742000000000E+01      3.143463000000000E-01     -1.767031000000000E+02      6.569519000000000E-01     -9.158203000000000E+01
4802000000.000000      3.366394000000000E-01     -1.191719000000000E+02      3.258362000000000E-01     -6.268164000000000E+01      3.190765000000000E-01     -1.766094000000000E+02      6.551208000000000E-01     -9.155077000000000E+01
4803000000.000000      3.359528000000000E-01     -1.202383000000000E+02      3.310394000000000E-01     -6.285742000000000E+01      3.226624000000000E-01     -1.765469000000000E+02      6.546021000000000E-01     -9.180079000000000E+01
4804000000.000000      3.361511000000000E-01     -1.212734000000000E+02      3.356628000000000E-01     -6.289257000000000E+01      3.266144000000000E-01     -1.767031000000000E+02      6.538696000000000E-01     -9.177343000000000E+01
4805000000.000000      3.361053000000000E-01     -1.222383000000000E+02      3.393707000000000E-01     -6.345508000000000E+01      3.310089000000000E-01     -1.764922000000000E+02      6.540833000000000E-01     -9.199999000000000E+01
4806000000.000000      3.352966000000000E-01     -1.232187000000000E+02      3.435669000000000E-01     -6.351367000000000E+01      3.333740000000000E-01     -1.763828000000000E+02      6.546021000000000E-01     -9.203905000000000E+01
4807000000.000000      3.364105000000000E-01     -1.243906000000000E+02      3.474731000000000E-01     -6.375000000000000E+01      3.376312000000000E-01     -1.765234000000000E+02      6.512756000000000E-01     -9.216797000000000E+01
4808000000.000000      3.373413000000000E-01     -1.254297000000000E+02      3.514557000000000E-01     -6.376953000000000E+01      3.417206000000000E-01     -1.764453000000000E+02      6.520081000000000E-01     -9.220703000000000E+01
4809000000.000000      3.371582000000000E-01     -1.264844000000000E+02      3.560333000000000E-01     -6.422656000000000E+01      3.453827000000000E-01     -1.765000000000000E+02      6.515503000000000E-01     -9.236719000000000E+01
4810000000.000000      3.386688000000000E-01     -1.275742000000000E+02      3.606262000000000E-01     -6.434765000000000E+01      3.500519000000000E-01     -1.763750000000000E+02      6.524048000000000E-01     -9.240234000000000E+01
4811000000.000000      3.399506000000000E-01     -1.287188000000000E+02      3.634796000000000E-01     -6.472265000000000E+01      3.538818000000000E-01     -1.764062000000000E+02      6.510010000000000E-01     -9.250391000000000E+01
4812000000.000000      3.420410000000000E-01     -1.297031000000000E+02      3.677673000000000E-01     -6.485156000000000E+01      3.580933000000000E-01     -1.763984000000000E+02      6.518250000000000E-01     -9.258593000000000E+01
4813000000.000000      3.426514000000000E-01     -1.308906000000000E+02      3.715057000000000E-01     -6.507421000000000E+01      3.606567000000000E-01     -1.762500000000000E+02      6.516113000000000E-01     -9.260157000000000E+01
4814000000.000000      3.440247000000000E-01     -1.320547000000000E+02      3.751526000000000E-01     -6.542969000000000E+01      3.647614000000000E-01     -1.763438000000000E+02      6.513977000000000E-01     -9.274218000000000E+01
4815000000.000000      3.456421000000000E-01     -1.330703000000000E+02      3.797913000000000E-01     -6.569921000000000E+01      3.676910000000000E-01     -1.763125000000000E+02      6.504822000000000E-01     -9.282421000000000E+01
4816000000.000000      3.481750000000000E-01     -1.341797000000000E+02      3.837585000000000E-01     -6.585155000000000E+01      3.731232000000000E-01     -1.762734000000000E+02      6.513977000000000E-01     -9.282030000000000E+01
4817000000.000000      3.513489000000000E-01     -1.352344000000000E+02      3.874512000000000E-01     -6.614452000000000E+01      3.757477000000000E-01     -1.762812000000000E+02      6.515808000000000E-01     -9.305079000000000E+01
4818000000.000000      3.533325000000000E-01     -1.363828000000000E+02      3.904266000000000E-01     -6.645312000000000E+01      3.794708000000000E-01     -1.764375000000000E+02      6.523438000000000E-01     -9.311327000000000E+01
4819000000.000000      3.561707000000000E-01     -1.375078000000000E+02      3.937988000000000E-01     -6.671484000000000E+01      3.833923000000000E-01     -1.764844000000000E+02      6.541748000000000E-01     -9.323828000000000E+01
4820000000.000000      3.582916000000000E-01     -1.384844000000000E+02      3.977203000000000E-01     -6.695703000000000E+01      3.875275000000000E-01     -1.763438000000000E+02      6.527710000000000E-01     -9.331249000000000E+01
4821000000.000000      3.618774000000000E-01     -1.396172000000000E+02      4.017334000000000E-01     -6.741015000000000E+01      3.909149000000000E-01     -1.764844000000000E+02      6.535645000000000E-01     -9.330469000000000E+01
4822000000.000000      3.668671000000000E-01     -1.407031000000000E+02      4.056091000000000E-01     -6.758203000000000E+01      3.941345000000000E-01     -1.764844000000000E+02      6.554565000000000E-01     -9.336329000000000E+01
4823000000.000000      3.688354000000000E-01     -1.416953000000000E+02      4.086609000000000E-01     -6.785546000000000E+01      3.983307000000000E-01     -1.762891000000000E+02      6.561584000000000E-01     -9.347265000000000E+01
4824000000.000000      3.732605000000000E-01     -1.427500000000000E+02      4.118042000000000E-01     -6.806250000000000E+01      4.032288000000000E-01     -1.764297000000000E+02      6.568298000000000E-01     -9.356640000000000E+01
4825000000.000000      3.760986000000000E-01     -1.436563000000000E+02      4.152679000000000E-01     -6.841406000000000E+01      4.059448000000000E-01     -1.764688000000000E+02      6.586914000000000E-01     -9.349218000000000E+01
4826000000.000000      3.811035000000000E-01     -1.447109000000000E+02      4.181061000000000E-01     -6.882030000000000E+01      4.091339000000000E-01     -1.765391000000000E+02      6.587219000000000E-01     -9.377733000000000E+01
4827000000.000000      3.850403000000000E-01     -1.455781000000000E+02      4.224548000000000E-01     -6.894140000000000E+01      4.130707000000000E-01     -1.764141000000000E+02      6.603088000000000E-01     -9.383984000000000E+01
4828000000.000000      3.901520000000000E-01     -1.466172000000000E+02      4.255371000000000E-01     -6.930469000000000E+01      4.169006000000000E-01     -1.765000000000000E+02      6.620789000000000E-01     -9.382813000000000E+01
4829000000.000000      3.928223000000000E-01     -1.475078000000000E+02      4.281464000000000E-01     -6.966015000000000E+01      4.203949000000000E-01     -1.765625000000000E+02      6.624451000000000E-01     -9.391405000000000E+01
4830000000.000000      3.982544000000000E-01     -1.484453000000000E+02      4.317627000000000E-01     -6.992578000000000E+01      4.244995000000000E-01     -1.765547000000000E+02      6.649170000000000E-01     -9.401171000000000E+01
4831000000.000000      4.024658000000000E-01     -1.493359000000000E+02      4.346619000000000E-01     -7.033984000000000E+01      4.282684000000000E-01     -1.766406000000000E+02      6.664734000000000E-01     -9.402344000000000E+01
4832000000.000000      4.084320000000000E-01     -1.502578000000000E+02      4.376373000000000E-01     -7.058203000000000E+01      4.311829000000000E-01     -1.766875000000000E+02      6.683960000000000E-01     -9.414063000000000E+01
4833000000.000000      4.129181000000000E-01     -1.511797000000000E+02      4.409790000000000E-01     -7.094140000000000E+01      4.355774000000000E-01     -1.767031000000000E+02      6.701355000000000E-01     -9.419922000000000E+01
4834000000.000000      4.177246000000000E-01     -1.520469000000000E+02      4.428101000000000E-01     -7.118750000000000E+01      4.392548000000000E-01     -1.767969000000000E+02      6.720886000000000E-01     -9.430859000000000E+01
4835000000.000000      4.221191000000000E-01     -1.528516000000000E+02      4.474945000000000E-01     -7.152734000000000E+01      4.434357000000000E-01     -1.768125000000000E+02      6.739502000000000E-01     -9.440624000000000E+01
4836000000.000000      4.278412000000000E-01     -1.535781000000000E+02      4.493103000000000E-01     -7.174218000000000E+01      4.470215000000000E-01     -1.768203000000000E+02      6.752014000000000E-01     -9.437500000000000E+01
4837000000.000000      4.327240000000000E-01     -1.543906000000000E+02      4.517975000000000E-01     -7.244141000000000E+01      4.509583000000000E-01     -1.770313000000000E+02      6.767578000000000E-01     -9.443750000000000E+01
4838000000.000000      4.382019000000000E-01     -1.553125000000000E+02      4.560852000000000E-01     -7.244141000000000E+01      4.540710000000000E-01     -1.770703000000000E+02      6.794739000000000E-01     -9.445313000000000E+01
4839000000.000000      4.432068000000000E-01     -1.559141000000000E+02      4.575653000000000E-01     -7.265625000000000E+01      4.588318000000000E-01     -1.770859000000000E+02      6.819153000000000E-01     -9.442186000000000E+01
4840000000.000000      4.475098000000000E-01     -1.568281000000000E+02      4.604187000000000E-01     -7.296093000000000E+01      4.619904000000000E-01     -1.772344000000000E+02      6.841125000000000E-01     -9.455469000000000E+01
4841000000.000000      4.533539000000000E-01     -1.576250000000000E+02      4.635468000000000E-01     -7.355469000000000E+01      4.658966000000000E-01     -1.773438000000000E+02      6.862488000000000E-01     -9.469141000000000E+01
4842000000.000000      4.585876000000000E-01     -1.582187000000000E+02      4.662628000000000E-01     -7.381640000000000E+01      4.686584000000000E-01     -1.773828000000000E+02      6.876526000000000E-01     -9.464062000000000E+01
4843000000.000000      4.626770000000000E-01     -1.589922000000000E+02      4.687347000000000E-01     -7.420703000000000E+01      4.728241000000000E-01     -1.773906000000000E+02      6.915588000000000E-01     -9.475000000000000E+01
4844000000.000000      4.675903000000000E-01     -1.596562000000000E+02      4.704285000000000E-01     -7.447656000000000E+01      4.758759000000000E-01     -1.775938000000000E+02      6.942139000000000E-01     -9.476954000000000E+01
4845000000.000000      4.725037000000000E-01     -1.602734000000000E+02      4.729462000000000E-01     -7.484765000000000E+01      4.806824000000000E-01     -1.777422000000000E+02      6.951599000000000E-01     -9.474218000000000E+01
4846000000.000000      4.777679000000000E-01     -1.609453000000000E+02      4.750061000000000E-01     -7.510156000000000E+01      4.846039000000000E-01     -1.777891000000000E+02      6.993408000000000E-01     -9.483202000000000E+01
4847000000.000000      4.833679000000000E-01     -1.616016000000000E+02      4.770050000000000E-01     -7.550390000000000E+01      4.883270000000000E-01     -1.780000000000000E+02      7.022400000000000E-01     -9.496874000000000E+01
4848000000.000000      4.881592000000000E-01     -1.622344000000000E+02      4.789581000000000E-01     -7.568359000000000E+01      4.914703000000000E-01     -1.780391000000000E+02      7.038269000000000E-01     -9.498827000000000E+01
4849000000.000000      4.922333000000000E-01     -1.631016000000000E+02      4.813538000000000E-01     -7.619922000000000E+01      4.953308000000000E-01     -1.781875000000000E+02      7.074585000000000E-01     -9.493359000000000E+01
4850000000.000000      4.970245000000000E-01     -1.634531000000000E+02      4.837036000000000E-01     -7.639843000000000E+01      4.996643000000000E-01     -1.780859000000000E+02      7.101746000000000E-01     -9.498438000000000E+01
4851000000.000000      5.017395000000000E-01     -1.640938000000000E+02      4.859314000000000E-01     -7.682422000000000E+01      5.028992000000000E-01     -1.783516000000000E+02      7.138672000000000E-01     -9.518749000000000E+01
4852000000.000000      5.059814000000000E-01     -1.646563000000000E+02      4.871216000000000E-01     -7.707812000000000E+01      5.057983000000000E-01     -1.785859000000000E+02      7.153931000000000E-01     -9.512499000000000E+01
4853000000.000000      5.100403000000000E-01     -1.651953000000000E+02      4.884796000000000E-01     -7.738671000000000E+01      5.090027000000000E-01     -1.786719000000000E+02      7.186279000000000E-01     -9.540625000000000E+01
4854000000.000000      5.140076000000000E-01     -1.657578000000000E+02      4.909058000000000E-01     -7.783984000000000E+01      5.122375000000000E-01     -1.788203000000000E+02      7.206116000000000E-01     -9.526562000000000E+01
4855000000.000000      5.173645000000000E-01     -1.663437000000000E+02      4.918365000000000E-01     -7.801171000000000E+01      5.168152000000000E-01     -1.790313000000000E+02      7.221985000000000E-01     -9.535936000000000E+01
4856000000.000000      5.213318000000000E-01     -1.667109000000000E+02      4.947357000000000E-01     -7.825000000000000E+01      5.193176000000000E-01     -1.790234000000000E+02      7.257385000000000E-01     -9.541016000000000E+01
4857000000.000000      5.258179000000000E-01     -1.672891000000000E+02      4.962006000000000E-01     -7.858593000000000E+01      5.227966000000000E-01     -1.792109000000000E+02      7.284241000000000E-01     -9.544531000000000E+01
4858000000.000000      5.269165000000000E-01     -1.678203000000000E+02      4.976807000000000E-01     -7.904687000000000E+01      5.258484000000000E-01     -1.793984000000000E+02      7.322083000000000E-01     -9.538671000000000E+01
4859000000.000000      5.314941000000000E-01     -1.683672000000000E+02      4.978485000000000E-01     -7.928124000000000E+01      5.279846000000000E-01     -1.798125000000000E+02      7.363892000000000E-01     -9.569921000000000E+01
4860000000.000000      5.351257000000000E-01     -1.687500000000000E+02      5.001221000000000E-01     -7.958984000000000E+01      5.328064000000000E-01     -1.798047000000000E+02      7.367249000000000E-01     -9.554296000000000E+01
4861000000.000000      5.375366000000000E-01     -1.691953000000000E+02      5.012817000000000E-01     -7.978516000000000E+01      5.344543000000000E-01     -1.800000000000000E+02      7.407837000000000E-01     -9.566015000000000E+01
4862000000.000000      5.392151000000000E-01     -1.695859000000000E+02      5.039978000000000E-01     -8.011328000000000E+01      5.383301000000000E-01      1.799609000000000E+02      7.440491000000000E-01     -9.563671000000000E+01
4863000000.000000      5.419312000000000E-01     -1.699766000000000E+02      5.028687000000000E-01     -8.049999000000000E+01      5.436096000000000E-01      1.796875000000000E+02      7.463379000000000E-01     -9.560938000000000E+01
4864000000.000000      5.444031000000000E-01     -1.703828000000000E+02      5.043030000000000E-01     -8.060156000000000E+01      5.441284000000000E-01      1.796016000000000E+02      7.481384000000000E-01     -9.576172000000000E+01
4865000000.000000      5.467529000000000E-01     -1.708281000000000E+02      5.060120000000000E-01     -8.086329000000000E+01      5.468445000000000E-01      1.792344000000000E+02      7.513733000000000E-01     -9.567577000000000E+01
4866000000.000000      5.478821000000000E-01     -1.711562000000000E+02      5.056763000000000E-01     -8.124609000000000E+01      5.502014000000000E-01      1.790625000000000E+02      7.539368000000000E-01     -9.577343000000000E+01
4867000000.000000      5.501709000000000E-01     -1.714375000000000E+02      5.076599000000000E-01     -8.158594000000000E+01      5.514221000000000E-01      1.789609000000000E+02      7.583008000000000E-01     -9.582031000000000E+01
4868000000.000000      5.521851000000000E-01     -1.718750000000000E+02      5.090637000000000E-01     -8.165234000000000E+01      5.559387000000000E-01      1.789141000000000E+02      7.573242000000000E-01     -9.591797000000000E+01
4869000000.000000      5.524902000000000E-01     -1.720625000000000E+02      5.082703000000000E-01     -8.219530000000000E+01      5.581360000000000E-01      1.784453000000000E+02      7.632141000000000E-01     -9.590235000000000E+01
4870000000.000000      5.539856000000000E-01     -1.723750000000000E+02      5.111084000000000E-01     -8.221483000000000E+01      5.610962000000000E-01      1.784531000000000E+02      7.640381000000000E-01     -9.587109000000000E+01
4871000000.000000      5.559692000000000E-01     -1.728594000000000E+02      5.122375000000000E-01     -8.259766000000000E+01      5.629578000000000E-01      1.781406000000000E+02      7.662659000000000E-01     -9.607031000000000E+01
4872000000.000000      5.572815000000000E-01     -1.730000000000000E+02      5.110779000000000E-01     -8.269922000000000E+01      5.641174000000000E-01      1.777891000000000E+02      7.711792000000000E-01     -9.606249000000000E+01
4873000000.000000      5.576477000000000E-01     -1.731719000000000E+02      5.122070000000000E-01     -8.294140000000000E+01      5.664673000000000E-01      1.776641000000000E+02      7.699890000000000E-01     -9.612108000000000E+01
4874000000.000000      5.574341000000000E-01     -1.733516000000000E+02      5.133362000000000E-01     -8.332031000000000E+01      5.697327000000000E-01      1.776484000000000E+02      7.727356000000000E-01     -9.607031000000000E+01
4875000000.000000      5.586548000000000E-01     -1.736875000000000E+02      5.131836000000000E-01     -8.345703000000000E+01      5.705566000000000E-01      1.772656000000000E+02      7.745361000000000E-01     -9.629295000000000E+01
4876000000.000000      5.573425000000000E-01     -1.738594000000000E+02      5.162964000000000E-01     -8.364452000000000E+01      5.726013000000000E-01      1.772812000000000E+02      7.767639000000000E-01     -9.626171000000000E+01
4877000000.000000      5.578003000000000E-01     -1.741641000000000E+02      5.158997000000000E-01     -8.390625000000000E+01      5.747681000000000E-01      1.768359000000000E+02      7.798767000000000E-01     -9.636719000000000E+01
4878000000.000000      5.585327000000000E-01     -1.742109000000000E+02      5.172729000000000E-01     -8.403124000000000E+01      5.760803000000000E-01      1.768359000000000E+02      7.817993000000000E-01     -9.641796000000000E+01
4879000000.000000      5.592957000000000E-01     -1.743438000000000E+02      5.164185000000000E-01     -8.420313000000000E+01      5.780640000000000E-01      1.765625000000000E+02      7.823792000000000E-01     -9.639452000000000E+01
4880000000.000000      5.576782000000000E-01     -1.746797000000000E+02      5.176086000000000E-01     -8.457811000000000E+01      5.809021000000000E-01      1.765000000000000E+02      7.853394000000000E-01     -9.644140000000000E+01
4881000000.000000      5.573425000000000E-01     -1.745937000000000E+02      5.193176000000000E-01     -8.460546000000000E+01      5.810547000000000E-01      1.761016000000000E+02      7.873230000000000E-01     -9.646484000000000E+01
4882000000.000000      5.565491000000000E-01     -1.747813000000000E+02      5.207825000000000E-01     -8.488672000000000E+01      5.827637000000000E-01      1.759219000000000E+02      7.888794000000000E-01     -9.650391000000000E+01
