! Network Analyzer HP8722D
! Hewlett-Packard
! Data name: Linha & Wilkinson
! Saver's name: Rodrigo Anjos
! Comments: Teste da utilização de aquisição
continua pelo VNA HP8722D
! Time and date: 17/4/2025 14:28
!              Frequency                     S11                                                   S21                                                   S12                                                   S22
# HZ  S  MA R 50
4800000000.000000      3.336639000000000E-01     -1.134453000000000E+02      2.873535000000000E-01     -6.086914000000000E+01      2.816315000000000E-01     -1.748828000000000E+02      6.561890000000000E-01     -8.995312000000000E+01
4801000000.000000      3.327179000000000E-01     -1.143203000000000E+02      2.924805000000000E-01     -6.088085000000000E+01      2.848206000000000E-01     -1.750078000000000E+02      6.542053000000000E-01     -9.003124000000000E+01
4802000000.000000      3.311310000000000E-01     -1.153008000000000E+02      2.965088000000000E-01     -6.094531000000000E+01      2.889404000000000E-01     -1.748906000000000E+02      6.525879000000000E-01     -9.008204000000000E+01
4803000000.000000      3.305054000000000E-01     -1.162812000000000E+02      3.012390000000000E-01     -6.114452000000000E+01      2.931061000000000E-01     -1.746406000000000E+02      6.524353000000000E-01     -9.017187000000000E+01
4804000000.000000      3.301239000000000E-01     -1.172617000000000E+02      3.059692000000000E-01     -6.125977000000000E+01      2.975616000000000E-01     -1.746484000000000E+02      6.523438000000000E-01     -9.025000000000000E+01
4805000000.000000      3.304291000000000E-01     -1.182734000000000E+02      3.101807000000000E-01     -6.134375000000000E+01      3.017883000000000E-01     -1.744219000000000E+02      6.511536000000000E-01     -9.047266000000000E+01
4806000000.000000      3.294067000000000E-01     -1.191406000000000E+02      3.146667000000000E-01     -6.136913000000000E+01      3.046722000000000E-01     -1.741875000000000E+02      6.506958000000000E-01     -9.059765000000000E+01
4807000000.000000      3.303680000000000E-01     -1.203008000000000E+02      3.184204000000000E-01     -6.162695000000000E+01      3.100128000000000E-01     -1.742812000000000E+02      6.495056000000000E-01     -9.058203000000000E+01
4808000000.000000      3.301544000000000E-01     -1.212305000000000E+02      3.240204000000000E-01     -6.163086000000000E+01      3.137665000000000E-01     -1.741719000000000E+02      6.488342000000000E-01     -9.062500000000000E+01
4809000000.000000      3.304749000000000E-01     -1.224141000000000E+02      3.280640000000000E-01     -6.198632000000000E+01      3.181458000000000E-01     -1.743281000000000E+02      6.487732000000000E-01     -9.086329000000000E+01
4810000000.000000      3.315277000000000E-01     -1.235938000000000E+02      3.323364000000000E-01     -6.216797000000000E+01      3.217163000000000E-01     -1.740937000000000E+02      6.489563000000000E-01     -9.096874000000000E+01
4811000000.000000      3.322144000000000E-01     -1.245430000000000E+02      3.367157000000000E-01     -6.243554000000000E+01      3.263245000000000E-01     -1.739609000000000E+02      6.478271000000000E-01     -9.098436000000000E+01
4812000000.000000      3.341522000000000E-01     -1.255547000000000E+02      3.408356000000000E-01     -6.258007000000000E+01      3.306885000000000E-01     -1.739063000000000E+02      6.481018000000000E-01     -9.103907000000000E+01
4813000000.000000      3.345184000000000E-01     -1.266758000000000E+02      3.448486000000000E-01     -6.278710000000000E+01      3.339844000000000E-01     -1.736719000000000E+02      6.486206000000000E-01     -9.106249000000000E+01
4814000000.000000      3.358002000000000E-01     -1.279258000000000E+02      3.491058000000000E-01     -6.294726000000000E+01      3.378296000000000E-01     -1.737890000000000E+02      6.484985000000000E-01     -9.123047000000000E+01
4815000000.000000      3.371887000000000E-01     -1.288359000000000E+02      3.529358000000000E-01     -6.313477000000000E+01      3.410187000000000E-01     -1.736406000000000E+02      6.475525000000000E-01     -9.121874000000000E+01
4816000000.000000      3.395386000000000E-01     -1.299297000000000E+02      3.576050000000000E-01     -6.320898000000000E+01      3.468933000000000E-01     -1.737656000000000E+02      6.481323000000000E-01     -9.130077000000000E+01
4817000000.000000      3.422241000000000E-01     -1.309687000000000E+02      3.608093000000000E-01     -6.361914000000000E+01      3.497162000000000E-01     -1.737109000000000E+02      6.480713000000000E-01     -9.145702000000000E+01
4818000000.000000      3.435364000000000E-01     -1.322031000000000E+02      3.645020000000000E-01     -6.386328000000000E+01      3.543396000000000E-01     -1.736250000000000E+02      6.491699000000000E-01     -9.151171000000000E+01
4819000000.000000      3.469543000000000E-01     -1.332656000000000E+02      3.684082000000000E-01     -6.396874000000000E+01      3.573151000000000E-01     -1.735312000000000E+02      6.498718000000000E-01     -9.166407000000000E+01
4820000000.000000      3.484650000000000E-01     -1.342578000000000E+02      3.730927000000000E-01     -6.437109000000000E+01      3.616333000000000E-01     -1.735781000000000E+02      6.508484000000000E-01     -9.170702000000000E+01
4821000000.000000      3.518677000000000E-01     -1.353828000000000E+02      3.771667000000000E-01     -6.467187000000000E+01      3.653107000000000E-01     -1.736719000000000E+02      6.496582000000000E-01     -9.178905000000000E+01
4822000000.000000      3.557129000000000E-01     -1.363516000000000E+02      3.809204000000000E-01     -6.474609000000000E+01      3.698273000000000E-01     -1.736094000000000E+02      6.511841000000000E-01     -9.178125000000000E+01
4823000000.000000      3.585663000000000E-01     -1.373984000000000E+02      3.845825000000000E-01     -6.510547000000000E+01      3.735352000000000E-01     -1.734062000000000E+02      6.519775000000000E-01     -9.185156000000000E+01
4824000000.000000      3.630066000000000E-01     -1.385234000000000E+02      3.880920000000000E-01     -6.536327000000000E+01      3.779755000000000E-01     -1.735703000000000E+02      6.534119000000000E-01     -9.193750000000000E+01
4825000000.000000      3.656006000000000E-01     -1.394297000000000E+02      3.913269000000000E-01     -6.560547000000000E+01      3.824921000000000E-01     -1.734688000000000E+02      6.547241000000000E-01     -9.199999000000000E+01
4826000000.000000      3.700256000000000E-01     -1.405313000000000E+02      3.957367000000000E-01     -6.594140000000000E+01      3.854828000000000E-01     -1.735547000000000E+02      6.554260000000000E-01     -9.209764000000000E+01
4827000000.000000      3.740387000000000E-01     -1.413359000000000E+02      3.993988000000000E-01     -6.598827000000000E+01      3.900146000000000E-01     -1.734297000000000E+02      6.562500000000000E-01     -9.203516000000000E+01
4828000000.000000      3.789978000000000E-01     -1.423437000000000E+02      4.031830000000000E-01     -6.640625000000000E+01      3.933105000000000E-01     -1.734297000000000E+02      6.591187000000000E-01     -9.219141000000000E+01
4829000000.000000      3.813019000000000E-01     -1.432422000000000E+02      4.065552000000000E-01     -6.683203000000000E+01      3.975983000000000E-01     -1.735156000000000E+02      6.595459000000000E-01     -9.219141000000000E+01
4830000000.000000      3.870239000000000E-01     -1.442578000000000E+02      4.097443000000000E-01     -6.696484000000000E+01      4.021606000000000E-01     -1.734609000000000E+02      6.616211000000000E-01     -9.236719000000000E+01
4831000000.000000      3.907166000000000E-01     -1.451875000000000E+02      4.133606000000000E-01     -6.732812000000000E+01      4.062195000000000E-01     -1.735312000000000E+02      6.637878000000000E-01     -9.240625000000000E+01
4832000000.000000      3.963013000000000E-01     -1.460391000000000E+02      4.168549000000000E-01     -6.754296000000000E+01      4.098663000000000E-01     -1.736016000000000E+02      6.649475000000000E-01     -9.247656000000000E+01
4833000000.000000      4.010620000000000E-01     -1.470547000000000E+02      4.205475000000000E-01     -6.794531000000000E+01      4.141846000000000E-01     -1.736094000000000E+02      6.655579000000000E-01     -9.254297000000000E+01
4834000000.000000      4.056702000000000E-01     -1.478906000000000E+02      4.240723000000000E-01     -6.819140000000000E+01      4.181366000000000E-01     -1.736953000000000E+02      6.678772000000000E-01     -9.254686000000000E+01
4835000000.000000      4.103546000000000E-01     -1.486484000000000E+02      4.270172000000000E-01     -6.850780000000000E+01      4.227905000000000E-01     -1.736562000000000E+02      6.702576000000000E-01     -9.270702000000000E+01
4836000000.000000      4.163208000000000E-01     -1.494141000000000E+02      4.304047000000000E-01     -6.875390000000000E+01      4.261475000000000E-01     -1.736641000000000E+02      6.716003000000000E-01     -9.270702000000000E+01
4837000000.000000      4.208374000000000E-01     -1.502500000000000E+02      4.325409000000000E-01     -6.932812000000000E+01      4.299164000000000E-01     -1.738672000000000E+02      6.731567000000000E-01     -9.272655000000000E+01
4838000000.000000      4.262543000000000E-01     -1.511406000000000E+02      4.376373000000000E-01     -6.936328000000000E+01      4.346313000000000E-01     -1.738437000000000E+02      6.760254000000000E-01     -9.281641000000000E+01
4839000000.000000      4.312134000000000E-01     -1.518203000000000E+02      4.395599000000000E-01     -6.966015000000000E+01      4.384308000000000E-01     -1.738437000000000E+02      6.783142000000000E-01     -9.275391000000000E+01
4840000000.000000      4.356537000000000E-01     -1.525938000000000E+02      4.418945000000000E-01     -7.005468000000000E+01      4.430237000000000E-01     -1.739766000000000E+02      6.809082000000000E-01     -9.286718000000000E+01
4841000000.000000      4.410400000000000E-01     -1.534765000000000E+02      4.459839000000000E-01     -7.039063000000000E+01      4.467468000000000E-01     -1.741484000000000E+02      6.833801000000000E-01     -9.283983000000000E+01
4842000000.000000      4.470215000000000E-01     -1.540703000000000E+02      4.481049000000000E-01     -7.062109000000000E+01      4.500427000000000E-01     -1.741094000000000E+02      6.846313000000000E-01     -9.298437000000000E+01
4843000000.000000      4.520264000000000E-01     -1.549062000000000E+02      4.511871000000000E-01     -7.107031000000000E+01      4.545135000000000E-01     -1.742109000000000E+02      6.869812000000000E-01     -9.302343000000000E+01
4844000000.000000      4.566345000000000E-01     -1.555703000000000E+02      4.537506000000000E-01     -7.144531000000000E+01      4.582367000000000E-01     -1.743203000000000E+02      6.907959000000000E-01     -9.305468000000000E+01
4845000000.000000      4.617157000000000E-01     -1.562344000000000E+02      4.560547000000000E-01     -7.160156000000000E+01      4.623260000000000E-01     -1.744219000000000E+02      6.918945000000000E-01     -9.304296000000000E+01
4846000000.000000      4.666901000000000E-01     -1.567969000000000E+02      4.585419000000000E-01     -7.198437000000000E+01      4.673004000000000E-01     -1.745000000000000E+02      6.944580000000000E-01     -9.308985000000000E+01
4847000000.000000      4.728851000000000E-01     -1.575625000000000E+02      4.622192000000000E-01     -7.228516000000000E+01      4.713135000000000E-01     -1.746562000000000E+02      6.984253000000000E-01     -9.322657000000000E+01
4848000000.000000      4.776764000000000E-01     -1.581797000000000E+02      4.635162000000000E-01     -7.242969000000000E+01      4.758301000000000E-01     -1.747187000000000E+02      7.003174000000000E-01     -9.326172000000000E+01
4849000000.000000      4.821930000000000E-01     -1.590000000000000E+02      4.672699000000000E-01     -7.299218000000000E+01      4.795990000000000E-01     -1.748828000000000E+02      7.038879000000000E-01     -9.328905000000000E+01
4850000000.000000      4.874878000000000E-01     -1.594531000000000E+02      4.696808000000000E-01     -7.321484000000000E+01      4.829102000000000E-01     -1.749063000000000E+02      7.071533000000000E-01     -9.325390000000000E+01
4851000000.000000      4.920654000000000E-01     -1.599844000000000E+02      4.726715000000000E-01     -7.379296000000000E+01      4.864655000000000E-01     -1.750703000000000E+02      7.087402000000000E-01     -9.335546000000000E+01
4852000000.000000      4.971924000000000E-01     -1.606328000000000E+02      4.743805000000000E-01     -7.396484000000000E+01      4.911346000000000E-01     -1.751562000000000E+02      7.117920000000000E-01     -9.335155000000000E+01
4853000000.000000      5.017395000000000E-01     -1.612031000000000E+02      4.751740000000000E-01     -7.428515000000000E+01      4.951935000000000E-01     -1.754219000000000E+02      7.146301000000000E-01     -9.351563000000000E+01
4854000000.000000      5.059509000000000E-01     -1.617266000000000E+02      4.783936000000000E-01     -7.466797000000000E+01      4.978027000000000E-01     -1.755000000000000E+02      7.178040000000000E-01     -9.345312000000000E+01
4855000000.000000      5.095520000000000E-01     -1.623203000000000E+02      4.790039000000000E-01     -7.494141000000000E+01      5.022278000000000E-01     -1.755156000000000E+02      7.185059000000000E-01     -9.338671000000000E+01
4856000000.000000      5.144348000000000E-01     -1.627578000000000E+02      4.816742000000000E-01     -7.517187000000000E+01      5.066223000000000E-01     -1.758906000000000E+02      7.240601000000000E-01     -9.364452000000000E+01
4857000000.000000      5.182190000000000E-01     -1.633672000000000E+02      4.844666000000000E-01     -7.550390000000000E+01      5.087585000000000E-01     -1.758203000000000E+02      7.269592000000000E-01     -9.367188000000000E+01
4858000000.000000      5.205994000000000E-01     -1.638672000000000E+02      4.861145000000000E-01     -7.587891000000000E+01      5.138855000000000E-01     -1.762656000000000E+02      7.294006000000000E-01     -9.367579000000000E+01
4859000000.000000      5.255127000000000E-01     -1.643906000000000E+02      4.882355000000000E-01     -7.621875000000000E+01      5.172119000000000E-01     -1.763203000000000E+02      7.322388000000000E-01     -9.375391000000000E+01
4860000000.000000      5.296936000000000E-01     -1.648984000000000E+02      4.910431000000000E-01     -7.647655000000000E+01      5.215149000000000E-01     -1.763984000000000E+02      7.361755000000000E-01     -9.375391000000000E+01
4861000000.000000      5.326843000000000E-01     -1.652187000000000E+02      4.917603000000000E-01     -7.670312000000000E+01      5.236206000000000E-01     -1.765938000000000E+02      7.376099000000000E-01     -9.382421000000000E+01
4862000000.000000      5.357056000000000E-01     -1.656875000000000E+02      4.947815000000000E-01     -7.691406000000000E+01      5.274963000000000E-01     -1.768516000000000E+02      7.420349000000000E-01     -9.382421000000000E+01
4863000000.000000      5.381165000000000E-01     -1.660547000000000E+02      4.942169000000000E-01     -7.747656000000000E+01      5.318909000000000E-01     -1.770078000000000E+02      7.439880000000000E-01     -9.386328000000000E+01
4864000000.000000      5.411987000000000E-01     -1.665313000000000E+02      4.956207000000000E-01     -7.765625000000000E+01      5.339355000000000E-01     -1.771172000000000E+02      7.464294000000000E-01     -9.396093000000000E+01
4865000000.000000      5.435181000000000E-01     -1.670391000000000E+02      4.967651000000000E-01     -7.797656000000000E+01      5.380554000000000E-01     -1.774062000000000E+02      7.491760000000000E-01     -9.385546000000000E+01
4866000000.000000      5.459595000000000E-01     -1.672656000000000E+02      4.987488000000000E-01     -7.818359000000000E+01      5.409241000000000E-01     -1.777344000000000E+02      7.519226000000000E-01     -9.392187000000000E+01
4867000000.000000      5.482483000000000E-01     -1.675000000000000E+02      5.007019000000000E-01     -7.878124000000000E+01      5.429382000000000E-01     -1.776875000000000E+02      7.555847000000000E-01     -9.398438000000000E+01
4868000000.000000      5.509949000000000E-01     -1.680625000000000E+02      5.016174000000000E-01     -7.891015000000000E+01      5.467224000000000E-01     -1.779063000000000E+02      7.580566000000000E-01     -9.408594000000000E+01
4869000000.000000      5.519409000000000E-01     -1.683516000000000E+02      5.023804000000000E-01     -7.933594000000000E+01      5.507813000000000E-01     -1.782422000000000E+02      7.608032000000000E-01     -9.420313000000000E+01
4870000000.000000      5.542603000000000E-01     -1.686953000000000E+02      5.040283000000000E-01     -7.918750000000000E+01      5.526733000000000E-01     -1.783906000000000E+02      7.632446000000000E-01     -9.411718000000000E+01
4871000000.000000      5.556946000000000E-01     -1.690391000000000E+02      5.050049000000000E-01     -7.964062000000000E+01      5.536194000000000E-01     -1.785703000000000E+02      7.660217000000000E-01     -9.434765000000000E+01
4872000000.000000      5.578918000000000E-01     -1.692656000000000E+02      5.062561000000000E-01     -7.979687000000000E+01      5.569763000000000E-01     -1.789766000000000E+02      7.692566000000000E-01     -9.423437000000000E+01
4873000000.000000      5.598450000000000E-01     -1.695078000000000E+02      5.072632000000000E-01     -8.012110000000000E+01      5.595093000000000E-01     -1.790313000000000E+02      7.702332000000000E-01     -9.440233000000000E+01
4874000000.000000      5.589294000000000E-01     -1.696875000000000E+02      5.084839000000000E-01     -8.034374000000000E+01      5.639648000000000E-01     -1.791875000000000E+02      7.727661000000000E-01     -9.420313000000000E+01
4875000000.000000      5.610962000000000E-01     -1.700156000000000E+02      5.100403000000000E-01     -8.057812000000000E+01      5.653381000000000E-01     -1.795391000000000E+02      7.742004000000000E-01     -9.435547000000000E+01
4876000000.000000      5.612793000000000E-01     -1.703203000000000E+02      5.112000000000000E-01     -8.091406000000000E+01      5.661316000000000E-01     -1.797266000000000E+02      7.774963000000000E-01     -9.447266000000000E+01
4877000000.000000      5.618896000000000E-01     -1.704609000000000E+02      5.104065000000000E-01     -8.090235000000000E+01      5.702820000000000E-01     -1.800000000000000E+02      7.799072000000000E-01     -9.445313000000000E+01
4878000000.000000      5.625610000000000E-01     -1.706172000000000E+02      5.134583000000000E-01     -8.126562000000000E+01      5.716248000000000E-01      1.799687000000000E+02      7.825317000000000E-01     -9.450390000000000E+01
4879000000.000000      5.632019000000000E-01     -1.708828000000000E+02      5.135803000000000E-01     -8.141016000000000E+01      5.736084000000000E-01      1.796172000000000E+02      7.841797000000000E-01     -9.446484000000000E+01
4880000000.000000      5.629578000000000E-01     -1.710312000000000E+02      5.136719000000000E-01     -8.167969000000000E+01      5.769653000000000E-01      1.795312000000000E+02      7.870789000000000E-01     -9.445704000000000E+01
4881000000.000000      5.642700000000000E-01     -1.711250000000000E+02      5.166016000000000E-01     -8.163671000000000E+01      5.790710000000000E-01      1.791016000000000E+02      7.894287000000000E-01     -9.463671000000000E+01
4882000000.000000      5.626831000000000E-01     -1.712344000000000E+02      5.157776000000000E-01     -8.196875000000000E+01      5.809021000000000E-01      1.791250000000000E+02      7.913513000000000E-01     -9.467968000000000E+01
