! Network Analyzer HP8722D
! Hewlett-Packard
! Data name: Linha & Wilkinson
! Saver's name: Rodrigo Anjos
! Comments: Teste da utilização de aquisição
continua pelo VNA HP8722D
! Time and date: 17/4/2025 17:47
!              Frequency                     S11                                                   S21                                                   S12                                                   S22
# HZ  S  MA R 50
4800000000.000000      3.337708000000000E-01     -1.138125000000000E+02      2.935028000000000E-01     -6.099023000000000E+01      2.874756000000000E-01     -1.750781000000000E+02      6.578674000000000E-01     -9.017578000000000E+01
4801000000.000000      3.327332000000000E-01     -1.147187000000000E+02      2.983093000000000E-01     -6.093554000000000E+01      2.915039000000000E-01     -1.750000000000000E+02      6.565552000000000E-01     -9.021093000000000E+01
4802000000.000000      3.318787000000000E-01     -1.158242000000000E+02      3.027039000000000E-01     -6.094921000000000E+01      2.957458000000000E-01     -1.748203000000000E+02      6.546631000000000E-01     -9.019531000000000E+01
4803000000.000000      3.311462000000000E-01     -1.167148000000000E+02      3.082428000000000E-01     -6.120117000000000E+01      2.992401000000000E-01     -1.747266000000000E+02      6.547241000000000E-01     -9.033983000000000E+01
4804000000.000000      3.309021000000000E-01     -1.178086000000000E+02      3.119049000000000E-01     -6.129101000000000E+01      3.033600000000000E-01     -1.747109000000000E+02      6.536255000000000E-01     -9.042187000000000E+01
4805000000.000000      3.308105000000000E-01     -1.188047000000000E+02      3.171997000000000E-01     -6.155078000000000E+01      3.075714000000000E-01     -1.745859000000000E+02      6.529236000000000E-01     -9.057032000000000E+01
4806000000.000000      3.297119000000000E-01     -1.197734000000000E+02      3.214569000000000E-01     -6.158398000000000E+01      3.112640000000000E-01     -1.743594000000000E+02      6.527710000000000E-01     -9.067577000000000E+01
4807000000.000000      3.302002000000000E-01     -1.209180000000000E+02      3.251038000000000E-01     -6.175586000000000E+01      3.150482000000000E-01     -1.744844000000000E+02      6.513672000000000E-01     -9.076563000000000E+01
4808000000.000000      3.309937000000000E-01     -1.217930000000000E+02      3.303223000000000E-01     -6.179688000000000E+01      3.197021000000000E-01     -1.743672000000000E+02      6.507263000000000E-01     -9.069921000000000E+01
4809000000.000000      3.309021000000000E-01     -1.230195000000000E+02      3.343964000000000E-01     -6.212109000000000E+01      3.244324000000000E-01     -1.743984000000000E+02      6.512146000000000E-01     -9.094530000000000E+01
4810000000.000000      3.318787000000000E-01     -1.241406000000000E+02      3.389740000000000E-01     -6.229492000000000E+01      3.281555000000000E-01     -1.741875000000000E+02      6.521301000000000E-01     -9.100780000000000E+01
4811000000.000000      3.325348000000000E-01     -1.251992000000000E+02      3.434601000000000E-01     -6.266406000000000E+01      3.324280000000000E-01     -1.742031000000000E+02      6.495972000000000E-01     -9.108593000000000E+01
4812000000.000000      3.346863000000000E-01     -1.262031000000000E+02      3.471375000000000E-01     -6.279101000000000E+01      3.362122000000000E-01     -1.740937000000000E+02      6.506958000000000E-01     -9.117968000000000E+01
4813000000.000000      3.352051000000000E-01     -1.273516000000000E+02      3.508606000000000E-01     -6.296288000000000E+01      3.398285000000000E-01     -1.738906000000000E+02      6.495972000000000E-01     -9.119921000000000E+01
4814000000.000000      3.365784000000000E-01     -1.285938000000000E+02      3.556824000000000E-01     -6.308203000000000E+01      3.441925000000000E-01     -1.740156000000000E+02      6.504517000000000E-01     -9.132421000000000E+01
4815000000.000000      3.380890000000000E-01     -1.295625000000000E+02      3.598022000000000E-01     -6.336719000000000E+01      3.474121000000000E-01     -1.739375000000000E+02      6.490784000000000E-01     -9.133984000000000E+01
4816000000.000000      3.402710000000000E-01     -1.306406000000000E+02      3.632965000000000E-01     -6.358398000000000E+01      3.527374000000000E-01     -1.739141000000000E+02      6.501465000000000E-01     -9.139843000000000E+01
4817000000.000000      3.429260000000000E-01     -1.317188000000000E+02      3.678284000000000E-01     -6.389648000000000E+01      3.558197000000000E-01     -1.739609000000000E+02      6.507568000000000E-01     -9.151953000000000E+01
4818000000.000000      3.449554000000000E-01     -1.328594000000000E+02      3.707275000000000E-01     -6.409374000000000E+01      3.601685000000000E-01     -1.738750000000000E+02      6.510620000000000E-01     -9.171484000000000E+01
4819000000.000000      3.477020000000000E-01     -1.339297000000000E+02      3.754578000000000E-01     -6.426171000000000E+01      3.634186000000000E-01     -1.739141000000000E+02      6.524658000000000E-01     -9.173437000000000E+01
4820000000.000000      3.495026000000000E-01     -1.349062000000000E+02      3.791351000000000E-01     -6.460546000000000E+01      3.682556000000000E-01     -1.739219000000000E+02      6.522522000000000E-01     -9.185547000000000E+01
4821000000.000000      3.527222000000000E-01     -1.360703000000000E+02      3.833008000000000E-01     -6.478516000000000E+01      3.723145000000000E-01     -1.739375000000000E+02      6.522522000000000E-01     -9.192577000000000E+01
4822000000.000000      3.574829000000000E-01     -1.371875000000000E+02      3.861084000000000E-01     -6.498437000000000E+01      3.748627000000000E-01     -1.738906000000000E+02      6.545105000000000E-01     -9.190624000000000E+01
4823000000.000000      3.599091000000000E-01     -1.381328000000000E+02      3.907318000000000E-01     -6.532031000000000E+01      3.790588000000000E-01     -1.737890000000000E+02      6.544800000000000E-01     -9.202343000000000E+01
4824000000.000000      3.638153000000000E-01     -1.392344000000000E+02      3.944244000000000E-01     -6.568359000000000E+01      3.841400000000000E-01     -1.738984000000000E+02      6.561584000000000E-01     -9.211718000000000E+01
4825000000.000000      3.673401000000000E-01     -1.402031000000000E+02      3.983002000000000E-01     -6.580078000000000E+01      3.882141000000000E-01     -1.738359000000000E+02      6.575012000000000E-01     -9.213282000000000E+01
4826000000.000000      3.716278000000000E-01     -1.412969000000000E+02      4.017181000000000E-01     -6.623437000000000E+01      3.910370000000000E-01     -1.738906000000000E+02      6.579285000000000E-01     -9.226563000000000E+01
4827000000.000000      3.755035000000000E-01     -1.421094000000000E+02      4.050903000000000E-01     -6.629687000000000E+01      3.950500000000000E-01     -1.737734000000000E+02      6.593323000000000E-01     -9.225389000000000E+01
4828000000.000000      3.806610000000000E-01     -1.431875000000000E+02      4.096832000000000E-01     -6.674218000000000E+01      3.994293000000000E-01     -1.738203000000000E+02      6.621094000000000E-01     -9.235937000000000E+01
4829000000.000000      3.828125000000000E-01     -1.439844000000000E+02      4.115295000000000E-01     -6.688281000000000E+01      4.033356000000000E-01     -1.737969000000000E+02      6.632690000000000E-01     -9.232422000000000E+01
4830000000.000000      3.885040000000000E-01     -1.450859000000000E+02      4.148712000000000E-01     -6.727344000000000E+01      4.073792000000000E-01     -1.738437000000000E+02      6.640625000000000E-01     -9.244141000000000E+01
4831000000.000000      3.926392000000000E-01     -1.458906000000000E+02      4.193420000000000E-01     -6.758984000000000E+01      4.116058000000000E-01     -1.738672000000000E+02      6.652527000000000E-01     -9.247265000000000E+01
4832000000.000000      3.983154000000000E-01     -1.468437000000000E+02      4.228668000000000E-01     -6.781640000000000E+01      4.148407000000000E-01     -1.738906000000000E+02      6.672363000000000E-01     -9.266016000000000E+01
4833000000.000000      4.031372000000000E-01     -1.477734000000000E+02      4.261322000000000E-01     -6.813671000000000E+01      4.194946000000000E-01     -1.739609000000000E+02      6.683044000000000E-01     -9.262499000000000E+01
4834000000.000000      4.076538000000000E-01     -1.486406000000000E+02      4.289856000000000E-01     -6.853516000000000E+01      4.232788000000000E-01     -1.740469000000000E+02      6.703186000000000E-01     -9.280077000000000E+01
4835000000.000000      4.122925000000000E-01     -1.494453000000000E+02      4.325409000000000E-01     -6.871094000000000E+01      4.282684000000000E-01     -1.740547000000000E+02      6.734009000000000E-01     -9.285547000000000E+01
4836000000.000000      4.181061000000000E-01     -1.502266000000000E+02      4.357605000000000E-01     -6.908984000000000E+01      4.317474000000000E-01     -1.740078000000000E+02      6.740417000000000E-01     -9.283594000000000E+01
4837000000.000000      4.230957000000000E-01     -1.510391000000000E+02      4.383392000000000E-01     -6.962500000000000E+01      4.347229000000000E-01     -1.741953000000000E+02      6.762085000000000E-01     -9.289063000000000E+01
4838000000.000000      4.286499000000000E-01     -1.519219000000000E+02      4.416809000000000E-01     -6.967968000000000E+01      4.399719000000000E-01     -1.741875000000000E+02      6.788940000000000E-01     -9.293749000000000E+01
4839000000.000000      4.336243000000000E-01     -1.526094000000000E+02      4.449463000000000E-01     -7.002343000000000E+01      4.432678000000000E-01     -1.742109000000000E+02      6.807861000000000E-01     -9.287889000000000E+01
4840000000.000000      4.382935000000000E-01     -1.534688000000000E+02      4.471130000000000E-01     -7.041406000000000E+01      4.476166000000000E-01     -1.744062000000000E+02      6.827087000000000E-01     -9.303514000000000E+01
4841000000.000000      4.438019000000000E-01     -1.543047000000000E+02      4.510803000000000E-01     -7.083984000000000E+01      4.523163000000000E-01     -1.744766000000000E+02      6.850891000000000E-01     -9.310938000000000E+01
4842000000.000000      4.492493000000000E-01     -1.548828000000000E+02      4.537659000000000E-01     -7.099999000000000E+01      4.552460000000000E-01     -1.744531000000000E+02      6.885376000000000E-01     -9.307032000000000E+01
4843000000.000000      4.538727000000000E-01     -1.557344000000000E+02      4.565582000000000E-01     -7.135156000000000E+01      4.597473000000000E-01     -1.745859000000000E+02      6.895752000000000E-01     -9.317186000000000E+01
4844000000.000000      4.594421000000000E-01     -1.564297000000000E+02      4.591675000000000E-01     -7.171093000000000E+01      4.631042000000000E-01     -1.747187000000000E+02      6.939697000000000E-01     -9.327734000000000E+01
4845000000.000000      4.640808000000000E-01     -1.570078000000000E+02      4.613647000000000E-01     -7.196094000000000E+01      4.675140000000000E-01     -1.748125000000000E+02      6.940918000000000E-01     -9.333202000000000E+01
4846000000.000000      4.690399000000000E-01     -1.576406000000000E+02      4.641571000000000E-01     -7.235546000000000E+01      4.721069000000000E-01     -1.748594000000000E+02      6.981201000000000E-01     -9.327734000000000E+01
4847000000.000000      4.749451000000000E-01     -1.583594000000000E+02      4.667206000000000E-01     -7.263281000000000E+01      4.764862000000000E-01     -1.750625000000000E+02      7.014771000000000E-01     -9.335155000000000E+01
4848000000.000000      4.799652000000000E-01     -1.589453000000000E+02      4.682770000000000E-01     -7.289844000000000E+01      4.797516000000000E-01     -1.750547000000000E+02      7.031250000000000E-01     -9.337891000000000E+01
4849000000.000000      4.848938000000000E-01     -1.598672000000000E+02      4.723053000000000E-01     -7.337891000000000E+01      4.842529000000000E-01     -1.752891000000000E+02      7.061462000000000E-01     -9.342968000000000E+01
4850000000.000000      4.895935000000000E-01     -1.602500000000000E+02      4.739075000000000E-01     -7.366405000000000E+01      4.877472000000000E-01     -1.752578000000000E+02      7.094727000000000E-01     -9.343750000000000E+01
4851000000.000000      4.948578000000000E-01     -1.608203000000000E+02      4.767151000000000E-01     -7.411718000000000E+01      4.912109000000000E-01     -1.754375000000000E+02      7.116394000000000E-01     -9.357813000000000E+01
4852000000.000000      4.994507000000000E-01     -1.614063000000000E+02      4.791870000000000E-01     -7.426952000000000E+01      4.955902000000000E-01     -1.756094000000000E+02      7.142944000000000E-01     -9.359766000000000E+01
4853000000.000000      5.044861000000000E-01     -1.619766000000000E+02      4.790192000000000E-01     -7.465625000000000E+01      4.997864000000000E-01     -1.758281000000000E+02      7.167053000000000E-01     -9.378515000000000E+01
4854000000.000000      5.079651000000000E-01     -1.625937000000000E+02      4.821930000000000E-01     -7.503906000000000E+01      5.033875000000000E-01     -1.759219000000000E+02      7.204895000000000E-01     -9.376171000000000E+01
4855000000.000000      5.118713000000000E-01     -1.631094000000000E+02      4.835663000000000E-01     -7.524219000000000E+01      5.059814000000000E-01     -1.759453000000000E+02      7.222900000000000E-01     -9.359766000000000E+01
4856000000.000000      5.172119000000000E-01     -1.635937000000000E+02      4.867859000000000E-01     -7.557031000000000E+01      5.101013000000000E-01     -1.761406000000000E+02      7.271118000000000E-01     -9.383593000000000E+01
4857000000.000000      5.206909000000000E-01     -1.641797000000000E+02      4.888916000000000E-01     -7.598437000000000E+01      5.148926000000000E-01     -1.761953000000000E+02      7.281799000000000E-01     -9.380468000000000E+01
4858000000.000000      5.230408000000000E-01     -1.646797000000000E+02      4.905853000000000E-01     -7.623828000000000E+01      5.174255000000000E-01     -1.765547000000000E+02      7.308044000000000E-01     -9.387499000000000E+01
4859000000.000000      5.270386000000000E-01     -1.651719000000000E+02      4.936829000000000E-01     -7.666797000000000E+01      5.216370000000000E-01     -1.765938000000000E+02      7.341919000000000E-01     -9.392187000000000E+01
4860000000.000000      5.316772000000000E-01     -1.656719000000000E+02      4.940033000000000E-01     -7.672656000000000E+01      5.238953000000000E-01     -1.768281000000000E+02      7.377319000000000E-01     -9.399218000000000E+01
4861000000.000000      5.357361000000000E-01     -1.660547000000000E+02      4.957581000000000E-01     -7.729297000000000E+01      5.278015000000000E-01     -1.769844000000000E+02      7.392273000000000E-01     -9.399609000000000E+01
4862000000.000000      5.374146000000000E-01     -1.664531000000000E+02      4.974823000000000E-01     -7.748437000000000E+01      5.330200000000000E-01     -1.772578000000000E+02      7.440796000000000E-01     -9.398046000000000E+01
4863000000.000000      5.404358000000000E-01     -1.668906000000000E+02      4.984131000000000E-01     -7.781250000000000E+01      5.353088000000000E-01     -1.774297000000000E+02      7.470093000000000E-01     -9.396875000000000E+01
4864000000.000000      5.429077000000000E-01     -1.673437000000000E+02      4.994965000000000E-01     -7.787109000000000E+01      5.354919000000000E-01     -1.775078000000000E+02      7.478333000000000E-01     -9.410936000000000E+01
4865000000.000000      5.448303000000000E-01     -1.677422000000000E+02      5.010071000000000E-01     -7.823437000000000E+01      5.414124000000000E-01     -1.777187000000000E+02      7.505798000000000E-01     -9.394140000000000E+01
4866000000.000000      5.475464000000000E-01     -1.681094000000000E+02      5.022583000000000E-01     -7.861718000000000E+01      5.440979000000000E-01     -1.779766000000000E+02      7.552490000000000E-01     -9.406641000000000E+01
4867000000.000000      5.499878000000000E-01     -1.684141000000000E+02      5.034790000000000E-01     -7.874218000000000E+01      5.479736000000000E-01     -1.781953000000000E+02      7.574158000000000E-01     -9.419140000000000E+01
4868000000.000000      5.527039000000000E-01     -1.688359000000000E+02      5.066833000000000E-01     -7.928905000000000E+01      5.512085000000000E-01     -1.784609000000000E+02      7.596436000000000E-01     -9.424999000000000E+01
4869000000.000000      5.526428000000000E-01     -1.691328000000000E+02      5.051880000000000E-01     -7.948828000000000E+01      5.534973000000000E-01     -1.786562000000000E+02      7.632751000000000E-01     -9.439062000000000E+01
4870000000.000000      5.555725000000000E-01     -1.695469000000000E+02      5.079041000000000E-01     -7.955859000000000E+01      5.548096000000000E-01     -1.788359000000000E+02      7.653198000000000E-01     -9.427343000000000E+01
4871000000.000000      5.573730000000000E-01     -1.697969000000000E+02      5.084839000000000E-01     -8.008204000000000E+01      5.580750000000000E-01     -1.789766000000000E+02      7.677612000000000E-01     -9.431641000000000E+01
4872000000.000000      5.591125000000000E-01     -1.700703000000000E+02      5.088806000000000E-01     -8.014843000000000E+01      5.608826000000000E-01     -1.794141000000000E+02      7.713318000000000E-01     -9.436327000000000E+01
4873000000.000000      5.602417000000000E-01     -1.703594000000000E+02      5.107117000000000E-01     -8.050390000000000E+01      5.627136000000000E-01     -1.794765000000000E+02      7.731934000000000E-01     -9.448828000000000E+01
4874000000.000000      5.609436000000000E-01     -1.705547000000000E+02      5.112610000000000E-01     -8.067186000000000E+01      5.667419000000000E-01     -1.795156000000000E+02      7.753906000000000E-01     -9.434374000000000E+01
4875000000.000000      5.622864000000000E-01     -1.708906000000000E+02      5.132446000000000E-01     -8.075781000000000E+01      5.685425000000000E-01     -1.799141000000000E+02      7.773132000000000E-01     -9.458593000000000E+01
4876000000.000000      5.620728000000000E-01     -1.710234000000000E+02      5.133667000000000E-01     -8.109766000000000E+01      5.696716000000000E-01     -1.799531000000000E+02      7.807922000000000E-01     -9.466406000000000E+01
4877000000.000000      5.631714000000000E-01     -1.712578000000000E+02      5.147095000000000E-01     -8.129297000000000E+01      5.725708000000000E-01      1.796875000000000E+02      7.831116000000000E-01     -9.473047000000000E+01
4878000000.000000      5.638428000000000E-01     -1.714375000000000E+02      5.153809000000000E-01     -8.157030000000000E+01      5.744629000000000E-01      1.795625000000000E+02      7.851563000000000E-01     -9.480469000000000E+01
4879000000.000000      5.646057000000000E-01     -1.717031000000000E+02      5.162964000000000E-01     -8.178125000000000E+01      5.767517000000000E-01      1.794062000000000E+02      7.866821000000000E-01     -9.458202000000000E+01
4880000000.000000      5.628967000000000E-01     -1.718359000000000E+02      5.186157000000000E-01     -8.189062000000000E+01      5.775452000000000E-01      1.791719000000000E+02      7.882385000000000E-01     -9.471483000000000E+01
4881000000.000000      5.638733000000000E-01     -1.719375000000000E+02      5.186768000000000E-01     -8.212109000000000E+01      5.820007000000000E-01      1.787344000000000E+02      7.909546000000000E-01     -9.480078000000000E+01
4882000000.000000      5.627441000000000E-01     -1.721094000000000E+02      5.193481000000000E-01     -8.226171000000000E+01      5.827942000000000E-01      1.787734000000000E+02      7.925415000000000E-01     -9.483984000000000E+01
