! Network Analyzer HP8722D
! Hewlett-Packard
! Data name: Linha & Wilkinson
! Saver's name: Rodrigo Anjos
! Comments: Teste da utilização de aquisição
continua pelo VNA HP8722D
! Time and date: 17/4/2025 15:57
!              Frequency                     S11                                                   S21                                                   S12                                                   S22
# HZ  S  MA R 50
4800000000.000000      3.335114000000000E-01     -1.134219000000000E+02      2.902527000000000E-01     -6.082031000000000E+01      2.840576000000000E-01     -1.749766000000000E+02      6.560059000000000E-01     -9.010937000000000E+01
4801000000.000000      3.325043000000000E-01     -1.144414000000000E+02      2.945404000000000E-01     -6.080273000000000E+01      2.876282000000000E-01     -1.747890000000000E+02      6.549988000000000E-01     -9.006639000000000E+01
4802000000.000000      3.319092000000000E-01     -1.154102000000000E+02      2.986908000000000E-01     -6.089257000000000E+01      2.921448000000000E-01     -1.747422000000000E+02      6.539917000000000E-01     -9.007421000000000E+01
4803000000.000000      3.312225000000000E-01     -1.164023000000000E+02      3.036346000000000E-01     -6.093359000000000E+01      2.959137000000000E-01     -1.745234000000000E+02      6.524048000000000E-01     -9.030468000000000E+01
4804000000.000000      3.307953000000000E-01     -1.174766000000000E+02      3.079224000000000E-01     -6.115039000000000E+01      3.003235000000000E-01     -1.747031000000000E+02      6.514587000000000E-01     -9.035156000000000E+01
4805000000.000000      3.305969000000000E-01     -1.183867000000000E+02      3.129425000000000E-01     -6.130664000000000E+01      3.043365000000000E-01     -1.744375000000000E+02      6.527710000000000E-01     -9.053514000000000E+01
4806000000.000000      3.304291000000000E-01     -1.193203000000000E+02      3.166351000000000E-01     -6.130664000000000E+01      3.073120000000000E-01     -1.741797000000000E+02      6.511841000000000E-01     -9.057032000000000E+01
4807000000.000000      3.306580000000000E-01     -1.204180000000000E+02      3.215332000000000E-01     -6.151562000000000E+01      3.124847000000000E-01     -1.743125000000000E+02      6.506958000000000E-01     -9.058985000000000E+01
4808000000.000000      3.308258000000000E-01     -1.214805000000000E+02      3.259583000000000E-01     -6.164648000000000E+01      3.157043000000000E-01     -1.741875000000000E+02      6.489868000000000E-01     -9.075390000000000E+01
4809000000.000000      3.304291000000000E-01     -1.226211000000000E+02      3.305664000000000E-01     -6.215038000000000E+01      3.205109000000000E-01     -1.742188000000000E+02      6.497192000000000E-01     -9.085155000000000E+01
4810000000.000000      3.312836000000000E-01     -1.238203000000000E+02      3.347168000000000E-01     -6.206249000000000E+01      3.242798000000000E-01     -1.741250000000000E+02      6.487427000000000E-01     -9.093359000000000E+01
4811000000.000000      3.331451000000000E-01     -1.247656000000000E+02      3.389893000000000E-01     -6.231054000000000E+01      3.290558000000000E-01     -1.740000000000000E+02      6.486206000000000E-01     -9.091797000000000E+01
4812000000.000000      3.342743000000000E-01     -1.257500000000000E+02      3.436890000000000E-01     -6.252343000000000E+01      3.327942000000000E-01     -1.738750000000000E+02      6.491699000000000E-01     -9.106249000000000E+01
4813000000.000000      3.348694000000000E-01     -1.269883000000000E+02      3.473206000000000E-01     -6.278320000000000E+01      3.364716000000000E-01     -1.738906000000000E+02      6.489563000000000E-01     -9.108984000000000E+01
4814000000.000000      3.362732000000000E-01     -1.281250000000000E+02      3.509521000000000E-01     -6.280859000000000E+01      3.403015000000000E-01     -1.737734000000000E+02      6.488342000000000E-01     -9.119921000000000E+01
4815000000.000000      3.374634000000000E-01     -1.291094000000000E+02      3.552094000000000E-01     -6.312109000000000E+01      3.434906000000000E-01     -1.737813000000000E+02      6.483459000000000E-01     -9.128124000000000E+01
4816000000.000000      3.399506000000000E-01     -1.300937000000000E+02      3.600159000000000E-01     -6.339257000000000E+01      3.485565000000000E-01     -1.736719000000000E+02      6.487427000000000E-01     -9.135937000000000E+01
4817000000.000000      3.423615000000000E-01     -1.312109000000000E+02      3.638306000000000E-01     -6.365039000000000E+01      3.518372000000000E-01     -1.737890000000000E+02      6.486511000000000E-01     -9.146093000000000E+01
4818000000.000000      3.442993000000000E-01     -1.324531000000000E+02      3.679199000000000E-01     -6.383398000000000E+01      3.569031000000000E-01     -1.735234000000000E+02      6.498108000000000E-01     -9.153906000000000E+01
4819000000.000000      3.472443000000000E-01     -1.334687000000000E+02      3.711395000000000E-01     -6.408203000000000E+01      3.601227000000000E-01     -1.735859000000000E+02      6.516113000000000E-01     -9.161327000000000E+01
4820000000.000000      3.488617000000000E-01     -1.344766000000000E+02      3.751831000000000E-01     -6.425781000000000E+01      3.646698000000000E-01     -1.735781000000000E+02      6.511841000000000E-01     -9.175781000000000E+01
4821000000.000000      3.519287000000000E-01     -1.355313000000000E+02      3.791351000000000E-01     -6.458202000000000E+01      3.669434000000000E-01     -1.737031000000000E+02      6.501465000000000E-01     -9.187891000000000E+01
4822000000.000000      3.564911000000000E-01     -1.366250000000000E+02      3.830719000000000E-01     -6.482422000000000E+01      3.713226000000000E-01     -1.737890000000000E+02      6.516418000000000E-01     -9.180468000000000E+01
4823000000.000000      3.587952000000000E-01     -1.376094000000000E+02      3.864441000000000E-01     -6.511719000000000E+01      3.764038000000000E-01     -1.734922000000000E+02      6.530762000000000E-01     -9.189844000000000E+01
4824000000.000000      3.630524000000000E-01     -1.387422000000000E+02      3.907471000000000E-01     -6.544140000000000E+01      3.805084000000000E-01     -1.736719000000000E+02      6.536255000000000E-01     -9.204296000000000E+01
4825000000.000000      3.663330000000000E-01     -1.396797000000000E+02      3.934326000000000E-01     -6.562500000000000E+01      3.850098000000000E-01     -1.735625000000000E+02      6.545105000000000E-01     -9.210938000000000E+01
4826000000.000000      3.704071000000000E-01     -1.407500000000000E+02      3.974762000000000E-01     -6.593750000000000E+01      3.874512000000000E-01     -1.736328000000000E+02      6.561279000000000E-01     -9.220703000000000E+01
4827000000.000000      3.746338000000000E-01     -1.415859000000000E+02      4.014893000000000E-01     -6.607422000000000E+01      3.914490000000000E-01     -1.735547000000000E+02      6.585083000000000E-01     -9.221483000000000E+01
4828000000.000000      3.794098000000000E-01     -1.425469000000000E+02      4.055176000000000E-01     -6.639843000000000E+01      3.952942000000000E-01     -1.735859000000000E+02      6.604004000000000E-01     -9.218359000000000E+01
4829000000.000000      3.818512000000000E-01     -1.434453000000000E+02      4.073639000000000E-01     -6.678124000000000E+01      4.000549000000000E-01     -1.736250000000000E+02      6.598511000000000E-01     -9.230860000000000E+01
4830000000.000000      3.873291000000000E-01     -1.444766000000000E+02      4.117279000000000E-01     -6.701562000000000E+01      4.042358000000000E-01     -1.736562000000000E+02      6.615601000000000E-01     -9.237890000000000E+01
4831000000.000000      3.911591000000000E-01     -1.453750000000000E+02      4.151001000000000E-01     -6.741405000000000E+01      4.088898000000000E-01     -1.736641000000000E+02      6.636047000000000E-01     -9.246485000000000E+01
4832000000.000000      3.969879000000000E-01     -1.462656000000000E+02      4.185486000000000E-01     -6.770312000000000E+01      4.116669000000000E-01     -1.736875000000000E+02      6.648560000000000E-01     -9.250000000000000E+01
4833000000.000000      4.020081000000000E-01     -1.472969000000000E+02      4.223328000000000E-01     -6.797265000000000E+01      4.158020000000000E-01     -1.737344000000000E+02      6.667480000000000E-01     -9.256250000000000E+01
4834000000.000000      4.063568000000000E-01     -1.480625000000000E+02      4.249725000000000E-01     -6.829296000000000E+01      4.199219000000000E-01     -1.737734000000000E+02      6.688843000000000E-01     -9.260157000000000E+01
4835000000.000000      4.111176000000000E-01     -1.488516000000000E+02      4.288177000000000E-01     -6.851953000000000E+01      4.244995000000000E-01     -1.738047000000000E+02      6.706848000000000E-01     -9.275000000000000E+01
4836000000.000000      4.164124000000000E-01     -1.496641000000000E+02      4.316559000000000E-01     -6.891015000000000E+01      4.278107000000000E-01     -1.737734000000000E+02      6.714783000000000E-01     -9.269140000000000E+01
4837000000.000000      4.219055000000000E-01     -1.504219000000000E+02      4.342194000000000E-01     -6.939843000000000E+01      4.321289000000000E-01     -1.739453000000000E+02      6.747131000000000E-01     -9.287109000000000E+01
4838000000.000000      4.271851000000000E-01     -1.513828000000000E+02      4.389496000000000E-01     -6.948047000000000E+01      4.362640000000000E-01     -1.739531000000000E+02      6.766663000000000E-01     -9.278124000000000E+01
4839000000.000000      4.318542000000000E-01     -1.520391000000000E+02      4.413147000000000E-01     -6.976171000000000E+01      4.401093000000000E-01     -1.739375000000000E+02      6.788635000000000E-01     -9.282812000000000E+01
4840000000.000000      4.366760000000000E-01     -1.529453000000000E+02      4.442139000000000E-01     -7.001562000000000E+01      4.448853000000000E-01     -1.741094000000000E+02      6.802368000000000E-01     -9.294531000000000E+01
4841000000.000000      4.421844000000000E-01     -1.537656000000000E+02      4.462585000000000E-01     -7.061328000000000E+01      4.489288000000000E-01     -1.742656000000000E+02      6.829529000000000E-01     -9.297655000000000E+01
4842000000.000000      4.479980000000000E-01     -1.543281000000000E+02      4.501495000000000E-01     -7.076562000000000E+01      4.522858000000000E-01     -1.742734000000000E+02      6.860046000000000E-01     -9.298828000000000E+01
4843000000.000000      4.522400000000000E-01     -1.552187000000000E+02      4.528046000000000E-01     -7.123437000000000E+01      4.565430000000000E-01     -1.743359000000000E+02      6.886597000000000E-01     -9.301561000000000E+01
4844000000.000000      4.575500000000000E-01     -1.558203000000000E+02      4.558105000000000E-01     -7.150781000000000E+01      4.598541000000000E-01     -1.744375000000000E+02      6.909790000000000E-01     -9.318750000000000E+01
4845000000.000000      4.618835000000000E-01     -1.564219000000000E+02      4.577789000000000E-01     -7.176171000000000E+01      4.640808000000000E-01     -1.745469000000000E+02      6.916199000000000E-01     -9.317186000000000E+01
4846000000.000000      4.679565000000000E-01     -1.570703000000000E+02      4.607239000000000E-01     -7.208202000000000E+01      4.694519000000000E-01     -1.746406000000000E+02      6.954956000000000E-01     -9.319921000000000E+01
4847000000.000000      4.733124000000000E-01     -1.577500000000000E+02      4.627533000000000E-01     -7.228125000000000E+01      4.729462000000000E-01     -1.747890000000000E+02      6.999207000000000E-01     -9.324999000000000E+01
4848000000.000000      4.780884000000000E-01     -1.583516000000000E+02      4.651642000000000E-01     -7.270312000000000E+01      4.771271000000000E-01     -1.748516000000000E+02      7.012329000000000E-01     -9.331249000000000E+01
4849000000.000000      4.828491000000000E-01     -1.592734000000000E+02      4.682007000000000E-01     -7.305859000000000E+01      4.807587000000000E-01     -1.750156000000000E+02      7.032471000000000E-01     -9.337891000000000E+01
4850000000.000000      4.878235000000000E-01     -1.596250000000000E+02      4.707336000000000E-01     -7.347265000000000E+01      4.847412000000000E-01     -1.750937000000000E+02      7.069092000000000E-01     -9.338282000000000E+01
4851000000.000000      4.928589000000000E-01     -1.602500000000000E+02      4.736633000000000E-01     -7.381249000000000E+01      4.878540000000000E-01     -1.752344000000000E+02      7.103882000000000E-01     -9.332031000000000E+01
4852000000.000000      4.977112000000000E-01     -1.608672000000000E+02      4.755096000000000E-01     -7.397265000000000E+01      4.928436000000000E-01     -1.752734000000000E+02      7.117920000000000E-01     -9.347265000000000E+01
4853000000.000000      5.021973000000000E-01     -1.614531000000000E+02      4.774323000000000E-01     -7.428515000000000E+01      4.969635000000000E-01     -1.755234000000000E+02      7.147827000000000E-01     -9.366796000000000E+01
4854000000.000000      5.059814000000000E-01     -1.619844000000000E+02      4.788208000000000E-01     -7.486328000000000E+01      5.005188000000000E-01     -1.756719000000000E+02      7.172546000000000E-01     -9.356640000000000E+01
4855000000.000000      5.099182000000000E-01     -1.625391000000000E+02      4.804077000000000E-01     -7.503124000000000E+01      5.034790000000000E-01     -1.757422000000000E+02      7.197876000000000E-01     -9.361719000000000E+01
4856000000.000000      5.152588000000000E-01     -1.629688000000000E+02      4.826813000000000E-01     -7.527344000000000E+01      5.082703000000000E-01     -1.759140000000000E+02      7.233582000000000E-01     -9.370703000000000E+01
4857000000.000000      5.189209000000000E-01     -1.635859000000000E+02      4.855804000000000E-01     -7.571484000000000E+01      5.115356000000000E-01     -1.759531000000000E+02      7.274475000000000E-01     -9.375000000000000E+01
4858000000.000000      5.208740000000000E-01     -1.640781000000000E+02      4.872894000000000E-01     -7.593359000000000E+01      5.145264000000000E-01     -1.762187000000000E+02      7.299194000000000E-01     -9.377344000000000E+01
4859000000.000000      5.253906000000000E-01     -1.646250000000000E+02      4.897156000000000E-01     -7.629296000000000E+01      5.188599000000000E-01     -1.764766000000000E+02      7.327881000000000E-01     -9.382030000000000E+01
4860000000.000000      5.301208000000000E-01     -1.650547000000000E+02      4.898376000000000E-01     -7.650781000000000E+01      5.205994000000000E-01     -1.766172000000000E+02      7.342529000000000E-01     -9.374218000000000E+01
4861000000.000000      5.330505000000000E-01     -1.653984000000000E+02      4.928741000000000E-01     -7.694530000000000E+01      5.271912000000000E-01     -1.767500000000000E+02      7.380981000000000E-01     -9.383593000000000E+01
4862000000.000000      5.352783000000000E-01     -1.658906000000000E+02      4.957428000000000E-01     -7.712500000000000E+01      5.290222000000000E-01     -1.768594000000000E+02      7.423401000000000E-01     -9.389063000000000E+01
4863000000.000000      5.380249000000000E-01     -1.662891000000000E+02      4.960327000000000E-01     -7.755468000000000E+01      5.333557000000000E-01     -1.770547000000000E+02      7.437134000000000E-01     -9.398829000000000E+01
4864000000.000000      5.411377000000000E-01     -1.667422000000000E+02      4.982910000000000E-01     -7.783203000000000E+01      5.349121000000000E-01     -1.772734000000000E+02      7.465210000000000E-01     -9.403906000000000E+01
4865000000.000000      5.433960000000000E-01     -1.672109000000000E+02      4.988403000000000E-01     -7.803515000000000E+01      5.385132000000000E-01     -1.775312000000000E+02      7.496033000000000E-01     -9.395702000000000E+01
4866000000.000000      5.455627000000000E-01     -1.675000000000000E+02      4.970856000000000E-01     -7.842187000000000E+01      5.423584000000000E-01     -1.777578000000000E+02      7.527771000000000E-01     -9.395311000000000E+01
4867000000.000000      5.484619000000000E-01     -1.678750000000000E+02      5.013733000000000E-01     -7.880859000000000E+01      5.444336000000000E-01     -1.777969000000000E+02      7.551880000000000E-01     -9.403515000000000E+01
4868000000.000000      5.511780000000000E-01     -1.682266000000000E+02      5.023193000000000E-01     -7.902734000000000E+01      5.484009000000000E-01     -1.780391000000000E+02      7.583008000000000E-01     -9.406250000000000E+01
4869000000.000000      5.523376000000000E-01     -1.685625000000000E+02      5.029297000000000E-01     -7.917187000000000E+01      5.509033000000000E-01     -1.783672000000000E+02      7.607117000000000E-01     -9.424999000000000E+01
4870000000.000000      5.542603000000000E-01     -1.688594000000000E+02      5.042725000000000E-01     -7.955078000000000E+01      5.527039000000000E-01     -1.785234000000000E+02      7.648315000000000E-01     -9.417187000000000E+01
4871000000.000000      5.557251000000000E-01     -1.691953000000000E+02      5.051880000000000E-01     -7.975390000000000E+01      5.547791000000000E-01     -1.787422000000000E+02      7.659607000000000E-01     -9.430079000000000E+01
4872000000.000000      5.581360000000000E-01     -1.694687000000000E+02      5.050659000000000E-01     -7.965234000000000E+01      5.588684000000000E-01     -1.790859000000000E+02      7.704773000000000E-01     -9.425781000000000E+01
4873000000.000000      5.586243000000000E-01     -1.697031000000000E+02      5.082397000000000E-01     -8.012499000000000E+01      5.600586000000000E-01     -1.791953000000000E+02      7.710571000000000E-01     -9.444530000000000E+01
4874000000.000000      5.590515000000000E-01     -1.698906000000000E+02      5.091553000000000E-01     -8.052343000000000E+01      5.640259000000000E-01     -1.793359000000000E+02      7.737122000000000E-01     -9.428905000000000E+01
4875000000.000000      5.605774000000000E-01     -1.702344000000000E+02      5.094910000000000E-01     -8.064844000000000E+01      5.657043000000000E-01     -1.796484000000000E+02      7.757263000000000E-01     -9.444921000000000E+01
4876000000.000000      5.598755000000000E-01     -1.703906000000000E+02      5.100403000000000E-01     -8.091015000000000E+01      5.667419000000000E-01     -1.798281000000000E+02      7.790222000000000E-01     -9.446484000000000E+01
4877000000.000000      5.619202000000000E-01     -1.706250000000000E+02      5.123291000000000E-01     -8.107031000000000E+01      5.707092000000000E-01      1.799062000000000E+02      7.808838000000000E-01     -9.457422000000000E+01
4878000000.000000      5.622864000000000E-01     -1.708672000000000E+02      5.131836000000000E-01     -8.124609000000000E+01      5.724792000000000E-01      1.799219000000000E+02      7.830200000000000E-01     -9.461718000000000E+01
4879000000.000000      5.629272000000000E-01     -1.710625000000000E+02      5.119934000000000E-01     -8.139843000000000E+01      5.728455000000000E-01      1.795469000000000E+02      7.847290000000000E-01     -9.447657000000000E+01
4880000000.000000      5.621033000000000E-01     -1.711875000000000E+02      5.146790000000000E-01     -8.180468000000000E+01      5.764465000000000E-01      1.792734000000000E+02      7.877502000000000E-01     -9.457422000000000E+01
4881000000.000000      5.630798000000000E-01     -1.713281000000000E+02      5.162964000000000E-01     -8.181641000000000E+01      5.790710000000000E-01      1.790781000000000E+02      7.893982000000000E-01     -9.466015000000000E+01
4882000000.000000      5.616455000000000E-01     -1.715391000000000E+02      5.163574000000000E-01     -8.194530000000000E+01      5.803223000000000E-01      1.789531000000000E+02      7.900391000000000E-01     -9.469141000000000E+01
