! Network Analyzer HP8722D
! Hewlett-Packard
! Data name: Linha & Wilkinson
! Saver's name: Rodrigo Anjos
! Comments: Teste da utilização de aquisição
continua pelo VNA HP8722D
! Time and date: 17/4/2025 16:44
!              Frequency                     S11                                                   S21                                                   S12                                                   S22
# HZ  S  MA R 50
4800000000.000000      3.358612000000000E-01     -1.165547000000000E+02      3.139954000000000E-01     -6.224999000000000E+01      3.080292000000000E-01     -1.765234000000000E+02      6.575012000000000E-01     -9.139843000000000E+01
4801000000.000000      3.351440000000000E-01     -1.175781000000000E+02      3.182373000000000E-01     -6.230469000000000E+01      3.112793000000000E-01     -1.764219000000000E+02      6.563416000000000E-01     -9.144140000000000E+01
4802000000.000000      3.347778000000000E-01     -1.186094000000000E+02      3.221130000000000E-01     -6.237109000000000E+01      3.156281000000000E-01     -1.763594000000000E+02      6.549377000000000E-01     -9.147264000000000E+01
4803000000.000000      3.338470000000000E-01     -1.197070000000000E+02      3.274841000000000E-01     -6.265234000000000E+01      3.191833000000000E-01     -1.763125000000000E+02      6.549072000000000E-01     -9.160156000000000E+01
4804000000.000000      3.334045000000000E-01     -1.206602000000000E+02      3.312988000000000E-01     -6.278906000000000E+01      3.231659000000000E-01     -1.764453000000000E+02      6.539917000000000E-01     -9.157812000000000E+01
4805000000.000000      3.345032000000000E-01     -1.217070000000000E+02      3.350067000000000E-01     -6.306054000000000E+01      3.276520000000000E-01     -1.762734000000000E+02      6.526489000000000E-01     -9.191797000000000E+01
4806000000.000000      3.335724000000000E-01     -1.225937000000000E+02      3.395081000000000E-01     -6.316211000000000E+01      3.306274000000000E-01     -1.760078000000000E+02      6.532898000000000E-01     -9.195704000000000E+01
4807000000.000000      3.342590000000000E-01     -1.237930000000000E+02      3.437958000000000E-01     -6.342968000000000E+01      3.352814000000000E-01     -1.761953000000000E+02      6.512451000000000E-01     -9.194921000000000E+01
4808000000.000000      3.351440000000000E-01     -1.247109000000000E+02      3.489075000000000E-01     -6.348242000000000E+01      3.382416000000000E-01     -1.762500000000000E+02      6.512451000000000E-01     -9.204296000000000E+01
4809000000.000000      3.352356000000000E-01     -1.259414000000000E+02      3.524933000000000E-01     -6.407421000000000E+01      3.425293000000000E-01     -1.762344000000000E+02      6.516724000000000E-01     -9.228125000000000E+01
4810000000.000000      3.358459000000000E-01     -1.270117000000000E+02      3.565979000000000E-01     -6.417578000000000E+01      3.466034000000000E-01     -1.762422000000000E+02      6.510315000000000E-01     -9.229687000000000E+01
4811000000.000000      3.376160000000000E-01     -1.280625000000000E+02      3.610229000000000E-01     -6.437890000000000E+01      3.513641000000000E-01     -1.760313000000000E+02      6.510010000000000E-01     -9.225389000000000E+01
4812000000.000000      3.390808000000000E-01     -1.291484000000000E+02      3.647308000000000E-01     -6.455859000000000E+01      3.551178000000000E-01     -1.761328000000000E+02      6.505737000000000E-01     -9.237108000000000E+01
4813000000.000000      3.399200000000000E-01     -1.302734000000000E+02      3.678284000000000E-01     -6.483984000000000E+01      3.575592000000000E-01     -1.760000000000000E+02      6.506348000000000E-01     -9.240234000000000E+01
4814000000.000000      3.413239000000000E-01     -1.314844000000000E+02      3.729095000000000E-01     -6.498437000000000E+01      3.616943000000000E-01     -1.760703000000000E+02      6.510315000000000E-01     -9.267578000000000E+01
4815000000.000000      3.435822000000000E-01     -1.324922000000000E+02      3.764038000000000E-01     -6.549999000000000E+01      3.650360000000000E-01     -1.761094000000000E+02      6.500854000000000E-01     -9.263672000000000E+01
4816000000.000000      3.458405000000000E-01     -1.335625000000000E+02      3.798218000000000E-01     -6.545312000000000E+01      3.695984000000000E-01     -1.759531000000000E+02      6.510010000000000E-01     -9.279297000000000E+01
4817000000.000000      3.487854000000000E-01     -1.345937000000000E+02      3.843994000000000E-01     -6.586328000000000E+01      3.726501000000000E-01     -1.760937000000000E+02      6.509094000000000E-01     -9.287500000000000E+01
4818000000.000000      3.510895000000000E-01     -1.357422000000000E+02      3.867188000000000E-01     -6.611328000000000E+01      3.772278000000000E-01     -1.760469000000000E+02      6.512146000000000E-01     -9.299219000000000E+01
4819000000.000000      3.542633000000000E-01     -1.368750000000000E+02      3.907013000000000E-01     -6.640234000000000E+01      3.798370000000000E-01     -1.761016000000000E+02      6.529541000000000E-01     -9.309374000000000E+01
4820000000.000000      3.559418000000000E-01     -1.378515000000000E+02      3.941498000000000E-01     -6.664453000000000E+01      3.840485000000000E-01     -1.760391000000000E+02      6.536255000000000E-01     -9.305859000000000E+01
4821000000.000000      3.596497000000000E-01     -1.389688000000000E+02      3.996582000000000E-01     -6.704687000000000E+01      3.880615000000000E-01     -1.762969000000000E+02      6.523132000000000E-01     -9.326172000000000E+01
4822000000.000000      3.637848000000000E-01     -1.400625000000000E+02      4.017334000000000E-01     -6.717968000000000E+01      3.913422000000000E-01     -1.761875000000000E+02      6.544800000000000E-01     -9.322657000000000E+01
4823000000.000000      3.665314000000000E-01     -1.410547000000000E+02      4.052887000000000E-01     -6.743750000000000E+01      3.954620000000000E-01     -1.759766000000000E+02      6.567078000000000E-01     -9.335546000000000E+01
4824000000.000000      3.706207000000000E-01     -1.421719000000000E+02      4.092255000000000E-01     -6.787499000000000E+01      3.998413000000000E-01     -1.762891000000000E+02      6.563416000000000E-01     -9.338282000000000E+01
4825000000.000000      3.739471000000000E-01     -1.431406000000000E+02      4.114532000000000E-01     -6.807031000000000E+01      4.034882000000000E-01     -1.761641000000000E+02      6.574707000000000E-01     -9.347656000000000E+01
4826000000.000000      3.783417000000000E-01     -1.441015000000000E+02      4.153290000000000E-01     -6.844921000000000E+01      4.061432000000000E-01     -1.762656000000000E+02      6.589050000000000E-01     -9.353516000000000E+01
4827000000.000000      3.824005000000000E-01     -1.449687000000000E+02      4.187622000000000E-01     -6.849218000000000E+01      4.102631000000000E-01     -1.761250000000000E+02      6.600342000000000E-01     -9.359375000000000E+01
4828000000.000000      3.876343000000000E-01     -1.460547000000000E+02      4.226074000000000E-01     -6.887500000000000E+01      4.141388000000000E-01     -1.761641000000000E+02      6.625977000000000E-01     -9.367188000000000E+01
4829000000.000000      3.902283000000000E-01     -1.468906000000000E+02      4.249268000000000E-01     -6.943359000000000E+01      4.174652000000000E-01     -1.762031000000000E+02      6.631470000000000E-01     -9.364061000000000E+01
4830000000.000000      3.955994000000000E-01     -1.478359000000000E+02      4.287262000000000E-01     -6.960155000000000E+01      4.223328000000000E-01     -1.762031000000000E+02      6.641541000000000E-01     -9.386328000000000E+01
4831000000.000000      3.995819000000000E-01     -1.487813000000000E+02      4.324341000000000E-01     -6.987890000000000E+01      4.260101000000000E-01     -1.763047000000000E+02      6.665039000000000E-01     -9.396484000000000E+01
4832000000.000000      4.055634000000000E-01     -1.496719000000000E+02      4.352112000000000E-01     -7.013672000000000E+01      4.298401000000000E-01     -1.762812000000000E+02      6.684875000000000E-01     -9.395311000000000E+01
4833000000.000000      4.102478000000000E-01     -1.505938000000000E+02      4.385834000000000E-01     -7.042578000000000E+01      4.330597000000000E-01     -1.764219000000000E+02      6.692200000000000E-01     -9.404688000000000E+01
4834000000.000000      4.149323000000000E-01     -1.514688000000000E+02      4.408112000000000E-01     -7.087500000000000E+01      4.366455000000000E-01     -1.763906000000000E+02      6.718445000000000E-01     -9.422266000000000E+01
4835000000.000000      4.193878000000000E-01     -1.522656000000000E+02      4.437408000000000E-01     -7.114452000000000E+01      4.412689000000000E-01     -1.765234000000000E+02      6.745300000000000E-01     -9.428514000000000E+01
4836000000.000000      4.252777000000000E-01     -1.530859000000000E+02      4.469910000000000E-01     -7.143359000000000E+01      4.438171000000000E-01     -1.764297000000000E+02      6.743774000000000E-01     -9.424219000000000E+01
4837000000.000000      4.306030000000000E-01     -1.538516000000000E+02      4.498291000000000E-01     -7.202734000000000E+01      4.480286000000000E-01     -1.767109000000000E+02      6.763306000000000E-01     -9.420313000000000E+01
4838000000.000000      4.355927000000000E-01     -1.547734000000000E+02      4.527893000000000E-01     -7.206249000000000E+01      4.525146000000000E-01     -1.767109000000000E+02      6.794434000000000E-01     -9.439453000000000E+01
4839000000.000000      4.403381000000000E-01     -1.554141000000000E+02      4.548950000000000E-01     -7.240234000000000E+01      4.565582000000000E-01     -1.767031000000000E+02      6.820068000000000E-01     -9.431641000000000E+01
4840000000.000000      4.449921000000000E-01     -1.562891000000000E+02      4.580841000000000E-01     -7.266406000000000E+01      4.597321000000000E-01     -1.769063000000000E+02      6.844177000000000E-01     -9.452343000000000E+01
4841000000.000000      4.505768000000000E-01     -1.570781000000000E+02      4.604950000000000E-01     -7.319921000000000E+01      4.638824000000000E-01     -1.770156000000000E+02      6.845703000000000E-01     -9.443359000000000E+01
4842000000.000000      4.561768000000000E-01     -1.576406000000000E+02      4.630127000000000E-01     -7.346093000000000E+01      4.667664000000000E-01     -1.770000000000000E+02      6.887207000000000E-01     -9.448828000000000E+01
4843000000.000000      4.607239000000000E-01     -1.585000000000000E+02      4.658356000000000E-01     -7.381249000000000E+01      4.704132000000000E-01     -1.770937000000000E+02      6.907043000000000E-01     -9.462891000000000E+01
4844000000.000000      4.655914000000000E-01     -1.590937000000000E+02      4.690857000000000E-01     -7.416797000000000E+01      4.738007000000000E-01     -1.772266000000000E+02      6.932373000000000E-01     -9.467188000000000E+01
4845000000.000000      4.703674000000000E-01     -1.598125000000000E+02      4.702606000000000E-01     -7.445313000000000E+01      4.785004000000000E-01     -1.773281000000000E+02      6.949158000000000E-01     -9.461718000000000E+01
4846000000.000000      4.751892000000000E-01     -1.603906000000000E+02      4.726868000000000E-01     -7.464062000000000E+01      4.828186000000000E-01     -1.773984000000000E+02      6.987305000000000E-01     -9.479296000000000E+01
4847000000.000000      4.809418000000000E-01     -1.611016000000000E+02      4.750519000000000E-01     -7.494141000000000E+01      4.867554000000000E-01     -1.776484000000000E+02      7.017212000000000E-01     -9.478907000000000E+01
4848000000.000000      4.857330000000000E-01     -1.617500000000000E+02      4.760895000000000E-01     -7.533984000000000E+01      4.896698000000000E-01     -1.776484000000000E+02      7.035828000000000E-01     -9.492968000000000E+01
4849000000.000000      4.898071000000000E-01     -1.625625000000000E+02      4.797974000000000E-01     -7.577343000000000E+01      4.939728000000000E-01     -1.778203000000000E+02      7.064819000000000E-01     -9.483984000000000E+01
4850000000.000000      4.943695000000000E-01     -1.629219000000000E+02      4.822693000000000E-01     -7.599218000000000E+01      4.971161000000000E-01     -1.779063000000000E+02      7.094421000000000E-01     -9.485937000000000E+01
4851000000.000000      4.994049000000000E-01     -1.635313000000000E+02      4.846039000000000E-01     -7.642187000000000E+01      5.011597000000000E-01     -1.781094000000000E+02      7.117920000000000E-01     -9.492968000000000E+01
4852000000.000000      5.037231000000000E-01     -1.641172000000000E+02      4.864197000000000E-01     -7.667578000000000E+01      5.040894000000000E-01     -1.781641000000000E+02      7.158203000000000E-01     -9.497265000000000E+01
4853000000.000000      5.081787000000000E-01     -1.646406000000000E+02      4.865570000000000E-01     -7.694921000000000E+01      5.072021000000000E-01     -1.783828000000000E+02      7.177124000000000E-01     -9.525000000000000E+01
4854000000.000000      5.119629000000000E-01     -1.652109000000000E+02      4.888000000000000E-01     -7.744922000000000E+01      5.122681000000000E-01     -1.785078000000000E+02      7.205811000000000E-01     -9.509375000000000E+01
4855000000.000000      5.149231000000000E-01     -1.657812000000000E+02      4.900360000000000E-01     -7.763672000000000E+01      5.148315000000000E-01     -1.785625000000000E+02      7.225952000000000E-01     -9.516405000000000E+01
4856000000.000000      5.204163000000000E-01     -1.662344000000000E+02      4.925232000000000E-01     -7.797656000000000E+01      5.182190000000000E-01     -1.787188000000000E+02      7.255859000000000E-01     -9.524218000000000E+01
4857000000.000000      5.229492000000000E-01     -1.667969000000000E+02      4.946442000000000E-01     -7.816796000000000E+01      5.221863000000000E-01     -1.788906000000000E+02      7.283630000000000E-01     -9.526562000000000E+01
4858000000.000000      5.244446000000000E-01     -1.673047000000000E+02      4.948273000000000E-01     -7.848046000000000E+01      5.243835000000000E-01     -1.789531000000000E+02      7.301331000000000E-01     -9.531641000000000E+01
4859000000.000000      5.289307000000000E-01     -1.678047000000000E+02      4.975739000000000E-01     -7.887109000000000E+01      5.288391000000000E-01     -1.792578000000000E+02      7.352600000000000E-01     -9.544531000000000E+01
4860000000.000000      5.338135000000000E-01     -1.682344000000000E+02      4.977875000000000E-01     -7.918750000000000E+01      5.311890000000000E-01     -1.793750000000000E+02      7.370911000000000E-01     -9.540234000000000E+01
4861000000.000000      5.363770000000000E-01     -1.686797000000000E+02      5.003967000000000E-01     -7.964844000000000E+01      5.354004000000000E-01     -1.795078000000000E+02      7.394714000000000E-01     -9.540234000000000E+01
4862000000.000000      5.381775000000000E-01     -1.690625000000000E+02      5.020447000000000E-01     -7.987499000000000E+01      5.379944000000000E-01     -1.796953000000000E+02      7.426453000000000E-01     -9.554688000000000E+01
4863000000.000000      5.410461000000000E-01     -1.695000000000000E+02      5.019226000000000E-01     -8.028515000000000E+01      5.421448000000000E-01     -1.799453000000000E+02      7.450256000000000E-01     -9.563671000000000E+01
4864000000.000000      5.437317000000000E-01     -1.698750000000000E+02      5.043945000000000E-01     -8.032030000000000E+01      5.426941000000000E-01      1.798672000000000E+02      7.479553000000000E-01     -9.564453000000000E+01
4865000000.000000      5.457764000000000E-01     -1.703828000000000E+02      5.054932000000000E-01     -8.057032000000000E+01      5.458374000000000E-01      1.797578000000000E+02      7.508240000000000E-01     -9.561327000000000E+01
4866000000.000000      5.469971000000000E-01     -1.705547000000000E+02      5.053406000000000E-01     -8.092577000000000E+01      5.498047000000000E-01      1.796328000000000E+02      7.540894000000000E-01     -9.567968000000000E+01
4867000000.000000      5.493469000000000E-01     -1.709609000000000E+02      5.080872000000000E-01     -8.120312000000000E+01      5.511475000000000E-01      1.793437000000000E+02      7.567749000000000E-01     -9.575781000000000E+01
4868000000.000000      5.509033000000000E-01     -1.713750000000000E+02      5.084534000000000E-01     -8.155859000000000E+01      5.556335000000000E-01      1.791641000000000E+02      7.581787000000000E-01     -9.581249000000000E+01
4869000000.000000      5.516663000000000E-01     -1.716953000000000E+02      5.089417000000000E-01     -8.178514000000000E+01      5.572205000000000E-01      1.789219000000000E+02      7.624207000000000E-01     -9.588282000000000E+01
4870000000.000000      5.533752000000000E-01     -1.719609000000000E+02      5.098877000000000E-01     -8.196093000000000E+01      5.583191000000000E-01      1.787422000000000E+02      7.641602000000000E-01     -9.583984000000000E+01
4871000000.000000      5.547180000000000E-01     -1.722812000000000E+02      5.114136000000000E-01     -8.222265000000000E+01      5.611572000000000E-01      1.784688000000000E+02      7.660522000000000E-01     -9.598047000000000E+01
4872000000.000000      5.567322000000000E-01     -1.725469000000000E+02      5.108643000000000E-01     -8.226563000000000E+01      5.630798000000000E-01      1.782969000000000E+02      7.701416000000000E-01     -9.596483000000000E+01
4873000000.000000      5.562134000000000E-01     -1.727890000000000E+02      5.104675000000000E-01     -8.292187000000000E+01      5.650024000000000E-01      1.782578000000000E+02      7.714539000000000E-01     -9.607031000000000E+01
4874000000.000000      5.568848000000000E-01     -1.729687000000000E+02      5.123596000000000E-01     -8.305468000000000E+01      5.683594000000000E-01      1.778750000000000E+02      7.730713000000000E-01     -9.595703000000000E+01
4875000000.000000      5.583496000000000E-01     -1.732891000000000E+02      5.139771000000000E-01     -8.320704000000000E+01      5.703430000000000E-01      1.776953000000000E+02      7.751465000000000E-01     -9.608593000000000E+01
4876000000.000000      5.572205000000000E-01     -1.734297000000000E+02      5.133972000000000E-01     -8.355469000000000E+01      5.705566000000000E-01      1.775938000000000E+02      7.789612000000000E-01     -9.603905000000000E+01
4877000000.000000      5.576782000000000E-01     -1.736406000000000E+02      5.159302000000000E-01     -8.337109000000000E+01      5.747681000000000E-01      1.772266000000000E+02      7.802734000000000E-01     -9.629295000000000E+01
4878000000.000000      5.581360000000000E-01     -1.737578000000000E+02      5.165100000000000E-01     -8.379297000000000E+01      5.769348000000000E-01      1.771484000000000E+02      7.830811000000000E-01     -9.629686000000000E+01
4879000000.000000      5.591431000000000E-01     -1.739687000000000E+02      5.153503000000000E-01     -8.390234000000000E+01      5.768738000000000E-01      1.768984000000000E+02      7.819214000000000E-01     -9.620703000000000E+01
4880000000.000000      5.578308000000000E-01     -1.741016000000000E+02      5.173340000000000E-01     -8.414063000000000E+01      5.800476000000000E-01      1.767422000000000E+02      7.862549000000000E-01     -9.632813000000000E+01
4881000000.000000      5.581665000000000E-01     -1.741953000000000E+02      5.197144000000000E-01     -8.418749000000000E+01      5.817871000000000E-01      1.765078000000000E+02      7.883606000000000E-01     -9.645311000000000E+01
4882000000.000000      5.563660000000000E-01     -1.743438000000000E+02      5.207214000000000E-01     -8.446093000000000E+01      5.822144000000000E-01      1.764844000000000E+02      7.894592000000000E-01     -9.641405000000000E+01
