! Network Analyzer HP8722D
! Hewlett-Packard
! Data name: Linha & Wilkinson
! Saver's name: Rodrigo Anjos
! Comments: Teste da utilização de aquisição
continua pelo VNA HP8722D
! Time and date: 17/4/2025 17:34
!              Frequency                     S11                                                   S21                                                   S12                                                   S22
# HZ  S  MA R 50
4800000000.000000      3.365173000000000E-01     -1.149492000000000E+02      3.005219000000000E-01     -6.137304000000000E+01      2.951508000000000E-01     -1.754375000000000E+02      6.572876000000000E-01     -9.051172000000000E+01
4801000000.000000      3.354645000000000E-01     -1.158984000000000E+02      3.055267000000000E-01     -6.125977000000000E+01      2.980652000000000E-01     -1.754922000000000E+02      6.554871000000000E-01     -9.066797000000000E+01
4802000000.000000      3.347931000000000E-01     -1.169453000000000E+02      3.099518000000000E-01     -6.153906000000000E+01      3.027191000000000E-01     -1.754141000000000E+02      6.538696000000000E-01     -9.065233000000000E+01
4803000000.000000      3.341370000000000E-01     -1.180742000000000E+02      3.150940000000000E-01     -6.173046000000000E+01      3.058777000000000E-01     -1.752812000000000E+02      6.538696000000000E-01     -9.080078000000000E+01
4804000000.000000      3.339539000000000E-01     -1.190586000000000E+02      3.182220000000000E-01     -6.174609000000000E+01      3.106232000000000E-01     -1.752891000000000E+02      6.529846000000000E-01     -9.083593000000000E+01
4805000000.000000      3.338318000000000E-01     -1.200898000000000E+02      3.230286000000000E-01     -6.198828000000000E+01      3.146973000000000E-01     -1.751172000000000E+02      6.524963000000000E-01     -9.103516000000000E+01
4806000000.000000      3.330994000000000E-01     -1.209727000000000E+02      3.276367000000000E-01     -6.215820000000000E+01      3.181305000000000E-01     -1.749687000000000E+02      6.525574000000000E-01     -9.107813000000000E+01
4807000000.000000      3.338318000000000E-01     -1.220391000000000E+02      3.318634000000000E-01     -6.231640000000000E+01      3.223724000000000E-01     -1.751641000000000E+02      6.520386000000000E-01     -9.124218000000000E+01
4808000000.000000      3.344727000000000E-01     -1.230469000000000E+02      3.370514000000000E-01     -6.233788000000000E+01      3.264923000000000E-01     -1.750469000000000E+02      6.503906000000000E-01     -9.116014000000000E+01
4809000000.000000      3.342438000000000E-01     -1.241406000000000E+02      3.407288000000000E-01     -6.285156000000000E+01      3.307800000000000E-01     -1.750625000000000E+02      6.497498000000000E-01     -9.138672000000000E+01
4810000000.000000      3.354340000000000E-01     -1.252812000000000E+02      3.450775000000000E-01     -6.279687000000000E+01      3.349304000000000E-01     -1.748594000000000E+02      6.502686000000000E-01     -9.144140000000000E+01
4811000000.000000      3.368530000000000E-01     -1.263867000000000E+02      3.498383000000000E-01     -6.332812000000000E+01      3.395386000000000E-01     -1.748828000000000E+02      6.493835000000000E-01     -9.137890000000000E+01
4812000000.000000      3.380127000000000E-01     -1.273398000000000E+02      3.532257000000000E-01     -6.322266000000000E+01      3.424683000000000E-01     -1.748125000000000E+02      6.492920000000000E-01     -9.152735000000000E+01
4813000000.000000      3.392334000000000E-01     -1.284765000000000E+02      3.575897000000000E-01     -6.356445000000000E+01      3.463135000000000E-01     -1.746719000000000E+02      6.495056000000000E-01     -9.157812000000000E+01
4814000000.000000      3.406830000000000E-01     -1.297266000000000E+02      3.613739000000000E-01     -6.390625000000000E+01      3.502808000000000E-01     -1.747500000000000E+02      6.502991000000000E-01     -9.181641000000000E+01
4815000000.000000      3.417511000000000E-01     -1.306562000000000E+02      3.651733000000000E-01     -6.426562000000000E+01      3.544617000000000E-01     -1.746172000000000E+02      6.490784000000000E-01     -9.174608000000000E+01
4816000000.000000      3.442078000000000E-01     -1.317344000000000E+02      3.699036000000000E-01     -6.417969000000000E+01      3.587341000000000E-01     -1.745469000000000E+02      6.493225000000000E-01     -9.183985000000000E+01
4817000000.000000      3.467865000000000E-01     -1.327969000000000E+02      3.732758000000000E-01     -6.463281000000000E+01      3.617401000000000E-01     -1.746953000000000E+02      6.492920000000000E-01     -9.201563000000000E+01
4818000000.000000      3.492889000000000E-01     -1.339375000000000E+02      3.763275000000000E-01     -6.476563000000000E+01      3.665314000000000E-01     -1.747266000000000E+02      6.504822000000000E-01     -9.210155000000000E+01
4819000000.000000      3.523102000000000E-01     -1.350312000000000E+02      3.807831000000000E-01     -6.510937000000000E+01      3.689117000000000E-01     -1.746562000000000E+02      6.529541000000000E-01     -9.221874000000000E+01
4820000000.000000      3.534698000000000E-01     -1.360078000000000E+02      3.844299000000000E-01     -6.523828000000000E+01      3.734589000000000E-01     -1.746641000000000E+02      6.524353000000000E-01     -9.229687000000000E+01
4821000000.000000      3.570862000000000E-01     -1.371562000000000E+02      3.880920000000000E-01     -6.560547000000000E+01      3.774109000000000E-01     -1.747344000000000E+02      6.510620000000000E-01     -9.234766000000000E+01
4822000000.000000      3.613281000000000E-01     -1.382500000000000E+02      3.918610000000000E-01     -6.580078000000000E+01      3.807831000000000E-01     -1.746953000000000E+02      6.523743000000000E-01     -9.237890000000000E+01
4823000000.000000      3.636627000000000E-01     -1.392187000000000E+02      3.960724000000000E-01     -6.627343000000000E+01      3.848419000000000E-01     -1.745625000000000E+02      6.542358000000000E-01     -9.246485000000000E+01
4824000000.000000      3.684540000000000E-01     -1.403594000000000E+02      3.989716000000000E-01     -6.633203000000000E+01      3.894958000000000E-01     -1.746484000000000E+02      6.553040000000000E-01     -9.251562000000000E+01
4825000000.000000      3.713684000000000E-01     -1.412656000000000E+02      4.026184000000000E-01     -6.662109000000000E+01      3.930511000000000E-01     -1.746328000000000E+02      6.564636000000000E-01     -9.259766000000000E+01
4826000000.000000      3.760681000000000E-01     -1.423203000000000E+02      4.061737000000000E-01     -6.708984000000000E+01      3.966370000000000E-01     -1.747969000000000E+02      6.576538000000000E-01     -9.268749000000000E+01
4827000000.000000      3.798218000000000E-01     -1.431797000000000E+02      4.099731000000000E-01     -6.706640000000000E+01      4.002686000000000E-01     -1.746562000000000E+02      6.591797000000000E-01     -9.267969000000000E+01
4828000000.000000      3.848114000000000E-01     -1.441641000000000E+02      4.140778000000000E-01     -6.766406000000000E+01      4.044647000000000E-01     -1.745937000000000E+02      6.614685000000000E-01     -9.283203000000000E+01
4829000000.000000      3.869324000000000E-01     -1.451172000000000E+02      4.162750000000000E-01     -6.777344000000000E+01      4.083252000000000E-01     -1.747344000000000E+02      6.615601000000000E-01     -9.282812000000000E+01
4830000000.000000      3.926239000000000E-01     -1.460469000000000E+02      4.200134000000000E-01     -6.810547000000000E+01      4.126129000000000E-01     -1.747187000000000E+02      6.631775000000000E-01     -9.301172000000000E+01
4831000000.000000      3.964386000000000E-01     -1.469219000000000E+02      4.232483000000000E-01     -6.851171000000000E+01      4.162140000000000E-01     -1.747500000000000E+02      6.654968000000000E-01     -9.301952000000000E+01
4832000000.000000      4.025116000000000E-01     -1.478516000000000E+02      4.270782000000000E-01     -6.873047000000000E+01      4.200439000000000E-01     -1.748672000000000E+02      6.657104000000000E-01     -9.302734000000000E+01
4833000000.000000      4.072113000000000E-01     -1.488594000000000E+02      4.296722000000000E-01     -6.907421000000000E+01      4.242859000000000E-01     -1.748281000000000E+02      6.679382000000000E-01     -9.321093000000000E+01
4834000000.000000      4.118042000000000E-01     -1.496797000000000E+02      4.337158000000000E-01     -6.925390000000000E+01      4.284058000000000E-01     -1.748203000000000E+02      6.695557000000000E-01     -9.305859000000000E+01
4835000000.000000      4.165344000000000E-01     -1.504219000000000E+02      4.364014000000000E-01     -6.975390000000000E+01      4.320831000000000E-01     -1.749375000000000E+02      6.712952000000000E-01     -9.334375000000000E+01
4836000000.000000      4.223938000000000E-01     -1.512734000000000E+02      4.394073000000000E-01     -6.998828000000000E+01      4.355927000000000E-01     -1.750234000000000E+02      6.739807000000000E-01     -9.319921000000000E+01
4837000000.000000      4.270935000000000E-01     -1.520000000000000E+02      4.424286000000000E-01     -7.050390000000000E+01      4.394989000000000E-01     -1.750937000000000E+02      6.756592000000000E-01     -9.335546000000000E+01
4838000000.000000      4.324036000000000E-01     -1.529609000000000E+02      4.458466000000000E-01     -7.064062000000000E+01      4.444122000000000E-01     -1.751250000000000E+02      6.778870000000000E-01     -9.337109000000000E+01
4839000000.000000      4.376526000000000E-01     -1.535781000000000E+02      4.479675000000000E-01     -7.083984000000000E+01      4.478455000000000E-01     -1.752031000000000E+02      6.820374000000000E-01     -9.338282000000000E+01
4840000000.000000      4.424591000000000E-01     -1.544219000000000E+02      4.502106000000000E-01     -7.135156000000000E+01      4.520264000000000E-01     -1.753281000000000E+02      6.810303000000000E-01     -9.350000000000000E+01
4841000000.000000      4.474182000000000E-01     -1.552656000000000E+02      4.545898000000000E-01     -7.167578000000000E+01      4.558105000000000E-01     -1.754297000000000E+02      6.838379000000000E-01     -9.353125000000000E+01
4842000000.000000      4.530182000000000E-01     -1.558906000000000E+02      4.563599000000000E-01     -7.185156000000000E+01      4.590912000000000E-01     -1.754375000000000E+02      6.880188000000000E-01     -9.365234000000000E+01
4843000000.000000      4.578552000000000E-01     -1.566797000000000E+02      4.596710000000000E-01     -7.238281000000000E+01      4.632416000000000E-01     -1.755078000000000E+02      6.883850000000000E-01     -9.359766000000000E+01
4844000000.000000      4.625549000000000E-01     -1.573594000000000E+02      4.625549000000000E-01     -7.265625000000000E+01      4.673309000000000E-01     -1.756875000000000E+02      6.919556000000000E-01     -9.366405000000000E+01
4845000000.000000      4.677734000000000E-01     -1.579766000000000E+02      4.638214000000000E-01     -7.286718000000000E+01      4.710846000000000E-01     -1.757422000000000E+02      6.935425000000000E-01     -9.367579000000000E+01
4846000000.000000      4.728546000000000E-01     -1.585703000000000E+02      4.667511000000000E-01     -7.325781000000000E+01      4.755707000000000E-01     -1.758047000000000E+02      6.975708000000000E-01     -9.372656000000000E+01
4847000000.000000      4.785919000000000E-01     -1.592969000000000E+02      4.698181000000000E-01     -7.348437000000000E+01      4.797516000000000E-01     -1.759687000000000E+02      6.998596000000000E-01     -9.395311000000000E+01
4848000000.000000      4.829102000000000E-01     -1.599219000000000E+02      4.709625000000000E-01     -7.377734000000000E+01      4.829559000000000E-01     -1.760859000000000E+02      7.020264000000000E-01     -9.392187000000000E+01
4849000000.000000      4.875641000000000E-01     -1.607891000000000E+02      4.739227000000000E-01     -7.433594000000000E+01      4.870911000000000E-01     -1.762344000000000E+02      7.039490000000000E-01     -9.385157000000000E+01
4850000000.000000      4.926300000000000E-01     -1.611094000000000E+02      4.761200000000000E-01     -7.464844000000000E+01      4.908142000000000E-01     -1.762812000000000E+02      7.076721000000000E-01     -9.391796000000000E+01
4851000000.000000      4.979706000000000E-01     -1.617344000000000E+02      4.794769000000000E-01     -7.503906000000000E+01      4.939575000000000E-01     -1.763984000000000E+02      7.112427000000000E-01     -9.398829000000000E+01
4852000000.000000      5.026550000000000E-01     -1.623203000000000E+02      4.809570000000000E-01     -7.519531000000000E+01      4.981842000000000E-01     -1.764844000000000E+02      7.135315000000000E-01     -9.410547000000000E+01
4853000000.000000      5.069275000000000E-01     -1.629219000000000E+02      4.811096000000000E-01     -7.555859000000000E+01      5.027161000000000E-01     -1.767734000000000E+02      7.167358000000000E-01     -9.416796000000000E+01
4854000000.000000      5.102234000000000E-01     -1.634453000000000E+02      4.840698000000000E-01     -7.598437000000000E+01      5.052490000000000E-01     -1.768594000000000E+02      7.181702000000000E-01     -9.415625000000000E+01
4855000000.000000      5.138550000000000E-01     -1.640234000000000E+02      4.858093000000000E-01     -7.623437000000000E+01      5.087585000000000E-01     -1.769453000000000E+02      7.209167000000000E-01     -9.421875000000000E+01
4856000000.000000      5.186157000000000E-01     -1.645234000000000E+02      4.877472000000000E-01     -7.656640000000000E+01      5.129700000000000E-01     -1.771875000000000E+02      7.257385000000000E-01     -9.417578000000000E+01
4857000000.000000      5.226746000000000E-01     -1.650156000000000E+02      4.908142000000000E-01     -7.689062000000000E+01      5.156250000000000E-01     -1.772656000000000E+02      7.270813000000000E-01     -9.423046000000000E+01
4858000000.000000      5.244751000000000E-01     -1.655625000000000E+02      4.921570000000000E-01     -7.706249000000000E+01      5.194702000000000E-01     -1.774141000000000E+02      7.298279000000000E-01     -9.443750000000000E+01
4859000000.000000      5.285950000000000E-01     -1.660625000000000E+02      4.941101000000000E-01     -7.744531000000000E+01      5.228882000000000E-01     -1.776875000000000E+02      7.331848000000000E-01     -9.438671000000000E+01
4860000000.000000      5.331726000000000E-01     -1.665703000000000E+02      4.963684000000000E-01     -7.764062000000000E+01      5.254211000000000E-01     -1.777578000000000E+02      7.355957000000000E-01     -9.442577000000000E+01
4861000000.000000      5.360107000000000E-01     -1.669453000000000E+02      4.954834000000000E-01     -7.809765000000000E+01      5.301208000000000E-01     -1.779844000000000E+02      7.389526000000000E-01     -9.444921000000000E+01
4862000000.000000      5.382690000000000E-01     -1.673516000000000E+02      4.978790000000000E-01     -7.834765000000000E+01      5.330505000000000E-01     -1.781250000000000E+02      7.428284000000000E-01     -9.437891000000000E+01
4863000000.000000      5.408325000000000E-01     -1.677578000000000E+02      4.982300000000000E-01     -7.876171000000000E+01      5.368652000000000E-01     -1.782578000000000E+02      7.461243000000000E-01     -9.453905000000000E+01
4864000000.000000      5.442810000000000E-01     -1.681953000000000E+02      5.016479000000000E-01     -7.881249000000000E+01      5.391235000000000E-01     -1.784219000000000E+02      7.468567000000000E-01     -9.468750000000000E+01
4865000000.000000      5.462646000000000E-01     -1.686719000000000E+02      5.022278000000000E-01     -7.903515000000000E+01      5.424805000000000E-01     -1.786797000000000E+02      7.524414000000000E-01     -9.451952000000000E+01
4866000000.000000      5.473633000000000E-01     -1.688437000000000E+02      5.019226000000000E-01     -7.944140000000000E+01      5.462341000000000E-01     -1.788672000000000E+02      7.535706000000000E-01     -9.458202000000000E+01
4867000000.000000      5.504456000000000E-01     -1.693047000000000E+02      5.044250000000000E-01     -7.981640000000000E+01      5.474548000000000E-01     -1.790703000000000E+02      7.561340000000000E-01     -9.455858000000000E+01
4868000000.000000      5.524292000000000E-01     -1.696875000000000E+02      5.061951000000000E-01     -8.012110000000000E+01      5.505371000000000E-01     -1.793047000000000E+02      7.598267000000000E-01     -9.483984000000000E+01
4869000000.000000      5.531616000000000E-01     -1.699141000000000E+02      5.059204000000000E-01     -8.050390000000000E+01      5.542908000000000E-01     -1.795625000000000E+02      7.616882000000000E-01     -9.494921000000000E+01
4870000000.000000      5.554810000000000E-01     -1.703438000000000E+02      5.071716000000000E-01     -8.049219000000000E+01      5.554810000000000E-01     -1.796953000000000E+02      7.641602000000000E-01     -9.472656000000000E+01
4871000000.000000      5.562439000000000E-01     -1.706797000000000E+02      5.082397000000000E-01     -8.096874000000000E+01      5.573730000000000E-01     -1.799609000000000E+02      7.656555000000000E-01     -9.507030000000000E+01
4872000000.000000      5.580139000000000E-01     -1.708516000000000E+02      5.090332000000000E-01     -8.096483000000000E+01      5.615845000000000E-01      1.797500000000000E+02      7.695618000000000E-01     -9.483593000000000E+01
4873000000.000000      5.586243000000000E-01     -1.711328000000000E+02      5.108643000000000E-01     -8.135937000000000E+01      5.640564000000000E-01      1.796406000000000E+02      7.722473000000000E-01     -9.498047000000000E+01
4874000000.000000      5.595093000000000E-01     -1.712656000000000E+02      5.111084000000000E-01     -8.159374000000000E+01      5.667419000000000E-01      1.794844000000000E+02      7.735596000000000E-01     -9.486328000000000E+01
4875000000.000000      5.611572000000000E-01     -1.716797000000000E+02      5.119629000000000E-01     -8.171484000000000E+01      5.684509000000000E-01      1.792500000000000E+02      7.756042000000000E-01     -9.501171000000000E+01
4876000000.000000      5.603943000000000E-01     -1.718750000000000E+02      5.126343000000000E-01     -8.208593000000000E+01      5.708923000000000E-01      1.790703000000000E+02      7.781372000000000E-01     -9.502733000000000E+01
4877000000.000000      5.611877000000000E-01     -1.720391000000000E+02      5.134277000000000E-01     -8.212109000000000E+01      5.716553000000000E-01      1.785938000000000E+02      7.805176000000000E-01     -9.512110000000000E+01
4878000000.000000      5.626831000000000E-01     -1.721250000000000E+02      5.148621000000000E-01     -8.237108000000000E+01      5.742188000000000E-01      1.786875000000000E+02      7.832947000000000E-01     -9.520702000000000E+01
4879000000.000000      5.630188000000000E-01     -1.724297000000000E+02      5.144043000000000E-01     -8.236328000000000E+01      5.761414000000000E-01      1.784062000000000E+02      7.850342000000000E-01     -9.516016000000000E+01
4880000000.000000      5.616455000000000E-01     -1.725156000000000E+02      5.160217000000000E-01     -8.283983000000000E+01      5.781555000000000E-01      1.782031000000000E+02      7.878418000000000E-01     -9.511328000000000E+01
4881000000.000000      5.619202000000000E-01     -1.726016000000000E+02      5.180359000000000E-01     -8.287500000000000E+01      5.795898000000000E-01      1.780625000000000E+02      7.893372000000000E-01     -9.538280000000000E+01
4882000000.000000      5.601501000000000E-01     -1.727890000000000E+02      5.188599000000000E-01     -8.324610000000000E+01      5.830688000000000E-01      1.777891000000000E+02      7.903137000000000E-01     -9.528906000000000E+01
