! Network Analyzer HP8722D
! Hewlett-Packard
! Data name: Linha & Wilkinson
! Saver's name: Rodrigo Anjos
! Comments: Teste da utilização de aquisição
continua pelo VNA HP8722D
! Time and date: 17/4/2025 15:35
!              Frequency                     S11                                                   S21                                                   S12                                                   S22
# HZ  S  MA R 50
4800000000.000000      3.337250000000000E-01     -1.133594000000000E+02      2.894440000000000E-01     -6.084961000000000E+01      2.832184000000000E-01     -1.749922000000000E+02      6.551819000000000E-01     -9.003124000000000E+01
4801000000.000000      3.325653000000000E-01     -1.144765000000000E+02      2.940216000000000E-01     -6.072460000000000E+01      2.868805000000000E-01     -1.749219000000000E+02      6.553345000000000E-01     -9.007421000000000E+01
4802000000.000000      3.314972000000000E-01     -1.153828000000000E+02      2.983704000000000E-01     -6.073242000000000E+01      2.913513000000000E-01     -1.747344000000000E+02      6.533813000000000E-01     -9.003906000000000E+01
4803000000.000000      3.307495000000000E-01     -1.163281000000000E+02      3.037567000000000E-01     -6.106835000000000E+01      2.947388000000000E-01     -1.746953000000000E+02      6.539612000000000E-01     -9.018749000000000E+01
4804000000.000000      3.302917000000000E-01     -1.172656000000000E+02      3.074493000000000E-01     -6.108593000000000E+01      2.996063000000000E-01     -1.746719000000000E+02      6.518555000000000E-01     -9.023829000000000E+01
4805000000.000000      3.307953000000000E-01     -1.182891000000000E+02      3.120117000000000E-01     -6.127148000000000E+01      3.040771000000000E-01     -1.743906000000000E+02      6.520386000000000E-01     -9.053514000000000E+01
4806000000.000000      3.301849000000000E-01     -1.193086000000000E+02      3.164215000000000E-01     -6.140820000000000E+01      3.065033000000000E-01     -1.740937000000000E+02      6.508789000000000E-01     -9.059374000000000E+01
4807000000.000000      3.301086000000000E-01     -1.204219000000000E+02      3.205414000000000E-01     -6.155468000000000E+01      3.117981000000000E-01     -1.742422000000000E+02      6.499939000000000E-01     -9.062891000000000E+01
4808000000.000000      3.301239000000000E-01     -1.214063000000000E+02      3.254700000000000E-01     -6.151953000000000E+01      3.150482000000000E-01     -1.742734000000000E+02      6.495056000000000E-01     -9.069530000000000E+01
4809000000.000000      3.308105000000000E-01     -1.224492000000000E+02      3.295593000000000E-01     -6.201562000000000E+01      3.196411000000000E-01     -1.742031000000000E+02      6.494751000000000E-01     -9.086329000000000E+01
4810000000.000000      3.311768000000000E-01     -1.236601000000000E+02      3.341370000000000E-01     -6.216210000000000E+01      3.237762000000000E-01     -1.740781000000000E+02      6.493835000000000E-01     -9.096483000000000E+01
4811000000.000000      3.322144000000000E-01     -1.247461000000000E+02      3.381500000000000E-01     -6.235937000000000E+01      3.283386000000000E-01     -1.739297000000000E+02      6.488342000000000E-01     -9.085938000000000E+01
4812000000.000000      3.340302000000000E-01     -1.256953000000000E+02      3.430023000000000E-01     -6.255859000000000E+01      3.315735000000000E-01     -1.738359000000000E+02      6.498413000000000E-01     -9.095312000000000E+01
4813000000.000000      3.347626000000000E-01     -1.268789000000000E+02      3.470001000000000E-01     -6.281445000000000E+01      3.353119000000000E-01     -1.736719000000000E+02      6.482544000000000E-01     -9.105469000000000E+01
4814000000.000000      3.357086000000000E-01     -1.280703000000000E+02      3.508911000000000E-01     -6.297461000000000E+01      3.395386000000000E-01     -1.739219000000000E+02      6.486511000000000E-01     -9.125391000000000E+01
4815000000.000000      3.377991000000000E-01     -1.290000000000000E+02      3.545685000000000E-01     -6.312500000000000E+01      3.434906000000000E-01     -1.738281000000000E+02      6.474915000000000E-01     -9.124218000000000E+01
4816000000.000000      3.397369000000000E-01     -1.300781000000000E+02      3.582611000000000E-01     -6.320898000000000E+01      3.483887000000000E-01     -1.736875000000000E+02      6.483154000000000E-01     -9.121485000000000E+01
4817000000.000000      3.424072000000000E-01     -1.310625000000000E+02      3.620758000000000E-01     -6.359375000000000E+01      3.513184000000000E-01     -1.735937000000000E+02      6.488342000000000E-01     -9.149609000000000E+01
4818000000.000000      3.442535000000000E-01     -1.323281000000000E+02      3.663635000000000E-01     -6.387304000000000E+01      3.560944000000000E-01     -1.735937000000000E+02      6.499634000000000E-01     -9.157421000000000E+01
4819000000.000000      3.470764000000000E-01     -1.333828000000000E+02      3.711395000000000E-01     -6.403515000000000E+01      3.592377000000000E-01     -1.736328000000000E+02      6.510620000000000E-01     -9.162500000000000E+01
4820000000.000000      3.483887000000000E-01     -1.343828000000000E+02      3.749237000000000E-01     -6.420703000000000E+01      3.637238000000000E-01     -1.736094000000000E+02      6.509094000000000E-01     -9.170313000000000E+01
4821000000.000000      3.518524000000000E-01     -1.354844000000000E+02      3.787689000000000E-01     -6.451562000000000E+01      3.674011000000000E-01     -1.737031000000000E+02      6.498718000000000E-01     -9.178125000000000E+01
4822000000.000000      3.565063000000000E-01     -1.365313000000000E+02      3.819580000000000E-01     -6.478125000000000E+01      3.709869000000000E-01     -1.736016000000000E+02      6.515503000000000E-01     -9.181250000000000E+01
4823000000.000000      3.588867000000000E-01     -1.375937000000000E+02      3.859863000000000E-01     -6.496875000000000E+01      3.755646000000000E-01     -1.733984000000000E+02      6.534119000000000E-01     -9.184765000000000E+01
4824000000.000000      3.632355000000000E-01     -1.386641000000000E+02      3.899384000000000E-01     -6.545703000000000E+01      3.797455000000000E-01     -1.736406000000000E+02      6.543884000000000E-01     -9.197657000000000E+01
4825000000.000000      3.661499000000000E-01     -1.396250000000000E+02      3.931427000000000E-01     -6.553515000000000E+01      3.840485000000000E-01     -1.735391000000000E+02      6.551514000000000E-01     -9.192577000000000E+01
4826000000.000000      3.704071000000000E-01     -1.406328000000000E+02      3.968964000000000E-01     -6.586719000000000E+01      3.875885000000000E-01     -1.735703000000000E+02      6.560364000000000E-01     -9.207422000000000E+01
4827000000.000000      3.741455000000000E-01     -1.415156000000000E+02      4.004517000000000E-01     -6.611718000000000E+01      3.914948000000000E-01     -1.735156000000000E+02      6.571655000000000E-01     -9.213282000000000E+01
4828000000.000000      3.785095000000000E-01     -1.425547000000000E+02      4.049377000000000E-01     -6.647655000000000E+01      3.951569000000000E-01     -1.735156000000000E+02      6.603394000000000E-01     -9.217968000000000E+01
4829000000.000000      3.820190000000000E-01     -1.433984000000000E+02      4.071503000000000E-01     -6.664063000000000E+01      3.990631000000000E-01     -1.735703000000000E+02      6.601563000000000E-01     -9.216797000000000E+01
4830000000.000000      3.872986000000000E-01     -1.443906000000000E+02      4.113312000000000E-01     -6.699219000000000E+01      4.033356000000000E-01     -1.735312000000000E+02      6.612244000000000E-01     -9.240625000000000E+01
4831000000.000000      3.909912000000000E-01     -1.452812000000000E+02      4.146881000000000E-01     -6.750000000000000E+01      4.079132000000000E-01     -1.735234000000000E+02      6.628113000000000E-01     -9.239452000000000E+01
4832000000.000000      3.967590000000000E-01     -1.461953000000000E+02      4.183044000000000E-01     -6.762500000000000E+01      4.113770000000000E-01     -1.736562000000000E+02      6.648254000000000E-01     -9.250391000000000E+01
4833000000.000000      4.015350000000000E-01     -1.471250000000000E+02      4.219208000000000E-01     -6.790625000000000E+01      4.156036000000000E-01     -1.737734000000000E+02      6.665344000000000E-01     -9.250000000000000E+01
4834000000.000000      4.060211000000000E-01     -1.480078000000000E+02      4.241638000000000E-01     -6.807031000000000E+01      4.198456000000000E-01     -1.736562000000000E+02      6.673279000000000E-01     -9.272264000000000E+01
4835000000.000000      4.107971000000000E-01     -1.487578000000000E+02      4.279633000000000E-01     -6.853125000000000E+01      4.237518000000000E-01     -1.738203000000000E+02      6.709595000000000E-01     -9.274218000000000E+01
4836000000.000000      4.164886000000000E-01     -1.495625000000000E+02      4.307861000000000E-01     -6.880468000000000E+01      4.278717000000000E-01     -1.736719000000000E+02      6.722717000000000E-01     -9.271875000000000E+01
4837000000.000000      4.214478000000000E-01     -1.503281000000000E+02      4.340515000000000E-01     -6.936718000000000E+01      4.318390000000000E-01     -1.738906000000000E+02      6.737366000000000E-01     -9.269531000000000E+01
4838000000.000000      4.268799000000000E-01     -1.513281000000000E+02      4.379120000000000E-01     -6.932031000000000E+01      4.360352000000000E-01     -1.739922000000000E+02      6.756287000000000E-01     -9.281641000000000E+01
4839000000.000000      4.319305000000000E-01     -1.519375000000000E+02      4.406586000000000E-01     -6.973046000000000E+01      4.405975000000000E-01     -1.738672000000000E+02      6.794434000000000E-01     -9.275000000000000E+01
4840000000.000000      4.364014000000000E-01     -1.528203000000000E+02      4.429626000000000E-01     -7.002734000000000E+01      4.441223000000000E-01     -1.740234000000000E+02      6.814270000000000E-01     -9.289063000000000E+01
4841000000.000000      4.419861000000000E-01     -1.535938000000000E+02      4.467163000000000E-01     -7.041016000000000E+01      4.482727000000000E-01     -1.741953000000000E+02      6.835022000000000E-01     -9.301561000000000E+01
4842000000.000000      4.478607000000000E-01     -1.542734000000000E+02      4.489746000000000E-01     -7.074219000000000E+01      4.515076000000000E-01     -1.742578000000000E+02      6.852417000000000E-01     -9.301952000000000E+01
4843000000.000000      4.519348000000000E-01     -1.550625000000000E+02      4.514618000000000E-01     -7.116015000000000E+01      4.553528000000000E-01     -1.742500000000000E+02      6.879883000000000E-01     -9.301561000000000E+01
4844000000.000000      4.574127000000000E-01     -1.556875000000000E+02      4.547729000000000E-01     -7.135547000000000E+01      4.595032000000000E-01     -1.744141000000000E+02      6.909180000000000E-01     -9.314062000000000E+01
4845000000.000000      4.620361000000000E-01     -1.563359000000000E+02      4.566498000000000E-01     -7.162890000000000E+01      4.641113000000000E-01     -1.745000000000000E+02      6.922302000000000E-01     -9.305079000000000E+01
4846000000.000000      4.671631000000000E-01     -1.569766000000000E+02      4.599762000000000E-01     -7.198828000000000E+01      4.685974000000000E-01     -1.745625000000000E+02      6.955261000000000E-01     -9.321875000000000E+01
4847000000.000000      4.733429000000000E-01     -1.577188000000000E+02      4.627991000000000E-01     -7.229687000000000E+01      4.724426000000000E-01     -1.747266000000000E+02      6.984558000000000E-01     -9.333593000000000E+01
4848000000.000000      4.780884000000000E-01     -1.582578000000000E+02      4.643860000000000E-01     -7.261719000000000E+01      4.763947000000000E-01     -1.747734000000000E+02      7.001648000000000E-01     -9.333593000000000E+01
4849000000.000000      4.826813000000000E-01     -1.591953000000000E+02      4.685669000000000E-01     -7.307422000000000E+01      4.805145000000000E-01     -1.749687000000000E+02      7.038574000000000E-01     -9.330858000000000E+01
4850000000.000000      4.875336000000000E-01     -1.595859000000000E+02      4.710083000000000E-01     -7.320703000000000E+01      4.841309000000000E-01     -1.749687000000000E+02      7.062073000000000E-01     -9.324999000000000E+01
4851000000.000000      4.927826000000000E-01     -1.601406000000000E+02      4.730377000000000E-01     -7.363671000000000E+01      4.878540000000000E-01     -1.751562000000000E+02      7.103882000000000E-01     -9.339453000000000E+01
4852000000.000000      4.976807000000000E-01     -1.607344000000000E+02      4.747162000000000E-01     -7.402344000000000E+01      4.918213000000000E-01     -1.752500000000000E+02      7.109070000000000E-01     -9.343750000000000E+01
4853000000.000000      5.022278000000000E-01     -1.614063000000000E+02      4.757996000000000E-01     -7.427734000000000E+01      4.958649000000000E-01     -1.754688000000000E+02      7.144775000000000E-01     -9.363672000000000E+01
4854000000.000000      5.061951000000000E-01     -1.618828000000000E+02      4.793091000000000E-01     -7.482812000000000E+01      4.996338000000000E-01     -1.756562000000000E+02      7.178040000000000E-01     -9.349609000000000E+01
4855000000.000000      5.095825000000000E-01     -1.624609000000000E+02      4.804535000000000E-01     -7.483203000000000E+01      5.037842000000000E-01     -1.758047000000000E+02      7.192993000000000E-01     -9.352343000000000E+01
4856000000.000000      5.148621000000000E-01     -1.628906000000000E+02      4.830170000000000E-01     -7.521874000000000E+01      5.071411000000000E-01     -1.757656000000000E+02      7.233276000000000E-01     -9.356249000000000E+01
4857000000.000000      5.190735000000000E-01     -1.635156000000000E+02      4.862061000000000E-01     -7.556250000000000E+01      5.112610000000000E-01     -1.761406000000000E+02      7.261658000000000E-01     -9.359766000000000E+01
4858000000.000000      5.207520000000000E-01     -1.640234000000000E+02      4.866180000000000E-01     -7.589453000000000E+01      5.139771000000000E-01     -1.762031000000000E+02      7.282715000000000E-01     -9.364061000000000E+01
4859000000.000000      5.251770000000000E-01     -1.645391000000000E+02      4.881134000000000E-01     -7.617188000000000E+01      5.173950000000000E-01     -1.764141000000000E+02      7.323303000000000E-01     -9.382421000000000E+01
4860000000.000000      5.296936000000000E-01     -1.650156000000000E+02      4.913483000000000E-01     -7.641406000000000E+01      5.217285000000000E-01     -1.765781000000000E+02      7.345886000000000E-01     -9.373438000000000E+01
4861000000.000000      5.328064000000000E-01     -1.653359000000000E+02      4.923553000000000E-01     -7.692187000000000E+01      5.252380000000000E-01     -1.766797000000000E+02      7.370605000000000E-01     -9.386328000000000E+01
4862000000.000000      5.356140000000000E-01     -1.657578000000000E+02      4.943542000000000E-01     -7.706249000000000E+01      5.285034000000000E-01     -1.768672000000000E+02      7.423096000000000E-01     -9.385546000000000E+01
4863000000.000000      5.384521000000000E-01     -1.662578000000000E+02      4.946594000000000E-01     -7.737109000000000E+01      5.327454000000000E-01     -1.770859000000000E+02      7.450256000000000E-01     -9.390234000000000E+01
4864000000.000000      5.419922000000000E-01     -1.666172000000000E+02      4.970856000000000E-01     -7.747656000000000E+01      5.346680000000000E-01     -1.773125000000000E+02      7.461853000000000E-01     -9.395311000000000E+01
4865000000.000000      5.430603000000000E-01     -1.671641000000000E+02      4.978943000000000E-01     -7.797656000000000E+01      5.376587000000000E-01     -1.774375000000000E+02      7.494507000000000E-01     -9.385937000000000E+01
4866000000.000000      5.455627000000000E-01     -1.673750000000000E+02      4.989319000000000E-01     -7.819140000000000E+01      5.414429000000000E-01     -1.776250000000000E+02      7.533875000000000E-01     -9.394922000000000E+01
4867000000.000000      5.484619000000000E-01     -1.678281000000000E+02      5.010681000000000E-01     -7.855078000000000E+01      5.437317000000000E-01     -1.778750000000000E+02      7.569275000000000E-01     -9.404297000000000E+01
4868000000.000000      5.509338000000000E-01     -1.681562000000000E+02      5.018311000000000E-01     -7.891796000000000E+01      5.472717000000000E-01     -1.779297000000000E+02      7.583618000000000E-01     -9.398438000000000E+01
4869000000.000000      5.517578000000000E-01     -1.684922000000000E+02      5.038147000000000E-01     -7.912109000000000E+01      5.502319000000000E-01     -1.782656000000000E+02      7.616272000000000E-01     -9.427343000000000E+01
4870000000.000000      5.540771000000000E-01     -1.688437000000000E+02      5.036621000000000E-01     -7.930859000000000E+01      5.527039000000000E-01     -1.784062000000000E+02      7.631531000000000E-01     -9.420313000000000E+01
4871000000.000000      5.558777000000000E-01     -1.692031000000000E+02      5.065308000000000E-01     -7.977734000000000E+01      5.555115000000000E-01     -1.787891000000000E+02      7.653503000000000E-01     -9.424608000000000E+01
4872000000.000000      5.579834000000000E-01     -1.693984000000000E+02      5.068054000000000E-01     -7.980859000000000E+01      5.572815000000000E-01     -1.790000000000000E+02      7.687988000000000E-01     -9.429296000000000E+01
4873000000.000000      5.579529000000000E-01     -1.695625000000000E+02      5.068054000000000E-01     -8.034374000000000E+01      5.593262000000000E-01     -1.790781000000000E+02      7.708435000000000E-01     -9.437500000000000E+01
4874000000.000000      5.587769000000000E-01     -1.699531000000000E+02      5.086975000000000E-01     -8.050781000000000E+01      5.644226000000000E-01     -1.793203000000000E+02      7.722168000000000E-01     -9.417187000000000E+01
4875000000.000000      5.617676000000000E-01     -1.701875000000000E+02      5.093994000000000E-01     -8.056641000000000E+01      5.648804000000000E-01     -1.796641000000000E+02      7.757568000000000E-01     -9.421484000000000E+01
4876000000.000000      5.607910000000000E-01     -1.704062000000000E+02      5.122681000000000E-01     -8.107031000000000E+01      5.681152000000000E-01     -1.797656000000000E+02      7.784729000000000E-01     -9.447266000000000E+01
4877000000.000000      5.615540000000000E-01     -1.705625000000000E+02      5.124207000000000E-01     -8.102734000000000E+01      5.691833000000000E-01      1.797891000000000E+02      7.804871000000000E-01     -9.455469000000000E+01
4878000000.000000      5.624695000000000E-01     -1.707266000000000E+02      5.127563000000000E-01     -8.139063000000000E+01      5.723267000000000E-01      1.797969000000000E+02      7.830200000000000E-01     -9.457422000000000E+01
4879000000.000000      5.632019000000000E-01     -1.709922000000000E+02      5.126648000000000E-01     -8.135937000000000E+01      5.734558000000000E-01      1.795938000000000E+02      7.845459000000000E-01     -9.454296000000000E+01
4880000000.000000      5.619202000000000E-01     -1.711797000000000E+02      5.148621000000000E-01     -8.168749000000000E+01      5.763245000000000E-01      1.794219000000000E+02      7.868652000000000E-01     -9.453125000000000E+01
4881000000.000000      5.626831000000000E-01     -1.712265000000000E+02      5.159912000000000E-01     -8.188280000000000E+01      5.787659000000000E-01      1.791328000000000E+02      7.884216000000000E-01     -9.456249000000000E+01
4882000000.000000      5.629883000000000E-01     -1.713047000000000E+02      5.166016000000000E-01     -8.203516000000000E+01      5.801086000000000E-01      1.788359000000000E+02      7.905579000000000E-01     -9.477734000000000E+01
