! Network Analyzer HP8722D
! Hewlett-Packard
! Data name: Linha & Wilkinson
! Saver's name: Rodrigo Anjos
! Comments: Teste da utilização de aquisição
continua pelo VNA HP8722D
! Time and date: 17/4/2025 15:20
!              Frequency                     S11                                                   S21                                                   S12                                                   S22
# HZ  S  MA R 50
4800000000.000000      3.332825000000000E-01     -1.129883000000000E+02      2.860565000000000E-01     -6.065430000000000E+01      2.793121000000000E-01     -1.749063000000000E+02      6.566467000000000E-01     -8.987108000000000E+01
4801000000.000000      3.325653000000000E-01     -1.139141000000000E+02      2.902374000000000E-01     -6.069140000000000E+01      2.833252000000000E-01     -1.746641000000000E+02      6.548462000000000E-01     -8.991014000000000E+01
4802000000.000000      3.308563000000000E-01     -1.149141000000000E+02      2.942047000000000E-01     -6.061523000000000E+01      2.880859000000000E-01     -1.746016000000000E+02      6.542969000000000E-01     -8.995312000000000E+01
4803000000.000000      3.302765000000000E-01     -1.158867000000000E+02      2.996826000000000E-01     -6.096484000000000E+01      2.914124000000000E-01     -1.743750000000000E+02      6.520081000000000E-01     -9.007421000000000E+01
4804000000.000000      3.301544000000000E-01     -1.168906000000000E+02      3.039703000000000E-01     -6.091406000000000E+01      2.963562000000000E-01     -1.742969000000000E+02      6.509705000000000E-01     -9.015625000000000E+01
4805000000.000000      3.299561000000000E-01     -1.178633000000000E+02      3.081207000000000E-01     -6.102929000000000E+01      2.999115000000000E-01     -1.742500000000000E+02      6.513062000000000E-01     -9.032421000000000E+01
4806000000.000000      3.291626000000000E-01     -1.188477000000000E+02      3.128510000000000E-01     -6.119531000000000E+01      3.034668000000000E-01     -1.740078000000000E+02      6.503601000000000E-01     -9.035936000000000E+01
4807000000.000000      3.292694000000000E-01     -1.200273000000000E+02      3.169098000000000E-01     -6.136523000000000E+01      3.079987000000000E-01     -1.741797000000000E+02      6.504517000000000E-01     -9.058203000000000E+01
4808000000.000000      3.298798000000000E-01     -1.208320000000000E+02      3.220215000000000E-01     -6.142968000000000E+01      3.114624000000000E-01     -1.739687000000000E+02      6.485901000000000E-01     -9.053125000000000E+01
4809000000.000000      3.299408000000000E-01     -1.221094000000000E+02      3.261566000000000E-01     -6.185937000000000E+01      3.168488000000000E-01     -1.740078000000000E+02      6.487732000000000E-01     -9.067186000000000E+01
4810000000.000000      3.300629000000000E-01     -1.232305000000000E+02      3.311615000000000E-01     -6.174218000000000E+01      3.204498000000000E-01     -1.737813000000000E+02      6.489563000000000E-01     -9.071093000000000E+01
4811000000.000000      3.319550000000000E-01     -1.241602000000000E+02      3.355103000000000E-01     -6.213672000000000E+01      3.244934000000000E-01     -1.737578000000000E+02      6.486816000000000E-01     -9.074219000000000E+01
4812000000.000000      3.332672000000000E-01     -1.252773000000000E+02      3.392639000000000E-01     -6.231054000000000E+01      3.290558000000000E-01     -1.736094000000000E+02      6.488342000000000E-01     -9.089062000000000E+01
4813000000.000000      3.344269000000000E-01     -1.263555000000000E+02      3.425903000000000E-01     -6.251367000000000E+01      3.319550000000000E-01     -1.735312000000000E+02      6.486511000000000E-01     -9.091797000000000E+01
4814000000.000000      3.348541000000000E-01     -1.275469000000000E+02      3.468628000000000E-01     -6.270312000000000E+01      3.361664000000000E-01     -1.735469000000000E+02      6.482544000000000E-01     -9.110937000000000E+01
4815000000.000000      3.363953000000000E-01     -1.285156000000000E+02      3.513031000000000E-01     -6.286327000000000E+01      3.405151000000000E-01     -1.734688000000000E+02      6.468811000000000E-01     -9.111328000000000E+01
4816000000.000000      3.390350000000000E-01     -1.295703000000000E+02      3.562164000000000E-01     -6.300390000000000E+01      3.451080000000000E-01     -1.733281000000000E+02      6.484070000000000E-01     -9.112499000000000E+01
4817000000.000000      3.414001000000000E-01     -1.307188000000000E+02      3.600159000000000E-01     -6.330078000000000E+01      3.482666000000000E-01     -1.733359000000000E+02      6.488342000000000E-01     -9.137499000000000E+01
4818000000.000000      3.432007000000000E-01     -1.318359000000000E+02      3.634186000000000E-01     -6.352344000000000E+01      3.528137000000000E-01     -1.733828000000000E+02      6.494141000000000E-01     -9.132813000000000E+01
4819000000.000000      3.462524000000000E-01     -1.329219000000000E+02      3.670044000000000E-01     -6.370703000000000E+01      3.562012000000000E-01     -1.732422000000000E+02      6.501770000000000E-01     -9.148046000000000E+01
4820000000.000000      3.477173000000000E-01     -1.338984000000000E+02      3.715515000000000E-01     -6.400391000000000E+01      3.610687000000000E-01     -1.732031000000000E+02      6.505127000000000E-01     -9.160936000000000E+01
4821000000.000000      3.508301000000000E-01     -1.350469000000000E+02      3.751068000000000E-01     -6.434765000000000E+01      3.646393000000000E-01     -1.733984000000000E+02      6.505127000000000E-01     -9.155468000000000E+01
4822000000.000000      3.555298000000000E-01     -1.361172000000000E+02      3.791656000000000E-01     -6.442577000000000E+01      3.677979000000000E-01     -1.732812000000000E+02      6.517029000000000E-01     -9.163280000000000E+01
4823000000.000000      3.574829000000000E-01     -1.370938000000000E+02      3.833466000000000E-01     -6.480078000000000E+01      3.719177000000000E-01     -1.732031000000000E+02      6.528320000000000E-01     -9.167187000000000E+01
4824000000.000000      3.617401000000000E-01     -1.382031000000000E+02      3.870392000000000E-01     -6.515234000000000E+01      3.772125000000000E-01     -1.733047000000000E+02      6.535339000000000E-01     -9.177343000000000E+01
4825000000.000000      3.647308000000000E-01     -1.391016000000000E+02      3.899689000000000E-01     -6.525000000000000E+01      3.820801000000000E-01     -1.731641000000000E+02      6.549683000000000E-01     -9.183985000000000E+01
4826000000.000000      3.693085000000000E-01     -1.402031000000000E+02      3.941803000000000E-01     -6.570313000000000E+01      3.838806000000000E-01     -1.732578000000000E+02      6.549683000000000E-01     -9.192968000000000E+01
4827000000.000000      3.731842000000000E-01     -1.410156000000000E+02      3.982391000000000E-01     -6.579296000000000E+01      3.878937000000000E-01     -1.731562000000000E+02      6.564026000000000E-01     -9.204296000000000E+01
4828000000.000000      3.776855000000000E-01     -1.420312000000000E+02      4.027100000000000E-01     -6.603906000000000E+01      3.922577000000000E-01     -1.732265000000000E+02      6.601563000000000E-01     -9.205469000000000E+01
4829000000.000000      3.800964000000000E-01     -1.429766000000000E+02      4.051666000000000E-01     -6.646093000000000E+01      3.964844000000000E-01     -1.732109000000000E+02      6.597595000000000E-01     -9.208593000000000E+01
4830000000.000000      3.860321000000000E-01     -1.438906000000000E+02      4.089050000000000E-01     -6.678905000000000E+01      4.005127000000000E-01     -1.731562000000000E+02      6.619263000000000E-01     -9.220312000000000E+01
4831000000.000000      3.899994000000000E-01     -1.448594000000000E+02      4.125519000000000E-01     -6.707812000000000E+01      4.050293000000000E-01     -1.732188000000000E+02      6.632690000000000E-01     -9.227343000000000E+01
4832000000.000000      3.955231000000000E-01     -1.456719000000000E+02      4.161987000000000E-01     -6.727734000000000E+01      4.083710000000000E-01     -1.732578000000000E+02      6.645508000000000E-01     -9.240625000000000E+01
4833000000.000000      4.003906000000000E-01     -1.466563000000000E+02      4.186554000000000E-01     -6.759375000000000E+01      4.124146000000000E-01     -1.733125000000000E+02      6.666260000000000E-01     -9.240625000000000E+01
4834000000.000000      4.046936000000000E-01     -1.475234000000000E+02      4.221191000000000E-01     -6.794922000000000E+01      4.169464000000000E-01     -1.734062000000000E+02      6.682434000000000E-01     -9.243750000000000E+01
4835000000.000000      4.090271000000000E-01     -1.483125000000000E+02      4.255981000000000E-01     -6.833984000000000E+01      4.216003000000000E-01     -1.733438000000000E+02      6.701660000000000E-01     -9.251953000000000E+01
4836000000.000000      4.150543000000000E-01     -1.490937000000000E+02      4.287567000000000E-01     -6.849999000000000E+01      4.249878000000000E-01     -1.733984000000000E+02      6.723328000000000E-01     -9.247656000000000E+01
4837000000.000000      4.202271000000000E-01     -1.498516000000000E+02      4.313660000000000E-01     -6.900000000000000E+01      4.287872000000000E-01     -1.735391000000000E+02      6.738892000000000E-01     -9.247656000000000E+01
4838000000.000000      4.254303000000000E-01     -1.508594000000000E+02      4.351044000000000E-01     -6.925781000000000E+01      4.333954000000000E-01     -1.735547000000000E+02      6.764526000000000E-01     -9.262890000000000E+01
4839000000.000000      4.304810000000000E-01     -1.514609000000000E+02      4.383240000000000E-01     -6.939062000000000E+01      4.375000000000000E-01     -1.735078000000000E+02      6.789551000000000E-01     -9.253906000000000E+01
4840000000.000000      4.348755000000000E-01     -1.523516000000000E+02      4.416046000000000E-01     -6.951172000000000E+01      4.416656000000000E-01     -1.737344000000000E+02      6.795044000000000E-01     -9.266405000000000E+01
4841000000.000000      4.408417000000000E-01     -1.531719000000000E+02      4.438171000000000E-01     -7.015234000000000E+01      4.463196000000000E-01     -1.737813000000000E+02      6.830444000000000E-01     -9.286718000000000E+01
4842000000.000000      4.464111000000000E-01     -1.537969000000000E+02      4.466858000000000E-01     -7.027344000000000E+01      4.487000000000000E-01     -1.738594000000000E+02      6.856995000000000E-01     -9.277735000000000E+01
4843000000.000000      4.507446000000000E-01     -1.545703000000000E+02      4.501953000000000E-01     -7.081640000000000E+01      4.532471000000000E-01     -1.739609000000000E+02      6.873169000000000E-01     -9.287109000000000E+01
4844000000.000000      4.556274000000000E-01     -1.552344000000000E+02      4.528351000000000E-01     -7.099609000000000E+01      4.572296000000000E-01     -1.740156000000000E+02      6.904297000000000E-01     -9.297655000000000E+01
4845000000.000000      4.607391000000000E-01     -1.559141000000000E+02      4.554596000000000E-01     -7.135937000000000E+01      4.618378000000000E-01     -1.741562000000000E+02      6.920776000000000E-01     -9.287889000000000E+01
4846000000.000000      4.661102000000000E-01     -1.565000000000000E+02      4.585724000000000E-01     -7.176562000000000E+01      4.661713000000000E-01     -1.741484000000000E+02      6.955566000000000E-01     -9.293749000000000E+01
4847000000.000000      4.720764000000000E-01     -1.572109000000000E+02      4.611969000000000E-01     -7.191406000000000E+01      4.706726000000000E-01     -1.744609000000000E+02      6.987610000000000E-01     -9.304688000000000E+01
4848000000.000000      4.765472000000000E-01     -1.578281000000000E+02      4.630585000000000E-01     -7.228516000000000E+01      4.739227000000000E-01     -1.744453000000000E+02      7.016602000000000E-01     -9.310156000000000E+01
4849000000.000000      4.816284000000000E-01     -1.587734000000000E+02      4.664459000000000E-01     -7.266015000000000E+01      4.783478000000000E-01     -1.745937000000000E+02      7.038879000000000E-01     -9.313671000000000E+01
4850000000.000000      4.863281000000000E-01     -1.591250000000000E+02      4.682159000000000E-01     -7.303515000000000E+01      4.820709000000000E-01     -1.746094000000000E+02      7.053223000000000E-01     -9.310547000000000E+01
4851000000.000000      4.920502000000000E-01     -1.596953000000000E+02      4.710236000000000E-01     -7.340625000000000E+01      4.855347000000000E-01     -1.747969000000000E+02      7.100830000000000E-01     -9.317186000000000E+01
4852000000.000000      4.968109000000000E-01     -1.603047000000000E+02      4.726563000000000E-01     -7.362499000000000E+01      4.903564000000000E-01     -1.749219000000000E+02      7.117004000000000E-01     -9.323437000000000E+01
4853000000.000000      5.018005000000000E-01     -1.608516000000000E+02      4.742279000000000E-01     -7.399219000000000E+01      4.942169000000000E-01     -1.750391000000000E+02      7.151184000000000E-01     -9.341797000000000E+01
4854000000.000000      5.054016000000000E-01     -1.613906000000000E+02      4.765778000000000E-01     -7.435156000000000E+01      4.973450000000000E-01     -1.752031000000000E+02      7.164612000000000E-01     -9.339062000000000E+01
4855000000.000000      5.086975000000000E-01     -1.619922000000000E+02      4.791565000000000E-01     -7.464062000000000E+01      5.024719000000000E-01     -1.752969000000000E+02      7.198792000000000E-01     -9.337109000000000E+01
4856000000.000000      5.137329000000000E-01     -1.624063000000000E+02      4.812469000000000E-01     -7.489452000000000E+01      5.060730000000000E-01     -1.754922000000000E+02      7.225647000000000E-01     -9.341015000000000E+01
4857000000.000000      5.182495000000000E-01     -1.630625000000000E+02      4.833679000000000E-01     -7.530468000000000E+01      5.088501000000000E-01     -1.755078000000000E+02      7.264099000000000E-01     -9.340235000000000E+01
4858000000.000000      5.206604000000000E-01     -1.635391000000000E+02      4.858704000000000E-01     -7.561328000000000E+01      5.125427000000000E-01     -1.757500000000000E+02      7.292175000000000E-01     -9.358593000000000E+01
4859000000.000000      5.255127000000000E-01     -1.640859000000000E+02      4.869690000000000E-01     -7.583593000000000E+01      5.160217000000000E-01     -1.759609000000000E+02      7.328491000000000E-01     -9.362108000000000E+01
4860000000.000000      5.289001000000000E-01     -1.645625000000000E+02      4.884491000000000E-01     -7.616015000000000E+01      5.201111000000000E-01     -1.761875000000000E+02      7.343445000000000E-01     -9.355860000000000E+01
4861000000.000000      5.327148000000000E-01     -1.649219000000000E+02      4.909515000000000E-01     -7.653125000000000E+01      5.239258000000000E-01     -1.763125000000000E+02      7.358704000000000E-01     -9.372265000000000E+01
4862000000.000000      5.349731000000000E-01     -1.653516000000000E+02      4.945068000000000E-01     -7.676952000000000E+01      5.279541000000000E-01     -1.763515000000000E+02      7.414856000000000E-01     -9.370703000000000E+01
4863000000.000000      5.377808000000000E-01     -1.657266000000000E+02      4.928894000000000E-01     -7.727344000000000E+01      5.305176000000000E-01     -1.766562000000000E+02      7.441101000000000E-01     -9.372656000000000E+01
4864000000.000000      5.416260000000000E-01     -1.661875000000000E+02      4.965515000000000E-01     -7.720703000000000E+01      5.317078000000000E-01     -1.768984000000000E+02      7.465820000000000E-01     -9.373827000000000E+01
4865000000.000000      5.437317000000000E-01     -1.667344000000000E+02      4.976807000000000E-01     -7.758984000000000E+01      5.368958000000000E-01     -1.771328000000000E+02      7.499390000000000E-01     -9.369141000000000E+01
4866000000.000000      5.455017000000000E-01     -1.669297000000000E+02      4.978485000000000E-01     -7.804688000000000E+01      5.406494000000000E-01     -1.773438000000000E+02      7.531738000000000E-01     -9.365234000000000E+01
4867000000.000000      5.482178000000000E-01     -1.673125000000000E+02      5.001526000000000E-01     -7.818359000000000E+01      5.430298000000000E-01     -1.775703000000000E+02      7.563782000000000E-01     -9.370703000000000E+01
4868000000.000000      5.509644000000000E-01     -1.678125000000000E+02      5.021973000000000E-01     -7.863281000000000E+01      5.469666000000000E-01     -1.777656000000000E+02      7.574158000000000E-01     -9.389843000000000E+01
4869000000.000000      5.518494000000000E-01     -1.680391000000000E+02      5.026855000000000E-01     -7.881249000000000E+01      5.500183000000000E-01     -1.780078000000000E+02      7.609863000000000E-01     -9.409374000000000E+01
4870000000.000000      5.539551000000000E-01     -1.682891000000000E+02      5.033264000000000E-01     -7.903906000000000E+01      5.513306000000000E-01     -1.781719000000000E+02      7.640381000000000E-01     -9.390625000000000E+01
4871000000.000000      5.566711000000000E-01     -1.686953000000000E+02      5.057983000000000E-01     -7.937890000000000E+01      5.544434000000000E-01     -1.784375000000000E+02      7.651672000000000E-01     -9.412500000000000E+01
4872000000.000000      5.579529000000000E-01     -1.688672000000000E+02      5.047607000000000E-01     -7.931250000000000E+01      5.581970000000000E-01     -1.786797000000000E+02      7.695313000000000E-01     -9.404297000000000E+01
4873000000.000000      5.586243000000000E-01     -1.691719000000000E+02      5.057983000000000E-01     -7.982422000000000E+01      5.588989000000000E-01     -1.787344000000000E+02      7.708435000000000E-01     -9.417969000000000E+01
4874000000.000000      5.594482000000000E-01     -1.693359000000000E+02      5.082397000000000E-01     -8.017187000000000E+01      5.635071000000000E-01     -1.789141000000000E+02      7.729187000000000E-01     -9.401562000000000E+01
4875000000.000000      5.611572000000000E-01     -1.696640000000000E+02      5.086365000000000E-01     -8.016016000000000E+01      5.652466000000000E-01     -1.791953000000000E+02      7.750244000000000E-01     -9.419140000000000E+01
4876000000.000000      5.609741000000000E-01     -1.699609000000000E+02      5.105896000000000E-01     -8.043749000000000E+01      5.670471000000000E-01     -1.794765000000000E+02      7.785645000000000E-01     -9.421484000000000E+01
4877000000.000000      5.618591000000000E-01     -1.701172000000000E+02      5.110168000000000E-01     -8.062500000000000E+01      5.698547000000000E-01     -1.797031000000000E+02      7.810974000000000E-01     -9.433203000000000E+01
4878000000.000000      5.632019000000000E-01     -1.702656000000000E+02      5.116272000000000E-01     -8.098047000000000E+01      5.713501000000000E-01     -1.797188000000000E+02      7.838745000000000E-01     -9.440233000000000E+01
4879000000.000000      5.639954000000000E-01     -1.705078000000000E+02      5.115051000000000E-01     -8.107031000000000E+01      5.724792000000000E-01     -1.799141000000000E+02      7.844849000000000E-01     -9.433985000000000E+01
4880000000.000000      5.626831000000000E-01     -1.706719000000000E+02      5.137634000000000E-01     -8.137499000000000E+01      5.759888000000000E-01      1.797266000000000E+02      7.871704000000000E-01     -9.437891000000000E+01
4881000000.000000      5.643005000000000E-01     -1.708047000000000E+02      5.142822000000000E-01     -8.146875000000000E+01      5.780029000000000E-01      1.794844000000000E+02      7.878723000000000E-01     -9.444139000000000E+01
4882000000.000000      5.623169000000000E-01     -1.710078000000000E+02      5.177002000000000E-01     -8.164063000000000E+01      5.809631000000000E-01      1.793750000000000E+02      7.912292000000000E-01     -9.448828000000000E+01
