! Network Analyzer HP8722D
! Hewlett-Packard
! Data name: Linha & Wilkinson
! Saver's name: Rodrigo Anjos
! Comments: Teste da utilização de aquisição
continua pelo VNA HP8722D
! Time and date: 17/4/2025 16:21
!              Frequency                     S11                                                   S21                                                   S12                                                   S22
# HZ  S  MA R 50
4800000000.000000      3.329163000000000E-01     -1.133867000000000E+02      2.898407000000000E-01     -6.074023000000000E+01      2.843018000000000E-01     -1.749609000000000E+02      6.565247000000000E-01     -9.006250000000000E+01
4801000000.000000      3.320465000000000E-01     -1.142812000000000E+02      2.939606000000000E-01     -6.076366000000000E+01      2.876740000000000E-01     -1.748984000000000E+02      6.540222000000000E-01     -9.011328000000000E+01
4802000000.000000      3.315582000000000E-01     -1.153828000000000E+02      2.987671000000000E-01     -6.091797000000000E+01      2.919159000000000E-01     -1.747187000000000E+02      6.541443000000000E-01     -9.006250000000000E+01
4803000000.000000      3.305664000000000E-01     -1.163633000000000E+02      3.042297000000000E-01     -6.110352000000000E+01      2.957458000000000E-01     -1.745625000000000E+02      6.535339000000000E-01     -9.023829000000000E+01
4804000000.000000      3.302917000000000E-01     -1.173320000000000E+02      3.078156000000000E-01     -6.111133000000000E+01      2.999573000000000E-01     -1.745547000000000E+02      6.514587000000000E-01     -9.030859000000000E+01
4805000000.000000      3.303223000000000E-01     -1.184414000000000E+02      3.123016000000000E-01     -6.120117000000000E+01      3.044281000000000E-01     -1.744219000000000E+02      6.523743000000000E-01     -9.050781000000000E+01
4806000000.000000      3.300171000000000E-01     -1.194414000000000E+02      3.165894000000000E-01     -6.135547000000000E+01      3.078003000000000E-01     -1.742656000000000E+02      6.512756000000000E-01     -9.068359000000000E+01
4807000000.000000      3.301392000000000E-01     -1.204726000000000E+02      3.214722000000000E-01     -6.169140000000000E+01      3.119049000000000E-01     -1.743125000000000E+02      6.508179000000000E-01     -9.068359000000000E+01
4808000000.000000      3.307495000000000E-01     -1.214336000000000E+02      3.260040000000000E-01     -6.153125000000000E+01      3.162384000000000E-01     -1.742266000000000E+02      6.488037000000000E-01     -9.065233000000000E+01
4809000000.000000      3.305511000000000E-01     -1.226015000000000E+02      3.300323000000000E-01     -6.200195000000000E+01      3.201447000000000E-01     -1.742109000000000E+02      6.487732000000000E-01     -9.083202000000000E+01
4810000000.000000      3.314972000000000E-01     -1.236445000000000E+02      3.346863000000000E-01     -6.210351000000000E+01      3.238831000000000E-01     -1.741875000000000E+02      6.494751000000000E-01     -9.098436000000000E+01
4811000000.000000      3.327789000000000E-01     -1.246250000000000E+02      3.387451000000000E-01     -6.239062000000000E+01      3.290710000000000E-01     -1.740000000000000E+02      6.487427000000000E-01     -9.096874000000000E+01
4812000000.000000      3.339081000000000E-01     -1.256719000000000E+02      3.426208000000000E-01     -6.259375000000000E+01      3.330383000000000E-01     -1.738359000000000E+02      6.485596000000000E-01     -9.115234000000000E+01
4813000000.000000      3.347168000000000E-01     -1.268320000000000E+02      3.460999000000000E-01     -6.275585000000000E+01      3.362732000000000E-01     -1.738594000000000E+02      6.488037000000000E-01     -9.105860000000000E+01
4814000000.000000      3.355560000000000E-01     -1.280234000000000E+02      3.513641000000000E-01     -6.285351000000000E+01      3.401794000000000E-01     -1.739141000000000E+02      6.490479000000000E-01     -9.119532000000000E+01
4815000000.000000      3.375092000000000E-01     -1.290156000000000E+02      3.553925000000000E-01     -6.313477000000000E+01      3.437958000000000E-01     -1.737969000000000E+02      6.485291000000000E-01     -9.121874000000000E+01
4816000000.000000      3.394012000000000E-01     -1.301328000000000E+02      3.595276000000000E-01     -6.342187000000000E+01      3.485718000000000E-01     -1.736719000000000E+02      6.482239000000000E-01     -9.135937000000000E+01
4817000000.000000      3.424835000000000E-01     -1.311797000000000E+02      3.640137000000000E-01     -6.367578000000000E+01      3.521881000000000E-01     -1.737109000000000E+02      6.483459000000000E-01     -9.145311000000000E+01
4818000000.000000      3.443298000000000E-01     -1.323047000000000E+02      3.666992000000000E-01     -6.383789000000000E+01      3.564148000000000E-01     -1.736562000000000E+02      6.492310000000000E-01     -9.150000000000000E+01
4819000000.000000      3.469849000000000E-01     -1.333125000000000E+02      3.711700000000000E-01     -6.402734000000000E+01      3.601990000000000E-01     -1.736875000000000E+02      6.498413000000000E-01     -9.167969000000000E+01
4820000000.000000      3.485870000000000E-01     -1.344141000000000E+02      3.748932000000000E-01     -6.428905000000000E+01      3.646698000000000E-01     -1.735703000000000E+02      6.507874000000000E-01     -9.171484000000000E+01
4821000000.000000      3.519440000000000E-01     -1.355391000000000E+02      3.789978000000000E-01     -6.455078000000000E+01      3.684998000000000E-01     -1.736641000000000E+02      6.502686000000000E-01     -9.185156000000000E+01
4822000000.000000      3.562469000000000E-01     -1.366562000000000E+02      3.829346000000000E-01     -6.481640000000000E+01      3.724365000000000E-01     -1.736016000000000E+02      6.528320000000000E-01     -9.186327000000000E+01
4823000000.000000      3.587036000000000E-01     -1.375703000000000E+02      3.864136000000000E-01     -6.511328000000000E+01      3.753815000000000E-01     -1.734141000000000E+02      6.523743000000000E-01     -9.193359000000000E+01
4824000000.000000      3.630219000000000E-01     -1.386563000000000E+02      3.904114000000000E-01     -6.542187000000000E+01      3.803101000000000E-01     -1.735859000000000E+02      6.542358000000000E-01     -9.205469000000000E+01
4825000000.000000      3.661804000000000E-01     -1.395937000000000E+02      3.937531000000000E-01     -6.560547000000000E+01      3.848877000000000E-01     -1.735703000000000E+02      6.552734000000000E-01     -9.196093000000000E+01
4826000000.000000      3.705750000000000E-01     -1.406953000000000E+02      3.983307000000000E-01     -6.599609000000000E+01      3.880768000000000E-01     -1.736094000000000E+02      6.562805000000000E-01     -9.216406000000000E+01
4827000000.000000      3.743286000000000E-01     -1.415234000000000E+02      4.009094000000000E-01     -6.610937000000000E+01      3.914185000000000E-01     -1.736250000000000E+02      6.575928000000000E-01     -9.215235000000000E+01
4828000000.000000      3.791656000000000E-01     -1.425390000000000E+02      4.055939000000000E-01     -6.642187000000000E+01      3.954773000000000E-01     -1.735859000000000E+02      6.596985000000000E-01     -9.221483000000000E+01
4829000000.000000      3.816223000000000E-01     -1.434375000000000E+02      4.080963000000000E-01     -6.670312000000000E+01      3.997345000000000E-01     -1.736016000000000E+02      6.599121000000000E-01     -9.230469000000000E+01
4830000000.000000      3.870392000000000E-01     -1.444844000000000E+02      4.121857000000000E-01     -6.712500000000000E+01      4.046936000000000E-01     -1.735312000000000E+02      6.617432000000000E-01     -9.245312000000000E+01
4831000000.000000      3.913116000000000E-01     -1.453828000000000E+02      4.143982000000000E-01     -6.739062000000000E+01      4.070587000000000E-01     -1.735703000000000E+02      6.640625000000000E-01     -9.237890000000000E+01
4832000000.000000      3.970947000000000E-01     -1.462578000000000E+02      4.192810000000000E-01     -6.758594000000000E+01      4.113312000000000E-01     -1.736641000000000E+02      6.648865000000000E-01     -9.244532000000000E+01
4833000000.000000      4.016266000000000E-01     -1.472344000000000E+02      4.219818000000000E-01     -6.790625000000000E+01      4.165802000000000E-01     -1.737031000000000E+02      6.659851000000000E-01     -9.257421000000000E+01
4834000000.000000      4.063110000000000E-01     -1.480625000000000E+02      4.244690000000000E-01     -6.822266000000000E+01      4.206238000000000E-01     -1.736875000000000E+02      6.678467000000000E-01     -9.264452000000000E+01
4835000000.000000      4.107666000000000E-01     -1.489297000000000E+02      4.291840000000000E-01     -6.860546000000000E+01      4.253082000000000E-01     -1.737422000000000E+02      6.712341000000000E-01     -9.279688000000000E+01
4836000000.000000      4.164734000000000E-01     -1.496953000000000E+02      4.313812000000000E-01     -6.887890000000000E+01      4.276428000000000E-01     -1.736875000000000E+02      6.728821000000000E-01     -9.265234000000000E+01
4837000000.000000      4.213562000000000E-01     -1.504297000000000E+02      4.344940000000000E-01     -6.935547000000000E+01      4.320221000000000E-01     -1.738906000000000E+02      6.737976000000000E-01     -9.276171000000000E+01
4838000000.000000      4.269714000000000E-01     -1.513125000000000E+02      4.379730000000000E-01     -6.951172000000000E+01      4.362793000000000E-01     -1.739375000000000E+02      6.768188000000000E-01     -9.275000000000000E+01
4839000000.000000      4.319305000000000E-01     -1.519766000000000E+02      4.400330000000000E-01     -6.973437000000000E+01      4.401855000000000E-01     -1.739141000000000E+02      6.792908000000000E-01     -9.277344000000000E+01
4840000000.000000      4.367981000000000E-01     -1.529063000000000E+02      4.437561000000000E-01     -7.010156000000000E+01      4.443512000000000E-01     -1.740781000000000E+02      6.814880000000000E-01     -9.296093000000000E+01
4841000000.000000      4.420166000000000E-01     -1.536875000000000E+02      4.464569000000000E-01     -7.053124000000000E+01      4.488678000000000E-01     -1.741797000000000E+02      6.834717000000000E-01     -9.301172000000000E+01
4842000000.000000      4.478760000000000E-01     -1.542734000000000E+02      4.492493000000000E-01     -7.075781000000000E+01      4.515381000000000E-01     -1.742656000000000E+02      6.859436000000000E-01     -9.307812000000000E+01
4843000000.000000      4.525452000000000E-01     -1.551094000000000E+02      4.529572000000000E-01     -7.122656000000000E+01      4.561005000000000E-01     -1.743203000000000E+02      6.885986000000000E-01     -9.306641000000000E+01
4844000000.000000      4.575806000000000E-01     -1.557656000000000E+02      4.554901000000000E-01     -7.141406000000000E+01      4.596252000000000E-01     -1.743750000000000E+02      6.904602000000000E-01     -9.316797000000000E+01
4845000000.000000      4.624634000000000E-01     -1.564062000000000E+02      4.574432000000000E-01     -7.171875000000000E+01      4.647827000000000E-01     -1.744688000000000E+02      6.931458000000000E-01     -9.316015000000000E+01
4846000000.000000      4.676056000000000E-01     -1.569922000000000E+02      4.603271000000000E-01     -7.207031000000000E+01      4.692535000000000E-01     -1.746250000000000E+02      6.961365000000000E-01     -9.319921000000000E+01
4847000000.000000      4.732208000000000E-01     -1.577422000000000E+02      4.629059000000000E-01     -7.234375000000000E+01      4.728088000000000E-01     -1.747813000000000E+02      6.988220000000000E-01     -9.329687000000000E+01
4848000000.000000      4.784241000000000E-01     -1.583359000000000E+02      4.655762000000000E-01     -7.254296000000000E+01      4.765930000000000E-01     -1.748750000000000E+02      7.014160000000000E-01     -9.331249000000000E+01
4849000000.000000      4.830170000000000E-01     -1.592031000000000E+02      4.684601000000000E-01     -7.309375000000000E+01      4.803772000000000E-01     -1.749922000000000E+02      7.040100000000000E-01     -9.329296000000000E+01
4850000000.000000      4.875793000000000E-01     -1.596016000000000E+02      4.700623000000000E-01     -7.334765000000000E+01      4.843903000000000E-01     -1.750547000000000E+02      7.062073000000000E-01     -9.331249000000000E+01
4851000000.000000      4.927673000000000E-01     -1.602500000000000E+02      4.729156000000000E-01     -7.376562000000000E+01      4.883575000000000E-01     -1.751719000000000E+02      7.100220000000000E-01     -9.341015000000000E+01
4852000000.000000      4.974976000000000E-01     -1.608281000000000E+02      4.757538000000000E-01     -7.401953000000000E+01      4.924774000000000E-01     -1.752812000000000E+02      7.126160000000000E-01     -9.349609000000000E+01
4853000000.000000      5.021362000000000E-01     -1.613516000000000E+02      4.764099000000000E-01     -7.429296000000000E+01      4.965515000000000E-01     -1.754609000000000E+02      7.153015000000000E-01     -9.357422000000000E+01
4854000000.000000      5.060425000000000E-01     -1.619219000000000E+02      4.790344000000000E-01     -7.478516000000000E+01      4.990845000000000E-01     -1.756953000000000E+02      7.183838000000000E-01     -9.353907000000000E+01
4855000000.000000      5.103455000000000E-01     -1.625156000000000E+02      4.808960000000000E-01     -7.497265000000000E+01      5.042725000000000E-01     -1.756797000000000E+02      7.209473000000000E-01     -9.356249000000000E+01
4856000000.000000      5.152283000000000E-01     -1.630703000000000E+02      4.826050000000000E-01     -7.528125000000000E+01      5.082092000000000E-01     -1.758437000000000E+02      7.241516000000000E-01     -9.362499000000000E+01
4857000000.000000      5.190125000000000E-01     -1.635547000000000E+02      4.858856000000000E-01     -7.566406000000000E+01      5.117493000000000E-01     -1.760781000000000E+02      7.262573000000000E-01     -9.367579000000000E+01
4858000000.000000      5.209656000000000E-01     -1.640859000000000E+02      4.872284000000000E-01     -7.582031000000000E+01      5.144958000000000E-01     -1.761172000000000E+02      7.294006000000000E-01     -9.372265000000000E+01
4859000000.000000      5.257568000000000E-01     -1.645625000000000E+02      4.894714000000000E-01     -7.623047000000000E+01      5.185547000000000E-01     -1.765156000000000E+02      7.331238000000000E-01     -9.382421000000000E+01
4860000000.000000      5.302429000000000E-01     -1.650078000000000E+02      4.918518000000000E-01     -7.646093000000000E+01      5.210876000000000E-01     -1.765391000000000E+02      7.351990000000000E-01     -9.377733000000000E+01
4861000000.000000      5.328369000000000E-01     -1.653750000000000E+02      4.908295000000000E-01     -7.692968000000000E+01      5.257263000000000E-01     -1.767969000000000E+02      7.383423000000000E-01     -9.388672000000000E+01
4862000000.000000      5.358276000000000E-01     -1.658750000000000E+02      4.947357000000000E-01     -7.715625000000000E+01      5.287170000000000E-01     -1.768828000000000E+02      7.431335000000000E-01     -9.392969000000000E+01
4863000000.000000      5.384521000000000E-01     -1.662969000000000E+02      4.946289000000000E-01     -7.747265000000000E+01      5.334167000000000E-01     -1.771094000000000E+02      7.448120000000000E-01     -9.396875000000000E+01
4864000000.000000      5.415955000000000E-01     -1.666641000000000E+02      4.966583000000000E-01     -7.779687000000000E+01      5.345764000000000E-01     -1.772031000000000E+02      7.473145000000000E-01     -9.406250000000000E+01
4865000000.000000      5.438843000000000E-01     -1.671719000000000E+02      4.975281000000000E-01     -7.790234000000000E+01      5.389709000000000E-01     -1.774844000000000E+02      7.500000000000000E-01     -9.395702000000000E+01
4866000000.000000      5.457153000000000E-01     -1.674062000000000E+02      4.984283000000000E-01     -7.834765000000000E+01      5.413208000000000E-01     -1.777812000000000E+02      7.524414000000000E-01     -9.393749000000000E+01
4867000000.000000      5.480957000000000E-01     -1.677891000000000E+02      5.018311000000000E-01     -7.872265000000000E+01      5.435791000000000E-01     -1.779140000000000E+02      7.556763000000000E-01     -9.394140000000000E+01
4868000000.000000      5.504456000000000E-01     -1.682656000000000E+02      5.020142000000000E-01     -7.903515000000000E+01      5.478210000000000E-01     -1.779375000000000E+02      7.582092000000000E-01     -9.412500000000000E+01
4869000000.000000      5.521240000000000E-01     -1.684844000000000E+02      5.033264000000000E-01     -7.908984000000000E+01      5.516663000000000E-01     -1.782344000000000E+02      7.608948000000000E-01     -9.423828000000000E+01
4870000000.000000      5.538940000000000E-01     -1.688750000000000E+02      5.053101000000000E-01     -7.919922000000000E+01      5.537415000000000E-01     -1.785547000000000E+02      7.645569000000000E-01     -9.419140000000000E+01
4871000000.000000      5.552368000000000E-01     -1.691875000000000E+02      5.051880000000000E-01     -7.966015000000000E+01      5.556030000000000E-01     -1.785859000000000E+02      7.659912000000000E-01     -9.419922000000000E+01
4872000000.000000      5.577393000000000E-01     -1.694844000000000E+02      5.059204000000000E-01     -7.975390000000000E+01      5.582275000000000E-01     -1.789063000000000E+02      7.695618000000000E-01     -9.428125000000000E+01
4873000000.000000      5.583801000000000E-01     -1.696719000000000E+02      5.070801000000000E-01     -8.025391000000000E+01      5.596008000000000E-01     -1.790078000000000E+02      7.699585000000000E-01     -9.441015000000000E+01
4874000000.000000      5.584717000000000E-01     -1.699297000000000E+02      5.079346000000000E-01     -8.046875000000000E+01      5.647583000000000E-01     -1.792422000000000E+02      7.729492000000000E-01     -9.424219000000000E+01
4875000000.000000      5.610352000000000E-01     -1.701953000000000E+02      5.081482000000000E-01     -8.057812000000000E+01      5.662537000000000E-01     -1.796797000000000E+02      7.748108000000000E-01     -9.437891000000000E+01
4876000000.000000      5.606079000000000E-01     -1.704141000000000E+02      5.110474000000000E-01     -8.080469000000000E+01      5.656128000000000E-01     -1.796953000000000E+02      7.782898000000000E-01     -9.433203000000000E+01
4877000000.000000      5.604858000000000E-01     -1.706484000000000E+02      5.123901000000000E-01     -8.107813000000000E+01      5.704956000000000E-01      1.799141000000000E+02      7.802429000000000E-01     -9.458202000000000E+01
4878000000.000000      5.623169000000000E-01     -1.707813000000000E+02      5.114441000000000E-01     -8.127344000000000E+01      5.728455000000000E-01      1.798281000000000E+02      7.833252000000000E-01     -9.465235000000000E+01
4879000000.000000      5.631714000000000E-01     -1.710078000000000E+02      5.128479000000000E-01     -8.145702000000000E+01      5.744629000000000E-01      1.796172000000000E+02      7.844849000000000E-01     -9.447657000000000E+01
4880000000.000000      5.617371000000000E-01     -1.712109000000000E+02      5.149841000000000E-01     -8.172266000000000E+01      5.762939000000000E-01      1.794922000000000E+02      7.859497000000000E-01     -9.459375000000000E+01
4881000000.000000      5.636902000000000E-01     -1.713516000000000E+02      5.163879000000000E-01     -8.182421000000000E+01      5.794678000000000E-01      1.790000000000000E+02      7.899170000000000E-01     -9.458202000000000E+01
4882000000.000000      5.610657000000000E-01     -1.714766000000000E+02      5.164490000000000E-01     -8.205858000000000E+01      5.811768000000000E-01      1.789063000000000E+02      7.894897000000000E-01     -9.454296000000000E+01
