! Network Analyzer HP8722D
! Hewlett-Packard
! Data name: Linha & Wilkinson
! Saver's name: Rodrigo Anjos
! Comments: Teste da utilização de aquisição
continua pelo VNA HP8722D
! Time and date: 17/4/2025 14:26
!              Frequency                     S11                                                   S21                                                   S12                                                   S22
# HZ  S  MA R 50
4800000000.000000      3.336334000000000E-01     -1.134297000000000E+02      2.875519000000000E-01     -6.092773000000000E+01      2.821350000000000E-01     -1.749922000000000E+02      6.549683000000000E-01     -9.002344000000000E+01
4801000000.000000      3.326874000000000E-01     -1.143594000000000E+02      2.926331000000000E-01     -6.090038000000000E+01      2.851715000000000E-01     -1.749219000000000E+02      6.542358000000000E-01     -9.014452000000000E+01
4802000000.000000      3.313751000000000E-01     -1.153906000000000E+02      2.964020000000000E-01     -6.098827000000000E+01      2.900238000000000E-01     -1.747813000000000E+02      6.535645000000000E-01     -9.000391000000000E+01
4803000000.000000      3.306427000000000E-01     -1.163867000000000E+02      3.021240000000000E-01     -6.108398000000000E+01      2.933197000000000E-01     -1.746953000000000E+02      6.531067000000000E-01     -9.023438000000000E+01
4804000000.000000      3.303070000000000E-01     -1.172695000000000E+02      3.064880000000000E-01     -6.121094000000000E+01      2.980499000000000E-01     -1.747187000000000E+02      6.518555000000000E-01     -9.028515000000000E+01
4805000000.000000      3.304749000000000E-01     -1.183672000000000E+02      3.105469000000000E-01     -6.146874000000000E+01      3.022766000000000E-01     -1.744688000000000E+02      6.511536000000000E-01     -9.051952000000000E+01
4806000000.000000      3.300323000000000E-01     -1.192812000000000E+02      3.149719000000000E-01     -6.149219000000000E+01      3.058472000000000E-01     -1.742500000000000E+02      6.510620000000000E-01     -9.060938000000000E+01
4807000000.000000      3.300629000000000E-01     -1.203711000000000E+02      3.193054000000000E-01     -6.158008000000000E+01      3.102264000000000E-01     -1.743984000000000E+02      6.501160000000000E-01     -9.058203000000000E+01
4808000000.000000      3.304749000000000E-01     -1.213750000000000E+02      3.244781000000000E-01     -6.167187000000000E+01      3.137665000000000E-01     -1.742266000000000E+02      6.484375000000000E-01     -9.067968000000000E+01
4809000000.000000      3.313751000000000E-01     -1.224922000000000E+02      3.283997000000000E-01     -6.210742000000000E+01      3.186798000000000E-01     -1.743047000000000E+02      6.485901000000000E-01     -9.082031000000000E+01
4810000000.000000      3.317261000000000E-01     -1.236562000000000E+02      3.328552000000000E-01     -6.220117000000000E+01      3.223419000000000E-01     -1.741484000000000E+02      6.487122000000000E-01     -9.091015000000000E+01
4811000000.000000      3.322144000000000E-01     -1.246445000000000E+02      3.376160000000000E-01     -6.238867000000000E+01      3.273773000000000E-01     -1.739766000000000E+02      6.481323000000000E-01     -9.084375000000000E+01
4812000000.000000      3.343201000000000E-01     -1.256719000000000E+02      3.420258000000000E-01     -6.264453000000000E+01      3.309631000000000E-01     -1.738437000000000E+02      6.480103000000000E-01     -9.103907000000000E+01
4813000000.000000      3.346558000000000E-01     -1.267695000000000E+02      3.456879000000000E-01     -6.277344000000000E+01      3.341827000000000E-01     -1.738359000000000E+02      6.478577000000000E-01     -9.104296000000000E+01
4814000000.000000      3.358307000000000E-01     -1.280313000000000E+02      3.498077000000000E-01     -6.296679000000000E+01      3.380127000000000E-01     -1.738437000000000E+02      6.481628000000000E-01     -9.124218000000000E+01
4815000000.000000      3.378296000000000E-01     -1.288359000000000E+02      3.540649000000000E-01     -6.314062000000000E+01      3.420563000000000E-01     -1.737813000000000E+02      6.471252000000000E-01     -9.118750000000000E+01
4816000000.000000      3.395844000000000E-01     -1.300078000000000E+02      3.583069000000000E-01     -6.335155000000000E+01      3.468170000000000E-01     -1.736016000000000E+02      6.469421000000000E-01     -9.137890000000000E+01
4817000000.000000      3.423462000000000E-01     -1.311406000000000E+02      3.623505000000000E-01     -6.357812000000000E+01      3.502960000000000E-01     -1.737890000000000E+02      6.482239000000000E-01     -9.135937000000000E+01
4818000000.000000      3.443604000000000E-01     -1.323281000000000E+02      3.653107000000000E-01     -6.381640000000000E+01      3.548584000000000E-01     -1.736641000000000E+02      6.481018000000000E-01     -9.150000000000000E+01
4819000000.000000      3.471680000000000E-01     -1.333359000000000E+02      3.691711000000000E-01     -6.403906000000000E+01      3.581085000000000E-01     -1.736797000000000E+02      6.500244000000000E-01     -9.170313000000000E+01
4820000000.000000      3.491211000000000E-01     -1.343984000000000E+02      3.733063000000000E-01     -6.437109000000000E+01      3.624115000000000E-01     -1.736484000000000E+02      6.504517000000000E-01     -9.166796000000000E+01
4821000000.000000      3.520050000000000E-01     -1.354375000000000E+02      3.778687000000000E-01     -6.459374000000000E+01      3.665619000000000E-01     -1.738281000000000E+02      6.499023000000000E-01     -9.185156000000000E+01
4822000000.000000      3.562622000000000E-01     -1.365000000000000E+02      3.810272000000000E-01     -6.478125000000000E+01      3.699493000000000E-01     -1.736562000000000E+02      6.526489000000000E-01     -9.174608000000000E+01
4823000000.000000      3.587494000000000E-01     -1.375078000000000E+02      3.856201000000000E-01     -6.500781000000000E+01      3.747406000000000E-01     -1.734453000000000E+02      6.520996000000000E-01     -9.191406000000000E+01
4824000000.000000      3.630371000000000E-01     -1.386016000000000E+02      3.886261000000000E-01     -6.543750000000000E+01      3.787079000000000E-01     -1.737031000000000E+02      6.535339000000000E-01     -9.196484000000000E+01
4825000000.000000      3.661194000000000E-01     -1.395156000000000E+02      3.926697000000000E-01     -6.556641000000000E+01      3.830109000000000E-01     -1.733906000000000E+02      6.553040000000000E-01     -9.195704000000000E+01
4826000000.000000      3.704224000000000E-01     -1.405937000000000E+02      3.961029000000000E-01     -6.597656000000000E+01      3.856812000000000E-01     -1.735937000000000E+02      6.561584000000000E-01     -9.213282000000000E+01
4827000000.000000      3.740692000000000E-01     -1.414922000000000E+02      3.992767000000000E-01     -6.611718000000000E+01      3.901062000000000E-01     -1.735547000000000E+02      6.567688000000000E-01     -9.206640000000000E+01
4828000000.000000      3.790283000000000E-01     -1.424687000000000E+02      4.038544000000000E-01     -6.646093000000000E+01      3.943481000000000E-01     -1.735625000000000E+02      6.592102000000000E-01     -9.224218000000000E+01
4829000000.000000      3.814850000000000E-01     -1.433672000000000E+02      4.068298000000000E-01     -6.674218000000000E+01      3.980408000000000E-01     -1.735469000000000E+02      6.596680000000000E-01     -9.220312000000000E+01
4830000000.000000      3.872070000000000E-01     -1.442656000000000E+02      4.101868000000000E-01     -6.705859000000000E+01      4.024658000000000E-01     -1.735703000000000E+02      6.613159000000000E-01     -9.239843000000000E+01
4831000000.000000      3.905945000000000E-01     -1.451875000000000E+02      4.131012000000000E-01     -6.741796000000000E+01      4.066772000000000E-01     -1.735234000000000E+02      6.630554000000000E-01     -9.250391000000000E+01
4832000000.000000      3.966980000000000E-01     -1.461172000000000E+02      4.175873000000000E-01     -6.756249000000000E+01      4.104156000000000E-01     -1.736094000000000E+02      6.645508000000000E-01     -9.249218000000000E+01
4833000000.000000      4.015808000000000E-01     -1.471094000000000E+02      4.214172000000000E-01     -6.786327000000000E+01      4.144135000000000E-01     -1.737031000000000E+02      6.661987000000000E-01     -9.255468000000000E+01
4834000000.000000      4.055939000000000E-01     -1.480000000000000E+02      4.239960000000000E-01     -6.809375000000000E+01      4.184723000000000E-01     -1.737187000000000E+02      6.666260000000000E-01     -9.256250000000000E+01
4835000000.000000      4.104767000000000E-01     -1.487734000000000E+02      4.271545000000000E-01     -6.853125000000000E+01      4.234161000000000E-01     -1.737422000000000E+02      6.695862000000000E-01     -9.277344000000000E+01
4836000000.000000      4.160614000000000E-01     -1.495156000000000E+02      4.293518000000000E-01     -6.880077000000000E+01      4.270172000000000E-01     -1.736953000000000E+02      6.716919000000000E-01     -9.275000000000000E+01
4837000000.000000      4.213104000000000E-01     -1.503203000000000E+02      4.330292000000000E-01     -6.926952000000000E+01      4.306335000000000E-01     -1.738906000000000E+02      6.736450000000000E-01     -9.273438000000000E+01
4838000000.000000      4.264679000000000E-01     -1.512031000000000E+02      4.370728000000000E-01     -6.948828000000000E+01      4.354553000000000E-01     -1.738906000000000E+02      6.772766000000000E-01     -9.278515000000000E+01
4839000000.000000      4.316101000000000E-01     -1.518594000000000E+02      4.396820000000000E-01     -6.977344000000000E+01      4.390869000000000E-01     -1.739063000000000E+02      6.779175000000000E-01     -9.292187000000000E+01
4840000000.000000      4.361115000000000E-01     -1.527266000000000E+02      4.422760000000000E-01     -7.001171000000000E+01      4.433136000000000E-01     -1.740781000000000E+02      6.803589000000000E-01     -9.291016000000000E+01
4841000000.000000      4.418335000000000E-01     -1.535938000000000E+02      4.454346000000000E-01     -7.051952000000000E+01      4.473267000000000E-01     -1.741406000000000E+02      6.826782000000000E-01     -9.293749000000000E+01
4842000000.000000      4.473724000000000E-01     -1.541797000000000E+02      4.486694000000000E-01     -7.063671000000000E+01      4.506073000000000E-01     -1.742031000000000E+02      6.851807000000000E-01     -9.300781000000000E+01
4843000000.000000      4.518890000000000E-01     -1.549609000000000E+02      4.517670000000000E-01     -7.107031000000000E+01      4.553833000000000E-01     -1.742500000000000E+02      6.869812000000000E-01     -9.307421000000000E+01
4844000000.000000      4.575500000000000E-01     -1.555938000000000E+02      4.536438000000000E-01     -7.152344000000000E+01      4.588776000000000E-01     -1.743594000000000E+02      6.904602000000000E-01     -9.314062000000000E+01
4845000000.000000      4.617767000000000E-01     -1.562969000000000E+02      4.568024000000000E-01     -7.175781000000000E+01      4.633484000000000E-01     -1.745391000000000E+02      6.920776000000000E-01     -9.301172000000000E+01
4846000000.000000      4.671326000000000E-01     -1.568984000000000E+02      4.592743000000000E-01     -7.204296000000000E+01      4.673920000000000E-01     -1.745312000000000E+02      6.954956000000000E-01     -9.317968000000000E+01
4847000000.000000      4.729767000000000E-01     -1.576484000000000E+02      4.626007000000000E-01     -7.237890000000000E+01      4.720001000000000E-01     -1.747500000000000E+02      6.990051000000000E-01     -9.330858000000000E+01
4848000000.000000      4.781647000000000E-01     -1.582266000000000E+02      4.644470000000000E-01     -7.257813000000000E+01      4.753571000000000E-01     -1.747656000000000E+02      6.997986000000000E-01     -9.328516000000000E+01
4849000000.000000      4.825439000000000E-01     -1.590937000000000E+02      4.666901000000000E-01     -7.317577000000000E+01      4.794769000000000E-01     -1.749609000000000E+02      7.028503000000000E-01     -9.327343000000000E+01
4850000000.000000      4.875031000000000E-01     -1.594922000000000E+02      4.699249000000000E-01     -7.328906000000000E+01      4.831848000000000E-01     -1.750000000000000E+02      7.061462000000000E-01     -9.333984000000000E+01
4851000000.000000      4.921417000000000E-01     -1.600781000000000E+02      4.729156000000000E-01     -7.368750000000000E+01      4.867554000000000E-01     -1.751797000000000E+02      7.092285000000000E-01     -9.332422000000000E+01
4852000000.000000      4.977112000000000E-01     -1.607578000000000E+02      4.748535000000000E-01     -7.398046000000000E+01      4.915619000000000E-01     -1.752891000000000E+02      7.125549000000000E-01     -9.344921000000000E+01
4853000000.000000      5.021667000000000E-01     -1.612578000000000E+02      4.752655000000000E-01     -7.431250000000000E+01      4.959717000000000E-01     -1.754609000000000E+02      7.146912000000000E-01     -9.353907000000000E+01
4854000000.000000      5.064087000000000E-01     -1.618281000000000E+02      4.785004000000000E-01     -7.478125000000000E+01      4.989777000000000E-01     -1.755703000000000E+02      7.171326000000000E-01     -9.356249000000000E+01
4855000000.000000      5.094910000000000E-01     -1.623984000000000E+02      4.800873000000000E-01     -7.496875000000000E+01      5.026245000000000E-01     -1.756719000000000E+02      7.201843000000000E-01     -9.363281000000000E+01
4856000000.000000      5.148621000000000E-01     -1.628594000000000E+02      4.817657000000000E-01     -7.520312000000000E+01      5.064392000000000E-01     -1.758047000000000E+02      7.233887000000000E-01     -9.354687000000000E+01
4857000000.000000      5.186157000000000E-01     -1.634531000000000E+02      4.847412000000000E-01     -7.562500000000000E+01      5.099487000000000E-01     -1.759687000000000E+02      7.261658000000000E-01     -9.358984000000000E+01
4858000000.000000      5.211792000000000E-01     -1.639062000000000E+02      4.861755000000000E-01     -7.593750000000000E+01      5.137634000000000E-01     -1.762812000000000E+02      7.276306000000000E-01     -9.373047000000000E+01
4859000000.000000      5.252991000000000E-01     -1.644609000000000E+02      4.870148000000000E-01     -7.612890000000000E+01      5.171204000000000E-01     -1.763594000000000E+02      7.328491000000000E-01     -9.382030000000000E+01
4860000000.000000      5.298462000000000E-01     -1.649062000000000E+02      4.895935000000000E-01     -7.644531000000000E+01      5.210876000000000E-01     -1.765703000000000E+02      7.333374000000000E-01     -9.376562000000000E+01
4861000000.000000      5.326538000000000E-01     -1.652578000000000E+02      4.918213000000000E-01     -7.687500000000000E+01      5.238647000000000E-01     -1.766641000000000E+02      7.376099000000000E-01     -9.384375000000000E+01
4862000000.000000      5.358887000000000E-01     -1.657734000000000E+02      4.931946000000000E-01     -7.709765000000000E+01      5.282898000000000E-01     -1.768281000000000E+02      7.426758000000000E-01     -9.398829000000000E+01
4863000000.000000      5.378418000000000E-01     -1.662109000000000E+02      4.942017000000000E-01     -7.779687000000000E+01      5.321350000000000E-01     -1.770469000000000E+02      7.440796000000000E-01     -9.392187000000000E+01
4864000000.000000      5.410767000000000E-01     -1.665703000000000E+02      4.970856000000000E-01     -7.770312000000000E+01      5.333557000000000E-01     -1.771641000000000E+02      7.468262000000000E-01     -9.393358000000000E+01
4865000000.000000      5.434265000000000E-01     -1.671172000000000E+02      4.968109000000000E-01     -7.805078000000000E+01      5.368958000000000E-01     -1.775156000000000E+02      7.504883000000000E-01     -9.392969000000000E+01
4866000000.000000      5.453186000000000E-01     -1.673750000000000E+02      4.985657000000000E-01     -7.832421000000000E+01      5.410156000000000E-01     -1.775078000000000E+02      7.528687000000000E-01     -9.389843000000000E+01
4867000000.000000      5.484314000000000E-01     -1.676953000000000E+02      5.005493000000000E-01     -7.857031000000000E+01      5.429688000000000E-01     -1.776562000000000E+02      7.562256000000000E-01     -9.404297000000000E+01
4868000000.000000      5.506287000000000E-01     -1.681484000000000E+02      5.016174000000000E-01     -7.889453000000000E+01      5.472107000000000E-01     -1.780078000000000E+02      7.573242000000000E-01     -9.402344000000000E+01
4869000000.000000      5.517883000000000E-01     -1.685234000000000E+02      5.020142000000000E-01     -7.918750000000000E+01      5.495911000000000E-01     -1.783281000000000E+02      7.604065000000000E-01     -9.426172000000000E+01
4870000000.000000      5.542603000000000E-01     -1.687734000000000E+02      5.033569000000000E-01     -7.931641000000000E+01      5.528870000000000E-01     -1.785000000000000E+02      7.626343000000000E-01     -9.408594000000000E+01
4871000000.000000      5.557251000000000E-01     -1.690859000000000E+02      5.057678000000000E-01     -7.970703000000000E+01      5.546875000000000E-01     -1.787188000000000E+02      7.654419000000000E-01     -9.422655000000000E+01
4872000000.000000      5.580750000000000E-01     -1.693359000000000E+02      5.056763000000000E-01     -7.976171000000000E+01      5.586243000000000E-01     -1.790703000000000E+02      7.685852000000000E-01     -9.429296000000000E+01
4873000000.000000      5.585327000000000E-01     -1.695547000000000E+02      5.063782000000000E-01     -8.028515000000000E+01      5.579224000000000E-01     -1.791406000000000E+02      7.707214000000000E-01     -9.436718000000000E+01
4874000000.000000      5.590210000000000E-01     -1.698516000000000E+02      5.084534000000000E-01     -8.048828000000000E+01      5.633850000000000E-01     -1.792969000000000E+02      7.735901000000000E-01     -9.425781000000000E+01
4875000000.000000      5.617065000000000E-01     -1.700781000000000E+02      5.090332000000000E-01     -8.067186000000000E+01      5.654602000000000E-01     -1.795781000000000E+02      7.754517000000000E-01     -9.446484000000000E+01
4876000000.000000      5.609131000000000E-01     -1.703672000000000E+02      5.103149000000000E-01     -8.077734000000000E+01      5.662537000000000E-01     -1.797500000000000E+02      7.789917000000000E-01     -9.451563000000000E+01
4877000000.000000      5.609436000000000E-01     -1.705312000000000E+02      5.110474000000000E-01     -8.089453000000000E+01      5.689392000000000E-01      1.799453000000000E+02      7.813416000000000E-01     -9.455078000000000E+01
4878000000.000000      5.621948000000000E-01     -1.707187000000000E+02      5.142212000000000E-01     -8.130468000000000E+01      5.717468000000000E-01      1.799141000000000E+02      7.826538000000000E-01     -9.460155000000000E+01
4879000000.000000      5.635376000000000E-01     -1.708594000000000E+02      5.132141000000000E-01     -8.142969000000000E+01      5.739136000000000E-01      1.795547000000000E+02      7.846985000000000E-01     -9.445313000000000E+01
4880000000.000000      5.631409000000000E-01     -1.710234000000000E+02      5.154419000000000E-01     -8.176561000000000E+01      5.772400000000000E-01      1.794062000000000E+02      7.868958000000000E-01     -9.462891000000000E+01
4881000000.000000      5.639648000000000E-01     -1.711328000000000E+02      5.165100000000000E-01     -8.178125000000000E+01      5.786133000000000E-01      1.791719000000000E+02      7.894287000000000E-01     -9.464453000000000E+01
4882000000.000000      5.617065000000000E-01     -1.713359000000000E+02      5.173035000000000E-01     -8.199610000000000E+01      5.794983000000000E-01      1.790859000000000E+02      7.906494000000000E-01     -9.458593000000000E+01
