! Network Analyzer HP8722D
! Hewlett-Packard
! Data name: Linha & Wilkinson
! Saver's name: Rodrigo Anjos
! Comments: Teste da utilização de aquisição
continua pelo VNA HP8722D
! Time and date: 17/4/2025 14:38
!              Frequency                     S11                                                   S21                                                   S12                                                   S22
# HZ  S  MA R 50
4800000000.000000      3.334961000000000E-01     -1.131758000000000E+02      2.855682000000000E-01     -6.083593000000000E+01      2.800751000000000E-01     -1.749844000000000E+02      6.557312000000000E-01     -8.994141000000000E+01
4801000000.000000      3.319550000000000E-01     -1.139883000000000E+02      2.905884000000000E-01     -6.093359000000000E+01      2.837067000000000E-01     -1.749453000000000E+02      6.541443000000000E-01     -8.995312000000000E+01
4802000000.000000      3.309784000000000E-01     -1.150977000000000E+02      2.948303000000000E-01     -6.078515000000000E+01      2.879028000000000E-01     -1.746328000000000E+02      6.526184000000000E-01     -8.994921000000000E+01
4803000000.000000      3.303528000000000E-01     -1.160898000000000E+02      2.997284000000000E-01     -6.094140000000000E+01      2.918091000000000E-01     -1.745469000000000E+02      6.527710000000000E-01     -9.015625000000000E+01
4804000000.000000      3.297424000000000E-01     -1.169609000000000E+02      3.042297000000000E-01     -6.105273000000000E+01      2.961884000000000E-01     -1.746250000000000E+02      6.513367000000000E-01     -9.017969000000000E+01
4805000000.000000      3.300934000000000E-01     -1.180000000000000E+02      3.081665000000000E-01     -6.129296000000000E+01      3.001862000000000E-01     -1.743203000000000E+02      6.515808000000000E-01     -9.036327000000000E+01
4806000000.000000      3.288269000000000E-01     -1.189844000000000E+02      3.132629000000000E-01     -6.143945000000000E+01      3.037415000000000E-01     -1.741172000000000E+02      6.506653000000000E-01     -9.041407000000000E+01
4807000000.000000      3.293762000000000E-01     -1.201445000000000E+02      3.170319000000000E-01     -6.155859000000000E+01      3.072510000000000E-01     -1.741797000000000E+02      6.495361000000000E-01     -9.055079000000000E+01
4808000000.000000      3.296814000000000E-01     -1.210742000000000E+02      3.222656000000000E-01     -6.150781000000000E+01      3.120422000000000E-01     -1.741016000000000E+02      6.488647000000000E-01     -9.051952000000000E+01
4809000000.000000      3.299561000000000E-01     -1.221836000000000E+02      3.265991000000000E-01     -6.186718000000000E+01      3.169250000000000E-01     -1.740234000000000E+02      6.490784000000000E-01     -9.070704000000000E+01
4810000000.000000      3.310089000000000E-01     -1.233437000000000E+02      3.313904000000000E-01     -6.209961000000000E+01      3.205719000000000E-01     -1.739141000000000E+02      6.490173000000000E-01     -9.081640000000000E+01
4811000000.000000      3.325043000000000E-01     -1.243516000000000E+02      3.358917000000000E-01     -6.229297000000000E+01      3.254700000000000E-01     -1.737578000000000E+02      6.478271000000000E-01     -9.074610000000000E+01
4812000000.000000      3.334351000000000E-01     -1.253398000000000E+02      3.390961000000000E-01     -6.235156000000000E+01      3.290100000000000E-01     -1.736328000000000E+02      6.483765000000000E-01     -9.101563000000000E+01
4813000000.000000      3.346558000000000E-01     -1.264609000000000E+02      3.433228000000000E-01     -6.267578000000000E+01      3.321075000000000E-01     -1.736328000000000E+02      6.488647000000000E-01     -9.094921000000000E+01
4814000000.000000      3.350067000000000E-01     -1.277187000000000E+02      3.479919000000000E-01     -6.267968000000000E+01      3.364563000000000E-01     -1.736406000000000E+02      6.489868000000000E-01     -9.117188000000000E+01
4815000000.000000      3.372650000000000E-01     -1.286016000000000E+02      3.518829000000000E-01     -6.299023000000000E+01      3.399963000000000E-01     -1.735234000000000E+02      6.470337000000000E-01     -9.111719000000000E+01
4816000000.000000      3.390808000000000E-01     -1.297734000000000E+02      3.563538000000000E-01     -6.315234000000000E+01      3.450317000000000E-01     -1.734688000000000E+02      6.478577000000000E-01     -9.119141000000000E+01
4817000000.000000      3.415527000000000E-01     -1.307656000000000E+02      3.607941000000000E-01     -6.335742000000000E+01      3.478851000000000E-01     -1.734844000000000E+02      6.482849000000000E-01     -9.132030000000000E+01
4818000000.000000      3.435822000000000E-01     -1.319531000000000E+02      3.639984000000000E-01     -6.360546000000000E+01      3.527527000000000E-01     -1.733984000000000E+02      6.485291000000000E-01     -9.142969000000000E+01
4819000000.000000      3.461609000000000E-01     -1.329922000000000E+02      3.676605000000000E-01     -6.394531000000000E+01      3.560638000000000E-01     -1.734297000000000E+02      6.501160000000000E-01     -9.158203000000000E+01
4820000000.000000      3.479462000000000E-01     -1.340234000000000E+02      3.721466000000000E-01     -6.403125000000000E+01      3.603821000000000E-01     -1.733906000000000E+02      6.499023000000000E-01     -9.157030000000000E+01
4821000000.000000      3.513641000000000E-01     -1.351563000000000E+02      3.764496000000000E-01     -6.443359000000000E+01      3.643646000000000E-01     -1.735859000000000E+02      6.504822000000000E-01     -9.169922000000000E+01
4822000000.000000      3.556519000000000E-01     -1.361719000000000E+02      3.800659000000000E-01     -6.464062000000000E+01      3.676147000000000E-01     -1.734609000000000E+02      6.516418000000000E-01     -9.164454000000000E+01
4823000000.000000      3.577271000000000E-01     -1.371641000000000E+02      3.827362000000000E-01     -6.489843000000000E+01      3.730469000000000E-01     -1.732891000000000E+02      6.517334000000000E-01     -9.178905000000000E+01
4824000000.000000      3.619843000000000E-01     -1.383359000000000E+02      3.870087000000000E-01     -6.511328000000000E+01      3.772583000000000E-01     -1.733750000000000E+02      6.537170000000000E-01     -9.182032000000000E+01
4825000000.000000      3.647156000000000E-01     -1.392187000000000E+02      3.906860000000000E-01     -6.547656000000000E+01      3.810577000000000E-01     -1.732969000000000E+02      6.544495000000000E-01     -9.188671000000000E+01
4826000000.000000      3.691254000000000E-01     -1.403125000000000E+02      3.943176000000000E-01     -6.569921000000000E+01      3.848419000000000E-01     -1.734609000000000E+02      6.557312000000000E-01     -9.198828000000000E+01
4827000000.000000      3.734283000000000E-01     -1.411094000000000E+02      3.983002000000000E-01     -6.585938000000000E+01      3.884430000000000E-01     -1.732891000000000E+02      6.566162000000000E-01     -9.199610000000000E+01
4828000000.000000      3.779144000000000E-01     -1.421641000000000E+02      4.026947000000000E-01     -6.623437000000000E+01      3.924103000000000E-01     -1.733125000000000E+02      6.591187000000000E-01     -9.211718000000000E+01
4829000000.000000      3.807220000000000E-01     -1.430859000000000E+02      4.060822000000000E-01     -6.657812000000000E+01      3.964996000000000E-01     -1.733203000000000E+02      6.591797000000000E-01     -9.221094000000000E+01
4830000000.000000      3.859558000000000E-01     -1.440312000000000E+02      4.091034000000000E-01     -6.689062000000000E+01      4.007111000000000E-01     -1.732500000000000E+02      6.608887000000000E-01     -9.225780000000000E+01
4831000000.000000      3.899994000000000E-01     -1.449063000000000E+02      4.123077000000000E-01     -6.716797000000000E+01      4.049072000000000E-01     -1.732891000000000E+02      6.629639000000000E-01     -9.222265000000000E+01
4832000000.000000      3.958435000000000E-01     -1.457969000000000E+02      4.161682000000000E-01     -6.750781000000000E+01      4.083252000000000E-01     -1.733438000000000E+02      6.650696000000000E-01     -9.247265000000000E+01
4833000000.000000      4.004211000000000E-01     -1.468750000000000E+02      4.197540000000000E-01     -6.772265000000000E+01      4.132843000000000E-01     -1.734297000000000E+02      6.667786000000000E-01     -9.246874000000000E+01
4834000000.000000      4.047852000000000E-01     -1.476719000000000E+02      4.222260000000000E-01     -6.801562000000000E+01      4.168243000000000E-01     -1.735000000000000E+02      6.667786000000000E-01     -9.250000000000000E+01
4835000000.000000      4.098358000000000E-01     -1.484141000000000E+02      4.260712000000000E-01     -6.830078000000000E+01      4.219666000000000E-01     -1.733828000000000E+02      6.705322000000000E-01     -9.256250000000000E+01
4836000000.000000      4.153900000000000E-01     -1.492109000000000E+02      4.289398000000000E-01     -6.856640000000000E+01      4.244080000000000E-01     -1.735156000000000E+02      6.718140000000000E-01     -9.252733000000000E+01
4837000000.000000      4.203949000000000E-01     -1.500313000000000E+02      4.317627000000000E-01     -6.909374000000000E+01      4.290924000000000E-01     -1.736797000000000E+02      6.732178000000000E-01     -9.267187000000000E+01
4838000000.000000      4.255981000000000E-01     -1.509531000000000E+02      4.355469000000000E-01     -6.914063000000000E+01      4.336090000000000E-01     -1.736719000000000E+02      6.751099000000000E-01     -9.267187000000000E+01
4839000000.000000      4.307861000000000E-01     -1.516172000000000E+02      4.381409000000000E-01     -6.950390000000000E+01      4.378967000000000E-01     -1.736172000000000E+02      6.784363000000000E-01     -9.269531000000000E+01
4840000000.000000      4.356689000000000E-01     -1.524141000000000E+02      4.407501000000000E-01     -6.987890000000000E+01      4.418488000000000E-01     -1.738359000000000E+02      6.802063000000000E-01     -9.272264000000000E+01
4841000000.000000      4.406738000000000E-01     -1.533125000000000E+02      4.451904000000000E-01     -7.032031000000000E+01      4.461670000000000E-01     -1.739297000000000E+02      6.817322000000000E-01     -9.294531000000000E+01
4842000000.000000      4.465027000000000E-01     -1.539375000000000E+02      4.469147000000000E-01     -7.062890000000000E+01      4.492188000000000E-01     -1.739453000000000E+02      6.838379000000000E-01     -9.290234000000000E+01
4843000000.000000      4.508820000000000E-01     -1.547188000000000E+02      4.503021000000000E-01     -7.090625000000000E+01      4.537659000000000E-01     -1.740000000000000E+02      6.878662000000000E-01     -9.291407000000000E+01
4844000000.000000      4.562073000000000E-01     -1.553750000000000E+02      4.529114000000000E-01     -7.113671000000000E+01      4.576263000000000E-01     -1.741719000000000E+02      6.900024000000000E-01     -9.296875000000000E+01
4845000000.000000      4.612122000000000E-01     -1.560313000000000E+02      4.551086000000000E-01     -7.149219000000000E+01      4.620361000000000E-01     -1.742188000000000E+02      6.922913000000000E-01     -9.300781000000000E+01
4846000000.000000      4.658661000000000E-01     -1.565859000000000E+02      4.576263000000000E-01     -7.173437000000000E+01      4.662781000000000E-01     -1.742891000000000E+02      6.958008000000000E-01     -9.305468000000000E+01
4847000000.000000      4.720612000000000E-01     -1.573359000000000E+02      4.604950000000000E-01     -7.208202000000000E+01      4.711151000000000E-01     -1.744766000000000E+02      6.990051000000000E-01     -9.315624000000000E+01
4848000000.000000      4.770203000000000E-01     -1.579297000000000E+02      4.627228000000000E-01     -7.241796000000000E+01      4.745026000000000E-01     -1.744844000000000E+02      6.991882000000000E-01     -9.319139000000000E+01
4849000000.000000      4.816437000000000E-01     -1.588672000000000E+02      4.664612000000000E-01     -7.284374000000000E+01      4.790039000000000E-01     -1.746641000000000E+02      7.032166000000000E-01     -9.313671000000000E+01
4850000000.000000      4.868164000000000E-01     -1.591797000000000E+02      4.689331000000000E-01     -7.300781000000000E+01      4.826965000000000E-01     -1.747187000000000E+02      7.051392000000000E-01     -9.323437000000000E+01
4851000000.000000      4.919739000000000E-01     -1.598203000000000E+02      4.714508000000000E-01     -7.343359000000000E+01      4.856567000000000E-01     -1.748437000000000E+02      7.099609000000000E-01     -9.326563000000000E+01
4852000000.000000      4.966736000000000E-01     -1.604297000000000E+02      4.733124000000000E-01     -7.374609000000000E+01      4.907532000000000E-01     -1.749766000000000E+02      7.116089000000000E-01     -9.318750000000000E+01
4853000000.000000      5.014648000000000E-01     -1.610156000000000E+02      4.746552000000000E-01     -7.403906000000000E+01      4.947205000000000E-01     -1.751953000000000E+02      7.148743000000000E-01     -9.335155000000000E+01
4854000000.000000      5.055237000000000E-01     -1.615078000000000E+02      4.778137000000000E-01     -7.461328000000000E+01      4.978027000000000E-01     -1.752969000000000E+02      7.160645000000000E-01     -9.330858000000000E+01
4855000000.000000      5.092468000000000E-01     -1.621094000000000E+02      4.786987000000000E-01     -7.472265000000000E+01      5.028992000000000E-01     -1.753281000000000E+02      7.198486000000000E-01     -9.344921000000000E+01
4856000000.000000      5.141602000000000E-01     -1.626328000000000E+02      4.810028000000000E-01     -7.499218000000000E+01      5.051575000000000E-01     -1.756484000000000E+02      7.239075000000000E-01     -9.344921000000000E+01
4857000000.000000      5.183716000000000E-01     -1.631328000000000E+02      4.833527000000000E-01     -7.528125000000000E+01      5.083313000000000E-01     -1.756719000000000E+02      7.271423000000000E-01     -9.360155000000000E+01
4858000000.000000      5.205688000000000E-01     -1.636406000000000E+02      4.862671000000000E-01     -7.566015000000000E+01      5.125427000000000E-01     -1.759140000000000E+02      7.296143000000000E-01     -9.358984000000000E+01
4859000000.000000      5.251465000000000E-01     -1.641562000000000E+02      4.872894000000000E-01     -7.598046000000000E+01      5.154419000000000E-01     -1.761484000000000E+02      7.334900000000000E-01     -9.373438000000000E+01
4860000000.000000      5.292358000000000E-01     -1.646406000000000E+02      4.894867000000000E-01     -7.614843000000000E+01      5.198059000000000E-01     -1.762578000000000E+02      7.353821000000000E-01     -9.362890000000000E+01
4861000000.000000      5.324402000000000E-01     -1.649765000000000E+02      4.910431000000000E-01     -7.668359000000000E+01      5.237732000000000E-01     -1.764766000000000E+02      7.382813000000000E-01     -9.381639000000000E+01
4862000000.000000      5.350647000000000E-01     -1.654375000000000E+02      4.924622000000000E-01     -7.689843000000000E+01      5.275879000000000E-01     -1.765781000000000E+02      7.414856000000000E-01     -9.375780000000000E+01
4863000000.000000      5.379944000000000E-01     -1.658281000000000E+02      4.927979000000000E-01     -7.725390000000000E+01      5.312500000000000E-01     -1.769375000000000E+02      7.438965000000000E-01     -9.376562000000000E+01
4864000000.000000      5.409546000000000E-01     -1.663203000000000E+02      4.965210000000000E-01     -7.742969000000000E+01      5.343323000000000E-01     -1.768906000000000E+02      7.465820000000000E-01     -9.389063000000000E+01
4865000000.000000      5.437012000000000E-01     -1.668281000000000E+02      4.985199000000000E-01     -7.763672000000000E+01      5.363464000000000E-01     -1.771563000000000E+02      7.492676000000000E-01     -9.378515000000000E+01
4866000000.000000      5.452271000000000E-01     -1.670625000000000E+02      4.984589000000000E-01     -7.807031000000000E+01      5.409546000000000E-01     -1.772812000000000E+02      7.517395000000000E-01     -9.389843000000000E+01
4867000000.000000      5.486755000000000E-01     -1.674609000000000E+02      4.997559000000000E-01     -7.832031000000000E+01      5.426636000000000E-01     -1.774531000000000E+02      7.551880000000000E-01     -9.390625000000000E+01
4868000000.000000      5.509338000000000E-01     -1.678828000000000E+02      5.012207000000000E-01     -7.863281000000000E+01      5.466309000000000E-01     -1.777187000000000E+02      7.579346000000000E-01     -9.394922000000000E+01
4869000000.000000      5.516968000000000E-01     -1.680781000000000E+02      5.017090000000000E-01     -7.890625000000000E+01      5.494385000000000E-01     -1.780313000000000E+02      7.602539000000000E-01     -9.406250000000000E+01
4870000000.000000      5.548096000000000E-01     -1.685156000000000E+02      5.035095000000000E-01     -7.907031000000000E+01      5.527039000000000E-01     -1.783047000000000E+02      7.637939000000000E-01     -9.392969000000000E+01
4871000000.000000      5.564270000000000E-01     -1.687813000000000E+02      5.045776000000000E-01     -7.944921000000000E+01      5.533752000000000E-01     -1.784453000000000E+02      7.650452000000000E-01     -9.420313000000000E+01
4872000000.000000      5.582275000000000E-01     -1.690156000000000E+02      5.065002000000000E-01     -7.955468000000000E+01      5.575867000000000E-01     -1.788516000000000E+02      7.694092000000000E-01     -9.425781000000000E+01
4873000000.000000      5.582886000000000E-01     -1.692734000000000E+02      5.063477000000000E-01     -7.992969000000000E+01      5.582581000000000E-01     -1.788359000000000E+02      7.706604000000000E-01     -9.408203000000000E+01
4874000000.000000      5.591125000000000E-01     -1.695859000000000E+02      5.072021000000000E-01     -8.017578000000000E+01      5.633545000000000E-01     -1.790937000000000E+02      7.723083000000000E-01     -9.408983000000000E+01
4875000000.000000      5.612488000000000E-01     -1.699531000000000E+02      5.085144000000000E-01     -8.035156000000000E+01      5.655823000000000E-01     -1.794375000000000E+02      7.742310000000000E-01     -9.435547000000000E+01
4876000000.000000      5.611877000000000E-01     -1.699766000000000E+02      5.101624000000000E-01     -8.061327000000000E+01      5.659180000000000E-01     -1.794531000000000E+02      7.794495000000000E-01     -9.429688000000000E+01
4877000000.000000      5.614929000000000E-01     -1.702578000000000E+02      5.105286000000000E-01     -8.087500000000000E+01      5.698242000000000E-01     -1.798984000000000E+02      7.806091000000000E-01     -9.449219000000000E+01
4878000000.000000      5.629272000000000E-01     -1.704219000000000E+02      5.120850000000000E-01     -8.094530000000000E+01      5.711670000000000E-01     -1.798125000000000E+02      7.823181000000000E-01     -9.439844000000000E+01
4879000000.000000      5.635681000000000E-01     -1.707187000000000E+02      5.124817000000000E-01     -8.114061000000000E+01      5.741272000000000E-01      1.797656000000000E+02      7.845459000000000E-01     -9.430859000000000E+01
4880000000.000000      5.627136000000000E-01     -1.708281000000000E+02      5.131836000000000E-01     -8.160936000000000E+01      5.768738000000000E-01      1.797656000000000E+02      7.877808000000000E-01     -9.443359000000000E+01
4881000000.000000      5.637817000000000E-01     -1.709531000000000E+02      5.158691000000000E-01     -8.150782000000000E+01      5.780334000000000E-01      1.793984000000000E+02      7.899170000000000E-01     -9.452734000000000E+01
4882000000.000000      5.621033000000000E-01     -1.710391000000000E+02      5.167847000000000E-01     -8.189062000000000E+01      5.807190000000000E-01      1.792969000000000E+02      7.897644000000000E-01     -9.450781000000000E+01
