! Network Analyzer HP8722D
! Hewlett-Packard
! Data name: Linha & Wilkinson
! Saver's name: Rodrigo Anjos
! Comments: Teste da utilização de aquisição
continua pelo VNA HP8722D
! Time and date: 17/4/2025 16:25
!              Frequency                     S11                                                   S21                                                   S12                                                   S22
# HZ  S  MA R 50
4800000000.000000      3.367615000000000E-01     -1.163086000000000E+02      3.117371000000000E-01     -6.206445000000000E+01      3.065491000000000E-01     -1.763203000000000E+02      6.573181000000000E-01     -9.130468000000000E+01
4801000000.000000      3.354187000000000E-01     -1.172578000000000E+02      3.166199000000000E-01     -6.213281000000000E+01      3.097229000000000E-01     -1.762812000000000E+02      6.575928000000000E-01     -9.121874000000000E+01
4802000000.000000      3.340912000000000E-01     -1.183047000000000E+02      3.195801000000000E-01     -6.220508000000000E+01      3.138275000000000E-01     -1.761719000000000E+02      6.551514000000000E-01     -9.131639000000000E+01
4803000000.000000      3.336792000000000E-01     -1.193945000000000E+02      3.265381000000000E-01     -6.243554000000000E+01      3.165131000000000E-01     -1.760937000000000E+02      6.545105000000000E-01     -9.149609000000000E+01
4804000000.000000      3.341064000000000E-01     -1.204531000000000E+02      3.294220000000000E-01     -6.266015000000000E+01      3.215942000000000E-01     -1.761562000000000E+02      6.538086000000000E-01     -9.144922000000000E+01
4805000000.000000      3.336792000000000E-01     -1.213906000000000E+02      3.336334000000000E-01     -6.292382000000000E+01      3.259277000000000E-01     -1.761172000000000E+02      6.531982000000000E-01     -9.167969000000000E+01
4806000000.000000      3.338318000000000E-01     -1.223555000000000E+02      3.383026000000000E-01     -6.308788000000000E+01      3.288422000000000E-01     -1.758906000000000E+02      6.525879000000000E-01     -9.178905000000000E+01
4807000000.000000      3.339386000000000E-01     -1.236133000000000E+02      3.423309000000000E-01     -6.337695000000000E+01      3.339386000000000E-01     -1.760000000000000E+02      6.525269000000000E-01     -9.184374000000000E+01
4808000000.000000      3.340149000000000E-01     -1.245234000000000E+02      3.463745000000000E-01     -6.325000000000000E+01      3.365326000000000E-01     -1.760078000000000E+02      6.511841000000000E-01     -9.194139000000000E+01
4809000000.000000      3.340912000000000E-01     -1.256172000000000E+02      3.508759000000000E-01     -6.380077000000000E+01      3.418121000000000E-01     -1.759844000000000E+02      6.511230000000000E-01     -9.207811000000000E+01
4810000000.000000      3.359985000000000E-01     -1.267695000000000E+02      3.555298000000000E-01     -6.386913000000000E+01      3.448792000000000E-01     -1.759375000000000E+02      6.516724000000000E-01     -9.218359000000000E+01
4811000000.000000      3.376465000000000E-01     -1.278125000000000E+02      3.596954000000000E-01     -6.416016000000000E+01      3.494873000000000E-01     -1.759609000000000E+02      6.505127000000000E-01     -9.217188000000000E+01
4812000000.000000      3.386993000000000E-01     -1.288047000000000E+02      3.630829000000000E-01     -6.440234000000000E+01      3.532562000000000E-01     -1.758281000000000E+02      6.505432000000000E-01     -9.225780000000000E+01
4813000000.000000      3.398590000000000E-01     -1.300390000000000E+02      3.668518000000000E-01     -6.453515000000000E+01      3.564758000000000E-01     -1.757422000000000E+02      6.505737000000000E-01     -9.231249000000000E+01
4814000000.000000      3.407440000000000E-01     -1.312969000000000E+02      3.708801000000000E-01     -6.496484000000000E+01      3.597260000000000E-01     -1.757891000000000E+02      6.505432000000000E-01     -9.245312000000000E+01
4815000000.000000      3.430481000000000E-01     -1.321719000000000E+02      3.743134000000000E-01     -6.517578000000000E+01      3.634949000000000E-01     -1.758672000000000E+02      6.506653000000000E-01     -9.251562000000000E+01
4816000000.000000      3.456879000000000E-01     -1.332891000000000E+02      3.791809000000000E-01     -6.534765000000000E+01      3.681641000000000E-01     -1.758359000000000E+02      6.504822000000000E-01     -9.264063000000000E+01
4817000000.000000      3.483124000000000E-01     -1.343281000000000E+02      3.822937000000000E-01     -6.571484000000000E+01      3.712311000000000E-01     -1.758906000000000E+02      6.503601000000000E-01     -9.280077000000000E+01
4818000000.000000      3.503723000000000E-01     -1.355234000000000E+02      3.852692000000000E-01     -6.595312000000000E+01      3.755341000000000E-01     -1.757578000000000E+02      6.516113000000000E-01     -9.289063000000000E+01
4819000000.000000      3.534851000000000E-01     -1.365937000000000E+02      3.889008000000000E-01     -6.616015000000000E+01      3.786163000000000E-01     -1.757187000000000E+02      6.532593000000000E-01     -9.288280000000000E+01
4820000000.000000      3.549805000000000E-01     -1.376016000000000E+02      3.934937000000000E-01     -6.646484000000000E+01      3.841705000000000E-01     -1.758047000000000E+02      6.533508000000000E-01     -9.297655000000000E+01
4821000000.000000      3.590393000000000E-01     -1.387812000000000E+02      3.972931000000000E-01     -6.673437000000000E+01      3.861847000000000E-01     -1.758984000000000E+02      6.530457000000000E-01     -9.309374000000000E+01
4822000000.000000      3.637543000000000E-01     -1.398125000000000E+02      4.007111000000000E-01     -6.694921000000000E+01      3.899384000000000E-01     -1.759219000000000E+02      6.546936000000000E-01     -9.306250000000000E+01
4823000000.000000      3.661957000000000E-01     -1.408047000000000E+02      4.048920000000000E-01     -6.729297000000000E+01      3.931885000000000E-01     -1.756484000000000E+02      6.555176000000000E-01     -9.317577000000000E+01
4824000000.000000      3.701935000000000E-01     -1.418672000000000E+02      4.070740000000000E-01     -6.747656000000000E+01      3.984833000000000E-01     -1.758516000000000E+02      6.558838000000000E-01     -9.329296000000000E+01
4825000000.000000      3.737640000000000E-01     -1.428437000000000E+02      4.104767000000000E-01     -6.785937000000000E+01      4.021301000000000E-01     -1.758750000000000E+02      6.578979000000000E-01     -9.328905000000000E+01
4826000000.000000      3.779755000000000E-01     -1.438828000000000E+02      4.147339000000000E-01     -6.832031000000000E+01      4.051056000000000E-01     -1.759453000000000E+02      6.584167000000000E-01     -9.341797000000000E+01
4827000000.000000      3.819275000000000E-01     -1.447500000000000E+02      4.182434000000000E-01     -6.832812000000000E+01      4.086456000000000E-01     -1.759219000000000E+02      6.601868000000000E-01     -9.349218000000000E+01
4828000000.000000      3.870544000000000E-01     -1.457266000000000E+02      4.222565000000000E-01     -6.853516000000000E+01      4.126587000000000E-01     -1.758594000000000E+02      6.614075000000000E-01     -9.354296000000000E+01
4829000000.000000      3.898468000000000E-01     -1.466484000000000E+02      4.242249000000000E-01     -6.920312000000000E+01      4.169769000000000E-01     -1.760000000000000E+02      6.629333000000000E-01     -9.353516000000000E+01
4830000000.000000      3.948212000000000E-01     -1.476250000000000E+02      4.274750000000000E-01     -6.939843000000000E+01      4.205322000000000E-01     -1.759609000000000E+02      6.636658000000000E-01     -9.375780000000000E+01
4831000000.000000      3.989716000000000E-01     -1.485234000000000E+02      4.297333000000000E-01     -6.982031000000000E+01      4.246674000000000E-01     -1.760078000000000E+02      6.673889000000000E-01     -9.375000000000000E+01
4832000000.000000      4.050751000000000E-01     -1.494453000000000E+02      4.340668000000000E-01     -6.993359000000000E+01      4.278564000000000E-01     -1.761641000000000E+02      6.670532000000000E-01     -9.386719000000000E+01
4833000000.000000      4.097595000000000E-01     -1.504062000000000E+02      4.377594000000000E-01     -7.021484000000000E+01      4.317474000000000E-01     -1.761562000000000E+02      6.693726000000000E-01     -9.388672000000000E+01
4834000000.000000      4.139862000000000E-01     -1.512344000000000E+02      4.393463000000000E-01     -7.061718000000000E+01      4.353180000000000E-01     -1.761719000000000E+02      6.708069000000000E-01     -9.396093000000000E+01
4835000000.000000      4.187012000000000E-01     -1.520234000000000E+02      4.435120000000000E-01     -7.098827000000000E+01      4.396515000000000E-01     -1.762500000000000E+02      6.737671000000000E-01     -9.403906000000000E+01
4836000000.000000      4.246063000000000E-01     -1.528203000000000E+02      4.462433000000000E-01     -7.119531000000000E+01      4.433594000000000E-01     -1.762422000000000E+02      6.743469000000000E-01     -9.403515000000000E+01
4837000000.000000      4.299164000000000E-01     -1.535156000000000E+02      4.485016000000000E-01     -7.180469000000000E+01      4.472351000000000E-01     -1.764922000000000E+02      6.772461000000000E-01     -9.407812000000000E+01
4838000000.000000      4.348602000000000E-01     -1.544844000000000E+02      4.522247000000000E-01     -7.185547000000000E+01      4.514923000000000E-01     -1.764453000000000E+02      6.791992000000000E-01     -9.410936000000000E+01
4839000000.000000      4.399261000000000E-01     -1.551328000000000E+02      4.550171000000000E-01     -7.198047000000000E+01      4.545898000000000E-01     -1.764609000000000E+02      6.812744000000000E-01     -9.409765000000000E+01
4840000000.000000      4.442291000000000E-01     -1.560078000000000E+02      4.580994000000000E-01     -7.246875000000000E+01      4.585724000000000E-01     -1.765938000000000E+02      6.834717000000000E-01     -9.431250000000000E+01
4841000000.000000      4.499207000000000E-01     -1.568047000000000E+02      4.606323000000000E-01     -7.296875000000000E+01      4.626160000000000E-01     -1.767500000000000E+02      6.854248000000000E-01     -9.427343000000000E+01
4842000000.000000      4.553833000000000E-01     -1.575000000000000E+02      4.631805000000000E-01     -7.319140000000000E+01      4.655914000000000E-01     -1.768125000000000E+02      6.884766000000000E-01     -9.448046000000000E+01
4843000000.000000      4.600677000000000E-01     -1.582500000000000E+02      4.656067000000000E-01     -7.359765000000000E+01      4.695740000000000E-01     -1.768594000000000E+02      6.904602000000000E-01     -9.441797000000000E+01
4844000000.000000      4.647217000000000E-01     -1.588516000000000E+02      4.673767000000000E-01     -7.387109000000000E+01      4.736328000000000E-01     -1.769766000000000E+02      6.931763000000000E-01     -9.446484000000000E+01
4845000000.000000      4.697723000000000E-01     -1.594844000000000E+02      4.693298000000000E-01     -7.417187000000000E+01      4.774475000000000E-01     -1.771406000000000E+02      6.946716000000000E-01     -9.452343000000000E+01
4846000000.000000      4.744415000000000E-01     -1.601484000000000E+02      4.716187000000000E-01     -7.446094000000000E+01      4.815216000000000E-01     -1.771484000000000E+02      6.972046000000000E-01     -9.462500000000000E+01
4847000000.000000      4.803925000000000E-01     -1.608281000000000E+02      4.746857000000000E-01     -7.482031000000000E+01      4.857330000000000E-01     -1.773438000000000E+02      7.017517000000000E-01     -9.468750000000000E+01
4848000000.000000      4.849091000000000E-01     -1.614219000000000E+02      4.759369000000000E-01     -7.503906000000000E+01      4.886017000000000E-01     -1.773984000000000E+02      7.034912000000000E-01     -9.480469000000000E+01
4849000000.000000      4.893341000000000E-01     -1.623125000000000E+02      4.789124000000000E-01     -7.545312000000000E+01      4.925385000000000E-01     -1.775469000000000E+02      7.062683000000000E-01     -9.461718000000000E+01
4850000000.000000      4.944000000000000E-01     -1.627422000000000E+02      4.814606000000000E-01     -7.580468000000000E+01      4.960632000000000E-01     -1.776172000000000E+02      7.080688000000000E-01     -9.473047000000000E+01
4851000000.000000      4.988861000000000E-01     -1.632891000000000E+02      4.843140000000000E-01     -7.617969000000000E+01      5.006104000000000E-01     -1.777891000000000E+02      7.127686000000000E-01     -9.476171000000000E+01
4852000000.000000      5.035706000000000E-01     -1.639375000000000E+02      4.855499000000000E-01     -7.639062000000000E+01      5.041504000000000E-01     -1.777891000000000E+02      7.138672000000000E-01     -9.492968000000000E+01
4853000000.000000      5.072937000000000E-01     -1.644297000000000E+02      4.856262000000000E-01     -7.683594000000000E+01      5.069580000000000E-01     -1.781016000000000E+02      7.177734000000000E-01     -9.506250000000000E+01
4854000000.000000      5.117798000000000E-01     -1.650234000000000E+02      4.888611000000000E-01     -7.715234000000000E+01      5.109863000000000E-01     -1.781953000000000E+02      7.196960000000000E-01     -9.505077000000000E+01
4855000000.000000      5.145264000000000E-01     -1.655703000000000E+02      4.896393000000000E-01     -7.750000000000000E+01      5.151978000000000E-01     -1.784297000000000E+02      7.219238000000000E-01     -9.494141000000000E+01
4856000000.000000      5.197144000000000E-01     -1.660781000000000E+02      4.927216000000000E-01     -7.778906000000000E+01      5.169373000000000E-01     -1.785938000000000E+02      7.264404000000000E-01     -9.510546000000000E+01
4857000000.000000      5.234070000000000E-01     -1.665234000000000E+02      4.938965000000000E-01     -7.820313000000000E+01      5.211182000000000E-01     -1.786719000000000E+02      7.276001000000000E-01     -9.508204000000000E+01
4858000000.000000      5.249939000000000E-01     -1.670781000000000E+02      4.963531000000000E-01     -7.832421000000000E+01      5.240173000000000E-01     -1.787734000000000E+02      7.315674000000000E-01     -9.520311000000000E+01
4859000000.000000      5.283813000000000E-01     -1.675234000000000E+02      4.973297000000000E-01     -7.867188000000000E+01      5.276184000000000E-01     -1.789531000000000E+02      7.353210000000000E-01     -9.526953000000000E+01
4860000000.000000      5.328369000000000E-01     -1.680391000000000E+02      4.977570000000000E-01     -7.906250000000000E+01      5.299377000000000E-01     -1.791016000000000E+02      7.367859000000000E-01     -9.523046000000000E+01
4861000000.000000      5.362244000000000E-01     -1.683906000000000E+02      4.997406000000000E-01     -7.955078000000000E+01      5.344238000000000E-01     -1.793203000000000E+02      7.391357000000000E-01     -9.533594000000000E+01
4862000000.000000      5.382080000000000E-01     -1.688672000000000E+02      5.007935000000000E-01     -7.948828000000000E+01      5.370178000000000E-01     -1.793281000000000E+02      7.433472000000000E-01     -9.537889000000000E+01
4863000000.000000      5.404663000000000E-01     -1.692656000000000E+02      5.019226000000000E-01     -8.003515000000000E+01      5.401306000000000E-01     -1.796641000000000E+02      7.458191000000000E-01     -9.547266000000000E+01
4864000000.000000      5.433044000000000E-01     -1.696640000000000E+02      5.029297000000000E-01     -8.020702000000000E+01      5.409546000000000E-01     -1.798516000000000E+02      7.485962000000000E-01     -9.544922000000000E+01
4865000000.000000      5.449524000000000E-01     -1.700703000000000E+02      5.049744000000000E-01     -8.039063000000000E+01      5.454102000000000E-01      1.799609000000000E+02      7.520752000000000E-01     -9.546875000000000E+01
4866000000.000000      5.465393000000000E-01     -1.703516000000000E+02      5.049438000000000E-01     -8.060547000000000E+01      5.480957000000000E-01      1.797656000000000E+02      7.544861000000000E-01     -9.541016000000000E+01
4867000000.000000      5.489807000000000E-01     -1.707578000000000E+02      5.075684000000000E-01     -8.102343000000000E+01      5.515442000000000E-01      1.795703000000000E+02      7.573242000000000E-01     -9.554688000000000E+01
4868000000.000000      5.516052000000000E-01     -1.712188000000000E+02      5.071106000000000E-01     -8.143749000000000E+01      5.550842000000000E-01      1.795234000000000E+02      7.592773000000000E-01     -9.564844000000000E+01
4869000000.000000      5.510254000000000E-01     -1.713359000000000E+02      5.086060000000000E-01     -8.160156000000000E+01      5.567932000000000E-01      1.792891000000000E+02      7.619934000000000E-01     -9.567577000000000E+01
4870000000.000000      5.536194000000000E-01     -1.717891000000000E+02      5.096436000000000E-01     -8.153515000000000E+01      5.588684000000000E-01      1.790469000000000E+02      7.650146000000000E-01     -9.562891000000000E+01
4871000000.000000      5.549622000000000E-01     -1.720859000000000E+02      5.099182000000000E-01     -8.215624000000000E+01      5.597229000000000E-01      1.788281000000000E+02      7.673340000000000E-01     -9.594141000000000E+01
4872000000.000000      5.564270000000000E-01     -1.723359000000000E+02      5.109863000000000E-01     -8.197657000000000E+01      5.625610000000000E-01      1.783516000000000E+02      7.691040000000000E-01     -9.588282000000000E+01
4873000000.000000      5.566711000000000E-01     -1.725000000000000E+02      5.109253000000000E-01     -8.239452000000000E+01      5.654602000000000E-01      1.783516000000000E+02      7.720032000000000E-01     -9.589453000000000E+01
4874000000.000000      5.573730000000000E-01     -1.728047000000000E+02      5.129700000000000E-01     -8.257030000000000E+01      5.694885000000000E-01      1.782187000000000E+02      7.739258000000000E-01     -9.577734000000000E+01
4875000000.000000      5.591125000000000E-01     -1.730547000000000E+02      5.122986000000000E-01     -8.278124000000000E+01      5.703125000000000E-01      1.778984000000000E+02      7.750549000000000E-01     -9.597265000000000E+01
4876000000.000000      5.576782000000000E-01     -1.731875000000000E+02      5.136108000000000E-01     -8.305468000000000E+01      5.708618000000000E-01      1.778281000000000E+02      7.780457000000000E-01     -9.590624000000000E+01
4877000000.000000      5.582886000000000E-01     -1.734062000000000E+02      5.156250000000000E-01     -8.323437000000000E+01      5.737305000000000E-01      1.774375000000000E+02      7.801514000000000E-01     -9.613281000000000E+01
4878000000.000000      5.588379000000000E-01     -1.735859000000000E+02      5.176086000000000E-01     -8.355078000000000E+01      5.759888000000000E-01      1.775234000000000E+02      7.827148000000000E-01     -9.603516000000000E+01
4879000000.000000      5.589905000000000E-01     -1.738984000000000E+02      5.156555000000000E-01     -8.369532000000000E+01      5.776062000000000E-01      1.772734000000000E+02      7.846985000000000E-01     -9.601952000000000E+01
4880000000.000000      5.574951000000000E-01     -1.739531000000000E+02      5.180969000000000E-01     -8.380468000000000E+01      5.805664000000000E-01      1.770234000000000E+02      7.860413000000000E-01     -9.608593000000000E+01
4881000000.000000      5.584106000000000E-01     -1.740703000000000E+02      5.193176000000000E-01     -8.402344000000000E+01      5.814514000000000E-01      1.767734000000000E+02      7.885742000000000E-01     -9.627342000000000E+01
4882000000.000000      5.566101000000000E-01     -1.741719000000000E+02      5.197754000000000E-01     -8.416016000000000E+01      5.829773000000000E-01      1.766562000000000E+02      7.886658000000000E-01     -9.618359000000000E+01
