! Network Analyzer HP8722D
! Hewlett-Packard
! Data name: Linha & Wilkinson
! Saver's name: Rodrigo Anjos
! Comments: Teste da utilização de aquisição
continua pelo VNA HP8722D
! Time and date: 17/4/2025 14:50
!              Frequency                     S11                                                   S21                                                   S12                                                   S22
# HZ  S  MA R 50
4800000000.000000      3.334961000000000E-01     -1.129258000000000E+02      2.851868000000000E-01     -6.068359000000000E+01      2.788849000000000E-01     -1.749141000000000E+02      6.557617000000000E-01     -8.986328000000000E+01
4801000000.000000      3.319397000000000E-01     -1.138672000000000E+02      2.898254000000000E-01     -6.060351000000000E+01      2.824707000000000E-01     -1.747656000000000E+02      6.534729000000000E-01     -8.994141000000000E+01
4802000000.000000      3.308105000000000E-01     -1.148828000000000E+02      2.935791000000000E-01     -6.069140000000000E+01      2.867279000000000E-01     -1.746016000000000E+02      6.524658000000000E-01     -8.995703000000000E+01
4803000000.000000      3.304291000000000E-01     -1.157930000000000E+02      2.991638000000000E-01     -6.082617000000000E+01      2.906799000000000E-01     -1.743984000000000E+02      6.519470000000000E-01     -9.008593000000000E+01
4804000000.000000      3.298187000000000E-01     -1.168906000000000E+02      3.036499000000000E-01     -6.103320000000000E+01      2.948303000000000E-01     -1.745234000000000E+02      6.514893000000000E-01     -9.014843000000000E+01
4805000000.000000      3.296661000000000E-01     -1.179258000000000E+02      3.079987000000000E-01     -6.115429000000000E+01      2.991333000000000E-01     -1.742109000000000E+02      6.517639000000000E-01     -9.023438000000000E+01
4806000000.000000      3.290253000000000E-01     -1.189023000000000E+02      3.125000000000000E-01     -6.125195000000000E+01      3.028107000000000E-01     -1.740078000000000E+02      6.510315000000000E-01     -9.042187000000000E+01
4807000000.000000      3.291626000000000E-01     -1.199726000000000E+02      3.166199000000000E-01     -6.132813000000000E+01      3.075256000000000E-01     -1.741562000000000E+02      6.496277000000000E-01     -9.044140000000000E+01
4808000000.000000      3.297119000000000E-01     -1.209297000000000E+02      3.206635000000000E-01     -6.127930000000000E+01      3.114166000000000E-01     -1.740703000000000E+02      6.485291000000000E-01     -9.048437000000000E+01
4809000000.000000      3.298187000000000E-01     -1.220078000000000E+02      3.255310000000000E-01     -6.176758000000000E+01      3.158569000000000E-01     -1.740781000000000E+02      6.496582000000000E-01     -9.067577000000000E+01
4810000000.000000      3.312225000000000E-01     -1.231328000000000E+02      3.301239000000000E-01     -6.192773000000000E+01      3.195496000000000E-01     -1.739141000000000E+02      6.485596000000000E-01     -9.066015000000000E+01
4811000000.000000      3.320313000000000E-01     -1.242617000000000E+02      3.345032000000000E-01     -6.213867000000000E+01      3.245697000000000E-01     -1.736719000000000E+02      6.489258000000000E-01     -9.070313000000000E+01
4812000000.000000      3.329468000000000E-01     -1.252578000000000E+02      3.385162000000000E-01     -6.232616000000000E+01      3.285370000000000E-01     -1.735391000000000E+02      6.486206000000000E-01     -9.084764000000000E+01
4813000000.000000      3.344116000000000E-01     -1.264453000000000E+02      3.427734000000000E-01     -6.240820000000000E+01      3.315277000000000E-01     -1.735937000000000E+02      6.472168000000000E-01     -9.092968000000000E+01
4814000000.000000      3.344727000000000E-01     -1.274883000000000E+02      3.471069000000000E-01     -6.280663000000000E+01      3.361206000000000E-01     -1.736094000000000E+02      6.486816000000000E-01     -9.101954000000000E+01
4815000000.000000      3.369293000000000E-01     -1.285234000000000E+02      3.513336000000000E-01     -6.299999000000000E+01      3.398590000000000E-01     -1.734141000000000E+02      6.475830000000000E-01     -9.104687000000000E+01
4816000000.000000      3.390198000000000E-01     -1.295703000000000E+02      3.552094000000000E-01     -6.313086000000000E+01      3.439026000000000E-01     -1.733906000000000E+02      6.475525000000000E-01     -9.114843000000000E+01
4817000000.000000      3.418427000000000E-01     -1.307188000000000E+02      3.589935000000000E-01     -6.337304000000000E+01      3.476563000000000E-01     -1.733984000000000E+02      6.481018000000000E-01     -9.137890000000000E+01
4818000000.000000      3.431854000000000E-01     -1.318125000000000E+02      3.627777000000000E-01     -6.364062000000000E+01      3.520203000000000E-01     -1.732812000000000E+02      6.483459000000000E-01     -9.136719000000000E+01
4819000000.000000      3.458862000000000E-01     -1.328906000000000E+02      3.672791000000000E-01     -6.374218000000000E+01      3.553619000000000E-01     -1.732891000000000E+02      6.503601000000000E-01     -9.146875000000000E+01
4820000000.000000      3.477631000000000E-01     -1.338828000000000E+02      3.701172000000000E-01     -6.390234000000000E+01      3.605042000000000E-01     -1.733125000000000E+02      6.504517000000000E-01     -9.151171000000000E+01
4821000000.000000      3.512573000000000E-01     -1.349609000000000E+02      3.757782000000000E-01     -6.437109000000000E+01      3.648224000000000E-01     -1.734375000000000E+02      6.502380000000000E-01     -9.166796000000000E+01
4822000000.000000      3.556366000000000E-01     -1.360625000000000E+02      3.787689000000000E-01     -6.447656000000000E+01      3.675385000000000E-01     -1.732812000000000E+02      6.518555000000000E-01     -9.162500000000000E+01
4823000000.000000      3.573914000000000E-01     -1.371172000000000E+02      3.822021000000000E-01     -6.470312000000000E+01      3.718872000000000E-01     -1.731094000000000E+02      6.528015000000000E-01     -9.176172000000000E+01
4824000000.000000      3.613281000000000E-01     -1.382031000000000E+02      3.860779000000000E-01     -6.508594000000000E+01      3.759918000000000E-01     -1.732891000000000E+02      6.537476000000000E-01     -9.183203000000000E+01
4825000000.000000      3.649445000000000E-01     -1.391328000000000E+02      3.899078000000000E-01     -6.525000000000000E+01      3.804779000000000E-01     -1.731406000000000E+02      6.539917000000000E-01     -9.182032000000000E+01
4826000000.000000      3.688049000000000E-01     -1.401641000000000E+02      3.937683000000000E-01     -6.560937000000000E+01      3.830872000000000E-01     -1.732344000000000E+02      6.555481000000000E-01     -9.196093000000000E+01
4827000000.000000      3.727570000000000E-01     -1.409688000000000E+02      3.976135000000000E-01     -6.573437000000000E+01      3.875885000000000E-01     -1.731016000000000E+02      6.570129000000000E-01     -9.204296000000000E+01
4828000000.000000      3.777466000000000E-01     -1.420703000000000E+02      4.013672000000000E-01     -6.608203000000000E+01      3.919220000000000E-01     -1.731719000000000E+02      6.587524000000000E-01     -9.200390000000000E+01
4829000000.000000      3.803558000000000E-01     -1.429531000000000E+02      4.047241000000000E-01     -6.655468000000000E+01      3.956299000000000E-01     -1.733203000000000E+02      6.596985000000000E-01     -9.205469000000000E+01
4830000000.000000      3.856354000000000E-01     -1.439062000000000E+02      4.081116000000000E-01     -6.676171000000000E+01      3.997955000000000E-01     -1.732734000000000E+02      6.616516000000000E-01     -9.220312000000000E+01
4831000000.000000      3.896332000000000E-01     -1.447969000000000E+02      4.118652000000000E-01     -6.711719000000000E+01      4.045868000000000E-01     -1.732422000000000E+02      6.632996000000000E-01     -9.223436000000000E+01
4832000000.000000      3.953094000000000E-01     -1.457031000000000E+02      4.158478000000000E-01     -6.729297000000000E+01      4.083405000000000E-01     -1.732500000000000E+02      6.647949000000000E-01     -9.223827000000000E+01
4833000000.000000      4.001160000000000E-01     -1.467109000000000E+02      4.193115000000000E-01     -6.760937000000000E+01      4.117889000000000E-01     -1.733516000000000E+02      6.660156000000000E-01     -9.234375000000000E+01
4834000000.000000      4.047546000000000E-01     -1.475391000000000E+02      4.219208000000000E-01     -6.783203000000000E+01      4.165649000000000E-01     -1.733359000000000E+02      6.676636000000000E-01     -9.241796000000000E+01
4835000000.000000      4.089355000000000E-01     -1.483047000000000E+02      4.253540000000000E-01     -6.817577000000000E+01      4.211426000000000E-01     -1.733828000000000E+02      6.697388000000000E-01     -9.255859000000000E+01
4836000000.000000      4.149933000000000E-01     -1.491172000000000E+02      4.278259000000000E-01     -6.833984000000000E+01      4.247589000000000E-01     -1.734219000000000E+02      6.711121000000000E-01     -9.251953000000000E+01
4837000000.000000      4.202423000000000E-01     -1.498359000000000E+02      4.316101000000000E-01     -6.899609000000000E+01      4.287567000000000E-01     -1.735391000000000E+02      6.721497000000000E-01     -9.255077000000000E+01
4838000000.000000      4.254456000000000E-01     -1.507891000000000E+02      4.348297000000000E-01     -6.916406000000000E+01      4.329071000000000E-01     -1.735312000000000E+02      6.762085000000000E-01     -9.269922000000000E+01
4839000000.000000      4.309235000000000E-01     -1.514375000000000E+02      4.378510000000000E-01     -6.933203000000000E+01      4.366455000000000E-01     -1.735312000000000E+02      6.782837000000000E-01     -9.262110000000000E+01
4840000000.000000      4.346619000000000E-01     -1.523594000000000E+02      4.401398000000000E-01     -6.971093000000000E+01      4.412079000000000E-01     -1.736875000000000E+02      6.802673000000000E-01     -9.282421000000000E+01
4841000000.000000      4.404449000000000E-01     -1.531719000000000E+02      4.442291000000000E-01     -7.018749000000000E+01      4.453583000000000E-01     -1.737813000000000E+02      6.828308000000000E-01     -9.276562000000000E+01
4842000000.000000      4.465637000000000E-01     -1.537578000000000E+02      4.468842000000000E-01     -7.036718000000000E+01      4.483948000000000E-01     -1.738203000000000E+02      6.851501000000000E-01     -9.278515000000000E+01
4843000000.000000      4.508057000000000E-01     -1.545547000000000E+02      4.494171000000000E-01     -7.081640000000000E+01      4.530487000000000E-01     -1.738672000000000E+02      6.872253000000000E-01     -9.283594000000000E+01
4844000000.000000      4.560242000000000E-01     -1.552500000000000E+02      4.521179000000000E-01     -7.109375000000000E+01      4.568939000000000E-01     -1.739922000000000E+02      6.909790000000000E-01     -9.285547000000000E+01
4845000000.000000      4.607239000000000E-01     -1.558594000000000E+02      4.548340000000000E-01     -7.140625000000000E+01      4.616394000000000E-01     -1.741250000000000E+02      6.929932000000000E-01     -9.285547000000000E+01
4846000000.000000      4.660797000000000E-01     -1.564844000000000E+02      4.576263000000000E-01     -7.154297000000000E+01      4.660645000000000E-01     -1.741719000000000E+02      6.943970000000000E-01     -9.288671000000000E+01
4847000000.000000      4.723969000000000E-01     -1.572500000000000E+02      4.607697000000000E-01     -7.191796000000000E+01      4.699097000000000E-01     -1.743672000000000E+02      6.980591000000000E-01     -9.314062000000000E+01
4848000000.000000      4.768066000000000E-01     -1.578438000000000E+02      4.630432000000000E-01     -7.229297000000000E+01      4.737854000000000E-01     -1.744219000000000E+02      7.003174000000000E-01     -9.310938000000000E+01
4849000000.000000      4.814758000000000E-01     -1.586406000000000E+02      4.656067000000000E-01     -7.256249000000000E+01      4.779358000000000E-01     -1.745391000000000E+02      7.025452000000000E-01     -9.303514000000000E+01
4850000000.000000      4.865875000000000E-01     -1.590703000000000E+02      4.686279000000000E-01     -7.294531000000000E+01      4.817963000000000E-01     -1.746562000000000E+02      7.056274000000000E-01     -9.316015000000000E+01
4851000000.000000      4.915009000000000E-01     -1.597031000000000E+02      4.706268000000000E-01     -7.335938000000000E+01      4.852142000000000E-01     -1.747813000000000E+02      7.099609000000000E-01     -9.314453000000000E+01
4852000000.000000      4.967194000000000E-01     -1.602813000000000E+02      4.722595000000000E-01     -7.363281000000000E+01      4.895782000000000E-01     -1.748594000000000E+02      7.114868000000000E-01     -9.319139000000000E+01
4853000000.000000      5.010376000000000E-01     -1.608438000000000E+02      4.733276000000000E-01     -7.384766000000000E+01      4.941864000000000E-01     -1.751250000000000E+02      7.145996000000000E-01     -9.344141000000000E+01
4854000000.000000      5.050354000000000E-01     -1.613594000000000E+02      4.760284000000000E-01     -7.431641000000000E+01      4.968262000000000E-01     -1.751953000000000E+02      7.171631000000000E-01     -9.328905000000000E+01
4855000000.000000      5.091248000000000E-01     -1.619688000000000E+02      4.783783000000000E-01     -7.463281000000000E+01      5.029297000000000E-01     -1.752578000000000E+02      7.204895000000000E-01     -9.334764000000000E+01
4856000000.000000      5.136719000000000E-01     -1.624531000000000E+02      4.808960000000000E-01     -7.485546000000000E+01      5.047302000000000E-01     -1.754922000000000E+02      7.231445000000000E-01     -9.342188000000000E+01
4857000000.000000      5.187988000000000E-01     -1.630078000000000E+02      4.837036000000000E-01     -7.516406000000000E+01      5.096436000000000E-01     -1.755859000000000E+02      7.272949000000000E-01     -9.338671000000000E+01
4858000000.000000      5.201416000000000E-01     -1.635156000000000E+02      4.847107000000000E-01     -7.559765000000000E+01      5.113220000000000E-01     -1.757734000000000E+02      7.279053000000000E-01     -9.345312000000000E+01
4859000000.000000      5.254822000000000E-01     -1.640156000000000E+02      4.876556000000000E-01     -7.593750000000000E+01      5.155945000000000E-01     -1.760937000000000E+02      7.310791000000000E-01     -9.367188000000000E+01
4860000000.000000      5.294800000000000E-01     -1.645234000000000E+02      4.894104000000000E-01     -7.614062000000000E+01      5.185852000000000E-01     -1.760078000000000E+02      7.344360000000000E-01     -9.365234000000000E+01
4861000000.000000      5.328064000000000E-01     -1.648359000000000E+02      4.911957000000000E-01     -7.651953000000000E+01      5.230103000000000E-01     -1.763203000000000E+02      7.374878000000000E-01     -9.370703000000000E+01
4862000000.000000      5.354004000000000E-01     -1.652734000000000E+02      4.935608000000000E-01     -7.669922000000000E+01      5.262756000000000E-01     -1.764609000000000E+02      7.418518000000000E-01     -9.371094000000000E+01
4863000000.000000      5.375977000000000E-01     -1.656953000000000E+02      4.929657000000000E-01     -7.720312000000000E+01      5.301819000000000E-01     -1.766797000000000E+02      7.448425000000000E-01     -9.367968000000000E+01
4864000000.000000      5.412598000000000E-01     -1.661797000000000E+02      4.949341000000000E-01     -7.723437000000000E+01      5.315247000000000E-01     -1.767656000000000E+02      7.465515000000000E-01     -9.377733000000000E+01
4865000000.000000      5.434875000000000E-01     -1.666094000000000E+02      4.962158000000000E-01     -7.757030000000000E+01      5.357666000000000E-01     -1.771016000000000E+02      7.493286000000000E-01     -9.361719000000000E+01
4866000000.000000      5.460510000000000E-01     -1.668828000000000E+02      4.987488000000000E-01     -7.785156000000000E+01      5.412292000000000E-01     -1.771563000000000E+02      7.526245000000000E-01     -9.376171000000000E+01
4867000000.000000      5.480652000000000E-01     -1.672734000000000E+02      4.996643000000000E-01     -7.825390000000000E+01      5.418396000000000E-01     -1.774844000000000E+02      7.557068000000000E-01     -9.382813000000000E+01
4868000000.000000      5.511475000000000E-01     -1.677578000000000E+02      5.005798000000000E-01     -7.857812000000000E+01      5.468750000000000E-01     -1.776484000000000E+02      7.599182000000000E-01     -9.392969000000000E+01
4869000000.000000      5.516357000000000E-01     -1.680156000000000E+02      5.020752000000000E-01     -7.867578000000000E+01      5.484009000000000E-01     -1.779922000000000E+02      7.600708000000000E-01     -9.401562000000000E+01
4870000000.000000      5.537109000000000E-01     -1.683203000000000E+02      5.035095000000000E-01     -7.892578000000000E+01      5.516052000000000E-01     -1.779844000000000E+02      7.632446000000000E-01     -9.403515000000000E+01
4871000000.000000      5.560913000000000E-01     -1.686484000000000E+02      5.040283000000000E-01     -7.933203000000000E+01      5.537415000000000E-01     -1.783750000000000E+02      7.659912000000000E-01     -9.406641000000000E+01
4872000000.000000      5.587769000000000E-01     -1.688984000000000E+02      5.060730000000000E-01     -7.942577000000000E+01      5.564270000000000E-01     -1.786875000000000E+02      7.678223000000000E-01     -9.408203000000000E+01
4873000000.000000      5.587769000000000E-01     -1.691484000000000E+02      5.060730000000000E-01     -7.986328000000000E+01      5.587158000000000E-01     -1.787422000000000E+02      7.711182000000000E-01     -9.424999000000000E+01
4874000000.000000      5.594177000000000E-01     -1.693438000000000E+02      5.083008000000000E-01     -8.006639000000000E+01      5.635376000000000E-01     -1.789844000000000E+02      7.722473000000000E-01     -9.404688000000000E+01
4875000000.000000      5.615845000000000E-01     -1.697187000000000E+02      5.083008000000000E-01     -8.025000000000000E+01      5.646667000000000E-01     -1.792891000000000E+02      7.751770000000000E-01     -9.421093000000000E+01
4876000000.000000      5.611267000000000E-01     -1.699062000000000E+02      5.098572000000000E-01     -8.047655000000000E+01      5.646057000000000E-01     -1.792891000000000E+02      7.780457000000000E-01     -9.421484000000000E+01
4877000000.000000      5.620728000000000E-01     -1.701797000000000E+02      5.101929000000000E-01     -8.071875000000000E+01      5.690308000000000E-01     -1.796562000000000E+02      7.797546000000000E-01     -9.440233000000000E+01
4878000000.000000      5.635376000000000E-01     -1.703516000000000E+02      5.133972000000000E-01     -8.091797000000000E+01      5.709534000000000E-01     -1.798359000000000E+02      7.827454000000000E-01     -9.437500000000000E+01
4879000000.000000      5.635986000000000E-01     -1.705547000000000E+02      5.123901000000000E-01     -8.111719000000000E+01      5.737305000000000E-01      1.799922000000000E+02      7.848816000000000E-01     -9.425781000000000E+01
4880000000.000000      5.621643000000000E-01     -1.707266000000000E+02      5.131836000000000E-01     -8.136719000000000E+01      5.764465000000000E-01      1.797969000000000E+02      7.865601000000000E-01     -9.435938000000000E+01
4881000000.000000      5.649109000000000E-01     -1.708125000000000E+02      5.151672000000000E-01     -8.150391000000000E+01      5.767822000000000E-01      1.795703000000000E+02      7.890930000000000E-01     -9.440233000000000E+01
4882000000.000000      5.633545000000000E-01     -1.709219000000000E+02      5.169983000000000E-01     -8.174608000000000E+01      5.813293000000000E-01      1.793203000000000E+02      7.908630000000000E-01     -9.455469000000000E+01
