! Network Analyzer HP8722D
! Hewlett-Packard
! Data name: Linha & Wilkinson
! Saver's name: Rodrigo Anjos
! Comments: Teste da utilização de aquisição
continua pelo VNA HP8722D
! Time and date: 17/4/2025 15:12
!              Frequency                     S11                                                   S21                                                   S12                                                   S22
# HZ  S  MA R 50
4800000000.000000      3.340912000000000E-01     -1.137617000000000E+02      2.928925000000000E-01     -6.097851000000000E+01      2.866821000000000E-01     -1.751719000000000E+02      6.563110000000000E-01     -9.021875000000000E+01
4801000000.000000      3.329773000000000E-01     -1.148359000000000E+02      2.972870000000000E-01     -6.107812000000000E+01      2.902069000000000E-01     -1.751484000000000E+02      6.555786000000000E-01     -9.028906000000000E+01
4802000000.000000      3.316803000000000E-01     -1.158867000000000E+02      3.009644000000000E-01     -6.104101000000000E+01      2.949066000000000E-01     -1.750078000000000E+02      6.527405000000000E-01     -9.037500000000000E+01
4803000000.000000      3.316345000000000E-01     -1.169141000000000E+02      3.066711000000000E-01     -6.119531000000000E+01      2.976837000000000E-01     -1.749141000000000E+02      6.531982000000000E-01     -9.044531000000000E+01
4804000000.000000      3.312378000000000E-01     -1.178711000000000E+02      3.111420000000000E-01     -6.137109000000000E+01      3.022156000000000E-01     -1.748281000000000E+02      6.522217000000000E-01     -9.045702000000000E+01
4805000000.000000      3.313446000000000E-01     -1.187656000000000E+02      3.153992000000000E-01     -6.155273000000000E+01      3.071136000000000E-01     -1.746875000000000E+02      6.520081000000000E-01     -9.067577000000000E+01
4806000000.000000      3.303223000000000E-01     -1.198008000000000E+02      3.198242000000000E-01     -6.158008000000000E+01      3.101044000000000E-01     -1.744766000000000E+02      6.513672000000000E-01     -9.077734000000000E+01
4807000000.000000      3.306580000000000E-01     -1.208320000000000E+02      3.241577000000000E-01     -6.187304000000000E+01      3.147583000000000E-01     -1.745859000000000E+02      6.508484000000000E-01     -9.088282000000000E+01
4808000000.000000      3.309326000000000E-01     -1.218164000000000E+02      3.285370000000000E-01     -6.185547000000000E+01      3.176727000000000E-01     -1.744219000000000E+02      6.499634000000000E-01     -9.085155000000000E+01
4809000000.000000      3.315582000000000E-01     -1.229297000000000E+02      3.320160000000000E-01     -6.231054000000000E+01      3.224640000000000E-01     -1.744297000000000E+02      6.500244000000000E-01     -9.108202000000000E+01
4810000000.000000      3.323517000000000E-01     -1.241289000000000E+02      3.371429000000000E-01     -6.244141000000000E+01      3.269806000000000E-01     -1.744219000000000E+02      6.493225000000000E-01     -9.113672000000000E+01
4811000000.000000      3.332825000000000E-01     -1.252305000000000E+02      3.425598000000000E-01     -6.257030000000000E+01      3.315277000000000E-01     -1.742656000000000E+02      6.485291000000000E-01     -9.112890000000000E+01
4812000000.000000      3.355103000000000E-01     -1.261680000000000E+02      3.456421000000000E-01     -6.287499000000000E+01      3.352509000000000E-01     -1.742500000000000E+02      6.494446000000000E-01     -9.123047000000000E+01
4813000000.000000      3.357086000000000E-01     -1.273203000000000E+02      3.495026000000000E-01     -6.306445000000000E+01      3.378754000000000E-01     -1.740469000000000E+02      6.492920000000000E-01     -9.125391000000000E+01
4814000000.000000      3.370667000000000E-01     -1.285703000000000E+02      3.536530000000000E-01     -6.326172000000000E+01      3.424225000000000E-01     -1.741875000000000E+02      6.484375000000000E-01     -9.142578000000000E+01
4815000000.000000      3.388824000000000E-01     -1.294609000000000E+02      3.578033000000000E-01     -6.347265000000000E+01      3.459625000000000E-01     -1.740313000000000E+02      6.486206000000000E-01     -9.138672000000000E+01
4816000000.000000      3.406372000000000E-01     -1.305078000000000E+02      3.624268000000000E-01     -6.349999000000000E+01      3.513336000000000E-01     -1.739922000000000E+02      6.488037000000000E-01     -9.153906000000000E+01
4817000000.000000      3.434296000000000E-01     -1.316484000000000E+02      3.658752000000000E-01     -6.396093000000000E+01      3.544159000000000E-01     -1.741328000000000E+02      6.488953000000000E-01     -9.165234000000000E+01
4818000000.000000      3.454742000000000E-01     -1.327578000000000E+02      3.690186000000000E-01     -6.421093000000000E+01      3.589478000000000E-01     -1.739687000000000E+02      6.495056000000000E-01     -9.180079000000000E+01
4819000000.000000      3.481140000000000E-01     -1.337500000000000E+02      3.738098000000000E-01     -6.448437000000000E+01      3.621063000000000E-01     -1.738906000000000E+02      6.509094000000000E-01     -9.182812000000000E+01
4820000000.000000      3.496552000000000E-01     -1.348359000000000E+02      3.779297000000000E-01     -6.456249000000000E+01      3.662415000000000E-01     -1.739297000000000E+02      6.511841000000000E-01     -9.192968000000000E+01
4821000000.000000      3.530731000000000E-01     -1.359141000000000E+02      3.813477000000000E-01     -6.496484000000000E+01      3.702087000000000E-01     -1.740078000000000E+02      6.504517000000000E-01     -9.203516000000000E+01
4822000000.000000      3.577423000000000E-01     -1.370547000000000E+02      3.852386000000000E-01     -6.520702000000000E+01      3.742676000000000E-01     -1.739141000000000E+02      6.534119000000000E-01     -9.199219000000000E+01
4823000000.000000      3.595276000000000E-01     -1.380156000000000E+02      3.886719000000000E-01     -6.541406000000000E+01      3.783264000000000E-01     -1.738750000000000E+02      6.530151000000000E-01     -9.214062000000000E+01
4824000000.000000      3.641968000000000E-01     -1.391562000000000E+02      3.928680000000000E-01     -6.571484000000000E+01      3.826141000000000E-01     -1.739609000000000E+02      6.544189000000000E-01     -9.222265000000000E+01
4825000000.000000      3.674164000000000E-01     -1.400859000000000E+02      3.962708000000000E-01     -6.601953000000000E+01      3.868408000000000E-01     -1.739687000000000E+02      6.558838000000000E-01     -9.221874000000000E+01
4826000000.000000      3.719482000000000E-01     -1.411328000000000E+02      3.999634000000000E-01     -6.635156000000000E+01      3.898010000000000E-01     -1.740078000000000E+02      6.565247000000000E-01     -9.232031000000000E+01
4827000000.000000      3.753662000000000E-01     -1.419609000000000E+02      4.038239000000000E-01     -6.655859000000000E+01      3.938446000000000E-01     -1.738516000000000E+02      6.579895000000000E-01     -9.239061000000000E+01
4828000000.000000      3.802795000000000E-01     -1.430078000000000E+02      4.072571000000000E-01     -6.674609000000000E+01      3.983612000000000E-01     -1.738828000000000E+02      6.605225000000000E-01     -9.249609000000000E+01
4829000000.000000      3.832855000000000E-01     -1.439297000000000E+02      4.104614000000000E-01     -6.706249000000000E+01      4.020691000000000E-01     -1.739375000000000E+02      6.603394000000000E-01     -9.245312000000000E+01
4830000000.000000      3.884277000000000E-01     -1.448672000000000E+02      4.136047000000000E-01     -6.743359000000000E+01      4.060059000000000E-01     -1.739687000000000E+02      6.625366000000000E-01     -9.251953000000000E+01
4831000000.000000      3.922729000000000E-01     -1.457656000000000E+02      4.181671000000000E-01     -6.778515000000000E+01      4.098358000000000E-01     -1.739297000000000E+02      6.640930000000000E-01     -9.258204000000000E+01
4832000000.000000      3.982391000000000E-01     -1.466875000000000E+02      4.208069000000000E-01     -6.804688000000000E+01      4.135895000000000E-01     -1.740313000000000E+02      6.652527000000000E-01     -9.266405000000000E+01
4833000000.000000      4.029541000000000E-01     -1.476406000000000E+02      4.232483000000000E-01     -6.818749000000000E+01      4.180603000000000E-01     -1.740937000000000E+02      6.666260000000000E-01     -9.280468000000000E+01
4834000000.000000      4.072571000000000E-01     -1.485000000000000E+02      4.267731000000000E-01     -6.847265000000000E+01      4.221039000000000E-01     -1.740547000000000E+02      6.687012000000000E-01     -9.286718000000000E+01
4835000000.000000      4.123535000000000E-01     -1.492812000000000E+02      4.314117000000000E-01     -6.891406000000000E+01      4.259033000000000E-01     -1.741328000000000E+02      6.709595000000000E-01     -9.291407000000000E+01
4836000000.000000      4.179688000000000E-01     -1.500703000000000E+02      4.334564000000000E-01     -6.919531000000000E+01      4.298553000000000E-01     -1.741094000000000E+02      6.712952000000000E-01     -9.300781000000000E+01
4837000000.000000      4.228363000000000E-01     -1.508984000000000E+02      4.357758000000000E-01     -6.978516000000000E+01      4.335938000000000E-01     -1.742188000000000E+02      6.744080000000000E-01     -9.298828000000000E+01
4838000000.000000      4.282837000000000E-01     -1.517500000000000E+02      4.403839000000000E-01     -6.980859000000000E+01      4.379120000000000E-01     -1.742734000000000E+02      6.770935000000000E-01     -9.305079000000000E+01
4839000000.000000      4.334106000000000E-01     -1.524219000000000E+02      4.424744000000000E-01     -7.010547000000000E+01      4.424744000000000E-01     -1.742891000000000E+02      6.791382000000000E-01     -9.299608000000000E+01
4840000000.000000      4.378052000000000E-01     -1.532891000000000E+02      4.453735000000000E-01     -7.035156000000000E+01      4.461060000000000E-01     -1.745000000000000E+02      6.820068000000000E-01     -9.320313000000000E+01
4841000000.000000      4.431763000000000E-01     -1.541172000000000E+02      4.484863000000000E-01     -7.088672000000000E+01      4.502716000000000E-01     -1.745469000000000E+02      6.829224000000000E-01     -9.321875000000000E+01
4842000000.000000      4.490051000000000E-01     -1.547500000000000E+02      4.510345000000000E-01     -7.117578000000000E+01      4.533997000000000E-01     -1.745781000000000E+02      6.866150000000000E-01     -9.322266000000000E+01
4843000000.000000      4.532776000000000E-01     -1.555625000000000E+02      4.541626000000000E-01     -7.152344000000000E+01      4.575500000000000E-01     -1.747031000000000E+02      6.882629000000000E-01     -9.323437000000000E+01
4844000000.000000      4.584045000000000E-01     -1.561797000000000E+02      4.566040000000000E-01     -7.178124000000000E+01      4.617767000000000E-01     -1.748125000000000E+02      6.902771000000000E-01     -9.332031000000000E+01
4845000000.000000      4.632874000000000E-01     -1.568438000000000E+02      4.589233000000000E-01     -7.210938000000000E+01      4.661102000000000E-01     -1.748672000000000E+02      6.930237000000000E-01     -9.334764000000000E+01
4846000000.000000      4.686279000000000E-01     -1.574375000000000E+02      4.623413000000000E-01     -7.239062000000000E+01      4.709473000000000E-01     -1.749844000000000E+02      6.958923000000000E-01     -9.336718000000000E+01
4847000000.000000      4.746246000000000E-01     -1.581406000000000E+02      4.642029000000000E-01     -7.269921000000000E+01      4.744568000000000E-01     -1.751641000000000E+02      6.995239000000000E-01     -9.350000000000000E+01
4848000000.000000      4.795074000000000E-01     -1.587734000000000E+02      4.662170000000000E-01     -7.296875000000000E+01      4.784851000000000E-01     -1.752187000000000E+02      7.010803000000000E-01     -9.344530000000000E+01
4849000000.000000      4.835358000000000E-01     -1.596328000000000E+02      4.703979000000000E-01     -7.339062000000000E+01      4.826508000000000E-01     -1.753281000000000E+02      7.034607000000000E-01     -9.355469000000000E+01
4850000000.000000      4.886322000000000E-01     -1.600078000000000E+02      4.709167000000000E-01     -7.360546000000000E+01      4.861298000000000E-01     -1.754219000000000E+02      7.062683000000000E-01     -9.349609000000000E+01
4851000000.000000      4.937439000000000E-01     -1.606406000000000E+02      4.744568000000000E-01     -7.406640000000000E+01      4.892120000000000E-01     -1.755391000000000E+02      7.101746000000000E-01     -9.368359000000000E+01
4852000000.000000      4.987030000000000E-01     -1.612813000000000E+02      4.762421000000000E-01     -7.437500000000000E+01      4.942932000000000E-01     -1.756719000000000E+02      7.129517000000000E-01     -9.363672000000000E+01
4853000000.000000      5.032043000000000E-01     -1.618047000000000E+02      4.764099000000000E-01     -7.475390000000000E+01      4.976501000000000E-01     -1.759766000000000E+02      7.166138000000000E-01     -9.377344000000000E+01
4854000000.000000      5.068359000000000E-01     -1.623047000000000E+02      4.804077000000000E-01     -7.520312000000000E+01      5.018921000000000E-01     -1.760937000000000E+02      7.182312000000000E-01     -9.389063000000000E+01
4855000000.000000      5.104980000000000E-01     -1.629297000000000E+02      4.820557000000000E-01     -7.535937000000000E+01      5.053101000000000E-01     -1.760859000000000E+02      7.215271000000000E-01     -9.373438000000000E+01
4856000000.000000      5.154419000000000E-01     -1.634140000000000E+02      4.833832000000000E-01     -7.561718000000000E+01      5.086365000000000E-01     -1.763281000000000E+02      7.247925000000000E-01     -9.390625000000000E+01
4857000000.000000      5.198669000000000E-01     -1.638984000000000E+02      4.860077000000000E-01     -7.607812000000000E+01      5.122986000000000E-01     -1.763359000000000E+02      7.279053000000000E-01     -9.394531000000000E+01
4858000000.000000      5.217896000000000E-01     -1.644766000000000E+02      4.883270000000000E-01     -7.625000000000000E+01      5.163269000000000E-01     -1.765000000000000E+02      7.283020000000000E-01     -9.400391000000000E+01
4859000000.000000      5.258789000000000E-01     -1.649688000000000E+02      4.899139000000000E-01     -7.653125000000000E+01      5.191956000000000E-01     -1.769063000000000E+02      7.336731000000000E-01     -9.405468000000000E+01
4860000000.000000      5.302734000000000E-01     -1.654766000000000E+02      4.925995000000000E-01     -7.691015000000000E+01      5.227661000000000E-01     -1.768984000000000E+02      7.352600000000000E-01     -9.408203000000000E+01
4861000000.000000      5.334778000000000E-01     -1.657969000000000E+02      4.936066000000000E-01     -7.726953000000000E+01      5.267334000000000E-01     -1.771250000000000E+02      7.377319000000000E-01     -9.407812000000000E+01
4862000000.000000      5.358582000000000E-01     -1.662266000000000E+02      4.977264000000000E-01     -7.741796000000000E+01      5.302734000000000E-01     -1.772500000000000E+02      7.424927000000000E-01     -9.414843000000000E+01
4863000000.000000      5.387268000000000E-01     -1.666797000000000E+02      4.952240000000000E-01     -7.784765000000000E+01      5.342407000000000E-01     -1.773516000000000E+02      7.438354000000000E-01     -9.406250000000000E+01
4864000000.000000      5.421448000000000E-01     -1.670312000000000E+02      4.976196000000000E-01     -7.808594000000000E+01      5.366821000000000E-01     -1.776250000000000E+02      7.479248000000000E-01     -9.426172000000000E+01
4865000000.000000      5.443420000000000E-01     -1.676094000000000E+02      4.987030000000000E-01     -7.835155000000000E+01      5.393066000000000E-01     -1.778516000000000E+02      7.515564000000000E-01     -9.422655000000000E+01
4866000000.000000      5.465393000000000E-01     -1.678281000000000E+02      4.988708000000000E-01     -7.869141000000000E+01      5.430298000000000E-01     -1.781016000000000E+02      7.539063000000000E-01     -9.423046000000000E+01
4867000000.000000      5.484924000000000E-01     -1.682422000000000E+02      5.014648000000000E-01     -7.896484000000000E+01      5.456848000000000E-01     -1.781484000000000E+02      7.559204000000000E-01     -9.426172000000000E+01
4868000000.000000      5.512085000000000E-01     -1.686328000000000E+02      5.016479000000000E-01     -7.936718000000000E+01      5.492554000000000E-01     -1.783984000000000E+02      7.577209000000000E-01     -9.426561000000000E+01
4869000000.000000      5.527344000000000E-01     -1.689219000000000E+02      5.048828000000000E-01     -7.959765000000000E+01      5.506592000000000E-01     -1.785938000000000E+02      7.623291000000000E-01     -9.442968000000000E+01
4870000000.000000      5.535583000000000E-01     -1.692422000000000E+02      5.058289000000000E-01     -7.968359000000000E+01      5.540771000000000E-01     -1.788359000000000E+02      7.644958000000000E-01     -9.435938000000000E+01
4871000000.000000      5.553894000000000E-01     -1.695625000000000E+02      5.059509000000000E-01     -8.009375000000000E+01      5.563354000000000E-01     -1.791172000000000E+02      7.649231000000000E-01     -9.457031000000000E+01
4872000000.000000      5.580750000000000E-01     -1.698203000000000E+02      5.080261000000000E-01     -8.008984000000000E+01      5.583191000000000E-01     -1.795234000000000E+02      7.695923000000000E-01     -9.446484000000000E+01
4873000000.000000      5.585632000000000E-01     -1.701094000000000E+02      5.083008000000000E-01     -8.041796000000000E+01      5.617676000000000E-01     -1.794141000000000E+02      7.713318000000000E-01     -9.453905000000000E+01
4874000000.000000      5.592041000000000E-01     -1.703047000000000E+02      5.100098000000000E-01     -8.108984000000000E+01      5.644836000000000E-01     -1.797188000000000E+02      7.720337000000000E-01     -9.439453000000000E+01
4875000000.000000      5.616150000000000E-01     -1.706094000000000E+02      5.107117000000000E-01     -8.083593000000000E+01      5.668030000000000E-01     -1.800000000000000E+02      7.763062000000000E-01     -9.453125000000000E+01
4876000000.000000      5.603638000000000E-01     -1.708281000000000E+02      5.103149000000000E-01     -8.121094000000000E+01      5.689392000000000E-01      1.798437000000000E+02      7.784119000000000E-01     -9.471874000000000E+01
4877000000.000000      5.611267000000000E-01     -1.710078000000000E+02      5.114746000000000E-01     -8.127733000000000E+01      5.698242000000000E-01      1.794453000000000E+02      7.803345000000000E-01     -9.473436000000000E+01
4878000000.000000      5.618591000000000E-01     -1.711953000000000E+02      5.140991000000000E-01     -8.169922000000000E+01      5.729065000000000E-01      1.794531000000000E+02      7.830505000000000E-01     -9.478125000000000E+01
4879000000.000000      5.634155000000000E-01     -1.714844000000000E+02      5.135498000000000E-01     -8.168360000000000E+01      5.743408000000000E-01      1.791406000000000E+02      7.844543000000000E-01     -9.467968000000000E+01
4880000000.000000      5.617371000000000E-01     -1.715781000000000E+02      5.160522000000000E-01     -8.203516000000000E+01      5.782166000000000E-01      1.790547000000000E+02      7.879028000000000E-01     -9.487108000000000E+01
4881000000.000000      5.633545000000000E-01     -1.716484000000000E+02      5.170288000000000E-01     -8.208984000000000E+01      5.799866000000000E-01      1.787031000000000E+02      7.882996000000000E-01     -9.482422000000000E+01
4882000000.000000      5.615845000000000E-01     -1.717109000000000E+02      5.172119000000000E-01     -8.237499000000000E+01      5.807190000000000E-01      1.785547000000000E+02      7.908325000000000E-01     -9.496094000000000E+01
