! Network Analyzer HP8722D
! Hewlett-Packard
! Data name: Linha & Wilkinson
! Saver's name: Rodrigo Anjos
! Comments: Teste da utilização de aquisição
continua pelo VNA HP8722D
! Time and date: 17/4/2025 17:43
!              Frequency                     S11                                                   S21                                                   S12                                                   S22
# HZ  S  MA R 50
4800000000.000000      3.355103000000000E-01     -1.140351000000000E+02      2.940521000000000E-01     -6.096874000000000E+01      2.878571000000000E-01     -1.751094000000000E+02      6.567688000000000E-01     -9.020311000000000E+01
4801000000.000000      3.346100000000000E-01     -1.149336000000000E+02      2.985687000000000E-01     -6.093163000000000E+01      2.915192000000000E-01     -1.750859000000000E+02      6.562500000000000E-01     -9.028124000000000E+01
4802000000.000000      3.332214000000000E-01     -1.159258000000000E+02      3.027191000000000E-01     -6.099999000000000E+01      2.954712000000000E-01     -1.749063000000000E+02      6.541443000000000E-01     -9.028515000000000E+01
4803000000.000000      3.320923000000000E-01     -1.168750000000000E+02      3.076324000000000E-01     -6.121288000000000E+01      2.996368000000000E-01     -1.747656000000000E+02      6.533813000000000E-01     -9.043360000000000E+01
4804000000.000000      3.320465000000000E-01     -1.180547000000000E+02      3.120880000000000E-01     -6.117188000000000E+01      3.035583000000000E-01     -1.748437000000000E+02      6.519165000000000E-01     -9.059374000000000E+01
4805000000.000000      3.320007000000000E-01     -1.190664000000000E+02      3.169403000000000E-01     -6.163086000000000E+01      3.082275000000000E-01     -1.746094000000000E+02      6.524963000000000E-01     -9.073046000000000E+01
4806000000.000000      3.314514000000000E-01     -1.199297000000000E+02      3.205872000000000E-01     -6.163086000000000E+01      3.113861000000000E-01     -1.744531000000000E+02      6.522827000000000E-01     -9.079687000000000E+01
4807000000.000000      3.324585000000000E-01     -1.211328000000000E+02      3.249664000000000E-01     -6.179882000000000E+01      3.157806000000000E-01     -1.745234000000000E+02      6.497192000000000E-01     -9.085155000000000E+01
4808000000.000000      3.329010000000000E-01     -1.219805000000000E+02      3.297272000000000E-01     -6.193164000000000E+01      3.190765000000000E-01     -1.743047000000000E+02      6.494446000000000E-01     -9.094921000000000E+01
4809000000.000000      3.328094000000000E-01     -1.231094000000000E+02      3.343048000000000E-01     -6.232422000000000E+01      3.246155000000000E-01     -1.745234000000000E+02      6.493530000000000E-01     -9.107031000000000E+01
4810000000.000000      3.334961000000000E-01     -1.242773000000000E+02      3.388062000000000E-01     -6.220703000000000E+01      3.280792000000000E-01     -1.742812000000000E+02      6.511230000000000E-01     -9.113281000000000E+01
4811000000.000000      3.350372000000000E-01     -1.253047000000000E+02      3.429260000000000E-01     -6.255664000000000E+01      3.333740000000000E-01     -1.742500000000000E+02      6.492615000000000E-01     -9.118750000000000E+01
4812000000.000000      3.365479000000000E-01     -1.262578000000000E+02      3.469849000000000E-01     -6.283984000000000E+01      3.367004000000000E-01     -1.741953000000000E+02      6.498108000000000E-01     -9.132030000000000E+01
4813000000.000000      3.373108000000000E-01     -1.274844000000000E+02      3.508911000000000E-01     -6.304492000000000E+01      3.397369000000000E-01     -1.740234000000000E+02      6.494141000000000E-01     -9.136328000000000E+01
4814000000.000000      3.381500000000000E-01     -1.286250000000000E+02      3.554230000000000E-01     -6.324413000000000E+01      3.436127000000000E-01     -1.741172000000000E+02      6.488647000000000E-01     -9.147655000000000E+01
4815000000.000000      3.398590000000000E-01     -1.295938000000000E+02      3.585815000000000E-01     -6.343163000000000E+01      3.475647000000000E-01     -1.741094000000000E+02      6.498108000000000E-01     -9.144140000000000E+01
4816000000.000000      3.421631000000000E-01     -1.306562000000000E+02      3.628998000000000E-01     -6.369726000000000E+01      3.525238000000000E-01     -1.739531000000000E+02      6.490173000000000E-01     -9.152735000000000E+01
4817000000.000000      3.448334000000000E-01     -1.317031000000000E+02      3.673553000000000E-01     -6.391602000000000E+01      3.557434000000000E-01     -1.740000000000000E+02      6.496277000000000E-01     -9.173046000000000E+01
4818000000.000000      3.470154000000000E-01     -1.329141000000000E+02      3.708954000000000E-01     -6.424218000000000E+01      3.597260000000000E-01     -1.739922000000000E+02      6.493835000000000E-01     -9.176561000000000E+01
4819000000.000000      3.491974000000000E-01     -1.339922000000000E+02      3.746490000000000E-01     -6.443359000000000E+01      3.632202000000000E-01     -1.739141000000000E+02      6.517334000000000E-01     -9.183203000000000E+01
4820000000.000000      3.509674000000000E-01     -1.349922000000000E+02      3.789825000000000E-01     -6.451562000000000E+01      3.682709000000000E-01     -1.739141000000000E+02      6.514893000000000E-01     -9.193359000000000E+01
4821000000.000000      3.546600000000000E-01     -1.360781000000000E+02      3.825531000000000E-01     -6.489843000000000E+01      3.716736000000000E-01     -1.740859000000000E+02      6.516724000000000E-01     -9.205078000000000E+01
4822000000.000000      3.591766000000000E-01     -1.371719000000000E+02      3.862762000000000E-01     -6.535937000000000E+01      3.753967000000000E-01     -1.740234000000000E+02      6.536865000000000E-01     -9.211329000000000E+01
4823000000.000000      3.618164000000000E-01     -1.380938000000000E+02      3.899536000000000E-01     -6.544922000000000E+01      3.794098000000000E-01     -1.738594000000000E+02      6.539612000000000E-01     -9.216797000000000E+01
4824000000.000000      3.657379000000000E-01     -1.392969000000000E+02      3.938599000000000E-01     -6.581640000000000E+01      3.838806000000000E-01     -1.740313000000000E+02      6.552734000000000E-01     -9.220312000000000E+01
4825000000.000000      3.686829000000000E-01     -1.402031000000000E+02      3.973389000000000E-01     -6.589844000000000E+01      3.877716000000000E-01     -1.739609000000000E+02      6.557617000000000E-01     -9.226171000000000E+01
4826000000.000000      3.733978000000000E-01     -1.411953000000000E+02      4.016113000000000E-01     -6.635937000000000E+01      3.911743000000000E-01     -1.740078000000000E+02      6.576538000000000E-01     -9.233984000000000E+01
4827000000.000000      3.774261000000000E-01     -1.420156000000000E+02      4.042969000000000E-01     -6.643749000000000E+01      3.946228000000000E-01     -1.739609000000000E+02      6.572266000000000E-01     -9.233202000000000E+01
4828000000.000000      3.820648000000000E-01     -1.431015000000000E+02      4.082947000000000E-01     -6.674609000000000E+01      3.987732000000000E-01     -1.738984000000000E+02      6.597595000000000E-01     -9.248827000000000E+01
4829000000.000000      3.849030000000000E-01     -1.440000000000000E+02      4.107971000000000E-01     -6.716797000000000E+01      4.027100000000000E-01     -1.739453000000000E+02      6.607971000000000E-01     -9.243359000000000E+01
4830000000.000000      3.903198000000000E-01     -1.449531000000000E+02      4.152374000000000E-01     -6.740624000000000E+01      4.076996000000000E-01     -1.739063000000000E+02      6.636353000000000E-01     -9.265625000000000E+01
4831000000.000000      3.937073000000000E-01     -1.458594000000000E+02      4.183960000000000E-01     -6.776953000000000E+01      4.116058000000000E-01     -1.739844000000000E+02      6.641541000000000E-01     -9.267578000000000E+01
4832000000.000000      3.998260000000000E-01     -1.467187000000000E+02      4.223785000000000E-01     -6.804296000000000E+01      4.146423000000000E-01     -1.740156000000000E+02      6.650391000000000E-01     -9.278124000000000E+01
4833000000.000000      4.048462000000000E-01     -1.477422000000000E+02      4.252319000000000E-01     -6.826953000000000E+01      4.182434000000000E-01     -1.741484000000000E+02      6.677246000000000E-01     -9.281641000000000E+01
4834000000.000000      4.090729000000000E-01     -1.485703000000000E+02      4.276581000000000E-01     -6.857031000000000E+01      4.229736000000000E-01     -1.740625000000000E+02      6.690979000000000E-01     -9.280468000000000E+01
4835000000.000000      4.136810000000000E-01     -1.493594000000000E+02      4.319916000000000E-01     -6.876562000000000E+01      4.277649000000000E-01     -1.741562000000000E+02      6.718750000000000E-01     -9.298437000000000E+01
4836000000.000000      4.194489000000000E-01     -1.501562000000000E+02      4.350586000000000E-01     -6.928124000000000E+01      4.310913000000000E-01     -1.741641000000000E+02      6.727600000000000E-01     -9.289454000000000E+01
4837000000.000000      4.249725000000000E-01     -1.509297000000000E+02      4.377899000000000E-01     -6.973046000000000E+01      4.346771000000000E-01     -1.742891000000000E+02      6.750183000000000E-01     -9.304296000000000E+01
4838000000.000000      4.297028000000000E-01     -1.518125000000000E+02      4.415436000000000E-01     -6.985937000000000E+01      4.396362000000000E-01     -1.743438000000000E+02      6.768494000000000E-01     -9.300781000000000E+01
4839000000.000000      4.352112000000000E-01     -1.525312000000000E+02      4.441223000000000E-01     -7.006640000000000E+01      4.431152000000000E-01     -1.744062000000000E+02      6.805420000000000E-01     -9.304688000000000E+01
4840000000.000000      4.393005000000000E-01     -1.533594000000000E+02      4.462585000000000E-01     -7.046875000000000E+01      4.473114000000000E-01     -1.744844000000000E+02      6.808167000000000E-01     -9.311718000000000E+01
4841000000.000000      4.450378000000000E-01     -1.541719000000000E+02      4.493866000000000E-01     -7.094921000000000E+01      4.515381000000000E-01     -1.746172000000000E+02      6.840210000000000E-01     -9.319139000000000E+01
4842000000.000000      4.504089000000000E-01     -1.547891000000000E+02      4.527435000000000E-01     -7.121875000000000E+01      4.544678000000000E-01     -1.746406000000000E+02      6.863708000000000E-01     -9.337500000000000E+01
4843000000.000000      4.550018000000000E-01     -1.556250000000000E+02      4.553070000000000E-01     -7.157812000000000E+01      4.589386000000000E-01     -1.747578000000000E+02      6.896057000000000E-01     -9.332422000000000E+01
4844000000.000000      4.600830000000000E-01     -1.562734000000000E+02      4.566193000000000E-01     -7.185156000000000E+01      4.628143000000000E-01     -1.748750000000000E+02      6.915894000000000E-01     -9.328125000000000E+01
4845000000.000000      4.651489000000000E-01     -1.569375000000000E+02      4.604645000000000E-01     -7.221874000000000E+01      4.671936000000000E-01     -1.750078000000000E+02      6.933594000000000E-01     -9.339453000000000E+01
4846000000.000000      4.704437000000000E-01     -1.574922000000000E+02      4.634705000000000E-01     -7.256249000000000E+01      4.713898000000000E-01     -1.750391000000000E+02      6.965027000000000E-01     -9.333984000000000E+01
4847000000.000000      4.759216000000000E-01     -1.582500000000000E+02      4.656830000000000E-01     -7.267968000000000E+01      4.758301000000000E-01     -1.752187000000000E+02      6.996765000000000E-01     -9.355078000000000E+01
4848000000.000000      4.807587000000000E-01     -1.588281000000000E+02      4.680328000000000E-01     -7.296093000000000E+01      4.795990000000000E-01     -1.752656000000000E+02      7.009583000000000E-01     -9.358984000000000E+01
4849000000.000000      4.854431000000000E-01     -1.597422000000000E+02      4.699707000000000E-01     -7.341015000000000E+01      4.833221000000000E-01     -1.753984000000000E+02      7.050171000000000E-01     -9.351171000000000E+01
4850000000.000000      4.903870000000000E-01     -1.601484000000000E+02      4.729462000000000E-01     -7.367969000000000E+01      4.868317000000000E-01     -1.754688000000000E+02      7.077637000000000E-01     -9.362499000000000E+01
4851000000.000000      4.956207000000000E-01     -1.607344000000000E+02      4.755554000000000E-01     -7.426171000000000E+01      4.909210000000000E-01     -1.756406000000000E+02      7.113342000000000E-01     -9.365625000000000E+01
4852000000.000000      5.001831000000000E-01     -1.612422000000000E+02      4.778290000000000E-01     -7.442187000000000E+01      4.950256000000000E-01     -1.756875000000000E+02      7.135620000000000E-01     -9.368359000000000E+01
4853000000.000000      5.048523000000000E-01     -1.618672000000000E+02      4.781342000000000E-01     -7.472265000000000E+01      4.992676000000000E-01     -1.759297000000000E+02      7.161560000000000E-01     -9.390234000000000E+01
4854000000.000000      5.091858000000000E-01     -1.624141000000000E+02      4.820099000000000E-01     -7.516015000000000E+01      5.031738000000000E-01     -1.760078000000000E+02      7.200928000000000E-01     -9.386328000000000E+01
4855000000.000000      5.120239000000000E-01     -1.629766000000000E+02      4.829407000000000E-01     -7.532421000000000E+01      5.065918000000000E-01     -1.761328000000000E+02      7.210388000000000E-01     -9.385937000000000E+01
4856000000.000000      5.175476000000000E-01     -1.634375000000000E+02      4.855652000000000E-01     -7.573828000000000E+01      5.093994000000000E-01     -1.763515000000000E+02      7.243347000000000E-01     -9.379297000000000E+01
4857000000.000000      5.210266000000000E-01     -1.640547000000000E+02      4.881134000000000E-01     -7.610156000000000E+01      5.135498000000000E-01     -1.764453000000000E+02      7.283630000000000E-01     -9.383204000000000E+01
4858000000.000000      5.236206000000000E-01     -1.644844000000000E+02      4.892731000000000E-01     -7.625000000000000E+01      5.164490000000000E-01     -1.765469000000000E+02      7.302551000000000E-01     -9.393749000000000E+01
4859000000.000000      5.276489000000000E-01     -1.650625000000000E+02      4.904480000000000E-01     -7.664063000000000E+01      5.195618000000000E-01     -1.768516000000000E+02      7.348328000000000E-01     -9.408983000000000E+01
4860000000.000000      5.319824000000000E-01     -1.655156000000000E+02      4.925232000000000E-01     -7.685156000000000E+01      5.232239000000000E-01     -1.769219000000000E+02      7.366638000000000E-01     -9.401953000000000E+01
4861000000.000000      5.348511000000000E-01     -1.658516000000000E+02      4.941101000000000E-01     -7.746875000000000E+01      5.272217000000000E-01     -1.771484000000000E+02      7.386475000000000E-01     -9.421484000000000E+01
4862000000.000000      5.379944000000000E-01     -1.662188000000000E+02      4.967651000000000E-01     -7.753124000000000E+01      5.320740000000000E-01     -1.773906000000000E+02      7.426453000000000E-01     -9.415625000000000E+01
4863000000.000000      5.401917000000000E-01     -1.667734000000000E+02      4.960022000000000E-01     -7.791406000000000E+01      5.346069000000000E-01     -1.775078000000000E+02      7.455750000000000E-01     -9.416016000000000E+01
4864000000.000000      5.439758000000000E-01     -1.671641000000000E+02      4.993134000000000E-01     -7.808203000000000E+01      5.362854000000000E-01     -1.777812000000000E+02      7.480774000000000E-01     -9.424999000000000E+01
4865000000.000000      5.456238000000000E-01     -1.676250000000000E+02      4.986877000000000E-01     -7.829296000000000E+01      5.396423000000000E-01     -1.779453000000000E+02      7.514648000000000E-01     -9.414063000000000E+01
4866000000.000000      5.473633000000000E-01     -1.678750000000000E+02      4.996185000000000E-01     -7.869531000000000E+01      5.446167000000000E-01     -1.781328000000000E+02      7.541504000000000E-01     -9.417578000000000E+01
4867000000.000000      5.505981000000000E-01     -1.682344000000000E+02      5.025635000000000E-01     -7.916406000000000E+01      5.454102000000000E-01     -1.782734000000000E+02      7.574463000000000E-01     -9.423437000000000E+01
4868000000.000000      5.526428000000000E-01     -1.687422000000000E+02      5.031433000000000E-01     -7.925390000000000E+01      5.498352000000000E-01     -1.783828000000000E+02      7.572327000000000E-01     -9.434765000000000E+01
4869000000.000000      5.539246000000000E-01     -1.689687000000000E+02      5.042419000000000E-01     -7.973827000000000E+01      5.524597000000000E-01     -1.787344000000000E+02      7.608032000000000E-01     -9.448437000000000E+01
4870000000.000000      5.556946000000000E-01     -1.692500000000000E+02      5.051575000000000E-01     -7.972656000000000E+01      5.546265000000000E-01     -1.790703000000000E+02      7.645874000000000E-01     -9.428514000000000E+01
4871000000.000000      5.565796000000000E-01     -1.696953000000000E+02      5.078125000000000E-01     -8.010546000000000E+01      5.556641000000000E-01     -1.790781000000000E+02      7.666626000000000E-01     -9.448828000000000E+01
4872000000.000000      5.594788000000000E-01     -1.698281000000000E+02      5.081177000000000E-01     -8.014452000000000E+01      5.594482000000000E-01     -1.795312000000000E+02      7.705994000000000E-01     -9.455078000000000E+01
4873000000.000000      5.597839000000000E-01     -1.701015000000000E+02      5.086975000000000E-01     -8.075781000000000E+01      5.623474000000000E-01     -1.795938000000000E+02      7.716980000000000E-01     -9.459375000000000E+01
4874000000.000000      5.599365000000000E-01     -1.702344000000000E+02      5.095825000000000E-01     -8.083984000000000E+01      5.664673000000000E-01     -1.797734000000000E+02      7.731323000000000E-01     -9.445704000000000E+01
4875000000.000000      5.623779000000000E-01     -1.707031000000000E+02      5.105896000000000E-01     -8.109766000000000E+01      5.666199000000000E-01      1.798516000000000E+02      7.752380000000000E-01     -9.466406000000000E+01
4876000000.000000      5.617065000000000E-01     -1.708281000000000E+02      5.116272000000000E-01     -8.119921000000000E+01      5.687561000000000E-01      1.798672000000000E+02      7.793579000000000E-01     -9.462891000000000E+01
4877000000.000000      5.621948000000000E-01     -1.709844000000000E+02      5.124512000000000E-01     -8.148829000000000E+01      5.728760000000000E-01      1.794609000000000E+02      7.793884000000000E-01     -9.479296000000000E+01
4878000000.000000      5.630493000000000E-01     -1.712812000000000E+02      5.139771000000000E-01     -8.176172000000000E+01      5.736694000000000E-01      1.793437000000000E+02      7.846985000000000E-01     -9.482813000000000E+01
4879000000.000000      5.633240000000000E-01     -1.714375000000000E+02      5.136108000000000E-01     -8.191015000000000E+01      5.746460000000000E-01      1.791953000000000E+02      7.866516000000000E-01     -9.476954000000000E+01
4880000000.000000      5.628052000000000E-01     -1.715781000000000E+02      5.168152000000000E-01     -8.222265000000000E+01      5.779724000000000E-01      1.790078000000000E+02      7.869873000000000E-01     -9.481640000000000E+01
4881000000.000000      5.638123000000000E-01     -1.716875000000000E+02      5.177002000000000E-01     -8.217188000000000E+01      5.796509000000000E-01      1.787422000000000E+02      7.906799000000000E-01     -9.482031000000000E+01
4882000000.000000      5.635071000000000E-01     -1.718516000000000E+02      5.179138000000000E-01     -8.251562000000000E+01      5.823059000000000E-01      1.787031000000000E+02      7.896118000000000E-01     -9.487108000000000E+01
