! Network Analyzer HP8722D
! Hewlett-Packard
! Data name: Linha & Wilkinson
! Saver's name: Rodrigo Anjos
! Comments: Teste da utilização de aquisição
continua pelo VNA HP8722D
! Time and date: 17/4/2025 15:06
!              Frequency                     S11                                                   S21                                                   S12                                                   S22
# HZ  S  MA R 50
4800000000.000000      3.341217000000000E-01     -1.137305000000000E+02      2.911224000000000E-01     -6.097265000000000E+01      2.851257000000000E-01     -1.751094000000000E+02      6.564941000000000E-01     -9.015234000000000E+01
4801000000.000000      3.329620000000000E-01     -1.145547000000000E+02      2.958527000000000E-01     -6.089062000000000E+01      2.888794000000000E-01     -1.749453000000000E+02      6.547241000000000E-01     -9.013672000000000E+01
4802000000.000000      3.316040000000000E-01     -1.156719000000000E+02      2.998962000000000E-01     -6.113671000000000E+01      2.928925000000000E-01     -1.749687000000000E+02      6.529541000000000E-01     -9.020311000000000E+01
4803000000.000000      3.309631000000000E-01     -1.166640000000000E+02      3.051453000000000E-01     -6.118164000000000E+01      2.970581000000000E-01     -1.747890000000000E+02      6.533508000000000E-01     -9.035547000000000E+01
4804000000.000000      3.315582000000000E-01     -1.175898000000000E+02      3.086548000000000E-01     -6.128906000000000E+01      3.013916000000000E-01     -1.748125000000000E+02      6.533203000000000E-01     -9.045702000000000E+01
4805000000.000000      3.312836000000000E-01     -1.185820000000000E+02      3.133545000000000E-01     -6.149023000000000E+01      3.052826000000000E-01     -1.745781000000000E+02      6.520691000000000E-01     -9.067186000000000E+01
4806000000.000000      3.307037000000000E-01     -1.196094000000000E+02      3.180084000000000E-01     -6.151367000000000E+01      3.089142000000000E-01     -1.743828000000000E+02      6.515808000000000E-01     -9.069530000000000E+01
4807000000.000000      3.304443000000000E-01     -1.206758000000000E+02      3.223267000000000E-01     -6.179688000000000E+01      3.129120000000000E-01     -1.744688000000000E+02      6.500854000000000E-01     -9.071093000000000E+01
4808000000.000000      3.314362000000000E-01     -1.216328000000000E+02      3.264771000000000E-01     -6.175390000000000E+01      3.175354000000000E-01     -1.743515000000000E+02      6.490784000000000E-01     -9.068359000000000E+01
4809000000.000000      3.311157000000000E-01     -1.228398000000000E+02      3.314514000000000E-01     -6.229101000000000E+01      3.213806000000000E-01     -1.744297000000000E+02      6.499329000000000E-01     -9.096483000000000E+01
4810000000.000000      3.317719000000000E-01     -1.239180000000000E+02      3.354797000000000E-01     -6.215820000000000E+01      3.259430000000000E-01     -1.741406000000000E+02      6.494141000000000E-01     -9.104296000000000E+01
4811000000.000000      3.328705000000000E-01     -1.249453000000000E+02      3.404999000000000E-01     -6.253711000000000E+01      3.302917000000000E-01     -1.741797000000000E+02      6.483765000000000E-01     -9.101954000000000E+01
4812000000.000000      3.345032000000000E-01     -1.259648000000000E+02      3.443298000000000E-01     -6.276953000000000E+01      3.336792000000000E-01     -1.741250000000000E+02      6.495361000000000E-01     -9.120312000000000E+01
4813000000.000000      3.355103000000000E-01     -1.270508000000000E+02      3.480072000000000E-01     -6.288867000000000E+01      3.366852000000000E-01     -1.740000000000000E+02      6.483765000000000E-01     -9.121485000000000E+01
4814000000.000000      3.359833000000000E-01     -1.282812000000000E+02      3.519440000000000E-01     -6.298437000000000E+01      3.410950000000000E-01     -1.739844000000000E+02      6.488342000000000E-01     -9.139843000000000E+01
4815000000.000000      3.379822000000000E-01     -1.292813000000000E+02      3.567657000000000E-01     -6.340625000000000E+01      3.450775000000000E-01     -1.739609000000000E+02      6.490173000000000E-01     -9.137890000000000E+01
4816000000.000000      3.404846000000000E-01     -1.303281000000000E+02      3.610535000000000E-01     -6.346680000000000E+01      3.505402000000000E-01     -1.739141000000000E+02      6.485291000000000E-01     -9.145311000000000E+01
4817000000.000000      3.430786000000000E-01     -1.314219000000000E+02      3.644562000000000E-01     -6.385156000000000E+01      3.533630000000000E-01     -1.740000000000000E+02      6.496582000000000E-01     -9.165234000000000E+01
4818000000.000000      3.446655000000000E-01     -1.325469000000000E+02      3.684082000000000E-01     -6.404297000000000E+01      3.571777000000000E-01     -1.738047000000000E+02      6.492920000000000E-01     -9.168360000000000E+01
4819000000.000000      3.475952000000000E-01     -1.336016000000000E+02      3.720398000000000E-01     -6.422656000000000E+01      3.605652000000000E-01     -1.738828000000000E+02      6.507874000000000E-01     -9.174999000000000E+01
4820000000.000000      3.494415000000000E-01     -1.346641000000000E+02      3.757324000000000E-01     -6.458984000000000E+01      3.656006000000000E-01     -1.738203000000000E+02      6.510010000000000E-01     -9.177734000000000E+01
4821000000.000000      3.527679000000000E-01     -1.357188000000000E+02      3.796692000000000E-01     -6.487499000000000E+01      3.689117000000000E-01     -1.738906000000000E+02      6.507568000000000E-01     -9.194530000000000E+01
4822000000.000000      3.570862000000000E-01     -1.367969000000000E+02      3.828430000000000E-01     -6.494141000000000E+01      3.728333000000000E-01     -1.738437000000000E+02      6.528015000000000E-01     -9.196093000000000E+01
4823000000.000000      3.595123000000000E-01     -1.377891000000000E+02      3.880463000000000E-01     -6.520702000000000E+01      3.764191000000000E-01     -1.737031000000000E+02      6.523438000000000E-01     -9.199219000000000E+01
4824000000.000000      3.638763000000000E-01     -1.389141000000000E+02      3.914337000000000E-01     -6.562500000000000E+01      3.812408000000000E-01     -1.737969000000000E+02      6.542664000000000E-01     -9.203516000000000E+01
4825000000.000000      3.668213000000000E-01     -1.398203000000000E+02      3.946686000000000E-01     -6.583202000000000E+01      3.856201000000000E-01     -1.737734000000000E+02      6.555786000000000E-01     -9.213671000000000E+01
4826000000.000000      3.712463000000000E-01     -1.409062000000000E+02      3.980865000000000E-01     -6.612499000000000E+01      3.885956000000000E-01     -1.738281000000000E+02      6.560669000000000E-01     -9.232422000000000E+01
4827000000.000000      3.752289000000000E-01     -1.416875000000000E+02      4.022217000000000E-01     -6.630077000000000E+01      3.926086000000000E-01     -1.737266000000000E+02      6.577148000000000E-01     -9.232422000000000E+01
4828000000.000000      3.796844000000000E-01     -1.428437000000000E+02      4.065704000000000E-01     -6.666406000000000E+01      3.972778000000000E-01     -1.737890000000000E+02      6.604919000000000E-01     -9.233593000000000E+01
4829000000.000000      3.825989000000000E-01     -1.436641000000000E+02      4.091187000000000E-01     -6.698047000000000E+01      4.002533000000000E-01     -1.737969000000000E+02      6.601868000000000E-01     -9.242188000000000E+01
4830000000.000000      3.882904000000000E-01     -1.447187000000000E+02      4.125977000000000E-01     -6.736718000000000E+01      4.051208000000000E-01     -1.737422000000000E+02      6.619873000000000E-01     -9.248827000000000E+01
4831000000.000000      3.910828000000000E-01     -1.454922000000000E+02      4.167023000000000E-01     -6.765625000000000E+01      4.091187000000000E-01     -1.737031000000000E+02      6.640015000000000E-01     -9.265625000000000E+01
4832000000.000000      3.972473000000000E-01     -1.464609000000000E+02      4.191895000000000E-01     -6.786327000000000E+01      4.125214000000000E-01     -1.738516000000000E+02      6.642761000000000E-01     -9.262110000000000E+01
4833000000.000000      4.021606000000000E-01     -1.474141000000000E+02      4.232483000000000E-01     -6.806641000000000E+01      4.161987000000000E-01     -1.738750000000000E+02      6.667175000000000E-01     -9.265234000000000E+01
4834000000.000000      4.071655000000000E-01     -1.482812000000000E+02      4.260864000000000E-01     -6.844531000000000E+01      4.208527000000000E-01     -1.740078000000000E+02      6.690674000000000E-01     -9.272655000000000E+01
4835000000.000000      4.113464000000000E-01     -1.490547000000000E+02      4.295959000000000E-01     -6.873047000000000E+01      4.250946000000000E-01     -1.739609000000000E+02      6.708374000000000E-01     -9.280077000000000E+01
4836000000.000000      4.169312000000000E-01     -1.498359000000000E+02      4.327240000000000E-01     -6.917578000000000E+01      4.288788000000000E-01     -1.739375000000000E+02      6.725769000000000E-01     -9.284374000000000E+01
4837000000.000000      4.224548000000000E-01     -1.506719000000000E+02      4.351044000000000E-01     -6.960155000000000E+01      4.324951000000000E-01     -1.741094000000000E+02      6.732788000000000E-01     -9.291016000000000E+01
4838000000.000000      4.274597000000000E-01     -1.515312000000000E+02      4.393005000000000E-01     -6.964453000000000E+01      4.371796000000000E-01     -1.741484000000000E+02      6.767273000000000E-01     -9.296093000000000E+01
4839000000.000000      4.324036000000000E-01     -1.521719000000000E+02      4.420929000000000E-01     -6.999609000000000E+01      4.413147000000000E-01     -1.741094000000000E+02      6.788635000000000E-01     -9.291796000000000E+01
4840000000.000000      4.374847000000000E-01     -1.530625000000000E+02      4.454498000000000E-01     -7.024219000000000E+01      4.457397000000000E-01     -1.743438000000000E+02      6.805725000000000E-01     -9.310547000000000E+01
4841000000.000000      4.425659000000000E-01     -1.539219000000000E+02      4.479218000000000E-01     -7.080078000000000E+01      4.493561000000000E-01     -1.743515000000000E+02      6.832581000000000E-01     -9.321484000000000E+01
4842000000.000000      4.480133000000000E-01     -1.544922000000000E+02      4.495392000000000E-01     -7.112890000000000E+01      4.519043000000000E-01     -1.744141000000000E+02      6.863403000000000E-01     -9.321093000000000E+01
4843000000.000000      4.524231000000000E-01     -1.553203000000000E+02      4.537201000000000E-01     -7.139843000000000E+01      4.566650000000000E-01     -1.744922000000000E+02      6.879883000000000E-01     -9.316015000000000E+01
4844000000.000000      4.577332000000000E-01     -1.559766000000000E+02      4.562225000000000E-01     -7.167187000000000E+01      4.610291000000000E-01     -1.746641000000000E+02      6.910706000000000E-01     -9.326172000000000E+01
4845000000.000000      4.630280000000000E-01     -1.566172000000000E+02      4.581604000000000E-01     -7.201172000000000E+01      4.650269000000000E-01     -1.747500000000000E+02      6.933289000000000E-01     -9.320704000000000E+01
4846000000.000000      4.678650000000000E-01     -1.572500000000000E+02      4.615936000000000E-01     -7.233203000000000E+01      4.699097000000000E-01     -1.747969000000000E+02      6.961670000000000E-01     -9.322266000000000E+01
4847000000.000000      4.737549000000000E-01     -1.579453000000000E+02      4.635010000000000E-01     -7.262500000000000E+01      4.738617000000000E-01     -1.749687000000000E+02      6.990051000000000E-01     -9.344530000000000E+01
4848000000.000000      4.789886000000000E-01     -1.585469000000000E+02      4.657135000000000E-01     -7.287890000000000E+01      4.777985000000000E-01     -1.750391000000000E+02      7.010803000000000E-01     -9.354687000000000E+01
4849000000.000000      4.834442000000000E-01     -1.594297000000000E+02      4.684601000000000E-01     -7.325000000000000E+01      4.814606000000000E-01     -1.751875000000000E+02      7.041016000000000E-01     -9.345703000000000E+01
4850000000.000000      4.878082000000000E-01     -1.597734000000000E+02      4.712677000000000E-01     -7.358203000000000E+01      4.851685000000000E-01     -1.752656000000000E+02      7.068787000000000E-01     -9.342968000000000E+01
4851000000.000000      4.931335000000000E-01     -1.603828000000000E+02      4.743347000000000E-01     -7.400000000000000E+01      4.891052000000000E-01     -1.754141000000000E+02      7.103882000000000E-01     -9.350000000000000E+01
4852000000.000000      4.981689000000000E-01     -1.610391000000000E+02      4.759674000000000E-01     -7.415625000000000E+01      4.932251000000000E-01     -1.754844000000000E+02      7.128296000000000E-01     -9.355078000000000E+01
4853000000.000000      5.028992000000000E-01     -1.615781000000000E+02      4.759979000000000E-01     -7.470312000000000E+01      4.971771000000000E-01     -1.757500000000000E+02      7.152405000000000E-01     -9.371094000000000E+01
4854000000.000000      5.072021000000000E-01     -1.621172000000000E+02      4.802246000000000E-01     -7.501562000000000E+01      5.003357000000000E-01     -1.759219000000000E+02      7.185974000000000E-01     -9.367579000000000E+01
4855000000.000000      5.102539000000000E-01     -1.626562000000000E+02      4.815063000000000E-01     -7.520702000000000E+01      5.048523000000000E-01     -1.759766000000000E+02      7.203979000000000E-01     -9.358984000000000E+01
4856000000.000000      5.153503000000000E-01     -1.631406000000000E+02      4.835815000000000E-01     -7.557812000000000E+01      5.082397000000000E-01     -1.761953000000000E+02      7.233276000000000E-01     -9.374218000000000E+01
4857000000.000000      5.192871000000000E-01     -1.637891000000000E+02      4.856415000000000E-01     -7.589453000000000E+01      5.119629000000000E-01     -1.761641000000000E+02      7.276917000000000E-01     -9.380468000000000E+01
4858000000.000000      5.209351000000000E-01     -1.642656000000000E+02      4.881287000000000E-01     -7.609375000000000E+01      5.151062000000000E-01     -1.764688000000000E+02      7.304688000000000E-01     -9.390234000000000E+01
4859000000.000000      5.263062000000000E-01     -1.647656000000000E+02      4.887695000000000E-01     -7.641406000000000E+01      5.184021000000000E-01     -1.766484000000000E+02      7.341919000000000E-01     -9.390625000000000E+01
4860000000.000000      5.303650000000000E-01     -1.652031000000000E+02      4.914398000000000E-01     -7.660937000000000E+01      5.220032000000000E-01     -1.767109000000000E+02      7.360229000000000E-01     -9.394140000000000E+01
4861000000.000000      5.335083000000000E-01     -1.656250000000000E+02      4.924011000000000E-01     -7.714844000000000E+01      5.247803000000000E-01     -1.769063000000000E+02      7.380066000000000E-01     -9.400391000000000E+01
4862000000.000000      5.358582000000000E-01     -1.660703000000000E+02      4.958801000000000E-01     -7.742188000000000E+01      5.296021000000000E-01     -1.771250000000000E+02      7.437134000000000E-01     -9.404297000000000E+01
4863000000.000000      5.384827000000000E-01     -1.664297000000000E+02      4.950409000000000E-01     -7.766406000000000E+01      5.326843000000000E-01     -1.773281000000000E+02      7.440186000000000E-01     -9.406250000000000E+01
4864000000.000000      5.421143000000000E-01     -1.668984000000000E+02      4.978333000000000E-01     -7.793750000000000E+01      5.352783000000000E-01     -1.774531000000000E+02      7.471619000000000E-01     -9.410547000000000E+01
4865000000.000000      5.440063000000000E-01     -1.674297000000000E+02      4.978180000000000E-01     -7.821875000000000E+01      5.382690000000000E-01     -1.777266000000000E+02      7.507324000000000E-01     -9.401171000000000E+01
4866000000.000000      5.462341000000000E-01     -1.676484000000000E+02      4.990692000000000E-01     -7.859765000000000E+01      5.416870000000000E-01     -1.779453000000000E+02      7.528992000000000E-01     -9.401953000000000E+01
4867000000.000000      5.482483000000000E-01     -1.680156000000000E+02      5.021362000000000E-01     -7.887109000000000E+01      5.438232000000000E-01     -1.781641000000000E+02      7.571106000000000E-01     -9.426561000000000E+01
4868000000.000000      5.505981000000000E-01     -1.684297000000000E+02      5.025330000000000E-01     -7.908984000000000E+01      5.493164000000000E-01     -1.782891000000000E+02      7.577515000000000E-01     -9.432421000000000E+01
4869000000.000000      5.523071000000000E-01     -1.686641000000000E+02      5.052795000000000E-01     -7.937500000000000E+01      5.510254000000000E-01     -1.784922000000000E+02      7.609253000000000E-01     -9.439062000000000E+01
4870000000.000000      5.538635000000000E-01     -1.690234000000000E+02      5.044861000000000E-01     -7.952343000000000E+01      5.520020000000000E-01     -1.787031000000000E+02      7.642822000000000E-01     -9.427343000000000E+01
4871000000.000000      5.558777000000000E-01     -1.694062000000000E+02      5.074158000000000E-01     -7.975780000000000E+01      5.560303000000000E-01     -1.789219000000000E+02      7.652283000000000E-01     -9.448437000000000E+01
4872000000.000000      5.580139000000000E-01     -1.695703000000000E+02      5.065613000000000E-01     -7.990624000000000E+01      5.599365000000000E-01     -1.792344000000000E+02      7.695313000000000E-01     -9.439453000000000E+01
4873000000.000000      5.585022000000000E-01     -1.698437000000000E+02      5.091248000000000E-01     -8.034374000000000E+01      5.610046000000000E-01     -1.792969000000000E+02      7.701721000000000E-01     -9.453905000000000E+01
4874000000.000000      5.588074000000000E-01     -1.701875000000000E+02      5.088196000000000E-01     -8.055468000000000E+01      5.641174000000000E-01     -1.795391000000000E+02      7.734680000000000E-01     -9.428905000000000E+01
4875000000.000000      5.607605000000000E-01     -1.704062000000000E+02      5.096436000000000E-01     -8.081640000000000E+01      5.654602000000000E-01     -1.798125000000000E+02      7.756348000000000E-01     -9.463282000000000E+01
4876000000.000000      5.604248000000000E-01     -1.706250000000000E+02      5.114136000000000E-01     -8.095312000000000E+01      5.674438000000000E-01     -1.799609000000000E+02      7.791138000000000E-01     -9.467188000000000E+01
4877000000.000000      5.614624000000000E-01     -1.707891000000000E+02      5.119019000000000E-01     -8.116014000000000E+01      5.703735000000000E-01      1.797266000000000E+02      7.799988000000000E-01     -9.468359000000000E+01
4878000000.000000      5.621338000000000E-01     -1.709375000000000E+02      5.132751000000000E-01     -8.139452000000000E+01      5.721436000000000E-01      1.796406000000000E+02      7.826233000000000E-01     -9.488281000000000E+01
4879000000.000000      5.626526000000000E-01     -1.712344000000000E+02      5.131836000000000E-01     -8.167578000000000E+01      5.747070000000000E-01      1.792656000000000E+02      7.839966000000000E-01     -9.460155000000000E+01
4880000000.000000      5.610962000000000E-01     -1.713125000000000E+02      5.147705000000000E-01     -8.195704000000000E+01      5.761108000000000E-01      1.791953000000000E+02      7.885132000000000E-01     -9.474218000000000E+01
4881000000.000000      5.629883000000000E-01     -1.715469000000000E+02      5.167847000000000E-01     -8.205858000000000E+01      5.791016000000000E-01      1.788281000000000E+02      7.885742000000000E-01     -9.471094000000000E+01
4882000000.000000      5.610352000000000E-01     -1.716406000000000E+02      5.176086000000000E-01     -8.222265000000000E+01      5.808411000000000E-01      1.787109000000000E+02      7.912292000000000E-01     -9.476563000000000E+01
