! Network Analyzer HP8722D
! Hewlett-Packard
! Data name: Linha & Wilkinson
! Saver's name: Rodrigo Anjos
! Comments: Teste da utilização de aquisição
continua pelo VNA HP8722D
! Time and date: 17/4/2025 16:26
!              Frequency                     S11                                                   S21                                                   S12                                                   S22
# HZ  S  MA R 50
4800000000.000000      3.361816000000000E-01     -1.163594000000000E+02      3.121338000000000E-01     -6.206055000000000E+01      3.064423000000000E-01     -1.764219000000000E+02      6.580505000000000E-01     -9.130468000000000E+01
4801000000.000000      3.353424000000000E-01     -1.173359000000000E+02      3.166962000000000E-01     -6.216797000000000E+01      3.099365000000000E-01     -1.763672000000000E+02      6.565247000000000E-01     -9.119532000000000E+01
4802000000.000000      3.345947000000000E-01     -1.183672000000000E+02      3.208466000000000E-01     -6.221289000000000E+01      3.137360000000000E-01     -1.762344000000000E+02      6.549988000000000E-01     -9.129686000000000E+01
4803000000.000000      3.343658000000000E-01     -1.194336000000000E+02      3.258514000000000E-01     -6.250195000000000E+01      3.174133000000000E-01     -1.761250000000000E+02      6.539612000000000E-01     -9.155077000000000E+01
4804000000.000000      3.337555000000000E-01     -1.203945000000000E+02      3.296661000000000E-01     -6.265820000000000E+01      3.218994000000000E-01     -1.762969000000000E+02      6.537781000000000E-01     -9.151953000000000E+01
4805000000.000000      3.339233000000000E-01     -1.213594000000000E+02      3.338623000000000E-01     -6.291601000000000E+01      3.256531000000000E-01     -1.762031000000000E+02      6.542358000000000E-01     -9.168749000000000E+01
4806000000.000000      3.331757000000000E-01     -1.224336000000000E+02      3.384857000000000E-01     -6.300195000000000E+01      3.290710000000000E-01     -1.758750000000000E+02      6.531372000000000E-01     -9.187891000000000E+01
4807000000.000000      3.338928000000000E-01     -1.236016000000000E+02      3.429565000000000E-01     -6.327343000000000E+01      3.330383000000000E-01     -1.761562000000000E+02      6.512146000000000E-01     -9.192186000000000E+01
4808000000.000000      3.342285000000000E-01     -1.245586000000000E+02      3.475037000000000E-01     -6.342187000000000E+01      3.370819000000000E-01     -1.760625000000000E+02      6.510010000000000E-01     -9.189453000000000E+01
4809000000.000000      3.349152000000000E-01     -1.256875000000000E+02      3.507843000000000E-01     -6.382421000000000E+01      3.418274000000000E-01     -1.761250000000000E+02      6.504517000000000E-01     -9.210938000000000E+01
4810000000.000000      3.362274000000000E-01     -1.268476000000000E+02      3.560638000000000E-01     -6.395312000000000E+01      3.451996000000000E-01     -1.760234000000000E+02      6.517334000000000E-01     -9.211718000000000E+01
4811000000.000000      3.379974000000000E-01     -1.279062000000000E+02      3.592987000000000E-01     -6.433203000000000E+01      3.498535000000000E-01     -1.758984000000000E+02      6.506042000000000E-01     -9.222265000000000E+01
4812000000.000000      3.392487000000000E-01     -1.289531000000000E+02      3.638458000000000E-01     -6.433594000000000E+01      3.527527000000000E-01     -1.757813000000000E+02      6.513977000000000E-01     -9.229687000000000E+01
4813000000.000000      3.401947000000000E-01     -1.300000000000000E+02      3.673859000000000E-01     -6.457421000000000E+01      3.558655000000000E-01     -1.758047000000000E+02      6.507874000000000E-01     -9.233593000000000E+01
4814000000.000000      3.414001000000000E-01     -1.312969000000000E+02      3.719177000000000E-01     -6.503515000000000E+01      3.597107000000000E-01     -1.758984000000000E+02      6.504211000000000E-01     -9.243359000000000E+01
4815000000.000000      3.435364000000000E-01     -1.322813000000000E+02      3.742523000000000E-01     -6.520702000000000E+01      3.632660000000000E-01     -1.757891000000000E+02      6.497192000000000E-01     -9.243359000000000E+01
4816000000.000000      3.454742000000000E-01     -1.333281000000000E+02      3.791504000000000E-01     -6.529297000000000E+01      3.686523000000000E-01     -1.757031000000000E+02      6.507568000000000E-01     -9.269922000000000E+01
4817000000.000000      3.482513000000000E-01     -1.344844000000000E+02      3.827515000000000E-01     -6.578906000000000E+01      3.716431000000000E-01     -1.758047000000000E+02      6.498108000000000E-01     -9.281250000000000E+01
4818000000.000000      3.503571000000000E-01     -1.356094000000000E+02      3.864594000000000E-01     -6.594921000000000E+01      3.757019000000000E-01     -1.757734000000000E+02      6.510620000000000E-01     -9.283594000000000E+01
4819000000.000000      3.536377000000000E-01     -1.366250000000000E+02      3.897095000000000E-01     -6.621875000000000E+01      3.782654000000000E-01     -1.757656000000000E+02      6.526184000000000E-01     -9.285936000000000E+01
4820000000.000000      3.553467000000000E-01     -1.376328000000000E+02      3.935699000000000E-01     -6.641406000000000E+01      3.831177000000000E-01     -1.758359000000000E+02      6.535034000000000E-01     -9.299219000000000E+01
4821000000.000000      3.590546000000000E-01     -1.388203000000000E+02      3.976135000000000E-01     -6.676562000000000E+01      3.870392000000000E-01     -1.760469000000000E+02      6.528931000000000E-01     -9.306641000000000E+01
4822000000.000000      3.635864000000000E-01     -1.398438000000000E+02      4.012756000000000E-01     -6.693359000000000E+01      3.907166000000000E-01     -1.759531000000000E+02      6.539307000000000E-01     -9.314453000000000E+01
4823000000.000000      3.658752000000000E-01     -1.409062000000000E+02      4.041901000000000E-01     -6.739452000000000E+01      3.939209000000000E-01     -1.758281000000000E+02      6.552734000000000E-01     -9.318750000000000E+01
4824000000.000000      3.702545000000000E-01     -1.418906000000000E+02      4.080048000000000E-01     -6.763281000000000E+01      3.986206000000000E-01     -1.759453000000000E+02      6.564941000000000E-01     -9.330469000000000E+01
4825000000.000000      3.736267000000000E-01     -1.428828000000000E+02      4.114075000000000E-01     -6.777344000000000E+01      4.027710000000000E-01     -1.759609000000000E+02      6.580505000000000E-01     -9.328125000000000E+01
4826000000.000000      3.781433000000000E-01     -1.439219000000000E+02      4.151917000000000E-01     -6.819921000000000E+01      4.053040000000000E-01     -1.760156000000000E+02      6.588745000000000E-01     -9.344530000000000E+01
4827000000.000000      3.823700000000000E-01     -1.447734000000000E+02      4.187775000000000E-01     -6.834765000000000E+01      4.089813000000000E-01     -1.759687000000000E+02      6.606445000000000E-01     -9.346483000000000E+01
4828000000.000000      3.873596000000000E-01     -1.458047000000000E+02      4.224548000000000E-01     -6.872656000000000E+01      4.130859000000000E-01     -1.758828000000000E+02      6.614685000000000E-01     -9.354296000000000E+01
4829000000.000000      3.898773000000000E-01     -1.467031000000000E+02      4.244232000000000E-01     -6.899609000000000E+01      4.172363000000000E-01     -1.760781000000000E+02      6.624146000000000E-01     -9.353907000000000E+01
4830000000.000000      3.953552000000000E-01     -1.476406000000000E+02      4.277954000000000E-01     -6.939062000000000E+01      4.206543000000000E-01     -1.760234000000000E+02      6.648254000000000E-01     -9.373047000000000E+01
4831000000.000000      3.989105000000000E-01     -1.485000000000000E+02      4.304199000000000E-01     -6.982422000000000E+01      4.244690000000000E-01     -1.760078000000000E+02      6.666260000000000E-01     -9.376171000000000E+01
4832000000.000000      4.049683000000000E-01     -1.494297000000000E+02      4.346008000000000E-01     -6.998828000000000E+01      4.273987000000000E-01     -1.760781000000000E+02      6.672668000000000E-01     -9.389063000000000E+01
4833000000.000000      4.099121000000000E-01     -1.504375000000000E+02      4.368591000000000E-01     -7.025781000000000E+01      4.318695000000000E-01     -1.761562000000000E+02      6.706543000000000E-01     -9.392969000000000E+01
4834000000.000000      4.145813000000000E-01     -1.513047000000000E+02      4.404144000000000E-01     -7.058594000000000E+01      4.358826000000000E-01     -1.761953000000000E+02      6.702881000000000E-01     -9.401953000000000E+01
4835000000.000000      4.189606000000000E-01     -1.520703000000000E+02      4.432526000000000E-01     -7.107031000000000E+01      4.405823000000000E-01     -1.762812000000000E+02      6.735535000000000E-01     -9.405859000000000E+01
4836000000.000000      4.249878000000000E-01     -1.528125000000000E+02      4.462280000000000E-01     -7.112109000000000E+01      4.431458000000000E-01     -1.763125000000000E+02      6.751709000000000E-01     -9.405468000000000E+01
4837000000.000000      4.299011000000000E-01     -1.536328000000000E+02      4.489136000000000E-01     -7.183203000000000E+01      4.473267000000000E-01     -1.764297000000000E+02      6.776428000000000E-01     -9.416796000000000E+01
4838000000.000000      4.350891000000000E-01     -1.545391000000000E+02      4.530792000000000E-01     -7.197266000000000E+01      4.516296000000000E-01     -1.764531000000000E+02      6.790466000000000E-01     -9.417187000000000E+01
4839000000.000000      4.402771000000000E-01     -1.551641000000000E+02      4.549408000000000E-01     -7.218750000000000E+01      4.544525000000000E-01     -1.765078000000000E+02      6.818542000000000E-01     -9.416016000000000E+01
4840000000.000000      4.444275000000000E-01     -1.560078000000000E+02      4.569397000000000E-01     -7.257813000000000E+01      4.586792000000000E-01     -1.766719000000000E+02      6.829834000000000E-01     -9.438671000000000E+01
4841000000.000000      4.500580000000000E-01     -1.568516000000000E+02      4.605713000000000E-01     -7.306641000000000E+01      4.626923000000000E-01     -1.767266000000000E+02      6.853333000000000E-01     -9.440624000000000E+01
4842000000.000000      4.554443000000000E-01     -1.575000000000000E+02      4.627686000000000E-01     -7.326562000000000E+01      4.659576000000000E-01     -1.768281000000000E+02      6.884155000000000E-01     -9.437891000000000E+01
4843000000.000000      4.600830000000000E-01     -1.582734000000000E+02      4.655457000000000E-01     -7.358593000000000E+01      4.699860000000000E-01     -1.768906000000000E+02      6.905212000000000E-01     -9.448437000000000E+01
4844000000.000000      4.652100000000000E-01     -1.589219000000000E+02      4.670715000000000E-01     -7.376171000000000E+01      4.730835000000000E-01     -1.769766000000000E+02      6.938477000000000E-01     -9.450390000000000E+01
4845000000.000000      4.701080000000000E-01     -1.595156000000000E+02      4.695740000000000E-01     -7.427343000000000E+01      4.771576000000000E-01     -1.771094000000000E+02      6.948547000000000E-01     -9.451563000000000E+01
4846000000.000000      4.745941000000000E-01     -1.602422000000000E+02      4.725494000000000E-01     -7.453125000000000E+01      4.817505000000000E-01     -1.772344000000000E+02      6.980896000000000E-01     -9.458202000000000E+01
4847000000.000000      4.804382000000000E-01     -1.609219000000000E+02      4.748535000000000E-01     -7.467578000000000E+01      4.856110000000000E-01     -1.773516000000000E+02      7.016602000000000E-01     -9.463282000000000E+01
4848000000.000000      4.848938000000000E-01     -1.615156000000000E+02      4.761963000000000E-01     -7.508203000000000E+01      4.887543000000000E-01     -1.773750000000000E+02      7.029724000000000E-01     -9.462109000000000E+01
4849000000.000000      4.894257000000000E-01     -1.623672000000000E+02      4.791718000000000E-01     -7.562109000000000E+01      4.928284000000000E-01     -1.775859000000000E+02      7.063293000000000E-01     -9.471874000000000E+01
4850000000.000000      4.946136000000000E-01     -1.627969000000000E+02      4.812317000000000E-01     -7.576172000000000E+01      4.960327000000000E-01     -1.776172000000000E+02      7.087708000000000E-01     -9.483593000000000E+01
4851000000.000000      4.988403000000000E-01     -1.633125000000000E+02      4.838104000000000E-01     -7.628906000000000E+01      4.987488000000000E-01     -1.777812000000000E+02      7.114563000000000E-01     -9.485546000000000E+01
4852000000.000000      5.034485000000000E-01     -1.639453000000000E+02      4.857483000000000E-01     -7.649609000000000E+01      5.033264000000000E-01     -1.778359000000000E+02      7.144165000000000E-01     -9.485937000000000E+01
4853000000.000000      5.079956000000000E-01     -1.644766000000000E+02      4.856415000000000E-01     -7.674218000000000E+01      5.082397000000000E-01     -1.781719000000000E+02      7.170410000000000E-01     -9.495703000000000E+01
4854000000.000000      5.114136000000000E-01     -1.650469000000000E+02      4.887543000000000E-01     -7.725390000000000E+01      5.108948000000000E-01     -1.782031000000000E+02      7.198181000000000E-01     -9.496485000000000E+01
4855000000.000000      5.144043000000000E-01     -1.655937000000000E+02      4.906464000000000E-01     -7.734375000000000E+01      5.135803000000000E-01     -1.783594000000000E+02      7.229004000000000E-01     -9.496874000000000E+01
4856000000.000000      5.200195000000000E-01     -1.660391000000000E+02      4.927063000000000E-01     -7.773828000000000E+01      5.179443000000000E-01     -1.785469000000000E+02      7.274475000000000E-01     -9.510157000000000E+01
4857000000.000000      5.232239000000000E-01     -1.666484000000000E+02      4.939728000000000E-01     -7.814062000000000E+01      5.208435000000000E-01     -1.785312000000000E+02      7.283630000000000E-01     -9.509766000000000E+01
4858000000.000000      5.251465000000000E-01     -1.670859000000000E+02      4.973450000000000E-01     -7.827343000000000E+01      5.235596000000000E-01     -1.788203000000000E+02      7.314453000000000E-01     -9.510937000000000E+01
4859000000.000000      5.289612000000000E-01     -1.676406000000000E+02      4.962769000000000E-01     -7.868359000000000E+01      5.289001000000000E-01     -1.790859000000000E+02      7.349854000000000E-01     -9.533983000000000E+01
4860000000.000000      5.331116000000000E-01     -1.680547000000000E+02      4.991760000000000E-01     -7.896874000000000E+01      5.292053000000000E-01     -1.792422000000000E+02      7.360535000000000E-01     -9.514452000000000E+01
4861000000.000000      5.359192000000000E-01     -1.684453000000000E+02      4.991608000000000E-01     -7.942968000000000E+01      5.338440000000000E-01     -1.793125000000000E+02      7.376404000000000E-01     -9.542187000000000E+01
4862000000.000000      5.387573000000000E-01     -1.689062000000000E+02      5.020752000000000E-01     -7.951953000000000E+01      5.368958000000000E-01     -1.795234000000000E+02      7.421875000000000E-01     -9.533203000000000E+01
4863000000.000000      5.407104000000000E-01     -1.692734000000000E+02      5.019226000000000E-01     -8.010157000000000E+01      5.404968000000000E-01     -1.796094000000000E+02      7.464600000000000E-01     -9.533983000000000E+01
4864000000.000000      5.440979000000000E-01     -1.697344000000000E+02      5.051575000000000E-01     -8.017969000000000E+01      5.420837000000000E-01     -1.797734000000000E+02      7.482300000000000E-01     -9.538280000000000E+01
4865000000.000000      5.452271000000000E-01     -1.701953000000000E+02      5.034790000000000E-01     -8.042578000000000E+01      5.443115000000000E-01     -1.799922000000000E+02      7.512207000000000E-01     -9.532812000000000E+01
4866000000.000000      5.465088000000000E-01     -1.704531000000000E+02      5.052795000000000E-01     -8.063280000000000E+01      5.487061000000000E-01      1.798359000000000E+02      7.539978000000000E-01     -9.551172000000000E+01
4867000000.000000      5.488586000000000E-01     -1.708047000000000E+02      5.073547000000000E-01     -8.111719000000000E+01      5.496826000000000E-01      1.794531000000000E+02      7.568054000000000E-01     -9.552343000000000E+01
4868000000.000000      5.503235000000000E-01     -1.712422000000000E+02      5.068970000000000E-01     -8.138281000000000E+01      5.552979000000000E-01      1.794141000000000E+02      7.592773000000000E-01     -9.557421000000000E+01
4869000000.000000      5.521851000000000E-01     -1.715312000000000E+02      5.091553000000000E-01     -8.158594000000000E+01      5.578613000000000E-01      1.792187000000000E+02      7.615662000000000E-01     -9.569139000000000E+01
4870000000.000000      5.530090000000000E-01     -1.717969000000000E+02      5.104675000000000E-01     -8.165625000000000E+01      5.589600000000000E-01      1.790703000000000E+02      7.645569000000000E-01     -9.559765000000000E+01
4871000000.000000      5.555115000000000E-01     -1.720703000000000E+02      5.101318000000000E-01     -8.192186000000000E+01      5.615540000000000E-01      1.788437000000000E+02      7.669678000000000E-01     -9.573046000000000E+01
4872000000.000000      5.567932000000000E-01     -1.722734000000000E+02      5.118713000000000E-01     -8.210155000000000E+01      5.631714000000000E-01      1.785312000000000E+02      7.700806000000000E-01     -9.569921000000000E+01
4873000000.000000      5.564575000000000E-01     -1.725156000000000E+02      5.113525000000000E-01     -8.240234000000000E+01      5.643005000000000E-01      1.783125000000000E+02      7.720032000000000E-01     -9.585546000000000E+01
4874000000.000000      5.568237000000000E-01     -1.727813000000000E+02      5.126648000000000E-01     -8.275782000000000E+01      5.689392000000000E-01      1.781719000000000E+02      7.727661000000000E-01     -9.564453000000000E+01
4875000000.000000      5.589294000000000E-01     -1.731484000000000E+02      5.132446000000000E-01     -8.281641000000000E+01      5.702209000000000E-01      1.777344000000000E+02      7.745972000000000E-01     -9.589844000000000E+01
4876000000.000000      5.573425000000000E-01     -1.732422000000000E+02      5.138855000000000E-01     -8.320313000000000E+01      5.709229000000000E-01      1.778281000000000E+02      7.772827000000000E-01     -9.589062000000000E+01
4877000000.000000      5.582886000000000E-01     -1.734062000000000E+02      5.147400000000000E-01     -8.329296000000000E+01      5.736694000000000E-01      1.775156000000000E+02      7.795715000000000E-01     -9.607811000000000E+01
4878000000.000000      5.581970000000000E-01     -1.736953000000000E+02      5.174561000000000E-01     -8.360155000000000E+01      5.751038000000000E-01      1.774844000000000E+02      7.835388000000000E-01     -9.613670000000000E+01
4879000000.000000      5.592957000000000E-01     -1.738047000000000E+02      5.154724000000000E-01     -8.379297000000000E+01      5.760498000000000E-01      1.771875000000000E+02      7.846069000000000E-01     -9.607811000000000E+01
4880000000.000000      5.578308000000000E-01     -1.738359000000000E+02      5.168457000000000E-01     -8.383593000000000E+01      5.793762000000000E-01      1.770078000000000E+02      7.852783000000000E-01     -9.611717000000000E+01
4881000000.000000      5.581970000000000E-01     -1.740234000000000E+02      5.196533000000000E-01     -8.412109000000000E+01      5.808411000000000E-01      1.767031000000000E+02      7.868958000000000E-01     -9.621094000000000E+01
4882000000.000000      5.561829000000000E-01     -1.741953000000000E+02      5.188904000000000E-01     -8.425781000000000E+01      5.829773000000000E-01      1.766250000000000E+02      7.891541000000000E-01     -9.617577000000000E+01
