! Network Analyzer HP8722D
! Hewlett-Packard
! Data name: Linha & Wilkinson
! Saver's name: Rodrigo Anjos
! Comments: Teste da utilização de aquisição
continua pelo VNA HP8722D
! Time and date: 17/4/2025 14:50
!              Frequency                     S11                                                   S21                                                   S12                                                   S22
# HZ  S  MA R 50
4800000000.000000      3.332825000000000E-01     -1.130508000000000E+02      2.849426000000000E-01     -6.069336000000000E+01      2.789917000000000E-01     -1.749063000000000E+02      6.552734000000000E-01     -8.987108000000000E+01
4801000000.000000      3.316650000000000E-01     -1.139453000000000E+02      2.900543000000000E-01     -6.066601000000000E+01      2.826233000000000E-01     -1.747813000000000E+02      6.543884000000000E-01     -8.995312000000000E+01
4802000000.000000      3.309326000000000E-01     -1.149531000000000E+02      2.936554000000000E-01     -6.066796000000000E+01      2.871552000000000E-01     -1.747266000000000E+02      6.532288000000000E-01     -8.996874000000000E+01
4803000000.000000      3.303375000000000E-01     -1.158945000000000E+02      2.994690000000000E-01     -6.088867000000000E+01      2.899170000000000E-01     -1.744141000000000E+02      6.522827000000000E-01     -9.013281000000000E+01
4804000000.000000      3.300629000000000E-01     -1.168125000000000E+02      3.029327000000000E-01     -6.093945000000000E+01      2.947083000000000E-01     -1.744062000000000E+02      6.517029000000000E-01     -9.008593000000000E+01
4805000000.000000      3.298798000000000E-01     -1.178594000000000E+02      3.086548000000000E-01     -6.105469000000000E+01      2.993317000000000E-01     -1.742578000000000E+02      6.513367000000000E-01     -9.021875000000000E+01
4806000000.000000      3.290253000000000E-01     -1.187812000000000E+02      3.120880000000000E-01     -6.116796000000000E+01      3.024597000000000E-01     -1.740391000000000E+02      6.513062000000000E-01     -9.038280000000000E+01
4807000000.000000      3.292236000000000E-01     -1.199687000000000E+02      3.166656000000000E-01     -6.146679000000000E+01      3.071289000000000E-01     -1.741016000000000E+02      6.498718000000000E-01     -9.041016000000000E+01
4808000000.000000      3.295135000000000E-01     -1.209141000000000E+02      3.213348000000000E-01     -6.134570000000000E+01      3.110199000000000E-01     -1.739063000000000E+02      6.482544000000000E-01     -9.049999000000000E+01
4809000000.000000      3.292847000000000E-01     -1.219765000000000E+02      3.254547000000000E-01     -6.187109000000000E+01      3.159943000000000E-01     -1.740313000000000E+02      6.493225000000000E-01     -9.066406000000000E+01
4810000000.000000      3.308411000000000E-01     -1.231367000000000E+02      3.300629000000000E-01     -6.191211000000000E+01      3.198242000000000E-01     -1.738672000000000E+02      6.486816000000000E-01     -9.079687000000000E+01
4811000000.000000      3.316498000000000E-01     -1.242031000000000E+02      3.348389000000000E-01     -6.212109000000000E+01      3.250580000000000E-01     -1.736641000000000E+02      6.487122000000000E-01     -9.080858000000000E+01
4812000000.000000      3.331299000000000E-01     -1.252656000000000E+02      3.386230000000000E-01     -6.231445000000000E+01      3.279877000000000E-01     -1.736328000000000E+02      6.482849000000000E-01     -9.096483000000000E+01
4813000000.000000      3.339386000000000E-01     -1.263008000000000E+02      3.424835000000000E-01     -6.250781000000000E+01      3.312836000000000E-01     -1.734922000000000E+02      6.487732000000000E-01     -9.092577000000000E+01
4814000000.000000      3.348999000000000E-01     -1.275508000000000E+02      3.468323000000000E-01     -6.267187000000000E+01      3.353882000000000E-01     -1.735469000000000E+02      6.477356000000000E-01     -9.109375000000000E+01
4815000000.000000      3.366852000000000E-01     -1.285391000000000E+02      3.508453000000000E-01     -6.294531000000000E+01      3.394318000000000E-01     -1.735312000000000E+02      6.479797000000000E-01     -9.103516000000000E+01
4816000000.000000      3.391724000000000E-01     -1.296094000000000E+02      3.549500000000000E-01     -6.303320000000000E+01      3.446808000000000E-01     -1.733906000000000E+02      6.488037000000000E-01     -9.112890000000000E+01
4817000000.000000      3.417053000000000E-01     -1.306250000000000E+02      3.588257000000000E-01     -6.329102000000000E+01      3.480682000000000E-01     -1.735000000000000E+02      6.485291000000000E-01     -9.129686000000000E+01
4818000000.000000      3.430481000000000E-01     -1.318047000000000E+02      3.624115000000000E-01     -6.349999000000000E+01      3.525391000000000E-01     -1.733047000000000E+02      6.492615000000000E-01     -9.137110000000000E+01
4819000000.000000      3.462677000000000E-01     -1.328906000000000E+02      3.665466000000000E-01     -6.380859000000000E+01      3.556061000000000E-01     -1.733125000000000E+02      6.503296000000000E-01     -9.146093000000000E+01
4820000000.000000      3.474274000000000E-01     -1.338672000000000E+02      3.704987000000000E-01     -6.402734000000000E+01      3.600922000000000E-01     -1.733125000000000E+02      6.502075000000000E-01     -9.150782000000000E+01
4821000000.000000      3.509979000000000E-01     -1.349844000000000E+02      3.750000000000000E-01     -6.432812000000000E+01      3.640137000000000E-01     -1.733359000000000E+02      6.502075000000000E-01     -9.166796000000000E+01
4822000000.000000      3.555298000000000E-01     -1.361250000000000E+02      3.784485000000000E-01     -6.453125000000000E+01      3.678284000000000E-01     -1.733516000000000E+02      6.524353000000000E-01     -9.156641000000000E+01
4823000000.000000      3.576202000000000E-01     -1.370391000000000E+02      3.822784000000000E-01     -6.485937000000000E+01      3.714600000000000E-01     -1.731328000000000E+02      6.525879000000000E-01     -9.176172000000000E+01
4824000000.000000      3.616333000000000E-01     -1.381484000000000E+02      3.864899000000000E-01     -6.514453000000000E+01      3.759918000000000E-01     -1.732500000000000E+02      6.529846000000000E-01     -9.184765000000000E+01
4825000000.000000      3.645477000000000E-01     -1.391250000000000E+02      3.893127000000000E-01     -6.526172000000000E+01      3.806763000000000E-01     -1.732344000000000E+02      6.533813000000000E-01     -9.190233000000000E+01
4826000000.000000      3.692169000000000E-01     -1.402031000000000E+02      3.937378000000000E-01     -6.563281000000000E+01      3.830566000000000E-01     -1.731953000000000E+02      6.559448000000000E-01     -9.196484000000000E+01
4827000000.000000      3.727875000000000E-01     -1.410000000000000E+02      3.976898000000000E-01     -6.570703000000000E+01      3.878479000000000E-01     -1.732109000000000E+02      6.563721000000000E-01     -9.191015000000000E+01
4828000000.000000      3.776855000000000E-01     -1.420312000000000E+02      4.022827000000000E-01     -6.597265000000000E+01      3.914185000000000E-01     -1.731406000000000E+02      6.593628000000000E-01     -9.207031000000000E+01
4829000000.000000      3.806610000000000E-01     -1.429609000000000E+02      4.036407000000000E-01     -6.644921000000000E+01      3.951874000000000E-01     -1.732500000000000E+02      6.595154000000000E-01     -9.202343000000000E+01
4830000000.000000      3.860168000000000E-01     -1.439141000000000E+02      4.081116000000000E-01     -6.671484000000000E+01      4.000092000000000E-01     -1.732422000000000E+02      6.610718000000000E-01     -9.222265000000000E+01
4831000000.000000      3.897552000000000E-01     -1.447891000000000E+02      4.113770000000000E-01     -6.714453000000000E+01      4.040527000000000E-01     -1.731406000000000E+02      6.628113000000000E-01     -9.226954000000000E+01
4832000000.000000      3.956909000000000E-01     -1.457187000000000E+02      4.149780000000000E-01     -6.730469000000000E+01      4.085846000000000E-01     -1.732891000000000E+02      6.642151000000000E-01     -9.232031000000000E+01
4833000000.000000      4.002838000000000E-01     -1.466172000000000E+02      4.184265000000000E-01     -6.752343000000000E+01      4.125977000000000E-01     -1.733359000000000E+02      6.668396000000000E-01     -9.239843000000000E+01
4834000000.000000      4.044495000000000E-01     -1.475312000000000E+02      4.210663000000000E-01     -6.794140000000000E+01      4.164429000000000E-01     -1.733125000000000E+02      6.675110000000000E-01     -9.243359000000000E+01
4835000000.000000      4.091949000000000E-01     -1.483203000000000E+02      4.253387000000000E-01     -6.812109000000000E+01      4.205322000000000E-01     -1.733359000000000E+02      6.700134000000000E-01     -9.252344000000000E+01
4836000000.000000      4.149780000000000E-01     -1.490937000000000E+02      4.274750000000000E-01     -6.834374000000000E+01      4.247284000000000E-01     -1.733516000000000E+02      6.720276000000000E-01     -9.246094000000000E+01
4837000000.000000      4.198151000000000E-01     -1.498516000000000E+02      4.312286000000000E-01     -6.896874000000000E+01      4.281769000000000E-01     -1.735547000000000E+02      6.741943000000000E-01     -9.250780000000000E+01
4838000000.000000      4.253693000000000E-01     -1.507734000000000E+02      4.356232000000000E-01     -6.901562000000000E+01      4.333649000000000E-01     -1.734922000000000E+02      6.765747000000000E-01     -9.268358000000000E+01
4839000000.000000      4.302216000000000E-01     -1.514141000000000E+02      4.376526000000000E-01     -6.943749000000000E+01      4.369659000000000E-01     -1.735078000000000E+02      6.784973000000000E-01     -9.259375000000000E+01
4840000000.000000      4.349976000000000E-01     -1.522656000000000E+02      4.405060000000000E-01     -6.971484000000000E+01      4.413147000000000E-01     -1.736328000000000E+02      6.798706000000000E-01     -9.261719000000000E+01
4841000000.000000      4.405975000000000E-01     -1.531250000000000E+02      4.436035000000000E-01     -6.999609000000000E+01      4.450684000000000E-01     -1.737969000000000E+02      6.822205000000000E-01     -9.282812000000000E+01
4842000000.000000      4.462128000000000E-01     -1.537422000000000E+02      4.463654000000000E-01     -7.030859000000000E+01      4.482880000000000E-01     -1.737969000000000E+02      6.847839000000000E-01     -9.275782000000000E+01
4843000000.000000      4.505615000000000E-01     -1.545391000000000E+02      4.494019000000000E-01     -7.070703000000000E+01      4.527893000000000E-01     -1.739219000000000E+02      6.868591000000000E-01     -9.287109000000000E+01
4844000000.000000      4.559784000000000E-01     -1.551719000000000E+02      4.523468000000000E-01     -7.114452000000000E+01      4.569550000000000E-01     -1.740625000000000E+02      6.907043000000000E-01     -9.300390000000000E+01
4845000000.000000      4.608459000000000E-01     -1.558437000000000E+02      4.547272000000000E-01     -7.135937000000000E+01      4.612579000000000E-01     -1.740313000000000E+02      6.927795000000000E-01     -9.288671000000000E+01
4846000000.000000      4.658661000000000E-01     -1.564609000000000E+02      4.578400000000000E-01     -7.170703000000000E+01      4.660645000000000E-01     -1.741719000000000E+02      6.943665000000000E-01     -9.291796000000000E+01
4847000000.000000      4.716644000000000E-01     -1.572109000000000E+02      4.601746000000000E-01     -7.190234000000000E+01      4.699860000000000E-01     -1.742734000000000E+02      6.986084000000000E-01     -9.307032000000000E+01
4848000000.000000      4.765625000000000E-01     -1.577812000000000E+02      4.625397000000000E-01     -7.218750000000000E+01      4.734344000000000E-01     -1.743984000000000E+02      6.999512000000000E-01     -9.312109000000000E+01
4849000000.000000      4.814148000000000E-01     -1.586484000000000E+02      4.657745000000000E-01     -7.268749000000000E+01      4.780731000000000E-01     -1.745234000000000E+02      7.030334000000000E-01     -9.315624000000000E+01
4850000000.000000      4.865112000000000E-01     -1.590312000000000E+02      4.677734000000000E-01     -7.290625000000000E+01      4.815521000000000E-01     -1.746094000000000E+02      7.055054000000000E-01     -9.307032000000000E+01
4851000000.000000      4.915924000000000E-01     -1.596406000000000E+02      4.713593000000000E-01     -7.342578000000000E+01      4.851379000000000E-01     -1.747266000000000E+02      7.096863000000000E-01     -9.309374000000000E+01
4852000000.000000      4.965820000000000E-01     -1.602734000000000E+02      4.732971000000000E-01     -7.359375000000000E+01      4.895630000000000E-01     -1.748828000000000E+02      7.129211000000000E-01     -9.324219000000000E+01
4853000000.000000      5.010681000000000E-01     -1.608281000000000E+02      4.740906000000000E-01     -7.395312000000000E+01      4.942017000000000E-01     -1.751016000000000E+02      7.136536000000000E-01     -9.339844000000000E+01
4854000000.000000      5.054626000000000E-01     -1.613672000000000E+02      4.777069000000000E-01     -7.439843000000000E+01      4.967499000000000E-01     -1.751016000000000E+02      7.167053000000000E-01     -9.331249000000000E+01
4855000000.000000      5.092163000000000E-01     -1.619297000000000E+02      4.783478000000000E-01     -7.454296000000000E+01      5.017090000000000E-01     -1.753359000000000E+02      7.203064000000000E-01     -9.330078000000000E+01
4856000000.000000      5.138245000000000E-01     -1.624219000000000E+02      4.817963000000000E-01     -7.493750000000000E+01      5.060425000000000E-01     -1.753750000000000E+02      7.231750000000000E-01     -9.342188000000000E+01
4857000000.000000      5.177002000000000E-01     -1.629922000000000E+02      4.833221000000000E-01     -7.521484000000000E+01      5.093079000000000E-01     -1.755703000000000E+02      7.259521000000000E-01     -9.342577000000000E+01
4858000000.000000      5.202637000000000E-01     -1.634844000000000E+02      4.850769000000000E-01     -7.545703000000000E+01      5.121460000000000E-01     -1.757813000000000E+02      7.288818000000000E-01     -9.349609000000000E+01
4859000000.000000      5.249329000000000E-01     -1.640234000000000E+02      4.876099000000000E-01     -7.589453000000000E+01      5.156250000000000E-01     -1.761016000000000E+02      7.333984000000000E-01     -9.359766000000000E+01
4860000000.000000      5.291138000000000E-01     -1.645234000000000E+02      4.894257000000000E-01     -7.603125000000000E+01      5.184631000000000E-01     -1.761875000000000E+02      7.347717000000000E-01     -9.363281000000000E+01
4861000000.000000      5.324097000000000E-01     -1.648594000000000E+02      4.911652000000000E-01     -7.653515000000000E+01      5.235291000000000E-01     -1.763281000000000E+02      7.367554000000000E-01     -9.372656000000000E+01
4862000000.000000      5.349426000000000E-01     -1.653203000000000E+02      4.942169000000000E-01     -7.677734000000000E+01      5.267029000000000E-01     -1.765156000000000E+02      7.418213000000000E-01     -9.365234000000000E+01
4863000000.000000      5.379333000000000E-01     -1.657109000000000E+02      4.943085000000000E-01     -7.707421000000000E+01      5.304260000000000E-01     -1.767187000000000E+02      7.438965000000000E-01     -9.372656000000000E+01
4864000000.000000      5.411987000000000E-01     -1.661484000000000E+02      4.953918000000000E-01     -7.728516000000000E+01      5.331421000000000E-01     -1.768750000000000E+02      7.458496000000000E-01     -9.365234000000000E+01
4865000000.000000      5.435486000000000E-01     -1.666172000000000E+02      4.956665000000000E-01     -7.751171000000000E+01      5.360107000000000E-01     -1.772187000000000E+02      7.493896000000000E-01     -9.363281000000000E+01
4866000000.000000      5.456848000000000E-01     -1.669531000000000E+02      4.985046000000000E-01     -7.794531000000000E+01      5.389709000000000E-01     -1.773125000000000E+02      7.515564000000000E-01     -9.373827000000000E+01
4867000000.000000      5.478516000000000E-01     -1.672500000000000E+02      4.989929000000000E-01     -7.819530000000000E+01      5.418701000000000E-01     -1.775078000000000E+02      7.566223000000000E-01     -9.376953000000000E+01
4868000000.000000      5.507507000000000E-01     -1.677344000000000E+02      5.027161000000000E-01     -7.857422000000000E+01      5.474243000000000E-01     -1.776172000000000E+02      7.574158000000000E-01     -9.376562000000000E+01
4869000000.000000      5.518188000000000E-01     -1.679844000000000E+02      5.007324000000000E-01     -7.883984000000000E+01      5.488281000000000E-01     -1.778594000000000E+02      7.615356000000000E-01     -9.405468000000000E+01
4870000000.000000      5.538025000000000E-01     -1.683906000000000E+02      5.041504000000000E-01     -7.883594000000000E+01      5.516357000000000E-01     -1.779687000000000E+02      7.633972000000000E-01     -9.384375000000000E+01
4871000000.000000      5.560913000000000E-01     -1.686875000000000E+02      5.039063000000000E-01     -7.928515000000000E+01      5.544434000000000E-01     -1.782578000000000E+02      7.646484000000000E-01     -9.396875000000000E+01
4872000000.000000      5.581970000000000E-01     -1.689141000000000E+02      5.035095000000000E-01     -7.941406000000000E+01      5.567627000000000E-01     -1.786641000000000E+02      7.691650000000000E-01     -9.405468000000000E+01
4873000000.000000      5.580139000000000E-01     -1.691250000000000E+02      5.062256000000000E-01     -7.989452000000000E+01      5.594788000000000E-01     -1.787031000000000E+02      7.709656000000000E-01     -9.407812000000000E+01
4874000000.000000      5.591736000000000E-01     -1.694297000000000E+02      5.078735000000000E-01     -8.014452000000000E+01      5.626831000000000E-01     -1.788359000000000E+02      7.728882000000000E-01     -9.403124000000000E+01
4875000000.000000      5.617371000000000E-01     -1.696797000000000E+02      5.099182000000000E-01     -8.033983000000000E+01      5.628052000000000E-01     -1.793047000000000E+02      7.754211000000000E-01     -9.412500000000000E+01
4876000000.000000      5.607605000000000E-01     -1.698906000000000E+02      5.103760000000000E-01     -8.051561000000000E+01      5.667419000000000E-01     -1.794062000000000E+02      7.801514000000000E-01     -9.420702000000000E+01
4877000000.000000      5.615540000000000E-01     -1.700625000000000E+02      5.116577000000000E-01     -8.071093000000000E+01      5.712891000000000E-01     -1.796953000000000E+02      7.805786000000000E-01     -9.432812000000000E+01
4878000000.000000      5.622559000000000E-01     -1.703203000000000E+02      5.130310000000000E-01     -8.095312000000000E+01      5.713806000000000E-01     -1.798437000000000E+02      7.839050000000000E-01     -9.433985000000000E+01
4879000000.000000      5.637817000000000E-01     -1.704922000000000E+02      5.112610000000000E-01     -8.102734000000000E+01      5.735474000000000E-01     -1.799453000000000E+02      7.843323000000000E-01     -9.422655000000000E+01
4880000000.000000      5.629883000000000E-01     -1.706719000000000E+02      5.137939000000000E-01     -8.129297000000000E+01      5.746765000000000E-01      1.798281000000000E+02      7.879333000000000E-01     -9.428905000000000E+01
4881000000.000000      5.636597000000000E-01     -1.707266000000000E+02      5.161438000000000E-01     -8.145311000000000E+01      5.777893000000000E-01      1.794297000000000E+02      7.894592000000000E-01     -9.440233000000000E+01
4882000000.000000      5.626526000000000E-01     -1.709297000000000E+02      5.151672000000000E-01     -8.179688000000000E+01      5.806885000000000E-01      1.792422000000000E+02      7.916260000000000E-01     -9.447266000000000E+01
