! Network Analyzer HP8722D
! Hewlett-Packard
! Data name: Linha & Wilkinson
! Saver's name: Rodrigo Anjos
! Comments: Teste da utilização de aquisição
continua pelo VNA HP8722D
! Time and date: 17/4/2025 15:22
!              Frequency                     S11                                                   S21                                                   S12                                                   S22
# HZ  S  MA R 50
4800000000.000000      3.335114000000000E-01     -1.131484000000000E+02      2.878418000000000E-01     -6.087695000000000E+01      2.834625000000000E-01     -1.750625000000000E+02      6.563416000000000E-01     -9.017969000000000E+01
4801000000.000000      3.320465000000000E-01     -1.141133000000000E+02      2.934875000000000E-01     -6.083789000000000E+01      2.868958000000000E-01     -1.749687000000000E+02      6.547241000000000E-01     -9.023046000000000E+01
4802000000.000000      3.307495000000000E-01     -1.150469000000000E+02      2.975311000000000E-01     -6.095117000000000E+01      2.912903000000000E-01     -1.748203000000000E+02      6.541443000000000E-01     -9.017969000000000E+01
4803000000.000000      3.303833000000000E-01     -1.161055000000000E+02      3.024750000000000E-01     -6.104101000000000E+01      2.948456000000000E-01     -1.746797000000000E+02      6.534119000000000E-01     -9.031250000000000E+01
4804000000.000000      3.296356000000000E-01     -1.170898000000000E+02      3.058319000000000E-01     -6.109961000000000E+01      2.998810000000000E-01     -1.747109000000000E+02      6.525269000000000E-01     -9.032421000000000E+01
4805000000.000000      3.297729000000000E-01     -1.180625000000000E+02      3.107910000000000E-01     -6.133398000000000E+01      3.037567000000000E-01     -1.744062000000000E+02      6.519470000000000E-01     -9.063280000000000E+01
4806000000.000000      3.296814000000000E-01     -1.190195000000000E+02      3.160095000000000E-01     -6.134375000000000E+01      3.068695000000000E-01     -1.743203000000000E+02      6.508484000000000E-01     -9.068359000000000E+01
4807000000.000000      3.295746000000000E-01     -1.202226000000000E+02      3.195496000000000E-01     -6.147070000000000E+01      3.115997000000000E-01     -1.744609000000000E+02      6.503906000000000E-01     -9.074610000000000E+01
4808000000.000000      3.301849000000000E-01     -1.211797000000000E+02      3.245544000000000E-01     -6.169140000000000E+01      3.150330000000000E-01     -1.743906000000000E+02      6.493835000000000E-01     -9.081640000000000E+01
4809000000.000000      3.302917000000000E-01     -1.222969000000000E+02      3.292542000000000E-01     -6.204687000000000E+01      3.203430000000000E-01     -1.743359000000000E+02      6.504822000000000E-01     -9.107031000000000E+01
4810000000.000000      3.308868000000000E-01     -1.233906000000000E+02      3.330994000000000E-01     -6.206249000000000E+01      3.237915000000000E-01     -1.741250000000000E+02      6.494751000000000E-01     -9.105860000000000E+01
4811000000.000000      3.319550000000000E-01     -1.244687000000000E+02      3.376465000000000E-01     -6.238867000000000E+01      3.288574000000000E-01     -1.740234000000000E+02      6.485596000000000E-01     -9.099609000000000E+01
4812000000.000000      3.330536000000000E-01     -1.253633000000000E+02      3.423157000000000E-01     -6.256836000000000E+01      3.322449000000000E-01     -1.739141000000000E+02      6.484070000000000E-01     -9.125000000000000E+01
4813000000.000000      3.339844000000000E-01     -1.265078000000000E+02      3.457336000000000E-01     -6.272655000000000E+01      3.354187000000000E-01     -1.739063000000000E+02      6.489258000000000E-01     -9.120312000000000E+01
4814000000.000000      3.344879000000000E-01     -1.277812000000000E+02      3.493195000000000E-01     -6.300976000000000E+01      3.398285000000000E-01     -1.738516000000000E+02      6.492310000000000E-01     -9.130859000000000E+01
4815000000.000000      3.366089000000000E-01     -1.287031000000000E+02      3.536987000000000E-01     -6.322266000000000E+01      3.427582000000000E-01     -1.736797000000000E+02      6.489563000000000E-01     -9.136328000000000E+01
4816000000.000000      3.388519000000000E-01     -1.297812000000000E+02      3.583069000000000E-01     -6.332421000000000E+01      3.486938000000000E-01     -1.738125000000000E+02      6.492004000000000E-01     -9.135937000000000E+01
4817000000.000000      3.415680000000000E-01     -1.308359000000000E+02      3.621674000000000E-01     -6.354101000000000E+01      3.514862000000000E-01     -1.737578000000000E+02      6.486511000000000E-01     -9.164843000000000E+01
4818000000.000000      3.438110000000000E-01     -1.320625000000000E+02      3.657532000000000E-01     -6.385937000000000E+01      3.553772000000000E-01     -1.737422000000000E+02      6.486816000000000E-01     -9.167187000000000E+01
4819000000.000000      3.456726000000000E-01     -1.330312000000000E+02      3.695831000000000E-01     -6.411327000000000E+01      3.594055000000000E-01     -1.736641000000000E+02      6.520691000000000E-01     -9.175390000000000E+01
4820000000.000000      3.473358000000000E-01     -1.340312000000000E+02      3.734589000000000E-01     -6.431641000000000E+01      3.639221000000000E-01     -1.736562000000000E+02      6.510010000000000E-01     -9.180079000000000E+01
4821000000.000000      3.512878000000000E-01     -1.351641000000000E+02      3.780212000000000E-01     -6.467578000000000E+01      3.672638000000000E-01     -1.737734000000000E+02      6.511536000000000E-01     -9.191797000000000E+01
4822000000.000000      3.554382000000000E-01     -1.362422000000000E+02      3.807983000000000E-01     -6.483984000000000E+01      3.715668000000000E-01     -1.737266000000000E+02      6.522522000000000E-01     -9.189844000000000E+01
4823000000.000000      3.580322000000000E-01     -1.372734000000000E+02      3.851776000000000E-01     -6.503906000000000E+01      3.752136000000000E-01     -1.735937000000000E+02      6.535645000000000E-01     -9.203905000000000E+01
4824000000.000000      3.619995000000000E-01     -1.383594000000000E+02      3.894958000000000E-01     -6.542969000000000E+01      3.804932000000000E-01     -1.737187000000000E+02      6.545105000000000E-01     -9.203125000000000E+01
4825000000.000000      3.650818000000000E-01     -1.392344000000000E+02      3.928528000000000E-01     -6.555859000000000E+01      3.838348000000000E-01     -1.735469000000000E+02      6.548462000000000E-01     -9.214453000000000E+01
4826000000.000000      3.695068000000000E-01     -1.403672000000000E+02      3.964844000000000E-01     -6.590234000000000E+01      3.870544000000000E-01     -1.736719000000000E+02      6.559448000000000E-01     -9.229296000000000E+01
4827000000.000000      3.738403000000000E-01     -1.412109000000000E+02      4.001770000000000E-01     -6.605078000000000E+01      3.905640000000000E-01     -1.735547000000000E+02      6.577454000000000E-01     -9.227343000000000E+01
4828000000.000000      3.780518000000000E-01     -1.421719000000000E+02      4.042053000000000E-01     -6.632813000000000E+01      3.948212000000000E-01     -1.735781000000000E+02      6.599121000000000E-01     -9.234375000000000E+01
4829000000.000000      3.805695000000000E-01     -1.430859000000000E+02      4.061584000000000E-01     -6.662109000000000E+01      3.994141000000000E-01     -1.735781000000000E+02      6.613464000000000E-01     -9.238281000000000E+01
4830000000.000000      3.862305000000000E-01     -1.441172000000000E+02      4.104767000000000E-01     -6.704296000000000E+01      4.037170000000000E-01     -1.736328000000000E+02      6.619873000000000E-01     -9.254686000000000E+01
4831000000.000000      3.899231000000000E-01     -1.449609000000000E+02      4.137878000000000E-01     -6.730078000000000E+01      4.080658000000000E-01     -1.735391000000000E+02      6.639709000000000E-01     -9.255859000000000E+01
4832000000.000000      3.956909000000000E-01     -1.458828000000000E+02      4.179077000000000E-01     -6.759375000000000E+01      4.114075000000000E-01     -1.736406000000000E+02      6.654358000000000E-01     -9.258984000000000E+01
4833000000.000000      4.005585000000000E-01     -1.468750000000000E+02      4.206848000000000E-01     -6.790234000000000E+01      4.156799000000000E-01     -1.737813000000000E+02      6.668091000000000E-01     -9.270311000000000E+01
4834000000.000000      4.054565000000000E-01     -1.477109000000000E+02      4.243317000000000E-01     -6.818749000000000E+01      4.195862000000000E-01     -1.737656000000000E+02      6.674500000000000E-01     -9.270702000000000E+01
4835000000.000000      4.095459000000000E-01     -1.485000000000000E+02      4.276581000000000E-01     -6.849609000000000E+01      4.245911000000000E-01     -1.738672000000000E+02      6.712646000000000E-01     -9.285547000000000E+01
4836000000.000000      4.154510000000000E-01     -1.493047000000000E+02      4.300690000000000E-01     -6.866796000000000E+01      4.278259000000000E-01     -1.738359000000000E+02      6.737366000000000E-01     -9.270311000000000E+01
4837000000.000000      4.202881000000000E-01     -1.500703000000000E+02      4.329071000000000E-01     -6.934765000000000E+01      4.315948000000000E-01     -1.739609000000000E+02      6.743774000000000E-01     -9.294140000000000E+01
4838000000.000000      4.256897000000000E-01     -1.510156000000000E+02      4.380951000000000E-01     -6.939453000000000E+01      4.359589000000000E-01     -1.739063000000000E+02      6.770630000000000E-01     -9.296093000000000E+01
4839000000.000000      4.309998000000000E-01     -1.516172000000000E+02      4.398041000000000E-01     -6.974609000000000E+01      4.400482000000000E-01     -1.740156000000000E+02      6.797180000000000E-01     -9.289843000000000E+01
4840000000.000000      4.355011000000000E-01     -1.524844000000000E+02      4.427948000000000E-01     -7.006640000000000E+01      4.440918000000000E-01     -1.741484000000000E+02      6.813049000000000E-01     -9.296093000000000E+01
4841000000.000000      4.410706000000000E-01     -1.533594000000000E+02      4.463043000000000E-01     -7.035546000000000E+01      4.481049000000000E-01     -1.742969000000000E+02      6.833496000000000E-01     -9.314844000000000E+01
4842000000.000000      4.466248000000000E-01     -1.539219000000000E+02      4.488678000000000E-01     -7.071094000000000E+01      4.514313000000000E-01     -1.742500000000000E+02      6.864014000000000E-01     -9.308203000000000E+01
4843000000.000000      4.512787000000000E-01     -1.547500000000000E+02      4.513092000000000E-01     -7.117969000000000E+01      4.557953000000000E-01     -1.743047000000000E+02      6.885986000000000E-01     -9.323828000000000E+01
4844000000.000000      4.564972000000000E-01     -1.554062000000000E+02      4.539337000000000E-01     -7.135547000000000E+01      4.596558000000000E-01     -1.744688000000000E+02      6.921692000000000E-01     -9.328905000000000E+01
4845000000.000000      4.611969000000000E-01     -1.560469000000000E+02      4.571381000000000E-01     -7.158984000000000E+01      4.646606000000000E-01     -1.745781000000000E+02      6.925354000000000E-01     -9.324610000000000E+01
4846000000.000000      4.666138000000000E-01     -1.566328000000000E+02      4.595947000000000E-01     -7.189843000000000E+01      4.687805000000000E-01     -1.746016000000000E+02      6.961975000000000E-01     -9.330469000000000E+01
4847000000.000000      4.723511000000000E-01     -1.574219000000000E+02      4.620819000000000E-01     -7.231640000000000E+01      4.727325000000000E-01     -1.747969000000000E+02      6.997986000000000E-01     -9.349218000000000E+01
4848000000.000000      4.770660000000000E-01     -1.580000000000000E+02      4.640656000000000E-01     -7.260547000000000E+01      4.761810000000000E-01     -1.748594000000000E+02      7.006226000000000E-01     -9.335546000000000E+01
4849000000.000000      4.821472000000000E-01     -1.588672000000000E+02      4.671783000000000E-01     -7.309375000000000E+01      4.808502000000000E-01     -1.750156000000000E+02      7.041626000000000E-01     -9.346874000000000E+01
4850000000.000000      4.868622000000000E-01     -1.592734000000000E+02      4.701233000000000E-01     -7.319530000000000E+01      4.843903000000000E-01     -1.750547000000000E+02      7.077026000000000E-01     -9.333593000000000E+01
4851000000.000000      4.923553000000000E-01     -1.598906000000000E+02      4.718170000000000E-01     -7.380468000000000E+01      4.880524000000000E-01     -1.752266000000000E+02      7.100220000000000E-01     -9.352734000000000E+01
4852000000.000000      4.967957000000000E-01     -1.604453000000000E+02      4.745636000000000E-01     -7.392968000000000E+01      4.925385000000000E-01     -1.752812000000000E+02      7.131348000000000E-01     -9.356249000000000E+01
4853000000.000000      5.016174000000000E-01     -1.610547000000000E+02      4.753265000000000E-01     -7.417187000000000E+01      4.963531000000000E-01     -1.755703000000000E+02      7.156982000000000E-01     -9.374609000000000E+01
4854000000.000000      5.058899000000000E-01     -1.616328000000000E+02      4.789886000000000E-01     -7.483203000000000E+01      5.002747000000000E-01     -1.756797000000000E+02      7.182617000000000E-01     -9.358984000000000E+01
4855000000.000000      5.087585000000000E-01     -1.622031000000000E+02      4.795990000000000E-01     -7.495703000000000E+01      5.035095000000000E-01     -1.758125000000000E+02      7.201843000000000E-01     -9.368750000000000E+01
4856000000.000000      5.140076000000000E-01     -1.626406000000000E+02      4.820099000000000E-01     -7.525000000000000E+01      5.077820000000000E-01     -1.759063000000000E+02      7.258606000000000E-01     -9.382421000000000E+01
4857000000.000000      5.181885000000000E-01     -1.632187000000000E+02      4.848022000000000E-01     -7.552734000000000E+01      5.114136000000000E-01     -1.760234000000000E+02      7.276306000000000E-01     -9.374218000000000E+01
4858000000.000000      5.209656000000000E-01     -1.637031000000000E+02      4.863892000000000E-01     -7.576562000000000E+01      5.140381000000000E-01     -1.762500000000000E+02      7.282715000000000E-01     -9.395702000000000E+01
4859000000.000000      5.244141000000000E-01     -1.641484000000000E+02      4.891052000000000E-01     -7.621094000000000E+01      5.170898000000000E-01     -1.764922000000000E+02      7.338867000000000E-01     -9.394140000000000E+01
4860000000.000000      5.291748000000000E-01     -1.646875000000000E+02      4.897919000000000E-01     -7.626953000000000E+01      5.207214000000000E-01     -1.766719000000000E+02      7.361755000000000E-01     -9.390625000000000E+01
4861000000.000000      5.330200000000000E-01     -1.651016000000000E+02      4.911499000000000E-01     -7.691406000000000E+01      5.253296000000000E-01     -1.767109000000000E+02      7.380981000000000E-01     -9.397655000000000E+01
4862000000.000000      5.350342000000000E-01     -1.654531000000000E+02      4.939728000000000E-01     -7.707421000000000E+01      5.293579000000000E-01     -1.768672000000000E+02      7.426758000000000E-01     -9.409374000000000E+01
4863000000.000000      5.382385000000000E-01     -1.659922000000000E+02      4.947052000000000E-01     -7.742969000000000E+01      5.323792000000000E-01     -1.770703000000000E+02      7.446289000000000E-01     -9.409765000000000E+01
4864000000.000000      5.410767000000000E-01     -1.663281000000000E+02      4.971008000000000E-01     -7.740624000000000E+01      5.351257000000000E-01     -1.773125000000000E+02      7.476196000000000E-01     -9.405077000000000E+01
4865000000.000000      5.432129000000000E-01     -1.668359000000000E+02      4.965973000000000E-01     -7.796484000000000E+01      5.380554000000000E-01     -1.776016000000000E+02      7.495422000000000E-01     -9.398829000000000E+01
4866000000.000000      5.456848000000000E-01     -1.671406000000000E+02      5.003357000000000E-01     -7.824609000000000E+01      5.414734000000000E-01     -1.777031000000000E+02      7.522278000000000E-01     -9.410156000000000E+01
4867000000.000000      5.487366000000000E-01     -1.673828000000000E+02      5.003357000000000E-01     -7.853516000000000E+01      5.447388000000000E-01     -1.779063000000000E+02      7.567749000000000E-01     -9.415625000000000E+01
4868000000.000000      5.505981000000000E-01     -1.678516000000000E+02      5.025940000000000E-01     -7.889453000000000E+01      5.491638000000000E-01     -1.780234000000000E+02      7.581787000000000E-01     -9.419531000000000E+01
4869000000.000000      5.510254000000000E-01     -1.681406000000000E+02      5.033264000000000E-01     -7.921484000000000E+01      5.495300000000000E-01     -1.783437000000000E+02      7.615967000000000E-01     -9.446875000000000E+01
4870000000.000000      5.536194000000000E-01     -1.684922000000000E+02      5.043030000000000E-01     -7.914844000000000E+01      5.530090000000000E-01     -1.785156000000000E+02      7.652588000000000E-01     -9.427343000000000E+01
4871000000.000000      5.563660000000000E-01     -1.688906000000000E+02      5.051880000000000E-01     -7.967187000000000E+01      5.556030000000000E-01     -1.787812000000000E+02      7.657776000000000E-01     -9.437500000000000E+01
4872000000.000000      5.576782000000000E-01     -1.691094000000000E+02      5.069580000000000E-01     -7.980078000000000E+01      5.581360000000000E-01     -1.790859000000000E+02      7.700195000000000E-01     -9.447266000000000E+01
4873000000.000000      5.583801000000000E-01     -1.692422000000000E+02      5.075378000000000E-01     -8.020311000000000E+01      5.595093000000000E-01     -1.791484000000000E+02      7.708435000000000E-01     -9.448046000000000E+01
4874000000.000000      5.591431000000000E-01     -1.696016000000000E+02      5.071411000000000E-01     -8.035547000000000E+01      5.639038000000000E-01     -1.793672000000000E+02      7.748108000000000E-01     -9.437500000000000E+01
4875000000.000000      5.610046000000000E-01     -1.699062000000000E+02      5.083923000000000E-01     -8.050390000000000E+01      5.674438000000000E-01     -1.796484000000000E+02      7.758484000000000E-01     -9.447657000000000E+01
4876000000.000000      5.607300000000000E-01     -1.701562000000000E+02      5.109863000000000E-01     -8.079296000000000E+01      5.677795000000000E-01     -1.796875000000000E+02      7.780762000000000E-01     -9.456249000000000E+01
4877000000.000000      5.614014000000000E-01     -1.702500000000000E+02      5.121765000000000E-01     -8.096483000000000E+01      5.710449000000000E-01      1.798359000000000E+02      7.815247000000000E-01     -9.468359000000000E+01
4878000000.000000      5.625000000000000E-01     -1.704766000000000E+02      5.131226000000000E-01     -8.126171000000000E+01      5.731201000000000E-01      1.797031000000000E+02      7.833252000000000E-01     -9.459764000000000E+01
4879000000.000000      5.634766000000000E-01     -1.706406000000000E+02      5.122681000000000E-01     -8.132030000000000E+01      5.748596000000000E-01      1.795703000000000E+02      7.859802000000000E-01     -9.472656000000000E+01
4880000000.000000      5.626526000000000E-01     -1.709063000000000E+02      5.133057000000000E-01     -8.180468000000000E+01      5.775757000000000E-01      1.793359000000000E+02      7.878418000000000E-01     -9.471094000000000E+01
4881000000.000000      5.640869000000000E-01     -1.709687000000000E+02      5.157776000000000E-01     -8.162500000000000E+01      5.789185000000000E-01      1.790781000000000E+02      7.906189000000000E-01     -9.478125000000000E+01
4882000000.000000      5.621948000000000E-01     -1.711562000000000E+02      5.170593000000000E-01     -8.212109000000000E+01      5.809021000000000E-01      1.789609000000000E+02      7.907410000000000E-01     -9.482031000000000E+01
