! Network Analyzer HP8722D
! Hewlett-Packard
! Data name: Linha & Wilkinson
! Saver's name: Rodrigo Anjos
! Comments: Teste da utilização de aquisição
continua pelo VNA HP8722D
! Time and date: 17/4/2025 14:49
!              Frequency                     S11                                                   S21                                                   S12                                                   S22
# HZ  S  MA R 50
4800000000.000000      3.328705000000000E-01     -1.130469000000000E+02      2.854004000000000E-01     -6.055859000000000E+01      2.787933000000000E-01     -1.748203000000000E+02      6.550903000000000E-01     -8.989061000000000E+01
4801000000.000000      3.319397000000000E-01     -1.138945000000000E+02      2.896729000000000E-01     -6.078711000000000E+01      2.826538000000000E-01     -1.747578000000000E+02      6.533203000000000E-01     -8.998047000000000E+01
4802000000.000000      3.311005000000000E-01     -1.148438000000000E+02      2.933960000000000E-01     -6.086523000000000E+01      2.872620000000000E-01     -1.745937000000000E+02      6.524353000000000E-01     -8.993750000000000E+01
4803000000.000000      3.302307000000000E-01     -1.159023000000000E+02      2.991333000000000E-01     -6.087891000000000E+01      2.906647000000000E-01     -1.743594000000000E+02      6.521912000000000E-01     -9.008593000000000E+01
4804000000.000000      3.295135000000000E-01     -1.169883000000000E+02      3.029938000000000E-01     -6.101563000000000E+01      2.953491000000000E-01     -1.743906000000000E+02      6.516418000000000E-01     -9.017187000000000E+01
4805000000.000000      3.301697000000000E-01     -1.178555000000000E+02      3.079529000000000E-01     -6.122460000000000E+01      2.992859000000000E-01     -1.742031000000000E+02      6.519470000000000E-01     -9.026171000000000E+01
4806000000.000000      3.296814000000000E-01     -1.188750000000000E+02      3.122864000000000E-01     -6.118945000000000E+01      3.030548000000000E-01     -1.740781000000000E+02      6.509094000000000E-01     -9.048828000000000E+01
4807000000.000000      3.292084000000000E-01     -1.199336000000000E+02      3.163605000000000E-01     -6.137695000000000E+01      3.068237000000000E-01     -1.741328000000000E+02      6.499939000000000E-01     -9.043360000000000E+01
4808000000.000000      3.297729000000000E-01     -1.210000000000000E+02      3.218079000000000E-01     -6.139257000000000E+01      3.113708000000000E-01     -1.740156000000000E+02      6.477051000000000E-01     -9.061327000000000E+01
4809000000.000000      3.297882000000000E-01     -1.220273000000000E+02      3.253632000000000E-01     -6.177343000000000E+01      3.157196000000000E-01     -1.739922000000000E+02      6.487122000000000E-01     -9.061718000000000E+01
4810000000.000000      3.306122000000000E-01     -1.232656000000000E+02      3.305054000000000E-01     -6.187109000000000E+01      3.199615000000000E-01     -1.739297000000000E+02      6.485901000000000E-01     -9.082031000000000E+01
4811000000.000000      3.313141000000000E-01     -1.242617000000000E+02      3.352661000000000E-01     -6.221874000000000E+01      3.246155000000000E-01     -1.737344000000000E+02      6.484070000000000E-01     -9.069139000000000E+01
4812000000.000000      3.333282000000000E-01     -1.252305000000000E+02      3.388062000000000E-01     -6.234961000000000E+01      3.279572000000000E-01     -1.737266000000000E+02      6.484070000000000E-01     -9.088282000000000E+01
4813000000.000000      3.341980000000000E-01     -1.262734000000000E+02      3.421936000000000E-01     -6.231445000000000E+01      3.319092000000000E-01     -1.735547000000000E+02      6.479797000000000E-01     -9.088282000000000E+01
4814000000.000000      3.353271000000000E-01     -1.275664000000000E+02      3.467712000000000E-01     -6.276953000000000E+01      3.353577000000000E-01     -1.735469000000000E+02      6.481628000000000E-01     -9.106640000000000E+01
4815000000.000000      3.368988000000000E-01     -1.285156000000000E+02      3.511047000000000E-01     -6.297070000000000E+01      3.395844000000000E-01     -1.734375000000000E+02      6.465759000000000E-01     -9.109766000000000E+01
4816000000.000000      3.388062000000000E-01     -1.295547000000000E+02      3.552856000000000E-01     -6.294140000000000E+01      3.443756000000000E-01     -1.733203000000000E+02      6.479187000000000E-01     -9.120703000000000E+01
4817000000.000000      3.412323000000000E-01     -1.306641000000000E+02      3.596039000000000E-01     -6.344921000000000E+01      3.475952000000000E-01     -1.734531000000000E+02      6.474915000000000E-01     -9.136719000000000E+01
4818000000.000000      3.428192000000000E-01     -1.317266000000000E+02      3.628387000000000E-01     -6.356640000000000E+01      3.522186000000000E-01     -1.732344000000000E+02      6.482544000000000E-01     -9.131639000000000E+01
4819000000.000000      3.457489000000000E-01     -1.328281000000000E+02      3.672333000000000E-01     -6.369531000000000E+01      3.554840000000000E-01     -1.732578000000000E+02      6.496582000000000E-01     -9.149609000000000E+01
4820000000.000000      3.470459000000000E-01     -1.338828000000000E+02      3.710785000000000E-01     -6.403515000000000E+01      3.598175000000000E-01     -1.733359000000000E+02      6.505737000000000E-01     -9.161327000000000E+01
4821000000.000000      3.511810000000000E-01     -1.349766000000000E+02      3.752899000000000E-01     -6.429688000000000E+01      3.638153000000000E-01     -1.733672000000000E+02      6.495056000000000E-01     -9.173046000000000E+01
4822000000.000000      3.553009000000000E-01     -1.360156000000000E+02      3.787384000000000E-01     -6.457421000000000E+01      3.678741000000000E-01     -1.733438000000000E+02      6.515808000000000E-01     -9.159765000000000E+01
4823000000.000000      3.572235000000000E-01     -1.371484000000000E+02      3.829651000000000E-01     -6.481640000000000E+01      3.716736000000000E-01     -1.730937000000000E+02      6.526794000000000E-01     -9.166796000000000E+01
4824000000.000000      3.614960000000000E-01     -1.382187000000000E+02      3.862915000000000E-01     -6.507813000000000E+01      3.766632000000000E-01     -1.732578000000000E+02      6.530762000000000E-01     -9.178905000000000E+01
4825000000.000000      3.645630000000000E-01     -1.391016000000000E+02      3.892365000000000E-01     -6.531250000000000E+01      3.800354000000000E-01     -1.732265000000000E+02      6.547546000000000E-01     -9.183203000000000E+01
4826000000.000000      3.689880000000000E-01     -1.401797000000000E+02      3.940125000000000E-01     -6.569140000000000E+01      3.831329000000000E-01     -1.732422000000000E+02      6.560669000000000E-01     -9.192577000000000E+01
4827000000.000000      3.730164000000000E-01     -1.410156000000000E+02      3.980408000000000E-01     -6.571094000000000E+01      3.875885000000000E-01     -1.732188000000000E+02      6.574097000000000E-01     -9.191797000000000E+01
4828000000.000000      3.777924000000000E-01     -1.420547000000000E+02      4.022675000000000E-01     -6.612890000000000E+01      3.923798000000000E-01     -1.732265000000000E+02      6.597595000000000E-01     -9.210155000000000E+01
4829000000.000000      3.804474000000000E-01     -1.429375000000000E+02      4.044189000000000E-01     -6.643749000000000E+01      3.958435000000000E-01     -1.731875000000000E+02      6.594238000000000E-01     -9.202343000000000E+01
4830000000.000000      3.856659000000000E-01     -1.439141000000000E+02      4.073639000000000E-01     -6.683594000000000E+01      4.001465000000000E-01     -1.732500000000000E+02      6.613770000000000E-01     -9.225000000000000E+01
4831000000.000000      3.897095000000000E-01     -1.448125000000000E+02      4.113464000000000E-01     -6.710546000000000E+01      4.044647000000000E-01     -1.732422000000000E+02      6.631775000000000E-01     -9.217577000000000E+01
4832000000.000000      3.953552000000000E-01     -1.456953000000000E+02      4.149933000000000E-01     -6.727344000000000E+01      4.079742000000000E-01     -1.732422000000000E+02      6.647949000000000E-01     -9.232813000000000E+01
4833000000.000000      4.001465000000000E-01     -1.466641000000000E+02      4.193726000000000E-01     -6.760547000000000E+01      4.121704000000000E-01     -1.734062000000000E+02      6.665039000000000E-01     -9.239061000000000E+01
4834000000.000000      4.044800000000000E-01     -1.475234000000000E+02      4.222565000000000E-01     -6.783203000000000E+01      4.161072000000000E-01     -1.733750000000000E+02      6.669617000000000E-01     -9.243359000000000E+01
4835000000.000000      4.092865000000000E-01     -1.483359000000000E+02      4.250183000000000E-01     -6.816015000000000E+01      4.204407000000000E-01     -1.733594000000000E+02      6.701660000000000E-01     -9.255077000000000E+01
4836000000.000000      4.151764000000000E-01     -1.490859000000000E+02      4.281311000000000E-01     -6.838672000000000E+01      4.242249000000000E-01     -1.733594000000000E+02      6.710205000000000E-01     -9.253124000000000E+01
4837000000.000000      4.198303000000000E-01     -1.499141000000000E+02      4.320831000000000E-01     -6.905468000000000E+01      4.281769000000000E-01     -1.735547000000000E+02      6.729431000000000E-01     -9.262499000000000E+01
4838000000.000000      4.255219000000000E-01     -1.508437000000000E+02      4.345551000000000E-01     -6.909765000000000E+01      4.331970000000000E-01     -1.735156000000000E+02      6.748047000000000E-01     -9.260937000000000E+01
4839000000.000000      4.306183000000000E-01     -1.514609000000000E+02      4.381104000000000E-01     -6.926171000000000E+01      4.370117000000000E-01     -1.735703000000000E+02      6.788025000000000E-01     -9.249218000000000E+01
4840000000.000000      4.349365000000000E-01     -1.523047000000000E+02      4.408417000000000E-01     -6.977734000000000E+01      4.408569000000000E-01     -1.736406000000000E+02      6.795959000000000E-01     -9.271484000000000E+01
4841000000.000000      4.405975000000000E-01     -1.531484000000000E+02      4.439392000000000E-01     -7.027734000000000E+01      4.455261000000000E-01     -1.737734000000000E+02      6.828613000000000E-01     -9.281641000000000E+01
4842000000.000000      4.460754000000000E-01     -1.537969000000000E+02      4.471436000000000E-01     -7.044531000000000E+01      4.480743000000000E-01     -1.738672000000000E+02      6.855774000000000E-01     -9.276562000000000E+01
4843000000.000000      4.507904000000000E-01     -1.545625000000000E+02      4.507446000000000E-01     -7.075781000000000E+01      4.527435000000000E-01     -1.738672000000000E+02      6.876526000000000E-01     -9.289843000000000E+01
4844000000.000000      4.554749000000000E-01     -1.552109000000000E+02      4.528503000000000E-01     -7.104687000000000E+01      4.569855000000000E-01     -1.740313000000000E+02      6.897888000000000E-01     -9.294531000000000E+01
4845000000.000000      4.608459000000000E-01     -1.558672000000000E+02      4.550781000000000E-01     -7.142187000000000E+01      4.614105000000000E-01     -1.740859000000000E+02      6.914368000000000E-01     -9.288280000000000E+01
4846000000.000000      4.658813000000000E-01     -1.564687000000000E+02      4.576416000000000E-01     -7.165625000000000E+01      4.656525000000000E-01     -1.741875000000000E+02      6.960144000000000E-01     -9.297655000000000E+01
4847000000.000000      4.720764000000000E-01     -1.572422000000000E+02      4.604034000000000E-01     -7.201953000000000E+01      4.698944000000000E-01     -1.743984000000000E+02      6.981506000000000E-01     -9.316406000000000E+01
4848000000.000000      4.767609000000000E-01     -1.577969000000000E+02      4.624786000000000E-01     -7.224609000000000E+01      4.737396000000000E-01     -1.743750000000000E+02      6.995850000000000E-01     -9.316015000000000E+01
4849000000.000000      4.816895000000000E-01     -1.586719000000000E+02      4.660034000000000E-01     -7.266015000000000E+01      4.779510000000000E-01     -1.745469000000000E+02      7.027283000000000E-01     -9.315233000000000E+01
4850000000.000000      4.870453000000000E-01     -1.590859000000000E+02      4.679260000000000E-01     -7.291016000000000E+01      4.816284000000000E-01     -1.746328000000000E+02      7.058105000000000E-01     -9.321093000000000E+01
4851000000.000000      4.911499000000000E-01     -1.596719000000000E+02      4.711151000000000E-01     -7.347265000000000E+01      4.848175000000000E-01     -1.747890000000000E+02      7.088623000000000E-01     -9.327734000000000E+01
4852000000.000000      4.962769000000000E-01     -1.602344000000000E+02      4.727936000000000E-01     -7.364452000000000E+01      4.899750000000000E-01     -1.748594000000000E+02      7.120667000000000E-01     -9.325781000000000E+01
4853000000.000000      5.006714000000000E-01     -1.608359000000000E+02      4.743042000000000E-01     -7.396093000000000E+01      4.940643000000000E-01     -1.751250000000000E+02      7.141724000000000E-01     -9.342968000000000E+01
4854000000.000000      5.049438000000000E-01     -1.614297000000000E+02      4.772491000000000E-01     -7.440234000000000E+01      4.974060000000000E-01     -1.752344000000000E+02      7.182007000000000E-01     -9.333202000000000E+01
4855000000.000000      5.084534000000000E-01     -1.619531000000000E+02      4.781342000000000E-01     -7.463672000000000E+01      5.008545000000000E-01     -1.752344000000000E+02      7.182617000000000E-01     -9.335155000000000E+01
4856000000.000000      5.140991000000000E-01     -1.624687000000000E+02      4.813232000000000E-01     -7.487499000000000E+01      5.068970000000000E-01     -1.753359000000000E+02      7.236023000000000E-01     -9.339844000000000E+01
4857000000.000000      5.182495000000000E-01     -1.630312000000000E+02      4.835052000000000E-01     -7.530078000000000E+01      5.090332000000000E-01     -1.755703000000000E+02      7.257996000000000E-01     -9.347656000000000E+01
4858000000.000000      5.197144000000000E-01     -1.635391000000000E+02      4.853668000000000E-01     -7.554296000000000E+01      5.112305000000000E-01     -1.759453000000000E+02      7.280884000000000E-01     -9.347265000000000E+01
4859000000.000000      5.243835000000000E-01     -1.640547000000000E+02      4.868774000000000E-01     -7.589453000000000E+01      5.145874000000000E-01     -1.761484000000000E+02      7.330017000000000E-01     -9.364843000000000E+01
4860000000.000000      5.292664000000000E-01     -1.645547000000000E+02      4.898987000000000E-01     -7.596874000000000E+01      5.190735000000000E-01     -1.761641000000000E+02      7.342834000000000E-01     -9.355860000000000E+01
4861000000.000000      5.328674000000000E-01     -1.648672000000000E+02      4.908752000000000E-01     -7.662890000000000E+01      5.224609000000000E-01     -1.764453000000000E+02      7.374878000000000E-01     -9.367579000000000E+01
4862000000.000000      5.351563000000000E-01     -1.653047000000000E+02      4.934540000000000E-01     -7.681250000000000E+01      5.261536000000000E-01     -1.765156000000000E+02      7.420349000000000E-01     -9.377344000000000E+01
4863000000.000000      5.372620000000000E-01     -1.656641000000000E+02      4.941406000000000E-01     -7.719140000000000E+01      5.293579000000000E-01     -1.766641000000000E+02      7.441406000000000E-01     -9.367188000000000E+01
4864000000.000000      5.407715000000000E-01     -1.662188000000000E+02      4.964447000000000E-01     -7.721093000000000E+01      5.323486000000000E-01     -1.767812000000000E+02      7.468262000000000E-01     -9.375780000000000E+01
4865000000.000000      5.435181000000000E-01     -1.666719000000000E+02      4.958801000000000E-01     -7.775000000000000E+01      5.368347000000000E-01     -1.771719000000000E+02      7.488098000000000E-01     -9.373438000000000E+01
4866000000.000000      5.451050000000000E-01     -1.668672000000000E+02      4.972534000000000E-01     -7.791406000000000E+01      5.399475000000000E-01     -1.773125000000000E+02      7.525024000000000E-01     -9.377344000000000E+01
4867000000.000000      5.481873000000000E-01     -1.672969000000000E+02      4.998322000000000E-01     -7.832812000000000E+01      5.424194000000000E-01     -1.773438000000000E+02      7.568054000000000E-01     -9.387890000000000E+01
4868000000.000000      5.509338000000000E-01     -1.677578000000000E+02      5.005493000000000E-01     -7.857812000000000E+01      5.469666000000000E-01     -1.775625000000000E+02      7.585754000000000E-01     -9.397264000000000E+01
4869000000.000000      5.517578000000000E-01     -1.680625000000000E+02      5.028381000000000E-01     -7.889453000000000E+01      5.488586000000000E-01     -1.778828000000000E+02      7.617493000000000E-01     -9.400391000000000E+01
4870000000.000000      5.536499000000000E-01     -1.683203000000000E+02      5.023193000000000E-01     -7.883594000000000E+01      5.504150000000000E-01     -1.781484000000000E+02      7.629395000000000E-01     -9.383204000000000E+01
4871000000.000000      5.553589000000000E-01     -1.687266000000000E+02      5.055237000000000E-01     -7.940624000000000E+01      5.533447000000000E-01     -1.782734000000000E+02      7.665100000000000E-01     -9.407030000000000E+01
4872000000.000000      5.577698000000000E-01     -1.689141000000000E+02      5.045776000000000E-01     -7.948047000000000E+01      5.565796000000000E-01     -1.787188000000000E+02      7.692871000000000E-01     -9.412500000000000E+01
4873000000.000000      5.586853000000000E-01     -1.691015000000000E+02      5.065918000000000E-01     -7.983984000000000E+01      5.595398000000000E-01     -1.787734000000000E+02      7.701111000000000E-01     -9.421093000000000E+01
4874000000.000000      5.593262000000000E-01     -1.693984000000000E+02      5.076904000000000E-01     -8.014843000000000E+01      5.633545000000000E-01     -1.789687000000000E+02      7.723999000000000E-01     -9.400391000000000E+01
4875000000.000000      5.617065000000000E-01     -1.697031000000000E+02      5.088501000000000E-01     -8.021093000000000E+01      5.636597000000000E-01     -1.792187000000000E+02      7.742615000000000E-01     -9.416016000000000E+01
4876000000.000000      5.611267000000000E-01     -1.699531000000000E+02      5.100403000000000E-01     -8.049999000000000E+01      5.661011000000000E-01     -1.794375000000000E+02      7.791748000000000E-01     -9.422655000000000E+01
4877000000.000000      5.621033000000000E-01     -1.700938000000000E+02      5.115051000000000E-01     -8.069530000000000E+01      5.697632000000000E-01     -1.796719000000000E+02      7.804565000000000E-01     -9.430468000000000E+01
4878000000.000000      5.625916000000000E-01     -1.702500000000000E+02      5.134888000000000E-01     -8.105860000000000E+01      5.707397000000000E-01     -1.797891000000000E+02      7.831421000000000E-01     -9.437891000000000E+01
4879000000.000000      5.636292000000000E-01     -1.705859000000000E+02      5.120544000000000E-01     -8.112108000000000E+01      5.733337000000000E-01      1.798437000000000E+02      7.837524000000000E-01     -9.427343000000000E+01
4880000000.000000      5.622559000000000E-01     -1.706563000000000E+02      5.140381000000000E-01     -8.151562000000000E+01      5.755615000000000E-01      1.798359000000000E+02      7.874146000000000E-01     -9.442577000000000E+01
4881000000.000000      5.636292000000000E-01     -1.707578000000000E+02      5.157471000000000E-01     -8.147264000000000E+01      5.772400000000000E-01      1.793516000000000E+02      7.896729000000000E-01     -9.446875000000000E+01
4882000000.000000      5.632324000000000E-01     -1.709609000000000E+02      5.167236000000000E-01     -8.178125000000000E+01      5.808411000000000E-01      1.793750000000000E+02      7.909546000000000E-01     -9.447266000000000E+01
