! Network Analyzer HP8722D
! Hewlett-Packard
! Data name: Linha & Wilkinson
! Saver's name: Rodrigo Anjos
! Comments: Teste da utilização de aquisição
continua pelo VNA HP8722D
! Time and date: 17/4/2025 15:25
!              Frequency                     S11                                                   S21                                                   S12                                                   S22
# HZ  S  MA R 50
4800000000.000000      3.346252000000000E-01     -1.143867000000000E+02      2.970581000000000E-01     -6.130468000000000E+01      2.909698000000000E-01     -1.753594000000000E+02      6.566467000000000E-01     -9.042969000000000E+01
4801000000.000000      3.330994000000000E-01     -1.153516000000000E+02      3.012543000000000E-01     -6.120898000000000E+01      2.948914000000000E-01     -1.754062000000000E+02      6.560364000000000E-01     -9.047266000000000E+01
4802000000.000000      3.328094000000000E-01     -1.163203000000000E+02      3.056488000000000E-01     -6.133594000000000E+01      2.998352000000000E-01     -1.751953000000000E+02      6.542969000000000E-01     -9.043749000000000E+01
4803000000.000000      3.315735000000000E-01     -1.173359000000000E+02      3.110352000000000E-01     -6.145702000000000E+01      3.026886000000000E-01     -1.750937000000000E+02      6.532288000000000E-01     -9.077343000000000E+01
4804000000.000000      3.320313000000000E-01     -1.183711000000000E+02      3.152008000000000E-01     -6.158008000000000E+01      3.064270000000000E-01     -1.751953000000000E+02      6.532288000000000E-01     -9.074610000000000E+01
4805000000.000000      3.321228000000000E-01     -1.193086000000000E+02      3.198853000000000E-01     -6.192773000000000E+01      3.114929000000000E-01     -1.749609000000000E+02      6.526489000000000E-01     -9.092968000000000E+01
4806000000.000000      3.307037000000000E-01     -1.202930000000000E+02      3.242493000000000E-01     -6.190430000000000E+01      3.140106000000000E-01     -1.747734000000000E+02      6.524048000000000E-01     -9.102343000000000E+01
4807000000.000000      3.315125000000000E-01     -1.213984000000000E+02      3.280945000000000E-01     -6.212500000000000E+01      3.184662000000000E-01     -1.749297000000000E+02      6.501160000000000E-01     -9.105469000000000E+01
4808000000.000000      3.316803000000000E-01     -1.224570000000000E+02      3.329010000000000E-01     -6.222265000000000E+01      3.222351000000000E-01     -1.747813000000000E+02      6.492920000000000E-01     -9.107031000000000E+01
4809000000.000000      3.320160000000000E-01     -1.235156000000000E+02      3.367615000000000E-01     -6.263085000000000E+01      3.267975000000000E-01     -1.748516000000000E+02      6.498413000000000E-01     -9.120312000000000E+01
4810000000.000000      3.332825000000000E-01     -1.246875000000000E+02      3.419952000000000E-01     -6.264843000000000E+01      3.307800000000000E-01     -1.747578000000000E+02      6.505432000000000E-01     -9.134766000000000E+01
4811000000.000000      3.340302000000000E-01     -1.256992000000000E+02      3.458557000000000E-01     -6.299609000000000E+01      3.359070000000000E-01     -1.745234000000000E+02      6.500244000000000E-01     -9.132421000000000E+01
4812000000.000000      3.360291000000000E-01     -1.267500000000000E+02      3.494720000000000E-01     -6.322266000000000E+01      3.395081000000000E-01     -1.745156000000000E+02      6.498413000000000E-01     -9.147264000000000E+01
4813000000.000000      3.366852000000000E-01     -1.279336000000000E+02      3.539581000000000E-01     -6.343750000000000E+01      3.419037000000000E-01     -1.744375000000000E+02      6.490784000000000E-01     -9.144922000000000E+01
4814000000.000000      3.381348000000000E-01     -1.291563000000000E+02      3.578491000000000E-01     -6.363671000000000E+01      3.465271000000000E-01     -1.745312000000000E+02      6.495056000000000E-01     -9.156250000000000E+01
4815000000.000000      3.397369000000000E-01     -1.301328000000000E+02      3.616486000000000E-01     -6.378711000000000E+01      3.503876000000000E-01     -1.744609000000000E+02      6.485291000000000E-01     -9.166407000000000E+01
4816000000.000000      3.417358000000000E-01     -1.311406000000000E+02      3.658447000000000E-01     -6.391211000000000E+01      3.553009000000000E-01     -1.743750000000000E+02      6.488342000000000E-01     -9.169531000000000E+01
4817000000.000000      3.441620000000000E-01     -1.322500000000000E+02      3.702240000000000E-01     -6.437890000000000E+01      3.581696000000000E-01     -1.744141000000000E+02      6.482849000000000E-01     -9.191797000000000E+01
4818000000.000000      3.462982000000000E-01     -1.333672000000000E+02      3.732452000000000E-01     -6.462891000000000E+01      3.629913000000000E-01     -1.744297000000000E+02      6.495667000000000E-01     -9.204296000000000E+01
4819000000.000000      3.494415000000000E-01     -1.343594000000000E+02      3.768311000000000E-01     -6.474218000000000E+01      3.657990000000000E-01     -1.743906000000000E+02      6.513367000000000E-01     -9.207422000000000E+01
4820000000.000000      3.507996000000000E-01     -1.354453000000000E+02      3.814850000000000E-01     -6.490234000000000E+01      3.701782000000000E-01     -1.744531000000000E+02      6.520081000000000E-01     -9.214844000000000E+01
4821000000.000000      3.545532000000000E-01     -1.365156000000000E+02      3.848724000000000E-01     -6.531640000000000E+01      3.741150000000000E-01     -1.745156000000000E+02      6.513062000000000E-01     -9.230078000000000E+01
4822000000.000000      3.588257000000000E-01     -1.376328000000000E+02      3.884430000000000E-01     -6.562109000000000E+01      3.775024000000000E-01     -1.744141000000000E+02      6.534119000000000E-01     -9.223047000000000E+01
4823000000.000000      3.611145000000000E-01     -1.385625000000000E+02      3.922272000000000E-01     -6.580859000000000E+01      3.813477000000000E-01     -1.742109000000000E+02      6.538391000000000E-01     -9.243750000000000E+01
4824000000.000000      3.658752000000000E-01     -1.397187000000000E+02      3.956909000000000E-01     -6.617969000000000E+01      3.858948000000000E-01     -1.743984000000000E+02      6.560059000000000E-01     -9.250391000000000E+01
4825000000.000000      3.683777000000000E-01     -1.406406000000000E+02      3.994446000000000E-01     -6.633984000000000E+01      3.899231000000000E-01     -1.743594000000000E+02      6.553650000000000E-01     -9.244532000000000E+01
4826000000.000000      3.730164000000000E-01     -1.417422000000000E+02      4.040680000000000E-01     -6.674609000000000E+01      3.935547000000000E-01     -1.744219000000000E+02      6.564636000000000E-01     -9.257813000000000E+01
4827000000.000000      3.769073000000000E-01     -1.425313000000000E+02      4.071503000000000E-01     -6.682422000000000E+01      3.973999000000000E-01     -1.743672000000000E+02      6.588440000000000E-01     -9.256250000000000E+01
4828000000.000000      3.817139000000000E-01     -1.436094000000000E+02      4.107361000000000E-01     -6.716015000000000E+01      4.014435000000000E-01     -1.742578000000000E+02      6.605835000000000E-01     -9.263281000000000E+01
4829000000.000000      3.843079000000000E-01     -1.445469000000000E+02      4.129791000000000E-01     -6.758594000000000E+01      4.052124000000000E-01     -1.744219000000000E+02      6.609192000000000E-01     -9.267187000000000E+01
4830000000.000000      3.901978000000000E-01     -1.454687000000000E+02      4.166260000000000E-01     -6.776562000000000E+01      4.091187000000000E-01     -1.743125000000000E+02      6.620483000000000E-01     -9.283594000000000E+01
4831000000.000000      3.941498000000000E-01     -1.463516000000000E+02      4.199219000000000E-01     -6.819921000000000E+01      4.132233000000000E-01     -1.744062000000000E+02      6.635742000000000E-01     -9.298828000000000E+01
4832000000.000000      3.995819000000000E-01     -1.472265000000000E+02      4.235535000000000E-01     -6.842578000000000E+01      4.174194000000000E-01     -1.745625000000000E+02      6.658325000000000E-01     -9.288671000000000E+01
4833000000.000000      4.044037000000000E-01     -1.482500000000000E+02      4.272003000000000E-01     -6.871875000000000E+01      4.210968000000000E-01     -1.745234000000000E+02      6.674194000000000E-01     -9.297655000000000E+01
4834000000.000000      4.089508000000000E-01     -1.490625000000000E+02      4.303589000000000E-01     -6.911718000000000E+01      4.254456000000000E-01     -1.745391000000000E+02      6.686096000000000E-01     -9.309374000000000E+01
4835000000.000000      4.135437000000000E-01     -1.498750000000000E+02      4.340820000000000E-01     -6.939062000000000E+01      4.297943000000000E-01     -1.745625000000000E+02      6.718140000000000E-01     -9.321875000000000E+01
4836000000.000000      4.195251000000000E-01     -1.506172000000000E+02      4.366913000000000E-01     -6.969531000000000E+01      4.329529000000000E-01     -1.745937000000000E+02      6.731873000000000E-01     -9.317968000000000E+01
4837000000.000000      4.242554000000000E-01     -1.514219000000000E+02      4.399719000000000E-01     -7.012500000000000E+01      4.370575000000000E-01     -1.747656000000000E+02      6.746216000000000E-01     -9.330858000000000E+01
4838000000.000000      4.297485000000000E-01     -1.523828000000000E+02      4.437561000000000E-01     -7.028515000000000E+01      4.417877000000000E-01     -1.747969000000000E+02      6.779785000000000E-01     -9.324999000000000E+01
4839000000.000000      4.348297000000000E-01     -1.529844000000000E+02      4.457855000000000E-01     -7.046875000000000E+01      4.452972000000000E-01     -1.747813000000000E+02      6.796265000000000E-01     -9.321875000000000E+01
4840000000.000000      4.389191000000000E-01     -1.538750000000000E+02      4.481201000000000E-01     -7.096484000000000E+01      4.491119000000000E-01     -1.749609000000000E+02      6.817627000000000E-01     -9.336329000000000E+01
4841000000.000000      4.447327000000000E-01     -1.547109000000000E+02      4.513092000000000E-01     -7.137500000000000E+01      4.534302000000000E-01     -1.750078000000000E+02      6.838379000000000E-01     -9.339844000000000E+01
4842000000.000000      4.500732000000000E-01     -1.553359000000000E+02      4.541321000000000E-01     -7.154297000000000E+01      4.563904000000000E-01     -1.751172000000000E+02      6.867676000000000E-01     -9.348827000000000E+01
4843000000.000000      4.550018000000000E-01     -1.561406000000000E+02      4.568634000000000E-01     -7.195703000000000E+01      4.603577000000000E-01     -1.751406000000000E+02      6.894836000000000E-01     -9.342968000000000E+01
4844000000.000000      4.598083000000000E-01     -1.567344000000000E+02      4.597778000000000E-01     -7.219921000000000E+01      4.639740000000000E-01     -1.753359000000000E+02      6.920471000000000E-01     -9.364452000000000E+01
4845000000.000000      4.646759000000000E-01     -1.574375000000000E+02      4.616852000000000E-01     -7.255859000000000E+01      4.688110000000000E-01     -1.754219000000000E+02      6.938477000000000E-01     -9.358593000000000E+01
4846000000.000000      4.698639000000000E-01     -1.580156000000000E+02      4.643860000000000E-01     -7.288671000000000E+01      4.732208000000000E-01     -1.754609000000000E+02      6.976013000000000E-01     -9.356249000000000E+01
4847000000.000000      4.756775000000000E-01     -1.587578000000000E+02      4.664459000000000E-01     -7.312109000000000E+01      4.775238000000000E-01     -1.756562000000000E+02      7.000122000000000E-01     -9.381250000000000E+01
4848000000.000000      4.801483000000000E-01     -1.593125000000000E+02      4.688263000000000E-01     -7.348827000000000E+01      4.806976000000000E-01     -1.756875000000000E+02      7.024231000000000E-01     -9.372265000000000E+01
4849000000.000000      4.853210000000000E-01     -1.602109000000000E+02      4.724579000000000E-01     -7.397265000000000E+01      4.852295000000000E-01     -1.758672000000000E+02      7.042847000000000E-01     -9.370703000000000E+01
4850000000.000000      4.900208000000000E-01     -1.605781000000000E+02      4.739990000000000E-01     -7.421875000000000E+01      4.889374000000000E-01     -1.759297000000000E+02      7.075806000000000E-01     -9.372656000000000E+01
4851000000.000000      4.948273000000000E-01     -1.611953000000000E+02      4.774170000000000E-01     -7.453515000000000E+01      4.925079000000000E-01     -1.760313000000000E+02      7.104797000000000E-01     -9.384766000000000E+01
4852000000.000000      4.998169000000000E-01     -1.617578000000000E+02      4.788666000000000E-01     -7.470703000000000E+01      4.964752000000000E-01     -1.762031000000000E+02      7.119446000000000E-01     -9.399609000000000E+01
4853000000.000000      5.041504000000000E-01     -1.623516000000000E+02      4.798279000000000E-01     -7.508984000000000E+01      5.000305000000000E-01     -1.763828000000000E+02      7.156677000000000E-01     -9.405077000000000E+01
4854000000.000000      5.084534000000000E-01     -1.629219000000000E+02      4.824982000000000E-01     -7.557422000000000E+01      5.025635000000000E-01     -1.764609000000000E+02      7.178955000000000E-01     -9.400782000000000E+01
4855000000.000000      5.114136000000000E-01     -1.634766000000000E+02      4.837036000000000E-01     -7.577343000000000E+01      5.075073000000000E-01     -1.767109000000000E+02      7.211914000000000E-01     -9.404297000000000E+01
4856000000.000000      5.168762000000000E-01     -1.639453000000000E+02      4.864655000000000E-01     -7.613281000000000E+01      5.100403000000000E-01     -1.768047000000000E+02      7.248230000000000E-01     -9.413671000000000E+01
4857000000.000000      5.204468000000000E-01     -1.645937000000000E+02      4.889374000000000E-01     -7.641406000000000E+01      5.140381000000000E-01     -1.768984000000000E+02      7.275696000000000E-01     -9.418360000000000E+01
4858000000.000000      5.224609000000000E-01     -1.650156000000000E+02      4.895782000000000E-01     -7.666406000000000E+01      5.167236000000000E-01     -1.771563000000000E+02      7.304077000000000E-01     -9.420313000000000E+01
4859000000.000000      5.267944000000000E-01     -1.655234000000000E+02      4.902802000000000E-01     -7.710155000000000E+01      5.220947000000000E-01     -1.772656000000000E+02      7.322693000000000E-01     -9.430468000000000E+01
4860000000.000000      5.309448000000000E-01     -1.660078000000000E+02      4.921265000000000E-01     -7.732422000000000E+01      5.251770000000000E-01     -1.774765000000000E+02      7.355042000000000E-01     -9.426172000000000E+01
4861000000.000000      5.343933000000000E-01     -1.663750000000000E+02      4.939880000000000E-01     -7.764062000000000E+01      5.284729000000000E-01     -1.774844000000000E+02      7.386780000000000E-01     -9.430468000000000E+01
4862000000.000000      5.370483000000000E-01     -1.668281000000000E+02      4.972839000000000E-01     -7.779687000000000E+01      5.305176000000000E-01     -1.778203000000000E+02      7.430420000000000E-01     -9.433203000000000E+01
4863000000.000000      5.388489000000000E-01     -1.672656000000000E+02      4.954834000000000E-01     -7.832031000000000E+01      5.358276000000000E-01     -1.779453000000000E+02      7.433167000000000E-01     -9.442186000000000E+01
4864000000.000000      5.420837000000000E-01     -1.676328000000000E+02      4.979706000000000E-01     -7.858593000000000E+01      5.384216000000000E-01     -1.781563000000000E+02      7.463684000000000E-01     -9.444139000000000E+01
4865000000.000000      5.438538000000000E-01     -1.680547000000000E+02      5.002136000000000E-01     -7.868359000000000E+01      5.405884000000000E-01     -1.783828000000000E+02      7.503662000000000E-01     -9.447657000000000E+01
4866000000.000000      5.459900000000000E-01     -1.683750000000000E+02      5.011597000000000E-01     -7.913280000000000E+01      5.436707000000000E-01     -1.785156000000000E+02      7.541504000000000E-01     -9.441015000000000E+01
4867000000.000000      5.493774000000000E-01     -1.686641000000000E+02      5.046082000000000E-01     -7.941015000000000E+01      5.468750000000000E-01     -1.786328000000000E+02      7.561035000000000E-01     -9.457031000000000E+01
4868000000.000000      5.510864000000000E-01     -1.691484000000000E+02      5.047607000000000E-01     -7.966015000000000E+01      5.499573000000000E-01     -1.790000000000000E+02      7.575378000000000E-01     -9.462891000000000E+01
4869000000.000000      5.520325000000000E-01     -1.694922000000000E+02      5.044861000000000E-01     -8.008984000000000E+01      5.523682000000000E-01     -1.791328000000000E+02      7.607727000000000E-01     -9.476171000000000E+01
4870000000.000000      5.539551000000000E-01     -1.697969000000000E+02      5.057373000000000E-01     -8.005859000000000E+01      5.556030000000000E-01     -1.794141000000000E+02      7.649536000000000E-01     -9.460938000000000E+01
4871000000.000000      5.557556000000000E-01     -1.701328000000000E+02      5.086365000000000E-01     -8.047266000000000E+01      5.577698000000000E-01     -1.795625000000000E+02      7.645874000000000E-01     -9.478125000000000E+01
4872000000.000000      5.580139000000000E-01     -1.703750000000000E+02      5.077209000000000E-01     -8.066406000000000E+01      5.609131000000000E-01     -1.798906000000000E+02      7.701416000000000E-01     -9.475389000000000E+01
4873000000.000000      5.574951000000000E-01     -1.705937000000000E+02      5.083313000000000E-01     -8.101954000000000E+01      5.612488000000000E-01     -1.799687000000000E+02      7.712097000000000E-01     -9.490234000000000E+01
4874000000.000000      5.578613000000000E-01     -1.707734000000000E+02      5.098267000000000E-01     -8.128906000000000E+01      5.666809000000000E-01      1.797812000000000E+02      7.728577000000000E-01     -9.476563000000000E+01
4875000000.000000      5.606079000000000E-01     -1.711641000000000E+02      5.113220000000000E-01     -8.133204000000000E+01      5.670471000000000E-01      1.795469000000000E+02      7.756348000000000E-01     -9.495312000000000E+01
4876000000.000000      5.601501000000000E-01     -1.713359000000000E+02      5.115051000000000E-01     -8.174608000000000E+01      5.672302000000000E-01      1.794062000000000E+02      7.781067000000000E-01     -9.491796000000000E+01
4877000000.000000      5.607605000000000E-01     -1.715391000000000E+02      5.129700000000000E-01     -8.184374000000000E+01      5.717468000000000E-01      1.789922000000000E+02      7.801208000000000E-01     -9.504297000000000E+01
4878000000.000000      5.614624000000000E-01     -1.717656000000000E+02      5.143127000000000E-01     -8.216015000000000E+01      5.737305000000000E-01      1.789297000000000E+02      7.830200000000000E-01     -9.507813000000000E+01
4879000000.000000      5.624390000000000E-01     -1.719766000000000E+02      5.140686000000000E-01     -8.232031000000000E+01      5.755615000000000E-01      1.787109000000000E+02      7.847290000000000E-01     -9.501953000000000E+01
4880000000.000000      5.613403000000000E-01     -1.721328000000000E+02      5.168457000000000E-01     -8.241014000000000E+01      5.778503000000000E-01      1.785938000000000E+02      7.873840000000000E-01     -9.514063000000000E+01
4881000000.000000      5.620117000000000E-01     -1.722656000000000E+02      5.169983000000000E-01     -8.271484000000000E+01      5.798340000000000E-01      1.782266000000000E+02      7.896423000000000E-01     -9.514452000000000E+01
4882000000.000000      5.606995000000000E-01     -1.723516000000000E+02      5.190735000000000E-01     -8.280859000000000E+01      5.811157000000000E-01      1.781953000000000E+02      7.896118000000000E-01     -9.526562000000000E+01
