! Network Analyzer HP8722D
! Hewlett-Packard
! Data name: Linha & Wilkinson
! Saver's name: Rodrigo Anjos
! Comments: Teste da utilização de aquisição
continua pelo VNA HP8722D
! Time and date: 17/4/2025 17:46
!              Frequency                     S11                                                   S21                                                   S12                                                   S22
# HZ  S  MA R 50
4800000000.000000      3.337860000000000E-01     -1.139101000000000E+02      2.941742000000000E-01     -6.094531000000000E+01      2.878876000000000E-01     -1.751562000000000E+02      6.573486000000000E-01     -9.017187000000000E+01
4801000000.000000      3.322754000000000E-01     -1.148633000000000E+02      2.986450000000000E-01     -6.105078000000000E+01      2.913208000000000E-01     -1.750234000000000E+02      6.547241000000000E-01     -9.025782000000000E+01
4802000000.000000      3.313293000000000E-01     -1.158594000000000E+02      3.032532000000000E-01     -6.102734000000000E+01      2.961578000000000E-01     -1.749063000000000E+02      6.544495000000000E-01     -9.015625000000000E+01
4803000000.000000      3.310547000000000E-01     -1.169180000000000E+02      3.084259000000000E-01     -6.106054000000000E+01      3.002472000000000E-01     -1.747813000000000E+02      6.537170000000000E-01     -9.039454000000000E+01
4804000000.000000      3.305054000000000E-01     -1.178711000000000E+02      3.125916000000000E-01     -6.131445000000000E+01      3.040009000000000E-01     -1.747266000000000E+02      6.534424000000000E-01     -9.044531000000000E+01
4805000000.000000      3.305206000000000E-01     -1.189766000000000E+02      3.171082000000000E-01     -6.145898000000000E+01      3.081665000000000E-01     -1.746094000000000E+02      6.531372000000000E-01     -9.058985000000000E+01
4806000000.000000      3.301849000000000E-01     -1.198555000000000E+02      3.211975000000000E-01     -6.160742000000000E+01      3.114624000000000E-01     -1.744766000000000E+02      6.533203000000000E-01     -9.078516000000000E+01
4807000000.000000      3.298950000000000E-01     -1.209297000000000E+02      3.260651000000000E-01     -6.181835000000000E+01      3.166809000000000E-01     -1.744297000000000E+02      6.520386000000000E-01     -9.073828000000000E+01
4808000000.000000      3.306885000000000E-01     -1.219570000000000E+02      3.306274000000000E-01     -6.181835000000000E+01      3.197937000000000E-01     -1.743359000000000E+02      6.504517000000000E-01     -9.091015000000000E+01
4809000000.000000      3.308868000000000E-01     -1.230820000000000E+02      3.349609000000000E-01     -6.216601000000000E+01      3.246155000000000E-01     -1.744844000000000E+02      6.511230000000000E-01     -9.092968000000000E+01
4810000000.000000      3.318176000000000E-01     -1.242539000000000E+02      3.391266000000000E-01     -6.216797000000000E+01      3.282013000000000E-01     -1.742344000000000E+02      6.509399000000000E-01     -9.110155000000000E+01
4811000000.000000      3.328094000000000E-01     -1.252969000000000E+02      3.436127000000000E-01     -6.250586000000000E+01      3.334045000000000E-01     -1.741953000000000E+02      6.510010000000000E-01     -9.101954000000000E+01
4812000000.000000      3.347473000000000E-01     -1.262969000000000E+02      3.475189000000000E-01     -6.280859000000000E+01      3.369904000000000E-01     -1.741406000000000E+02      6.508179000000000E-01     -9.119141000000000E+01
4813000000.000000      3.355560000000000E-01     -1.274101000000000E+02      3.514709000000000E-01     -6.290820000000000E+01      3.395386000000000E-01     -1.741172000000000E+02      6.501465000000000E-01     -9.119141000000000E+01
4814000000.000000      3.361053000000000E-01     -1.286172000000000E+02      3.555450000000000E-01     -6.323632000000000E+01      3.440399000000000E-01     -1.740703000000000E+02      6.509399000000000E-01     -9.137890000000000E+01
4815000000.000000      3.384399000000000E-01     -1.295859000000000E+02      3.593140000000000E-01     -6.332031000000000E+01      3.481903000000000E-01     -1.739687000000000E+02      6.510925000000000E-01     -9.136719000000000E+01
4816000000.000000      3.398438000000000E-01     -1.307578000000000E+02      3.647308000000000E-01     -6.351757000000000E+01      3.527679000000000E-01     -1.738828000000000E+02      6.499634000000000E-01     -9.144531000000000E+01
4817000000.000000      3.429565000000000E-01     -1.317578000000000E+02      3.677521000000000E-01     -6.381054000000000E+01      3.559723000000000E-01     -1.739219000000000E+02      6.495972000000000E-01     -9.154297000000000E+01
4818000000.000000      3.448181000000000E-01     -1.329297000000000E+02      3.704834000000000E-01     -6.418750000000000E+01      3.609161000000000E-01     -1.739453000000000E+02      6.505432000000000E-01     -9.180859000000000E+01
4819000000.000000      3.477020000000000E-01     -1.340312000000000E+02      3.747864000000000E-01     -6.430469000000000E+01      3.635864000000000E-01     -1.739766000000000E+02      6.524353000000000E-01     -9.175390000000000E+01
4820000000.000000      3.497620000000000E-01     -1.350312000000000E+02      3.794403000000000E-01     -6.461719000000000E+01      3.684540000000000E-01     -1.737890000000000E+02      6.525574000000000E-01     -9.182812000000000E+01
4821000000.000000      3.531189000000000E-01     -1.361484000000000E+02      3.833618000000000E-01     -6.485156000000000E+01      3.715820000000000E-01     -1.739922000000000E+02      6.523743000000000E-01     -9.195313000000000E+01
4822000000.000000      3.571472000000000E-01     -1.372422000000000E+02      3.865662000000000E-01     -6.505468000000000E+01      3.752441000000000E-01     -1.739922000000000E+02      6.534729000000000E-01     -9.197657000000000E+01
4823000000.000000      3.600922000000000E-01     -1.381875000000000E+02      3.907013000000000E-01     -6.532812000000000E+01      3.786774000000000E-01     -1.737109000000000E+02      6.542053000000000E-01     -9.206249000000000E+01
4824000000.000000      3.644562000000000E-01     -1.393437000000000E+02      3.941650000000000E-01     -6.574609000000000E+01      3.848419000000000E-01     -1.738516000000000E+02      6.554565000000000E-01     -9.212500000000000E+01
4825000000.000000      3.674316000000000E-01     -1.402891000000000E+02      3.972626000000000E-01     -6.589453000000000E+01      3.886108000000000E-01     -1.738516000000000E+02      6.565552000000000E-01     -9.212500000000000E+01
4826000000.000000      3.716431000000000E-01     -1.413750000000000E+02      4.017181000000000E-01     -6.619141000000000E+01      3.917542000000000E-01     -1.739766000000000E+02      6.576538000000000E-01     -9.226563000000000E+01
4827000000.000000      3.753357000000000E-01     -1.421797000000000E+02      4.056091000000000E-01     -6.630859000000000E+01      3.954620000000000E-01     -1.738672000000000E+02      6.590271000000000E-01     -9.226563000000000E+01
4828000000.000000      3.804474000000000E-01     -1.432578000000000E+02      4.092712000000000E-01     -6.672265000000000E+01      4.007416000000000E-01     -1.739141000000000E+02      6.616211000000000E-01     -9.232813000000000E+01
4829000000.000000      3.829651000000000E-01     -1.441250000000000E+02      4.118652000000000E-01     -6.709765000000000E+01      4.037170000000000E-01     -1.739453000000000E+02      6.621399000000000E-01     -9.245312000000000E+01
4830000000.000000      3.882751000000000E-01     -1.450391000000000E+02      4.152069000000000E-01     -6.728906000000000E+01      4.078064000000000E-01     -1.738672000000000E+02      6.638794000000000E-01     -9.247656000000000E+01
4831000000.000000      3.923035000000000E-01     -1.460391000000000E+02      4.193268000000000E-01     -6.777734000000000E+01      4.123840000000000E-01     -1.738047000000000E+02      6.668091000000000E-01     -9.251562000000000E+01
4832000000.000000      3.986053000000000E-01     -1.468906000000000E+02      4.228210000000000E-01     -6.797656000000000E+01      4.155731000000000E-01     -1.738828000000000E+02      6.663208000000000E-01     -9.264452000000000E+01
4833000000.000000      4.030914000000000E-01     -1.478359000000000E+02      4.261932000000000E-01     -6.813671000000000E+01      4.195251000000000E-01     -1.740156000000000E+02      6.685181000000000E-01     -9.270311000000000E+01
4834000000.000000      4.075928000000000E-01     -1.487187000000000E+02      4.292145000000000E-01     -6.847265000000000E+01      4.237823000000000E-01     -1.740391000000000E+02      6.697388000000000E-01     -9.271484000000000E+01
4835000000.000000      4.122314000000000E-01     -1.495391000000000E+02      4.326324000000000E-01     -6.895702000000000E+01      4.281616000000000E-01     -1.739922000000000E+02      6.719666000000000E-01     -9.279297000000000E+01
4836000000.000000      4.181671000000000E-01     -1.503125000000000E+02      4.356232000000000E-01     -6.909374000000000E+01      4.318390000000000E-01     -1.741094000000000E+02      6.751404000000000E-01     -9.280859000000000E+01
4837000000.000000      4.230347000000000E-01     -1.510469000000000E+02      4.389191000000000E-01     -6.958984000000000E+01      4.353638000000000E-01     -1.742656000000000E+02      6.754456000000000E-01     -9.288671000000000E+01
4838000000.000000      4.286499000000000E-01     -1.519922000000000E+02      4.430084000000000E-01     -6.982812000000000E+01      4.399261000000000E-01     -1.742500000000000E+02      6.791382000000000E-01     -9.291016000000000E+01
4839000000.000000      4.331970000000000E-01     -1.526406000000000E+02      4.445343000000000E-01     -7.000000000000000E+01      4.441986000000000E-01     -1.742422000000000E+02      6.813354000000000E-01     -9.295702000000000E+01
4840000000.000000      4.379730000000000E-01     -1.535156000000000E+02      4.466705000000000E-01     -7.035156000000000E+01      4.487000000000000E-01     -1.743672000000000E+02      6.834412000000000E-01     -9.307032000000000E+01
4841000000.000000      4.439850000000000E-01     -1.543594000000000E+02      4.506989000000000E-01     -7.082812000000000E+01      4.524384000000000E-01     -1.745156000000000E+02      6.846924000000000E-01     -9.313280000000000E+01
4842000000.000000      4.488525000000000E-01     -1.549687000000000E+02      4.535370000000000E-01     -7.110546000000000E+01      4.550018000000000E-01     -1.745781000000000E+02      6.889038000000000E-01     -9.318359000000000E+01
4843000000.000000      4.541626000000000E-01     -1.557812000000000E+02      4.561768000000000E-01     -7.149219000000000E+01      4.598236000000000E-01     -1.746484000000000E+02      6.897583000000000E-01     -9.306641000000000E+01
4844000000.000000      4.588776000000000E-01     -1.563984000000000E+02      4.597931000000000E-01     -7.176171000000000E+01      4.634094000000000E-01     -1.747344000000000E+02      6.927795000000000E-01     -9.324999000000000E+01
4845000000.000000      4.639435000000000E-01     -1.571328000000000E+02      4.619141000000000E-01     -7.209374000000000E+01      4.679260000000000E-01     -1.747969000000000E+02      6.940918000000000E-01     -9.328905000000000E+01
4846000000.000000      4.691925000000000E-01     -1.576406000000000E+02      4.642487000000000E-01     -7.238671000000000E+01      4.725952000000000E-01     -1.748281000000000E+02      6.961365000000000E-01     -9.328905000000000E+01
4847000000.000000      4.752350000000000E-01     -1.584375000000000E+02      4.663086000000000E-01     -7.255468000000000E+01      4.765472000000000E-01     -1.750781000000000E+02      7.012024000000000E-01     -9.346483000000000E+01
4848000000.000000      4.799652000000000E-01     -1.590469000000000E+02      4.687653000000000E-01     -7.300781000000000E+01      4.804230000000000E-01     -1.751016000000000E+02      7.020569000000000E-01     -9.341015000000000E+01
4849000000.000000      4.847870000000000E-01     -1.598906000000000E+02      4.715271000000000E-01     -7.337109000000000E+01      4.842377000000000E-01     -1.753515000000000E+02      7.060852000000000E-01     -9.340624000000000E+01
4850000000.000000      4.893799000000000E-01     -1.602656000000000E+02      4.740601000000000E-01     -7.360937000000000E+01      4.877625000000000E-01     -1.753828000000000E+02      7.089233000000000E-01     -9.353907000000000E+01
4851000000.000000      4.944763000000000E-01     -1.608516000000000E+02      4.771271000000000E-01     -7.410156000000000E+01      4.913177000000000E-01     -1.755000000000000E+02      7.119141000000000E-01     -9.356640000000000E+01
4852000000.000000      4.996338000000000E-01     -1.614609000000000E+02      4.788513000000000E-01     -7.438281000000000E+01      4.955292000000000E-01     -1.756484000000000E+02      7.141113000000000E-01     -9.368750000000000E+01
4853000000.000000      5.041199000000000E-01     -1.620937000000000E+02      4.791107000000000E-01     -7.462891000000000E+01      4.998932000000000E-01     -1.758594000000000E+02      7.166138000000000E-01     -9.373047000000000E+01
4854000000.000000      5.079651000000000E-01     -1.625469000000000E+02      4.829407000000000E-01     -7.515625000000000E+01      5.026245000000000E-01     -1.759375000000000E+02      7.185364000000000E-01     -9.376171000000000E+01
4855000000.000000      5.114746000000000E-01     -1.631875000000000E+02      4.838562000000000E-01     -7.531250000000000E+01      5.068054000000000E-01     -1.759922000000000E+02      7.219543000000000E-01     -9.376562000000000E+01
4856000000.000000      5.165405000000000E-01     -1.636562000000000E+02      4.867554000000000E-01     -7.561328000000000E+01      5.101013000000000E-01     -1.761953000000000E+02      7.254333000000000E-01     -9.371485000000000E+01
4857000000.000000      5.207214000000000E-01     -1.642656000000000E+02      4.891815000000000E-01     -7.595312000000000E+01      5.151672000000000E-01     -1.762422000000000E+02      7.280273000000000E-01     -9.388281000000000E+01
4858000000.000000      5.224609000000000E-01     -1.647344000000000E+02      4.908142000000000E-01     -7.630468000000000E+01      5.174255000000000E-01     -1.764922000000000E+02      7.318420000000000E-01     -9.391016000000000E+01
4859000000.000000      5.277100000000000E-01     -1.652656000000000E+02      4.934692000000000E-01     -7.644921000000000E+01      5.211487000000000E-01     -1.768359000000000E+02      7.349243000000000E-01     -9.396093000000000E+01
4860000000.000000      5.314636000000000E-01     -1.656406000000000E+02      4.932709000000000E-01     -7.686718000000000E+01      5.246887000000000E-01     -1.769140000000000E+02      7.374878000000000E-01     -9.403124000000000E+01
4861000000.000000      5.346375000000000E-01     -1.661016000000000E+02      4.967041000000000E-01     -7.723437000000000E+01      5.285034000000000E-01     -1.770313000000000E+02      7.401733000000000E-01     -9.408594000000000E+01
4862000000.000000      5.365906000000000E-01     -1.665781000000000E+02      4.982910000000000E-01     -7.755077000000000E+01      5.326538000000000E-01     -1.772422000000000E+02      7.435303000000000E-01     -9.403906000000000E+01
4863000000.000000      5.401001000000000E-01     -1.669531000000000E+02      4.978027000000000E-01     -7.775391000000000E+01      5.358887000000000E-01     -1.774688000000000E+02      7.478638000000000E-01     -9.417969000000000E+01
4864000000.000000      5.437012000000000E-01     -1.673516000000000E+02      4.995880000000000E-01     -7.791797000000000E+01      5.376587000000000E-01     -1.775547000000000E+02      7.492065000000000E-01     -9.418360000000000E+01
4865000000.000000      5.454102000000000E-01     -1.678359000000000E+02      5.013123000000000E-01     -7.817187000000000E+01      5.407410000000000E-01     -1.778437000000000E+02      7.518311000000000E-01     -9.405859000000000E+01
4866000000.000000      5.478821000000000E-01     -1.681015000000000E+02      5.012512000000000E-01     -7.864843000000000E+01      5.455017000000000E-01     -1.779844000000000E+02      7.551880000000000E-01     -9.406250000000000E+01
4867000000.000000      5.499878000000000E-01     -1.683828000000000E+02      5.050964000000000E-01     -7.919531000000000E+01      5.476685000000000E-01     -1.781797000000000E+02      7.579346000000000E-01     -9.413280000000000E+01
4868000000.000000      5.520935000000000E-01     -1.689844000000000E+02      5.050049000000000E-01     -7.924999000000000E+01      5.522461000000000E-01     -1.782656000000000E+02      7.607117000000000E-01     -9.411718000000000E+01
4869000000.000000      5.525513000000000E-01     -1.692109000000000E+02      5.051880000000000E-01     -7.953515000000000E+01      5.536194000000000E-01     -1.786250000000000E+02      7.630310000000000E-01     -9.442968000000000E+01
4870000000.000000      5.549622000000000E-01     -1.696094000000000E+02      5.086060000000000E-01     -7.948828000000000E+01      5.559998000000000E-01     -1.788594000000000E+02      7.670898000000000E-01     -9.433203000000000E+01
4871000000.000000      5.571594000000000E-01     -1.698672000000000E+02      5.085144000000000E-01     -7.991405000000000E+01      5.570984000000000E-01     -1.790703000000000E+02      7.678223000000000E-01     -9.448828000000000E+01
4872000000.000000      5.595093000000000E-01     -1.701172000000000E+02      5.087280000000000E-01     -8.011328000000000E+01      5.604248000000000E-01     -1.794297000000000E+02      7.698669000000000E-01     -9.456640000000000E+01
4873000000.000000      5.594177000000000E-01     -1.703125000000000E+02      5.095520000000000E-01     -8.046484000000000E+01      5.628967000000000E-01     -1.794531000000000E+02      7.717590000000000E-01     -9.460155000000000E+01
4874000000.000000      5.605469000000000E-01     -1.705625000000000E+02      5.111694000000000E-01     -8.080469000000000E+01      5.663452000000000E-01     -1.795547000000000E+02      7.750549000000000E-01     -9.439453000000000E+01
4875000000.000000      5.626526000000000E-01     -1.709766000000000E+02      5.123291000000000E-01     -8.086718000000000E+01      5.689392000000000E-01     -1.799297000000000E+02      7.762756000000000E-01     -9.471874000000000E+01
4876000000.000000      5.621338000000000E-01     -1.710469000000000E+02      5.144043000000000E-01     -8.115625000000000E+01      5.694275000000000E-01      1.799141000000000E+02      7.800598000000000E-01     -9.468359000000000E+01
4877000000.000000      5.625916000000000E-01     -1.713594000000000E+02      5.144958000000000E-01     -8.123438000000000E+01      5.735168000000000E-01      1.796484000000000E+02      7.821350000000000E-01     -9.473047000000000E+01
4878000000.000000      5.634460000000000E-01     -1.714609000000000E+02      5.168762000000000E-01     -8.151953000000000E+01      5.757751000000000E-01      1.794765000000000E+02      7.842712000000000E-01     -9.467188000000000E+01
4879000000.000000      5.641785000000000E-01     -1.716640000000000E+02      5.151978000000000E-01     -8.166407000000000E+01      5.776062000000000E-01      1.793516000000000E+02      7.861023000000000E-01     -9.477343000000000E+01
4880000000.000000      5.626526000000000E-01     -1.718281000000000E+02      5.175476000000000E-01     -8.179688000000000E+01      5.803223000000000E-01      1.790703000000000E+02      7.901001000000000E-01     -9.475780000000000E+01
4881000000.000000      5.638123000000000E-01     -1.719766000000000E+02      5.180969000000000E-01     -8.198828000000000E+01      5.825500000000000E-01      1.786484000000000E+02      7.913818000000000E-01     -9.485546000000000E+01
4882000000.000000      5.621338000000000E-01     -1.721328000000000E+02      5.203857000000000E-01     -8.220312000000000E+01      5.833130000000000E-01      1.786719000000000E+02      7.932739000000000E-01     -9.485155000000000E+01
