! Network Analyzer HP8722D
! Hewlett-Packard
! Data name: Linha & Wilkinson
! Saver's name: Rodrigo Anjos
! Comments: Teste da utilização de aquisição
continua pelo VNA HP8722D
! Time and date: 17/4/2025 17:12
!              Frequency                     S11                                                   S21                                                   S12                                                   S22
# HZ  S  MA R 50
4800000000.000000      3.373566000000000E-01     -1.170898000000000E+02      3.157196000000000E-01     -6.229297000000000E+01      3.111115000000000E-01     -1.767031000000000E+02      6.575317000000000E-01     -9.137499000000000E+01
4801000000.000000      3.367157000000000E-01     -1.180469000000000E+02      3.200226000000000E-01     -6.243164000000000E+01      3.134766000000000E-01     -1.766328000000000E+02      6.562195000000000E-01     -9.146093000000000E+01
4802000000.000000      3.360138000000000E-01     -1.191016000000000E+02      3.239899000000000E-01     -6.267383000000000E+01      3.176117000000000E-01     -1.765312000000000E+02      6.550598000000000E-01     -9.155468000000000E+01
4803000000.000000      3.355255000000000E-01     -1.201680000000000E+02      3.298492000000000E-01     -6.281250000000000E+01      3.210449000000000E-01     -1.764297000000000E+02      6.547852000000000E-01     -9.169140000000000E+01
4804000000.000000      3.348541000000000E-01     -1.210898000000000E+02      3.327484000000000E-01     -6.297656000000000E+01      3.257446000000000E-01     -1.765156000000000E+02      6.541138000000000E-01     -9.176561000000000E+01
4805000000.000000      3.361053000000000E-01     -1.221523000000000E+02      3.372192000000000E-01     -6.323632000000000E+01      3.291473000000000E-01     -1.764062000000000E+02      6.538086000000000E-01     -9.192968000000000E+01
4806000000.000000      3.350525000000000E-01     -1.230898000000000E+02      3.417969000000000E-01     -6.326366000000000E+01      3.327789000000000E-01     -1.762344000000000E+02      6.533508000000000E-01     -9.202343000000000E+01
4807000000.000000      3.356171000000000E-01     -1.242461000000000E+02      3.463745000000000E-01     -6.358398000000000E+01      3.365936000000000E-01     -1.763438000000000E+02      6.509399000000000E-01     -9.209764000000000E+01
4808000000.000000      3.366699000000000E-01     -1.253789000000000E+02      3.503113000000000E-01     -6.366601000000000E+01      3.408203000000000E-01     -1.763672000000000E+02      6.518250000000000E-01     -9.211718000000000E+01
4809000000.000000      3.370056000000000E-01     -1.263867000000000E+02      3.544159000000000E-01     -6.424218000000000E+01      3.448334000000000E-01     -1.763906000000000E+02      6.513977000000000E-01     -9.241014000000000E+01
4810000000.000000      3.384552000000000E-01     -1.275430000000000E+02      3.587341000000000E-01     -6.417969000000000E+01      3.484650000000000E-01     -1.764219000000000E+02      6.526184000000000E-01     -9.237499000000000E+01
4811000000.000000      3.393860000000000E-01     -1.285859000000000E+02      3.631592000000000E-01     -6.453125000000000E+01      3.536072000000000E-01     -1.763047000000000E+02      6.501160000000000E-01     -9.241014000000000E+01
4812000000.000000      3.410950000000000E-01     -1.295781000000000E+02      3.666840000000000E-01     -6.495312000000000E+01      3.570099000000000E-01     -1.762500000000000E+02      6.508484000000000E-01     -9.252344000000000E+01
4813000000.000000      3.419189000000000E-01     -1.307734000000000E+02      3.700714000000000E-01     -6.505468000000000E+01      3.598785000000000E-01     -1.761719000000000E+02      6.509399000000000E-01     -9.247265000000000E+01
4814000000.000000      3.434906000000000E-01     -1.320391000000000E+02      3.744202000000000E-01     -6.539063000000000E+01      3.635254000000000E-01     -1.762734000000000E+02      6.505737000000000E-01     -9.270702000000000E+01
4815000000.000000      3.450012000000000E-01     -1.329453000000000E+02      3.775787000000000E-01     -6.555078000000000E+01      3.666992000000000E-01     -1.762500000000000E+02      6.500854000000000E-01     -9.268358000000000E+01
4816000000.000000      3.477020000000000E-01     -1.340547000000000E+02      3.821411000000000E-01     -6.575390000000000E+01      3.718414000000000E-01     -1.762422000000000E+02      6.516418000000000E-01     -9.272264000000000E+01
4817000000.000000      3.503571000000000E-01     -1.351172000000000E+02      3.853760000000000E-01     -6.610156000000000E+01      3.743591000000000E-01     -1.762656000000000E+02      6.508789000000000E-01     -9.289843000000000E+01
4818000000.000000      3.528290000000000E-01     -1.362109000000000E+02      3.889771000000000E-01     -6.634375000000000E+01      3.790283000000000E-01     -1.763125000000000E+02      6.507568000000000E-01     -9.301561000000000E+01
4819000000.000000      3.556519000000000E-01     -1.373984000000000E+02      3.924713000000000E-01     -6.653125000000000E+01      3.823242000000000E-01     -1.762969000000000E+02      6.538696000000000E-01     -9.304296000000000E+01
4820000000.000000      3.577423000000000E-01     -1.384140000000000E+02      3.968201000000000E-01     -6.682812000000000E+01      3.868561000000000E-01     -1.762109000000000E+02      6.533508000000000E-01     -9.321093000000000E+01
4821000000.000000      3.610687000000000E-01     -1.394766000000000E+02      4.008636000000000E-01     -6.706640000000000E+01      3.889618000000000E-01     -1.764141000000000E+02      6.525574000000000E-01     -9.324610000000000E+01
4822000000.000000      3.661194000000000E-01     -1.405156000000000E+02      4.029999000000000E-01     -6.751562000000000E+01      3.934021000000000E-01     -1.764062000000000E+02      6.548462000000000E-01     -9.328125000000000E+01
4823000000.000000      3.683167000000000E-01     -1.415390000000000E+02      4.079590000000000E-01     -6.771093000000000E+01      3.968353000000000E-01     -1.762109000000000E+02      6.554565000000000E-01     -9.350780000000000E+01
4824000000.000000      3.730316000000000E-01     -1.426016000000000E+02      4.105988000000000E-01     -6.808984000000000E+01      4.014435000000000E-01     -1.764922000000000E+02      6.566772000000000E-01     -9.352734000000000E+01
4825000000.000000      3.762207000000000E-01     -1.436016000000000E+02      4.138947000000000E-01     -6.828515000000000E+01      4.053345000000000E-01     -1.763672000000000E+02      6.584778000000000E-01     -9.355078000000000E+01
4826000000.000000      3.805542000000000E-01     -1.445781000000000E+02      4.177399000000000E-01     -6.853906000000000E+01      4.082489000000000E-01     -1.764297000000000E+02      6.581421000000000E-01     -9.366014000000000E+01
4827000000.000000      3.844299000000000E-01     -1.454375000000000E+02      4.205017000000000E-01     -6.889062000000000E+01      4.121246000000000E-01     -1.763438000000000E+02      6.600037000000000E-01     -9.369921000000000E+01
4828000000.000000      3.898163000000000E-01     -1.464609000000000E+02      4.242401000000000E-01     -6.919922000000000E+01      4.158630000000000E-01     -1.764531000000000E+02      6.633606000000000E-01     -9.378515000000000E+01
4829000000.000000      3.923187000000000E-01     -1.473438000000000E+02      4.262085000000000E-01     -6.955078000000000E+01      4.191895000000000E-01     -1.765234000000000E+02      6.629333000000000E-01     -9.383593000000000E+01
4830000000.000000      3.975067000000000E-01     -1.482578000000000E+02      4.304199000000000E-01     -6.988281000000000E+01      4.234772000000000E-01     -1.764766000000000E+02      6.643066000000000E-01     -9.385937000000000E+01
4831000000.000000      4.013672000000000E-01     -1.491641000000000E+02      4.332886000000000E-01     -7.016796000000000E+01      4.269104000000000E-01     -1.764766000000000E+02      6.661377000000000E-01     -9.397655000000000E+01
4832000000.000000      4.076843000000000E-01     -1.501016000000000E+02      4.366913000000000E-01     -7.038671000000000E+01      4.306183000000000E-01     -1.765781000000000E+02      6.684875000000000E-01     -9.402735000000000E+01
4833000000.000000      4.125824000000000E-01     -1.511016000000000E+02      4.401398000000000E-01     -7.077343000000000E+01      4.348450000000000E-01     -1.766406000000000E+02      6.696167000000000E-01     -9.411327000000000E+01
4834000000.000000      4.171600000000000E-01     -1.519531000000000E+02      4.416962000000000E-01     -7.107812000000000E+01      4.379883000000000E-01     -1.766641000000000E+02      6.711121000000000E-01     -9.417578000000000E+01
4835000000.000000      4.215240000000000E-01     -1.526641000000000E+02      4.456635000000000E-01     -7.150000000000000E+01      4.428406000000000E-01     -1.767578000000000E+02      6.739197000000000E-01     -9.433203000000000E+01
4836000000.000000      4.273376000000000E-01     -1.534609000000000E+02      4.485016000000000E-01     -7.174218000000000E+01      4.461670000000000E-01     -1.768281000000000E+02      6.747437000000000E-01     -9.426952000000000E+01
4837000000.000000      4.321442000000000E-01     -1.542031000000000E+02      4.513550000000000E-01     -7.218750000000000E+01      4.491272000000000E-01     -1.769922000000000E+02      6.767883000000000E-01     -9.431250000000000E+01
4838000000.000000      4.378052000000000E-01     -1.551484000000000E+02      4.547119000000000E-01     -7.238671000000000E+01      4.529572000000000E-01     -1.769609000000000E+02      6.784973000000000E-01     -9.427734000000000E+01
4839000000.000000      4.431610000000000E-01     -1.557891000000000E+02      4.565125000000000E-01     -7.266796000000000E+01      4.568481000000000E-01     -1.770391000000000E+02      6.823425000000000E-01     -9.432812000000000E+01
4840000000.000000      4.469452000000000E-01     -1.566875000000000E+02      4.595795000000000E-01     -7.305469000000000E+01      4.611969000000000E-01     -1.771953000000000E+02      6.831055000000000E-01     -9.449999000000000E+01
4841000000.000000      4.522400000000000E-01     -1.574844000000000E+02      4.618835000000000E-01     -7.345703000000000E+01      4.646759000000000E-01     -1.772656000000000E+02      6.862183000000000E-01     -9.455469000000000E+01
4842000000.000000      4.581451000000000E-01     -1.580234000000000E+02      4.636078000000000E-01     -7.366405000000000E+01      4.678955000000000E-01     -1.773125000000000E+02      6.888733000000000E-01     -9.464844000000000E+01
4843000000.000000      4.621124000000000E-01     -1.588594000000000E+02      4.668579000000000E-01     -7.412109000000000E+01      4.715271000000000E-01     -1.773828000000000E+02      6.902771000000000E-01     -9.458202000000000E+01
4844000000.000000      4.674072000000000E-01     -1.595469000000000E+02      4.697876000000000E-01     -7.428905000000000E+01      4.749756000000000E-01     -1.775234000000000E+02      6.924744000000000E-01     -9.469530000000000E+01
4845000000.000000      4.719391000000000E-01     -1.601953000000000E+02      4.711609000000000E-01     -7.467187000000000E+01      4.800873000000000E-01     -1.775859000000000E+02      6.953125000000000E-01     -9.476171000000000E+01
4846000000.000000      4.768829000000000E-01     -1.607656000000000E+02      4.750061000000000E-01     -7.497265000000000E+01      4.841919000000000E-01     -1.777344000000000E+02      6.980591000000000E-01     -9.480078000000000E+01
4847000000.000000      4.824982000000000E-01     -1.614609000000000E+02      4.765930000000000E-01     -7.539063000000000E+01      4.875793000000000E-01     -1.778672000000000E+02      7.023926000000000E-01     -9.487890000000000E+01
4848000000.000000      4.874420000000000E-01     -1.620859000000000E+02      4.775238000000000E-01     -7.556641000000000E+01      4.906616000000000E-01     -1.778906000000000E+02      7.031860000000000E-01     -9.486719000000000E+01
4849000000.000000      4.915314000000000E-01     -1.629453000000000E+02      4.795227000000000E-01     -7.602734000000000E+01      4.945221000000000E-01     -1.781172000000000E+02      7.070007000000000E-01     -9.487890000000000E+01
4850000000.000000      4.960327000000000E-01     -1.632969000000000E+02      4.824524000000000E-01     -7.626562000000000E+01      4.984283000000000E-01     -1.781250000000000E+02      7.082825000000000E-01     -9.500391000000000E+01
4851000000.000000      5.007324000000000E-01     -1.638672000000000E+02      4.851837000000000E-01     -7.677343000000000E+01      5.003662000000000E-01     -1.783672000000000E+02      7.118530000000000E-01     -9.501953000000000E+01
4852000000.000000      5.052795000000000E-01     -1.645078000000000E+02      4.860382000000000E-01     -7.692968000000000E+01      5.047302000000000E-01     -1.783359000000000E+02      7.144165000000000E-01     -9.506250000000000E+01
4853000000.000000      5.099182000000000E-01     -1.650625000000000E+02      4.865570000000000E-01     -7.726953000000000E+01      5.102234000000000E-01     -1.787500000000000E+02      7.169800000000000E-01     -9.517578000000000E+01
4854000000.000000      5.135803000000000E-01     -1.655859000000000E+02      4.896088000000000E-01     -7.782812000000000E+01      5.105896000000000E-01     -1.785859000000000E+02      7.202148000000000E-01     -9.526562000000000E+01
4855000000.000000      5.162659000000000E-01     -1.662109000000000E+02      4.907990000000000E-01     -7.803515000000000E+01      5.156250000000000E-01     -1.788516000000000E+02      7.215271000000000E-01     -9.532421000000000E+01
4856000000.000000      5.208740000000000E-01     -1.666406000000000E+02      4.933929000000000E-01     -7.825781000000000E+01      5.184326000000000E-01     -1.789766000000000E+02      7.250366000000000E-01     -9.525782000000000E+01
4857000000.000000      5.242920000000000E-01     -1.671484000000000E+02      4.947205000000000E-01     -7.848827000000000E+01      5.223389000000000E-01     -1.792109000000000E+02      7.282104000000000E-01     -9.536718000000000E+01
4858000000.000000      5.262451000000000E-01     -1.676250000000000E+02      4.967804000000000E-01     -7.876953000000000E+01      5.242920000000000E-01     -1.793594000000000E+02      7.301636000000000E-01     -9.537889000000000E+01
4859000000.000000      5.298462000000000E-01     -1.681797000000000E+02      4.979706000000000E-01     -7.911718000000000E+01      5.277100000000000E-01     -1.796562000000000E+02      7.343445000000000E-01     -9.561327000000000E+01
4860000000.000000      5.350037000000000E-01     -1.685859000000000E+02      4.992065000000000E-01     -7.938671000000000E+01      5.313110000000000E-01     -1.796719000000000E+02      7.351074000000000E-01     -9.538671000000000E+01
4861000000.000000      5.369873000000000E-01     -1.689375000000000E+02      5.023193000000000E-01     -7.987499000000000E+01      5.356140000000000E-01     -1.797656000000000E+02      7.384338000000000E-01     -9.551172000000000E+01
4862000000.000000      5.393677000000000E-01     -1.694062000000000E+02      5.016785000000000E-01     -8.001562000000000E+01      5.380554000000000E-01     -1.798984000000000E+02      7.442017000000000E-01     -9.566406000000000E+01
4863000000.000000      5.405273000000000E-01     -1.697734000000000E+02      5.031128000000000E-01     -8.057812000000000E+01      5.408936000000000E-01      1.798906000000000E+02      7.453003000000000E-01     -9.567968000000000E+01
4864000000.000000      5.445251000000000E-01     -1.701641000000000E+02      5.043640000000000E-01     -8.049219000000000E+01      5.430298000000000E-01      1.796641000000000E+02      7.473145000000000E-01     -9.559765000000000E+01
4865000000.000000      5.454407000000000E-01     -1.706875000000000E+02      5.052795000000000E-01     -8.091406000000000E+01      5.455322000000000E-01      1.794531000000000E+02      7.512512000000000E-01     -9.560547000000000E+01
4866000000.000000      5.473633000000000E-01     -1.709453000000000E+02      5.058594000000000E-01     -8.117579000000000E+01      5.481262000000000E-01      1.791797000000000E+02      7.528381000000000E-01     -9.565624000000000E+01
4867000000.000000      5.495300000000000E-01     -1.712656000000000E+02      5.067749000000000E-01     -8.151171000000000E+01      5.502930000000000E-01      1.789922000000000E+02      7.563171000000000E-01     -9.573437000000000E+01
4868000000.000000      5.509949000000000E-01     -1.716563000000000E+02      5.089722000000000E-01     -8.186718000000000E+01      5.547485000000000E-01      1.788281000000000E+02      7.577820000000000E-01     -9.578516000000000E+01
4869000000.000000      5.519104000000000E-01     -1.720312000000000E+02      5.081177000000000E-01     -8.211329000000000E+01      5.568848000000000E-01      1.786250000000000E+02      7.616577000000000E-01     -9.594530000000000E+01
4870000000.000000      5.537109000000000E-01     -1.722812000000000E+02      5.085754000000000E-01     -8.206640000000000E+01      5.592651000000000E-01      1.784375000000000E+02      7.644348000000000E-01     -9.586329000000000E+01
4871000000.000000      5.553589000000000E-01     -1.726094000000000E+02      5.107117000000000E-01     -8.257813000000000E+01      5.612793000000000E-01      1.782500000000000E+02      7.662354000000000E-01     -9.598047000000000E+01
4872000000.000000      5.567322000000000E-01     -1.728437000000000E+02      5.101929000000000E-01     -8.248438000000000E+01      5.627136000000000E-01      1.778984000000000E+02      7.679749000000000E-01     -9.605078000000000E+01
4873000000.000000      5.567322000000000E-01     -1.730391000000000E+02      5.124207000000000E-01     -8.293749000000000E+01      5.653687000000000E-01      1.779219000000000E+02      7.705078000000000E-01     -9.615234000000000E+01
4874000000.000000      5.565186000000000E-01     -1.732344000000000E+02      5.126038000000000E-01     -8.321484000000000E+01      5.688477000000000E-01      1.777891000000000E+02      7.730408000000000E-01     -9.601952000000000E+01
4875000000.000000      5.584717000000000E-01     -1.735391000000000E+02      5.133057000000000E-01     -8.335155000000000E+01      5.704956000000000E-01      1.774688000000000E+02      7.738342000000000E-01     -9.609375000000000E+01
4876000000.000000      5.575867000000000E-01     -1.737344000000000E+02      5.144958000000000E-01     -8.352734000000000E+01      5.705566000000000E-01      1.773047000000000E+02      7.771301000000000E-01     -9.625000000000000E+01
4877000000.000000      5.580444000000000E-01     -1.738125000000000E+02      5.160828000000000E-01     -8.357031000000000E+01      5.745850000000000E-01      1.770469000000000E+02      7.789001000000000E-01     -9.632813000000000E+01
4878000000.000000      5.574341000000000E-01     -1.739844000000000E+02      5.157166000000000E-01     -8.409765000000000E+01      5.760193000000000E-01      1.769297000000000E+02      7.813110000000000E-01     -9.629295000000000E+01
4879000000.000000      5.587769000000000E-01     -1.743359000000000E+02      5.152588000000000E-01     -8.414454000000000E+01      5.767212000000000E-01      1.767656000000000E+02      7.834167000000000E-01     -9.623827000000000E+01
4880000000.000000      5.571289000000000E-01     -1.743594000000000E+02      5.168152000000000E-01     -8.438280000000000E+01      5.794067000000000E-01      1.765078000000000E+02      7.856445000000000E-01     -9.636328000000000E+01
4881000000.000000      5.584717000000000E-01     -1.745156000000000E+02      5.183105000000000E-01     -8.453125000000000E+01      5.818787000000000E-01      1.763594000000000E+02      7.885437000000000E-01     -9.628906000000000E+01
4882000000.000000      5.557556000000000E-01     -1.745937000000000E+02      5.178223000000000E-01     -8.481249000000000E+01      5.829468000000000E-01      1.760234000000000E+02      7.880554000000000E-01     -9.644920000000000E+01
