! Network Analyzer HP8722D
! Hewlett-Packard
! Data name: Linha & Wilkinson
! Saver's name: Rodrigo Anjos
! Comments: Teste da utilização de aquisição
continua pelo VNA HP8722D
! Time and date: 17/4/2025 15:32
!              Frequency                     S11                                                   S21                                                   S12                                                   S22
# HZ  S  MA R 50
4800000000.000000      3.352509000000000E-01     -1.146836000000000E+02      2.998810000000000E-01     -6.139062000000000E+01      2.934723000000000E-01     -1.755547000000000E+02      6.568909000000000E-01     -9.060156000000000E+01
4801000000.000000      3.340759000000000E-01     -1.156445000000000E+02      3.042755000000000E-01     -6.153320000000000E+01      2.969818000000000E-01     -1.754453000000000E+02      6.552124000000000E-01     -9.063280000000000E+01
4802000000.000000      3.326721000000000E-01     -1.166250000000000E+02      3.079224000000000E-01     -6.150000000000000E+01      3.016815000000000E-01     -1.753515000000000E+02      6.542358000000000E-01     -9.062891000000000E+01
4803000000.000000      3.321075000000000E-01     -1.176133000000000E+02      3.135376000000000E-01     -6.156640000000000E+01      3.046875000000000E-01     -1.752344000000000E+02      6.533203000000000E-01     -9.076172000000000E+01
4804000000.000000      3.323517000000000E-01     -1.186953000000000E+02      3.170471000000000E-01     -6.168554000000000E+01      3.096771000000000E-01     -1.752812000000000E+02      6.525269000000000E-01     -9.086329000000000E+01
4805000000.000000      3.326111000000000E-01     -1.196953000000000E+02      3.219299000000000E-01     -6.192187000000000E+01      3.139191000000000E-01     -1.750391000000000E+02      6.526794000000000E-01     -9.093359000000000E+01
4806000000.000000      3.314819000000000E-01     -1.207305000000000E+02      3.259125000000000E-01     -6.208398000000000E+01      3.169250000000000E-01     -1.749141000000000E+02      6.509094000000000E-01     -9.117968000000000E+01
4807000000.000000      3.320313000000000E-01     -1.218516000000000E+02      3.304596000000000E-01     -6.230273000000000E+01      3.216400000000000E-01     -1.750156000000000E+02      6.499023000000000E-01     -9.120312000000000E+01
4808000000.000000      3.328705000000000E-01     -1.227773000000000E+02      3.354034000000000E-01     -6.235742000000000E+01      3.249969000000000E-01     -1.750469000000000E+02      6.492920000000000E-01     -9.122265000000000E+01
4809000000.000000      3.327637000000000E-01     -1.238984000000000E+02      3.394012000000000E-01     -6.281836000000000E+01      3.296967000000000E-01     -1.750469000000000E+02      6.492004000000000E-01     -9.135546000000000E+01
4810000000.000000      3.332367000000000E-01     -1.250469000000000E+02      3.429108000000000E-01     -6.281445000000000E+01      3.335114000000000E-01     -1.748672000000000E+02      6.510315000000000E-01     -9.140625000000000E+01
4811000000.000000      3.354187000000000E-01     -1.260938000000000E+02      3.477173000000000E-01     -6.310937000000000E+01      3.379211000000000E-01     -1.749141000000000E+02      6.495972000000000E-01     -9.152344000000000E+01
4812000000.000000      3.359833000000000E-01     -1.270664000000000E+02      3.518982000000000E-01     -6.331836000000000E+01      3.416138000000000E-01     -1.747266000000000E+02      6.500244000000000E-01     -9.161327000000000E+01
4813000000.000000      3.376160000000000E-01     -1.281797000000000E+02      3.565826000000000E-01     -6.362890000000000E+01      3.448944000000000E-01     -1.746953000000000E+02      6.496887000000000E-01     -9.169922000000000E+01
4814000000.000000      3.385468000000000E-01     -1.294766000000000E+02      3.599396000000000E-01     -6.379492000000000E+01      3.489380000000000E-01     -1.746094000000000E+02      6.497192000000000E-01     -9.180079000000000E+01
4815000000.000000      3.403015000000000E-01     -1.304297000000000E+02      3.639374000000000E-01     -6.411718000000000E+01      3.523865000000000E-01     -1.746797000000000E+02      6.499634000000000E-01     -9.183203000000000E+01
4816000000.000000      3.422699000000000E-01     -1.314141000000000E+02      3.681335000000000E-01     -6.414063000000000E+01      3.578796000000000E-01     -1.746719000000000E+02      6.492310000000000E-01     -9.189453000000000E+01
4817000000.000000      3.446960000000000E-01     -1.325234000000000E+02      3.718872000000000E-01     -6.464062000000000E+01      3.605957000000000E-01     -1.745859000000000E+02      6.488342000000000E-01     -9.199219000000000E+01
4818000000.000000      3.474121000000000E-01     -1.337344000000000E+02      3.752136000000000E-01     -6.475780000000000E+01      3.649597000000000E-01     -1.746094000000000E+02      6.502380000000000E-01     -9.216797000000000E+01
4819000000.000000      3.500061000000000E-01     -1.347656000000000E+02      3.794708000000000E-01     -6.497656000000000E+01      3.678589000000000E-01     -1.745625000000000E+02      6.513672000000000E-01     -9.212891000000000E+01
4820000000.000000      3.515472000000000E-01     -1.357500000000000E+02      3.829651000000000E-01     -6.514843000000000E+01      3.731384000000000E-01     -1.745937000000000E+02      6.524353000000000E-01     -9.218359000000000E+01
4821000000.000000      3.553314000000000E-01     -1.368984000000000E+02      3.871002000000000E-01     -6.550390000000000E+01      3.755646000000000E-01     -1.747344000000000E+02      6.510010000000000E-01     -9.237108000000000E+01
4822000000.000000      3.595581000000000E-01     -1.380625000000000E+02      3.902740000000000E-01     -6.578125000000000E+01      3.791351000000000E-01     -1.747344000000000E+02      6.538086000000000E-01     -9.251953000000000E+01
4823000000.000000      3.618774000000000E-01     -1.389609000000000E+02      3.944244000000000E-01     -6.602734000000000E+01      3.840637000000000E-01     -1.744531000000000E+02      6.539001000000000E-01     -9.243750000000000E+01
4824000000.000000      3.663330000000000E-01     -1.401094000000000E+02      3.981628000000000E-01     -6.633203000000000E+01      3.884125000000000E-01     -1.747109000000000E+02      6.553345000000000E-01     -9.255077000000000E+01
4825000000.000000      3.692780000000000E-01     -1.410234000000000E+02      4.015961000000000E-01     -6.648046000000000E+01      3.925934000000000E-01     -1.746406000000000E+02      6.557007000000000E-01     -9.260546000000000E+01
4826000000.000000      3.740845000000000E-01     -1.420781000000000E+02      4.049683000000000E-01     -6.692577000000000E+01      3.950500000000000E-01     -1.746484000000000E+02      6.568604000000000E-01     -9.273438000000000E+01
4827000000.000000      3.780365000000000E-01     -1.429219000000000E+02      4.078979000000000E-01     -6.712109000000000E+01      3.986969000000000E-01     -1.745781000000000E+02      6.580200000000000E-01     -9.266016000000000E+01
4828000000.000000      3.827362000000000E-01     -1.439453000000000E+02      4.128418000000000E-01     -6.730078000000000E+01      4.034119000000000E-01     -1.746641000000000E+02      6.606140000000000E-01     -9.274609000000000E+01
4829000000.000000      3.856964000000000E-01     -1.448437000000000E+02      4.158783000000000E-01     -6.771484000000000E+01      4.077454000000000E-01     -1.747031000000000E+02      6.603699000000000E-01     -9.284765000000000E+01
4830000000.000000      3.912048000000000E-01     -1.457656000000000E+02      4.182587000000000E-01     -6.810156000000000E+01      4.111023000000000E-01     -1.746016000000000E+02      6.630554000000000E-01     -9.287109000000000E+01
4831000000.000000      3.950653000000000E-01     -1.467109000000000E+02      4.215240000000000E-01     -6.842968000000000E+01      4.150391000000000E-01     -1.745859000000000E+02      6.648865000000000E-01     -9.306250000000000E+01
4832000000.000000      4.007111000000000E-01     -1.475859000000000E+02      4.258423000000000E-01     -6.867188000000000E+01      4.187775000000000E-01     -1.747422000000000E+02      6.665039000000000E-01     -9.310938000000000E+01
4833000000.000000      4.053497000000000E-01     -1.485781000000000E+02      4.294281000000000E-01     -6.895312000000000E+01      4.228363000000000E-01     -1.748047000000000E+02      6.666870000000000E-01     -9.319921000000000E+01
4834000000.000000      4.104309000000000E-01     -1.494297000000000E+02      4.318695000000000E-01     -6.921484000000000E+01      4.268494000000000E-01     -1.748359000000000E+02      6.698608000000000E-01     -9.319139000000000E+01
4835000000.000000      4.142609000000000E-01     -1.502344000000000E+02      4.350891000000000E-01     -6.971484000000000E+01      4.312134000000000E-01     -1.748594000000000E+02      6.716003000000000E-01     -9.331640000000000E+01
4836000000.000000      4.203339000000000E-01     -1.510313000000000E+02      4.384766000000000E-01     -6.988671000000000E+01      4.346771000000000E-01     -1.748359000000000E+02      6.732178000000000E-01     -9.328905000000000E+01
4837000000.000000      4.251404000000000E-01     -1.517969000000000E+02      4.404144000000000E-01     -7.038280000000000E+01      4.385223000000000E-01     -1.750000000000000E+02      6.751404000000000E-01     -9.332031000000000E+01
4838000000.000000      4.308014000000000E-01     -1.527187000000000E+02      4.446869000000000E-01     -7.064453000000000E+01      4.427032000000000E-01     -1.750313000000000E+02      6.783142000000000E-01     -9.339062000000000E+01
4839000000.000000      4.354553000000000E-01     -1.533906000000000E+02      4.466095000000000E-01     -7.080078000000000E+01      4.464264000000000E-01     -1.750469000000000E+02      6.799927000000000E-01     -9.343750000000000E+01
4840000000.000000      4.398956000000000E-01     -1.541953000000000E+02      4.496155000000000E-01     -7.110546000000000E+01      4.507446000000000E-01     -1.751953000000000E+02      6.819763000000000E-01     -9.347656000000000E+01
4841000000.000000      4.456635000000000E-01     -1.550625000000000E+02      4.529724000000000E-01     -7.157031000000000E+01      4.554138000000000E-01     -1.753828000000000E+02      6.844788000000000E-01     -9.352734000000000E+01
4842000000.000000      4.512634000000000E-01     -1.556797000000000E+02      4.557953000000000E-01     -7.179296000000000E+01      4.576263000000000E-01     -1.753281000000000E+02      6.874084000000000E-01     -9.369921000000000E+01
4843000000.000000      4.558105000000000E-01     -1.564297000000000E+02      4.585114000000000E-01     -7.225390000000000E+01      4.620361000000000E-01     -1.754141000000000E+02      6.894531000000000E-01     -9.355078000000000E+01
4844000000.000000      4.607697000000000E-01     -1.571094000000000E+02      4.609375000000000E-01     -7.258594000000000E+01      4.661560000000000E-01     -1.755625000000000E+02      6.922302000000000E-01     -9.367968000000000E+01
4845000000.000000      4.657898000000000E-01     -1.578359000000000E+02      4.628754000000000E-01     -7.284765000000000E+01      4.702148000000000E-01     -1.756484000000000E+02      6.937256000000000E-01     -9.370703000000000E+01
4846000000.000000      4.707489000000000E-01     -1.583125000000000E+02      4.660950000000000E-01     -7.319921000000000E+01      4.748840000000000E-01     -1.757109000000000E+02      6.977844000000000E-01     -9.381250000000000E+01
4847000000.000000      4.765625000000000E-01     -1.590469000000000E+02      4.682922000000000E-01     -7.347265000000000E+01      4.784851000000000E-01     -1.759297000000000E+02      7.010498000000000E-01     -9.384766000000000E+01
4848000000.000000      4.810181000000000E-01     -1.596797000000000E+02      4.701538000000000E-01     -7.376953000000000E+01      4.825287000000000E-01     -1.759453000000000E+02      7.025452000000000E-01     -9.403515000000000E+01
4849000000.000000      4.858856000000000E-01     -1.605937000000000E+02      4.732819000000000E-01     -7.416016000000000E+01      4.863586000000000E-01     -1.760781000000000E+02      7.045288000000000E-01     -9.388281000000000E+01
4850000000.000000      4.905396000000000E-01     -1.609297000000000E+02      4.750366000000000E-01     -7.436328000000000E+01      4.896088000000000E-01     -1.761719000000000E+02      7.082825000000000E-01     -9.398046000000000E+01
4851000000.000000      4.954071000000000E-01     -1.615391000000000E+02      4.789886000000000E-01     -7.482812000000000E+01      4.930573000000000E-01     -1.763515000000000E+02      7.112122000000000E-01     -9.401171000000000E+01
4852000000.000000      5.004272000000000E-01     -1.621953000000000E+02      4.804840000000000E-01     -7.519921000000000E+01      4.983673000000000E-01     -1.764766000000000E+02      7.147827000000000E-01     -9.411327000000000E+01
4853000000.000000      5.050354000000000E-01     -1.627734000000000E+02      4.806061000000000E-01     -7.542969000000000E+01      5.011597000000000E-01     -1.765938000000000E+02      7.160645000000000E-01     -9.418749000000000E+01
4854000000.000000      5.087891000000000E-01     -1.632422000000000E+02      4.829102000000000E-01     -7.586719000000000E+01      5.050049000000000E-01     -1.766328000000000E+02      7.188416000000000E-01     -9.412889000000000E+01
4855000000.000000      5.121460000000000E-01     -1.638750000000000E+02      4.850159000000000E-01     -7.604297000000000E+01      5.080872000000000E-01     -1.769297000000000E+02      7.205811000000000E-01     -9.415625000000000E+01
4856000000.000000      5.168762000000000E-01     -1.642734000000000E+02      4.870605000000000E-01     -7.631249000000000E+01      5.131226000000000E-01     -1.770625000000000E+02      7.249756000000000E-01     -9.424999000000000E+01
4857000000.000000      5.212402000000000E-01     -1.648828000000000E+02      4.899750000000000E-01     -7.676562000000000E+01      5.149841000000000E-01     -1.771172000000000E+02      7.271729000000000E-01     -9.433203000000000E+01
4858000000.000000      5.227051000000000E-01     -1.653750000000000E+02      4.916229000000000E-01     -7.684765000000000E+01      5.181885000000000E-01     -1.773672000000000E+02      7.302551000000000E-01     -9.432421000000000E+01
4859000000.000000      5.270996000000000E-01     -1.658984000000000E+02      4.935150000000000E-01     -7.736718000000000E+01      5.214844000000000E-01     -1.775938000000000E+02      7.332764000000000E-01     -9.446484000000000E+01
4860000000.000000      5.317688000000000E-01     -1.663906000000000E+02      4.949341000000000E-01     -7.768359000000000E+01      5.265808000000000E-01     -1.776953000000000E+02      7.363281000000000E-01     -9.443359000000000E+01
4861000000.000000      5.349731000000000E-01     -1.667344000000000E+02      4.958191000000000E-01     -7.799999000000000E+01      5.288086000000000E-01     -1.779375000000000E+02      7.386780000000000E-01     -9.454687000000000E+01
4862000000.000000      5.369873000000000E-01     -1.672422000000000E+02      4.990692000000000E-01     -7.831640000000000E+01      5.324402000000000E-01     -1.779531000000000E+02      7.420959000000000E-01     -9.454296000000000E+01
4863000000.000000      5.393372000000000E-01     -1.675469000000000E+02      4.993439000000000E-01     -7.858203000000000E+01      5.353394000000000E-01     -1.782891000000000E+02      7.447815000000000E-01     -9.451172000000000E+01
4864000000.000000      5.425720000000000E-01     -1.680000000000000E+02      4.999390000000000E-01     -7.874218000000000E+01      5.391235000000000E-01     -1.784062000000000E+02      7.473755000000000E-01     -9.466797000000000E+01
4865000000.000000      5.440369000000000E-01     -1.684531000000000E+02      5.010681000000000E-01     -7.902344000000000E+01      5.413513000000000E-01     -1.786484000000000E+02      7.502441000000000E-01     -9.451563000000000E+01
4866000000.000000      5.468140000000000E-01     -1.686719000000000E+02      5.017395000000000E-01     -7.924218000000000E+01      5.444641000000000E-01     -1.788047000000000E+02      7.538147000000000E-01     -9.462500000000000E+01
4867000000.000000      5.491943000000000E-01     -1.690859000000000E+02      5.042114000000000E-01     -7.980078000000000E+01      5.472412000000000E-01     -1.789375000000000E+02      7.561646000000000E-01     -9.466015000000000E+01
4868000000.000000      5.515747000000000E-01     -1.695391000000000E+02      5.045471000000000E-01     -7.991015000000000E+01      5.517273000000000E-01     -1.792187000000000E+02      7.594604000000000E-01     -9.468750000000000E+01
4869000000.000000      5.514832000000000E-01     -1.697578000000000E+02      5.053101000000000E-01     -8.017578000000000E+01      5.540161000000000E-01     -1.793906000000000E+02      7.612915000000000E-01     -9.480078000000000E+01
4870000000.000000      5.534668000000000E-01     -1.701328000000000E+02      5.071106000000000E-01     -8.033983000000000E+01      5.556641000000000E-01     -1.796797000000000E+02      7.631531000000000E-01     -9.484375000000000E+01
4871000000.000000      5.563660000000000E-01     -1.704297000000000E+02      5.087891000000000E-01     -8.075390000000000E+01      5.575867000000000E-01     -1.797812000000000E+02      7.656250000000000E-01     -9.483202000000000E+01
4872000000.000000      5.576172000000000E-01     -1.707031000000000E+02      5.084839000000000E-01     -8.085938000000000E+01      5.599976000000000E-01      1.798203000000000E+02      7.705383000000000E-01     -9.494141000000000E+01
4873000000.000000      5.580750000000000E-01     -1.709219000000000E+02      5.110474000000000E-01     -8.120312000000000E+01      5.627441000000000E-01      1.798125000000000E+02      7.710571000000000E-01     -9.496485000000000E+01
4874000000.000000      5.580750000000000E-01     -1.711094000000000E+02      5.124512000000000E-01     -8.151562000000000E+01      5.662231000000000E-01      1.795547000000000E+02      7.734070000000000E-01     -9.493359000000000E+01
4875000000.000000      5.603333000000000E-01     -1.714844000000000E+02      5.108948000000000E-01     -8.148829000000000E+01      5.684814000000000E-01      1.792734000000000E+02      7.743835000000000E-01     -9.509766000000000E+01
4876000000.000000      5.597534000000000E-01     -1.716250000000000E+02      5.126343000000000E-01     -8.195704000000000E+01      5.693359000000000E-01      1.791953000000000E+02      7.782898000000000E-01     -9.515625000000000E+01
4877000000.000000      5.599060000000000E-01     -1.717891000000000E+02      5.137329000000000E-01     -8.199219000000000E+01      5.719910000000000E-01      1.788047000000000E+02      7.797546000000000E-01     -9.515625000000000E+01
4878000000.000000      5.608215000000000E-01     -1.719922000000000E+02      5.159912000000000E-01     -8.226954000000000E+01      5.743408000000000E-01      1.786641000000000E+02      7.833252000000000E-01     -9.527735000000000E+01
4879000000.000000      5.612183000000000E-01     -1.722578000000000E+02      5.149841000000000E-01     -8.239843000000000E+01      5.759888000000000E-01      1.785156000000000E+02      7.851563000000000E-01     -9.526171000000000E+01
4880000000.000000      5.600891000000000E-01     -1.723594000000000E+02      5.170288000000000E-01     -8.269531000000000E+01      5.793152000000000E-01      1.783828000000000E+02      7.880859000000000E-01     -9.530468000000000E+01
4881000000.000000      5.613708000000000E-01     -1.724219000000000E+02      5.171204000000000E-01     -8.276171000000000E+01      5.797424000000000E-01      1.780156000000000E+02      7.889709000000000E-01     -9.519922000000000E+01
4882000000.000000      5.599365000000000E-01     -1.726016000000000E+02      5.176392000000000E-01     -8.297266000000000E+01      5.809326000000000E-01      1.779609000000000E+02      7.901917000000000E-01     -9.543360000000000E+01
