! Network Analyzer HP8722D
! Hewlett-Packard
! Data name: Linha & Wilkinson
! Saver's name: Rodrigo Anjos
! Comments: Teste da utilização de aquisição
continua pelo VNA HP8722D
! Time and date: 17/4/2025 16:12
!              Frequency                     S11                                                   S21                                                   S12                                                   S22
# HZ  S  MA R 50
4800000000.000000      3.355713000000000E-01     -1.160430000000000E+02      3.090668000000000E-01     -6.203125000000000E+01      3.015289000000000E-01     -1.760234000000000E+02      6.571655000000000E-01     -9.074610000000000E+01
4801000000.000000      3.343811000000000E-01     -1.170156000000000E+02      3.132782000000000E-01     -6.199804000000000E+01      3.046417000000000E-01     -1.760156000000000E+02      6.564026000000000E-01     -9.079687000000000E+01
4802000000.000000      3.335571000000000E-01     -1.179102000000000E+02      3.183441000000000E-01     -6.212109000000000E+01      3.091888000000000E-01     -1.758906000000000E+02      6.550903000000000E-01     -9.076952000000000E+01
4803000000.000000      3.337097000000000E-01     -1.190234000000000E+02      3.228455000000000E-01     -6.227929000000000E+01      3.124390000000000E-01     -1.757109000000000E+02      6.534119000000000E-01     -9.100389000000000E+01
4804000000.000000      3.330536000000000E-01     -1.200703000000000E+02      3.263855000000000E-01     -6.238867000000000E+01      3.173523000000000E-01     -1.757266000000000E+02      6.531982000000000E-01     -9.105469000000000E+01
4805000000.000000      3.334656000000000E-01     -1.210938000000000E+02      3.314667000000000E-01     -6.258789000000000E+01      3.216095000000000E-01     -1.755781000000000E+02      6.532898000000000E-01     -9.128906000000000E+01
4806000000.000000      3.331604000000000E-01     -1.220156000000000E+02      3.358002000000000E-01     -6.275585000000000E+01      3.249054000000000E-01     -1.754219000000000E+02      6.524658000000000E-01     -9.129686000000000E+01
4807000000.000000      3.337555000000000E-01     -1.230976000000000E+02      3.396149000000000E-01     -6.309375000000000E+01      3.287506000000000E-01     -1.756797000000000E+02      6.514282000000000E-01     -9.133984000000000E+01
4808000000.000000      3.340912000000000E-01     -1.240664000000000E+02      3.448029000000000E-01     -6.320898000000000E+01      3.327942000000000E-01     -1.756641000000000E+02      6.501160000000000E-01     -9.140625000000000E+01
4809000000.000000      3.341827000000000E-01     -1.253203000000000E+02      3.478699000000000E-01     -6.348827000000000E+01      3.365936000000000E-01     -1.755859000000000E+02      6.506958000000000E-01     -9.155859000000000E+01
4810000000.000000      3.354797000000000E-01     -1.264766000000000E+02      3.526917000000000E-01     -6.356835000000000E+01      3.405914000000000E-01     -1.755156000000000E+02      6.514587000000000E-01     -9.155859000000000E+01
4811000000.000000      3.369598000000000E-01     -1.275508000000000E+02      3.570709000000000E-01     -6.408984000000000E+01      3.454437000000000E-01     -1.754609000000000E+02      6.499939000000000E-01     -9.163671000000000E+01
4812000000.000000      3.383484000000000E-01     -1.285156000000000E+02      3.608551000000000E-01     -6.411718000000000E+01      3.491974000000000E-01     -1.753125000000000E+02      6.505737000000000E-01     -9.169531000000000E+01
4813000000.000000      3.395844000000000E-01     -1.297188000000000E+02      3.652039000000000E-01     -6.442577000000000E+01      3.519135000000000E-01     -1.753594000000000E+02      6.497192000000000E-01     -9.175390000000000E+01
4814000000.000000      3.405762000000000E-01     -1.308828000000000E+02      3.686981000000000E-01     -6.459374000000000E+01      3.560181000000000E-01     -1.752891000000000E+02      6.499329000000000E-01     -9.194921000000000E+01
4815000000.000000      3.424835000000000E-01     -1.318203000000000E+02      3.723602000000000E-01     -6.496094000000000E+01      3.592377000000000E-01     -1.754141000000000E+02      6.496582000000000E-01     -9.195704000000000E+01
4816000000.000000      3.447418000000000E-01     -1.328906000000000E+02      3.761292000000000E-01     -6.505077000000000E+01      3.645630000000000E-01     -1.751719000000000E+02      6.510315000000000E-01     -9.207422000000000E+01
4817000000.000000      3.473206000000000E-01     -1.339766000000000E+02      3.806458000000000E-01     -6.539063000000000E+01      3.670654000000000E-01     -1.754531000000000E+02      6.491699000000000E-01     -9.222265000000000E+01
4818000000.000000      3.495789000000000E-01     -1.351563000000000E+02      3.831787000000000E-01     -6.564062000000000E+01      3.716125000000000E-01     -1.752656000000000E+02      6.503601000000000E-01     -9.226171000000000E+01
4819000000.000000      3.525238000000000E-01     -1.361641000000000E+02      3.873138000000000E-01     -6.583984000000000E+01      3.753204000000000E-01     -1.752734000000000E+02      6.519775000000000E-01     -9.231249000000000E+01
4820000000.000000      3.542786000000000E-01     -1.372344000000000E+02      3.905640000000000E-01     -6.614062000000000E+01      3.792267000000000E-01     -1.753359000000000E+02      6.529236000000000E-01     -9.248438000000000E+01
4821000000.000000      3.579407000000000E-01     -1.383906000000000E+02      3.945923000000000E-01     -6.638672000000000E+01      3.824463000000000E-01     -1.754375000000000E+02      6.513977000000000E-01     -9.266016000000000E+01
4822000000.000000      3.626862000000000E-01     -1.394531000000000E+02      3.981628000000000E-01     -6.674218000000000E+01      3.860016000000000E-01     -1.753438000000000E+02      6.536865000000000E-01     -9.253906000000000E+01
4823000000.000000      3.650665000000000E-01     -1.403828000000000E+02      4.021606000000000E-01     -6.703125000000000E+01      3.903503000000000E-01     -1.752969000000000E+02      6.552429000000000E-01     -9.256639000000000E+01
4824000000.000000      3.697815000000000E-01     -1.415156000000000E+02      4.060364000000000E-01     -6.741015000000000E+01      3.947754000000000E-01     -1.754062000000000E+02      6.562805000000000E-01     -9.271875000000000E+01
4825000000.000000      3.725586000000000E-01     -1.424609000000000E+02      4.088440000000000E-01     -6.762109000000000E+01      3.983307000000000E-01     -1.752734000000000E+02      6.571350000000000E-01     -9.274218000000000E+01
4826000000.000000      3.771210000000000E-01     -1.435000000000000E+02      4.126587000000000E-01     -6.789453000000000E+01      4.012299000000000E-01     -1.754375000000000E+02      6.568909000000000E-01     -9.285547000000000E+01
4827000000.000000      3.809204000000000E-01     -1.443750000000000E+02      4.159851000000000E-01     -6.796093000000000E+01      4.050293000000000E-01     -1.753438000000000E+02      6.588745000000000E-01     -9.298046000000000E+01
4828000000.000000      3.860321000000000E-01     -1.453828000000000E+02      4.202728000000000E-01     -6.855859000000000E+01      4.094849000000000E-01     -1.753359000000000E+02      6.611938000000000E-01     -9.295313000000000E+01
4829000000.000000      3.886414000000000E-01     -1.463281000000000E+02      4.224548000000000E-01     -6.863671000000000E+01      4.131622000000000E-01     -1.753906000000000E+02      6.622009000000000E-01     -9.290625000000000E+01
4830000000.000000      3.940430000000000E-01     -1.472656000000000E+02      4.253693000000000E-01     -6.900000000000000E+01      4.172058000000000E-01     -1.753828000000000E+02      6.633911000000000E-01     -9.312109000000000E+01
4831000000.000000      3.982086000000000E-01     -1.481328000000000E+02      4.285126000000000E-01     -6.950390000000000E+01      4.212494000000000E-01     -1.754219000000000E+02      6.654968000000000E-01     -9.314844000000000E+01
4832000000.000000      4.039764000000000E-01     -1.490391000000000E+02      4.320679000000000E-01     -6.962109000000000E+01      4.241333000000000E-01     -1.754531000000000E+02      6.674194000000000E-01     -9.321093000000000E+01
4833000000.000000      4.086151000000000E-01     -1.500000000000000E+02      4.355621000000000E-01     -6.987109000000000E+01      4.283295000000000E-01     -1.756484000000000E+02      6.689758000000000E-01     -9.337891000000000E+01
4834000000.000000      4.130859000000000E-01     -1.508750000000000E+02      4.380951000000000E-01     -7.032031000000000E+01      4.322510000000000E-01     -1.756016000000000E+02      6.694031000000000E-01     -9.344530000000000E+01
4835000000.000000      4.178772000000000E-01     -1.516016000000000E+02      4.419556000000000E-01     -7.064453000000000E+01      4.366913000000000E-01     -1.756250000000000E+02      6.722717000000000E-01     -9.342577000000000E+01
4836000000.000000      4.237213000000000E-01     -1.523828000000000E+02      4.439240000000000E-01     -7.079687000000000E+01      4.403229000000000E-01     -1.756484000000000E+02      6.741943000000000E-01     -9.344530000000000E+01
4837000000.000000      4.286804000000000E-01     -1.532109000000000E+02      4.474335000000000E-01     -7.140234000000000E+01      4.438782000000000E-01     -1.758516000000000E+02      6.755371000000000E-01     -9.360546000000000E+01
4838000000.000000      4.341888000000000E-01     -1.541406000000000E+02      4.505768000000000E-01     -7.144921000000000E+01      4.481659000000000E-01     -1.758828000000000E+02      6.784668000000000E-01     -9.358984000000000E+01
4839000000.000000      4.389191000000000E-01     -1.548047000000000E+02      4.525604000000000E-01     -7.188671000000000E+01      4.519958000000000E-01     -1.759219000000000E+02      6.802979000000000E-01     -9.356249000000000E+01
4840000000.000000      4.434662000000000E-01     -1.556562000000000E+02      4.550018000000000E-01     -7.222656000000000E+01      4.557648000000000E-01     -1.760234000000000E+02      6.824036000000000E-01     -9.363281000000000E+01
4841000000.000000      4.491730000000000E-01     -1.564766000000000E+02      4.578094000000000E-01     -7.275000000000000E+01      4.594879000000000E-01     -1.761562000000000E+02      6.849365000000000E-01     -9.376562000000000E+01
4842000000.000000      4.543610000000000E-01     -1.571016000000000E+02      4.609375000000000E-01     -7.289453000000000E+01      4.623108000000000E-01     -1.762031000000000E+02      6.869507000000000E-01     -9.382030000000000E+01
4843000000.000000      4.591827000000000E-01     -1.578594000000000E+02      4.626770000000000E-01     -7.334374000000000E+01      4.667053000000000E-01     -1.762344000000000E+02      6.896973000000000E-01     -9.382030000000000E+01
4844000000.000000      4.641724000000000E-01     -1.585234000000000E+02      4.664001000000000E-01     -7.355859000000000E+01      4.706421000000000E-01     -1.763515000000000E+02      6.917725000000000E-01     -9.389063000000000E+01
4845000000.000000      4.689789000000000E-01     -1.591875000000000E+02      4.682007000000000E-01     -7.389453000000000E+01      4.750977000000000E-01     -1.765312000000000E+02      6.944885000000000E-01     -9.392187000000000E+01
4846000000.000000      4.735718000000000E-01     -1.597500000000000E+02      4.710693000000000E-01     -7.410546000000000E+01      4.793701000000000E-01     -1.765547000000000E+02      6.964417000000000E-01     -9.400391000000000E+01
4847000000.000000      4.791107000000000E-01     -1.605000000000000E+02      4.733734000000000E-01     -7.437890000000000E+01      4.827576000000000E-01     -1.767734000000000E+02      7.008057000000000E-01     -9.412500000000000E+01
4848000000.000000      4.841919000000000E-01     -1.611172000000000E+02      4.749603000000000E-01     -7.459765000000000E+01      4.867249000000000E-01     -1.768281000000000E+02      7.023010000000000E-01     -9.408983000000000E+01
4849000000.000000      4.885254000000000E-01     -1.619375000000000E+02      4.777069000000000E-01     -7.507813000000000E+01      4.904022000000000E-01     -1.769609000000000E+02      7.048340000000000E-01     -9.409765000000000E+01
4850000000.000000      4.936523000000000E-01     -1.622969000000000E+02      4.790344000000000E-01     -7.546875000000000E+01      4.935455000000000E-01     -1.769844000000000E+02      7.071533000000000E-01     -9.410547000000000E+01
4851000000.000000      4.980316000000000E-01     -1.629844000000000E+02      4.827881000000000E-01     -7.593750000000000E+01      4.968567000000000E-01     -1.772031000000000E+02      7.113647000000000E-01     -9.419531000000000E+01
4852000000.000000      5.033264000000000E-01     -1.635937000000000E+02      4.840698000000000E-01     -7.619141000000000E+01      5.016479000000000E-01     -1.772266000000000E+02      7.136536000000000E-01     -9.409765000000000E+01
4853000000.000000      5.071411000000000E-01     -1.641016000000000E+02      4.844208000000000E-01     -7.643359000000000E+01      5.053711000000000E-01     -1.774141000000000E+02      7.161865000000000E-01     -9.436718000000000E+01
4854000000.000000      5.109253000000000E-01     -1.646797000000000E+02      4.875488000000000E-01     -7.684375000000000E+01      5.082703000000000E-01     -1.775391000000000E+02      7.190552000000000E-01     -9.445313000000000E+01
4855000000.000000      5.138855000000000E-01     -1.652812000000000E+02      4.890747000000000E-01     -7.709374000000000E+01      5.120239000000000E-01     -1.776484000000000E+02      7.215881000000000E-01     -9.437500000000000E+01
4856000000.000000      5.191345000000000E-01     -1.656328000000000E+02      4.909515000000000E-01     -7.721874000000000E+01      5.154419000000000E-01     -1.778984000000000E+02      7.243958000000000E-01     -9.451563000000000E+01
4857000000.000000      5.227966000000000E-01     -1.662266000000000E+02      4.925537000000000E-01     -7.777344000000000E+01      5.189819000000000E-01     -1.780000000000000E+02      7.286682000000000E-01     -9.442577000000000E+01
4858000000.000000      5.238953000000000E-01     -1.667031000000000E+02      4.937134000000000E-01     -7.794140000000000E+01      5.225830000000000E-01     -1.781875000000000E+02      7.287598000000000E-01     -9.453905000000000E+01
4859000000.000000      5.288696000000000E-01     -1.672578000000000E+02      4.967957000000000E-01     -7.835546000000000E+01      5.252686000000000E-01     -1.785234000000000E+02      7.352295000000000E-01     -9.467968000000000E+01
4860000000.000000      5.324707000000000E-01     -1.677109000000000E+02      4.974823000000000E-01     -7.847656000000000E+01      5.283508000000000E-01     -1.784844000000000E+02      7.367249000000000E-01     -9.467968000000000E+01
4861000000.000000      5.354309000000000E-01     -1.680547000000000E+02      4.985657000000000E-01     -7.906250000000000E+01      5.320740000000000E-01     -1.786797000000000E+02      7.397461000000000E-01     -9.468750000000000E+01
4862000000.000000      5.376587000000000E-01     -1.684297000000000E+02      5.004272000000000E-01     -7.921093000000000E+01      5.353088000000000E-01     -1.787578000000000E+02      7.437744000000000E-01     -9.464062000000000E+01
4863000000.000000      5.396729000000000E-01     -1.689375000000000E+02      5.003357000000000E-01     -7.965234000000000E+01      5.397644000000000E-01     -1.789922000000000E+02      7.447205000000000E-01     -9.479296000000000E+01
4864000000.000000      5.438538000000000E-01     -1.693047000000000E+02      5.032043000000000E-01     -7.971874000000000E+01      5.410461000000000E-01     -1.791641000000000E+02      7.464294000000000E-01     -9.476171000000000E+01
4865000000.000000      5.448608000000000E-01     -1.698516000000000E+02      5.027161000000000E-01     -8.002344000000000E+01      5.438232000000000E-01     -1.794922000000000E+02      7.515564000000000E-01     -9.487108000000000E+01
4866000000.000000      5.473022000000000E-01     -1.700781000000000E+02      5.046082000000000E-01     -8.038280000000000E+01      5.463562000000000E-01     -1.796016000000000E+02      7.524719000000000E-01     -9.473436000000000E+01
4867000000.000000      5.484314000000000E-01     -1.703828000000000E+02      5.061951000000000E-01     -8.064062000000000E+01      5.490417000000000E-01     -1.798594000000000E+02      7.573547000000000E-01     -9.484766000000000E+01
4868000000.000000      5.507202000000000E-01     -1.707344000000000E+02      5.078430000000000E-01     -8.096874000000000E+01      5.534363000000000E-01      1.799297000000000E+02      7.583923000000000E-01     -9.493750000000000E+01
4869000000.000000      5.514526000000000E-01     -1.710859000000000E+02      5.074768000000000E-01     -8.118750000000000E+01      5.545349000000000E-01      1.798203000000000E+02      7.618713000000000E-01     -9.513281000000000E+01
4870000000.000000      5.537415000000000E-01     -1.714453000000000E+02      5.089111000000000E-01     -8.137890000000000E+01      5.576172000000000E-01      1.796328000000000E+02      7.647400000000000E-01     -9.493750000000000E+01
4871000000.000000      5.555420000000000E-01     -1.717734000000000E+02      5.104980000000000E-01     -8.166016000000000E+01      5.587158000000000E-01      1.794609000000000E+02      7.660828000000000E-01     -9.514452000000000E+01
4872000000.000000      5.564575000000000E-01     -1.719844000000000E+02      5.099487000000000E-01     -8.186327000000000E+01      5.617981000000000E-01      1.790625000000000E+02      7.695007000000000E-01     -9.523829000000000E+01
4873000000.000000      5.570374000000000E-01     -1.721250000000000E+02      5.111084000000000E-01     -8.210546000000000E+01      5.643921000000000E-01      1.790390000000000E+02      7.707825000000000E-01     -9.526953000000000E+01
4874000000.000000      5.566101000000000E-01     -1.724453000000000E+02      5.115662000000000E-01     -8.246874000000000E+01      5.682678000000000E-01      1.788516000000000E+02      7.730103000000000E-01     -9.506639000000000E+01
4875000000.000000      5.591736000000000E-01     -1.726953000000000E+02      5.118103000000000E-01     -8.251562000000000E+01      5.692139000000000E-01      1.785234000000000E+02      7.744751000000000E-01     -9.515625000000000E+01
4876000000.000000      5.574036000000000E-01     -1.729609000000000E+02      5.126648000000000E-01     -8.303514000000000E+01      5.697632000000000E-01      1.784219000000000E+02      7.787170000000000E-01     -9.535936000000000E+01
4877000000.000000      5.587769000000000E-01     -1.730937000000000E+02      5.148621000000000E-01     -8.287500000000000E+01      5.715332000000000E-01      1.780781000000000E+02      7.801208000000000E-01     -9.557421000000000E+01
4878000000.000000      5.591125000000000E-01     -1.732656000000000E+02      5.162354000000000E-01     -8.321093000000000E+01      5.746460000000000E-01      1.780078000000000E+02      7.827454000000000E-01     -9.552734000000000E+01
4879000000.000000      5.593872000000000E-01     -1.735312000000000E+02      5.148315000000000E-01     -8.351563000000000E+01      5.773315000000000E-01      1.777266000000000E+02      7.843018000000000E-01     -9.541407000000000E+01
4880000000.000000      5.575562000000000E-01     -1.737031000000000E+02      5.167236000000000E-01     -8.364061000000000E+01      5.781555000000000E-01      1.776406000000000E+02      7.869568000000000E-01     -9.542578000000000E+01
4881000000.000000      5.588684000000000E-01     -1.737344000000000E+02      5.193176000000000E-01     -8.358984000000000E+01      5.806274000000000E-01      1.772109000000000E+02      7.887573000000000E-01     -9.555468000000000E+01
4882000000.000000      5.572815000000000E-01     -1.739063000000000E+02      5.194092000000000E-01     -8.410156000000000E+01      5.821838000000000E-01      1.772422000000000E+02      7.892761000000000E-01     -9.566406000000000E+01
