! Network Analyzer HP8722D
! Hewlett-Packard
! Data name: Linha & Wilkinson
! Saver's name: Rodrigo Anjos
! Comments: Teste da utilização de aquisição
continua pelo VNA HP8722D
! Time and date: 17/4/2025 17:03
!              Frequency                     S11                                                   S21                                                   S12                                                   S22
# HZ  S  MA R 50
4800000000.000000      3.345032000000000E-01     -1.149922000000000E+02      3.053589000000000E-01     -6.166992000000000E+01      3.024902000000000E-01     -1.761250000000000E+02      6.571045000000000E-01     -9.119921000000000E+01
4801000000.000000      3.330841000000000E-01     -1.160156000000000E+02      3.094025000000000E-01     -6.182422000000000E+01      3.058319000000000E-01     -1.761328000000000E+02      6.571960000000000E-01     -9.128906000000000E+01
4802000000.000000      3.325348000000000E-01     -1.169883000000000E+02      3.134613000000000E-01     -6.194336000000000E+01      3.102112000000000E-01     -1.760156000000000E+02      6.549988000000000E-01     -9.126953000000000E+01
4803000000.000000      3.314209000000000E-01     -1.179688000000000E+02      3.194580000000000E-01     -6.208789000000000E+01      3.129730000000000E-01     -1.758437000000000E+02      6.545715000000000E-01     -9.149218000000000E+01
4804000000.000000      3.317261000000000E-01     -1.189063000000000E+02      3.231049000000000E-01     -6.228320000000000E+01      3.178864000000000E-01     -1.760547000000000E+02      6.538696000000000E-01     -9.152735000000000E+01
4805000000.000000      3.324738000000000E-01     -1.200664000000000E+02      3.271484000000000E-01     -6.255077000000000E+01      3.218384000000000E-01     -1.757813000000000E+02      6.536560000000000E-01     -9.167187000000000E+01
4806000000.000000      3.310242000000000E-01     -1.209922000000000E+02      3.313599000000000E-01     -6.258007000000000E+01      3.251801000000000E-01     -1.756484000000000E+02      6.532288000000000E-01     -9.180079000000000E+01
4807000000.000000      3.314056000000000E-01     -1.220586000000000E+02      3.358154000000000E-01     -6.295898000000000E+01      3.291168000000000E-01     -1.757734000000000E+02      6.525574000000000E-01     -9.185156000000000E+01
4808000000.000000      3.323517000000000E-01     -1.231328000000000E+02      3.403931000000000E-01     -6.283789000000000E+01      3.331909000000000E-01     -1.756641000000000E+02      6.510315000000000E-01     -9.190233000000000E+01
4809000000.000000      3.326874000000000E-01     -1.242539000000000E+02      3.441010000000000E-01     -6.332031000000000E+01      3.372345000000000E-01     -1.757031000000000E+02      6.512146000000000E-01     -9.203516000000000E+01
4810000000.000000      3.334198000000000E-01     -1.254062000000000E+02      3.485107000000000E-01     -6.341601000000000E+01      3.409576000000000E-01     -1.755781000000000E+02      6.517639000000000E-01     -9.212500000000000E+01
4811000000.000000      3.346405000000000E-01     -1.263789000000000E+02      3.530579000000000E-01     -6.362109000000000E+01      3.462982000000000E-01     -1.755391000000000E+02      6.506042000000000E-01     -9.212891000000000E+01
4812000000.000000      3.365479000000000E-01     -1.274023000000000E+02      3.563995000000000E-01     -6.405859000000000E+01      3.494720000000000E-01     -1.755703000000000E+02      6.507263000000000E-01     -9.226563000000000E+01
4813000000.000000      3.373718000000000E-01     -1.285078000000000E+02      3.607330000000000E-01     -6.410546000000000E+01      3.527222000000000E-01     -1.754141000000000E+02      6.500854000000000E-01     -9.225389000000000E+01
4814000000.000000      3.386841000000000E-01     -1.297656000000000E+02      3.643188000000000E-01     -6.437500000000000E+01      3.566589000000000E-01     -1.755391000000000E+02      6.517944000000000E-01     -9.241405000000000E+01
4815000000.000000      3.400421000000000E-01     -1.307734000000000E+02      3.684998000000000E-01     -6.462109000000000E+01      3.596649000000000E-01     -1.755000000000000E+02      6.507263000000000E-01     -9.241405000000000E+01
4816000000.000000      3.423157000000000E-01     -1.318438000000000E+02      3.732452000000000E-01     -6.478125000000000E+01      3.642731000000000E-01     -1.754219000000000E+02      6.501160000000000E-01     -9.253124000000000E+01
4817000000.000000      3.452911000000000E-01     -1.329062000000000E+02      3.770447000000000E-01     -6.516015000000000E+01      3.679962000000000E-01     -1.755234000000000E+02      6.502991000000000E-01     -9.276171000000000E+01
4818000000.000000      3.471832000000000E-01     -1.340312000000000E+02      3.798065000000000E-01     -6.544140000000000E+01      3.717041000000000E-01     -1.754922000000000E+02      6.515198000000000E-01     -9.275782000000000E+01
4819000000.000000      3.504333000000000E-01     -1.351406000000000E+02      3.841858000000000E-01     -6.563671000000000E+01      3.753357000000000E-01     -1.755000000000000E+02      6.532898000000000E-01     -9.287500000000000E+01
4820000000.000000      3.520660000000000E-01     -1.361797000000000E+02      3.882446000000000E-01     -6.588281000000000E+01      3.793793000000000E-01     -1.755703000000000E+02      6.526489000000000E-01     -9.299999000000000E+01
4821000000.000000      3.552856000000000E-01     -1.372422000000000E+02      3.922272000000000E-01     -6.635547000000000E+01      3.827515000000000E-01     -1.755938000000000E+02      6.518555000000000E-01     -9.310938000000000E+01
4822000000.000000      3.602753000000000E-01     -1.383203000000000E+02      3.938141000000000E-01     -6.650391000000000E+01      3.865814000000000E-01     -1.755312000000000E+02      6.546936000000000E-01     -9.310547000000000E+01
4823000000.000000      3.627014000000000E-01     -1.392656000000000E+02      3.989410000000000E-01     -6.670703000000000E+01      3.904266000000000E-01     -1.754922000000000E+02      6.548462000000000E-01     -9.329687000000000E+01
4824000000.000000      3.669739000000000E-01     -1.404141000000000E+02      4.022980000000000E-01     -6.710155000000000E+01      3.945770000000000E-01     -1.755078000000000E+02      6.563110000000000E-01     -9.329687000000000E+01
4825000000.000000      3.698273000000000E-01     -1.413516000000000E+02      4.050140000000000E-01     -6.723437000000000E+01      3.983917000000000E-01     -1.755781000000000E+02      6.573486000000000E-01     -9.325390000000000E+01
4826000000.000000      3.747559000000000E-01     -1.423281000000000E+02      4.092255000000000E-01     -6.764453000000000E+01      4.018707000000000E-01     -1.756641000000000E+02      6.590881000000000E-01     -9.343359000000000E+01
4827000000.000000      3.781128000000000E-01     -1.432578000000000E+02      4.125214000000000E-01     -6.782031000000000E+01      4.059601000000000E-01     -1.754844000000000E+02      6.604919000000000E-01     -9.351563000000000E+01
4828000000.000000      3.828583000000000E-01     -1.442812000000000E+02      4.166412000000000E-01     -6.809765000000000E+01      4.094849000000000E-01     -1.755703000000000E+02      6.627197000000000E-01     -9.350389000000000E+01
4829000000.000000      3.857574000000000E-01     -1.451094000000000E+02      4.185028000000000E-01     -6.846484000000000E+01      4.138489000000000E-01     -1.756328000000000E+02      6.628113000000000E-01     -9.350780000000000E+01
4830000000.000000      3.913574000000000E-01     -1.461016000000000E+02      4.218903000000000E-01     -6.880468000000000E+01      4.170990000000000E-01     -1.755234000000000E+02      6.641235000000000E-01     -9.367579000000000E+01
4831000000.000000      3.952332000000000E-01     -1.470000000000000E+02      4.256134000000000E-01     -6.905859000000000E+01      4.217529000000000E-01     -1.755625000000000E+02      6.660156000000000E-01     -9.377344000000000E+01
4832000000.000000      4.010010000000000E-01     -1.479297000000000E+02      4.299164000000000E-01     -6.928515000000000E+01      4.245605000000000E-01     -1.756406000000000E+02      6.679382000000000E-01     -9.392578000000000E+01
4833000000.000000      4.062653000000000E-01     -1.488594000000000E+02      4.322662000000000E-01     -6.962500000000000E+01      4.292450000000000E-01     -1.758125000000000E+02      6.689453000000000E-01     -9.380468000000000E+01
4834000000.000000      4.104156000000000E-01     -1.497422000000000E+02      4.354858000000000E-01     -7.006249000000000E+01      4.326172000000000E-01     -1.758437000000000E+02      6.712646000000000E-01     -9.393358000000000E+01
4835000000.000000      4.150391000000000E-01     -1.505078000000000E+02      4.387207000000000E-01     -7.033203000000000E+01      4.374542000000000E-01     -1.758906000000000E+02      6.730652000000000E-01     -9.408983000000000E+01
4836000000.000000      4.213257000000000E-01     -1.512656000000000E+02      4.414520000000000E-01     -7.062109000000000E+01      4.399872000000000E-01     -1.758750000000000E+02      6.751709000000000E-01     -9.402344000000000E+01
4837000000.000000      4.260406000000000E-01     -1.520703000000000E+02      4.439392000000000E-01     -7.125390000000000E+01      4.438782000000000E-01     -1.761484000000000E+02      6.772156000000000E-01     -9.414063000000000E+01
4838000000.000000      4.309998000000000E-01     -1.529844000000000E+02      4.483490000000000E-01     -7.125000000000000E+01      4.481201000000000E-01     -1.760703000000000E+02      6.787109000000000E-01     -9.405077000000000E+01
4839000000.000000      4.364014000000000E-01     -1.536094000000000E+02      4.500732000000000E-01     -7.161327000000000E+01      4.519043000000000E-01     -1.760859000000000E+02      6.806335000000000E-01     -9.410936000000000E+01
4840000000.000000      4.409027000000000E-01     -1.545312000000000E+02      4.520874000000000E-01     -7.178905000000000E+01      4.566040000000000E-01     -1.762344000000000E+02      6.832275000000000E-01     -9.425781000000000E+01
4841000000.000000      4.463501000000000E-01     -1.553359000000000E+02      4.556885000000000E-01     -7.226171000000000E+01      4.600830000000000E-01     -1.764141000000000E+02      6.849365000000000E-01     -9.437109000000000E+01
4842000000.000000      4.518890000000000E-01     -1.558672000000000E+02      4.582520000000000E-01     -7.262500000000000E+01      4.624481000000000E-01     -1.763984000000000E+02      6.877441000000000E-01     -9.432032000000000E+01
4843000000.000000      4.560852000000000E-01     -1.567109000000000E+02      4.602661000000000E-01     -7.299609000000000E+01      4.673767000000000E-01     -1.764141000000000E+02      6.900024000000000E-01     -9.444139000000000E+01
4844000000.000000      4.617004000000000E-01     -1.573750000000000E+02      4.627686000000000E-01     -7.326562000000000E+01      4.701843000000000E-01     -1.765938000000000E+02      6.931458000000000E-01     -9.454296000000000E+01
4845000000.000000      4.663544000000000E-01     -1.580078000000000E+02      4.647675000000000E-01     -7.347265000000000E+01      4.749451000000000E-01     -1.766719000000000E+02      6.944275000000000E-01     -9.456640000000000E+01
4846000000.000000      4.712982000000000E-01     -1.586016000000000E+02      4.683075000000000E-01     -7.386328000000000E+01      4.794312000000000E-01     -1.768047000000000E+02      6.971741000000000E-01     -9.454296000000000E+01
4847000000.000000      4.775085000000000E-01     -1.593516000000000E+02      4.709320000000000E-01     -7.421484000000000E+01      4.829559000000000E-01     -1.769140000000000E+02      7.011414000000000E-01     -9.471483000000000E+01
4848000000.000000      4.821014000000000E-01     -1.599609000000000E+02      4.728241000000000E-01     -7.449219000000000E+01      4.864197000000000E-01     -1.770313000000000E+02      7.038574000000000E-01     -9.462891000000000E+01
4849000000.000000      4.867401000000000E-01     -1.608281000000000E+02      4.754486000000000E-01     -7.494531000000000E+01      4.902344000000000E-01     -1.771563000000000E+02      7.057190000000000E-01     -9.468750000000000E+01
4850000000.000000      4.917603000000000E-01     -1.611875000000000E+02      4.779358000000000E-01     -7.519140000000000E+01      4.939117000000000E-01     -1.772656000000000E+02      7.093201000000000E-01     -9.478125000000000E+01
4851000000.000000      4.959412000000000E-01     -1.617578000000000E+02      4.803162000000000E-01     -7.557422000000000E+01      4.970093000000000E-01     -1.773516000000000E+02      7.131348000000000E-01     -9.483593000000000E+01
4852000000.000000      5.005798000000000E-01     -1.623281000000000E+02      4.821472000000000E-01     -7.592578000000000E+01      5.008545000000000E-01     -1.773281000000000E+02      7.138672000000000E-01     -9.482031000000000E+01
4853000000.000000      5.051575000000000E-01     -1.629141000000000E+02      4.825439000000000E-01     -7.620312000000000E+01      5.051880000000000E-01     -1.776484000000000E+02      7.164917000000000E-01     -9.496485000000000E+01
4854000000.000000      5.092468000000000E-01     -1.634063000000000E+02      4.853363000000000E-01     -7.658984000000000E+01      5.075378000000000E-01     -1.778906000000000E+02      7.203064000000000E-01     -9.496874000000000E+01
4855000000.000000      5.126343000000000E-01     -1.640703000000000E+02      4.871979000000000E-01     -7.677343000000000E+01      5.115662000000000E-01     -1.778906000000000E+02      7.221680000000000E-01     -9.495312000000000E+01
4856000000.000000      5.174561000000000E-01     -1.645234000000000E+02      4.894714000000000E-01     -7.717578000000000E+01      5.146790000000000E-01     -1.780781000000000E+02      7.258301000000000E-01     -9.506250000000000E+01
4857000000.000000      5.212708000000000E-01     -1.650547000000000E+02      4.916382000000000E-01     -7.746094000000000E+01      5.172119000000000E-01     -1.781797000000000E+02      7.274475000000000E-01     -9.505859000000000E+01
4858000000.000000      5.230103000000000E-01     -1.655859000000000E+02      4.922333000000000E-01     -7.766015000000000E+01      5.220032000000000E-01     -1.784141000000000E+02      7.314148000000000E-01     -9.516016000000000E+01
4859000000.000000      5.277710000000000E-01     -1.661172000000000E+02      4.938965000000000E-01     -7.799609000000000E+01      5.251160000000000E-01     -1.787500000000000E+02      7.344971000000000E-01     -9.532812000000000E+01
4860000000.000000      5.323792000000000E-01     -1.665703000000000E+02      4.953613000000000E-01     -7.851563000000000E+01      5.287476000000000E-01     -1.786641000000000E+02      7.359924000000000E-01     -9.518358000000000E+01
4861000000.000000      5.351563000000000E-01     -1.668516000000000E+02      4.975128000000000E-01     -7.887500000000000E+01      5.327759000000000E-01     -1.789063000000000E+02      7.406311000000000E-01     -9.529688000000000E+01
4862000000.000000      5.375366000000000E-01     -1.673203000000000E+02      4.999237000000000E-01     -7.876562000000000E+01      5.361633000000000E-01     -1.790703000000000E+02      7.435608000000000E-01     -9.530468000000000E+01
4863000000.000000      5.394287000000000E-01     -1.677500000000000E+02      4.986725000000000E-01     -7.934765000000000E+01      5.386658000000000E-01     -1.792734000000000E+02      7.461243000000000E-01     -9.542969000000000E+01
4864000000.000000      5.430298000000000E-01     -1.681953000000000E+02      5.016785000000000E-01     -7.942187000000000E+01      5.409851000000000E-01     -1.795547000000000E+02      7.490540000000000E-01     -9.553905000000000E+01
4865000000.000000      5.446167000000000E-01     -1.687109000000000E+02      5.012817000000000E-01     -7.956640000000000E+01      5.447083000000000E-01     -1.796953000000000E+02      7.509766000000000E-01     -9.535547000000000E+01
4866000000.000000      5.463867000000000E-01     -1.689375000000000E+02      5.034180000000000E-01     -7.998828000000000E+01      5.478821000000000E-01     -1.798047000000000E+02      7.552185000000000E-01     -9.548046000000000E+01
4867000000.000000      5.490723000000000E-01     -1.692734000000000E+02      5.044556000000000E-01     -8.046484000000000E+01      5.493774000000000E-01     -1.799062000000000E+02      7.575989000000000E-01     -9.555079000000000E+01
4868000000.000000      5.511475000000000E-01     -1.696406000000000E+02      5.041504000000000E-01     -8.073437000000000E+01      5.529175000000000E-01      1.798125000000000E+02      7.586060000000000E-01     -9.559765000000000E+01
4869000000.000000      5.522461000000000E-01     -1.699453000000000E+02      5.046387000000000E-01     -8.080858000000000E+01      5.562439000000000E-01      1.796172000000000E+02      7.626953000000000E-01     -9.579687000000000E+01
4870000000.000000      5.538330000000000E-01     -1.702891000000000E+02      5.071716000000000E-01     -8.094921000000000E+01      5.573730000000000E-01      1.793281000000000E+02      7.643127000000000E-01     -9.564453000000000E+01
4871000000.000000      5.557861000000000E-01     -1.706172000000000E+02      5.074463000000000E-01     -8.143358000000000E+01      5.595093000000000E-01      1.792109000000000E+02      7.657166000000000E-01     -9.578516000000000E+01
4872000000.000000      5.573120000000000E-01     -1.708359000000000E+02      5.090332000000000E-01     -8.142969000000000E+01      5.611267000000000E-01      1.788047000000000E+02      7.701111000000000E-01     -9.576563000000000E+01
4873000000.000000      5.585938000000000E-01     -1.710859000000000E+02      5.091858000000000E-01     -8.185547000000000E+01      5.644531000000000E-01      1.787578000000000E+02      7.714233000000000E-01     -9.591797000000000E+01
4874000000.000000      5.585938000000000E-01     -1.713281000000000E+02      5.105591000000000E-01     -8.217188000000000E+01      5.681152000000000E-01      1.785859000000000E+02      7.734070000000000E-01     -9.575781000000000E+01
4875000000.000000      5.611877000000000E-01     -1.716250000000000E+02      5.115967000000000E-01     -8.236719000000000E+01      5.684204000000000E-01      1.783437000000000E+02      7.751770000000000E-01     -9.592577000000000E+01
4876000000.000000      5.603638000000000E-01     -1.717344000000000E+02      5.118103000000000E-01     -8.246485000000000E+01      5.712585000000000E-01      1.781641000000000E+02      7.786255000000000E-01     -9.601171000000000E+01
4877000000.000000      5.593262000000000E-01     -1.718984000000000E+02      5.128174000000000E-01     -8.264452000000000E+01      5.726624000000000E-01      1.778437000000000E+02      7.802124000000000E-01     -9.607811000000000E+01
4878000000.000000      5.614014000000000E-01     -1.720781000000000E+02      5.151672000000000E-01     -8.296875000000000E+01      5.760803000000000E-01      1.777500000000000E+02      7.826843000000000E-01     -9.611328000000000E+01
4879000000.000000      5.614014000000000E-01     -1.723359000000000E+02      5.152893000000000E-01     -8.315233000000000E+01      5.755615000000000E-01      1.774688000000000E+02      7.840576000000000E-01     -9.591797000000000E+01
4880000000.000000      5.599670000000000E-01     -1.725547000000000E+02      5.164185000000000E-01     -8.341797000000000E+01      5.804443000000000E-01      1.774688000000000E+02      7.865601000000000E-01     -9.611328000000000E+01
4881000000.000000      5.612183000000000E-01     -1.726016000000000E+02      5.173645000000000E-01     -8.343359000000000E+01      5.809021000000000E-01      1.769922000000000E+02      7.886963000000000E-01     -9.623827000000000E+01
4882000000.000000      5.590210000000000E-01     -1.727578000000000E+02      5.174866000000000E-01     -8.370703000000000E+01      5.821838000000000E-01      1.768281000000000E+02      7.883911000000000E-01     -9.618750000000000E+01
