! Network Analyzer HP8722D
! Hewlett-Packard
! Data name: Linha & Wilkinson
! Saver's name: Rodrigo Anjos
! Comments: Teste da utilização de aquisição
continua pelo VNA HP8722D
! Time and date: 17/4/2025 17:37
!              Frequency                     S11                                                   S21                                                   S12                                                   S22
# HZ  S  MA R 50
4800000000.000000      3.353882000000000E-01     -1.145273000000000E+02      2.970581000000000E-01     -6.118164000000000E+01      2.911224000000000E-01     -1.753594000000000E+02      6.564026000000000E-01     -9.039063000000000E+01
4801000000.000000      3.342896000000000E-01     -1.154140000000000E+02      3.021851000000000E-01     -6.116992000000000E+01      2.950134000000000E-01     -1.752656000000000E+02      6.549683000000000E-01     -9.044140000000000E+01
4802000000.000000      3.336334000000000E-01     -1.163711000000000E+02      3.065491000000000E-01     -6.127343000000000E+01      2.993622000000000E-01     -1.750937000000000E+02      6.535339000000000E-01     -9.052343000000000E+01
4803000000.000000      3.333588000000000E-01     -1.174258000000000E+02      3.116302000000000E-01     -6.142773000000000E+01      3.029480000000000E-01     -1.750234000000000E+02      6.537170000000000E-01     -9.060547000000000E+01
4804000000.000000      3.335571000000000E-01     -1.184961000000000E+02      3.149109000000000E-01     -6.155273000000000E+01      3.074799000000000E-01     -1.749844000000000E+02      6.523438000000000E-01     -9.073828000000000E+01
4805000000.000000      3.332825000000000E-01     -1.193945000000000E+02      3.197479000000000E-01     -6.172070000000000E+01      3.114471000000000E-01     -1.748437000000000E+02      6.524963000000000E-01     -9.084764000000000E+01
4806000000.000000      3.327026000000000E-01     -1.203203000000000E+02      3.242798000000000E-01     -6.183203000000000E+01      3.144836000000000E-01     -1.747422000000000E+02      6.519470000000000E-01     -9.097656000000000E+01
4807000000.000000      3.327637000000000E-01     -1.214961000000000E+02      3.286285000000000E-01     -6.203125000000000E+01      3.188629000000000E-01     -1.748672000000000E+02      6.514587000000000E-01     -9.101563000000000E+01
4808000000.000000      3.332520000000000E-01     -1.225508000000000E+02      3.335266000000000E-01     -6.213672000000000E+01      3.230438000000000E-01     -1.746875000000000E+02      6.505127000000000E-01     -9.106640000000000E+01
4809000000.000000      3.337860000000000E-01     -1.236523000000000E+02      3.372498000000000E-01     -6.252343000000000E+01      3.276062000000000E-01     -1.747344000000000E+02      6.508484000000000E-01     -9.121485000000000E+01
4810000000.000000      3.344269000000000E-01     -1.248633000000000E+02      3.413544000000000E-01     -6.247851000000000E+01      3.313599000000000E-01     -1.747266000000000E+02      6.504517000000000E-01     -9.132813000000000E+01
4811000000.000000      3.356934000000000E-01     -1.257930000000000E+02      3.463440000000000E-01     -6.297656000000000E+01      3.360138000000000E-01     -1.745312000000000E+02      6.495667000000000E-01     -9.130077000000000E+01
4812000000.000000      3.371124000000000E-01     -1.267617000000000E+02      3.503571000000000E-01     -6.313086000000000E+01      3.397827000000000E-01     -1.744453000000000E+02      6.495056000000000E-01     -9.145311000000000E+01
4813000000.000000      3.382721000000000E-01     -1.280313000000000E+02      3.533936000000000E-01     -6.331055000000000E+01      3.433380000000000E-01     -1.744062000000000E+02      6.495667000000000E-01     -9.147264000000000E+01
4814000000.000000      3.390808000000000E-01     -1.291875000000000E+02      3.581696000000000E-01     -6.352148000000000E+01      3.472748000000000E-01     -1.744531000000000E+02      6.497192000000000E-01     -9.164454000000000E+01
4815000000.000000      3.407440000000000E-01     -1.301406000000000E+02      3.619995000000000E-01     -6.390234000000000E+01      3.510284000000000E-01     -1.744609000000000E+02      6.495972000000000E-01     -9.168360000000000E+01
4816000000.000000      3.429108000000000E-01     -1.311484000000000E+02      3.664246000000000E-01     -6.384179000000000E+01      3.556213000000000E-01     -1.742812000000000E+02      6.491089000000000E-01     -9.166796000000000E+01
4817000000.000000      3.462372000000000E-01     -1.321875000000000E+02      3.696442000000000E-01     -6.418750000000000E+01      3.587189000000000E-01     -1.743672000000000E+02      6.493835000000000E-01     -9.190233000000000E+01
4818000000.000000      3.477173000000000E-01     -1.334609000000000E+02      3.740387000000000E-01     -6.449609000000000E+01      3.626709000000000E-01     -1.742891000000000E+02      6.494141000000000E-01     -9.195704000000000E+01
4819000000.000000      3.505249000000000E-01     -1.344609000000000E+02      3.772125000000000E-01     -6.470703000000000E+01      3.661652000000000E-01     -1.743281000000000E+02      6.518555000000000E-01     -9.204296000000000E+01
4820000000.000000      3.525848000000000E-01     -1.354687000000000E+02      3.815765000000000E-01     -6.486718000000000E+01      3.702850000000000E-01     -1.743203000000000E+02      6.516724000000000E-01     -9.204687000000000E+01
4821000000.000000      3.559723000000000E-01     -1.366016000000000E+02      3.856049000000000E-01     -6.523828000000000E+01      3.744812000000000E-01     -1.744297000000000E+02      6.511536000000000E-01     -9.223436000000000E+01
4822000000.000000      3.604889000000000E-01     -1.376562000000000E+02      3.888855000000000E-01     -6.555859000000000E+01      3.780060000000000E-01     -1.743438000000000E+02      6.538086000000000E-01     -9.223436000000000E+01
4823000000.000000      3.624115000000000E-01     -1.387578000000000E+02      3.925018000000000E-01     -6.576562000000000E+01      3.818817000000000E-01     -1.742578000000000E+02      6.539612000000000E-01     -9.228516000000000E+01
4824000000.000000      3.666840000000000E-01     -1.397578000000000E+02      3.965912000000000E-01     -6.606250000000000E+01      3.865967000000000E-01     -1.742344000000000E+02      6.552124000000000E-01     -9.241796000000000E+01
4825000000.000000      3.699341000000000E-01     -1.407266000000000E+02      3.995056000000000E-01     -6.628906000000000E+01      3.905792000000000E-01     -1.741875000000000E+02      6.558228000000000E-01     -9.240234000000000E+01
4826000000.000000      3.747253000000000E-01     -1.417500000000000E+02      4.041443000000000E-01     -6.667578000000000E+01      3.937836000000000E-01     -1.744688000000000E+02      6.568909000000000E-01     -9.254686000000000E+01
4827000000.000000      3.783112000000000E-01     -1.425781000000000E+02      4.074097000000000E-01     -6.685937000000000E+01      3.975983000000000E-01     -1.743203000000000E+02      6.591187000000000E-01     -9.250000000000000E+01
4828000000.000000      3.835297000000000E-01     -1.436172000000000E+02      4.115448000000000E-01     -6.708202000000000E+01      4.018707000000000E-01     -1.742266000000000E+02      6.605530000000000E-01     -9.257030000000000E+01
4829000000.000000      3.860321000000000E-01     -1.444844000000000E+02      4.140320000000000E-01     -6.755077000000000E+01      4.049988000000000E-01     -1.742812000000000E+02      6.613464000000000E-01     -9.264063000000000E+01
4830000000.000000      3.912048000000000E-01     -1.454844000000000E+02      4.176331000000000E-01     -6.777734000000000E+01      4.095001000000000E-01     -1.743594000000000E+02      6.625671000000000E-01     -9.283594000000000E+01
4831000000.000000      3.955688000000000E-01     -1.463906000000000E+02      4.200439000000000E-01     -6.809375000000000E+01      4.134979000000000E-01     -1.742969000000000E+02      6.648560000000000E-01     -9.283594000000000E+01
4832000000.000000      4.012604000000000E-01     -1.472812000000000E+02      4.247589000000000E-01     -6.827343000000000E+01      4.168396000000000E-01     -1.744297000000000E+02      6.665344000000000E-01     -9.285547000000000E+01
4833000000.000000      4.058990000000000E-01     -1.482500000000000E+02      4.275055000000000E-01     -6.870312000000000E+01      4.211731000000000E-01     -1.744922000000000E+02      6.685486000000000E-01     -9.298046000000000E+01
4834000000.000000      4.103699000000000E-01     -1.491172000000000E+02      4.309845000000000E-01     -6.892968000000000E+01      4.255829000000000E-01     -1.744609000000000E+02      6.690674000000000E-01     -9.302734000000000E+01
4835000000.000000      4.149475000000000E-01     -1.498984000000000E+02      4.331055000000000E-01     -6.942187000000000E+01      4.299164000000000E-01     -1.745156000000000E+02      6.717224000000000E-01     -9.313280000000000E+01
4836000000.000000      4.208679000000000E-01     -1.506406000000000E+02      4.368134000000000E-01     -6.955078000000000E+01      4.330902000000000E-01     -1.745234000000000E+02      6.729126000000000E-01     -9.313280000000000E+01
4837000000.000000      4.260101000000000E-01     -1.514531000000000E+02      4.402924000000000E-01     -7.007813000000000E+01      4.368591000000000E-01     -1.746953000000000E+02      6.744385000000000E-01     -9.314453000000000E+01
4838000000.000000      4.313507000000000E-01     -1.523750000000000E+02      4.439545000000000E-01     -7.018359000000000E+01      4.416351000000000E-01     -1.747890000000000E+02      6.770020000000000E-01     -9.325781000000000E+01
4839000000.000000      4.361420000000000E-01     -1.529922000000000E+02      4.459839000000000E-01     -7.060937000000000E+01      4.452057000000000E-01     -1.746875000000000E+02      6.792908000000000E-01     -9.319921000000000E+01
4840000000.000000      4.408417000000000E-01     -1.538516000000000E+02      4.473724000000000E-01     -7.089453000000000E+01      4.497375000000000E-01     -1.749141000000000E+02      6.813049000000000E-01     -9.326952000000000E+01
4841000000.000000      4.462280000000000E-01     -1.547266000000000E+02      4.514771000000000E-01     -7.120312000000000E+01      4.538116000000000E-01     -1.750313000000000E+02      6.847839000000000E-01     -9.339844000000000E+01
4842000000.000000      4.517365000000000E-01     -1.553203000000000E+02      4.546661000000000E-01     -7.151172000000000E+01      4.564972000000000E-01     -1.750547000000000E+02      6.866760000000000E-01     -9.337109000000000E+01
4843000000.000000      4.565277000000000E-01     -1.561719000000000E+02      4.573975000000000E-01     -7.193749000000000E+01      4.609375000000000E-01     -1.751328000000000E+02      6.889343000000000E-01     -9.341406000000000E+01
4844000000.000000      4.615784000000000E-01     -1.567656000000000E+02      4.601898000000000E-01     -7.221484000000000E+01      4.646301000000000E-01     -1.752187000000000E+02      6.924744000000000E-01     -9.350389000000000E+01
4845000000.000000      4.662476000000000E-01     -1.573828000000000E+02      4.624481000000000E-01     -7.248437000000000E+01      4.689789000000000E-01     -1.753438000000000E+02      6.929321000000000E-01     -9.349218000000000E+01
4846000000.000000      4.715729000000000E-01     -1.580391000000000E+02      4.655609000000000E-01     -7.271874000000000E+01      4.733582000000000E-01     -1.754609000000000E+02      6.961365000000000E-01     -9.362499000000000E+01
4847000000.000000      4.772339000000000E-01     -1.587656000000000E+02      4.672241000000000E-01     -7.314453000000000E+01      4.776306000000000E-01     -1.755859000000000E+02      6.997375000000000E-01     -9.376953000000000E+01
4848000000.000000      4.816437000000000E-01     -1.593594000000000E+02      4.700165000000000E-01     -7.338672000000000E+01      4.809875000000000E-01     -1.756641000000000E+02      7.009888000000000E-01     -9.364452000000000E+01
4849000000.000000      4.867706000000000E-01     -1.602422000000000E+02      4.729919000000000E-01     -7.397265000000000E+01      4.852295000000000E-01     -1.758203000000000E+02      7.051086000000000E-01     -9.364843000000000E+01
4850000000.000000      4.917297000000000E-01     -1.605625000000000E+02      4.743958000000000E-01     -7.416016000000000E+01      4.889221000000000E-01     -1.758984000000000E+02      7.076721000000000E-01     -9.382030000000000E+01
4851000000.000000      4.960327000000000E-01     -1.611797000000000E+02      4.774323000000000E-01     -7.448828000000000E+01      4.920807000000000E-01     -1.760391000000000E+02      7.106628000000000E-01     -9.380859000000000E+01
4852000000.000000      5.013123000000000E-01     -1.618281000000000E+02      4.792938000000000E-01     -7.494922000000000E+01      4.966736000000000E-01     -1.760781000000000E+02      7.134094000000000E-01     -9.385546000000000E+01
4853000000.000000      5.057983000000000E-01     -1.623828000000000E+02      4.797211000000000E-01     -7.514062000000000E+01      5.007324000000000E-01     -1.763515000000000E+02      7.159729000000000E-01     -9.403515000000000E+01
4854000000.000000      5.100403000000000E-01     -1.628984000000000E+02      4.824982000000000E-01     -7.551562000000000E+01      5.038147000000000E-01     -1.764141000000000E+02      7.182312000000000E-01     -9.400391000000000E+01
4855000000.000000      5.128174000000000E-01     -1.634922000000000E+02      4.840088000000000E-01     -7.574609000000000E+01      5.081482000000000E-01     -1.766094000000000E+02      7.208862000000000E-01     -9.392187000000000E+01
4856000000.000000      5.182800000000000E-01     -1.639609000000000E+02      4.870148000000000E-01     -7.610937000000000E+01      5.117493000000000E-01     -1.768281000000000E+02      7.252502000000000E-01     -9.399609000000000E+01
4857000000.000000      5.220642000000000E-01     -1.645313000000000E+02      4.891968000000000E-01     -7.645312000000000E+01      5.149231000000000E-01     -1.769609000000000E+02      7.280884000000000E-01     -9.403906000000000E+01
4858000000.000000      5.235596000000000E-01     -1.650391000000000E+02      4.900208000000000E-01     -7.672656000000000E+01      5.175781000000000E-01     -1.770469000000000E+02      7.306519000000000E-01     -9.417578000000000E+01
4859000000.000000      5.281677000000000E-01     -1.654922000000000E+02      4.915771000000000E-01     -7.696875000000000E+01      5.210266000000000E-01     -1.772734000000000E+02      7.341003000000000E-01     -9.432812000000000E+01
4860000000.000000      5.327454000000000E-01     -1.659765000000000E+02      4.954376000000000E-01     -7.719921000000000E+01      5.248718000000000E-01     -1.774609000000000E+02      7.358398000000000E-01     -9.412500000000000E+01
4861000000.000000      5.351257000000000E-01     -1.663906000000000E+02      4.961243000000000E-01     -7.771484000000000E+01      5.283203000000000E-01     -1.775625000000000E+02      7.392273000000000E-01     -9.427343000000000E+01
4862000000.000000      5.381165000000000E-01     -1.667812000000000E+02      4.979248000000000E-01     -7.798828000000000E+01      5.328064000000000E-01     -1.777031000000000E+02      7.439575000000000E-01     -9.428125000000000E+01
4863000000.000000      5.404663000000000E-01     -1.672266000000000E+02      4.989777000000000E-01     -7.833984000000000E+01      5.356140000000000E-01     -1.779766000000000E+02      7.443542000000000E-01     -9.432032000000000E+01
4864000000.000000      5.437012000000000E-01     -1.677031000000000E+02      5.010681000000000E-01     -7.842968000000000E+01      5.368347000000000E-01     -1.780547000000000E+02      7.485657000000000E-01     -9.445704000000000E+01
4865000000.000000      5.455627000000000E-01     -1.682188000000000E+02      5.006409000000000E-01     -7.873828000000000E+01      5.419922000000000E-01     -1.783359000000000E+02      7.510681000000000E-01     -9.444139000000000E+01
4866000000.000000      5.476074000000000E-01     -1.683437000000000E+02      5.023804000000000E-01     -7.913280000000000E+01      5.443726000000000E-01     -1.784141000000000E+02      7.537842000000000E-01     -9.437891000000000E+01
4867000000.000000      5.500793000000000E-01     -1.686953000000000E+02      5.038147000000000E-01     -7.935547000000000E+01      5.457458000000000E-01     -1.786797000000000E+02      7.567444000000000E-01     -9.449219000000000E+01
4868000000.000000      5.523376000000000E-01     -1.691562000000000E+02      5.037231000000000E-01     -7.980078000000000E+01      5.507813000000000E-01     -1.788906000000000E+02      7.583618000000000E-01     -9.452343000000000E+01
4869000000.000000      5.538635000000000E-01     -1.694687000000000E+02      5.053711000000000E-01     -8.000780000000000E+01      5.525208000000000E-01     -1.792187000000000E+02      7.627869000000000E-01     -9.469141000000000E+01
4870000000.000000      5.554199000000000E-01     -1.697734000000000E+02      5.063171000000000E-01     -7.997265000000000E+01      5.553284000000000E-01     -1.793281000000000E+02      7.654114000000000E-01     -9.449999000000000E+01
4871000000.000000      5.573425000000000E-01     -1.701484000000000E+02      5.081177000000000E-01     -8.036327000000000E+01      5.574951000000000E-01     -1.795156000000000E+02      7.665405000000000E-01     -9.471874000000000E+01
4872000000.000000      5.588074000000000E-01     -1.703281000000000E+02      5.084534000000000E-01     -8.057421000000000E+01      5.596313000000000E-01      1.799922000000000E+02      7.695923000000000E-01     -9.473436000000000E+01
4873000000.000000      5.590515000000000E-01     -1.705937000000000E+02      5.091553000000000E-01     -8.101563000000000E+01      5.629578000000000E-01     -1.798750000000000E+02      7.708130000000000E-01     -9.478125000000000E+01
4874000000.000000      5.593567000000000E-01     -1.708203000000000E+02      5.108948000000000E-01     -8.123827000000000E+01      5.646973000000000E-01      1.798672000000000E+02      7.740784000000000E-01     -9.470312000000000E+01
4875000000.000000      5.622253000000000E-01     -1.711250000000000E+02      5.116272000000000E-01     -8.145702000000000E+01      5.689392000000000E-01      1.795938000000000E+02      7.773132000000000E-01     -9.489061000000000E+01
4876000000.000000      5.607605000000000E-01     -1.712734000000000E+02      5.120850000000000E-01     -8.176561000000000E+01      5.694885000000000E-01      1.793984000000000E+02      7.787170000000000E-01     -9.483984000000000E+01
4877000000.000000      5.616760000000000E-01     -1.714922000000000E+02      5.138550000000000E-01     -8.186718000000000E+01      5.722656000000000E-01      1.790547000000000E+02      7.806091000000000E-01     -9.513281000000000E+01
4878000000.000000      5.630188000000000E-01     -1.717109000000000E+02      5.154419000000000E-01     -8.187891000000000E+01      5.737915000000000E-01      1.789297000000000E+02      7.828979000000000E-01     -9.506250000000000E+01
4879000000.000000      5.632629000000000E-01     -1.719219000000000E+02      5.142822000000000E-01     -8.225780000000000E+01      5.772095000000000E-01      1.788672000000000E+02      7.848511000000000E-01     -9.501562000000000E+01
4880000000.000000      5.619507000000000E-01     -1.720156000000000E+02      5.155334000000000E-01     -8.250391000000000E+01      5.780029000000000E-01      1.785781000000000E+02      7.881165000000000E-01     -9.504297000000000E+01
4881000000.000000      5.632935000000000E-01     -1.721641000000000E+02      5.174866000000000E-01     -8.258984000000000E+01      5.806885000000000E-01      1.784219000000000E+02      7.895508000000000E-01     -9.515234000000000E+01
4882000000.000000      5.617981000000000E-01     -1.722422000000000E+02      5.195007000000000E-01     -8.296484000000000E+01      5.818176000000000E-01      1.781719000000000E+02      7.919922000000000E-01     -9.495703000000000E+01
