! Network Analyzer HP8722D
! Hewlett-Packard
! Data name: Linha & Wilkinson
! Saver's name: Rodrigo Anjos
! Comments: Teste da utilização de aquisição
continua pelo VNA HP8722D
! Time and date: 17/4/2025 15:05
!              Frequency                     S11                                                   S21                                                   S12                                                   S22
# HZ  S  MA R 50
4800000000.000000      3.338470000000000E-01     -1.135859000000000E+02      2.904205000000000E-01     -6.091601000000000E+01      2.840881000000000E-01     -1.751797000000000E+02      6.564331000000000E-01     -9.013672000000000E+01
4801000000.000000      3.325653000000000E-01     -1.145586000000000E+02      2.946320000000000E-01     -6.084374000000000E+01      2.879333000000000E-01     -1.749297000000000E+02      6.547546000000000E-01     -9.020702000000000E+01
4802000000.000000      3.312988000000000E-01     -1.154726000000000E+02      2.987976000000000E-01     -6.099414000000000E+01      2.921906000000000E-01     -1.748203000000000E+02      6.528625000000000E-01     -9.020311000000000E+01
4803000000.000000      3.316193000000000E-01     -1.166094000000000E+02      3.046417000000000E-01     -6.113281000000000E+01      2.964630000000000E-01     -1.747266000000000E+02      6.529846000000000E-01     -9.036327000000000E+01
4804000000.000000      3.312378000000000E-01     -1.175430000000000E+02      3.085175000000000E-01     -6.116796000000000E+01      3.002625000000000E-01     -1.747344000000000E+02      6.527100000000000E-01     -9.037889000000000E+01
4805000000.000000      3.305511000000000E-01     -1.185703000000000E+02      3.126373000000000E-01     -6.136719000000000E+01      3.052063000000000E-01     -1.745312000000000E+02      6.512756000000000E-01     -9.057421000000000E+01
4806000000.000000      3.300629000000000E-01     -1.194648000000000E+02      3.169556000000000E-01     -6.142773000000000E+01      3.082733000000000E-01     -1.743750000000000E+02      6.512756000000000E-01     -9.070313000000000E+01
4807000000.000000      3.302307000000000E-01     -1.205312000000000E+02      3.223419000000000E-01     -6.177148000000000E+01      3.128815000000000E-01     -1.744688000000000E+02      6.496277000000000E-01     -9.073437000000000E+01
4808000000.000000      3.308716000000000E-01     -1.216562000000000E+02      3.267212000000000E-01     -6.159961000000000E+01      3.165283000000000E-01     -1.742500000000000E+02      6.499023000000000E-01     -9.076172000000000E+01
4809000000.000000      3.311462000000000E-01     -1.226563000000000E+02      3.309174000000000E-01     -6.223046000000000E+01      3.211365000000000E-01     -1.742969000000000E+02      6.493225000000000E-01     -9.095312000000000E+01
4810000000.000000      3.317871000000000E-01     -1.238906000000000E+02      3.352051000000000E-01     -6.227929000000000E+01      3.252716000000000E-01     -1.741797000000000E+02      6.499329000000000E-01     -9.103125000000000E+01
4811000000.000000      3.328705000000000E-01     -1.248516000000000E+02      3.400574000000000E-01     -6.260742000000000E+01      3.289337000000000E-01     -1.740625000000000E+02      6.490173000000000E-01     -9.100780000000000E+01
4812000000.000000      3.343658000000000E-01     -1.259219000000000E+02      3.441010000000000E-01     -6.263672000000000E+01      3.334198000000000E-01     -1.740625000000000E+02      6.490173000000000E-01     -9.112108000000000E+01
4813000000.000000      3.353882000000000E-01     -1.269961000000000E+02      3.477631000000000E-01     -6.291210000000000E+01      3.370209000000000E-01     -1.739219000000000E+02      6.484985000000000E-01     -9.112890000000000E+01
4814000000.000000      3.365021000000000E-01     -1.282187000000000E+02      3.521729000000000E-01     -6.305664000000000E+01      3.401489000000000E-01     -1.739219000000000E+02      6.490479000000000E-01     -9.127733000000000E+01
4815000000.000000      3.380280000000000E-01     -1.291563000000000E+02      3.559113000000000E-01     -6.326366000000000E+01      3.445587000000000E-01     -1.739687000000000E+02      6.478577000000000E-01     -9.132813000000000E+01
4816000000.000000      3.397675000000000E-01     -1.301953000000000E+02      3.601532000000000E-01     -6.344727000000000E+01      3.499146000000000E-01     -1.738281000000000E+02      6.483459000000000E-01     -9.150000000000000E+01
4817000000.000000      3.424988000000000E-01     -1.313750000000000E+02      3.635712000000000E-01     -6.380468000000000E+01      3.525848000000000E-01     -1.738984000000000E+02      6.476440000000000E-01     -9.158594000000000E+01
4818000000.000000      3.441772000000000E-01     -1.325078000000000E+02      3.680573000000000E-01     -6.394140000000000E+01      3.575897000000000E-01     -1.737422000000000E+02      6.484375000000000E-01     -9.165234000000000E+01
4819000000.000000      3.476410000000000E-01     -1.335312000000000E+02      3.714600000000000E-01     -6.426562000000000E+01      3.602753000000000E-01     -1.738125000000000E+02      6.503601000000000E-01     -9.167969000000000E+01
4820000000.000000      3.491669000000000E-01     -1.345625000000000E+02      3.753204000000000E-01     -6.444140000000000E+01      3.647614000000000E-01     -1.737344000000000E+02      6.502991000000000E-01     -9.177343000000000E+01
4821000000.000000      3.528137000000000E-01     -1.356875000000000E+02      3.792419000000000E-01     -6.473827000000000E+01      3.684998000000000E-01     -1.738359000000000E+02      6.507263000000000E-01     -9.192186000000000E+01
4822000000.000000      3.569489000000000E-01     -1.367500000000000E+02      3.832245000000000E-01     -6.497656000000000E+01      3.719177000000000E-01     -1.738203000000000E+02      6.525269000000000E-01     -9.194139000000000E+01
4823000000.000000      3.592529000000000E-01     -1.377500000000000E+02      3.870239000000000E-01     -6.525781000000000E+01      3.759155000000000E-01     -1.735859000000000E+02      6.526489000000000E-01     -9.201563000000000E+01
4824000000.000000      3.636017000000000E-01     -1.388828000000000E+02      3.909607000000000E-01     -6.558203000000000E+01      3.807373000000000E-01     -1.738906000000000E+02      6.540222000000000E-01     -9.202343000000000E+01
4825000000.000000      3.664093000000000E-01     -1.398047000000000E+02      3.939056000000000E-01     -6.575000000000000E+01      3.848724000000000E-01     -1.736641000000000E+02      6.555786000000000E-01     -9.208984000000000E+01
4826000000.000000      3.711700000000000E-01     -1.408594000000000E+02      3.985596000000000E-01     -6.612890000000000E+01      3.875885000000000E-01     -1.738047000000000E+02      6.557007000000000E-01     -9.227343000000000E+01
4827000000.000000      3.749542000000000E-01     -1.416563000000000E+02      4.013824000000000E-01     -6.613671000000000E+01      3.923950000000000E-01     -1.737187000000000E+02      6.568298000000000E-01     -9.230078000000000E+01
4828000000.000000      3.794250000000000E-01     -1.427422000000000E+02      4.057770000000000E-01     -6.648828000000000E+01      3.964539000000000E-01     -1.736562000000000E+02      6.596375000000000E-01     -9.233202000000000E+01
4829000000.000000      3.824005000000000E-01     -1.436250000000000E+02      4.083252000000000E-01     -6.687890000000000E+01      4.004059000000000E-01     -1.737031000000000E+02      6.607971000000000E-01     -9.242188000000000E+01
4830000000.000000      3.879089000000000E-01     -1.446406000000000E+02      4.118347000000000E-01     -6.716015000000000E+01      4.045563000000000E-01     -1.736406000000000E+02      6.619263000000000E-01     -9.256639000000000E+01
4831000000.000000      3.917542000000000E-01     -1.455000000000000E+02      4.155884000000000E-01     -6.761719000000000E+01      4.082947000000000E-01     -1.737109000000000E+02      6.642151000000000E-01     -9.256639000000000E+01
4832000000.000000      3.977966000000000E-01     -1.464062000000000E+02      4.196625000000000E-01     -6.778906000000000E+01      4.122772000000000E-01     -1.737422000000000E+02      6.655884000000000E-01     -9.258984000000000E+01
4833000000.000000      4.026337000000000E-01     -1.474062000000000E+02      4.235077000000000E-01     -6.805078000000000E+01      4.157867000000000E-01     -1.738594000000000E+02      6.673279000000000E-01     -9.262890000000000E+01
4834000000.000000      4.068451000000000E-01     -1.481719000000000E+02      4.255676000000000E-01     -6.837500000000000E+01      4.205017000000000E-01     -1.738906000000000E+02      6.687317000000000E-01     -9.276953000000000E+01
4835000000.000000      4.109802000000000E-01     -1.490234000000000E+02      4.287720000000000E-01     -6.863671000000000E+01      4.261322000000000E-01     -1.738359000000000E+02      6.708984000000000E-01     -9.292578000000000E+01
4836000000.000000      4.170380000000000E-01     -1.497969000000000E+02      4.320068000000000E-01     -6.902734000000000E+01      4.283447000000000E-01     -1.739531000000000E+02      6.724243000000000E-01     -9.278906000000000E+01
4837000000.000000      4.218292000000000E-01     -1.506172000000000E+02      4.348602000000000E-01     -6.950000000000000E+01      4.323730000000000E-01     -1.740625000000000E+02      6.745605000000000E-01     -9.292187000000000E+01
4838000000.000000      4.272766000000000E-01     -1.514766000000000E+02      4.388275000000000E-01     -6.971093000000000E+01      4.369812000000000E-01     -1.740937000000000E+02      6.774597000000000E-01     -9.284765000000000E+01
4839000000.000000      4.319763000000000E-01     -1.521328000000000E+02      4.414673000000000E-01     -6.983984000000000E+01      4.403076000000000E-01     -1.740234000000000E+02      6.788940000000000E-01     -9.288280000000000E+01
4840000000.000000      4.370270000000000E-01     -1.529766000000000E+02      4.439545000000000E-01     -7.019140000000000E+01      4.446411000000000E-01     -1.742188000000000E+02      6.814270000000000E-01     -9.302734000000000E+01
4841000000.000000      4.424133000000000E-01     -1.538359000000000E+02      4.471588000000000E-01     -7.076172000000000E+01      4.487457000000000E-01     -1.743828000000000E+02      6.829529000000000E-01     -9.309765000000000E+01
4842000000.000000      4.478302000000000E-01     -1.544062000000000E+02      4.497223000000000E-01     -7.091015000000000E+01      4.523773000000000E-01     -1.743672000000000E+02      6.867981000000000E-01     -9.304296000000000E+01
4843000000.000000      4.527588000000000E-01     -1.552109000000000E+02      4.533539000000000E-01     -7.132813000000000E+01      4.563446000000000E-01     -1.744609000000000E+02      6.891174000000000E-01     -9.310547000000000E+01
4844000000.000000      4.575043000000000E-01     -1.558984000000000E+02      4.562225000000000E-01     -7.157421000000000E+01      4.602203000000000E-01     -1.746016000000000E+02      6.918640000000000E-01     -9.319139000000000E+01
4845000000.000000      4.628143000000000E-01     -1.565391000000000E+02      4.582977000000000E-01     -7.183203000000000E+01      4.649200000000000E-01     -1.746875000000000E+02      6.930847000000000E-01     -9.323437000000000E+01
4846000000.000000      4.678650000000000E-01     -1.571250000000000E+02      4.609528000000000E-01     -7.215625000000000E+01      4.691010000000000E-01     -1.747422000000000E+02      6.961670000000000E-01     -9.323437000000000E+01
4847000000.000000      4.735870000000000E-01     -1.578750000000000E+02      4.633179000000000E-01     -7.246875000000000E+01      4.731293000000000E-01     -1.749141000000000E+02      6.977234000000000E-01     -9.343750000000000E+01
4848000000.000000      4.785309000000000E-01     -1.584609000000000E+02      4.665222000000000E-01     -7.280078000000000E+01      4.768982000000000E-01     -1.749687000000000E+02      7.023315000000000E-01     -9.342968000000000E+01
4849000000.000000      4.835052000000000E-01     -1.593516000000000E+02      4.689026000000000E-01     -7.327343000000000E+01      4.811249000000000E-01     -1.751016000000000E+02      7.048645000000000E-01     -9.339453000000000E+01
4850000000.000000      4.880676000000000E-01     -1.597578000000000E+02      4.710541000000000E-01     -7.338281000000000E+01      4.852295000000000E-01     -1.751641000000000E+02      7.059326000000000E-01     -9.346483000000000E+01
4851000000.000000      4.932556000000000E-01     -1.603359000000000E+02      4.742126000000000E-01     -7.389062000000000E+01      4.881592000000000E-01     -1.753359000000000E+02      7.092590000000000E-01     -9.351954000000000E+01
4852000000.000000      4.983978000000000E-01     -1.609609000000000E+02      4.761047000000000E-01     -7.418750000000000E+01      4.929657000000000E-01     -1.754688000000000E+02      7.121277000000000E-01     -9.360937000000000E+01
4853000000.000000      5.027771000000000E-01     -1.614844000000000E+02      4.763336000000000E-01     -7.453906000000000E+01      4.971924000000000E-01     -1.756406000000000E+02      7.145691000000000E-01     -9.370312000000000E+01
4854000000.000000      5.066528000000000E-01     -1.620391000000000E+02      4.795990000000000E-01     -7.491405000000000E+01      4.994202000000000E-01     -1.756406000000000E+02      7.186279000000000E-01     -9.357422000000000E+01
4855000000.000000      5.105591000000000E-01     -1.626016000000000E+02      4.808502000000000E-01     -7.506249000000000E+01      5.045776000000000E-01     -1.757187000000000E+02      7.205811000000000E-01     -9.365625000000000E+01
4856000000.000000      5.155334000000000E-01     -1.631094000000000E+02      4.827271000000000E-01     -7.541016000000000E+01      5.072632000000000E-01     -1.761094000000000E+02      7.245178000000000E-01     -9.368750000000000E+01
4857000000.000000      5.189819000000000E-01     -1.637109000000000E+02      4.862213000000000E-01     -7.575781000000000E+01      5.115662000000000E-01     -1.761250000000000E+02      7.277832000000000E-01     -9.377344000000000E+01
4858000000.000000      5.208740000000000E-01     -1.641953000000000E+02      4.876862000000000E-01     -7.604687000000000E+01      5.148315000000000E-01     -1.763438000000000E+02      7.296448000000000E-01     -9.383984000000000E+01
4859000000.000000      5.258179000000000E-01     -1.647344000000000E+02      4.895935000000000E-01     -7.641015000000000E+01      5.188293000000000E-01     -1.765625000000000E+02      7.326965000000000E-01     -9.395311000000000E+01
4860000000.000000      5.298767000000000E-01     -1.650938000000000E+02      4.915009000000000E-01     -7.657031000000000E+01      5.215759000000000E-01     -1.766406000000000E+02      7.338257000000000E-01     -9.386719000000000E+01
4861000000.000000      5.330200000000000E-01     -1.654687000000000E+02      4.921417000000000E-01     -7.712109000000000E+01      5.252991000000000E-01     -1.767812000000000E+02      7.373047000000000E-01     -9.402735000000000E+01
4862000000.000000      5.364990000000000E-01     -1.659609000000000E+02      4.959259000000000E-01     -7.714062000000000E+01      5.292358000000000E-01     -1.770391000000000E+02      7.421570000000000E-01     -9.384375000000000E+01
4863000000.000000      5.384521000000000E-01     -1.664141000000000E+02      4.953918000000000E-01     -7.761328000000000E+01      5.332031000000000E-01     -1.772812000000000E+02      7.442627000000000E-01     -9.403515000000000E+01
4864000000.000000      5.415344000000000E-01     -1.667734000000000E+02      4.974365000000000E-01     -7.780468000000000E+01      5.350037000000000E-01     -1.772500000000000E+02      7.459717000000000E-01     -9.417969000000000E+01
4865000000.000000      5.437317000000000E-01     -1.673359000000000E+02      4.989014000000000E-01     -7.806641000000000E+01      5.385742000000000E-01     -1.775703000000000E+02      7.510986000000000E-01     -9.401171000000000E+01
4866000000.000000      5.463867000000000E-01     -1.675547000000000E+02      5.007019000000000E-01     -7.839062000000000E+01      5.422974000000000E-01     -1.778750000000000E+02      7.521973000000000E-01     -9.415625000000000E+01
4867000000.000000      5.488892000000000E-01     -1.678125000000000E+02      5.012817000000000E-01     -7.862890000000000E+01      5.453186000000000E-01     -1.780937000000000E+02      7.551880000000000E-01     -9.411718000000000E+01
4868000000.000000      5.512390000000000E-01     -1.683828000000000E+02      5.025635000000000E-01     -7.906250000000000E+01      5.484619000000000E-01     -1.781016000000000E+02      7.578430000000000E-01     -9.414063000000000E+01
4869000000.000000      5.520020000000000E-01     -1.686406000000000E+02      5.029907000000000E-01     -7.928124000000000E+01      5.513000000000000E-01     -1.784922000000000E+02      7.617798000000000E-01     -9.432032000000000E+01
4870000000.000000      5.541992000000000E-01     -1.689922000000000E+02      5.037537000000000E-01     -7.942187000000000E+01      5.533447000000000E-01     -1.787031000000000E+02      7.650757000000000E-01     -9.419922000000000E+01
4871000000.000000      5.556641000000000E-01     -1.693203000000000E+02      5.060120000000000E-01     -7.999218000000000E+01      5.555420000000000E-01     -1.789844000000000E+02      7.652588000000000E-01     -9.450781000000000E+01
4872000000.000000      5.579834000000000E-01     -1.694766000000000E+02      5.072327000000000E-01     -7.991796000000000E+01      5.578003000000000E-01     -1.791172000000000E+02      7.691345000000000E-01     -9.435547000000000E+01
4873000000.000000      5.588379000000000E-01     -1.697578000000000E+02      5.086365000000000E-01     -8.012110000000000E+01      5.604248000000000E-01     -1.792891000000000E+02      7.705994000000000E-01     -9.449999000000000E+01
4874000000.000000      5.591431000000000E-01     -1.700703000000000E+02      5.082703000000000E-01     -8.055079000000000E+01      5.644836000000000E-01     -1.795000000000000E+02      7.723999000000000E-01     -9.442968000000000E+01
4875000000.000000      5.608521000000000E-01     -1.703203000000000E+02      5.099792000000000E-01     -8.067186000000000E+01      5.662537000000000E-01     -1.798359000000000E+02      7.757874000000000E-01     -9.454296000000000E+01
4876000000.000000      5.599670000000000E-01     -1.705000000000000E+02      5.108948000000000E-01     -8.095312000000000E+01      5.668030000000000E-01     -1.798594000000000E+02      7.783813000000000E-01     -9.448437000000000E+01
4877000000.000000      5.609131000000000E-01     -1.707813000000000E+02      5.120239000000000E-01     -8.111719000000000E+01      5.707703000000000E-01      1.798047000000000E+02      7.811584000000000E-01     -9.464062000000000E+01
4878000000.000000      5.621033000000000E-01     -1.709453000000000E+02      5.135803000000000E-01     -8.143358000000000E+01      5.728760000000000E-01      1.797031000000000E+02      7.828979000000000E-01     -9.475000000000000E+01
4879000000.000000      5.633240000000000E-01     -1.711406000000000E+02      5.129395000000000E-01     -8.156641000000000E+01      5.746460000000000E-01      1.793984000000000E+02      7.851868000000000E-01     -9.466015000000000E+01
4880000000.000000      5.621338000000000E-01     -1.712734000000000E+02      5.145569000000000E-01     -8.191797000000000E+01      5.769043000000000E-01      1.793047000000000E+02      7.878418000000000E-01     -9.463671000000000E+01
4881000000.000000      5.632935000000000E-01     -1.713594000000000E+02      5.160522000000000E-01     -8.182032000000000E+01      5.797729000000000E-01      1.788516000000000E+02      7.887268000000000E-01     -9.473047000000000E+01
4882000000.000000      5.615540000000000E-01     -1.715156000000000E+02      5.174255000000000E-01     -8.214453000000000E+01      5.798645000000000E-01      1.788594000000000E+02      7.913513000000000E-01     -9.478516000000000E+01
