! Network Analyzer HP8722D
! Hewlett-Packard
! Data name: Linha & Wilkinson
! Saver's name: Rodrigo Anjos
! Comments: Teste da utilização de aquisição
continua pelo VNA HP8722D
! Time and date: 17/4/2025 15:34
!              Frequency                     S11                                                   S21                                                   S12                                                   S22
# HZ  S  MA R 50
4800000000.000000      3.339691000000000E-01     -1.135781000000000E+02      2.908173000000000E-01     -6.095898000000000E+01      2.848358000000000E-01     -1.749766000000000E+02      6.563721000000000E-01     -9.005859000000000E+01
4801000000.000000      3.322449000000000E-01     -1.145469000000000E+02      2.958221000000000E-01     -6.090038000000000E+01      2.878113000000000E-01     -1.749922000000000E+02      6.542358000000000E-01     -9.008204000000000E+01
4802000000.000000      3.320007000000000E-01     -1.155508000000000E+02      2.992401000000000E-01     -6.097461000000000E+01      2.929382000000000E-01     -1.747890000000000E+02      6.535645000000000E-01     -9.018358000000000E+01
4803000000.000000      3.309479000000000E-01     -1.165391000000000E+02      3.048859000000000E-01     -6.104297000000000E+01      2.964630000000000E-01     -1.746484000000000E+02      6.528320000000000E-01     -9.033203000000000E+01
4804000000.000000      3.312073000000000E-01     -1.175820000000000E+02      3.088989000000000E-01     -6.118750000000000E+01      3.003082000000000E-01     -1.747656000000000E+02      6.514587000000000E-01     -9.030077000000000E+01
4805000000.000000      3.310852000000000E-01     -1.185390000000000E+02      3.134460000000000E-01     -6.139453000000000E+01      3.047791000000000E-01     -1.745156000000000E+02      6.517029000000000E-01     -9.048437000000000E+01
4806000000.000000      3.302155000000000E-01     -1.195351000000000E+02      3.169708000000000E-01     -6.150195000000000E+01      3.078308000000000E-01     -1.742969000000000E+02      6.513367000000000E-01     -9.058594000000000E+01
4807000000.000000      3.300018000000000E-01     -1.207148000000000E+02      3.215179000000000E-01     -6.153125000000000E+01      3.128357000000000E-01     -1.743359000000000E+02      6.499634000000000E-01     -9.068359000000000E+01
4808000000.000000      3.308105000000000E-01     -1.216211000000000E+02      3.269043000000000E-01     -6.166016000000000E+01      3.170929000000000E-01     -1.742734000000000E+02      6.482544000000000E-01     -9.071875000000000E+01
4809000000.000000      3.310242000000000E-01     -1.227109000000000E+02      3.307648000000000E-01     -6.195313000000000E+01      3.208160000000000E-01     -1.742422000000000E+02      6.496277000000000E-01     -9.091406000000000E+01
4810000000.000000      3.319244000000000E-01     -1.238047000000000E+02      3.353424000000000E-01     -6.216015000000000E+01      3.247223000000000E-01     -1.741953000000000E+02      6.497803000000000E-01     -9.102343000000000E+01
4811000000.000000      3.323517000000000E-01     -1.249531000000000E+02      3.397522000000000E-01     -6.251953000000000E+01      3.291626000000000E-01     -1.741328000000000E+02      6.482544000000000E-01     -9.092188000000000E+01
4812000000.000000      3.347168000000000E-01     -1.259180000000000E+02      3.434601000000000E-01     -6.260156000000000E+01      3.333893000000000E-01     -1.739609000000000E+02      6.492615000000000E-01     -9.108593000000000E+01
4813000000.000000      3.353577000000000E-01     -1.270313000000000E+02      3.472137000000000E-01     -6.284961000000000E+01      3.364868000000000E-01     -1.739063000000000E+02      6.490784000000000E-01     -9.107031000000000E+01
4814000000.000000      3.361816000000000E-01     -1.282031000000000E+02      3.521423000000000E-01     -6.304688000000000E+01      3.409271000000000E-01     -1.739609000000000E+02      6.483459000000000E-01     -9.131639000000000E+01
4815000000.000000      3.381195000000000E-01     -1.292266000000000E+02      3.559570000000000E-01     -6.332812000000000E+01      3.437805000000000E-01     -1.738125000000000E+02      6.488647000000000E-01     -9.127344000000000E+01
4816000000.000000      3.399353000000000E-01     -1.302578000000000E+02      3.600311000000000E-01     -6.323632000000000E+01      3.491211000000000E-01     -1.736562000000000E+02      6.490173000000000E-01     -9.141796000000000E+01
4817000000.000000      3.427277000000000E-01     -1.312891000000000E+02      3.641357000000000E-01     -6.364843000000000E+01      3.526917000000000E-01     -1.737813000000000E+02      6.486206000000000E-01     -9.152344000000000E+01
4818000000.000000      3.445435000000000E-01     -1.325234000000000E+02      3.676300000000000E-01     -6.393945000000000E+01      3.568726000000000E-01     -1.737109000000000E+02      6.493225000000000E-01     -9.165234000000000E+01
4819000000.000000      3.474426000000000E-01     -1.335625000000000E+02      3.719177000000000E-01     -6.423046000000000E+01      3.602295000000000E-01     -1.738594000000000E+02      6.503906000000000E-01     -9.165234000000000E+01
4820000000.000000      3.490906000000000E-01     -1.346094000000000E+02      3.755951000000000E-01     -6.442968000000000E+01      3.648682000000000E-01     -1.737500000000000E+02      6.506958000000000E-01     -9.170313000000000E+01
4821000000.000000      3.522949000000000E-01     -1.356875000000000E+02      3.799133000000000E-01     -6.473437000000000E+01      3.687592000000000E-01     -1.737422000000000E+02      6.508179000000000E-01     -9.187109000000000E+01
4822000000.000000      3.569489000000000E-01     -1.368203000000000E+02      3.829498000000000E-01     -6.494531000000000E+01      3.719940000000000E-01     -1.738125000000000E+02      6.518860000000000E-01     -9.178125000000000E+01
4823000000.000000      3.593903000000000E-01     -1.377266000000000E+02      3.865509000000000E-01     -6.510547000000000E+01      3.766174000000000E-01     -1.736016000000000E+02      6.528320000000000E-01     -9.196484000000000E+01
4824000000.000000      3.637695000000000E-01     -1.388359000000000E+02      3.910370000000000E-01     -6.553124000000000E+01      3.811798000000000E-01     -1.737344000000000E+02      6.538391000000000E-01     -9.193359000000000E+01
4825000000.000000      3.664398000000000E-01     -1.398047000000000E+02      3.939362000000000E-01     -6.567968000000000E+01      3.855743000000000E-01     -1.736328000000000E+02      6.539917000000000E-01     -9.208984000000000E+01
4826000000.000000      3.707886000000000E-01     -1.407812000000000E+02      3.984680000000000E-01     -6.597265000000000E+01      3.877258000000000E-01     -1.737422000000000E+02      6.556396000000000E-01     -9.218359000000000E+01
4827000000.000000      3.747101000000000E-01     -1.417187000000000E+02      4.019470000000000E-01     -6.628906000000000E+01      3.920746000000000E-01     -1.737109000000000E+02      6.578369000000000E-01     -9.216797000000000E+01
4828000000.000000      3.794861000000000E-01     -1.427656000000000E+02      4.056702000000000E-01     -6.646093000000000E+01      3.962402000000000E-01     -1.736562000000000E+02      6.601563000000000E-01     -9.228125000000000E+01
4829000000.000000      3.824005000000000E-01     -1.436484000000000E+02      4.091492000000000E-01     -6.690624000000000E+01      4.000854000000000E-01     -1.737031000000000E+02      6.597900000000000E-01     -9.234375000000000E+01
4830000000.000000      3.876038000000000E-01     -1.446016000000000E+02      4.114838000000000E-01     -6.716015000000000E+01      4.042358000000000E-01     -1.736719000000000E+02      6.617737000000000E-01     -9.248047000000000E+01
4831000000.000000      3.916931000000000E-01     -1.454844000000000E+02      4.162750000000000E-01     -6.757421000000000E+01      4.090576000000000E-01     -1.735625000000000E+02      6.634521000000000E-01     -9.253515000000000E+01
4832000000.000000      3.973236000000000E-01     -1.464453000000000E+02      4.197998000000000E-01     -6.774219000000000E+01      4.125671000000000E-01     -1.737109000000000E+02      6.655273000000000E-01     -9.253906000000000E+01
4833000000.000000      4.021149000000000E-01     -1.473984000000000E+02      4.226990000000000E-01     -6.799218000000000E+01      4.162598000000000E-01     -1.738437000000000E+02      6.668701000000000E-01     -9.260157000000000E+01
4834000000.000000      4.065094000000000E-01     -1.482344000000000E+02      4.251709000000000E-01     -6.827734000000000E+01      4.201202000000000E-01     -1.738359000000000E+02      6.678162000000000E-01     -9.271484000000000E+01
4835000000.000000      4.111176000000000E-01     -1.490000000000000E+02      4.295197000000000E-01     -6.864062000000000E+01      4.250183000000000E-01     -1.738359000000000E+02      6.701355000000000E-01     -9.280077000000000E+01
4836000000.000000      4.171448000000000E-01     -1.497813000000000E+02      4.320374000000000E-01     -6.896874000000000E+01      4.284973000000000E-01     -1.738828000000000E+02      6.713867000000000E-01     -9.277735000000000E+01
4837000000.000000      4.216919000000000E-01     -1.505391000000000E+02      4.352875000000000E-01     -6.946875000000000E+01      4.326477000000000E-01     -1.741094000000000E+02      6.739502000000000E-01     -9.279297000000000E+01
4838000000.000000      4.275513000000000E-01     -1.514844000000000E+02      4.402008000000000E-01     -6.953125000000000E+01      4.371948000000000E-01     -1.739766000000000E+02      6.763916000000000E-01     -9.288280000000000E+01
4839000000.000000      4.323120000000000E-01     -1.521406000000000E+02      4.411163000000000E-01     -6.990234000000000E+01      4.409180000000000E-01     -1.739687000000000E+02      6.788330000000000E-01     -9.288671000000000E+01
4840000000.000000      4.367065000000000E-01     -1.530469000000000E+02      4.448853000000000E-01     -7.024219000000000E+01      4.452057000000000E-01     -1.742500000000000E+02      6.802673000000000E-01     -9.311327000000000E+01
4841000000.000000      4.425201000000000E-01     -1.538984000000000E+02      4.473877000000000E-01     -7.063671000000000E+01      4.501190000000000E-01     -1.743438000000000E+02      6.837769000000000E-01     -9.309374000000000E+01
4842000000.000000      4.481964000000000E-01     -1.544219000000000E+02      4.503937000000000E-01     -7.074609000000000E+01      4.519196000000000E-01     -1.743125000000000E+02      6.864319000000000E-01     -9.310156000000000E+01
4843000000.000000      4.529114000000000E-01     -1.552813000000000E+02      4.527435000000000E-01     -7.127343000000000E+01      4.564819000000000E-01     -1.744141000000000E+02      6.879578000000000E-01     -9.316797000000000E+01
4844000000.000000      4.577026000000000E-01     -1.559453000000000E+02      4.558258000000000E-01     -7.156640000000000E+01      4.603271000000000E-01     -1.745078000000000E+02      6.896362000000000E-01     -9.323828000000000E+01
4845000000.000000      4.628601000000000E-01     -1.565859000000000E+02      4.577026000000000E-01     -7.174218000000000E+01      4.648438000000000E-01     -1.746953000000000E+02      6.926880000000000E-01     -9.317186000000000E+01
4846000000.000000      4.674530000000000E-01     -1.571953000000000E+02      4.608917000000000E-01     -7.213672000000000E+01      4.695282000000000E-01     -1.747344000000000E+02      6.958313000000000E-01     -9.325781000000000E+01
4847000000.000000      4.737091000000000E-01     -1.578984000000000E+02      4.637146000000000E-01     -7.249218000000000E+01      4.737396000000000E-01     -1.749219000000000E+02      6.995850000000000E-01     -9.333593000000000E+01
4848000000.000000      4.788971000000000E-01     -1.584766000000000E+02      4.658203000000000E-01     -7.269531000000000E+01      4.768066000000000E-01     -1.748906000000000E+02      7.014160000000000E-01     -9.335546000000000E+01
4849000000.000000      4.835663000000000E-01     -1.593750000000000E+02      4.691162000000000E-01     -7.314843000000000E+01      4.812469000000000E-01     -1.751406000000000E+02      7.047424000000000E-01     -9.335155000000000E+01
4850000000.000000      4.879456000000000E-01     -1.597734000000000E+02      4.709320000000000E-01     -7.335546000000000E+01      4.851685000000000E-01     -1.751797000000000E+02      7.071228000000000E-01     -9.328516000000000E+01
4851000000.000000      4.930878000000000E-01     -1.603828000000000E+02      4.736481000000000E-01     -7.394921000000000E+01      4.884033000000000E-01     -1.752812000000000E+02      7.087402000000000E-01     -9.339062000000000E+01
4852000000.000000      4.979858000000000E-01     -1.609531000000000E+02      4.756165000000000E-01     -7.407031000000000E+01      4.929352000000000E-01     -1.754609000000000E+02      7.127075000000000E-01     -9.348436000000000E+01
4853000000.000000      5.025024000000000E-01     -1.615391000000000E+02      4.764709000000000E-01     -7.444140000000000E+01      4.971313000000000E-01     -1.755938000000000E+02      7.160339000000000E-01     -9.372656000000000E+01
4854000000.000000      5.064392000000000E-01     -1.620625000000000E+02      4.800720000000000E-01     -7.495703000000000E+01      4.998932000000000E-01     -1.757656000000000E+02      7.170715000000000E-01     -9.367968000000000E+01
4855000000.000000      5.099182000000000E-01     -1.626328000000000E+02      4.818268000000000E-01     -7.510547000000000E+01      5.041504000000000E-01     -1.758672000000000E+02      7.202759000000000E-01     -9.359766000000000E+01
4856000000.000000      5.152893000000000E-01     -1.630859000000000E+02      4.832458000000000E-01     -7.542969000000000E+01      5.069885000000000E-01     -1.760156000000000E+02      7.232971000000000E-01     -9.374609000000000E+01
4857000000.000000      5.189514000000000E-01     -1.637187000000000E+02      4.862213000000000E-01     -7.583202000000000E+01      5.107727000000000E-01     -1.760703000000000E+02      7.268066000000000E-01     -9.365625000000000E+01
4858000000.000000      5.214539000000000E-01     -1.642344000000000E+02      4.878387000000000E-01     -7.600780000000000E+01      5.146790000000000E-01     -1.763750000000000E+02      7.300720000000000E-01     -9.380468000000000E+01
4859000000.000000      5.260010000000000E-01     -1.647578000000000E+02      4.891510000000000E-01     -7.649609000000000E+01      5.185852000000000E-01     -1.765469000000000E+02      7.333984000000000E-01     -9.391796000000000E+01
4860000000.000000      5.302429000000000E-01     -1.651719000000000E+02      4.911194000000000E-01     -7.638672000000000E+01      5.223999000000000E-01     -1.766484000000000E+02      7.348938000000000E-01     -9.378906000000000E+01
4861000000.000000      5.330811000000000E-01     -1.654766000000000E+02      4.933929000000000E-01     -7.709374000000000E+01      5.266418000000000E-01     -1.767969000000000E+02      7.377014000000000E-01     -9.397264000000000E+01
4862000000.000000      5.357056000000000E-01     -1.659453000000000E+02      4.952698000000000E-01     -7.730078000000000E+01      5.290527000000000E-01     -1.770313000000000E+02      7.417603000000000E-01     -9.392969000000000E+01
4863000000.000000      5.382996000000000E-01     -1.664844000000000E+02      4.948273000000000E-01     -7.767968000000000E+01      5.329285000000000E-01     -1.770469000000000E+02      7.434387000000000E-01     -9.409374000000000E+01
4864000000.000000      5.427856000000000E-01     -1.668984000000000E+02      4.964752000000000E-01     -7.785156000000000E+01      5.358276000000000E-01     -1.773359000000000E+02      7.469788000000000E-01     -9.399218000000000E+01
4865000000.000000      5.443726000000000E-01     -1.672734000000000E+02      4.994965000000000E-01     -7.805469000000000E+01      5.375366000000000E-01     -1.775938000000000E+02      7.513123000000000E-01     -9.401953000000000E+01
4866000000.000000      5.462036000000000E-01     -1.676406000000000E+02      4.990997000000000E-01     -7.838672000000000E+01      5.402222000000000E-01     -1.777422000000000E+02      7.536316000000000E-01     -9.404297000000000E+01
4867000000.000000      5.476685000000000E-01     -1.679062000000000E+02      5.012817000000000E-01     -7.875000000000000E+01      5.444336000000000E-01     -1.780156000000000E+02      7.563171000000000E-01     -9.410547000000000E+01
4868000000.000000      5.508423000000000E-01     -1.684453000000000E+02      5.034790000000000E-01     -7.908984000000000E+01      5.484924000000000E-01     -1.781172000000000E+02      7.590027000000000E-01     -9.412109000000000E+01
4869000000.000000      5.511780000000000E-01     -1.686641000000000E+02      5.028381000000000E-01     -7.930859000000000E+01      5.504761000000000E-01     -1.784375000000000E+02      7.625122000000000E-01     -9.430859000000000E+01
4870000000.000000      5.538635000000000E-01     -1.689922000000000E+02      5.052490000000000E-01     -7.945313000000000E+01      5.532532000000000E-01     -1.786172000000000E+02      7.649231000000000E-01     -9.417578000000000E+01
4871000000.000000      5.560303000000000E-01     -1.693906000000000E+02      5.053711000000000E-01     -7.997656000000000E+01      5.554199000000000E-01     -1.788203000000000E+02      7.660828000000000E-01     -9.430859000000000E+01
4872000000.000000      5.574951000000000E-01     -1.695859000000000E+02      5.061646000000000E-01     -7.981250000000000E+01      5.579834000000000E-01     -1.792109000000000E+02      7.692871000000000E-01     -9.435156000000000E+01
4873000000.000000      5.582886000000000E-01     -1.697891000000000E+02      5.082092000000000E-01     -8.022655000000000E+01      5.595703000000000E-01     -1.792266000000000E+02      7.713013000000000E-01     -9.428125000000000E+01
4874000000.000000      5.589905000000000E-01     -1.700781000000000E+02      5.080566000000000E-01     -8.058594000000000E+01      5.647888000000000E-01     -1.795000000000000E+02      7.728882000000000E-01     -9.420313000000000E+01
4875000000.000000      5.604248000000000E-01     -1.703750000000000E+02      5.102844000000000E-01     -8.071093000000000E+01      5.654297000000000E-01     -1.797656000000000E+02      7.752991000000000E-01     -9.450781000000000E+01
4876000000.000000      5.607605000000000E-01     -1.706094000000000E+02      5.102234000000000E-01     -8.105469000000000E+01      5.671387000000000E-01     -1.797188000000000E+02      7.795105000000000E-01     -9.452343000000000E+01
4877000000.000000      5.619202000000000E-01     -1.707500000000000E+02      5.109863000000000E-01     -8.114061000000000E+01      5.716248000000000E-01      1.796719000000000E+02      7.796936000000000E-01     -9.459764000000000E+01
4878000000.000000      5.624695000000000E-01     -1.710547000000000E+02      5.135803000000000E-01     -8.136719000000000E+01      5.719604000000000E-01      1.797266000000000E+02      7.835999000000000E-01     -9.461718000000000E+01
4879000000.000000      5.626221000000000E-01     -1.711797000000000E+02      5.144958000000000E-01     -8.151171000000000E+01      5.746765000000000E-01      1.793984000000000E+02      7.848816000000000E-01     -9.455469000000000E+01
4880000000.000000      5.611572000000000E-01     -1.713125000000000E+02      5.146179000000000E-01     -8.180468000000000E+01      5.775452000000000E-01      1.793203000000000E+02      7.872009000000000E-01     -9.473827000000000E+01
4881000000.000000      5.618896000000000E-01     -1.714375000000000E+02      5.168457000000000E-01     -8.192186000000000E+01      5.790405000000000E-01      1.789219000000000E+02      7.894897000000000E-01     -9.469530000000000E+01
4882000000.000000      5.618591000000000E-01     -1.715391000000000E+02      5.178223000000000E-01     -8.227734000000000E+01      5.810547000000000E-01      1.789297000000000E+02      7.911377000000000E-01     -9.480860000000000E+01
