! Network Analyzer HP8722D
! Hewlett-Packard
! Data name: Linha & Wilkinson
! Saver's name: Rodrigo Anjos
! Comments: Teste da utilização de aquisição
continua pelo VNA HP8722D
! Time and date: 17/4/2025 15:38
!              Frequency                     S11                                                   S21                                                   S12                                                   S22
# HZ  S  MA R 50
4800000000.000000      3.340302000000000E-01     -1.132578000000000E+02      2.878876000000000E-01     -6.074609000000000E+01      2.822418000000000E-01     -1.749531000000000E+02      6.560059000000000E-01     -8.997656000000000E+01
4801000000.000000      3.320923000000000E-01     -1.141328000000000E+02      2.926636000000000E-01     -6.077343000000000E+01      2.853088000000000E-01     -1.748281000000000E+02      6.551819000000000E-01     -9.002344000000000E+01
4802000000.000000      3.313446000000000E-01     -1.151680000000000E+02      2.966766000000000E-01     -6.083008000000000E+01      2.900543000000000E-01     -1.745859000000000E+02      6.530762000000000E-01     -8.997656000000000E+01
4803000000.000000      3.311615000000000E-01     -1.161641000000000E+02      3.020325000000000E-01     -6.094727000000000E+01      2.933960000000000E-01     -1.745781000000000E+02      6.531677000000000E-01     -9.021484000000000E+01
4804000000.000000      3.303070000000000E-01     -1.172461000000000E+02      3.063507000000000E-01     -6.099804000000000E+01      2.977295000000000E-01     -1.745312000000000E+02      6.524963000000000E-01     -9.021093000000000E+01
4805000000.000000      3.300323000000000E-01     -1.181016000000000E+02      3.108063000000000E-01     -6.107812000000000E+01      3.021545000000000E-01     -1.743672000000000E+02      6.514587000000000E-01     -9.036718000000000E+01
4806000000.000000      3.294373000000000E-01     -1.191055000000000E+02      3.148041000000000E-01     -6.134179000000000E+01      3.057098000000000E-01     -1.741484000000000E+02      6.515808000000000E-01     -9.042969000000000E+01
4807000000.000000      3.300629000000000E-01     -1.201250000000000E+02      3.194275000000000E-01     -6.155663000000000E+01      3.106842000000000E-01     -1.742031000000000E+02      6.500854000000000E-01     -9.049999000000000E+01
4808000000.000000      3.301849000000000E-01     -1.212226000000000E+02      3.241272000000000E-01     -6.157031000000000E+01      3.140259000000000E-01     -1.740547000000000E+02      6.487732000000000E-01     -9.054688000000000E+01
4809000000.000000      3.303680000000000E-01     -1.222578000000000E+02      3.281403000000000E-01     -6.192187000000000E+01      3.180695000000000E-01     -1.742188000000000E+02      6.502686000000000E-01     -9.076172000000000E+01
4810000000.000000      3.311005000000000E-01     -1.234297000000000E+02      3.330841000000000E-01     -6.196094000000000E+01      3.223877000000000E-01     -1.740078000000000E+02      6.487122000000000E-01     -9.089062000000000E+01
4811000000.000000      3.321686000000000E-01     -1.244375000000000E+02      3.374481000000000E-01     -6.234375000000000E+01      3.266144000000000E-01     -1.738672000000000E+02      6.489258000000000E-01     -9.086718000000000E+01
4812000000.000000      3.342743000000000E-01     -1.255625000000000E+02      3.414917000000000E-01     -6.235546000000000E+01      3.303223000000000E-01     -1.737734000000000E+02      6.487732000000000E-01     -9.098436000000000E+01
4813000000.000000      3.350220000000000E-01     -1.265703000000000E+02      3.456421000000000E-01     -6.255664000000000E+01      3.343964000000000E-01     -1.736250000000000E+02      6.482544000000000E-01     -9.094921000000000E+01
4814000000.000000      3.356018000000000E-01     -1.279766000000000E+02      3.499756000000000E-01     -6.276953000000000E+01      3.385162000000000E-01     -1.736797000000000E+02      6.483459000000000E-01     -9.115625000000000E+01
4815000000.000000      3.370209000000000E-01     -1.288203000000000E+02      3.528900000000000E-01     -6.304492000000000E+01      3.424530000000000E-01     -1.736250000000000E+02      6.478577000000000E-01     -9.115234000000000E+01
4816000000.000000      3.391724000000000E-01     -1.299141000000000E+02      3.578033000000000E-01     -6.318945000000000E+01      3.463593000000000E-01     -1.736094000000000E+02      6.478882000000000E-01     -9.114452000000000E+01
4817000000.000000      3.417053000000000E-01     -1.309844000000000E+02      3.615265000000000E-01     -6.339844000000000E+01      3.507690000000000E-01     -1.735937000000000E+02      6.488953000000000E-01     -9.132030000000000E+01
4818000000.000000      3.437500000000000E-01     -1.320313000000000E+02      3.654633000000000E-01     -6.375586000000000E+01      3.551636000000000E-01     -1.735312000000000E+02      6.493225000000000E-01     -9.152344000000000E+01
4819000000.000000      3.464661000000000E-01     -1.331719000000000E+02      3.692627000000000E-01     -6.393555000000000E+01      3.580017000000000E-01     -1.734688000000000E+02      6.497192000000000E-01     -9.157030000000000E+01
4820000000.000000      3.482971000000000E-01     -1.341797000000000E+02      3.735352000000000E-01     -6.412890000000000E+01      3.627319000000000E-01     -1.734297000000000E+02      6.507874000000000E-01     -9.158983000000000E+01
4821000000.000000      3.516083000000000E-01     -1.352969000000000E+02      3.775787000000000E-01     -6.440234000000000E+01      3.666534000000000E-01     -1.735469000000000E+02      6.507568000000000E-01     -9.173046000000000E+01
4822000000.000000      3.555145000000000E-01     -1.363594000000000E+02      3.805542000000000E-01     -6.466015000000000E+01      3.701782000000000E-01     -1.734219000000000E+02      6.519470000000000E-01     -9.178514000000000E+01
4823000000.000000      3.582916000000000E-01     -1.373594000000000E+02      3.849182000000000E-01     -6.493359000000000E+01      3.745422000000000E-01     -1.733438000000000E+02      6.522522000000000E-01     -9.181250000000000E+01
4824000000.000000      3.625336000000000E-01     -1.384844000000000E+02      3.891602000000000E-01     -6.529297000000000E+01      3.789063000000000E-01     -1.735078000000000E+02      6.545715000000000E-01     -9.187109000000000E+01
4825000000.000000      3.655548000000000E-01     -1.393672000000000E+02      3.920898000000000E-01     -6.555078000000000E+01      3.830109000000000E-01     -1.734375000000000E+02      6.543274000000000E-01     -9.192186000000000E+01
4826000000.000000      3.700562000000000E-01     -1.404766000000000E+02      3.953705000000000E-01     -6.586328000000000E+01      3.864136000000000E-01     -1.734766000000000E+02      6.557922000000000E-01     -9.207031000000000E+01
4827000000.000000      3.738708000000000E-01     -1.413203000000000E+02      3.997498000000000E-01     -6.599218000000000E+01      3.899384000000000E-01     -1.733672000000000E+02      6.570129000000000E-01     -9.204296000000000E+01
4828000000.000000      3.787537000000000E-01     -1.423359000000000E+02      4.039307000000000E-01     -6.626171000000000E+01      3.933563000000000E-01     -1.733828000000000E+02      6.596680000000000E-01     -9.210155000000000E+01
4829000000.000000      3.811798000000000E-01     -1.432266000000000E+02      4.067078000000000E-01     -6.649219000000000E+01      3.977051000000000E-01     -1.734062000000000E+02      6.603699000000000E-01     -9.215624000000000E+01
4830000000.000000      3.866425000000000E-01     -1.441250000000000E+02      4.097595000000000E-01     -6.700781000000000E+01      4.025879000000000E-01     -1.734453000000000E+02      6.615906000000000E-01     -9.232813000000000E+01
4831000000.000000      3.901672000000000E-01     -1.451328000000000E+02      4.138794000000000E-01     -6.726953000000000E+01      4.064178000000000E-01     -1.733828000000000E+02      6.636658000000000E-01     -9.237499000000000E+01
4832000000.000000      3.963623000000000E-01     -1.459766000000000E+02      4.182739000000000E-01     -6.748828000000000E+01      4.100342000000000E-01     -1.734688000000000E+02      6.646729000000000E-01     -9.245703000000000E+01
4833000000.000000      4.012604000000000E-01     -1.469687000000000E+02      4.213715000000000E-01     -6.773046000000000E+01      4.139252000000000E-01     -1.736172000000000E+02      6.670227000000000E-01     -9.255859000000000E+01
4834000000.000000      4.053040000000000E-01     -1.478594000000000E+02      4.233398000000000E-01     -6.812500000000000E+01      4.187775000000000E-01     -1.736016000000000E+02      6.676025000000000E-01     -9.255077000000000E+01
4835000000.000000      4.103241000000000E-01     -1.486328000000000E+02      4.277191000000000E-01     -6.838672000000000E+01      4.227753000000000E-01     -1.735625000000000E+02      6.711426000000000E-01     -9.262890000000000E+01
4836000000.000000      4.160309000000000E-01     -1.494062000000000E+02      4.308014000000000E-01     -6.869531000000000E+01      4.269562000000000E-01     -1.736250000000000E+02      6.714478000000000E-01     -9.253906000000000E+01
4837000000.000000      4.208527000000000E-01     -1.501797000000000E+02      4.338226000000000E-01     -6.928515000000000E+01      4.308319000000000E-01     -1.737656000000000E+02      6.738892000000000E-01     -9.267969000000000E+01
4838000000.000000      4.263916000000000E-01     -1.511328000000000E+02      4.369812000000000E-01     -6.938281000000000E+01      4.353333000000000E-01     -1.737734000000000E+02      6.764221000000000E-01     -9.269140000000000E+01
4839000000.000000      4.317932000000000E-01     -1.517656000000000E+02      4.403534000000000E-01     -6.958202000000000E+01      4.390259000000000E-01     -1.737344000000000E+02      6.782227000000000E-01     -9.270311000000000E+01
4840000000.000000      4.362030000000000E-01     -1.526172000000000E+02      4.428101000000000E-01     -6.994922000000000E+01      4.431000000000000E-01     -1.739219000000000E+02      6.801758000000000E-01     -9.285547000000000E+01
4841000000.000000      4.411926000000000E-01     -1.535000000000000E+02      4.461823000000000E-01     -7.031250000000000E+01      4.476318000000000E-01     -1.740078000000000E+02      6.823120000000000E-01     -9.290625000000000E+01
4842000000.000000      4.475250000000000E-01     -1.540703000000000E+02      4.482574000000000E-01     -7.055859000000000E+01      4.504089000000000E-01     -1.740703000000000E+02      6.854553000000000E-01     -9.289454000000000E+01
4843000000.000000      4.516907000000000E-01     -1.548281000000000E+02      4.514008000000000E-01     -7.105078000000000E+01      4.547729000000000E-01     -1.741953000000000E+02      6.884155000000000E-01     -9.288671000000000E+01
4844000000.000000      4.564819000000000E-01     -1.555312000000000E+02      4.548187000000000E-01     -7.120703000000000E+01      4.584045000000000E-01     -1.742344000000000E+02      6.909790000000000E-01     -9.303514000000000E+01
4845000000.000000      4.613190000000000E-01     -1.561641000000000E+02      4.570313000000000E-01     -7.160937000000000E+01      4.631042000000000E-01     -1.743359000000000E+02      6.921387000000000E-01     -9.302343000000000E+01
4846000000.000000      4.671173000000000E-01     -1.567812000000000E+02      4.592743000000000E-01     -7.181641000000000E+01      4.679565000000000E-01     -1.744375000000000E+02      6.947632000000000E-01     -9.311718000000000E+01
4847000000.000000      4.729462000000000E-01     -1.575547000000000E+02      4.618378000000000E-01     -7.221093000000000E+01      4.716339000000000E-01     -1.745859000000000E+02      6.989441000000000E-01     -9.322657000000000E+01
4848000000.000000      4.774628000000000E-01     -1.580859000000000E+02      4.630585000000000E-01     -7.223437000000000E+01      4.757996000000000E-01     -1.746328000000000E+02      7.002563000000000E-01     -9.323437000000000E+01
4849000000.000000      4.822693000000000E-01     -1.589687000000000E+02      4.678955000000000E-01     -7.285937000000000E+01      4.799347000000000E-01     -1.747969000000000E+02      7.026978000000000E-01     -9.320704000000000E+01
4850000000.000000      4.869232000000000E-01     -1.593984000000000E+02      4.696655000000000E-01     -7.308984000000000E+01      4.837189000000000E-01     -1.748594000000000E+02      7.069397000000000E-01     -9.325390000000000E+01
4851000000.000000      4.925537000000000E-01     -1.599453000000000E+02      4.743347000000000E-01     -7.374218000000000E+01      4.867554000000000E-01     -1.750156000000000E+02      7.100830000000000E-01     -9.324219000000000E+01
4852000000.000000      4.969025000000000E-01     -1.605391000000000E+02      4.748688000000000E-01     -7.381249000000000E+01      4.915924000000000E-01     -1.751016000000000E+02      7.112122000000000E-01     -9.330858000000000E+01
4853000000.000000      5.015259000000000E-01     -1.611094000000000E+02      4.750671000000000E-01     -7.422265000000000E+01      4.954529000000000E-01     -1.752812000000000E+02      7.160034000000000E-01     -9.348047000000000E+01
4854000000.000000      5.055847000000000E-01     -1.616641000000000E+02      4.775848000000000E-01     -7.461328000000000E+01      4.988098000000000E-01     -1.754688000000000E+02      7.175293000000000E-01     -9.347656000000000E+01
4855000000.000000      5.092163000000000E-01     -1.622813000000000E+02      4.795380000000000E-01     -7.477734000000000E+01      5.021667000000000E-01     -1.755156000000000E+02      7.193909000000000E-01     -9.336329000000000E+01
4856000000.000000      5.145874000000000E-01     -1.627344000000000E+02      4.821167000000000E-01     -7.511328000000000E+01      5.057678000000000E-01     -1.757656000000000E+02      7.236938000000000E-01     -9.348436000000000E+01
4857000000.000000      5.182190000000000E-01     -1.632969000000000E+02      4.847107000000000E-01     -7.546484000000000E+01      5.108337000000000E-01     -1.757969000000000E+02      7.268372000000000E-01     -9.357422000000000E+01
4858000000.000000      5.206604000000000E-01     -1.638359000000000E+02      4.860229000000000E-01     -7.576172000000000E+01      5.125427000000000E-01     -1.760469000000000E+02      7.287598000000000E-01     -9.375391000000000E+01
4859000000.000000      5.250854000000000E-01     -1.643516000000000E+02      4.890747000000000E-01     -7.598827000000000E+01      5.178528000000000E-01     -1.763359000000000E+02      7.321777000000000E-01     -9.375000000000000E+01
4860000000.000000      5.296631000000000E-01     -1.648359000000000E+02      4.909973000000000E-01     -7.635547000000000E+01      5.212097000000000E-01     -1.763672000000000E+02      7.346191000000000E-01     -9.364843000000000E+01
4861000000.000000      5.329590000000000E-01     -1.651172000000000E+02      4.931641000000000E-01     -7.667187000000000E+01      5.245361000000000E-01     -1.766328000000000E+02      7.383728000000000E-01     -9.373438000000000E+01
4862000000.000000      5.357056000000000E-01     -1.656016000000000E+02      4.944305000000000E-01     -7.694921000000000E+01      5.280762000000000E-01     -1.767734000000000E+02      7.422180000000000E-01     -9.377733000000000E+01
4863000000.000000      5.379028000000000E-01     -1.660703000000000E+02      4.944458000000000E-01     -7.745312000000000E+01      5.317383000000000E-01     -1.768594000000000E+02      7.443237000000000E-01     -9.375000000000000E+01
4864000000.000000      5.417175000000000E-01     -1.665234000000000E+02      4.971161000000000E-01     -7.742969000000000E+01      5.331421000000000E-01     -1.769766000000000E+02      7.465210000000000E-01     -9.391016000000000E+01
4865000000.000000      5.429077000000000E-01     -1.669609000000000E+02      4.977112000000000E-01     -7.785156000000000E+01      5.372620000000000E-01     -1.773203000000000E+02      7.504883000000000E-01     -9.384375000000000E+01
4866000000.000000      5.456543000000000E-01     -1.672578000000000E+02      4.981232000000000E-01     -7.819140000000000E+01      5.409241000000000E-01     -1.774375000000000E+02      7.529297000000000E-01     -9.390234000000000E+01
4867000000.000000      5.480347000000000E-01     -1.675859000000000E+02      5.001831000000000E-01     -7.856640000000000E+01      5.442505000000000E-01     -1.776875000000000E+02      7.561035000000000E-01     -9.394922000000000E+01
4868000000.000000      5.505676000000000E-01     -1.680625000000000E+02      5.013733000000000E-01     -7.877343000000000E+01      5.481262000000000E-01     -1.779297000000000E+02      7.570801000000000E-01     -9.394140000000000E+01
4869000000.000000      5.523071000000000E-01     -1.682578000000000E+02      5.032043000000000E-01     -7.892578000000000E+01      5.502014000000000E-01     -1.782109000000000E+02      7.634583000000000E-01     -9.410547000000000E+01
4870000000.000000      5.537720000000000E-01     -1.686484000000000E+02      5.028992000000000E-01     -7.917578000000000E+01      5.521545000000000E-01     -1.783359000000000E+02      7.635193000000000E-01     -9.407812000000000E+01
4871000000.000000      5.564575000000000E-01     -1.689375000000000E+02      5.051270000000000E-01     -7.942187000000000E+01      5.549622000000000E-01     -1.785859000000000E+02      7.653503000000000E-01     -9.411718000000000E+01
4872000000.000000      5.583496000000000E-01     -1.692344000000000E+02      5.061340000000000E-01     -7.961328000000000E+01      5.569153000000000E-01     -1.788203000000000E+02      7.688599000000000E-01     -9.414063000000000E+01
4873000000.000000      5.588074000000000E-01     -1.694687000000000E+02      5.073547000000000E-01     -8.006250000000000E+01      5.597839000000000E-01     -1.788906000000000E+02      7.709351000000000E-01     -9.435938000000000E+01
4874000000.000000      5.599670000000000E-01     -1.696797000000000E+02      5.075073000000000E-01     -8.028515000000000E+01      5.635071000000000E-01     -1.790859000000000E+02      7.734070000000000E-01     -9.420702000000000E+01
4875000000.000000      5.611877000000000E-01     -1.700469000000000E+02      5.088196000000000E-01     -8.041407000000000E+01      5.652161000000000E-01     -1.794609000000000E+02      7.751465000000000E-01     -9.426172000000000E+01
4876000000.000000      5.609741000000000E-01     -1.701562000000000E+02      5.087585000000000E-01     -8.069139000000000E+01      5.664063000000000E-01     -1.795703000000000E+02      7.781067000000000E-01     -9.437891000000000E+01
4877000000.000000      5.616760000000000E-01     -1.703672000000000E+02      5.115051000000000E-01     -8.106640000000000E+01      5.704651000000000E-01     -1.798906000000000E+02      7.810974000000000E-01     -9.454687000000000E+01
4878000000.000000      5.623169000000000E-01     -1.705937000000000E+02      5.128479000000000E-01     -8.126953000000000E+01      5.721741000000000E-01      1.799844000000000E+02      7.825317000000000E-01     -9.446875000000000E+01
4879000000.000000      5.627136000000000E-01     -1.708672000000000E+02      5.132446000000000E-01     -8.120703000000000E+01      5.739746000000000E-01      1.797969000000000E+02      7.850037000000000E-01     -9.439453000000000E+01
4880000000.000000      5.623474000000000E-01     -1.709922000000000E+02      5.148926000000000E-01     -8.155077000000000E+01      5.769043000000000E-01      1.795859000000000E+02      7.876282000000000E-01     -9.440624000000000E+01
4881000000.000000      5.631104000000000E-01     -1.710859000000000E+02      5.169067000000000E-01     -8.162889000000000E+01      5.791931000000000E-01      1.791719000000000E+02      7.869873000000000E-01     -9.469530000000000E+01
4882000000.000000      5.623169000000000E-01     -1.712188000000000E+02      5.169373000000000E-01     -8.190233000000000E+01      5.809326000000000E-01      1.792266000000000E+02      7.898865000000000E-01     -9.451563000000000E+01
