! Network Analyzer HP8722D
! Hewlett-Packard
! Data name: Linha & Wilkinson
! Saver's name: Rodrigo Anjos
! Comments: Teste da utilização de aquisição
continua pelo VNA HP8722D
! Time and date: 17/4/2025 14:51
!              Frequency                     S11                                                   S21                                                   S12                                                   S22
# HZ  S  MA R 50
4800000000.000000      3.333435000000000E-01     -1.129726000000000E+02      2.850494000000000E-01     -6.067773000000000E+01      2.785492000000000E-01     -1.748750000000000E+02      6.553955000000000E-01     -8.984766000000000E+01
4801000000.000000      3.319092000000000E-01     -1.138281000000000E+02      2.892761000000000E-01     -6.078515000000000E+01      2.823486000000000E-01     -1.748125000000000E+02      6.552429000000000E-01     -8.991014000000000E+01
4802000000.000000      3.305969000000000E-01     -1.148750000000000E+02      2.938538000000000E-01     -6.065430000000000E+01      2.867584000000000E-01     -1.745547000000000E+02      6.532593000000000E-01     -8.989843000000000E+01
4803000000.000000      3.300629000000000E-01     -1.159570000000000E+02      2.994537000000000E-01     -6.080664000000000E+01      2.900238000000000E-01     -1.744219000000000E+02      6.527405000000000E-01     -9.011328000000000E+01
4804000000.000000      3.296814000000000E-01     -1.169023000000000E+02      3.029938000000000E-01     -6.092773000000000E+01      2.951202000000000E-01     -1.744453000000000E+02      6.511536000000000E-01     -9.015625000000000E+01
4805000000.000000      3.297424000000000E-01     -1.178711000000000E+02      3.073273000000000E-01     -6.106250000000000E+01      2.993469000000000E-01     -1.742109000000000E+02      6.509399000000000E-01     -9.032812000000000E+01
4806000000.000000      3.286591000000000E-01     -1.188047000000000E+02      3.117523000000000E-01     -6.120507000000000E+01      3.026276000000000E-01     -1.739766000000000E+02      6.511230000000000E-01     -9.035936000000000E+01
4807000000.000000      3.294983000000000E-01     -1.199805000000000E+02      3.167725000000000E-01     -6.151562000000000E+01      3.073273000000000E-01     -1.740313000000000E+02      6.503906000000000E-01     -9.048828000000000E+01
4808000000.000000      3.294830000000000E-01     -1.209219000000000E+02      3.214417000000000E-01     -6.147265000000000E+01      3.111877000000000E-01     -1.740313000000000E+02      6.489258000000000E-01     -9.049608000000000E+01
4809000000.000000      3.295898000000000E-01     -1.220117000000000E+02      3.255920000000000E-01     -6.166210000000000E+01      3.154449000000000E-01     -1.739453000000000E+02      6.490479000000000E-01     -9.068359000000000E+01
4810000000.000000      3.306580000000000E-01     -1.231680000000000E+02      3.298187000000000E-01     -6.183984000000000E+01      3.196716000000000E-01     -1.738047000000000E+02      6.491394000000000E-01     -9.072657000000000E+01
4811000000.000000      3.319397000000000E-01     -1.241250000000000E+02      3.343506000000000E-01     -6.230663000000000E+01      3.252411000000000E-01     -1.737813000000000E+02      6.478271000000000E-01     -9.077734000000000E+01
4812000000.000000      3.331604000000000E-01     -1.251445000000000E+02      3.386688000000000E-01     -6.224414000000000E+01      3.285675000000000E-01     -1.736094000000000E+02      6.479187000000000E-01     -9.090235000000000E+01
4813000000.000000      3.336029000000000E-01     -1.262773000000000E+02      3.426819000000000E-01     -6.245898000000000E+01      3.310242000000000E-01     -1.734453000000000E+02      6.471558000000000E-01     -9.100389000000000E+01
4814000000.000000      3.346100000000000E-01     -1.275859000000000E+02      3.473663000000000E-01     -6.275391000000000E+01      3.355560000000000E-01     -1.736172000000000E+02      6.483154000000000E-01     -9.100780000000000E+01
4815000000.000000      3.363800000000000E-01     -1.285391000000000E+02      3.503571000000000E-01     -6.289063000000000E+01      3.393860000000000E-01     -1.734375000000000E+02      6.470947000000000E-01     -9.107031000000000E+01
4816000000.000000      3.385315000000000E-01     -1.295781000000000E+02      3.558502000000000E-01     -6.302343000000000E+01      3.446655000000000E-01     -1.733828000000000E+02      6.489563000000000E-01     -9.114843000000000E+01
4817000000.000000      3.408813000000000E-01     -1.306172000000000E+02      3.583984000000000E-01     -6.330664000000000E+01      3.473663000000000E-01     -1.734062000000000E+02      6.473389000000000E-01     -9.127733000000000E+01
4818000000.000000      3.427429000000000E-01     -1.318203000000000E+02      3.625336000000000E-01     -6.356250000000000E+01      3.519592000000000E-01     -1.734297000000000E+02      6.495056000000000E-01     -9.131250000000000E+01
4819000000.000000      3.458710000000000E-01     -1.328516000000000E+02      3.667145000000000E-01     -6.374023000000000E+01      3.549805000000000E-01     -1.733516000000000E+02      6.506653000000000E-01     -9.151171000000000E+01
4820000000.000000      3.475800000000000E-01     -1.338359000000000E+02      3.700256000000000E-01     -6.399414000000000E+01      3.608704000000000E-01     -1.732031000000000E+02      6.499634000000000E-01     -9.151562000000000E+01
4821000000.000000      3.512115000000000E-01     -1.349609000000000E+02      3.745728000000000E-01     -6.428515000000000E+01      3.636322000000000E-01     -1.734062000000000E+02      6.500549000000000E-01     -9.167187000000000E+01
4822000000.000000      3.554688000000000E-01     -1.361250000000000E+02      3.789673000000000E-01     -6.450781000000000E+01      3.677826000000000E-01     -1.732188000000000E+02      6.520691000000000E-01     -9.167187000000000E+01
4823000000.000000      3.572388000000000E-01     -1.370078000000000E+02      3.825073000000000E-01     -6.472265000000000E+01      3.716125000000000E-01     -1.732031000000000E+02      6.520386000000000E-01     -9.173046000000000E+01
4824000000.000000      3.617249000000000E-01     -1.381641000000000E+02      3.861084000000000E-01     -6.509766000000000E+01      3.757019000000000E-01     -1.733047000000000E+02      6.538391000000000E-01     -9.181641000000000E+01
4825000000.000000      3.646240000000000E-01     -1.391094000000000E+02      3.894806000000000E-01     -6.525781000000000E+01      3.803253000000000E-01     -1.732031000000000E+02      6.548462000000000E-01     -9.181250000000000E+01
4826000000.000000      3.690186000000000E-01     -1.401484000000000E+02      3.937836000000000E-01     -6.565234000000000E+01      3.836517000000000E-01     -1.732422000000000E+02      6.547546000000000E-01     -9.186327000000000E+01
4827000000.000000      3.729858000000000E-01     -1.410156000000000E+02      3.976593000000000E-01     -6.581249000000000E+01      3.878326000000000E-01     -1.730859000000000E+02      6.568909000000000E-01     -9.194139000000000E+01
4828000000.000000      3.779144000000000E-01     -1.420781000000000E+02      4.015808000000000E-01     -6.615624000000000E+01      3.915100000000000E-01     -1.731953000000000E+02      6.589661000000000E-01     -9.200390000000000E+01
4829000000.000000      3.801880000000000E-01     -1.429297000000000E+02      4.040527000000000E-01     -6.620703000000000E+01      3.960571000000000E-01     -1.732500000000000E+02      6.594849000000000E-01     -9.199219000000000E+01
4830000000.000000      3.856506000000000E-01     -1.438672000000000E+02      4.079742000000000E-01     -6.669531000000000E+01      3.997345000000000E-01     -1.731797000000000E+02      6.606445000000000E-01     -9.213671000000000E+01
4831000000.000000      3.896179000000000E-01     -1.447813000000000E+02      4.113922000000000E-01     -6.698437000000000E+01      4.041443000000000E-01     -1.731328000000000E+02      6.634521000000000E-01     -9.225389000000000E+01
4832000000.000000      3.955536000000000E-01     -1.456875000000000E+02      4.156189000000000E-01     -6.726953000000000E+01      4.076843000000000E-01     -1.732656000000000E+02      6.636047000000000E-01     -9.239061000000000E+01
4833000000.000000      4.002228000000000E-01     -1.466563000000000E+02      4.181824000000000E-01     -6.766796000000000E+01      4.126434000000000E-01     -1.733047000000000E+02      6.669312000000000E-01     -9.231640000000000E+01
4834000000.000000      4.045715000000000E-01     -1.475234000000000E+02      4.213867000000000E-01     -6.790625000000000E+01      4.167786000000000E-01     -1.733125000000000E+02      6.674805000000000E-01     -9.244921000000000E+01
4835000000.000000      4.090118000000000E-01     -1.483203000000000E+02      4.254303000000000E-01     -6.830078000000000E+01      4.208374000000000E-01     -1.733438000000000E+02      6.691589000000000E-01     -9.251171000000000E+01
4836000000.000000      4.155121000000000E-01     -1.490781000000000E+02      4.277344000000000E-01     -6.830859000000000E+01      4.239197000000000E-01     -1.733828000000000E+02      6.706543000000000E-01     -9.254686000000000E+01
4837000000.000000      4.195251000000000E-01     -1.498672000000000E+02      4.311066000000000E-01     -6.901172000000000E+01      4.281158000000000E-01     -1.735547000000000E+02      6.731262000000000E-01     -9.255077000000000E+01
4838000000.000000      4.254608000000000E-01     -1.507969000000000E+02      4.351807000000000E-01     -6.907421000000000E+01      4.328308000000000E-01     -1.734688000000000E+02      6.756592000000000E-01     -9.267578000000000E+01
4839000000.000000      4.305725000000000E-01     -1.513672000000000E+02      4.377136000000000E-01     -6.936718000000000E+01      4.372711000000000E-01     -1.735234000000000E+02      6.780090000000000E-01     -9.259375000000000E+01
4840000000.000000      4.346619000000000E-01     -1.523047000000000E+02      4.406738000000000E-01     -6.980078000000000E+01      4.411011000000000E-01     -1.737422000000000E+02      6.799622000000000E-01     -9.271484000000000E+01
4841000000.000000      4.403687000000000E-01     -1.531406000000000E+02      4.437408000000000E-01     -7.010156000000000E+01      4.451599000000000E-01     -1.737422000000000E+02      6.811829000000000E-01     -9.276562000000000E+01
4842000000.000000      4.459839000000000E-01     -1.537266000000000E+02      4.471893000000000E-01     -7.027344000000000E+01      4.483795000000000E-01     -1.738437000000000E+02      6.860962000000000E-01     -9.283203000000000E+01
4843000000.000000      4.507294000000000E-01     -1.545391000000000E+02      4.499207000000000E-01     -7.081249000000000E+01      4.528198000000000E-01     -1.738437000000000E+02      6.878967000000000E-01     -9.288280000000000E+01
4844000000.000000      4.558716000000000E-01     -1.552109000000000E+02      4.525299000000000E-01     -7.099218000000000E+01      4.567871000000000E-01     -1.739922000000000E+02      6.901855000000000E-01     -9.284374000000000E+01
4845000000.000000      4.607849000000000E-01     -1.558828000000000E+02      4.549103000000000E-01     -7.128124000000000E+01      4.608154000000000E-01     -1.740859000000000E+02      6.924133000000000E-01     -9.289063000000000E+01
4846000000.000000      4.658051000000000E-01     -1.564219000000000E+02      4.573212000000000E-01     -7.160156000000000E+01      4.659576000000000E-01     -1.741562000000000E+02      6.949158000000000E-01     -9.299608000000000E+01
4847000000.000000      4.720459000000000E-01     -1.571484000000000E+02      4.597931000000000E-01     -7.201953000000000E+01      4.698944000000000E-01     -1.743125000000000E+02      6.983032000000000E-01     -9.308594000000000E+01
4848000000.000000      4.767914000000000E-01     -1.577656000000000E+02      4.624786000000000E-01     -7.223437000000000E+01      4.741821000000000E-01     -1.743906000000000E+02      6.998596000000000E-01     -9.309765000000000E+01
4849000000.000000      4.814911000000000E-01     -1.586641000000000E+02      4.656982000000000E-01     -7.277344000000000E+01      4.782715000000000E-01     -1.745625000000000E+02      7.025452000000000E-01     -9.311718000000000E+01
4850000000.000000      4.862671000000000E-01     -1.590547000000000E+02      4.679108000000000E-01     -7.296093000000000E+01      4.815063000000000E-01     -1.746016000000000E+02      7.055359000000000E-01     -9.315624000000000E+01
4851000000.000000      4.912720000000000E-01     -1.596562000000000E+02      4.708252000000000E-01     -7.335938000000000E+01      4.853668000000000E-01     -1.747813000000000E+02      7.093811000000000E-01     -9.316797000000000E+01
4852000000.000000      4.962311000000000E-01     -1.602734000000000E+02      4.724579000000000E-01     -7.347265000000000E+01      4.898834000000000E-01     -1.748516000000000E+02      7.108154000000000E-01     -9.321484000000000E+01
4853000000.000000      5.014954000000000E-01     -1.608203000000000E+02      4.732208000000000E-01     -7.396093000000000E+01      4.940338000000000E-01     -1.750859000000000E+02      7.142029000000000E-01     -9.337109000000000E+01
4854000000.000000      5.051575000000000E-01     -1.613203000000000E+02      4.764099000000000E-01     -7.443749000000000E+01      4.975281000000000E-01     -1.751562000000000E+02      7.171021000000000E-01     -9.351563000000000E+01
4855000000.000000      5.088806000000000E-01     -1.619375000000000E+02      4.786682000000000E-01     -7.454296000000000E+01      5.006104000000000E-01     -1.754453000000000E+02      7.192383000000000E-01     -9.337891000000000E+01
4856000000.000000      5.140381000000000E-01     -1.624141000000000E+02      4.808197000000000E-01     -7.483203000000000E+01      5.040283000000000E-01     -1.754219000000000E+02      7.230225000000000E-01     -9.337500000000000E+01
4857000000.000000      5.179749000000000E-01     -1.630234000000000E+02      4.842072000000000E-01     -7.519531000000000E+01      5.092773000000000E-01     -1.755859000000000E+02      7.261047000000000E-01     -9.351171000000000E+01
4858000000.000000      5.202332000000000E-01     -1.635234000000000E+02      4.846649000000000E-01     -7.554688000000000E+01      5.109253000000000E-01     -1.758672000000000E+02      7.292175000000000E-01     -9.364452000000000E+01
4859000000.000000      5.253296000000000E-01     -1.639766000000000E+02      4.871521000000000E-01     -7.595312000000000E+01      5.156250000000000E-01     -1.760703000000000E+02      7.330017000000000E-01     -9.360155000000000E+01
4860000000.000000      5.290527000000000E-01     -1.644531000000000E+02      4.905090000000000E-01     -7.609765000000000E+01      5.192566000000000E-01     -1.760625000000000E+02      7.341309000000000E-01     -9.355469000000000E+01
4861000000.000000      5.319214000000000E-01     -1.648750000000000E+02      4.898682000000000E-01     -7.652734000000000E+01      5.234070000000000E-01     -1.762891000000000E+02      7.379761000000000E-01     -9.367968000000000E+01
4862000000.000000      5.349731000000000E-01     -1.652969000000000E+02      4.932556000000000E-01     -7.660156000000000E+01      5.262146000000000E-01     -1.764531000000000E+02      7.413940000000000E-01     -9.370312000000000E+01
4863000000.000000      5.375061000000000E-01     -1.657500000000000E+02      4.933472000000000E-01     -7.703906000000000E+01      5.312805000000000E-01     -1.766484000000000E+02      7.444763000000000E-01     -9.380859000000000E+01
4864000000.000000      5.406799000000000E-01     -1.661875000000000E+02      4.957123000000000E-01     -7.729687000000000E+01      5.326233000000000E-01     -1.767344000000000E+02      7.456360000000000E-01     -9.383204000000000E+01
4865000000.000000      5.433350000000000E-01     -1.666328000000000E+02      4.963074000000000E-01     -7.747265000000000E+01      5.359192000000000E-01     -1.769766000000000E+02      7.493591000000000E-01     -9.378906000000000E+01
4866000000.000000      5.455017000000000E-01     -1.668672000000000E+02      4.988251000000000E-01     -7.798046000000000E+01      5.395203000000000E-01     -1.771016000000000E+02      7.520142000000000E-01     -9.375780000000000E+01
4867000000.000000      5.477600000000000E-01     -1.672109000000000E+02      5.003357000000000E-01     -7.825390000000000E+01      5.428467000000000E-01     -1.775391000000000E+02      7.560730000000000E-01     -9.385937000000000E+01
4868000000.000000      5.510559000000000E-01     -1.677109000000000E+02      5.002441000000000E-01     -7.852734000000000E+01      5.458374000000000E-01     -1.776250000000000E+02      7.574768000000000E-01     -9.381639000000000E+01
4869000000.000000      5.520325000000000E-01     -1.680312000000000E+02      5.018921000000000E-01     -7.870312000000000E+01      5.497742000000000E-01     -1.779687000000000E+02      7.610168000000000E-01     -9.405077000000000E+01
4870000000.000000      5.540771000000000E-01     -1.683281000000000E+02      5.035706000000000E-01     -7.898828000000000E+01      5.513000000000000E-01     -1.781328000000000E+02      7.630005000000000E-01     -9.385157000000000E+01
4871000000.000000      5.556335000000000E-01     -1.686328000000000E+02      5.042419000000000E-01     -7.934765000000000E+01      5.538330000000000E-01     -1.782891000000000E+02      7.648315000000000E-01     -9.413280000000000E+01
4872000000.000000      5.581360000000000E-01     -1.688984000000000E+02      5.041199000000000E-01     -7.944921000000000E+01      5.568848000000000E-01     -1.787188000000000E+02      7.695923000000000E-01     -9.399609000000000E+01
4873000000.000000      5.585632000000000E-01     -1.691875000000000E+02      5.062561000000000E-01     -7.986328000000000E+01      5.587463000000000E-01     -1.786875000000000E+02      7.710266000000000E-01     -9.413280000000000E+01
4874000000.000000      5.594482000000000E-01     -1.693516000000000E+02      5.074768000000000E-01     -8.008984000000000E+01      5.637817000000000E-01     -1.787656000000000E+02      7.722778000000000E-01     -9.399218000000000E+01
4875000000.000000      5.617981000000000E-01     -1.697344000000000E+02      5.079346000000000E-01     -8.020702000000000E+01      5.650024000000000E-01     -1.793047000000000E+02      7.757263000000000E-01     -9.418749000000000E+01
4876000000.000000      5.610046000000000E-01     -1.698828000000000E+02      5.114136000000000E-01     -8.060156000000000E+01      5.671387000000000E-01     -1.793672000000000E+02      7.791443000000000E-01     -9.417187000000000E+01
4877000000.000000      5.615540000000000E-01     -1.701328000000000E+02      5.121155000000000E-01     -8.072266000000000E+01      5.698242000000000E-01     -1.796719000000000E+02      7.787781000000000E-01     -9.438671000000000E+01
4878000000.000000      5.634460000000000E-01     -1.702969000000000E+02      5.133667000000000E-01     -8.096874000000000E+01      5.712891000000000E-01     -1.798203000000000E+02      7.829590000000000E-01     -9.438280000000000E+01
4879000000.000000      5.636902000000000E-01     -1.706094000000000E+02      5.123596000000000E-01     -8.098047000000000E+01      5.736389000000000E-01     -1.800000000000000E+02      7.836304000000000E-01     -9.433203000000000E+01
4880000000.000000      5.627441000000000E-01     -1.706563000000000E+02      5.133667000000000E-01     -8.128124000000000E+01      5.772095000000000E-01      1.797734000000000E+02      7.863159000000000E-01     -9.430859000000000E+01
4881000000.000000      5.645142000000000E-01     -1.707969000000000E+02      5.160522000000000E-01     -8.135157000000000E+01      5.790710000000000E-01      1.794062000000000E+02      7.879333000000000E-01     -9.446093000000000E+01
4882000000.000000      5.627441000000000E-01     -1.709375000000000E+02      5.162964000000000E-01     -8.173437000000000E+01      5.801086000000000E-01      1.793594000000000E+02      7.905884000000000E-01     -9.446093000000000E+01
