! Network Analyzer HP8722D
! Hewlett-Packard
! Data name: Linha & Wilkinson
! Saver's name: Rodrigo Anjos
! Comments: Teste da utilização de aquisição
continua pelo VNA HP8722D
! Time and date: 17/4/2025 15:03
!              Frequency                     S11                                                   S21                                                   S12                                                   S22
# HZ  S  MA R 50
4800000000.000000      3.334198000000000E-01     -1.131602000000000E+02      2.868347000000000E-01     -6.084374000000000E+01      2.807922000000000E-01     -1.749375000000000E+02      6.565552000000000E-01     -8.999218000000000E+01
4801000000.000000      3.320160000000000E-01     -1.141250000000000E+02      2.917480000000000E-01     -6.079883000000000E+01      2.851410000000000E-01     -1.748047000000000E+02      6.547241000000000E-01     -9.008204000000000E+01
4802000000.000000      3.305817000000000E-01     -1.150586000000000E+02      2.964478000000000E-01     -6.082226000000000E+01      2.893677000000000E-01     -1.747266000000000E+02      6.537781000000000E-01     -9.006250000000000E+01
4803000000.000000      3.306580000000000E-01     -1.161172000000000E+02      3.010559000000000E-01     -6.085938000000000E+01      2.931824000000000E-01     -1.746016000000000E+02      6.527710000000000E-01     -9.018749000000000E+01
4804000000.000000      3.301697000000000E-01     -1.170117000000000E+02      3.061218000000000E-01     -6.120117000000000E+01      2.969971000000000E-01     -1.745469000000000E+02      6.518250000000000E-01     -9.018358000000000E+01
4805000000.000000      3.303528000000000E-01     -1.181602000000000E+02      3.097839000000000E-01     -6.110742000000000E+01      3.016205000000000E-01     -1.743281000000000E+02      6.518250000000000E-01     -9.041407000000000E+01
4806000000.000000      3.295135000000000E-01     -1.189766000000000E+02      3.143768000000000E-01     -6.126171000000000E+01      3.049774000000000E-01     -1.741641000000000E+02      6.519165000000000E-01     -9.048828000000000E+01
4807000000.000000      3.294830000000000E-01     -1.201406000000000E+02      3.184509000000000E-01     -6.147851000000000E+01      3.095245000000000E-01     -1.742734000000000E+02      6.501770000000000E-01     -9.055079000000000E+01
4808000000.000000      3.300323000000000E-01     -1.211875000000000E+02      3.241882000000000E-01     -6.148242000000000E+01      3.131409000000000E-01     -1.741094000000000E+02      6.495056000000000E-01     -9.058594000000000E+01
4809000000.000000      3.301086000000000E-01     -1.222578000000000E+02      3.280334000000000E-01     -6.198828000000000E+01      3.181305000000000E-01     -1.741172000000000E+02      6.489258000000000E-01     -9.078905000000000E+01
4810000000.000000      3.313141000000000E-01     -1.233867000000000E+02      3.323059000000000E-01     -6.194726000000000E+01      3.220520000000000E-01     -1.740156000000000E+02      6.492310000000000E-01     -9.100780000000000E+01
4811000000.000000      3.320618000000000E-01     -1.244687000000000E+02      3.362885000000000E-01     -6.224999000000000E+01      3.267365000000000E-01     -1.738750000000000E+02      6.485901000000000E-01     -9.086329000000000E+01
4812000000.000000      3.336945000000000E-01     -1.255000000000000E+02      3.406067000000000E-01     -6.249023000000000E+01      3.304291000000000E-01     -1.738516000000000E+02      6.485901000000000E-01     -9.105860000000000E+01
4813000000.000000      3.340912000000000E-01     -1.265742000000000E+02      3.454132000000000E-01     -6.255077000000000E+01      3.338165000000000E-01     -1.736719000000000E+02      6.478577000000000E-01     -9.103125000000000E+01
4814000000.000000      3.353424000000000E-01     -1.278008000000000E+02      3.490448000000000E-01     -6.286718000000000E+01      3.373413000000000E-01     -1.737109000000000E+02      6.490173000000000E-01     -9.126953000000000E+01
4815000000.000000      3.371124000000000E-01     -1.286094000000000E+02      3.527069000000000E-01     -6.299999000000000E+01      3.413696000000000E-01     -1.736250000000000E+02      6.477966000000000E-01     -9.126171000000000E+01
4816000000.000000      3.388824000000000E-01     -1.297734000000000E+02      3.578491000000000E-01     -6.323632000000000E+01      3.465118000000000E-01     -1.735937000000000E+02      6.484375000000000E-01     -9.128124000000000E+01
4817000000.000000      3.419037000000000E-01     -1.308438000000000E+02      3.611298000000000E-01     -6.356445000000000E+01      3.496704000000000E-01     -1.736250000000000E+02      6.477051000000000E-01     -9.144140000000000E+01
4818000000.000000      3.433990000000000E-01     -1.320000000000000E+02      3.640594000000000E-01     -6.375781000000000E+01      3.544922000000000E-01     -1.735391000000000E+02      6.493225000000000E-01     -9.147655000000000E+01
4819000000.000000      3.462677000000000E-01     -1.331094000000000E+02      3.681641000000000E-01     -6.403125000000000E+01      3.578186000000000E-01     -1.735156000000000E+02      6.502380000000000E-01     -9.154688000000000E+01
4820000000.000000      3.479614000000000E-01     -1.341328000000000E+02      3.734131000000000E-01     -6.402344000000000E+01      3.624573000000000E-01     -1.734766000000000E+02      6.501465000000000E-01     -9.164063000000000E+01
4821000000.000000      3.513947000000000E-01     -1.352500000000000E+02      3.770752000000000E-01     -6.448828000000000E+01      3.658752000000000E-01     -1.735703000000000E+02      6.503601000000000E-01     -9.181641000000000E+01
4822000000.000000      3.560944000000000E-01     -1.363047000000000E+02      3.797150000000000E-01     -6.461719000000000E+01      3.692322000000000E-01     -1.735703000000000E+02      6.533508000000000E-01     -9.176172000000000E+01
4823000000.000000      3.580017000000000E-01     -1.372422000000000E+02      3.851776000000000E-01     -6.487890000000000E+01      3.734131000000000E-01     -1.732656000000000E+02      6.522217000000000E-01     -9.192186000000000E+01
4824000000.000000      3.623657000000000E-01     -1.383125000000000E+02      3.873901000000000E-01     -6.533593000000000E+01      3.781128000000000E-01     -1.734375000000000E+02      6.539612000000000E-01     -9.192577000000000E+01
4825000000.000000      3.657684000000000E-01     -1.393359000000000E+02      3.917236000000000E-01     -6.541016000000000E+01      3.832245000000000E-01     -1.734609000000000E+02      6.550903000000000E-01     -9.195704000000000E+01
4826000000.000000      3.704681000000000E-01     -1.403516000000000E+02      3.952179000000000E-01     -6.596484000000000E+01      3.856506000000000E-01     -1.734453000000000E+02      6.560669000000000E-01     -9.207422000000000E+01
4827000000.000000      3.738861000000000E-01     -1.411719000000000E+02      3.987885000000000E-01     -6.592187000000000E+01      3.900909000000000E-01     -1.734453000000000E+02      6.576538000000000E-01     -9.211329000000000E+01
4828000000.000000      3.782349000000000E-01     -1.422500000000000E+02      4.028168000000000E-01     -6.625390000000000E+01      3.937073000000000E-01     -1.734375000000000E+02      6.600952000000000E-01     -9.218359000000000E+01
4829000000.000000      3.810272000000000E-01     -1.431406000000000E+02      4.052734000000000E-01     -6.668359000000000E+01      3.973694000000000E-01     -1.734531000000000E+02      6.597900000000000E-01     -9.221874000000000E+01
4830000000.000000      3.865509000000000E-01     -1.441250000000000E+02      4.090881000000000E-01     -6.691406000000000E+01      4.020996000000000E-01     -1.734453000000000E+02      6.610718000000000E-01     -9.237499000000000E+01
4831000000.000000      3.899994000000000E-01     -1.450078000000000E+02      4.128876000000000E-01     -6.723827000000000E+01      4.064026000000000E-01     -1.734453000000000E+02      6.635742000000000E-01     -9.241796000000000E+01
4832000000.000000      3.963318000000000E-01     -1.458828000000000E+02      4.165649000000000E-01     -6.744922000000000E+01      4.100800000000000E-01     -1.735000000000000E+02      6.640320000000000E-01     -9.247656000000000E+01
4833000000.000000      4.006805000000000E-01     -1.468828000000000E+02      4.201813000000000E-01     -6.776562000000000E+01      4.138489000000000E-01     -1.735937000000000E+02      6.660767000000000E-01     -9.252344000000000E+01
4834000000.000000      4.053040000000000E-01     -1.476563000000000E+02      4.229279000000000E-01     -6.814843000000000E+01      4.179840000000000E-01     -1.736094000000000E+02      6.678467000000000E-01     -9.258204000000000E+01
4835000000.000000      4.096985000000000E-01     -1.485469000000000E+02      4.264832000000000E-01     -6.834765000000000E+01      4.230804000000000E-01     -1.736406000000000E+02      6.705627000000000E-01     -9.271875000000000E+01
4836000000.000000      4.156036000000000E-01     -1.493203000000000E+02      4.289246000000000E-01     -6.855469000000000E+01      4.257965000000000E-01     -1.736094000000000E+02      6.726074000000000E-01     -9.260157000000000E+01
4837000000.000000      4.208374000000000E-01     -1.500703000000000E+02      4.331665000000000E-01     -6.922656000000000E+01      4.299622000000000E-01     -1.737813000000000E+02      6.735229000000000E-01     -9.272655000000000E+01
4838000000.000000      4.262543000000000E-01     -1.510156000000000E+02      4.367676000000000E-01     -6.923046000000000E+01      4.345093000000000E-01     -1.737344000000000E+02      6.766663000000000E-01     -9.277344000000000E+01
4839000000.000000      4.313202000000000E-01     -1.516562000000000E+02      4.388428000000000E-01     -6.954687000000000E+01      4.387360000000000E-01     -1.737734000000000E+02      6.795959000000000E-01     -9.273046000000000E+01
4840000000.000000      4.357147000000000E-01     -1.525391000000000E+02      4.416962000000000E-01     -6.980469000000000E+01      4.427185000000000E-01     -1.739766000000000E+02      6.806335000000000E-01     -9.287889000000000E+01
4841000000.000000      4.408264000000000E-01     -1.533125000000000E+02      4.456635000000000E-01     -7.046093000000000E+01      4.468994000000000E-01     -1.740234000000000E+02      6.838074000000000E-01     -9.285936000000000E+01
4842000000.000000      4.469910000000000E-01     -1.539766000000000E+02      4.487915000000000E-01     -7.055859000000000E+01      4.500122000000000E-01     -1.740937000000000E+02      6.849365000000000E-01     -9.297655000000000E+01
4843000000.000000      4.513702000000000E-01     -1.547500000000000E+02      4.523163000000000E-01     -7.098437000000000E+01      4.551239000000000E-01     -1.741094000000000E+02      6.881104000000000E-01     -9.299219000000000E+01
4844000000.000000      4.571381000000000E-01     -1.553906000000000E+02      4.526215000000000E-01     -7.117969000000000E+01      4.586182000000000E-01     -1.742656000000000E+02      6.901855000000000E-01     -9.305859000000000E+01
4845000000.000000      4.616699000000000E-01     -1.560859000000000E+02      4.562073000000000E-01     -7.159374000000000E+01      4.626923000000000E-01     -1.743438000000000E+02      6.924133000000000E-01     -9.305079000000000E+01
4846000000.000000      4.664154000000000E-01     -1.566562000000000E+02      4.586487000000000E-01     -7.184765000000000E+01      4.674835000000000E-01     -1.743828000000000E+02      6.959534000000000E-01     -9.309765000000000E+01
4847000000.000000      4.732361000000000E-01     -1.574375000000000E+02      4.607239000000000E-01     -7.213281000000000E+01      4.713287000000000E-01     -1.745547000000000E+02      6.985779000000000E-01     -9.332811000000000E+01
4848000000.000000      4.776611000000000E-01     -1.580469000000000E+02      4.630280000000000E-01     -7.246094000000000E+01      4.760590000000000E-01     -1.745781000000000E+02      7.003784000000000E-01     -9.324219000000000E+01
4849000000.000000      4.823151000000000E-01     -1.589375000000000E+02      4.670563000000000E-01     -7.294140000000000E+01      4.794922000000000E-01     -1.747734000000000E+02      7.031555000000000E-01     -9.331249000000000E+01
4850000000.000000      4.871063000000000E-01     -1.592422000000000E+02      4.690857000000000E-01     -7.306250000000000E+01      4.829865000000000E-01     -1.748516000000000E+02      7.069397000000000E-01     -9.327343000000000E+01
4851000000.000000      4.924774000000000E-01     -1.598750000000000E+02      4.723206000000000E-01     -7.368750000000000E+01      4.869537000000000E-01     -1.749922000000000E+02      7.095337000000000E-01     -9.334764000000000E+01
4852000000.000000      4.972992000000000E-01     -1.605469000000000E+02      4.741211000000000E-01     -7.374218000000000E+01      4.911041000000000E-01     -1.751172000000000E+02      7.126770000000000E-01     -9.338282000000000E+01
4853000000.000000      5.019836000000000E-01     -1.610703000000000E+02      4.743652000000000E-01     -7.408984000000000E+01      4.952698000000000E-01     -1.753281000000000E+02      7.152405000000000E-01     -9.356640000000000E+01
4854000000.000000      5.057983000000000E-01     -1.615625000000000E+02      4.776001000000000E-01     -7.469140000000000E+01      4.988251000000000E-01     -1.753906000000000E+02      7.171021000000000E-01     -9.348047000000000E+01
4855000000.000000      5.091248000000000E-01     -1.622031000000000E+02      4.796753000000000E-01     -7.486328000000000E+01      5.032349000000000E-01     -1.754688000000000E+02      7.188110000000000E-01     -9.346483000000000E+01
4856000000.000000      5.143127000000000E-01     -1.626016000000000E+02      4.820099000000000E-01     -7.503906000000000E+01      5.061646000000000E-01     -1.756641000000000E+02      7.238770000000000E-01     -9.360937000000000E+01
4857000000.000000      5.187683000000000E-01     -1.632422000000000E+02      4.847260000000000E-01     -7.543359000000000E+01      5.093689000000000E-01     -1.758594000000000E+02      7.265320000000000E-01     -9.376562000000000E+01
4858000000.000000      5.209351000000000E-01     -1.637344000000000E+02      4.860687000000000E-01     -7.575000000000000E+01      5.135498000000000E-01     -1.760547000000000E+02      7.286377000000000E-01     -9.360155000000000E+01
4859000000.000000      5.252991000000000E-01     -1.641719000000000E+02      4.878540000000000E-01     -7.611718000000000E+01      5.161743000000000E-01     -1.762891000000000E+02      7.321777000000000E-01     -9.382421000000000E+01
4860000000.000000      5.296631000000000E-01     -1.646719000000000E+02      4.897919000000000E-01     -7.626953000000000E+01      5.187683000000000E-01     -1.764297000000000E+02      7.349243000000000E-01     -9.364061000000000E+01
4861000000.000000      5.327148000000000E-01     -1.650547000000000E+02      4.904175000000000E-01     -7.684375000000000E+01      5.239868000000000E-01     -1.765391000000000E+02      7.373657000000000E-01     -9.378906000000000E+01
4862000000.000000      5.353394000000000E-01     -1.654844000000000E+02      4.929962000000000E-01     -7.683594000000000E+01      5.288696000000000E-01     -1.767187000000000E+02      7.413330000000000E-01     -9.380468000000000E+01
4863000000.000000      5.378723000000000E-01     -1.658750000000000E+02      4.939575000000000E-01     -7.738281000000000E+01      5.318909000000000E-01     -1.768359000000000E+02      7.435608000000000E-01     -9.393749000000000E+01
4864000000.000000      5.415039000000000E-01     -1.663750000000000E+02      4.974670000000000E-01     -7.758594000000000E+01      5.341797000000000E-01     -1.771328000000000E+02      7.459412000000000E-01     -9.385157000000000E+01
4865000000.000000      5.436096000000000E-01     -1.668750000000000E+02      4.971313000000000E-01     -7.781250000000000E+01      5.372620000000000E-01     -1.772109000000000E+02      7.499390000000000E-01     -9.396093000000000E+01
4866000000.000000      5.462952000000000E-01     -1.671328000000000E+02      4.990997000000000E-01     -7.811328000000000E+01      5.417175000000000E-01     -1.776016000000000E+02      7.523499000000000E-01     -9.398438000000000E+01
4867000000.000000      5.475769000000000E-01     -1.675390000000000E+02      5.003357000000000E-01     -7.837891000000000E+01      5.441284000000000E-01     -1.776484000000000E+02      7.554016000000000E-01     -9.394140000000000E+01
4868000000.000000      5.510864000000000E-01     -1.679531000000000E+02      5.030518000000000E-01     -7.878515000000000E+01      5.475769000000000E-01     -1.779140000000000E+02      7.568970000000000E-01     -9.401562000000000E+01
4869000000.000000      5.520630000000000E-01     -1.682422000000000E+02      5.023193000000000E-01     -7.901953000000000E+01      5.496216000000000E-01     -1.780234000000000E+02      7.606812000000000E-01     -9.418360000000000E+01
4870000000.000000      5.544434000000000E-01     -1.684531000000000E+02      5.047302000000000E-01     -7.905078000000000E+01      5.522461000000000E-01     -1.782812000000000E+02      7.638550000000000E-01     -9.408983000000000E+01
4871000000.000000      5.571289000000000E-01     -1.689687000000000E+02      5.050964000000000E-01     -7.941015000000000E+01      5.550842000000000E-01     -1.784688000000000E+02      7.651062000000000E-01     -9.423437000000000E+01
4872000000.000000      5.578308000000000E-01     -1.690703000000000E+02      5.057373000000000E-01     -7.961328000000000E+01      5.575256000000000E-01     -1.788359000000000E+02      7.687683000000000E-01     -9.420313000000000E+01
4873000000.000000      5.588684000000000E-01     -1.693438000000000E+02      5.072632000000000E-01     -7.991796000000000E+01      5.590210000000000E-01     -1.789453000000000E+02      7.709045000000000E-01     -9.435547000000000E+01
4874000000.000000      5.593567000000000E-01     -1.696875000000000E+02      5.076599000000000E-01     -8.016796000000000E+01      5.628967000000000E-01     -1.791172000000000E+02      7.727051000000000E-01     -9.417578000000000E+01
4875000000.000000      5.619812000000000E-01     -1.698906000000000E+02      5.090637000000000E-01     -8.048437000000000E+01      5.649109000000000E-01     -1.795312000000000E+02      7.756042000000000E-01     -9.444139000000000E+01
4876000000.000000      5.606384000000000E-01     -1.701719000000000E+02      5.096741000000000E-01     -8.078125000000000E+01      5.674438000000000E-01     -1.794922000000000E+02      7.777405000000000E-01     -9.435938000000000E+01
4877000000.000000      5.619812000000000E-01     -1.703047000000000E+02      5.121155000000000E-01     -8.089062000000000E+01      5.696106000000000E-01     -1.798984000000000E+02      7.804565000000000E-01     -9.455469000000000E+01
4878000000.000000      5.635376000000000E-01     -1.704141000000000E+02      5.130005000000000E-01     -8.110937000000000E+01      5.721130000000000E-01     -1.799531000000000E+02      7.838745000000000E-01     -9.457811000000000E+01
4879000000.000000      5.635681000000000E-01     -1.706719000000000E+02      5.130005000000000E-01     -8.132421000000000E+01      5.750427000000000E-01      1.797188000000000E+02      7.846069000000000E-01     -9.454687000000000E+01
4880000000.000000      5.634460000000000E-01     -1.708437000000000E+02      5.148926000000000E-01     -8.162109000000000E+01      5.769043000000000E-01      1.796094000000000E+02      7.871399000000000E-01     -9.457422000000000E+01
4881000000.000000      5.638733000000000E-01     -1.708672000000000E+02      5.160217000000000E-01     -8.168749000000000E+01      5.783691000000000E-01      1.792109000000000E+02      7.890625000000000E-01     -9.470703000000000E+01
4882000000.000000      5.625610000000000E-01     -1.710859000000000E+02      5.158386000000000E-01     -8.190233000000000E+01      5.807800000000000E-01      1.792187000000000E+02      7.916870000000000E-01     -9.463671000000000E+01
