! Network Analyzer HP8722D
! Hewlett-Packard
! Data name: Linha & Wilkinson
! Saver's name: Rodrigo Anjos
! Comments: Teste da utilização de aquisição
continua pelo VNA HP8722D
! Time and date: 17/4/2025 15:39
!              Frequency                     S11                                                   S21                                                   S12                                                   S22
# HZ  S  MA R 50
4800000000.000000      3.332825000000000E-01     -1.132891000000000E+02      2.873840000000000E-01     -6.061718000000000E+01      2.813263000000000E-01     -1.749844000000000E+02      6.564026000000000E-01     -8.996874000000000E+01
4801000000.000000      3.320007000000000E-01     -1.140859000000000E+02      2.922516000000000E-01     -6.068164000000000E+01      2.855835000000000E-01     -1.748125000000000E+02      6.549683000000000E-01     -9.006250000000000E+01
4802000000.000000      3.309784000000000E-01     -1.150703000000000E+02      2.964325000000000E-01     -6.082812000000000E+01      2.897491000000000E-01     -1.746484000000000E+02      6.534119000000000E-01     -8.994921000000000E+01
4803000000.000000      3.302917000000000E-01     -1.160976000000000E+02      3.018799000000000E-01     -6.078125000000000E+01      2.935181000000000E-01     -1.745234000000000E+02      6.529846000000000E-01     -9.026171000000000E+01
4804000000.000000      3.305664000000000E-01     -1.170664000000000E+02      3.061981000000000E-01     -6.114843000000000E+01      2.984467000000000E-01     -1.744844000000000E+02      6.513672000000000E-01     -9.025782000000000E+01
4805000000.000000      3.306885000000000E-01     -1.180781000000000E+02      3.099823000000000E-01     -6.123241000000000E+01      3.018341000000000E-01     -1.743125000000000E+02      6.523743000000000E-01     -9.037109000000000E+01
4806000000.000000      3.293762000000000E-01     -1.190703000000000E+02      3.143768000000000E-01     -6.130273000000000E+01      3.052216000000000E-01     -1.739609000000000E+02      6.514282000000000E-01     -9.051561000000000E+01
4807000000.000000      3.294830000000000E-01     -1.201953000000000E+02      3.187408000000000E-01     -6.147265000000000E+01      3.097534000000000E-01     -1.742109000000000E+02      6.492310000000000E-01     -9.060156000000000E+01
4808000000.000000      3.300934000000000E-01     -1.212226000000000E+02      3.240814000000000E-01     -6.145898000000000E+01      3.135834000000000E-01     -1.740156000000000E+02      6.495056000000000E-01     -9.041407000000000E+01
4809000000.000000      3.303070000000000E-01     -1.222383000000000E+02      3.282166000000000E-01     -6.194921000000000E+01      3.185425000000000E-01     -1.740703000000000E+02      6.496277000000000E-01     -9.077343000000000E+01
4810000000.000000      3.311157000000000E-01     -1.234023000000000E+02      3.329315000000000E-01     -6.188086000000000E+01      3.218994000000000E-01     -1.740000000000000E+02      6.498718000000000E-01     -9.083984000000000E+01
4811000000.000000      3.321228000000000E-01     -1.244609000000000E+02      3.370514000000000E-01     -6.218750000000000E+01      3.266144000000000E-01     -1.738984000000000E+02      6.491699000000000E-01     -9.092188000000000E+01
4812000000.000000      3.336182000000000E-01     -1.254219000000000E+02      3.417206000000000E-01     -6.237695000000000E+01      3.309631000000000E-01     -1.736953000000000E+02      6.485596000000000E-01     -9.090235000000000E+01
4813000000.000000      3.344269000000000E-01     -1.265547000000000E+02      3.452759000000000E-01     -6.275391000000000E+01      3.340149000000000E-01     -1.736250000000000E+02      6.481018000000000E-01     -9.100000000000000E+01
4814000000.000000      3.351288000000000E-01     -1.277891000000000E+02      3.488159000000000E-01     -6.283398000000000E+01      3.380585000000000E-01     -1.736797000000000E+02      6.481018000000000E-01     -9.112890000000000E+01
4815000000.000000      3.372955000000000E-01     -1.287969000000000E+02      3.533173000000000E-01     -6.303124000000000E+01      3.413086000000000E-01     -1.736719000000000E+02      6.473694000000000E-01     -9.121485000000000E+01
4816000000.000000      3.396149000000000E-01     -1.298203000000000E+02      3.580017000000000E-01     -6.315039000000000E+01      3.465271000000000E-01     -1.735391000000000E+02      6.477661000000000E-01     -9.128124000000000E+01
4817000000.000000      3.419495000000000E-01     -1.309141000000000E+02      3.617706000000000E-01     -6.347656000000000E+01      3.495483000000000E-01     -1.735312000000000E+02      6.480103000000000E-01     -9.128906000000000E+01
4818000000.000000      3.437500000000000E-01     -1.320547000000000E+02      3.647614000000000E-01     -6.362890000000000E+01      3.540802000000000E-01     -1.734375000000000E+02      6.484985000000000E-01     -9.148829000000000E+01
4819000000.000000      3.464813000000000E-01     -1.330859000000000E+02      3.688812000000000E-01     -6.390625000000000E+01      3.574829000000000E-01     -1.734609000000000E+02      6.500549000000000E-01     -9.158203000000000E+01
4820000000.000000      3.476105000000000E-01     -1.341328000000000E+02      3.732300000000000E-01     -6.403125000000000E+01      3.629303000000000E-01     -1.733594000000000E+02      6.513062000000000E-01     -9.160547000000000E+01
4821000000.000000      3.519897000000000E-01     -1.351953000000000E+02      3.775482000000000E-01     -6.459765000000000E+01      3.663483000000000E-01     -1.735156000000000E+02      6.508179000000000E-01     -9.169140000000000E+01
4822000000.000000      3.554993000000000E-01     -1.363594000000000E+02      3.799286000000000E-01     -6.458202000000000E+01      3.697052000000000E-01     -1.735625000000000E+02      6.516418000000000E-01     -9.166796000000000E+01
4823000000.000000      3.578186000000000E-01     -1.372656000000000E+02      3.848572000000000E-01     -6.497265000000000E+01      3.737946000000000E-01     -1.732734000000000E+02      6.518860000000000E-01     -9.189062000000000E+01
4824000000.000000      3.623810000000000E-01     -1.383984000000000E+02      3.888702000000000E-01     -6.530859000000000E+01      3.788452000000000E-01     -1.734766000000000E+02      6.547546000000000E-01     -9.186718000000000E+01
4825000000.000000      3.653717000000000E-01     -1.393437000000000E+02      3.912506000000000E-01     -6.548828000000000E+01      3.825836000000000E-01     -1.733359000000000E+02      6.556091000000000E-01     -9.196875000000000E+01
4826000000.000000      3.697815000000000E-01     -1.404687000000000E+02      3.950043000000000E-01     -6.581640000000000E+01      3.859253000000000E-01     -1.734453000000000E+02      6.560059000000000E-01     -9.206640000000000E+01
4827000000.000000      3.737335000000000E-01     -1.412656000000000E+02      3.993073000000000E-01     -6.592578000000000E+01      3.901978000000000E-01     -1.733281000000000E+02      6.576233000000000E-01     -9.199999000000000E+01
4828000000.000000      3.790741000000000E-01     -1.422734000000000E+02      4.035187000000000E-01     -6.628124000000000E+01      3.940735000000000E-01     -1.733125000000000E+02      6.592102000000000E-01     -9.222656000000000E+01
4829000000.000000      3.809357000000000E-01     -1.431953000000000E+02      4.064178000000000E-01     -6.651953000000000E+01      3.976746000000000E-01     -1.733438000000000E+02      6.595154000000000E-01     -9.216797000000000E+01
4830000000.000000      3.863831000000000E-01     -1.440938000000000E+02      4.100037000000000E-01     -6.682422000000000E+01      4.020691000000000E-01     -1.733438000000000E+02      6.616516000000000E-01     -9.231249000000000E+01
4831000000.000000      3.902435000000000E-01     -1.450156000000000E+02      4.137878000000000E-01     -6.716797000000000E+01      4.065094000000000E-01     -1.733594000000000E+02      6.635132000000000E-01     -9.233202000000000E+01
4832000000.000000      3.960419000000000E-01     -1.459766000000000E+02      4.173889000000000E-01     -6.736328000000000E+01      4.098511000000000E-01     -1.734844000000000E+02      6.650696000000000E-01     -9.237499000000000E+01
4833000000.000000      4.008484000000000E-01     -1.469609000000000E+02      4.209290000000000E-01     -6.776172000000000E+01      4.143982000000000E-01     -1.735078000000000E+02      6.666260000000000E-01     -9.247656000000000E+01
4834000000.000000      4.052887000000000E-01     -1.477734000000000E+02      4.231262000000000E-01     -6.801562000000000E+01      4.183502000000000E-01     -1.735156000000000E+02      6.680908000000000E-01     -9.253124000000000E+01
4835000000.000000      4.095917000000000E-01     -1.485781000000000E+02      4.268951000000000E-01     -6.837109000000000E+01      4.222870000000000E-01     -1.735391000000000E+02      6.705017000000000E-01     -9.261328000000000E+01
4836000000.000000      4.159241000000000E-01     -1.493515000000000E+02      4.298859000000000E-01     -6.864843000000000E+01      4.257813000000000E-01     -1.735625000000000E+02      6.708679000000000E-01     -9.260157000000000E+01
4837000000.000000      4.207916000000000E-01     -1.501250000000000E+02      4.334564000000000E-01     -6.925390000000000E+01      4.303741000000000E-01     -1.737266000000000E+02      6.739502000000000E-01     -9.253515000000000E+01
4838000000.000000      4.260101000000000E-01     -1.510703000000000E+02      4.376984000000000E-01     -6.941406000000000E+01      4.346619000000000E-01     -1.737578000000000E+02      6.752930000000000E-01     -9.261328000000000E+01
4839000000.000000      4.313965000000000E-01     -1.517266000000000E+02      4.391479000000000E-01     -6.950781000000000E+01      4.388123000000000E-01     -1.737656000000000E+02      6.788330000000000E-01     -9.259766000000000E+01
4840000000.000000      4.358215000000000E-01     -1.526094000000000E+02      4.415741000000000E-01     -6.983593000000000E+01      4.438019000000000E-01     -1.738125000000000E+02      6.805420000000000E-01     -9.282812000000000E+01
4841000000.000000      4.411926000000000E-01     -1.534453000000000E+02      4.454651000000000E-01     -7.029687000000000E+01      4.469299000000000E-01     -1.740078000000000E+02      6.826782000000000E-01     -9.289843000000000E+01
4842000000.000000      4.471588000000000E-01     -1.539844000000000E+02      4.487000000000000E-01     -7.064843000000000E+01      4.501038000000000E-01     -1.740156000000000E+02      6.845093000000000E-01     -9.291016000000000E+01
4843000000.000000      4.513702000000000E-01     -1.548047000000000E+02      4.508209000000000E-01     -7.099218000000000E+01      4.543610000000000E-01     -1.740703000000000E+02      6.875000000000000E-01     -9.304688000000000E+01
4844000000.000000      4.563904000000000E-01     -1.554766000000000E+02      4.541626000000000E-01     -7.122265000000000E+01      4.586945000000000E-01     -1.741406000000000E+02      6.902466000000000E-01     -9.303125000000000E+01
4845000000.000000      4.618073000000000E-01     -1.560937000000000E+02      4.555969000000000E-01     -7.164063000000000E+01      4.625092000000000E-01     -1.742734000000000E+02      6.925049000000000E-01     -9.303125000000000E+01
4846000000.000000      4.666290000000000E-01     -1.567266000000000E+02      4.594269000000000E-01     -7.179296000000000E+01      4.678802000000000E-01     -1.743828000000000E+02      6.952820000000000E-01     -9.305859000000000E+01
4847000000.000000      4.726563000000000E-01     -1.574687000000000E+02      4.621277000000000E-01     -7.214844000000000E+01      4.718018000000000E-01     -1.746094000000000E+02      6.993408000000000E-01     -9.317186000000000E+01
4848000000.000000      4.773560000000000E-01     -1.580937000000000E+02      4.647827000000000E-01     -7.242188000000000E+01      4.749603000000000E-01     -1.745703000000000E+02      7.004089000000000E-01     -9.319921000000000E+01
4849000000.000000      4.825287000000000E-01     -1.589453000000000E+02      4.670105000000000E-01     -7.298437000000000E+01      4.798126000000000E-01     -1.748047000000000E+02      7.038574000000000E-01     -9.315624000000000E+01
4850000000.000000      4.871368000000000E-01     -1.593125000000000E+02      4.693298000000000E-01     -7.320313000000000E+01      4.834747000000000E-01     -1.748125000000000E+02      7.058105000000000E-01     -9.328125000000000E+01
4851000000.000000      4.924774000000000E-01     -1.599297000000000E+02      4.720459000000000E-01     -7.349999000000000E+01      4.869995000000000E-01     -1.749844000000000E+02      7.102966000000000E-01     -9.330078000000000E+01
4852000000.000000      4.973907000000000E-01     -1.605391000000000E+02      4.739838000000000E-01     -7.373437000000000E+01      4.914093000000000E-01     -1.750781000000000E+02      7.111206000000000E-01     -9.343359000000000E+01
4853000000.000000      5.016785000000000E-01     -1.611094000000000E+02      4.747314000000000E-01     -7.407421000000000E+01      4.957886000000000E-01     -1.753203000000000E+02      7.149048000000000E-01     -9.346094000000000E+01
4854000000.000000      5.064697000000000E-01     -1.616719000000000E+02      4.780426000000000E-01     -7.460546000000000E+01      4.976807000000000E-01     -1.753828000000000E+02      7.182007000000000E-01     -9.341797000000000E+01
4855000000.000000      5.094604000000000E-01     -1.622109000000000E+02      4.792938000000000E-01     -7.472656000000000E+01      5.024109000000000E-01     -1.753750000000000E+02      7.205200000000000E-01     -9.347265000000000E+01
4856000000.000000      5.147705000000000E-01     -1.627109000000000E+02      4.827271000000000E-01     -7.509375000000000E+01      5.061646000000000E-01     -1.755703000000000E+02      7.239990000000000E-01     -9.350780000000000E+01
4857000000.000000      5.183411000000000E-01     -1.632344000000000E+02      4.846039000000000E-01     -7.538280000000000E+01      5.106506000000000E-01     -1.757031000000000E+02      7.275391000000000E-01     -9.357031000000000E+01
4858000000.000000      5.203247000000000E-01     -1.637422000000000E+02      4.860687000000000E-01     -7.572266000000000E+01      5.138550000000000E-01     -1.760859000000000E+02      7.283630000000000E-01     -9.356640000000000E+01
4859000000.000000      5.258179000000000E-01     -1.643203000000000E+02      4.880981000000000E-01     -7.607812000000000E+01      5.170288000000000E-01     -1.763047000000000E+02      7.322083000000000E-01     -9.375391000000000E+01
4860000000.000000      5.295105000000000E-01     -1.647500000000000E+02      4.912262000000000E-01     -7.635156000000000E+01      5.200500000000000E-01     -1.762812000000000E+02      7.353516000000000E-01     -9.360546000000000E+01
4861000000.000000      5.332336000000000E-01     -1.652031000000000E+02      4.916077000000000E-01     -7.670312000000000E+01      5.234985000000000E-01     -1.764844000000000E+02      7.386169000000000E-01     -9.374218000000000E+01
4862000000.000000      5.357056000000000E-01     -1.655625000000000E+02      4.952087000000000E-01     -7.699609000000000E+01      5.279541000000000E-01     -1.766719000000000E+02      7.423706000000000E-01     -9.382421000000000E+01
4863000000.000000      5.382080000000000E-01     -1.660156000000000E+02      4.945221000000000E-01     -7.757421000000000E+01      5.324097000000000E-01     -1.768750000000000E+02      7.432556000000000E-01     -9.376171000000000E+01
4864000000.000000      5.413208000000000E-01     -1.664453000000000E+02      4.976654000000000E-01     -7.743359000000000E+01      5.341187000000000E-01     -1.769922000000000E+02      7.467346000000000E-01     -9.384766000000000E+01
4865000000.000000      5.436096000000000E-01     -1.669219000000000E+02      4.978333000000000E-01     -7.771874000000000E+01      5.380249000000000E-01     -1.771250000000000E+02      7.506409000000000E-01     -9.380468000000000E+01
4866000000.000000      5.453796000000000E-01     -1.671562000000000E+02      4.988708000000000E-01     -7.813671000000000E+01      5.408630000000000E-01     -1.775703000000000E+02      7.518005000000000E-01     -9.389452000000000E+01
4867000000.000000      5.480652000000000E-01     -1.675625000000000E+02      5.003662000000000E-01     -7.848827000000000E+01      5.435791000000000E-01     -1.776406000000000E+02      7.564697000000000E-01     -9.394140000000000E+01
4868000000.000000      5.508423000000000E-01     -1.680391000000000E+02      5.023499000000000E-01     -7.881640000000000E+01      5.477295000000000E-01     -1.778047000000000E+02      7.590637000000000E-01     -9.403906000000000E+01
4869000000.000000      5.516052000000000E-01     -1.682188000000000E+02      5.025024000000000E-01     -7.894531000000000E+01      5.493469000000000E-01     -1.781641000000000E+02      7.621765000000000E-01     -9.421875000000000E+01
4870000000.000000      5.537415000000000E-01     -1.685313000000000E+02      5.047913000000000E-01     -7.906250000000000E+01      5.525818000000000E-01     -1.783359000000000E+02      7.640686000000000E-01     -9.396484000000000E+01
4871000000.000000      5.553284000000000E-01     -1.689062000000000E+02      5.056458000000000E-01     -7.951953000000000E+01      5.546570000000000E-01     -1.785625000000000E+02      7.650452000000000E-01     -9.415625000000000E+01
4872000000.000000      5.580750000000000E-01     -1.691719000000000E+02      5.059204000000000E-01     -7.962109000000000E+01      5.576172000000000E-01     -1.788047000000000E+02      7.682190000000000E-01     -9.421875000000000E+01
4873000000.000000      5.581970000000000E-01     -1.693906000000000E+02      5.074768000000000E-01     -8.003124000000000E+01      5.591125000000000E-01     -1.789375000000000E+02      7.712097000000000E-01     -9.428905000000000E+01
4874000000.000000      5.596619000000000E-01     -1.696484000000000E+02      5.081482000000000E-01     -8.033203000000000E+01      5.627747000000000E-01     -1.791484000000000E+02      7.735291000000000E-01     -9.413671000000000E+01
4875000000.000000      5.613098000000000E-01     -1.699219000000000E+02      5.096130000000000E-01     -8.036718000000000E+01      5.653381000000000E-01     -1.794609000000000E+02      7.768860000000000E-01     -9.432421000000000E+01
4876000000.000000      5.611572000000000E-01     -1.702109000000000E+02      5.093079000000000E-01     -8.062500000000000E+01      5.660706000000000E-01     -1.795312000000000E+02      7.782593000000000E-01     -9.421875000000000E+01
4877000000.000000      5.617676000000000E-01     -1.703359000000000E+02      5.105896000000000E-01     -8.091406000000000E+01      5.700684000000000E-01     -1.798203000000000E+02      7.810669000000000E-01     -9.451172000000000E+01
4878000000.000000      5.631714000000000E-01     -1.706250000000000E+02      5.132446000000000E-01     -8.112499000000000E+01      5.718384000000000E-01     -1.798906000000000E+02      7.841187000000000E-01     -9.449999000000000E+01
4879000000.000000      5.640259000000000E-01     -1.708594000000000E+02      5.131531000000000E-01     -8.128906000000000E+01      5.725403000000000E-01      1.798516000000000E+02      7.841797000000000E-01     -9.442577000000000E+01
4880000000.000000      5.624084000000000E-01     -1.709453000000000E+02      5.135498000000000E-01     -8.157812000000000E+01      5.764771000000000E-01      1.796562000000000E+02      7.883301000000000E-01     -9.458593000000000E+01
4881000000.000000      5.642395000000000E-01     -1.710078000000000E+02      5.158997000000000E-01     -8.139063000000000E+01      5.780029000000000E-01      1.793672000000000E+02      7.893677000000000E-01     -9.454296000000000E+01
4882000000.000000      5.627747000000000E-01     -1.712265000000000E+02      5.177307000000000E-01     -8.185547000000000E+01      5.796204000000000E-01      1.791797000000000E+02      7.889404000000000E-01     -9.463282000000000E+01
