! Network Analyzer HP8722D
! Hewlett-Packard
! Data name: Linha & Wilkinson
! Saver's name: Rodrigo Anjos
! Comments: Teste da utilização de aquisição
continua pelo VNA HP8722D
! Time and date: 17/4/2025 17:59
!              Frequency                     S11                                                   S21                                                   S12                                                   S22
# HZ  S  MA R 50
4800000000.000000      3.336334000000000E-01     -1.135117000000000E+02      2.920227000000000E-01     -6.076172000000000E+01      2.857056000000000E-01     -1.750469000000000E+02      6.572266000000000E-01     -9.004297000000000E+01
4801000000.000000      3.319397000000000E-01     -1.144609000000000E+02      2.965240000000000E-01     -6.085742000000000E+01      2.890472000000000E-01     -1.749141000000000E+02      6.574707000000000E-01     -8.998827000000000E+01
4802000000.000000      3.310852000000000E-01     -1.154453000000000E+02      3.006744000000000E-01     -6.092382000000000E+01      2.935028000000000E-01     -1.746641000000000E+02      6.545105000000000E-01     -9.013281000000000E+01
4803000000.000000      3.308258000000000E-01     -1.164531000000000E+02      3.061981000000000E-01     -6.088672000000000E+01      2.973175000000000E-01     -1.746484000000000E+02      6.548157000000000E-01     -9.028906000000000E+01
4804000000.000000      3.298340000000000E-01     -1.175430000000000E+02      3.095856000000000E-01     -6.106250000000000E+01      3.019562000000000E-01     -1.745625000000000E+02      6.534119000000000E-01     -9.022655000000000E+01
4805000000.000000      3.306885000000000E-01     -1.184922000000000E+02      3.149109000000000E-01     -6.128515000000000E+01      3.056335000000000E-01     -1.743438000000000E+02      6.535645000000000E-01     -9.043360000000000E+01
4806000000.000000      3.298492000000000E-01     -1.194453000000000E+02      3.195648000000000E-01     -6.140234000000000E+01      3.090820000000000E-01     -1.742578000000000E+02      6.527100000000000E-01     -9.060938000000000E+01
4807000000.000000      3.296661000000000E-01     -1.205742000000000E+02      3.240814000000000E-01     -6.162304000000000E+01      3.137360000000000E-01     -1.743906000000000E+02      6.519775000000000E-01     -9.066406000000000E+01
4808000000.000000      3.305511000000000E-01     -1.215898000000000E+02      3.285065000000000E-01     -6.167382000000000E+01      3.178558000000000E-01     -1.742422000000000E+02      6.505127000000000E-01     -9.068359000000000E+01
4809000000.000000      3.305206000000000E-01     -1.226641000000000E+02      3.318787000000000E-01     -6.199804000000000E+01      3.224792000000000E-01     -1.742031000000000E+02      6.509094000000000E-01     -9.082422000000000E+01
4810000000.000000      3.313446000000000E-01     -1.237930000000000E+02      3.371429000000000E-01     -6.210351000000000E+01      3.257141000000000E-01     -1.740703000000000E+02      6.514893000000000E-01     -9.101954000000000E+01
4811000000.000000      3.324585000000000E-01     -1.249258000000000E+02      3.419952000000000E-01     -6.233593000000000E+01      3.303680000000000E-01     -1.740234000000000E+02      6.494751000000000E-01     -9.087891000000000E+01
4812000000.000000      3.337097000000000E-01     -1.258984000000000E+02      3.450775000000000E-01     -6.259375000000000E+01      3.345032000000000E-01     -1.739063000000000E+02      6.499634000000000E-01     -9.108202000000000E+01
4813000000.000000      3.342896000000000E-01     -1.270117000000000E+02      3.498840000000000E-01     -6.262500000000000E+01      3.380737000000000E-01     -1.738828000000000E+02      6.502686000000000E-01     -9.117579000000000E+01
4814000000.000000      3.356628000000000E-01     -1.283047000000000E+02      3.542480000000000E-01     -6.302343000000000E+01      3.420563000000000E-01     -1.739219000000000E+02      6.504822000000000E-01     -9.130468000000000E+01
4815000000.000000      3.380585000000000E-01     -1.291797000000000E+02      3.574219000000000E-01     -6.315039000000000E+01      3.458252000000000E-01     -1.736953000000000E+02      6.498718000000000E-01     -9.120312000000000E+01
4816000000.000000      3.399963000000000E-01     -1.302656000000000E+02      3.618927000000000E-01     -6.329687000000000E+01      3.507843000000000E-01     -1.737031000000000E+02      6.502991000000000E-01     -9.137499000000000E+01
4817000000.000000      3.426514000000000E-01     -1.313203000000000E+02      3.661804000000000E-01     -6.366796000000000E+01      3.535156000000000E-01     -1.737578000000000E+02      6.495972000000000E-01     -9.147264000000000E+01
4818000000.000000      3.444366000000000E-01     -1.325391000000000E+02      3.690643000000000E-01     -6.381445000000000E+01      3.585510000000000E-01     -1.737109000000000E+02      6.510620000000000E-01     -9.152735000000000E+01
4819000000.000000      3.473511000000000E-01     -1.335703000000000E+02      3.732910000000000E-01     -6.409374000000000E+01      3.616791000000000E-01     -1.736953000000000E+02      6.531982000000000E-01     -9.165234000000000E+01
4820000000.000000      3.485107000000000E-01     -1.346172000000000E+02      3.771057000000000E-01     -6.426562000000000E+01      3.664703000000000E-01     -1.737187000000000E+02      6.527100000000000E-01     -9.170313000000000E+01
4821000000.000000      3.525391000000000E-01     -1.357500000000000E+02      3.812408000000000E-01     -6.453906000000000E+01      3.699036000000000E-01     -1.736562000000000E+02      6.519775000000000E-01     -9.178125000000000E+01
4822000000.000000      3.568420000000000E-01     -1.368750000000000E+02      3.851166000000000E-01     -6.486328000000000E+01      3.737030000000000E-01     -1.738047000000000E+02      6.548767000000000E-01     -9.191797000000000E+01
4823000000.000000      3.589325000000000E-01     -1.377187000000000E+02      3.892212000000000E-01     -6.516796000000000E+01      3.769379000000000E-01     -1.735000000000000E+02      6.549072000000000E-01     -9.191015000000000E+01
4824000000.000000      3.633270000000000E-01     -1.389844000000000E+02      3.925934000000000E-01     -6.549609000000000E+01      3.825836000000000E-01     -1.736953000000000E+02      6.559143000000000E-01     -9.192968000000000E+01
4825000000.000000      3.662720000000000E-01     -1.398125000000000E+02      3.959198000000000E-01     -6.561328000000000E+01      3.868256000000000E-01     -1.736719000000000E+02      6.567688000000000E-01     -9.200781000000000E+01
4826000000.000000      3.709564000000000E-01     -1.409922000000000E+02      4.002686000000000E-01     -6.605859000000000E+01      3.897858000000000E-01     -1.736484000000000E+02      6.588440000000000E-01     -9.210546000000000E+01
4827000000.000000      3.746948000000000E-01     -1.417969000000000E+02      4.035797000000000E-01     -6.612109000000000E+01      3.933716000000000E-01     -1.735547000000000E+02      6.597595000000000E-01     -9.218750000000000E+01
4828000000.000000      3.793030000000000E-01     -1.428359000000000E+02      4.082031000000000E-01     -6.644140000000000E+01      3.978729000000000E-01     -1.735156000000000E+02      6.611023000000000E-01     -9.220703000000000E+01
4829000000.000000      3.820343000000000E-01     -1.437109000000000E+02      4.107056000000000E-01     -6.676171000000000E+01      4.018097000000000E-01     -1.737109000000000E+02      6.619873000000000E-01     -9.230078000000000E+01
4830000000.000000      3.880310000000000E-01     -1.447969000000000E+02      4.138641000000000E-01     -6.708593000000000E+01      4.062500000000000E-01     -1.735078000000000E+02      6.638794000000000E-01     -9.242579000000000E+01
4831000000.000000      3.915100000000000E-01     -1.456094000000000E+02      4.177704000000000E-01     -6.734375000000000E+01      4.102173000000000E-01     -1.735703000000000E+02      6.658936000000000E-01     -9.248047000000000E+01
4832000000.000000      3.969116000000000E-01     -1.465469000000000E+02      4.210663000000000E-01     -6.773828000000000E+01      4.141541000000000E-01     -1.737813000000000E+02      6.672668000000000E-01     -9.251953000000000E+01
4833000000.000000      4.024353000000000E-01     -1.474531000000000E+02      4.247742000000000E-01     -6.794922000000000E+01      4.182281000000000E-01     -1.737578000000000E+02      6.690063000000000E-01     -9.260937000000000E+01
4834000000.000000      4.065247000000000E-01     -1.483828000000000E+02      4.269562000000000E-01     -6.827343000000000E+01      4.217834000000000E-01     -1.737266000000000E+02      6.695251000000000E-01     -9.258204000000000E+01
4835000000.000000      4.114380000000000E-01     -1.491406000000000E+02      4.311218000000000E-01     -6.859765000000000E+01      4.265442000000000E-01     -1.738125000000000E+02      6.725769000000000E-01     -9.265625000000000E+01
4836000000.000000      4.171600000000000E-01     -1.498984000000000E+02      4.342346000000000E-01     -6.892968000000000E+01      4.295959000000000E-01     -1.738437000000000E+02      6.747131000000000E-01     -9.270311000000000E+01
4837000000.000000      4.223633000000000E-01     -1.506875000000000E+02      4.376984000000000E-01     -6.958984000000000E+01      4.335327000000000E-01     -1.740234000000000E+02      6.757813000000000E-01     -9.280859000000000E+01
4838000000.000000      4.275818000000000E-01     -1.516875000000000E+02      4.416351000000000E-01     -6.954296000000000E+01      4.386139000000000E-01     -1.739219000000000E+02      6.786194000000000E-01     -9.286718000000000E+01
4839000000.000000      4.328461000000000E-01     -1.523047000000000E+02      4.428558000000000E-01     -6.973827000000000E+01      4.428558000000000E-01     -1.740000000000000E+02      6.812134000000000E-01     -9.283594000000000E+01
4840000000.000000      4.374084000000000E-01     -1.531563000000000E+02      4.468079000000000E-01     -7.022655000000000E+01      4.470367000000000E-01     -1.742344000000000E+02      6.816406000000000E-01     -9.292187000000000E+01
4841000000.000000      4.426727000000000E-01     -1.540156000000000E+02      4.495087000000000E-01     -7.061718000000000E+01      4.508362000000000E-01     -1.742188000000000E+02      6.850586000000000E-01     -9.304688000000000E+01
4842000000.000000      4.487152000000000E-01     -1.545859000000000E+02      4.517975000000000E-01     -7.089453000000000E+01      4.539795000000000E-01     -1.743984000000000E+02      6.870117000000000E-01     -9.314453000000000E+01
4843000000.000000      4.532471000000000E-01     -1.554297000000000E+02      4.550934000000000E-01     -7.124609000000000E+01      4.580688000000000E-01     -1.742734000000000E+02      6.902771000000000E-01     -9.312891000000000E+01
4844000000.000000      4.584045000000000E-01     -1.560937000000000E+02      4.571533000000000E-01     -7.160156000000000E+01      4.617462000000000E-01     -1.744609000000000E+02      6.929932000000000E-01     -9.308203000000000E+01
4845000000.000000      4.635773000000000E-01     -1.567188000000000E+02      4.598846000000000E-01     -7.178905000000000E+01      4.666901000000000E-01     -1.745391000000000E+02      6.945190000000000E-01     -9.318359000000000E+01
4846000000.000000      4.683075000000000E-01     -1.573437000000000E+02      4.629974000000000E-01     -7.203515000000000E+01      4.711914000000000E-01     -1.745625000000000E+02      6.970825000000000E-01     -9.314844000000000E+01
4847000000.000000      4.743347000000000E-01     -1.580625000000000E+02      4.657288000000000E-01     -7.236718000000000E+01      4.755402000000000E-01     -1.748594000000000E+02      7.002258000000000E-01     -9.339844000000000E+01
4848000000.000000      4.793854000000000E-01     -1.586250000000000E+02      4.676056000000000E-01     -7.266015000000000E+01      4.788513000000000E-01     -1.749375000000000E+02      7.033081000000000E-01     -9.335546000000000E+01
4849000000.000000      4.842377000000000E-01     -1.595469000000000E+02      4.708557000000000E-01     -7.317968000000000E+01      4.832611000000000E-01     -1.750078000000000E+02      7.046814000000000E-01     -9.323828000000000E+01
4850000000.000000      4.895782000000000E-01     -1.599297000000000E+02      4.733429000000000E-01     -7.329296000000000E+01      4.866943000000000E-01     -1.750625000000000E+02      7.093506000000000E-01     -9.332031000000000E+01
4851000000.000000      4.938507000000000E-01     -1.605000000000000E+02      4.763641000000000E-01     -7.381640000000000E+01      4.904175000000000E-01     -1.752109000000000E+02      7.119751000000000E-01     -9.337500000000000E+01
4852000000.000000      4.984894000000000E-01     -1.611328000000000E+02      4.774933000000000E-01     -7.404297000000000E+01      4.949493000000000E-01     -1.753281000000000E+02      7.146606000000000E-01     -9.350780000000000E+01
4853000000.000000      5.037842000000000E-01     -1.616953000000000E+02      4.790192000000000E-01     -7.436328000000000E+01      4.988403000000000E-01     -1.756016000000000E+02      7.179565000000000E-01     -9.369921000000000E+01
4854000000.000000      5.075989000000000E-01     -1.622578000000000E+02      4.820557000000000E-01     -7.474218000000000E+01      5.031738000000000E-01     -1.755938000000000E+02      7.212219000000000E-01     -9.364452000000000E+01
4855000000.000000      5.111084000000000E-01     -1.628515000000000E+02      4.836884000000000E-01     -7.501953000000000E+01      5.057983000000000E-01     -1.757578000000000E+02      7.211609000000000E-01     -9.357813000000000E+01
4856000000.000000      5.162354000000000E-01     -1.633281000000000E+02      4.857025000000000E-01     -7.523438000000000E+01      5.100403000000000E-01     -1.759219000000000E+02      7.256165000000000E-01     -9.366796000000000E+01
4857000000.000000      5.206299000000000E-01     -1.639219000000000E+02      4.885254000000000E-01     -7.573047000000000E+01      5.143127000000000E-01     -1.761562000000000E+02      7.286072000000000E-01     -9.367968000000000E+01
4858000000.000000      5.220947000000000E-01     -1.643594000000000E+02      4.899750000000000E-01     -7.592187000000000E+01      5.162354000000000E-01     -1.763203000000000E+02      7.320862000000000E-01     -9.370703000000000E+01
4859000000.000000      5.270386000000000E-01     -1.649688000000000E+02      4.920044000000000E-01     -7.621484000000000E+01      5.210266000000000E-01     -1.764453000000000E+02      7.349854000000000E-01     -9.394531000000000E+01
4860000000.000000      5.317688000000000E-01     -1.652969000000000E+02      4.936981000000000E-01     -7.655468000000000E+01      5.229492000000000E-01     -1.764688000000000E+02      7.377014000000000E-01     -9.391016000000000E+01
4861000000.000000      5.352173000000000E-01     -1.657266000000000E+02      4.944153000000000E-01     -7.698437000000000E+01      5.284424000000000E-01     -1.767734000000000E+02      7.387390000000000E-01     -9.386719000000000E+01
4862000000.000000      5.376892000000000E-01     -1.662344000000000E+02      4.965515000000000E-01     -7.723827000000000E+01      5.317993000000000E-01     -1.770078000000000E+02      7.441711000000000E-01     -9.397655000000000E+01
4863000000.000000      5.401001000000000E-01     -1.666563000000000E+02      4.976196000000000E-01     -7.757030000000000E+01      5.353699000000000E-01     -1.770469000000000E+02      7.474670000000000E-01     -9.401562000000000E+01
4864000000.000000      5.434875000000000E-01     -1.670547000000000E+02      4.996490000000000E-01     -7.772265000000000E+01      5.364990000000000E-01     -1.772578000000000E+02      7.482910000000000E-01     -9.408203000000000E+01
4865000000.000000      5.456848000000000E-01     -1.675000000000000E+02      5.007324000000000E-01     -7.808594000000000E+01      5.403137000000000E-01     -1.775703000000000E+02      7.520142000000000E-01     -9.388672000000000E+01
4866000000.000000      5.473022000000000E-01     -1.678047000000000E+02      5.008545000000000E-01     -7.829687000000000E+01      5.445557000000000E-01     -1.778047000000000E+02      7.568054000000000E-01     -9.400782000000000E+01
4867000000.000000      5.498962000000000E-01     -1.682422000000000E+02      5.034180000000000E-01     -7.862890000000000E+01      5.460815000000000E-01     -1.778516000000000E+02      7.586060000000000E-01     -9.409765000000000E+01
4868000000.000000      5.519409000000000E-01     -1.685859000000000E+02      5.051575000000000E-01     -7.896093000000000E+01      5.509033000000000E-01     -1.780234000000000E+02      7.606201000000000E-01     -9.423437000000000E+01
4869000000.000000      5.532227000000000E-01     -1.689687000000000E+02      5.058899000000000E-01     -7.918359000000000E+01      5.520020000000000E-01     -1.784297000000000E+02      7.636414000000000E-01     -9.427734000000000E+01
4870000000.000000      5.555420000000000E-01     -1.692578000000000E+02      5.076904000000000E-01     -7.933203000000000E+01      5.565796000000000E-01     -1.786094000000000E+02      7.661438000000000E-01     -9.416016000000000E+01
4871000000.000000      5.582886000000000E-01     -1.696172000000000E+02      5.079651000000000E-01     -7.986328000000000E+01      5.574341000000000E-01     -1.786875000000000E+02      7.671509000000000E-01     -9.419140000000000E+01
4872000000.000000      5.596619000000000E-01     -1.698359000000000E+02      5.096436000000000E-01     -7.968750000000000E+01      5.601196000000000E-01     -1.790625000000000E+02      7.719116000000000E-01     -9.435547000000000E+01
4873000000.000000      5.600586000000000E-01     -1.700000000000000E+02      5.094910000000000E-01     -8.023046000000000E+01      5.621338000000000E-01     -1.793594000000000E+02      7.710571000000000E-01     -9.440624000000000E+01
4874000000.000000      5.606384000000000E-01     -1.703359000000000E+02      5.097656000000000E-01     -8.039454000000000E+01      5.654602000000000E-01     -1.793437000000000E+02      7.741699000000000E-01     -9.432421000000000E+01
4875000000.000000      5.621033000000000E-01     -1.706250000000000E+02      5.125122000000000E-01     -8.059765000000000E+01      5.681152000000000E-01     -1.797578000000000E+02      7.775879000000000E-01     -9.447657000000000E+01
4876000000.000000      5.623169000000000E-01     -1.707734000000000E+02      5.135498000000000E-01     -8.090235000000000E+01      5.691833000000000E-01     -1.797969000000000E+02      7.812195000000000E-01     -9.440624000000000E+01
4877000000.000000      5.628967000000000E-01     -1.709766000000000E+02      5.144653000000000E-01     -8.107813000000000E+01      5.734558000000000E-01      1.797578000000000E+02      7.830811000000000E-01     -9.463671000000000E+01
4878000000.000000      5.633240000000000E-01     -1.711875000000000E+02      5.153503000000000E-01     -8.114061000000000E+01      5.751038000000000E-01      1.797578000000000E+02      7.856140000000000E-01     -9.455078000000000E+01
4879000000.000000      5.646362000000000E-01     -1.714297000000000E+02      5.158997000000000E-01     -8.141016000000000E+01      5.762939000000000E-01      1.795391000000000E+02      7.859802000000000E-01     -9.455858000000000E+01
4880000000.000000      5.636292000000000E-01     -1.715859000000000E+02      5.170288000000000E-01     -8.178125000000000E+01      5.802917000000000E-01      1.793594000000000E+02      7.901306000000000E-01     -9.466406000000000E+01
4881000000.000000      5.648193000000000E-01     -1.716797000000000E+02      5.184937000000000E-01     -8.185547000000000E+01      5.810547000000000E-01      1.790313000000000E+02      7.925110000000000E-01     -9.467188000000000E+01
4882000000.000000      5.627441000000000E-01     -1.717891000000000E+02      5.192261000000000E-01     -8.209375000000000E+01      5.827942000000000E-01      1.790625000000000E+02      7.943420000000000E-01     -9.480469000000000E+01
