! Network Analyzer HP8722D
! Hewlett-Packard
! Data name: Linha & Wilkinson
! Saver's name: Rodrigo Anjos
! Comments: Teste da utilização de aquisição
continua pelo VNA HP8722D
! Time and date: 17/4/2025 17:10
!              Frequency                     S11                                                   S21                                                   S12                                                   S22
# HZ  S  MA R 50
4800000000.000000      3.380280000000000E-01     -1.171953000000000E+02      3.163605000000000E-01     -6.244922000000000E+01      3.098907000000000E-01     -1.766406000000000E+02      6.581726000000000E-01     -9.138672000000000E+01
4801000000.000000      3.372498000000000E-01     -1.180430000000000E+02      3.206024000000000E-01     -6.251367000000000E+01      3.132477000000000E-01     -1.766016000000000E+02      6.565247000000000E-01     -9.146875000000000E+01
4802000000.000000      3.359833000000000E-01     -1.190977000000000E+02      3.243713000000000E-01     -6.257030000000000E+01      3.174744000000000E-01     -1.764688000000000E+02      6.549377000000000E-01     -9.146484000000000E+01
4803000000.000000      3.355865000000000E-01     -1.201914000000000E+02      3.292084000000000E-01     -6.277344000000000E+01      3.208466000000000E-01     -1.764453000000000E+02      6.539001000000000E-01     -9.166016000000000E+01
4804000000.000000      3.352966000000000E-01     -1.211680000000000E+02      3.333893000000000E-01     -6.302734000000000E+01      3.246613000000000E-01     -1.765078000000000E+02      6.531677000000000E-01     -9.158594000000000E+01
4805000000.000000      3.355103000000000E-01     -1.222031000000000E+02      3.372955000000000E-01     -6.315039000000000E+01      3.295898000000000E-01     -1.763984000000000E+02      6.542053000000000E-01     -9.186327000000000E+01
4806000000.000000      3.351746000000000E-01     -1.231680000000000E+02      3.418579000000000E-01     -6.342578000000000E+01      3.323975000000000E-01     -1.762969000000000E+02      6.522217000000000E-01     -9.199999000000000E+01
4807000000.000000      3.353119000000000E-01     -1.243203000000000E+02      3.453979000000000E-01     -6.356250000000000E+01      3.377533000000000E-01     -1.764844000000000E+02      6.518555000000000E-01     -9.209375000000000E+01
4808000000.000000      3.365021000000000E-01     -1.252773000000000E+02      3.495941000000000E-01     -6.364843000000000E+01      3.401489000000000E-01     -1.764297000000000E+02      6.508789000000000E-01     -9.202343000000000E+01
4809000000.000000      3.370667000000000E-01     -1.264687000000000E+02      3.545380000000000E-01     -6.414844000000000E+01      3.443604000000000E-01     -1.763359000000000E+02      6.505127000000000E-01     -9.227734000000000E+01
4810000000.000000      3.376617000000000E-01     -1.275703000000000E+02      3.583832000000000E-01     -6.439843000000000E+01      3.487396000000000E-01     -1.764453000000000E+02      6.515808000000000E-01     -9.239061000000000E+01
4811000000.000000      3.389587000000000E-01     -1.286094000000000E+02      3.628540000000000E-01     -6.458593000000000E+01      3.529053000000000E-01     -1.762812000000000E+02      6.500244000000000E-01     -9.241014000000000E+01
4812000000.000000      3.404846000000000E-01     -1.295781000000000E+02      3.664093000000000E-01     -6.483203000000000E+01      3.568726000000000E-01     -1.762344000000000E+02      6.509705000000000E-01     -9.245312000000000E+01
4813000000.000000      3.417206000000000E-01     -1.307266000000000E+02      3.706360000000000E-01     -6.508594000000000E+01      3.599091000000000E-01     -1.761719000000000E+02      6.495056000000000E-01     -9.251171000000000E+01
4814000000.000000      3.431244000000000E-01     -1.319141000000000E+02      3.746643000000000E-01     -6.537499000000000E+01      3.631592000000000E-01     -1.763438000000000E+02      6.509094000000000E-01     -9.267187000000000E+01
4815000000.000000      3.454132000000000E-01     -1.329453000000000E+02      3.772888000000000E-01     -6.548437000000000E+01      3.675690000000000E-01     -1.762109000000000E+02      6.504211000000000E-01     -9.264063000000000E+01
4816000000.000000      3.475952000000000E-01     -1.340547000000000E+02      3.821869000000000E-01     -6.571484000000000E+01      3.722382000000000E-01     -1.761641000000000E+02      6.504211000000000E-01     -9.277344000000000E+01
4817000000.000000      3.507385000000000E-01     -1.351484000000000E+02      3.864136000000000E-01     -6.612109000000000E+01      3.748932000000000E-01     -1.762656000000000E+02      6.503296000000000E-01     -9.281641000000000E+01
4818000000.000000      3.525391000000000E-01     -1.363437000000000E+02      3.892365000000000E-01     -6.640234000000000E+01      3.792572000000000E-01     -1.762266000000000E+02      6.516113000000000E-01     -9.301952000000000E+01
4819000000.000000      3.556213000000000E-01     -1.373594000000000E+02      3.924561000000000E-01     -6.651562000000000E+01      3.818970000000000E-01     -1.762187000000000E+02      6.522827000000000E-01     -9.317968000000000E+01
4820000000.000000      3.573608000000000E-01     -1.382813000000000E+02      3.961029000000000E-01     -6.682812000000000E+01      3.864441000000000E-01     -1.762187000000000E+02      6.525269000000000E-01     -9.313671000000000E+01
4821000000.000000      3.609467000000000E-01     -1.394609000000000E+02      3.997955000000000E-01     -6.711719000000000E+01      3.891907000000000E-01     -1.764766000000000E+02      6.525574000000000E-01     -9.332811000000000E+01
4822000000.000000      3.656921000000000E-01     -1.404922000000000E+02      4.029083000000000E-01     -6.730078000000000E+01      3.927460000000000E-01     -1.763203000000000E+02      6.544800000000000E-01     -9.329687000000000E+01
4823000000.000000      3.678436000000000E-01     -1.414922000000000E+02      4.064941000000000E-01     -6.775391000000000E+01      3.964539000000000E-01     -1.762344000000000E+02      6.552734000000000E-01     -9.341406000000000E+01
4824000000.000000      3.724976000000000E-01     -1.426172000000000E+02      4.109192000000000E-01     -6.805469000000000E+01      4.006348000000000E-01     -1.764375000000000E+02      6.566162000000000E-01     -9.350000000000000E+01
4825000000.000000      3.755798000000000E-01     -1.435703000000000E+02      4.139862000000000E-01     -6.825390000000000E+01      4.053802000000000E-01     -1.763438000000000E+02      6.571045000000000E-01     -9.348436000000000E+01
4826000000.000000      3.803253000000000E-01     -1.446094000000000E+02      4.173889000000000E-01     -6.867578000000000E+01      4.070129000000000E-01     -1.765078000000000E+02      6.591492000000000E-01     -9.358593000000000E+01
4827000000.000000      3.843536000000000E-01     -1.454453000000000E+02      4.202271000000000E-01     -6.882030000000000E+01      4.111023000000000E-01     -1.764219000000000E+02      6.600037000000000E-01     -9.366014000000000E+01
4828000000.000000      3.895264000000000E-01     -1.464922000000000E+02      4.248352000000000E-01     -6.924609000000000E+01      4.153748000000000E-01     -1.764141000000000E+02      6.617737000000000E-01     -9.377344000000000E+01
4829000000.000000      3.921661000000000E-01     -1.473281000000000E+02      4.263611000000000E-01     -6.943749000000000E+01      4.192505000000000E-01     -1.764844000000000E+02      6.627808000000000E-01     -9.380077000000000E+01
4830000000.000000      3.976593000000000E-01     -1.483047000000000E+02      4.303131000000000E-01     -6.992188000000000E+01      4.229126000000000E-01     -1.764531000000000E+02      6.647339000000000E-01     -9.396875000000000E+01
4831000000.000000      4.015045000000000E-01     -1.492188000000000E+02      4.331665000000000E-01     -7.015625000000000E+01      4.270477000000000E-01     -1.764844000000000E+02      6.660156000000000E-01     -9.400000000000000E+01
4832000000.000000      4.072571000000000E-01     -1.500781000000000E+02      4.371338000000000E-01     -7.036327000000000E+01      4.304657000000000E-01     -1.765859000000000E+02      6.680603000000000E-01     -9.399218000000000E+01
4833000000.000000      4.122162000000000E-01     -1.510781000000000E+02      4.395599000000000E-01     -7.066796000000000E+01      4.344025000000000E-01     -1.767031000000000E+02      6.685791000000000E-01     -9.408594000000000E+01
4834000000.000000      4.172516000000000E-01     -1.519063000000000E+02      4.422302000000000E-01     -7.107031000000000E+01      4.380341000000000E-01     -1.766953000000000E+02      6.709595000000000E-01     -9.412500000000000E+01
4835000000.000000      4.214020000000000E-01     -1.526641000000000E+02      4.450531000000000E-01     -7.146484000000000E+01      4.422913000000000E-01     -1.767578000000000E+02      6.734009000000000E-01     -9.433594000000000E+01
4836000000.000000      4.273071000000000E-01     -1.534531000000000E+02      4.477692000000000E-01     -7.170312000000000E+01      4.456787000000000E-01     -1.767031000000000E+02      6.742554000000000E-01     -9.428514000000000E+01
4837000000.000000      4.319153000000000E-01     -1.542578000000000E+02      4.503937000000000E-01     -7.221484000000000E+01      4.490814000000000E-01     -1.768828000000000E+02      6.763611000000000E-01     -9.438671000000000E+01
4838000000.000000      4.375000000000000E-01     -1.551250000000000E+02      4.540558000000000E-01     -7.231640000000000E+01      4.534760000000000E-01     -1.769531000000000E+02      6.787109000000000E-01     -9.434765000000000E+01
4839000000.000000      4.426575000000000E-01     -1.557422000000000E+02      4.561310000000000E-01     -7.259375000000000E+01      4.574585000000000E-01     -1.769531000000000E+02      6.809387000000000E-01     -9.435938000000000E+01
4840000000.000000      4.469604000000000E-01     -1.566094000000000E+02      4.590912000000000E-01     -7.308594000000000E+01      4.608917000000000E-01     -1.771406000000000E+02      6.820984000000000E-01     -9.439453000000000E+01
4841000000.000000      4.524841000000000E-01     -1.574297000000000E+02      4.627686000000000E-01     -7.343750000000000E+01      4.649353000000000E-01     -1.771953000000000E+02      6.850891000000000E-01     -9.456640000000000E+01
4842000000.000000      4.577789000000000E-01     -1.580859000000000E+02      4.643402000000000E-01     -7.372656000000000E+01      4.671783000000000E-01     -1.772734000000000E+02      6.881104000000000E-01     -9.458202000000000E+01
4843000000.000000      4.618378000000000E-01     -1.588672000000000E+02      4.668274000000000E-01     -7.403906000000000E+01      4.715118000000000E-01     -1.773281000000000E+02      6.907959000000000E-01     -9.468750000000000E+01
4844000000.000000      4.670410000000000E-01     -1.595156000000000E+02      4.687195000000000E-01     -7.428515000000000E+01      4.751129000000000E-01     -1.775000000000000E+02      6.931763000000000E-01     -9.469530000000000E+01
4845000000.000000      4.717865000000000E-01     -1.601484000000000E+02      4.718781000000000E-01     -7.462109000000000E+01      4.792023000000000E-01     -1.775781000000000E+02      6.949158000000000E-01     -9.471874000000000E+01
4846000000.000000      4.768372000000000E-01     -1.607578000000000E+02      4.745636000000000E-01     -7.505859000000000E+01      4.834137000000000E-01     -1.776719000000000E+02      6.981201000000000E-01     -9.464844000000000E+01
4847000000.000000      4.825439000000000E-01     -1.614219000000000E+02      4.760132000000000E-01     -7.542578000000000E+01      4.867859000000000E-01     -1.778594000000000E+02      7.020569000000000E-01     -9.491796000000000E+01
4848000000.000000      4.873505000000000E-01     -1.620625000000000E+02      4.776917000000000E-01     -7.559375000000000E+01      4.905396000000000E-01     -1.778906000000000E+02      7.023315000000000E-01     -9.490625000000000E+01
4849000000.000000      4.917145000000000E-01     -1.629375000000000E+02      4.802856000000000E-01     -7.608203000000000E+01      4.942474000000000E-01     -1.781094000000000E+02      7.061768000000000E-01     -9.507030000000000E+01
4850000000.000000      4.958954000000000E-01     -1.632422000000000E+02      4.820099000000000E-01     -7.628124000000000E+01      4.986267000000000E-01     -1.781797000000000E+02      7.082214000000000E-01     -9.491405000000000E+01
4851000000.000000      5.006409000000000E-01     -1.638906000000000E+02      4.849854000000000E-01     -7.677343000000000E+01      5.016174000000000E-01     -1.782812000000000E+02      7.117310000000000E-01     -9.496874000000000E+01
4852000000.000000      5.052795000000000E-01     -1.644375000000000E+02      4.864502000000000E-01     -7.698828000000000E+01      5.055847000000000E-01     -1.784844000000000E+02      7.151184000000000E-01     -9.507030000000000E+01
4853000000.000000      5.097656000000000E-01     -1.650781000000000E+02      4.870453000000000E-01     -7.729687000000000E+01      5.079956000000000E-01     -1.786250000000000E+02      7.165222000000000E-01     -9.530468000000000E+01
4854000000.000000      5.137939000000000E-01     -1.655781000000000E+02      4.900970000000000E-01     -7.771874000000000E+01      5.123901000000000E-01     -1.786719000000000E+02      7.205811000000000E-01     -9.511328000000000E+01
4855000000.000000      5.158997000000000E-01     -1.661328000000000E+02      4.911194000000000E-01     -7.791016000000000E+01      5.145569000000000E-01     -1.787734000000000E+02      7.221985000000000E-01     -9.513672000000000E+01
4856000000.000000      5.208740000000000E-01     -1.665703000000000E+02      4.930115000000000E-01     -7.822266000000000E+01      5.193787000000000E-01     -1.791094000000000E+02      7.257690000000000E-01     -9.536718000000000E+01
4857000000.000000      5.250244000000000E-01     -1.671797000000000E+02      4.955444000000000E-01     -7.869531000000000E+01      5.220947000000000E-01     -1.790078000000000E+02      7.277222000000000E-01     -9.520702000000000E+01
4858000000.000000      5.257263000000000E-01     -1.676875000000000E+02      4.966888000000000E-01     -7.878906000000000E+01      5.252380000000000E-01     -1.792734000000000E+02      7.305908000000000E-01     -9.543749000000000E+01
4859000000.000000      5.304565000000000E-01     -1.681719000000000E+02      4.986572000000000E-01     -7.935547000000000E+01      5.272522000000000E-01     -1.796797000000000E+02      7.340698000000000E-01     -9.555859000000000E+01
4860000000.000000      5.345764000000000E-01     -1.686016000000000E+02      4.989166000000000E-01     -7.944921000000000E+01      5.308838000000000E-01     -1.795547000000000E+02      7.368774000000000E-01     -9.560938000000000E+01
4861000000.000000      5.368347000000000E-01     -1.689375000000000E+02      5.003357000000000E-01     -7.982812000000000E+01      5.350647000000000E-01     -1.799062000000000E+02      7.386780000000000E-01     -9.551952000000000E+01
4862000000.000000      5.391541000000000E-01     -1.694141000000000E+02      5.029602000000000E-01     -8.005859000000000E+01      5.378723000000000E-01     -1.799766000000000E+02      7.428589000000000E-01     -9.553905000000000E+01
4863000000.000000      5.411987000000000E-01     -1.698203000000000E+02      5.015564000000000E-01     -8.052343000000000E+01      5.414734000000000E-01      1.798203000000000E+02      7.446899000000000E-01     -9.565233000000000E+01
4864000000.000000      5.435791000000000E-01     -1.701250000000000E+02      5.037537000000000E-01     -8.047655000000000E+01      5.436096000000000E-01      1.796484000000000E+02      7.482300000000000E-01     -9.557812000000000E+01
4865000000.000000      5.461121000000000E-01     -1.706640000000000E+02      5.051575000000000E-01     -8.087891000000000E+01      5.462646000000000E-01      1.795391000000000E+02      7.507935000000000E-01     -9.564844000000000E+01
4866000000.000000      5.474854000000000E-01     -1.709375000000000E+02      5.055542000000000E-01     -8.122265000000000E+01      5.491028000000000E-01      1.792969000000000E+02      7.545471000000000E-01     -9.556250000000000E+01
4867000000.000000      5.491943000000000E-01     -1.712812000000000E+02      5.071411000000000E-01     -8.134766000000000E+01      5.511780000000000E-01      1.790313000000000E+02      7.566528000000000E-01     -9.569139000000000E+01
4868000000.000000      5.514832000000000E-01     -1.717266000000000E+02      5.075989000000000E-01     -8.179296000000000E+01      5.542603000000000E-01      1.789609000000000E+02      7.591248000000000E-01     -9.578516000000000E+01
4869000000.000000      5.518494000000000E-01     -1.718984000000000E+02      5.081177000000000E-01     -8.198046000000000E+01      5.577698000000000E-01      1.786797000000000E+02      7.620850000000000E-01     -9.598436000000000E+01
4870000000.000000      5.534973000000000E-01     -1.722265000000000E+02      5.097351000000000E-01     -8.219530000000000E+01      5.599060000000000E-01      1.784922000000000E+02      7.640991000000000E-01     -9.578125000000000E+01
4871000000.000000      5.550842000000000E-01     -1.726563000000000E+02      5.106201000000000E-01     -8.245312000000000E+01      5.604858000000000E-01      1.782891000000000E+02      7.655640000000000E-01     -9.594530000000000E+01
4872000000.000000      5.566406000000000E-01     -1.728594000000000E+02      5.122375000000000E-01     -8.258204000000000E+01      5.628357000000000E-01      1.779844000000000E+02      7.695618000000000E-01     -9.603125000000000E+01
4873000000.000000      5.564575000000000E-01     -1.729687000000000E+02      5.118103000000000E-01     -8.299219000000000E+01      5.671387000000000E-01      1.777812000000000E+02      7.697449000000000E-01     -9.600389000000000E+01
4874000000.000000      5.576477000000000E-01     -1.732109000000000E+02      5.125122000000000E-01     -8.319139000000000E+01      5.692749000000000E-01      1.777266000000000E+02      7.716370000000000E-01     -9.591406000000000E+01
4875000000.000000      5.583801000000000E-01     -1.735625000000000E+02      5.130615000000000E-01     -8.324999000000000E+01      5.693054000000000E-01      1.773906000000000E+02      7.754211000000000E-01     -9.614061000000000E+01
4876000000.000000      5.573120000000000E-01     -1.737500000000000E+02      5.145569000000000E-01     -8.357813000000000E+01      5.704041000000000E-01      1.772734000000000E+02      7.770386000000000E-01     -9.619141000000000E+01
4877000000.000000      5.579224000000000E-01     -1.738906000000000E+02      5.155029000000000E-01     -8.378124000000000E+01      5.742493000000000E-01      1.770469000000000E+02      7.791748000000000E-01     -9.617188000000000E+01
4878000000.000000      5.583191000000000E-01     -1.740469000000000E+02      5.173645000000000E-01     -8.403124000000000E+01      5.751648000000000E-01      1.769922000000000E+02      7.814026000000000E-01     -9.635937000000000E+01
4879000000.000000      5.586548000000000E-01     -1.742188000000000E+02      5.159912000000000E-01     -8.412500000000000E+01      5.771179000000000E-01      1.768047000000000E+02      7.816772000000000E-01     -9.612108000000000E+01
4880000000.000000      5.574951000000000E-01     -1.743906000000000E+02      5.179138000000000E-01     -8.436718000000000E+01      5.791626000000000E-01      1.765312000000000E+02      7.862549000000000E-01     -9.625000000000000E+01
4881000000.000000      5.572815000000000E-01     -1.746016000000000E+02      5.196838000000000E-01     -8.450781000000000E+01      5.812378000000000E-01      1.762422000000000E+02      7.877197000000000E-01     -9.647655000000000E+01
4882000000.000000      5.558777000000000E-01     -1.746328000000000E+02      5.197754000000000E-01     -8.462109000000000E+01      5.823669000000000E-01      1.761875000000000E+02      7.875977000000000E-01     -9.641014000000000E+01
