! Network Analyzer HP8722D
! Hewlett-Packard
! Data name: Linha & Wilkinson
! Saver's name: Rodrigo Anjos
! Comments: Teste da utilização de aquisição
continua pelo VNA HP8722D
! Time and date: 17/4/2025 15:16
!              Frequency                     S11                                                   S21                                                   S12                                                   S22
# HZ  S  MA R 50
4800000000.000000      3.332672000000000E-01     -1.131016000000000E+02      2.859344000000000E-01     -6.071484000000000E+01      2.798004000000000E-01     -1.748594000000000E+02      6.560059000000000E-01     -8.989843000000000E+01
4801000000.000000      3.327637000000000E-01     -1.140703000000000E+02      2.917938000000000E-01     -6.073437000000000E+01      2.836304000000000E-01     -1.746641000000000E+02      6.553955000000000E-01     -9.003515000000000E+01
4802000000.000000      3.309631000000000E-01     -1.150664000000000E+02      2.953033000000000E-01     -6.083008000000000E+01      2.885437000000000E-01     -1.746172000000000E+02      6.531067000000000E-01     -8.992968000000000E+01
4803000000.000000      3.305206000000000E-01     -1.160312000000000E+02      3.007202000000000E-01     -6.084179000000000E+01      2.923279000000000E-01     -1.744297000000000E+02      6.537170000000000E-01     -9.016016000000000E+01
4804000000.000000      3.296356000000000E-01     -1.171016000000000E+02      3.049011000000000E-01     -6.093554000000000E+01      2.971344000000000E-01     -1.744609000000000E+02      6.515503000000000E-01     -9.014843000000000E+01
4805000000.000000      3.297729000000000E-01     -1.180625000000000E+02      3.091278000000000E-01     -6.111718000000000E+01      3.008728000000000E-01     -1.741719000000000E+02      6.515503000000000E-01     -9.037500000000000E+01
4806000000.000000      3.294983000000000E-01     -1.190156000000000E+02      3.134155000000000E-01     -6.125586000000000E+01      3.042755000000000E-01     -1.740625000000000E+02      6.511841000000000E-01     -9.042969000000000E+01
4807000000.000000      3.296204000000000E-01     -1.200664000000000E+02      3.177032000000000E-01     -6.145312000000000E+01      3.091278000000000E-01     -1.742109000000000E+02      6.498413000000000E-01     -9.056250000000000E+01
4808000000.000000      3.299561000000000E-01     -1.210820000000000E+02      3.228149000000000E-01     -6.137695000000000E+01      3.124390000000000E-01     -1.740703000000000E+02      6.494446000000000E-01     -9.048046000000000E+01
4809000000.000000      3.301392000000000E-01     -1.222266000000000E+02      3.271332000000000E-01     -6.176562000000000E+01      3.170929000000000E-01     -1.740313000000000E+02      6.488953000000000E-01     -9.069921000000000E+01
4810000000.000000      3.311768000000000E-01     -1.233125000000000E+02      3.317108000000000E-01     -6.193164000000000E+01      3.210449000000000E-01     -1.738984000000000E+02      6.492310000000000E-01     -9.087109000000000E+01
4811000000.000000      3.318329000000000E-01     -1.243633000000000E+02      3.359070000000000E-01     -6.222070000000000E+01      3.256836000000000E-01     -1.737266000000000E+02      6.481323000000000E-01     -9.068750000000000E+01
4812000000.000000      3.332977000000000E-01     -1.253516000000000E+02      3.397369000000000E-01     -6.236328000000000E+01      3.292847000000000E-01     -1.736797000000000E+02      6.479187000000000E-01     -9.081640000000000E+01
4813000000.000000      3.341370000000000E-01     -1.264609000000000E+02      3.446960000000000E-01     -6.257813000000000E+01      3.321686000000000E-01     -1.735703000000000E+02      6.483765000000000E-01     -9.093750000000000E+01
4814000000.000000      3.355408000000000E-01     -1.277422000000000E+02      3.479156000000000E-01     -6.266992000000000E+01      3.374939000000000E-01     -1.736328000000000E+02      6.474609000000000E-01     -9.104296000000000E+01
4815000000.000000      3.366699000000000E-01     -1.286172000000000E+02      3.520966000000000E-01     -6.293945000000000E+01      3.413391000000000E-01     -1.735937000000000E+02      6.476440000000000E-01     -9.110937000000000E+01
4816000000.000000      3.392181000000000E-01     -1.297188000000000E+02      3.568268000000000E-01     -6.311913000000000E+01      3.457642000000000E-01     -1.733906000000000E+02      6.485291000000000E-01     -9.124218000000000E+01
4817000000.000000      3.411560000000000E-01     -1.307266000000000E+02      3.601990000000000E-01     -6.340429000000000E+01      3.483429000000000E-01     -1.734453000000000E+02      6.484070000000000E-01     -9.128906000000000E+01
4818000000.000000      3.435364000000000E-01     -1.318672000000000E+02      3.643646000000000E-01     -6.364258000000000E+01      3.531952000000000E-01     -1.734844000000000E+02      6.484375000000000E-01     -9.142187000000000E+01
4819000000.000000      3.462830000000000E-01     -1.330859000000000E+02      3.684082000000000E-01     -6.382421000000000E+01      3.564453000000000E-01     -1.733906000000000E+02      6.507874000000000E-01     -9.149218000000000E+01
4820000000.000000      3.478851000000000E-01     -1.340547000000000E+02      3.720245000000000E-01     -6.406250000000000E+01      3.618164000000000E-01     -1.734141000000000E+02      6.494751000000000E-01     -9.159765000000000E+01
4821000000.000000      3.508148000000000E-01     -1.351172000000000E+02      3.765259000000000E-01     -6.426952000000000E+01      3.646698000000000E-01     -1.735625000000000E+02      6.492920000000000E-01     -9.171875000000000E+01
4822000000.000000      3.556824000000000E-01     -1.362422000000000E+02      3.795471000000000E-01     -6.473437000000000E+01      3.685913000000000E-01     -1.733438000000000E+02      6.524048000000000E-01     -9.169140000000000E+01
4823000000.000000      3.577423000000000E-01     -1.372266000000000E+02      3.841400000000000E-01     -6.491405000000000E+01      3.725739000000000E-01     -1.731562000000000E+02      6.514587000000000E-01     -9.177734000000000E+01
4824000000.000000      3.620300000000000E-01     -1.382813000000000E+02      3.875732000000000E-01     -6.520702000000000E+01      3.773346000000000E-01     -1.733125000000000E+02      6.539917000000000E-01     -9.186718000000000E+01
4825000000.000000      3.651428000000000E-01     -1.392422000000000E+02      3.905945000000000E-01     -6.536718000000000E+01      3.814392000000000E-01     -1.733203000000000E+02      6.556702000000000E-01     -9.184374000000000E+01
4826000000.000000      3.694153000000000E-01     -1.403047000000000E+02      3.949127000000000E-01     -6.587109000000000E+01      3.848267000000000E-01     -1.734297000000000E+02      6.563110000000000E-01     -9.190624000000000E+01
4827000000.000000      3.735962000000000E-01     -1.411641000000000E+02      3.986816000000000E-01     -6.587891000000000E+01      3.892059000000000E-01     -1.732578000000000E+02      6.575623000000000E-01     -9.200390000000000E+01
4828000000.000000      3.784027000000000E-01     -1.422188000000000E+02      4.028473000000000E-01     -6.612499000000000E+01      3.926392000000000E-01     -1.732578000000000E+02      6.593933000000000E-01     -9.204687000000000E+01
4829000000.000000      3.806152000000000E-01     -1.430859000000000E+02      4.053192000000000E-01     -6.644140000000000E+01      3.976440000000000E-01     -1.733438000000000E+02      6.600037000000000E-01     -9.213671000000000E+01
4830000000.000000      3.862305000000000E-01     -1.439922000000000E+02      4.090118000000000E-01     -6.683594000000000E+01      4.010010000000000E-01     -1.732656000000000E+02      6.610107000000000E-01     -9.228907000000000E+01
4831000000.000000      3.898926000000000E-01     -1.449453000000000E+02      4.133606000000000E-01     -6.721093000000000E+01      4.057465000000000E-01     -1.732578000000000E+02      6.630554000000000E-01     -9.230078000000000E+01
4832000000.000000      3.958282000000000E-01     -1.458516000000000E+02      4.163666000000000E-01     -6.736718000000000E+01      4.085541000000000E-01     -1.733984000000000E+02      6.647644000000000E-01     -9.230860000000000E+01
4833000000.000000      4.005432000000000E-01     -1.468047000000000E+02      4.198761000000000E-01     -6.771093000000000E+01      4.127808000000000E-01     -1.734453000000000E+02      6.662903000000000E-01     -9.245703000000000E+01
4834000000.000000      4.049530000000000E-01     -1.476406000000000E+02      4.232483000000000E-01     -6.792187000000000E+01      4.171753000000000E-01     -1.734453000000000E+02      6.680908000000000E-01     -9.250391000000000E+01
4835000000.000000      4.097748000000000E-01     -1.484297000000000E+02      4.271088000000000E-01     -6.832421000000000E+01      4.223785000000000E-01     -1.734531000000000E+02      6.694336000000000E-01     -9.261719000000000E+01
4836000000.000000      4.153290000000000E-01     -1.492500000000000E+02      4.293671000000000E-01     -6.863671000000000E+01      4.249268000000000E-01     -1.735156000000000E+02      6.717529000000000E-01     -9.257030000000000E+01
4837000000.000000      4.209747000000000E-01     -1.500313000000000E+02      4.313660000000000E-01     -6.911327000000000E+01      4.295349000000000E-01     -1.736328000000000E+02      6.728210000000000E-01     -9.254297000000000E+01
4838000000.000000      4.261322000000000E-01     -1.509297000000000E+02      4.367371000000000E-01     -6.920703000000000E+01      4.338226000000000E-01     -1.735937000000000E+02      6.757507000000000E-01     -9.267969000000000E+01
4839000000.000000      4.309998000000000E-01     -1.516094000000000E+02      4.386597000000000E-01     -6.944140000000000E+01      4.384308000000000E-01     -1.735625000000000E+02      6.792908000000000E-01     -9.267578000000000E+01
4840000000.000000      4.354553000000000E-01     -1.524531000000000E+02      4.416504000000000E-01     -6.976171000000000E+01      4.424133000000000E-01     -1.738594000000000E+02      6.804810000000000E-01     -9.274218000000000E+01
4841000000.000000      4.408112000000000E-01     -1.533359000000000E+02      4.453430000000000E-01     -7.027344000000000E+01      4.462433000000000E-01     -1.738203000000000E+02      6.817932000000000E-01     -9.276953000000000E+01
4842000000.000000      4.465332000000000E-01     -1.538906000000000E+02      4.481049000000000E-01     -7.047656000000000E+01      4.499359000000000E-01     -1.739219000000000E+02      6.849976000000000E-01     -9.281250000000000E+01
4843000000.000000      4.513397000000000E-01     -1.546953000000000E+02      4.508057000000000E-01     -7.079687000000000E+01      4.541016000000000E-01     -1.740000000000000E+02      6.875305000000000E-01     -9.278906000000000E+01
4844000000.000000      4.560852000000000E-01     -1.553750000000000E+02      4.536285000000000E-01     -7.113281000000000E+01      4.576111000000000E-01     -1.741172000000000E+02      6.898499000000000E-01     -9.294531000000000E+01
4845000000.000000      4.614410000000000E-01     -1.559922000000000E+02      4.559937000000000E-01     -7.153515000000000E+01      4.621429000000000E-01     -1.742578000000000E+02      6.915283000000000E-01     -9.298046000000000E+01
4846000000.000000      4.665375000000000E-01     -1.566015000000000E+02      4.588013000000000E-01     -7.174218000000000E+01      4.671478000000000E-01     -1.742266000000000E+02      6.951904000000000E-01     -9.307032000000000E+01
4847000000.000000      4.719543000000000E-01     -1.573516000000000E+02      4.612732000000000E-01     -7.199219000000000E+01      4.710693000000000E-01     -1.744922000000000E+02      6.985474000000000E-01     -9.324610000000000E+01
4848000000.000000      4.770966000000000E-01     -1.579687000000000E+02      4.639740000000000E-01     -7.232812000000000E+01      4.747467000000000E-01     -1.744844000000000E+02      7.001038000000000E-01     -9.308203000000000E+01
4849000000.000000      4.821014000000000E-01     -1.588516000000000E+02      4.661560000000000E-01     -7.277344000000000E+01      4.790649000000000E-01     -1.746953000000000E+02      7.034912000000000E-01     -9.316797000000000E+01
4850000000.000000      4.868774000000000E-01     -1.592422000000000E+02      4.683380000000000E-01     -7.294140000000000E+01      4.828949000000000E-01     -1.747266000000000E+02      7.064209000000000E-01     -9.319921000000000E+01
4851000000.000000      4.918671000000000E-01     -1.598438000000000E+02      4.717865000000000E-01     -7.348437000000000E+01      4.865112000000000E-01     -1.749219000000000E+02      7.099609000000000E-01     -9.319139000000000E+01
4852000000.000000      4.965973000000000E-01     -1.604609000000000E+02      4.730530000000000E-01     -7.366015000000000E+01      4.910889000000000E-01     -1.749297000000000E+02      7.117920000000000E-01     -9.321093000000000E+01
4853000000.000000      5.022278000000000E-01     -1.610703000000000E+02      4.748688000000000E-01     -7.397655000000000E+01      4.949341000000000E-01     -1.751875000000000E+02      7.145691000000000E-01     -9.348436000000000E+01
4854000000.000000      5.059509000000000E-01     -1.616016000000000E+02      4.778137000000000E-01     -7.454296000000000E+01      4.994049000000000E-01     -1.752656000000000E+02      7.167969000000000E-01     -9.339062000000000E+01
4855000000.000000      5.093689000000000E-01     -1.621094000000000E+02      4.789276000000000E-01     -7.466406000000000E+01      5.031738000000000E-01     -1.754531000000000E+02      7.192993000000000E-01     -9.335938000000000E+01
4856000000.000000      5.148010000000000E-01     -1.625937000000000E+02      4.819641000000000E-01     -7.502734000000000E+01      5.056458000000000E-01     -1.754219000000000E+02      7.230835000000000E-01     -9.350389000000000E+01
4857000000.000000      5.184326000000000E-01     -1.631641000000000E+02      4.840698000000000E-01     -7.549999000000000E+01      5.087280000000000E-01     -1.757891000000000E+02      7.266541000000000E-01     -9.350389000000000E+01
4858000000.000000      5.205688000000000E-01     -1.636875000000000E+02      4.862061000000000E-01     -7.549218000000000E+01      5.126038000000000E-01     -1.759766000000000E+02      7.286682000000000E-01     -9.372265000000000E+01
4859000000.000000      5.253906000000000E-01     -1.641562000000000E+02      4.882355000000000E-01     -7.600780000000000E+01      5.159912000000000E-01     -1.761172000000000E+02      7.325439000000000E-01     -9.372656000000000E+01
4860000000.000000      5.297546000000000E-01     -1.646328000000000E+02      4.887543000000000E-01     -7.617969000000000E+01      5.198364000000000E-01     -1.762031000000000E+02      7.341003000000000E-01     -9.360155000000000E+01
4861000000.000000      5.328064000000000E-01     -1.650156000000000E+02      4.901733000000000E-01     -7.669531000000000E+01      5.237732000000000E-01     -1.763203000000000E+02      7.364807000000000E-01     -9.376171000000000E+01
4862000000.000000      5.353394000000000E-01     -1.654844000000000E+02      4.929810000000000E-01     -7.696875000000000E+01      5.272827000000000E-01     -1.766406000000000E+02      7.417908000000000E-01     -9.375780000000000E+01
4863000000.000000      5.379333000000000E-01     -1.658594000000000E+02      4.956665000000000E-01     -7.725780000000000E+01      5.311890000000000E-01     -1.767812000000000E+02      7.431641000000000E-01     -9.381639000000000E+01
4864000000.000000      5.413818000000000E-01     -1.663359000000000E+02      4.970245000000000E-01     -7.733203000000000E+01      5.345459000000000E-01     -1.768672000000000E+02      7.473145000000000E-01     -9.379297000000000E+01
4865000000.000000      5.435791000000000E-01     -1.667344000000000E+02      4.970551000000000E-01     -7.774219000000000E+01      5.368652000000000E-01     -1.772812000000000E+02      7.499695000000000E-01     -9.374609000000000E+01
4866000000.000000      5.463867000000000E-01     -1.671484000000000E+02      4.988098000000000E-01     -7.808203000000000E+01      5.411987000000000E-01     -1.772969000000000E+02      7.533875000000000E-01     -9.380859000000000E+01
4867000000.000000      5.479126000000000E-01     -1.673281000000000E+02      4.994202000000000E-01     -7.835155000000000E+01      5.425415000000000E-01     -1.775625000000000E+02      7.568970000000000E-01     -9.386328000000000E+01
4868000000.000000      5.508118000000000E-01     -1.678828000000000E+02      5.020752000000000E-01     -7.873437000000000E+01      5.477295000000000E-01     -1.778750000000000E+02      7.581177000000000E-01     -9.391016000000000E+01
4869000000.000000      5.519104000000000E-01     -1.681875000000000E+02      5.026550000000000E-01     -7.885547000000000E+01      5.491028000000000E-01     -1.781328000000000E+02      7.614136000000000E-01     -9.408594000000000E+01
4870000000.000000      5.545044000000000E-01     -1.684609000000000E+02      5.043335000000000E-01     -7.894140000000000E+01      5.525513000000000E-01     -1.781953000000000E+02      7.640686000000000E-01     -9.402344000000000E+01
4871000000.000000      5.559692000000000E-01     -1.687969000000000E+02      5.053711000000000E-01     -7.933594000000000E+01      5.544434000000000E-01     -1.784844000000000E+02      7.663574000000000E-01     -9.416796000000000E+01
4872000000.000000      5.581665000000000E-01     -1.691094000000000E+02      5.068970000000000E-01     -7.966406000000000E+01      5.575256000000000E-01     -1.787500000000000E+02      7.694702000000000E-01     -9.403124000000000E+01
4873000000.000000      5.584412000000000E-01     -1.693672000000000E+02      5.065308000000000E-01     -8.002344000000000E+01      5.588989000000000E-01     -1.788672000000000E+02      7.709351000000000E-01     -9.410936000000000E+01
4874000000.000000      5.588684000000000E-01     -1.694766000000000E+02      5.073547000000000E-01     -8.018749000000000E+01      5.642395000000000E-01     -1.791016000000000E+02      7.727356000000000E-01     -9.401953000000000E+01
4875000000.000000      5.620117000000000E-01     -1.699062000000000E+02      5.093384000000000E-01     -8.036718000000000E+01      5.649109000000000E-01     -1.792969000000000E+02      7.753296000000000E-01     -9.430468000000000E+01
4876000000.000000      5.607910000000000E-01     -1.700859000000000E+02      5.105286000000000E-01     -8.057812000000000E+01      5.658875000000000E-01     -1.794141000000000E+02      7.774353000000000E-01     -9.435938000000000E+01
4877000000.000000      5.616150000000000E-01     -1.703438000000000E+02      5.112305000000000E-01     -8.065624000000000E+01      5.707092000000000E-01     -1.796797000000000E+02      7.802124000000000E-01     -9.446093000000000E+01
4878000000.000000      5.630493000000000E-01     -1.704297000000000E+02      5.131531000000000E-01     -8.107422000000000E+01      5.704041000000000E-01     -1.798516000000000E+02      7.830200000000000E-01     -9.454296000000000E+01
4879000000.000000      5.635071000000000E-01     -1.706797000000000E+02      5.125427000000000E-01     -8.114452000000000E+01      5.733643000000000E-01      1.798281000000000E+02      7.859802000000000E-01     -9.427343000000000E+01
4880000000.000000      5.632324000000000E-01     -1.708437000000000E+02      5.141907000000000E-01     -8.148046000000000E+01      5.781250000000000E-01      1.797656000000000E+02      7.869263000000000E-01     -9.441015000000000E+01
4881000000.000000      5.645752000000000E-01     -1.709531000000000E+02      5.162659000000000E-01     -8.159374000000000E+01      5.786743000000000E-01      1.793828000000000E+02      7.894897000000000E-01     -9.447266000000000E+01
4882000000.000000      5.616150000000000E-01     -1.711094000000000E+02      5.166016000000000E-01     -8.184765000000000E+01      5.797424000000000E-01      1.793047000000000E+02      7.901917000000000E-01     -9.450781000000000E+01
