! Network Analyzer HP8722D
! Hewlett-Packard
! Data name: Linha & Wilkinson
! Saver's name: Rodrigo Anjos
! Comments: Teste da utilização de aquisição
continua pelo VNA HP8722D
! Time and date: 17/4/2025 16:44
!              Frequency                     S11                                                   S21                                                   S12                                                   S22
# HZ  S  MA R 50
4800000000.000000      3.370819000000000E-01     -1.167773000000000E+02      3.148346000000000E-01     -6.240039000000000E+01      3.090210000000000E-01     -1.765391000000000E+02      6.581421000000000E-01     -9.144531000000000E+01
4801000000.000000      3.356628000000000E-01     -1.176641000000000E+02      3.190613000000000E-01     -6.241211000000000E+01      3.121338000000000E-01     -1.764922000000000E+02      6.570435000000000E-01     -9.146093000000000E+01
4802000000.000000      3.345032000000000E-01     -1.188398000000000E+02      3.236694000000000E-01     -6.251953000000000E+01      3.166199000000000E-01     -1.765156000000000E+02      6.557922000000000E-01     -9.151562000000000E+01
4803000000.000000      3.342896000000000E-01     -1.198203000000000E+02      3.285370000000000E-01     -6.271093000000000E+01      3.197632000000000E-01     -1.763281000000000E+02      6.536560000000000E-01     -9.166407000000000E+01
4804000000.000000      3.338165000000000E-01     -1.207773000000000E+02      3.316498000000000E-01     -6.292969000000000E+01      3.238373000000000E-01     -1.764688000000000E+02      6.542358000000000E-01     -9.164063000000000E+01
4805000000.000000      3.348083000000000E-01     -1.218555000000000E+02      3.363190000000000E-01     -6.302539000000000E+01      3.286133000000000E-01     -1.763594000000000E+02      6.539917000000000E-01     -9.196093000000000E+01
4806000000.000000      3.335266000000000E-01     -1.228359000000000E+02      3.400879000000000E-01     -6.335742000000000E+01      3.315735000000000E-01     -1.761016000000000E+02      6.531982000000000E-01     -9.201563000000000E+01
4807000000.000000      3.339844000000000E-01     -1.238906000000000E+02      3.447266000000000E-01     -6.360156000000000E+01      3.359985000000000E-01     -1.762734000000000E+02      6.523438000000000E-01     -9.205858000000000E+01
4808000000.000000      3.353271000000000E-01     -1.250039000000000E+02      3.491516000000000E-01     -6.362499000000000E+01      3.394470000000000E-01     -1.763359000000000E+02      6.517944000000000E-01     -9.217968000000000E+01
4809000000.000000      3.355255000000000E-01     -1.260898000000000E+02      3.526459000000000E-01     -6.415625000000000E+01      3.441772000000000E-01     -1.763125000000000E+02      6.516113000000000E-01     -9.229296000000000E+01
4810000000.000000      3.362579000000000E-01     -1.272148000000000E+02      3.578949000000000E-01     -6.421093000000000E+01      3.476410000000000E-01     -1.762422000000000E+02      6.510315000000000E-01     -9.233593000000000E+01
4811000000.000000      3.381195000000000E-01     -1.282734000000000E+02      3.615570000000000E-01     -6.455468000000000E+01      3.522186000000000E-01     -1.762031000000000E+02      6.506653000000000E-01     -9.233593000000000E+01
4812000000.000000      3.393097000000000E-01     -1.293203000000000E+02      3.652802000000000E-01     -6.458593000000000E+01      3.554230000000000E-01     -1.761562000000000E+02      6.509094000000000E-01     -9.249218000000000E+01
4813000000.000000      3.409729000000000E-01     -1.304688000000000E+02      3.694763000000000E-01     -6.498828000000000E+01      3.589478000000000E-01     -1.760547000000000E+02      6.511230000000000E-01     -9.245703000000000E+01
4814000000.000000      3.413086000000000E-01     -1.316719000000000E+02      3.732147000000000E-01     -6.523438000000000E+01      3.625336000000000E-01     -1.761328000000000E+02      6.510925000000000E-01     -9.260546000000000E+01
4815000000.000000      3.434753000000000E-01     -1.325781000000000E+02      3.764648000000000E-01     -6.546875000000000E+01      3.656158000000000E-01     -1.761172000000000E+02      6.501160000000000E-01     -9.272655000000000E+01
4816000000.000000      3.457184000000000E-01     -1.336953000000000E+02      3.805695000000000E-01     -6.565624000000000E+01      3.710175000000000E-01     -1.761094000000000E+02      6.510315000000000E-01     -9.278124000000000E+01
4817000000.000000      3.489532000000000E-01     -1.347188000000000E+02      3.853455000000000E-01     -6.596093000000000E+01      3.736420000000000E-01     -1.761328000000000E+02      6.497498000000000E-01     -9.284374000000000E+01
4818000000.000000      3.514709000000000E-01     -1.360469000000000E+02      3.879852000000000E-01     -6.617969000000000E+01      3.774719000000000E-01     -1.761484000000000E+02      6.511230000000000E-01     -9.292187000000000E+01
4819000000.000000      3.541870000000000E-01     -1.370000000000000E+02      3.917999000000000E-01     -6.650391000000000E+01      3.807983000000000E-01     -1.761094000000000E+02      6.523743000000000E-01     -9.308985000000000E+01
4820000000.000000      3.560638000000000E-01     -1.380703000000000E+02      3.951111000000000E-01     -6.660546000000000E+01      3.852234000000000E-01     -1.761953000000000E+02      6.539917000000000E-01     -9.315233000000000E+01
4821000000.000000      3.599548000000000E-01     -1.391719000000000E+02      3.994141000000000E-01     -6.698828000000000E+01      3.885498000000000E-01     -1.762891000000000E+02      6.532898000000000E-01     -9.333593000000000E+01
4822000000.000000      3.643951000000000E-01     -1.402734000000000E+02      4.026794000000000E-01     -6.730859000000000E+01      3.917694000000000E-01     -1.763672000000000E+02      6.547546000000000E-01     -9.330078000000000E+01
4823000000.000000      3.667145000000000E-01     -1.412188000000000E+02      4.062500000000000E-01     -6.757030000000000E+01      3.964996000000000E-01     -1.760156000000000E+02      6.558533000000000E-01     -9.331249000000000E+01
4824000000.000000      3.713226000000000E-01     -1.423672000000000E+02      4.102631000000000E-01     -6.791016000000000E+01      3.997040000000000E-01     -1.762422000000000E+02      6.570740000000000E-01     -9.345703000000000E+01
4825000000.000000      3.741608000000000E-01     -1.433047000000000E+02      4.130554000000000E-01     -6.816015000000000E+01      4.048157000000000E-01     -1.762031000000000E+02      6.571960000000000E-01     -9.339062000000000E+01
4826000000.000000      3.785248000000000E-01     -1.443203000000000E+02      4.166565000000000E-01     -6.852344000000000E+01      4.069672000000000E-01     -1.762500000000000E+02      6.577454000000000E-01     -9.368359000000000E+01
4827000000.000000      3.825684000000000E-01     -1.451484000000000E+02      4.199066000000000E-01     -6.877734000000000E+01      4.106750000000000E-01     -1.762344000000000E+02      6.597900000000000E-01     -9.360155000000000E+01
4828000000.000000      3.875732000000000E-01     -1.462188000000000E+02      4.241180000000000E-01     -6.914063000000000E+01      4.147797000000000E-01     -1.762656000000000E+02      6.626892000000000E-01     -9.380859000000000E+01
4829000000.000000      3.905029000000000E-01     -1.471406000000000E+02      4.259491000000000E-01     -6.930078000000000E+01      4.184723000000000E-01     -1.762734000000000E+02      6.638489000000000E-01     -9.369921000000000E+01
4830000000.000000      3.959351000000000E-01     -1.480625000000000E+02      4.297485000000000E-01     -6.972265000000000E+01      4.225464000000000E-01     -1.763594000000000E+02      6.646423000000000E-01     -9.396093000000000E+01
4831000000.000000      4.000854000000000E-01     -1.489297000000000E+02      4.320526000000000E-01     -7.023046000000000E+01      4.261932000000000E-01     -1.762734000000000E+02      6.664734000000000E-01     -9.395311000000000E+01
4832000000.000000      4.057465000000000E-01     -1.498437000000000E+02      4.358063000000000E-01     -7.028125000000000E+01      4.299469000000000E-01     -1.764844000000000E+02      6.684570000000000E-01     -9.408594000000000E+01
4833000000.000000      4.105530000000000E-01     -1.508437000000000E+02      4.381256000000000E-01     -7.070313000000000E+01      4.338684000000000E-01     -1.764531000000000E+02      6.686401000000000E-01     -9.401562000000000E+01
4834000000.000000      4.151001000000000E-01     -1.516641000000000E+02      4.412231000000000E-01     -7.091015000000000E+01      4.371796000000000E-01     -1.764922000000000E+02      6.710205000000000E-01     -9.411718000000000E+01
4835000000.000000      4.197235000000000E-01     -1.524765000000000E+02      4.447021000000000E-01     -7.125781000000000E+01      4.421082000000000E-01     -1.766328000000000E+02      6.727600000000000E-01     -9.427343000000000E+01
4836000000.000000      4.259338000000000E-01     -1.532500000000000E+02      4.481049000000000E-01     -7.160937000000000E+01      4.450073000000000E-01     -1.765703000000000E+02      6.754456000000000E-01     -9.422655000000000E+01
4837000000.000000      4.307556000000000E-01     -1.540234000000000E+02      4.501038000000000E-01     -7.217578000000000E+01      4.484100000000000E-01     -1.768203000000000E+02      6.775818000000000E-01     -9.428125000000000E+01
4838000000.000000      4.359283000000000E-01     -1.549062000000000E+02      4.541626000000000E-01     -7.217578000000000E+01      4.526825000000000E-01     -1.768047000000000E+02      6.790466000000000E-01     -9.433594000000000E+01
4839000000.000000      4.407501000000000E-01     -1.555156000000000E+02      4.558868000000000E-01     -7.251171000000000E+01      4.570465000000000E-01     -1.768437000000000E+02      6.817627000000000E-01     -9.434765000000000E+01
4840000000.000000      4.451447000000000E-01     -1.564297000000000E+02      4.585114000000000E-01     -7.282812000000000E+01      4.603882000000000E-01     -1.770234000000000E+02      6.832581000000000E-01     -9.441797000000000E+01
4841000000.000000      4.506378000000000E-01     -1.572578000000000E+02      4.615173000000000E-01     -7.326562000000000E+01      4.642944000000000E-01     -1.771484000000000E+02      6.859741000000000E-01     -9.459375000000000E+01
4842000000.000000      4.562073000000000E-01     -1.578359000000000E+02      4.641113000000000E-01     -7.354687000000000E+01      4.669495000000000E-01     -1.771250000000000E+02      6.881409000000000E-01     -9.456640000000000E+01
4843000000.000000      4.610138000000000E-01     -1.586328000000000E+02      4.659576000000000E-01     -7.402734000000000E+01      4.714050000000000E-01     -1.772266000000000E+02      6.898804000000000E-01     -9.464062000000000E+01
4844000000.000000      4.660187000000000E-01     -1.592344000000000E+02      4.688416000000000E-01     -7.420703000000000E+01      4.747620000000000E-01     -1.773750000000000E+02      6.922302000000000E-01     -9.468359000000000E+01
4845000000.000000      4.705505000000000E-01     -1.599453000000000E+02      4.708710000000000E-01     -7.449609000000000E+01      4.790802000000000E-01     -1.774297000000000E+02      6.961975000000000E-01     -9.469921000000000E+01
4846000000.000000      4.750977000000000E-01     -1.605156000000000E+02      4.730225000000000E-01     -7.473046000000000E+01      4.830627000000000E-01     -1.775391000000000E+02      6.995544000000000E-01     -9.475389000000000E+01
4847000000.000000      4.805908000000000E-01     -1.612578000000000E+02      4.748077000000000E-01     -7.520702000000000E+01      4.867554000000000E-01     -1.776797000000000E+02      7.018738000000000E-01     -9.492188000000000E+01
4848000000.000000      4.861145000000000E-01     -1.618438000000000E+02      4.769135000000000E-01     -7.531250000000000E+01      4.904633000000000E-01     -1.777422000000000E+02      7.033081000000000E-01     -9.492579000000000E+01
4849000000.000000      4.905853000000000E-01     -1.627031000000000E+02      4.801178000000000E-01     -7.596484000000000E+01      4.940643000000000E-01     -1.779297000000000E+02      7.066956000000000E-01     -9.485546000000000E+01
4850000000.000000      4.948730000000000E-01     -1.631172000000000E+02      4.821930000000000E-01     -7.605469000000000E+01      4.967041000000000E-01     -1.779844000000000E+02      7.087708000000000E-01     -9.490234000000000E+01
4851000000.000000      5.000305000000000E-01     -1.636953000000000E+02      4.844666000000000E-01     -7.653125000000000E+01      5.000305000000000E-01     -1.781328000000000E+02      7.120361000000000E-01     -9.503515000000000E+01
4852000000.000000      5.043945000000000E-01     -1.643281000000000E+02      4.861908000000000E-01     -7.692968000000000E+01      5.052490000000000E-01     -1.782109000000000E+02      7.148132000000000E-01     -9.505859000000000E+01
4853000000.000000      5.081177000000000E-01     -1.648828000000000E+02      4.863739000000000E-01     -7.714453000000000E+01      5.077820000000000E-01     -1.783594000000000E+02      7.168579000000000E-01     -9.529297000000000E+01
4854000000.000000      5.120239000000000E-01     -1.653906000000000E+02      4.895325000000000E-01     -7.758984000000000E+01      5.112305000000000E-01     -1.785469000000000E+02      7.203979000000000E-01     -9.508593000000000E+01
4855000000.000000      5.145264000000000E-01     -1.659375000000000E+02      4.906311000000000E-01     -7.775000000000000E+01      5.146179000000000E-01     -1.786719000000000E+02      7.209167000000000E-01     -9.531250000000000E+01
4856000000.000000      5.202942000000000E-01     -1.663906000000000E+02      4.922180000000000E-01     -7.806250000000000E+01      5.180054000000000E-01     -1.788672000000000E+02      7.260132000000000E-01     -9.527344000000000E+01
4857000000.000000      5.239868000000000E-01     -1.670156000000000E+02      4.945831000000000E-01     -7.835546000000000E+01      5.209045000000000E-01     -1.790078000000000E+02      7.279968000000000E-01     -9.526953000000000E+01
4858000000.000000      5.257874000000000E-01     -1.674531000000000E+02      4.960785000000000E-01     -7.873047000000000E+01      5.248718000000000E-01     -1.791875000000000E+02      7.312927000000000E-01     -9.544922000000000E+01
4859000000.000000      5.296021000000000E-01     -1.679688000000000E+02      4.984283000000000E-01     -7.906640000000000E+01      5.288391000000000E-01     -1.793047000000000E+02      7.347717000000000E-01     -9.540625000000000E+01
4860000000.000000      5.338440000000000E-01     -1.684297000000000E+02      4.993439000000000E-01     -7.933594000000000E+01      5.309753000000000E-01     -1.795078000000000E+02      7.373657000000000E-01     -9.542187000000000E+01
4861000000.000000      5.364990000000000E-01     -1.687344000000000E+02      5.007019000000000E-01     -7.973046000000000E+01      5.344543000000000E-01     -1.796406000000000E+02      7.413330000000000E-01     -9.549999000000000E+01
4862000000.000000      5.387268000000000E-01     -1.691641000000000E+02      5.022583000000000E-01     -7.981250000000000E+01      5.375671000000000E-01     -1.798125000000000E+02      7.442932000000000E-01     -9.551561000000000E+01
4863000000.000000      5.412903000000000E-01     -1.696640000000000E+02      5.013123000000000E-01     -8.028515000000000E+01      5.417175000000000E-01      1.799141000000000E+02      7.452393000000000E-01     -9.565624000000000E+01
4864000000.000000      5.434570000000000E-01     -1.700547000000000E+02      5.046692000000000E-01     -8.027344000000000E+01      5.431824000000000E-01      1.797578000000000E+02      7.476501000000000E-01     -9.561327000000000E+01
4865000000.000000      5.453796000000000E-01     -1.705078000000000E+02      5.041809000000000E-01     -8.076563000000000E+01      5.450439000000000E-01      1.796172000000000E+02      7.516479000000000E-01     -9.557032000000000E+01
4866000000.000000      5.463562000000000E-01     -1.707969000000000E+02      5.057983000000000E-01     -8.113281000000000E+01      5.505371000000000E-01      1.794141000000000E+02      7.547607000000000E-01     -9.554296000000000E+01
4867000000.000000      5.485535000000000E-01     -1.711875000000000E+02      5.078735000000000E-01     -8.130077000000000E+01      5.521545000000000E-01      1.793125000000000E+02      7.566223000000000E-01     -9.579296000000000E+01
4868000000.000000      5.509644000000000E-01     -1.715859000000000E+02      5.082703000000000E-01     -8.182032000000000E+01      5.548401000000000E-01      1.791484000000000E+02      7.593689000000000E-01     -9.574999000000000E+01
4869000000.000000      5.511780000000000E-01     -1.718359000000000E+02      5.073547000000000E-01     -8.182032000000000E+01      5.579529000000000E-01      1.788359000000000E+02      7.617798000000000E-01     -9.591015000000000E+01
4870000000.000000      5.538635000000000E-01     -1.720547000000000E+02      5.097351000000000E-01     -8.198828000000000E+01      5.594482000000000E-01      1.786328000000000E+02      7.651367000000000E-01     -9.578516000000000E+01
4871000000.000000      5.542297000000000E-01     -1.725156000000000E+02      5.109558000000000E-01     -8.221483000000000E+01      5.608521000000000E-01      1.785469000000000E+02      7.668152000000000E-01     -9.600389000000000E+01
4872000000.000000      5.563049000000000E-01     -1.726406000000000E+02      5.103149000000000E-01     -8.242188000000000E+01      5.629883000000000E-01      1.781641000000000E+02      7.691345000000000E-01     -9.591406000000000E+01
4873000000.000000      5.559387000000000E-01     -1.728984000000000E+02      5.121765000000000E-01     -8.275782000000000E+01      5.654297000000000E-01      1.779922000000000E+02      7.709961000000000E-01     -9.609375000000000E+01
4874000000.000000      5.563965000000000E-01     -1.731328000000000E+02      5.123596000000000E-01     -8.311718000000000E+01      5.693054000000000E-01      1.778672000000000E+02      7.732239000000000E-01     -9.593359000000000E+01
4875000000.000000      5.577698000000000E-01     -1.733984000000000E+02      5.115662000000000E-01     -8.320313000000000E+01      5.707703000000000E-01      1.775547000000000E+02      7.749023000000000E-01     -9.616014000000000E+01
4876000000.000000      5.570374000000000E-01     -1.736094000000000E+02      5.146484000000000E-01     -8.344530000000000E+01      5.716553000000000E-01      1.773594000000000E+02      7.776184000000000E-01     -9.607811000000000E+01
4877000000.000000      5.574646000000000E-01     -1.737187000000000E+02      5.147095000000000E-01     -8.365234000000000E+01      5.748901000000000E-01      1.770937000000000E+02      7.792664000000000E-01     -9.628906000000000E+01
4878000000.000000      5.578918000000000E-01     -1.739219000000000E+02      5.160828000000000E-01     -8.375391000000000E+01      5.768738000000000E-01      1.770781000000000E+02      7.828369000000000E-01     -9.629686000000000E+01
4879000000.000000      5.584106000000000E-01     -1.741562000000000E+02      5.157471000000000E-01     -8.414063000000000E+01      5.778198000000000E-01      1.769140000000000E+02      7.835693000000000E-01     -9.620703000000000E+01
4880000000.000000      5.565186000000000E-01     -1.743203000000000E+02      5.169983000000000E-01     -8.421093000000000E+01      5.804749000000000E-01      1.765938000000000E+02      7.858276000000000E-01     -9.636719000000000E+01
4881000000.000000      5.578613000000000E-01     -1.743438000000000E+02      5.184326000000000E-01     -8.417578000000000E+01      5.816956000000000E-01      1.763906000000000E+02      7.888794000000000E-01     -9.643749000000000E+01
4882000000.000000      5.563660000000000E-01     -1.745078000000000E+02      5.209961000000000E-01     -8.472656000000000E+01      5.835571000000000E-01      1.763594000000000E+02      7.890320000000000E-01     -9.644531000000000E+01
