! Network Analyzer HP8722D
! Hewlett-Packard
! Data name: Linha & Wilkinson
! Saver's name: Rodrigo Anjos
! Comments: Teste da utilização de aquisição
continua pelo VNA HP8722D
! Time and date: 17/4/2025 16:23
!              Frequency                     S11                                                   S21                                                   S12                                                   S22
# HZ  S  MA R 50
4800000000.000000      3.342285000000000E-01     -1.150508000000000E+02      3.041077000000000E-01     -6.165625000000000E+01      2.988129000000000E-01     -1.759531000000000E+02      6.576233000000000E-01     -9.097265000000000E+01
4801000000.000000      3.336029000000000E-01     -1.159297000000000E+02      3.086243000000000E-01     -6.167187000000000E+01      3.020935000000000E-01     -1.758594000000000E+02      6.566162000000000E-01     -9.096483000000000E+01
4802000000.000000      3.328705000000000E-01     -1.169648000000000E+02      3.121185000000000E-01     -6.161327000000000E+01      3.069763000000000E-01     -1.757266000000000E+02      6.551208000000000E-01     -9.106640000000000E+01
4803000000.000000      3.320465000000000E-01     -1.179883000000000E+02      3.174591000000000E-01     -6.198632000000000E+01      3.098602000000000E-01     -1.756406000000000E+02      6.540833000000000E-01     -9.118750000000000E+01
4804000000.000000      3.320618000000000E-01     -1.189219000000000E+02      3.212891000000000E-01     -6.218163000000000E+01      3.148651000000000E-01     -1.756094000000000E+02      6.548767000000000E-01     -9.116014000000000E+01
4805000000.000000      3.316956000000000E-01     -1.200000000000000E+02      3.260651000000000E-01     -6.233984000000000E+01      3.193054000000000E-01     -1.755703000000000E+02      6.535339000000000E-01     -9.139063000000000E+01
4806000000.000000      3.317413000000000E-01     -1.210625000000000E+02      3.302612000000000E-01     -6.246875000000000E+01      3.214569000000000E-01     -1.753515000000000E+02      6.531677000000000E-01     -9.154297000000000E+01
4807000000.000000      3.321533000000000E-01     -1.221211000000000E+02      3.345947000000000E-01     -6.278320000000000E+01      3.261719000000000E-01     -1.755547000000000E+02      6.520996000000000E-01     -9.161718000000000E+01
4808000000.000000      3.321991000000000E-01     -1.230898000000000E+02      3.390045000000000E-01     -6.260156000000000E+01      3.305664000000000E-01     -1.753828000000000E+02      6.511230000000000E-01     -9.162109000000000E+01
4809000000.000000      3.324585000000000E-01     -1.242305000000000E+02      3.440094000000000E-01     -6.321679000000000E+01      3.343964000000000E-01     -1.755391000000000E+02      6.513062000000000E-01     -9.177734000000000E+01
4810000000.000000      3.334503000000000E-01     -1.253320000000000E+02      3.475800000000000E-01     -6.314843000000000E+01      3.387146000000000E-01     -1.754062000000000E+02      6.502991000000000E-01     -9.185156000000000E+01
4811000000.000000      3.346100000000000E-01     -1.264219000000000E+02      3.516693000000000E-01     -6.356250000000000E+01      3.432465000000000E-01     -1.753750000000000E+02      6.506958000000000E-01     -9.181250000000000E+01
4812000000.000000      3.367157000000000E-01     -1.274648000000000E+02      3.554077000000000E-01     -6.383984000000000E+01      3.465118000000000E-01     -1.751406000000000E+02      6.511230000000000E-01     -9.198437000000000E+01
4813000000.000000      3.371429000000000E-01     -1.285859000000000E+02      3.599548000000000E-01     -6.405468000000000E+01      3.493500000000000E-01     -1.752344000000000E+02      6.504211000000000E-01     -9.199610000000000E+01
4814000000.000000      3.385162000000000E-01     -1.298906000000000E+02      3.634033000000000E-01     -6.427343000000000E+01      3.537903000000000E-01     -1.752344000000000E+02      6.510925000000000E-01     -9.219921000000000E+01
4815000000.000000      3.401489000000000E-01     -1.307188000000000E+02      3.667755000000000E-01     -6.443749000000000E+01      3.574371000000000E-01     -1.752734000000000E+02      6.492310000000000E-01     -9.229687000000000E+01
4816000000.000000      3.428650000000000E-01     -1.318047000000000E+02      3.722229000000000E-01     -6.456640000000000E+01      3.618469000000000E-01     -1.751172000000000E+02      6.507263000000000E-01     -9.223436000000000E+01
4817000000.000000      3.453369000000000E-01     -1.329219000000000E+02      3.753662000000000E-01     -6.492188000000000E+01      3.653564000000000E-01     -1.752031000000000E+02      6.493225000000000E-01     -9.249218000000000E+01
4818000000.000000      3.473053000000000E-01     -1.340937000000000E+02      3.787842000000000E-01     -6.508203000000000E+01      3.690643000000000E-01     -1.752266000000000E+02      6.508179000000000E-01     -9.253515000000000E+01
4819000000.000000      3.504028000000000E-01     -1.350859000000000E+02      3.831024000000000E-01     -6.541406000000000E+01      3.728485000000000E-01     -1.751406000000000E+02      6.529846000000000E-01     -9.261719000000000E+01
4820000000.000000      3.520203000000000E-01     -1.361094000000000E+02      3.866119000000000E-01     -6.565234000000000E+01      3.775330000000000E-01     -1.751328000000000E+02      6.528625000000000E-01     -9.265625000000000E+01
4821000000.000000      3.557129000000000E-01     -1.373203000000000E+02      3.909302000000000E-01     -6.594921000000000E+01      3.809662000000000E-01     -1.753203000000000E+02      6.522217000000000E-01     -9.279688000000000E+01
4822000000.000000      3.599701000000000E-01     -1.383516000000000E+02      3.932648000000000E-01     -6.612499000000000E+01      3.839264000000000E-01     -1.751562000000000E+02      6.541443000000000E-01     -9.277735000000000E+01
4823000000.000000      3.627167000000000E-01     -1.393281000000000E+02      3.973389000000000E-01     -6.657421000000000E+01      3.879547000000000E-01     -1.750859000000000E+02      6.553955000000000E-01     -9.289843000000000E+01
4824000000.000000      3.669586000000000E-01     -1.403672000000000E+02      4.023438000000000E-01     -6.687890000000000E+01      3.930817000000000E-01     -1.752266000000000E+02      6.554565000000000E-01     -9.301172000000000E+01
4825000000.000000      3.702545000000000E-01     -1.413672000000000E+02      4.048157000000000E-01     -6.699219000000000E+01      3.972626000000000E-01     -1.751250000000000E+02      6.573486000000000E-01     -9.296093000000000E+01
4826000000.000000      3.747711000000000E-01     -1.424609000000000E+02      4.080963000000000E-01     -6.743359000000000E+01      3.992462000000000E-01     -1.752187000000000E+02      6.572266000000000E-01     -9.310156000000000E+01
4827000000.000000      3.785095000000000E-01     -1.432578000000000E+02      4.125366000000000E-01     -6.745703000000000E+01      4.039001000000000E-01     -1.751953000000000E+02      6.604309000000000E-01     -9.319530000000000E+01
4828000000.000000      3.832397000000000E-01     -1.442734000000000E+02      4.156494000000000E-01     -6.792187000000000E+01      4.072266000000000E-01     -1.751797000000000E+02      6.618347000000000E-01     -9.322657000000000E+01
4829000000.000000      3.857574000000000E-01     -1.451641000000000E+02      4.183807000000000E-01     -6.822656000000000E+01      4.112396000000000E-01     -1.751641000000000E+02      6.623535000000000E-01     -9.332031000000000E+01
4830000000.000000      3.914032000000000E-01     -1.461250000000000E+02      4.216614000000000E-01     -6.839453000000000E+01      4.156799000000000E-01     -1.752734000000000E+02      6.641541000000000E-01     -9.342968000000000E+01
4831000000.000000      3.951263000000000E-01     -1.470547000000000E+02      4.256592000000000E-01     -6.897265000000000E+01      4.196930000000000E-01     -1.751016000000000E+02      6.653137000000000E-01     -9.343359000000000E+01
4832000000.000000      4.010468000000000E-01     -1.479219000000000E+02      4.293365000000000E-01     -6.921093000000000E+01      4.224548000000000E-01     -1.752578000000000E+02      6.674194000000000E-01     -9.352343000000000E+01
4833000000.000000      4.062805000000000E-01     -1.489141000000000E+02      4.320984000000000E-01     -6.941406000000000E+01      4.265289000000000E-01     -1.754141000000000E+02      6.696777000000000E-01     -9.353516000000000E+01
4834000000.000000      4.105682000000000E-01     -1.497813000000000E+02      4.345703000000000E-01     -6.982031000000000E+01      4.308472000000000E-01     -1.754688000000000E+02      6.701965000000000E-01     -9.362890000000000E+01
4835000000.000000      4.150543000000000E-01     -1.505547000000000E+02      4.386444000000000E-01     -7.012109000000000E+01      4.353485000000000E-01     -1.754141000000000E+02      6.733093000000000E-01     -9.365625000000000E+01
4836000000.000000      4.209747000000000E-01     -1.513281000000000E+02      4.407349000000000E-01     -7.035937000000000E+01      4.385681000000000E-01     -1.754609000000000E+02      6.737671000000000E-01     -9.383984000000000E+01
4837000000.000000      4.259186000000000E-01     -1.520781000000000E+02      4.428864000000000E-01     -7.082812000000000E+01      4.426727000000000E-01     -1.757578000000000E+02      6.765747000000000E-01     -9.372265000000000E+01
4838000000.000000      4.313660000000000E-01     -1.530547000000000E+02      4.473724000000000E-01     -7.100390000000000E+01      4.467163000000000E-01     -1.756797000000000E+02      6.784363000000000E-01     -9.383984000000000E+01
4839000000.000000      4.363098000000000E-01     -1.537031000000000E+02      4.485474000000000E-01     -7.127343000000000E+01      4.501495000000000E-01     -1.756875000000000E+02      6.815491000000000E-01     -9.382421000000000E+01
4840000000.000000      4.407043000000000E-01     -1.545469000000000E+02      4.527130000000000E-01     -7.157421000000000E+01      4.546814000000000E-01     -1.758281000000000E+02      6.837158000000000E-01     -9.387499000000000E+01
4841000000.000000      4.465790000000000E-01     -1.553437000000000E+02      4.548645000000000E-01     -7.206640000000000E+01      4.581146000000000E-01     -1.759453000000000E+02      6.855774000000000E-01     -9.403124000000000E+01
4842000000.000000      4.521637000000000E-01     -1.560078000000000E+02      4.575348000000000E-01     -7.233203000000000E+01      4.608917000000000E-01     -1.759531000000000E+02      6.880798000000000E-01     -9.412109000000000E+01
4843000000.000000      4.566956000000000E-01     -1.567891000000000E+02      4.602661000000000E-01     -7.272265000000000E+01      4.654846000000000E-01     -1.760703000000000E+02      6.900330000000000E-01     -9.405468000000000E+01
4844000000.000000      4.618530000000000E-01     -1.574922000000000E+02      4.629517000000000E-01     -7.290625000000000E+01      4.690857000000000E-01     -1.762422000000000E+02      6.932373000000000E-01     -9.423828000000000E+01
4845000000.000000      4.664001000000000E-01     -1.580312000000000E+02      4.652710000000000E-01     -7.314453000000000E+01      4.732513000000000E-01     -1.762734000000000E+02      6.942444000000000E-01     -9.418360000000000E+01
4846000000.000000      4.715118000000000E-01     -1.586797000000000E+02      4.678040000000000E-01     -7.366405000000000E+01      4.773254000000000E-01     -1.763828000000000E+02      6.992188000000000E-01     -9.423046000000000E+01
4847000000.000000      4.771118000000000E-01     -1.594375000000000E+02      4.703064000000000E-01     -7.384766000000000E+01      4.812164000000000E-01     -1.765312000000000E+02      7.004700000000000E-01     -9.433985000000000E+01
4848000000.000000      4.818268000000000E-01     -1.600000000000000E+02      4.720306000000000E-01     -7.426171000000000E+01      4.852753000000000E-01     -1.765391000000000E+02      7.025146000000000E-01     -9.441015000000000E+01
4849000000.000000      4.867706000000000E-01     -1.608594000000000E+02      4.750061000000000E-01     -7.470703000000000E+01      4.891815000000000E-01     -1.767500000000000E+02      7.059937000000000E-01     -9.439844000000000E+01
4850000000.000000      4.913330000000000E-01     -1.612734000000000E+02      4.767456000000000E-01     -7.490234000000000E+01      4.927216000000000E-01     -1.768203000000000E+02      7.087708000000000E-01     -9.442577000000000E+01
4851000000.000000      4.959412000000000E-01     -1.619375000000000E+02      4.795380000000000E-01     -7.532421000000000E+01      4.959869000000000E-01     -1.769609000000000E+02      7.115479000000000E-01     -9.448437000000000E+01
4852000000.000000      5.011292000000000E-01     -1.623828000000000E+02      4.813843000000000E-01     -7.560937000000000E+01      5.001831000000000E-01     -1.769140000000000E+02      7.143555000000000E-01     -9.453905000000000E+01
4853000000.000000      5.050964000000000E-01     -1.630703000000000E+02      4.828644000000000E-01     -7.596093000000000E+01      5.041504000000000E-01     -1.774219000000000E+02      7.177734000000000E-01     -9.471874000000000E+01
4854000000.000000      5.095520000000000E-01     -1.635547000000000E+02      4.850616000000000E-01     -7.636328000000000E+01      5.064392000000000E-01     -1.773281000000000E+02      7.193909000000000E-01     -9.465624000000000E+01
4855000000.000000      5.126038000000000E-01     -1.641562000000000E+02      4.853821000000000E-01     -7.658203000000000E+01      5.094910000000000E-01     -1.773984000000000E+02      7.225037000000000E-01     -9.470312000000000E+01
4856000000.000000      5.175171000000000E-01     -1.646172000000000E+02      4.887390000000000E-01     -7.680078000000000E+01      5.142517000000000E-01     -1.776172000000000E+02      7.254028000000000E-01     -9.476563000000000E+01
4857000000.000000      5.212402000000000E-01     -1.651641000000000E+02      4.907379000000000E-01     -7.712109000000000E+01      5.180969000000000E-01     -1.776797000000000E+02      7.271729000000000E-01     -9.474609000000000E+01
4858000000.000000      5.237122000000000E-01     -1.657422000000000E+02      4.937134000000000E-01     -7.737890000000000E+01      5.219727000000000E-01     -1.779375000000000E+02      7.313232000000000E-01     -9.484375000000000E+01
4859000000.000000      5.280762000000000E-01     -1.662422000000000E+02      4.948730000000000E-01     -7.797656000000000E+01      5.258789000000000E-01     -1.781250000000000E+02      7.348633000000000E-01     -9.503515000000000E+01
4860000000.000000      5.315857000000000E-01     -1.666484000000000E+02      4.959412000000000E-01     -7.792969000000000E+01      5.269775000000000E-01     -1.784141000000000E+02      7.370300000000000E-01     -9.482813000000000E+01
4861000000.000000      5.341797000000000E-01     -1.669609000000000E+02      4.963684000000000E-01     -7.847656000000000E+01      5.320129000000000E-01     -1.783984000000000E+02      7.382202000000000E-01     -9.503906000000000E+01
4862000000.000000      5.379944000000000E-01     -1.674687000000000E+02      4.993896000000000E-01     -7.868750000000000E+01      5.356140000000000E-01     -1.786719000000000E+02      7.438965000000000E-01     -9.500780000000000E+01
4863000000.000000      5.397644000000000E-01     -1.678750000000000E+02      4.993134000000000E-01     -7.916797000000000E+01      5.381470000000000E-01     -1.787266000000000E+02      7.458191000000000E-01     -9.500391000000000E+01
4864000000.000000      5.425110000000000E-01     -1.683203000000000E+02      5.011902000000000E-01     -7.930078000000000E+01      5.401611000000000E-01     -1.788750000000000E+02      7.481689000000000E-01     -9.508984000000000E+01
4865000000.000000      5.450134000000000E-01     -1.687656000000000E+02      5.020752000000000E-01     -7.952734000000000E+01      5.430908000000000E-01     -1.792109000000000E+02      7.514038000000000E-01     -9.493750000000000E+01
4866000000.000000      5.465393000000000E-01     -1.689922000000000E+02      5.030823000000000E-01     -7.979687000000000E+01      5.472107000000000E-01     -1.793906000000000E+02      7.536316000000000E-01     -9.510937000000000E+01
4867000000.000000      5.486450000000000E-01     -1.693438000000000E+02      5.046692000000000E-01     -8.003515000000000E+01      5.490723000000000E-01     -1.794688000000000E+02      7.563477000000000E-01     -9.520702000000000E+01
4868000000.000000      5.513306000000000E-01     -1.698047000000000E+02      5.072021000000000E-01     -8.050781000000000E+01      5.523376000000000E-01     -1.798203000000000E+02      7.598572000000000E-01     -9.533983000000000E+01
4869000000.000000      5.519104000000000E-01     -1.700391000000000E+02      5.059204000000000E-01     -8.060156000000000E+01      5.548096000000000E-01      1.799922000000000E+02      7.619324000000000E-01     -9.534765000000000E+01
4870000000.000000      5.536499000000000E-01     -1.704453000000000E+02      5.072632000000000E-01     -8.067186000000000E+01      5.567627000000000E-01      1.798750000000000E+02      7.645569000000000E-01     -9.533203000000000E+01
4871000000.000000      5.556641000000000E-01     -1.707656000000000E+02      5.092468000000000E-01     -8.114061000000000E+01      5.589294000000000E-01      1.796562000000000E+02      7.662659000000000E-01     -9.557421000000000E+01
4872000000.000000      5.571594000000000E-01     -1.709531000000000E+02      5.094299000000000E-01     -8.129297000000000E+01      5.622559000000000E-01      1.792109000000000E+02      7.693176000000000E-01     -9.541407000000000E+01
4873000000.000000      5.579224000000000E-01     -1.711250000000000E+02      5.097351000000000E-01     -8.163671000000000E+01      5.649414000000000E-01      1.792031000000000E+02      7.713013000000000E-01     -9.552734000000000E+01
4874000000.000000      5.590820000000000E-01     -1.714219000000000E+02      5.111694000000000E-01     -8.192186000000000E+01      5.671387000000000E-01      1.789297000000000E+02      7.741699000000000E-01     -9.541796000000000E+01
4875000000.000000      5.595093000000000E-01     -1.717578000000000E+02      5.110779000000000E-01     -8.212109000000000E+01      5.695801000000000E-01      1.786406000000000E+02      7.754211000000000E-01     -9.569139000000000E+01
4876000000.000000      5.596619000000000E-01     -1.718984000000000E+02      5.139771000000000E-01     -8.226954000000000E+01      5.696411000000000E-01      1.785312000000000E+02      7.774048000000000E-01     -9.566406000000000E+01
4877000000.000000      5.597839000000000E-01     -1.721406000000000E+02      5.137024000000000E-01     -8.252344000000000E+01      5.729370000000000E-01      1.781875000000000E+02      7.808228000000000E-01     -9.564453000000000E+01
4878000000.000000      5.609131000000000E-01     -1.723125000000000E+02      5.161743000000000E-01     -8.266016000000000E+01      5.749207000000000E-01      1.780547000000000E+02      7.826843000000000E-01     -9.585546000000000E+01
4879000000.000000      5.614319000000000E-01     -1.725156000000000E+02      5.141907000000000E-01     -8.292578000000000E+01      5.762329000000000E-01      1.780625000000000E+02      7.851257000000000E-01     -9.571093000000000E+01
4880000000.000000      5.596313000000000E-01     -1.726094000000000E+02      5.158997000000000E-01     -8.310156000000000E+01      5.791626000000000E-01      1.777187000000000E+02      7.870789000000000E-01     -9.574610000000000E+01
4881000000.000000      5.611572000000000E-01     -1.727344000000000E+02      5.177612000000000E-01     -8.324610000000000E+01      5.807495000000000E-01      1.774219000000000E+02      7.889099000000000E-01     -9.579687000000000E+01
4882000000.000000      5.594482000000000E-01     -1.728828000000000E+02      5.184326000000000E-01     -8.347656000000000E+01      5.830078000000000E-01      1.774375000000000E+02      7.897644000000000E-01     -9.588282000000000E+01
