! Network Analyzer HP8722D
! Hewlett-Packard
! Data name: Linha & Wilkinson
! Saver's name: Rodrigo Anjos
! Comments: Teste da utilização de aquisição
continua pelo VNA HP8722D
! Time and date: 17/4/2025 17:57
!              Frequency                     S11                                                   S21                                                   S12                                                   S22
# HZ  S  MA R 50
4800000000.000000      3.333130000000000E-01     -1.135156000000000E+02      2.922974000000000E-01     -6.069140000000000E+01      2.860718000000000E-01     -1.749531000000000E+02      6.578064000000000E-01     -9.003906000000000E+01
4801000000.000000      3.324585000000000E-01     -1.143984000000000E+02      2.970276000000000E-01     -6.082031000000000E+01      2.895050000000000E-01     -1.750000000000000E+02      6.559143000000000E-01     -9.010546000000000E+01
4802000000.000000      3.311462000000000E-01     -1.154570000000000E+02      3.008270000000000E-01     -6.079687000000000E+01      2.940369000000000E-01     -1.746953000000000E+02      6.550598000000000E-01     -9.016796000000000E+01
4803000000.000000      3.306580000000000E-01     -1.164492000000000E+02      3.066559000000000E-01     -6.091797000000000E+01      2.974854000000000E-01     -1.746562000000000E+02      6.541443000000000E-01     -9.021875000000000E+01
4804000000.000000      3.302612000000000E-01     -1.174414000000000E+02      3.109131000000000E-01     -6.101757000000000E+01      3.017426000000000E-01     -1.746328000000000E+02      6.538391000000000E-01     -9.028515000000000E+01
4805000000.000000      3.302612000000000E-01     -1.185195000000000E+02      3.147278000000000E-01     -6.135351000000000E+01      3.064575000000000E-01     -1.743281000000000E+02      6.536560000000000E-01     -9.054296000000000E+01
4806000000.000000      3.297882000000000E-01     -1.193906000000000E+02      3.194733000000000E-01     -6.132813000000000E+01      3.094177000000000E-01     -1.742422000000000E+02      6.534424000000000E-01     -9.063280000000000E+01
4807000000.000000      3.298645000000000E-01     -1.206562000000000E+02      3.237000000000000E-01     -6.169335000000000E+01      3.139496000000000E-01     -1.743125000000000E+02      6.514282000000000E-01     -9.067968000000000E+01
4808000000.000000      3.305817000000000E-01     -1.217070000000000E+02      3.283539000000000E-01     -6.160937000000000E+01      3.177185000000000E-01     -1.742344000000000E+02      6.506653000000000E-01     -9.066406000000000E+01
4809000000.000000      3.309174000000000E-01     -1.226641000000000E+02      3.328705000000000E-01     -6.208008000000000E+01      3.224792000000000E-01     -1.742891000000000E+02      6.506348000000000E-01     -9.080858000000000E+01
4810000000.000000      3.309479000000000E-01     -1.238477000000000E+02      3.367462000000000E-01     -6.205664000000000E+01      3.260193000000000E-01     -1.741328000000000E+02      6.511536000000000E-01     -9.101171000000000E+01
4811000000.000000      3.327026000000000E-01     -1.249219000000000E+02      3.418884000000000E-01     -6.250586000000000E+01      3.311462000000000E-01     -1.740937000000000E+02      6.503906000000000E-01     -9.098436000000000E+01
4812000000.000000      3.337555000000000E-01     -1.259258000000000E+02      3.454590000000000E-01     -6.270117000000000E+01      3.349762000000000E-01     -1.739375000000000E+02      6.507568000000000E-01     -9.110546000000000E+01
4813000000.000000      3.351135000000000E-01     -1.270742000000000E+02      3.492126000000000E-01     -6.293945000000000E+01      3.374939000000000E-01     -1.738437000000000E+02      6.496887000000000E-01     -9.110546000000000E+01
4814000000.000000      3.360443000000000E-01     -1.282812000000000E+02      3.539581000000000E-01     -6.291016000000000E+01      3.428802000000000E-01     -1.738750000000000E+02      6.498413000000000E-01     -9.135157000000000E+01
4815000000.000000      3.375549000000000E-01     -1.291875000000000E+02      3.575439000000000E-01     -6.315234000000000E+01      3.460999000000000E-01     -1.738203000000000E+02      6.495056000000000E-01     -9.134375000000000E+01
4816000000.000000      3.397827000000000E-01     -1.302891000000000E+02      3.623657000000000E-01     -6.329883000000000E+01      3.510437000000000E-01     -1.736328000000000E+02      6.503296000000000E-01     -9.138672000000000E+01
4817000000.000000      3.425446000000000E-01     -1.314766000000000E+02      3.658600000000000E-01     -6.372265000000000E+01      3.537598000000000E-01     -1.737344000000000E+02      6.500549000000000E-01     -9.152735000000000E+01
4818000000.000000      3.440704000000000E-01     -1.325469000000000E+02      3.705139000000000E-01     -6.389843000000000E+01      3.586121000000000E-01     -1.737734000000000E+02      6.514893000000000E-01     -9.160936000000000E+01
4819000000.000000      3.471527000000000E-01     -1.336250000000000E+02      3.738556000000000E-01     -6.412890000000000E+01      3.614502000000000E-01     -1.736641000000000E+02      6.521606000000000E-01     -9.171484000000000E+01
4820000000.000000      3.493347000000000E-01     -1.346484000000000E+02      3.775177000000000E-01     -6.432422000000000E+01      3.667908000000000E-01     -1.737578000000000E+02      6.529846000000000E-01     -9.178125000000000E+01
4821000000.000000      3.524933000000000E-01     -1.357734000000000E+02      3.818665000000000E-01     -6.465234000000000E+01      3.699036000000000E-01     -1.737890000000000E+02      6.516724000000000E-01     -9.184374000000000E+01
4822000000.000000      3.566437000000000E-01     -1.368438000000000E+02      3.847351000000000E-01     -6.494141000000000E+01      3.737335000000000E-01     -1.737656000000000E+02      6.546631000000000E-01     -9.191406000000000E+01
4823000000.000000      3.592834000000000E-01     -1.378438000000000E+02      3.889771000000000E-01     -6.498828000000000E+01      3.782349000000000E-01     -1.735703000000000E+02      6.544800000000000E-01     -9.200781000000000E+01
4824000000.000000      3.636475000000000E-01     -1.389922000000000E+02      3.920288000000000E-01     -6.559765000000000E+01      3.828583000000000E-01     -1.737500000000000E+02      6.556702000000000E-01     -9.197657000000000E+01
4825000000.000000      3.666687000000000E-01     -1.399062000000000E+02      3.969421000000000E-01     -6.573047000000000E+01      3.869324000000000E-01     -1.736953000000000E+02      6.568298000000000E-01     -9.199610000000000E+01
4826000000.000000      3.709412000000000E-01     -1.410078000000000E+02      4.010468000000000E-01     -6.606640000000000E+01      3.896027000000000E-01     -1.737031000000000E+02      6.586304000000000E-01     -9.216015000000000E+01
4827000000.000000      3.749542000000000E-01     -1.417656000000000E+02      4.041290000000000E-01     -6.615624000000000E+01      3.941956000000000E-01     -1.736875000000000E+02      6.603394000000000E-01     -9.212500000000000E+01
4828000000.000000      3.798676000000000E-01     -1.428750000000000E+02      4.081879000000000E-01     -6.648828000000000E+01      3.981018000000000E-01     -1.736406000000000E+02      6.615601000000000E-01     -9.223436000000000E+01
4829000000.000000      3.824768000000000E-01     -1.437187000000000E+02      4.111328000000000E-01     -6.682031000000000E+01      4.018402000000000E-01     -1.736406000000000E+02      6.625366000000000E-01     -9.226563000000000E+01
4830000000.000000      3.878021000000000E-01     -1.447500000000000E+02      4.144287000000000E-01     -6.717578000000000E+01      4.064484000000000E-01     -1.736484000000000E+02      6.641235000000000E-01     -9.239843000000000E+01
4831000000.000000      3.918304000000000E-01     -1.456640000000000E+02      4.168243000000000E-01     -6.750390000000000E+01      4.110718000000000E-01     -1.737109000000000E+02      6.659851000000000E-01     -9.241405000000000E+01
4832000000.000000      3.971100000000000E-01     -1.465391000000000E+02      4.218750000000000E-01     -6.761328000000000E+01      4.142609000000000E-01     -1.738047000000000E+02      6.673584000000000E-01     -9.257421000000000E+01
4833000000.000000      4.024200000000000E-01     -1.475312000000000E+02      4.250793000000000E-01     -6.802343000000000E+01      4.181976000000000E-01     -1.738437000000000E+02      6.689758000000000E-01     -9.257813000000000E+01
4834000000.000000      4.066925000000000E-01     -1.484297000000000E+02      4.278107000000000E-01     -6.836719000000000E+01      4.220886000000000E-01     -1.737813000000000E+02      6.701660000000000E-01     -9.264063000000000E+01
4835000000.000000      4.110718000000000E-01     -1.491875000000000E+02      4.311523000000000E-01     -6.857031000000000E+01      4.264221000000000E-01     -1.738516000000000E+02      6.726990000000000E-01     -9.277735000000000E+01
4836000000.000000      4.176636000000000E-01     -1.499766000000000E+02      4.344025000000000E-01     -6.896484000000000E+01      4.304657000000000E-01     -1.738672000000000E+02      6.732178000000000E-01     -9.268358000000000E+01
4837000000.000000      4.220123000000000E-01     -1.507031000000000E+02      4.376678000000000E-01     -6.934765000000000E+01      4.346313000000000E-01     -1.739922000000000E+02      6.761780000000000E-01     -9.277344000000000E+01
4838000000.000000      4.274597000000000E-01     -1.516875000000000E+02      4.412537000000000E-01     -6.941015000000000E+01      4.389038000000000E-01     -1.739766000000000E+02      6.787109000000000E-01     -9.286327000000000E+01
4839000000.000000      4.328461000000000E-01     -1.523438000000000E+02      4.429169000000000E-01     -6.988281000000000E+01      4.426727000000000E-01     -1.739844000000000E+02      6.815491000000000E-01     -9.289843000000000E+01
4840000000.000000      4.371643000000000E-01     -1.532656000000000E+02      4.468231000000000E-01     -7.005468000000000E+01      4.468994000000000E-01     -1.741172000000000E+02      6.839294000000000E-01     -9.298046000000000E+01
4841000000.000000      4.429474000000000E-01     -1.540156000000000E+02      4.497070000000000E-01     -7.060937000000000E+01      4.506378000000000E-01     -1.742734000000000E+02      6.849976000000000E-01     -9.299999000000000E+01
4842000000.000000      4.486847000000000E-01     -1.546406000000000E+02      4.524536000000000E-01     -7.079296000000000E+01      4.542694000000000E-01     -1.743672000000000E+02      6.883545000000000E-01     -9.305079000000000E+01
4843000000.000000      4.532318000000000E-01     -1.554531000000000E+02      4.557800000000000E-01     -7.117578000000000E+01      4.582062000000000E-01     -1.743906000000000E+02      6.904602000000000E-01     -9.312109000000000E+01
4844000000.000000      4.582977000000000E-01     -1.561094000000000E+02      4.582214000000000E-01     -7.150781000000000E+01      4.622650000000000E-01     -1.744609000000000E+02      6.916504000000000E-01     -9.317968000000000E+01
4845000000.000000      4.633942000000000E-01     -1.567422000000000E+02      4.604797000000000E-01     -7.191796000000000E+01      4.668427000000000E-01     -1.746094000000000E+02      6.949768000000000E-01     -9.327343000000000E+01
4846000000.000000      4.685516000000000E-01     -1.573750000000000E+02      4.633179000000000E-01     -7.214844000000000E+01      4.710999000000000E-01     -1.746484000000000E+02      6.981201000000000E-01     -9.317186000000000E+01
4847000000.000000      4.743042000000000E-01     -1.581172000000000E+02      4.664917000000000E-01     -7.248047000000000E+01      4.752197000000000E-01     -1.748203000000000E+02      7.015686000000000E-01     -9.342188000000000E+01
4848000000.000000      4.795532000000000E-01     -1.587265000000000E+02      4.665680000000000E-01     -7.272655000000000E+01      4.786530000000000E-01     -1.749219000000000E+02      7.037659000000000E-01     -9.335155000000000E+01
4849000000.000000      4.839783000000000E-01     -1.595703000000000E+02      4.711609000000000E-01     -7.321094000000000E+01      4.835815000000000E-01     -1.750391000000000E+02      7.059631000000000E-01     -9.337500000000000E+01
4850000000.000000      4.891205000000000E-01     -1.600078000000000E+02      4.731598000000000E-01     -7.332812000000000E+01      4.867249000000000E-01     -1.751016000000000E+02      7.087402000000000E-01     -9.333593000000000E+01
4851000000.000000      4.942932000000000E-01     -1.605781000000000E+02      4.756775000000000E-01     -7.384766000000000E+01      4.901123000000000E-01     -1.752578000000000E+02      7.126160000000000E-01     -9.334375000000000E+01
4852000000.000000      4.991913000000000E-01     -1.611797000000000E+02      4.780884000000000E-01     -7.417969000000000E+01      4.951172000000000E-01     -1.753750000000000E+02      7.149353000000000E-01     -9.353125000000000E+01
4853000000.000000      5.034485000000000E-01     -1.617500000000000E+02      4.780121000000000E-01     -7.441796000000000E+01      4.988861000000000E-01     -1.755938000000000E+02      7.176514000000000E-01     -9.366014000000000E+01
4854000000.000000      5.076599000000000E-01     -1.622813000000000E+02      4.824524000000000E-01     -7.485156000000000E+01      5.023804000000000E-01     -1.758203000000000E+02      7.200928000000000E-01     -9.361328000000000E+01
4855000000.000000      5.109558000000000E-01     -1.628125000000000E+02      4.834290000000000E-01     -7.507813000000000E+01      5.060730000000000E-01     -1.757500000000000E+02      7.221375000000000E-01     -9.365625000000000E+01
4856000000.000000      5.161133000000000E-01     -1.633984000000000E+02      4.866028000000000E-01     -7.533984000000000E+01      5.106201000000000E-01     -1.759375000000000E+02      7.262573000000000E-01     -9.369141000000000E+01
4857000000.000000      5.208435000000000E-01     -1.638984000000000E+02      4.875336000000000E-01     -7.570313000000000E+01      5.131836000000000E-01     -1.761328000000000E+02      7.292786000000000E-01     -9.365625000000000E+01
4858000000.000000      5.228271000000000E-01     -1.644219000000000E+02      4.903870000000000E-01     -7.596093000000000E+01      5.166931000000000E-01     -1.763828000000000E+02      7.309265000000000E-01     -9.378515000000000E+01
4859000000.000000      5.269775000000000E-01     -1.649609000000000E+02      4.919128000000000E-01     -7.630859000000000E+01      5.202637000000000E-01     -1.766406000000000E+02      7.353516000000000E-01     -9.400391000000000E+01
4860000000.000000      5.315857000000000E-01     -1.654140000000000E+02      4.938965000000000E-01     -7.662499000000000E+01      5.236816000000000E-01     -1.766406000000000E+02      7.379150000000000E-01     -9.371094000000000E+01
4861000000.000000      5.341492000000000E-01     -1.657734000000000E+02      4.945831000000000E-01     -7.698437000000000E+01      5.270691000000000E-01     -1.768594000000000E+02      7.408142000000000E-01     -9.398046000000000E+01
4862000000.000000      5.373230000000000E-01     -1.662578000000000E+02      4.980164000000000E-01     -7.711328000000000E+01      5.311584000000000E-01     -1.770859000000000E+02      7.449951000000000E-01     -9.388672000000000E+01
4863000000.000000      5.393677000000000E-01     -1.666406000000000E+02      4.973907000000000E-01     -7.769531000000000E+01      5.351257000000000E-01     -1.772500000000000E+02      7.470093000000000E-01     -9.398438000000000E+01
4864000000.000000      5.434265000000000E-01     -1.671406000000000E+02      4.998322000000000E-01     -7.766796000000000E+01      5.364685000000000E-01     -1.773125000000000E+02      7.490540000000000E-01     -9.406250000000000E+01
4865000000.000000      5.455322000000000E-01     -1.675937000000000E+02      5.018311000000000E-01     -7.809375000000000E+01      5.408020000000000E-01     -1.776328000000000E+02      7.524414000000000E-01     -9.405859000000000E+01
4866000000.000000      5.476074000000000E-01     -1.678125000000000E+02      5.017090000000000E-01     -7.828906000000000E+01      5.437622000000000E-01     -1.777344000000000E+02      7.563171000000000E-01     -9.404688000000000E+01
4867000000.000000      5.490112000000000E-01     -1.682109000000000E+02      5.040588000000000E-01     -7.873437000000000E+01      5.457764000000000E-01     -1.778750000000000E+02      7.580566000000000E-01     -9.404688000000000E+01
4868000000.000000      5.531311000000000E-01     -1.686016000000000E+02      5.050049000000000E-01     -7.903515000000000E+01      5.495911000000000E-01     -1.781563000000000E+02      7.605591000000000E-01     -9.407030000000000E+01
4869000000.000000      5.533142000000000E-01     -1.688750000000000E+02      5.055542000000000E-01     -7.921875000000000E+01      5.527039000000000E-01     -1.784141000000000E+02      7.648315000000000E-01     -9.421093000000000E+01
4870000000.000000      5.556946000000000E-01     -1.692656000000000E+02      5.087891000000000E-01     -7.934375000000000E+01      5.546570000000000E-01     -1.786406000000000E+02      7.662659000000000E-01     -9.423437000000000E+01
4871000000.000000      5.575256000000000E-01     -1.696484000000000E+02      5.084229000000000E-01     -7.974218000000000E+01      5.573730000000000E-01     -1.788750000000000E+02      7.685547000000000E-01     -9.428125000000000E+01
4872000000.000000      5.595398000000000E-01     -1.698594000000000E+02      5.095520000000000E-01     -7.980859000000000E+01      5.602722000000000E-01     -1.791172000000000E+02      7.708435000000000E-01     -9.448046000000000E+01
4873000000.000000      5.595398000000000E-01     -1.701094000000000E+02      5.104980000000000E-01     -8.023046000000000E+01      5.630493000000000E-01     -1.791641000000000E+02      7.735291000000000E-01     -9.439453000000000E+01
4874000000.000000      5.599670000000000E-01     -1.702422000000000E+02      5.118103000000000E-01     -8.044922000000000E+01      5.665283000000000E-01     -1.794609000000000E+02      7.760925000000000E-01     -9.437891000000000E+01
4875000000.000000      5.626526000000000E-01     -1.706328000000000E+02      5.121460000000000E-01     -8.062891000000000E+01      5.677795000000000E-01     -1.797656000000000E+02      7.770691000000000E-01     -9.448828000000000E+01
4876000000.000000      5.619507000000000E-01     -1.708125000000000E+02      5.131226000000000E-01     -8.094141000000000E+01      5.683289000000000E-01     -1.797812000000000E+02      7.812195000000000E-01     -9.461329000000000E+01
4877000000.000000      5.626221000000000E-01     -1.710312000000000E+02      5.150146000000000E-01     -8.101171000000000E+01      5.725098000000000E-01      1.798047000000000E+02      7.841797000000000E-01     -9.459375000000000E+01
4878000000.000000      5.635986000000000E-01     -1.711875000000000E+02      5.152893000000000E-01     -8.147264000000000E+01      5.739136000000000E-01      1.797734000000000E+02      7.857056000000000E-01     -9.469921000000000E+01
4879000000.000000      5.648193000000000E-01     -1.714844000000000E+02      5.159302000000000E-01     -8.134766000000000E+01      5.766602000000000E-01      1.794141000000000E+02      7.881165000000000E-01     -9.457811000000000E+01
4880000000.000000      5.637512000000000E-01     -1.716406000000000E+02      5.169373000000000E-01     -8.174219000000000E+01      5.801086000000000E-01      1.792578000000000E+02      7.905273000000000E-01     -9.463282000000000E+01
4881000000.000000      5.652466000000000E-01     -1.716875000000000E+02      5.192261000000000E-01     -8.178514000000000E+01      5.831299000000000E-01      1.789141000000000E+02      7.922668000000000E-01     -9.471483000000000E+01
4882000000.000000      5.631714000000000E-01     -1.717891000000000E+02      5.195923000000000E-01     -8.203516000000000E+01      5.827637000000000E-01      1.788672000000000E+02      7.935791000000000E-01     -9.474218000000000E+01
