! Network Analyzer HP8722D
! Hewlett-Packard
! Data name: Linha & Wilkinson
! Saver's name: Rodrigo Anjos
! Comments: Teste da utilização de aquisição
continua pelo VNA HP8722D
! Time and date: 17/4/2025 16:08
!              Frequency                     S11                                                   S21                                                   S12                                                   S22
# HZ  S  MA R 50
4800000000.000000      3.363190000000000E-01     -1.159219000000000E+02      3.085632000000000E-01     -6.189062000000000E+01      3.029175000000000E-01     -1.761875000000000E+02      6.585083000000000E-01     -9.097265000000000E+01
4801000000.000000      3.349457000000000E-01     -1.168125000000000E+02      3.133545000000000E-01     -6.196875000000000E+01      3.064117000000000E-01     -1.760469000000000E+02      6.560059000000000E-01     -9.112108000000000E+01
4802000000.000000      3.342590000000000E-01     -1.179609000000000E+02      3.177643000000000E-01     -6.209374000000000E+01      3.112030000000000E-01     -1.760781000000000E+02      6.538391000000000E-01     -9.118750000000000E+01
4803000000.000000      3.341217000000000E-01     -1.189609000000000E+02      3.230743000000000E-01     -6.231054000000000E+01      3.137512000000000E-01     -1.758828000000000E+02      6.534424000000000E-01     -9.129297000000000E+01
4804000000.000000      3.334656000000000E-01     -1.198906000000000E+02      3.256989000000000E-01     -6.246679000000000E+01      3.184509000000000E-01     -1.760156000000000E+02      6.535339000000000E-01     -9.132813000000000E+01
4805000000.000000      3.334656000000000E-01     -1.209727000000000E+02      3.311615000000000E-01     -6.256445000000000E+01      3.225708000000000E-01     -1.758281000000000E+02      6.534424000000000E-01     -9.150782000000000E+01
4806000000.000000      3.327179000000000E-01     -1.218633000000000E+02      3.352051000000000E-01     -6.277538000000000E+01      3.254242000000000E-01     -1.755938000000000E+02      6.533813000000000E-01     -9.159765000000000E+01
4807000000.000000      3.329468000000000E-01     -1.230312000000000E+02      3.388062000000000E-01     -6.295703000000000E+01      3.304749000000000E-01     -1.758437000000000E+02      6.509094000000000E-01     -9.163280000000000E+01
4808000000.000000      3.339844000000000E-01     -1.240391000000000E+02      3.438263000000000E-01     -6.307031000000000E+01      3.330841000000000E-01     -1.756172000000000E+02      6.507263000000000E-01     -9.172266000000000E+01
4809000000.000000      3.341675000000000E-01     -1.252109000000000E+02      3.475494000000000E-01     -6.358398000000000E+01      3.380585000000000E-01     -1.757969000000000E+02      6.504517000000000E-01     -9.185156000000000E+01
4810000000.000000      3.354645000000000E-01     -1.263164000000000E+02      3.519897000000000E-01     -6.350976000000000E+01      3.416443000000000E-01     -1.756953000000000E+02      6.518555000000000E-01     -9.196484000000000E+01
4811000000.000000      3.367615000000000E-01     -1.274961000000000E+02      3.563995000000000E-01     -6.395312000000000E+01      3.472595000000000E-01     -1.755781000000000E+02      6.499329000000000E-01     -9.205078000000000E+01
4812000000.000000      3.386383000000000E-01     -1.284141000000000E+02      3.604889000000000E-01     -6.420312000000000E+01      3.496399000000000E-01     -1.755469000000000E+02      6.498413000000000E-01     -9.209375000000000E+01
4813000000.000000      3.393097000000000E-01     -1.296172000000000E+02      3.648682000000000E-01     -6.441015000000000E+01      3.528748000000000E-01     -1.754531000000000E+02      6.503296000000000E-01     -9.208202000000000E+01
4814000000.000000      3.406677000000000E-01     -1.308125000000000E+02      3.685303000000000E-01     -6.457031000000000E+01      3.570404000000000E-01     -1.754531000000000E+02      6.503906000000000E-01     -9.229687000000000E+01
4815000000.000000      3.425293000000000E-01     -1.317500000000000E+02      3.715973000000000E-01     -6.471093000000000E+01      3.607941000000000E-01     -1.755000000000000E+02      6.497803000000000E-01     -9.222265000000000E+01
4816000000.000000      3.445282000000000E-01     -1.328438000000000E+02      3.756256000000000E-01     -6.489843000000000E+01      3.655548000000000E-01     -1.754766000000000E+02      6.496582000000000E-01     -9.238281000000000E+01
4817000000.000000      3.472748000000000E-01     -1.338594000000000E+02      3.791504000000000E-01     -6.540625000000000E+01      3.681793000000000E-01     -1.755078000000000E+02      6.504517000000000E-01     -9.245703000000000E+01
4818000000.000000      3.492279000000000E-01     -1.350312000000000E+02      3.831177000000000E-01     -6.557422000000000E+01      3.726654000000000E-01     -1.753906000000000E+02      6.505127000000000E-01     -9.255468000000000E+01
4819000000.000000      3.523102000000000E-01     -1.360781000000000E+02      3.866425000000000E-01     -6.581249000000000E+01      3.756714000000000E-01     -1.754141000000000E+02      6.528320000000000E-01     -9.271093000000000E+01
4820000000.000000      3.538971000000000E-01     -1.371328000000000E+02      3.907623000000000E-01     -6.612109000000000E+01      3.803558000000000E-01     -1.755078000000000E+02      6.529846000000000E-01     -9.276171000000000E+01
4821000000.000000      3.578033000000000E-01     -1.382891000000000E+02      3.938293000000000E-01     -6.631640000000000E+01      3.832092000000000E-01     -1.755703000000000E+02      6.528931000000000E-01     -9.289063000000000E+01
4822000000.000000      3.621063000000000E-01     -1.392891000000000E+02      3.983612000000000E-01     -6.663671000000000E+01      3.877106000000000E-01     -1.755078000000000E+02      6.541748000000000E-01     -9.292578000000000E+01
4823000000.000000      3.647156000000000E-01     -1.404141000000000E+02      4.016876000000000E-01     -6.692968000000000E+01      3.909912000000000E-01     -1.753750000000000E+02      6.544189000000000E-01     -9.310547000000000E+01
4824000000.000000      3.693085000000000E-01     -1.414687000000000E+02      4.049835000000000E-01     -6.739843000000000E+01      3.961487000000000E-01     -1.756250000000000E+02      6.563721000000000E-01     -9.307812000000000E+01
4825000000.000000      3.723450000000000E-01     -1.424297000000000E+02      4.075623000000000E-01     -6.748828000000000E+01      3.993835000000000E-01     -1.755234000000000E+02      6.571655000000000E-01     -9.314062000000000E+01
4826000000.000000      3.771210000000000E-01     -1.434609000000000E+02      4.125671000000000E-01     -6.790234000000000E+01      4.025116000000000E-01     -1.756016000000000E+02      6.584473000000000E-01     -9.324219000000000E+01
4827000000.000000      3.807373000000000E-01     -1.441719000000000E+02      4.167938000000000E-01     -6.813671000000000E+01      4.065857000000000E-01     -1.755078000000000E+02      6.589050000000000E-01     -9.331249000000000E+01
4828000000.000000      3.857117000000000E-01     -1.452656000000000E+02      4.191589000000000E-01     -6.834374000000000E+01      4.105988000000000E-01     -1.756016000000000E+02      6.626892000000000E-01     -9.334764000000000E+01
4829000000.000000      3.885803000000000E-01     -1.461562000000000E+02      4.218597000000000E-01     -6.866405000000000E+01      4.143372000000000E-01     -1.756016000000000E+02      6.625977000000000E-01     -9.327343000000000E+01
4830000000.000000      3.942261000000000E-01     -1.471641000000000E+02      4.252777000000000E-01     -6.895312000000000E+01      4.186096000000000E-01     -1.756016000000000E+02      6.632385000000000E-01     -9.353516000000000E+01
4831000000.000000      3.980255000000000E-01     -1.480547000000000E+02      4.286346000000000E-01     -6.941015000000000E+01      4.224396000000000E-01     -1.755781000000000E+02      6.663208000000000E-01     -9.350389000000000E+01
4832000000.000000      4.035950000000000E-01     -1.489531000000000E+02      4.323730000000000E-01     -6.967187000000000E+01      4.249115000000000E-01     -1.757344000000000E+02      6.668091000000000E-01     -9.366014000000000E+01
4833000000.000000      4.088593000000000E-01     -1.499063000000000E+02      4.353638000000000E-01     -6.989452000000000E+01      4.292297000000000E-01     -1.757813000000000E+02      6.684570000000000E-01     -9.364452000000000E+01
4834000000.000000      4.132385000000000E-01     -1.507578000000000E+02      4.376984000000000E-01     -7.027734000000000E+01      4.334564000000000E-01     -1.758203000000000E+02      6.706238000000000E-01     -9.376562000000000E+01
4835000000.000000      4.177094000000000E-01     -1.515625000000000E+02      4.417419000000000E-01     -7.054296000000000E+01      4.380035000000000E-01     -1.758906000000000E+02      6.731567000000000E-01     -9.391405000000000E+01
4836000000.000000      4.237061000000000E-01     -1.523359000000000E+02      4.438629000000000E-01     -7.086328000000000E+01      4.412231000000000E-01     -1.758750000000000E+02      6.737976000000000E-01     -9.375780000000000E+01
4837000000.000000      4.282532000000000E-01     -1.530937000000000E+02      4.463959000000000E-01     -7.137890000000000E+01      4.450073000000000E-01     -1.760859000000000E+02      6.762390000000000E-01     -9.396484000000000E+01
4838000000.000000      4.336853000000000E-01     -1.540390000000000E+02      4.505157000000000E-01     -7.139843000000000E+01      4.492950000000000E-01     -1.760547000000000E+02      6.781616000000000E-01     -9.401171000000000E+01
4839000000.000000      4.391632000000000E-01     -1.546562000000000E+02      4.521332000000000E-01     -7.170703000000000E+01      4.529419000000000E-01     -1.760391000000000E+02      6.811523000000000E-01     -9.391016000000000E+01
4840000000.000000      4.433594000000000E-01     -1.555781000000000E+02      4.552612000000000E-01     -7.214844000000000E+01      4.568329000000000E-01     -1.762266000000000E+02      6.828308000000000E-01     -9.410936000000000E+01
4841000000.000000      4.488983000000000E-01     -1.563828000000000E+02      4.575653000000000E-01     -7.251953000000000E+01      4.611359000000000E-01     -1.763438000000000E+02      6.853638000000000E-01     -9.413280000000000E+01
4842000000.000000      4.542847000000000E-01     -1.569766000000000E+02      4.604797000000000E-01     -7.283203000000000E+01      4.637146000000000E-01     -1.763984000000000E+02      6.870117000000000E-01     -9.419531000000000E+01
4843000000.000000      4.582825000000000E-01     -1.577500000000000E+02      4.633331000000000E-01     -7.331249000000000E+01      4.674988000000000E-01     -1.764609000000000E+02      6.898804000000000E-01     -9.422655000000000E+01
4844000000.000000      4.640961000000000E-01     -1.584375000000000E+02      4.655914000000000E-01     -7.348437000000000E+01      4.715118000000000E-01     -1.766250000000000E+02      6.926575000000000E-01     -9.426952000000000E+01
4845000000.000000      4.684143000000000E-01     -1.591250000000000E+02      4.674835000000000E-01     -7.374218000000000E+01      4.748840000000000E-01     -1.767422000000000E+02      6.935425000000000E-01     -9.430079000000000E+01
4846000000.000000      4.731598000000000E-01     -1.596719000000000E+02      4.703217000000000E-01     -7.409765000000000E+01      4.798737000000000E-01     -1.767266000000000E+02      6.974487000000000E-01     -9.430859000000000E+01
4847000000.000000      4.791870000000000E-01     -1.604219000000000E+02      4.724579000000000E-01     -7.441015000000000E+01      4.835815000000000E-01     -1.770156000000000E+02      7.009888000000000E-01     -9.445704000000000E+01
4848000000.000000      4.839630000000000E-01     -1.610234000000000E+02      4.746399000000000E-01     -7.474218000000000E+01      4.878082000000000E-01     -1.769609000000000E+02      7.032166000000000E-01     -9.447657000000000E+01
4849000000.000000      4.882965000000000E-01     -1.618594000000000E+02      4.775543000000000E-01     -7.522265000000000E+01      4.906006000000000E-01     -1.772031000000000E+02      7.066040000000000E-01     -9.449999000000000E+01
4850000000.000000      4.933472000000000E-01     -1.622813000000000E+02      4.788208000000000E-01     -7.533203000000000E+01      4.949036000000000E-01     -1.772109000000000E+02      7.075195000000000E-01     -9.450781000000000E+01
4851000000.000000      4.979858000000000E-01     -1.628515000000000E+02      4.825745000000000E-01     -7.575781000000000E+01      4.979248000000000E-01     -1.773906000000000E+02      7.104492000000000E-01     -9.456640000000000E+01
4852000000.000000      5.024109000000000E-01     -1.634453000000000E+02      4.832611000000000E-01     -7.602344000000000E+01      5.024414000000000E-01     -1.774219000000000E+02      7.146301000000000E-01     -9.465235000000000E+01
4853000000.000000      5.070496000000000E-01     -1.640391000000000E+02      4.834747000000000E-01     -7.653125000000000E+01      5.071411000000000E-01     -1.776094000000000E+02      7.159424000000000E-01     -9.477343000000000E+01
4854000000.000000      5.110779000000000E-01     -1.645313000000000E+02      4.871979000000000E-01     -7.691015000000000E+01      5.088806000000000E-01     -1.777109000000000E+02      7.202148000000000E-01     -9.485937000000000E+01
4855000000.000000      5.138855000000000E-01     -1.651328000000000E+02      4.882660000000000E-01     -7.712109000000000E+01      5.117493000000000E-01     -1.779063000000000E+02      7.212524000000000E-01     -9.470703000000000E+01
4856000000.000000      5.186768000000000E-01     -1.655703000000000E+02      4.900665000000000E-01     -7.722656000000000E+01      5.156860000000000E-01     -1.780234000000000E+02      7.255859000000000E-01     -9.479687000000000E+01
4857000000.000000      5.222778000000000E-01     -1.661797000000000E+02      4.930115000000000E-01     -7.771093000000000E+01      5.191040000000000E-01     -1.781406000000000E+02      7.288513000000000E-01     -9.492968000000000E+01
4858000000.000000      5.240784000000000E-01     -1.665937000000000E+02      4.938202000000000E-01     -7.796875000000000E+01      5.228577000000000E-01     -1.784453000000000E+02      7.297363000000000E-01     -9.491405000000000E+01
4859000000.000000      5.287476000000000E-01     -1.671328000000000E+02      4.967957000000000E-01     -7.813281000000000E+01      5.267639000000000E-01     -1.787031000000000E+02      7.339783000000000E-01     -9.514063000000000E+01
4860000000.000000      5.328064000000000E-01     -1.676016000000000E+02      4.988251000000000E-01     -7.852734000000000E+01      5.278320000000000E-01     -1.787656000000000E+02      7.368469000000000E-01     -9.499609000000000E+01
4861000000.000000      5.354614000000000E-01     -1.679141000000000E+02      4.985199000000000E-01     -7.901172000000000E+01      5.327759000000000E-01     -1.788750000000000E+02      7.388306000000000E-01     -9.512110000000000E+01
4862000000.000000      5.381165000000000E-01     -1.683984000000000E+02      5.005798000000000E-01     -7.905859000000000E+01      5.361328000000000E-01     -1.790469000000000E+02      7.446289000000000E-01     -9.506250000000000E+01
4863000000.000000      5.398865000000000E-01     -1.688828000000000E+02      5.014343000000000E-01     -7.953515000000000E+01      5.394592000000000E-01     -1.793125000000000E+02      7.452698000000000E-01     -9.516016000000000E+01
4864000000.000000      5.433350000000000E-01     -1.692109000000000E+02      5.030823000000000E-01     -7.966797000000000E+01      5.421143000000000E-01     -1.794922000000000E+02      7.478333000000000E-01     -9.517578000000000E+01
4865000000.000000      5.446167000000000E-01     -1.697031000000000E+02      5.032349000000000E-01     -7.984765000000000E+01      5.450745000000000E-01     -1.796484000000000E+02      7.510376000000000E-01     -9.514063000000000E+01
4866000000.000000      5.467529000000000E-01     -1.700000000000000E+02      5.039063000000000E-01     -8.033203000000000E+01      5.481873000000000E-01     -1.798594000000000E+02      7.540894000000000E-01     -9.524218000000000E+01
4867000000.000000      5.490112000000000E-01     -1.703516000000000E+02      5.079346000000000E-01     -8.062500000000000E+01      5.507202000000000E-01     -1.799609000000000E+02      7.568665000000000E-01     -9.536327000000000E+01
4868000000.000000      5.514526000000000E-01     -1.708281000000000E+02      5.075073000000000E-01     -8.091797000000000E+01      5.538635000000000E-01      1.797656000000000E+02      7.592163000000000E-01     -9.535547000000000E+01
4869000000.000000      5.506592000000000E-01     -1.710156000000000E+02      5.074158000000000E-01     -8.122656000000000E+01      5.559692000000000E-01      1.794531000000000E+02      7.617188000000000E-01     -9.546093000000000E+01
4870000000.000000      5.530701000000000E-01     -1.713203000000000E+02      5.096436000000000E-01     -8.113672000000000E+01      5.576782000000000E-01      1.793359000000000E+02      7.640381000000000E-01     -9.543360000000000E+01
4871000000.000000      5.552673000000000E-01     -1.717109000000000E+02      5.098267000000000E-01     -8.160156000000000E+01      5.596008000000000E-01      1.791719000000000E+02      7.656555000000000E-01     -9.557421000000000E+01
4872000000.000000      5.569763000000000E-01     -1.719453000000000E+02      5.101624000000000E-01     -8.189844000000000E+01      5.627136000000000E-01      1.786719000000000E+02      7.686768000000000E-01     -9.547655000000000E+01
4873000000.000000      5.567322000000000E-01     -1.720703000000000E+02      5.111084000000000E-01     -8.212109000000000E+01      5.643311000000000E-01      1.787578000000000E+02      7.716675000000000E-01     -9.561718000000000E+01
4874000000.000000      5.578003000000000E-01     -1.723828000000000E+02      5.133057000000000E-01     -8.230078000000000E+01      5.675659000000000E-01      1.785312000000000E+02      7.744141000000000E-01     -9.553905000000000E+01
4875000000.000000      5.588989000000000E-01     -1.726328000000000E+02      5.127869000000000E-01     -8.248047000000000E+01      5.694580000000000E-01      1.781719000000000E+02      7.752075000000000E-01     -9.573046000000000E+01
4876000000.000000      5.575562000000000E-01     -1.729531000000000E+02      5.138245000000000E-01     -8.283594000000000E+01      5.700989000000000E-01      1.781563000000000E+02      7.795410000000000E-01     -9.573828000000000E+01
4877000000.000000      5.585938000000000E-01     -1.730234000000000E+02      5.152283000000000E-01     -8.299219000000000E+01      5.751038000000000E-01      1.778125000000000E+02      7.792664000000000E-01     -9.580469000000000E+01
4878000000.000000      5.594177000000000E-01     -1.732031000000000E+02      5.159607000000000E-01     -8.311327000000000E+01      5.757751000000000E-01      1.777969000000000E+02      7.825317000000000E-01     -9.596483000000000E+01
4879000000.000000      5.593262000000000E-01     -1.734062000000000E+02      5.144653000000000E-01     -8.342188000000000E+01      5.776978000000000E-01      1.775859000000000E+02      7.843323000000000E-01     -9.571484000000000E+01
4880000000.000000      5.579834000000000E-01     -1.735078000000000E+02      5.162354000000000E-01     -8.355469000000000E+01      5.792236000000000E-01      1.773672000000000E+02      7.864380000000000E-01     -9.585938000000000E+01
4881000000.000000      5.597534000000000E-01     -1.736172000000000E+02      5.193787000000000E-01     -8.357031000000000E+01      5.811462000000000E-01      1.770469000000000E+02      7.880249000000000E-01     -9.603905000000000E+01
4882000000.000000      5.578308000000000E-01     -1.737578000000000E+02      5.181885000000000E-01     -8.394922000000000E+01      5.826416000000000E-01      1.769844000000000E+02      7.883911000000000E-01     -9.589844000000000E+01
