! Network Analyzer HP8722D
! Hewlett-Packard
! Data name: Linha & Wilkinson
! Saver's name: Rodrigo Anjos
! Comments: Teste da utilização de aquisição
continua pelo VNA HP8722D
! Time and date: 17/4/2025 14:41
!              Frequency                     S11                                                   S21                                                   S12                                                   S22
# HZ  S  MA R 50
4800000000.000000      3.326569000000000E-01     -1.130586000000000E+02      2.856445000000000E-01     -6.076366000000000E+01      2.796478000000000E-01     -1.748984000000000E+02      6.563110000000000E-01     -8.991796000000000E+01
4801000000.000000      3.319397000000000E-01     -1.140625000000000E+02      2.902832000000000E-01     -6.070898000000000E+01      2.830505000000000E-01     -1.748203000000000E+02      6.549377000000000E-01     -8.989061000000000E+01
4802000000.000000      3.310089000000000E-01     -1.150703000000000E+02      2.943115000000000E-01     -6.084961000000000E+01      2.872467000000000E-01     -1.746953000000000E+02      6.528015000000000E-01     -8.996094000000000E+01
4803000000.000000      3.305969000000000E-01     -1.160469000000000E+02      3.001099000000000E-01     -6.090429000000000E+01      2.915802000000000E-01     -1.745078000000000E+02      6.518860000000000E-01     -9.016405000000000E+01
4804000000.000000      3.301849000000000E-01     -1.170156000000000E+02      3.039856000000000E-01     -6.105078000000000E+01      2.954559000000000E-01     -1.744922000000000E+02      6.514282000000000E-01     -9.024609000000000E+01
4805000000.000000      3.300323000000000E-01     -1.179883000000000E+02      3.085480000000000E-01     -6.110742000000000E+01      3.001251000000000E-01     -1.742344000000000E+02      6.523743000000000E-01     -9.041796000000000E+01
4806000000.000000      3.292389000000000E-01     -1.189141000000000E+02      3.125916000000000E-01     -6.115429000000000E+01      3.031921000000000E-01     -1.741328000000000E+02      6.513977000000000E-01     -9.037109000000000E+01
4807000000.000000      3.293152000000000E-01     -1.200000000000000E+02      3.172455000000000E-01     -6.152344000000000E+01      3.079681000000000E-01     -1.741172000000000E+02      6.498718000000000E-01     -9.051952000000000E+01
4808000000.000000      3.299255000000000E-01     -1.209687000000000E+02      3.222961000000000E-01     -6.151953000000000E+01      3.115234000000000E-01     -1.739922000000000E+02      6.488647000000000E-01     -9.054296000000000E+01
4809000000.000000      3.302917000000000E-01     -1.221797000000000E+02      3.261108000000000E-01     -6.200000000000000E+01      3.164063000000000E-01     -1.740469000000000E+02      6.492004000000000E-01     -9.067186000000000E+01
4810000000.000000      3.308868000000000E-01     -1.233516000000000E+02      3.311768000000000E-01     -6.192773000000000E+01      3.205719000000000E-01     -1.739531000000000E+02      6.496582000000000E-01     -9.082811000000000E+01
4811000000.000000      3.319092000000000E-01     -1.242500000000000E+02      3.355865000000000E-01     -6.235352000000000E+01      3.251801000000000E-01     -1.738594000000000E+02      6.476135000000000E-01     -9.085938000000000E+01
4812000000.000000      3.334351000000000E-01     -1.252656000000000E+02      3.392334000000000E-01     -6.228125000000000E+01      3.289795000000000E-01     -1.736641000000000E+02      6.483459000000000E-01     -9.091015000000000E+01
4813000000.000000      3.339386000000000E-01     -1.263906000000000E+02      3.432922000000000E-01     -6.254687000000000E+01      3.320770000000000E-01     -1.735625000000000E+02      6.488953000000000E-01     -9.089062000000000E+01
4814000000.000000      3.350067000000000E-01     -1.276601000000000E+02      3.480225000000000E-01     -6.276562000000000E+01      3.367004000000000E-01     -1.737656000000000E+02      6.477661000000000E-01     -9.112108000000000E+01
4815000000.000000      3.367920000000000E-01     -1.286641000000000E+02      3.515625000000000E-01     -6.287109000000000E+01      3.401337000000000E-01     -1.735859000000000E+02      6.477661000000000E-01     -9.112108000000000E+01
4816000000.000000      3.391418000000000E-01     -1.296641000000000E+02      3.558960000000000E-01     -6.315430000000000E+01      3.458862000000000E-01     -1.734609000000000E+02      6.477051000000000E-01     -9.115625000000000E+01
4817000000.000000      3.414917000000000E-01     -1.307969000000000E+02      3.598785000000000E-01     -6.341210000000000E+01      3.484192000000000E-01     -1.735156000000000E+02      6.477356000000000E-01     -9.130468000000000E+01
4818000000.000000      3.433228000000000E-01     -1.318828000000000E+02      3.627319000000000E-01     -6.364062000000000E+01      3.524017000000000E-01     -1.734062000000000E+02      6.484680000000000E-01     -9.141405000000000E+01
4819000000.000000      3.460846000000000E-01     -1.329219000000000E+02      3.679810000000000E-01     -6.373828000000000E+01      3.557587000000000E-01     -1.734453000000000E+02      6.501770000000000E-01     -9.148438000000000E+01
4820000000.000000      3.479004000000000E-01     -1.339375000000000E+02      3.713837000000000E-01     -6.415234000000000E+01      3.607483000000000E-01     -1.733750000000000E+02      6.499634000000000E-01     -9.153124000000000E+01
4821000000.000000      3.514099000000000E-01     -1.351328000000000E+02      3.755035000000000E-01     -6.436718000000000E+01      3.644409000000000E-01     -1.736016000000000E+02      6.495667000000000E-01     -9.165625000000000E+01
4822000000.000000      3.553619000000000E-01     -1.361484000000000E+02      3.796082000000000E-01     -6.465625000000000E+01      3.677979000000000E-01     -1.733906000000000E+02      6.517029000000000E-01     -9.165234000000000E+01
4823000000.000000      3.577576000000000E-01     -1.371328000000000E+02      3.834534000000000E-01     -6.478906000000000E+01      3.719330000000000E-01     -1.731406000000000E+02      6.519165000000000E-01     -9.178905000000000E+01
4824000000.000000      3.615875000000000E-01     -1.383047000000000E+02      3.875580000000000E-01     -6.511719000000000E+01      3.765106000000000E-01     -1.733047000000000E+02      6.539917000000000E-01     -9.178905000000000E+01
4825000000.000000      3.650665000000000E-01     -1.391328000000000E+02      3.898773000000000E-01     -6.531640000000000E+01      3.810883000000000E-01     -1.733281000000000E+02      6.554565000000000E-01     -9.183203000000000E+01
4826000000.000000      3.697968000000000E-01     -1.402422000000000E+02      3.940887000000000E-01     -6.567577000000000E+01      3.844299000000000E-01     -1.733750000000000E+02      6.558838000000000E-01     -9.204296000000000E+01
4827000000.000000      3.730621000000000E-01     -1.410938000000000E+02      3.977814000000000E-01     -6.583593000000000E+01      3.888855000000000E-01     -1.732891000000000E+02      6.565552000000000E-01     -9.197657000000000E+01
4828000000.000000      3.779602000000000E-01     -1.421250000000000E+02      4.022675000000000E-01     -6.621484000000000E+01      3.925323000000000E-01     -1.732109000000000E+02      6.585388000000000E-01     -9.209764000000000E+01
4829000000.000000      3.803406000000000E-01     -1.430547000000000E+02      4.039917000000000E-01     -6.643749000000000E+01      3.967590000000000E-01     -1.733281000000000E+02      6.598511000000000E-01     -9.205469000000000E+01
4830000000.000000      3.861542000000000E-01     -1.440469000000000E+02      4.085388000000000E-01     -6.681250000000000E+01      4.011536000000000E-01     -1.732812000000000E+02      6.607056000000000E-01     -9.217188000000000E+01
4831000000.000000      3.900299000000000E-01     -1.448750000000000E+02      4.113617000000000E-01     -6.714844000000000E+01      4.049530000000000E-01     -1.732734000000000E+02      6.634216000000000E-01     -9.228516000000000E+01
4832000000.000000      3.955383000000000E-01     -1.457891000000000E+02      4.158630000000000E-01     -6.736328000000000E+01      4.083557000000000E-01     -1.733828000000000E+02      6.645203000000000E-01     -9.235155000000000E+01
4833000000.000000      4.006042000000000E-01     -1.467969000000000E+02      4.190521000000000E-01     -6.764062000000000E+01      4.122925000000000E-01     -1.733281000000000E+02      6.656799000000000E-01     -9.239452000000000E+01
4834000000.000000      4.052429000000000E-01     -1.475937000000000E+02      4.218903000000000E-01     -6.799609000000000E+01      4.167175000000000E-01     -1.734375000000000E+02      6.674805000000000E-01     -9.249609000000000E+01
4835000000.000000      4.092255000000000E-01     -1.484453000000000E+02      4.266510000000000E-01     -6.827343000000000E+01      4.213867000000000E-01     -1.734375000000000E+02      6.697998000000000E-01     -9.262890000000000E+01
4836000000.000000      4.155273000000000E-01     -1.491797000000000E+02      4.283142000000000E-01     -6.851563000000000E+01      4.250793000000000E-01     -1.734766000000000E+02      6.718445000000000E-01     -9.259375000000000E+01
4837000000.000000      4.200287000000000E-01     -1.499609000000000E+02      4.315796000000000E-01     -6.908984000000000E+01      4.285583000000000E-01     -1.736484000000000E+02      6.730652000000000E-01     -9.257813000000000E+01
4838000000.000000      4.259644000000000E-01     -1.508906000000000E+02      4.359741000000000E-01     -6.909765000000000E+01      4.336395000000000E-01     -1.735625000000000E+02      6.763000000000000E-01     -9.264452000000000E+01
4839000000.000000      4.304657000000000E-01     -1.515625000000000E+02      4.384766000000000E-01     -6.949609000000000E+01      4.376678000000000E-01     -1.736250000000000E+02      6.789551000000000E-01     -9.268749000000000E+01
4840000000.000000      4.350433000000000E-01     -1.524141000000000E+02      4.409637000000000E-01     -6.981640000000000E+01      4.414063000000000E-01     -1.737500000000000E+02      6.800232000000000E-01     -9.271875000000000E+01
4841000000.000000      4.406891000000000E-01     -1.532812000000000E+02      4.446564000000000E-01     -7.027344000000000E+01      4.457703000000000E-01     -1.738437000000000E+02      6.820679000000000E-01     -9.285936000000000E+01
4842000000.000000      4.465637000000000E-01     -1.538516000000000E+02      4.477844000000000E-01     -7.046093000000000E+01      4.488068000000000E-01     -1.738516000000000E+02      6.857910000000000E-01     -9.287500000000000E+01
4843000000.000000      4.507904000000000E-01     -1.546250000000000E+02      4.502411000000000E-01     -7.093359000000000E+01      4.534607000000000E-01     -1.740078000000000E+02      6.872864000000000E-01     -9.283203000000000E+01
4844000000.000000      4.560242000000000E-01     -1.553437000000000E+02      4.530945000000000E-01     -7.115234000000000E+01      4.574127000000000E-01     -1.740625000000000E+02      6.908569000000000E-01     -9.302343000000000E+01
4845000000.000000      4.612885000000000E-01     -1.559609000000000E+02      4.558868000000000E-01     -7.152734000000000E+01      4.621429000000000E-01     -1.742344000000000E+02      6.909790000000000E-01     -9.288280000000000E+01
4846000000.000000      4.662018000000000E-01     -1.565938000000000E+02      4.582214000000000E-01     -7.170312000000000E+01      4.668732000000000E-01     -1.743359000000000E+02      6.950684000000000E-01     -9.302343000000000E+01
4847000000.000000      4.722748000000000E-01     -1.573047000000000E+02      4.608307000000000E-01     -7.208984000000000E+01      4.708557000000000E-01     -1.744219000000000E+02      6.983337000000000E-01     -9.316797000000000E+01
4848000000.000000      4.769592000000000E-01     -1.579219000000000E+02      4.633942000000000E-01     -7.227734000000000E+01      4.743195000000000E-01     -1.744922000000000E+02      6.999512000000000E-01     -9.316797000000000E+01
4849000000.000000      4.816132000000000E-01     -1.587969000000000E+02      4.653320000000000E-01     -7.279687000000000E+01      4.786530000000000E-01     -1.745937000000000E+02      7.026367000000000E-01     -9.325390000000000E+01
4850000000.000000      4.869537000000000E-01     -1.591563000000000E+02      4.689026000000000E-01     -7.301562000000000E+01      4.819641000000000E-01     -1.747109000000000E+02      7.054138000000000E-01     -9.311327000000000E+01
4851000000.000000      4.916840000000000E-01     -1.597891000000000E+02      4.715881000000000E-01     -7.348827000000000E+01      4.855499000000000E-01     -1.748359000000000E+02      7.091980000000000E-01     -9.322266000000000E+01
4852000000.000000      4.963074000000000E-01     -1.603828000000000E+02      4.733582000000000E-01     -7.373828000000000E+01      4.906006000000000E-01     -1.749297000000000E+02      7.109985000000000E-01     -9.333593000000000E+01
4853000000.000000      5.016479000000000E-01     -1.609531000000000E+02      4.741364000000000E-01     -7.406640000000000E+01      4.946289000000000E-01     -1.751016000000000E+02      7.144470000000000E-01     -9.348047000000000E+01
4854000000.000000      5.057373000000000E-01     -1.614297000000000E+02      4.773102000000000E-01     -7.442968000000000E+01      4.976807000000000E-01     -1.752969000000000E+02      7.176514000000000E-01     -9.341406000000000E+01
4855000000.000000      5.088806000000000E-01     -1.621016000000000E+02      4.790344000000000E-01     -7.477344000000000E+01      5.027466000000000E-01     -1.753203000000000E+02      7.206116000000000E-01     -9.341406000000000E+01
4856000000.000000      5.140381000000000E-01     -1.625156000000000E+02      4.812317000000000E-01     -7.497656000000000E+01      5.054321000000000E-01     -1.756797000000000E+02      7.239990000000000E-01     -9.351171000000000E+01
4857000000.000000      5.180359000000000E-01     -1.631484000000000E+02      4.839020000000000E-01     -7.527734000000000E+01      5.098572000000000E-01     -1.756875000000000E+02      7.267761000000000E-01     -9.355078000000000E+01
4858000000.000000      5.201721000000000E-01     -1.636562000000000E+02      4.851837000000000E-01     -7.563671000000000E+01      5.119324000000000E-01     -1.759140000000000E+02      7.291870000000000E-01     -9.358202000000000E+01
4859000000.000000      5.251770000000000E-01     -1.641172000000000E+02      4.878235000000000E-01     -7.596484000000000E+01      5.176697000000000E-01     -1.761328000000000E+02      7.317505000000000E-01     -9.362499000000000E+01
4860000000.000000      5.287476000000000E-01     -1.646094000000000E+02      4.897461000000000E-01     -7.619141000000000E+01      5.191956000000000E-01     -1.762031000000000E+02      7.343750000000000E-01     -9.370312000000000E+01
4861000000.000000      5.321960000000000E-01     -1.650234000000000E+02      4.905701000000000E-01     -7.664063000000000E+01      5.239563000000000E-01     -1.764219000000000E+02      7.383423000000000E-01     -9.373047000000000E+01
4862000000.000000      5.355530000000000E-01     -1.654140000000000E+02      4.940033000000000E-01     -7.685156000000000E+01      5.268860000000000E-01     -1.765156000000000E+02      7.423706000000000E-01     -9.380077000000000E+01
4863000000.000000      5.381165000000000E-01     -1.657891000000000E+02      4.931488000000000E-01     -7.723046000000000E+01      5.312805000000000E-01     -1.767578000000000E+02      7.442932000000000E-01     -9.370312000000000E+01
4864000000.000000      5.410767000000000E-01     -1.662734000000000E+02      4.964142000000000E-01     -7.751171000000000E+01      5.327454000000000E-01     -1.768047000000000E+02      7.461243000000000E-01     -9.379297000000000E+01
4865000000.000000      5.434570000000000E-01     -1.667734000000000E+02      4.965668000000000E-01     -7.763281000000000E+01      5.368042000000000E-01     -1.772266000000000E+02      7.493896000000000E-01     -9.369921000000000E+01
4866000000.000000      5.454712000000000E-01     -1.670156000000000E+02      4.992981000000000E-01     -7.812109000000000E+01      5.399780000000000E-01     -1.773203000000000E+02      7.528687000000000E-01     -9.384766000000000E+01
4867000000.000000      5.474243000000000E-01     -1.673437000000000E+02      4.998474000000000E-01     -7.841015000000000E+01      5.413818000000000E-01     -1.775547000000000E+02      7.552795000000000E-01     -9.391796000000000E+01
4868000000.000000      5.504761000000000E-01     -1.678437000000000E+02      5.009155000000000E-01     -7.869141000000000E+01      5.473328000000000E-01     -1.777109000000000E+02      7.577820000000000E-01     -9.398438000000000E+01
4869000000.000000      5.520325000000000E-01     -1.681015000000000E+02      5.016174000000000E-01     -7.898438000000000E+01      5.492249000000000E-01     -1.780078000000000E+02      7.603455000000000E-01     -9.402344000000000E+01
4870000000.000000      5.543213000000000E-01     -1.684297000000000E+02      5.037231000000000E-01     -7.903125000000000E+01      5.518494000000000E-01     -1.782422000000000E+02      7.632751000000000E-01     -9.396875000000000E+01
4871000000.000000      5.561829000000000E-01     -1.687969000000000E+02      5.049133000000000E-01     -7.946875000000000E+01      5.540466000000000E-01     -1.784375000000000E+02      7.650757000000000E-01     -9.419922000000000E+01
4872000000.000000      5.579529000000000E-01     -1.690078000000000E+02      5.061951000000000E-01     -7.968359000000000E+01      5.556030000000000E-01     -1.787344000000000E+02      7.687378000000000E-01     -9.417969000000000E+01
4873000000.000000      5.590515000000000E-01     -1.692266000000000E+02      5.063171000000000E-01     -7.985546000000000E+01      5.591736000000000E-01     -1.788125000000000E+02      7.706604000000000E-01     -9.423437000000000E+01
4874000000.000000      5.595703000000000E-01     -1.694844000000000E+02      5.076599000000000E-01     -8.021484000000000E+01      5.628967000000000E-01     -1.790390000000000E+02      7.726135000000000E-01     -9.395702000000000E+01
4875000000.000000      5.617981000000000E-01     -1.698203000000000E+02      5.085449000000000E-01     -8.037500000000000E+01      5.643005000000000E-01     -1.793672000000000E+02      7.746277000000000E-01     -9.426172000000000E+01
4876000000.000000      5.615845000000000E-01     -1.700078000000000E+02      5.110474000000000E-01     -8.070313000000000E+01      5.675049000000000E-01     -1.795000000000000E+02      7.773438000000000E-01     -9.431641000000000E+01
4877000000.000000      5.621338000000000E-01     -1.702656000000000E+02      5.108337000000000E-01     -8.080858000000000E+01      5.701599000000000E-01     -1.798125000000000E+02      7.798157000000000E-01     -9.441406000000000E+01
4878000000.000000      5.628052000000000E-01     -1.704297000000000E+02      5.141907000000000E-01     -8.094921000000000E+01      5.726624000000000E-01     -1.798672000000000E+02      7.823181000000000E-01     -9.443359000000000E+01
4879000000.000000      5.638428000000000E-01     -1.706719000000000E+02      5.117798000000000E-01     -8.118359000000000E+01      5.732117000000000E-01      1.799219000000000E+02      7.851563000000000E-01     -9.435547000000000E+01
4880000000.000000      5.631714000000000E-01     -1.707500000000000E+02      5.138550000000000E-01     -8.154297000000000E+01      5.760193000000000E-01      1.797344000000000E+02      7.877808000000000E-01     -9.435938000000000E+01
4881000000.000000      5.643616000000000E-01     -1.709609000000000E+02      5.158691000000000E-01     -8.150391000000000E+01      5.791321000000000E-01      1.793594000000000E+02      7.887573000000000E-01     -9.446484000000000E+01
4882000000.000000      5.630493000000000E-01     -1.709766000000000E+02      5.166321000000000E-01     -8.180079000000000E+01      5.814209000000000E-01      1.792891000000000E+02      7.902222000000000E-01     -9.460155000000000E+01
