! Network Analyzer HP8722D
! Hewlett-Packard
! Data name: Linha & Wilkinson
! Saver's name: Rodrigo Anjos
! Comments: Teste da utilização de aquisição
continua pelo VNA HP8722D
! Time and date: 17/4/2025 16:58
!              Frequency                     S11                                                   S21                                                   S12                                                   S22
# HZ  S  MA R 50
4800000000.000000      3.343048000000000E-01     -1.139961000000000E+02      2.944641000000000E-01     -6.090429000000000E+01      2.880402000000000E-01     -1.750859000000000E+02      6.553955000000000E-01     -9.029688000000000E+01
4801000000.000000      3.329926000000000E-01     -1.149805000000000E+02      2.986603000000000E-01     -6.091210000000000E+01      2.915497000000000E-01     -1.750703000000000E+02      6.550903000000000E-01     -9.019922000000000E+01
4802000000.000000      3.325195000000000E-01     -1.158711000000000E+02      3.024292000000000E-01     -6.096093000000000E+01      2.955017000000000E-01     -1.750156000000000E+02      6.539001000000000E-01     -9.025782000000000E+01
4803000000.000000      3.311768000000000E-01     -1.169492000000000E+02      3.075867000000000E-01     -6.112109000000000E+01      2.994995000000000E-01     -1.749063000000000E+02      6.528625000000000E-01     -9.046484000000000E+01
4804000000.000000      3.315125000000000E-01     -1.179062000000000E+02      3.114929000000000E-01     -6.132030000000000E+01      3.040009000000000E-01     -1.748203000000000E+02      6.520081000000000E-01     -9.050781000000000E+01
4805000000.000000      3.312988000000000E-01     -1.190547000000000E+02      3.169861000000000E-01     -6.155859000000000E+01      3.079376000000000E-01     -1.746562000000000E+02      6.519775000000000E-01     -9.070313000000000E+01
4806000000.000000      3.308868000000000E-01     -1.199062000000000E+02      3.211975000000000E-01     -6.161718000000000E+01      3.112488000000000E-01     -1.745000000000000E+02      6.516113000000000E-01     -9.081640000000000E+01
4807000000.000000      3.309174000000000E-01     -1.210820000000000E+02      3.252106000000000E-01     -6.182422000000000E+01      3.156281000000000E-01     -1.745781000000000E+02      6.505432000000000E-01     -9.084375000000000E+01
4808000000.000000      3.316040000000000E-01     -1.220313000000000E+02      3.299408000000000E-01     -6.197851000000000E+01      3.199463000000000E-01     -1.745000000000000E+02      6.490784000000000E-01     -9.089062000000000E+01
4809000000.000000      3.319397000000000E-01     -1.231875000000000E+02      3.333435000000000E-01     -6.228710000000000E+01      3.240204000000000E-01     -1.744375000000000E+02      6.496277000000000E-01     -9.097265000000000E+01
4810000000.000000      3.322296000000000E-01     -1.242851000000000E+02      3.378601000000000E-01     -6.224218000000000E+01      3.282776000000000E-01     -1.744062000000000E+02      6.494446000000000E-01     -9.113281000000000E+01
4811000000.000000      3.335419000000000E-01     -1.253750000000000E+02      3.431702000000000E-01     -6.262500000000000E+01      3.327484000000000E-01     -1.742656000000000E+02      6.494141000000000E-01     -9.114452000000000E+01
4812000000.000000      3.356018000000000E-01     -1.263359000000000E+02      3.463135000000000E-01     -6.286718000000000E+01      3.356934000000000E-01     -1.742500000000000E+02      6.497803000000000E-01     -9.122265000000000E+01
4813000000.000000      3.362732000000000E-01     -1.274961000000000E+02      3.509979000000000E-01     -6.309765000000000E+01      3.391113000000000E-01     -1.741094000000000E+02      6.491699000000000E-01     -9.130859000000000E+01
4814000000.000000      3.372040000000000E-01     -1.287422000000000E+02      3.549500000000000E-01     -6.328711000000000E+01      3.430176000000000E-01     -1.741406000000000E+02      6.483765000000000E-01     -9.137890000000000E+01
4815000000.000000      3.389587000000000E-01     -1.296641000000000E+02      3.587036000000000E-01     -6.357422000000000E+01      3.474274000000000E-01     -1.741484000000000E+02      6.480103000000000E-01     -9.143749000000000E+01
4816000000.000000      3.408356000000000E-01     -1.307812000000000E+02      3.629913000000000E-01     -6.351367000000000E+01      3.525696000000000E-01     -1.740234000000000E+02      6.481628000000000E-01     -9.151562000000000E+01
4817000000.000000      3.435211000000000E-01     -1.318203000000000E+02      3.665619000000000E-01     -6.399219000000000E+01      3.555450000000000E-01     -1.741094000000000E+02      6.482544000000000E-01     -9.171875000000000E+01
4818000000.000000      3.456268000000000E-01     -1.330000000000000E+02      3.697815000000000E-01     -6.417969000000000E+01      3.603058000000000E-01     -1.739766000000000E+02      6.497498000000000E-01     -9.174608000000000E+01
4819000000.000000      3.486481000000000E-01     -1.340312000000000E+02      3.744659000000000E-01     -6.446094000000000E+01      3.627319000000000E-01     -1.740156000000000E+02      6.509705000000000E-01     -9.181250000000000E+01
4820000000.000000      3.502655000000000E-01     -1.350391000000000E+02      3.781738000000000E-01     -6.451953000000000E+01      3.672333000000000E-01     -1.739922000000000E+02      6.507568000000000E-01     -9.186718000000000E+01
4821000000.000000      3.541260000000000E-01     -1.361250000000000E+02      3.823700000000000E-01     -6.483593000000000E+01      3.705902000000000E-01     -1.741094000000000E+02      6.512451000000000E-01     -9.194921000000000E+01
4822000000.000000      3.580933000000000E-01     -1.372187000000000E+02      3.855896000000000E-01     -6.525000000000000E+01      3.754425000000000E-01     -1.740078000000000E+02      6.524658000000000E-01     -9.198828000000000E+01
4823000000.000000      3.601379000000000E-01     -1.382344000000000E+02      3.894806000000000E-01     -6.539063000000000E+01      3.790131000000000E-01     -1.739063000000000E+02      6.529846000000000E-01     -9.212109000000000E+01
4824000000.000000      3.644257000000000E-01     -1.393281000000000E+02      3.933411000000000E-01     -6.579296000000000E+01      3.832703000000000E-01     -1.739766000000000E+02      6.539307000000000E-01     -9.220312000000000E+01
4825000000.000000      3.679657000000000E-01     -1.402656000000000E+02      3.961334000000000E-01     -6.597265000000000E+01      3.876801000000000E-01     -1.739531000000000E+02      6.557312000000000E-01     -9.221094000000000E+01
4826000000.000000      3.724976000000000E-01     -1.412969000000000E+02      4.010773000000000E-01     -6.638281000000000E+01      3.906555000000000E-01     -1.740469000000000E+02      6.564941000000000E-01     -9.228516000000000E+01
4827000000.000000      3.760681000000000E-01     -1.421250000000000E+02      4.039612000000000E-01     -6.648438000000000E+01      3.947449000000000E-01     -1.739063000000000E+02      6.576233000000000E-01     -9.230078000000000E+01
4828000000.000000      3.807526000000000E-01     -1.431562000000000E+02      4.078827000000000E-01     -6.690234000000000E+01      3.988647000000000E-01     -1.739219000000000E+02      6.600952000000000E-01     -9.249218000000000E+01
4829000000.000000      3.838959000000000E-01     -1.441015000000000E+02      4.112244000000000E-01     -6.714844000000000E+01      4.024963000000000E-01     -1.739609000000000E+02      6.604919000000000E-01     -9.246874000000000E+01
4830000000.000000      3.886108000000000E-01     -1.450156000000000E+02      4.143524000000000E-01     -6.754296000000000E+01      4.067535000000000E-01     -1.739531000000000E+02      6.622009000000000E-01     -9.264452000000000E+01
4831000000.000000      3.927002000000000E-01     -1.459687000000000E+02      4.171448000000000E-01     -6.778515000000000E+01      4.112244000000000E-01     -1.740313000000000E+02      6.643372000000000E-01     -9.267969000000000E+01
4832000000.000000      3.988342000000000E-01     -1.468125000000000E+02      4.216614000000000E-01     -6.793750000000000E+01      4.147491000000000E-01     -1.741016000000000E+02      6.651611000000000E-01     -9.265625000000000E+01
4833000000.000000      4.035950000000000E-01     -1.477422000000000E+02      4.246979000000000E-01     -6.838281000000000E+01      4.182434000000000E-01     -1.741719000000000E+02      6.665344000000000E-01     -9.277735000000000E+01
4834000000.000000      4.077454000000000E-01     -1.486484000000000E+02      4.277802000000000E-01     -6.849609000000000E+01      4.225464000000000E-01     -1.741484000000000E+02      6.683655000000000E-01     -9.287889000000000E+01
4835000000.000000      4.123993000000000E-01     -1.494297000000000E+02      4.315338000000000E-01     -6.906640000000000E+01      4.277039000000000E-01     -1.741250000000000E+02      6.716919000000000E-01     -9.283983000000000E+01
4836000000.000000      4.186096000000000E-01     -1.502109000000000E+02      4.341583000000000E-01     -6.923046000000000E+01      4.309235000000000E-01     -1.741953000000000E+02      6.724243000000000E-01     -9.288671000000000E+01
4837000000.000000      4.230194000000000E-01     -1.510156000000000E+02      4.367676000000000E-01     -6.983203000000000E+01      4.346771000000000E-01     -1.743594000000000E+02      6.758728000000000E-01     -9.296484000000000E+01
4838000000.000000      4.287262000000000E-01     -1.519609000000000E+02      4.413300000000000E-01     -6.969140000000000E+01      4.381714000000000E-01     -1.743672000000000E+02      6.767883000000000E-01     -9.306250000000000E+01
4839000000.000000      4.339447000000000E-01     -1.526250000000000E+02      4.425659000000000E-01     -7.028515000000000E+01      4.432678000000000E-01     -1.744141000000000E+02      6.793213000000000E-01     -9.299608000000000E+01
4840000000.000000      4.381104000000000E-01     -1.534141000000000E+02      4.456787000000000E-01     -7.051562000000000E+01      4.469910000000000E-01     -1.745469000000000E+02      6.813049000000000E-01     -9.317186000000000E+01
4841000000.000000      4.438324000000000E-01     -1.542812000000000E+02      4.495087000000000E-01     -7.097656000000000E+01      4.510498000000000E-01     -1.746562000000000E+02      6.833801000000000E-01     -9.317186000000000E+01
4842000000.000000      4.496307000000000E-01     -1.548750000000000E+02      4.518280000000000E-01     -7.105859000000000E+01      4.536285000000000E-01     -1.746953000000000E+02      6.859131000000000E-01     -9.321875000000000E+01
4843000000.000000      4.541626000000000E-01     -1.556875000000000E+02      4.549561000000000E-01     -7.159765000000000E+01      4.584656000000000E-01     -1.747344000000000E+02      6.884155000000000E-01     -9.325390000000000E+01
4844000000.000000      4.590912000000000E-01     -1.563516000000000E+02      4.569855000000000E-01     -7.178124000000000E+01      4.622345000000000E-01     -1.748125000000000E+02      6.912231000000000E-01     -9.330858000000000E+01
4845000000.000000      4.643250000000000E-01     -1.570000000000000E+02      4.595795000000000E-01     -7.222656000000000E+01      4.667511000000000E-01     -1.749375000000000E+02      6.921692000000000E-01     -9.333593000000000E+01
4846000000.000000      4.692078000000000E-01     -1.575391000000000E+02      4.628296000000000E-01     -7.248828000000000E+01      4.714355000000000E-01     -1.750234000000000E+02      6.953125000000000E-01     -9.343359000000000E+01
4847000000.000000      4.748993000000000E-01     -1.582891000000000E+02      4.650574000000000E-01     -7.271484000000000E+01      4.744415000000000E-01     -1.752266000000000E+02      6.989441000000000E-01     -9.348047000000000E+01
4848000000.000000      4.801178000000000E-01     -1.589062000000000E+02      4.662933000000000E-01     -7.303905000000000E+01      4.791107000000000E-01     -1.753047000000000E+02      7.012634000000000E-01     -9.354296000000000E+01
4849000000.000000      4.850006000000000E-01     -1.598438000000000E+02      4.697418000000000E-01     -7.351563000000000E+01      4.828644000000000E-01     -1.754141000000000E+02      7.036438000000000E-01     -9.358202000000000E+01
4850000000.000000      4.894409000000000E-01     -1.601641000000000E+02      4.721680000000000E-01     -7.375000000000000E+01      4.866638000000000E-01     -1.754922000000000E+02      7.058411000000000E-01     -9.357422000000000E+01
4851000000.000000      4.940491000000000E-01     -1.607344000000000E+02      4.749603000000000E-01     -7.422656000000000E+01      4.897308000000000E-01     -1.756328000000000E+02      7.090149000000000E-01     -9.357422000000000E+01
4852000000.000000      4.987793000000000E-01     -1.613750000000000E+02      4.777985000000000E-01     -7.445313000000000E+01      4.942627000000000E-01     -1.757813000000000E+02      7.125854000000000E-01     -9.364452000000000E+01
4853000000.000000      5.039368000000000E-01     -1.619688000000000E+02      4.769592000000000E-01     -7.476563000000000E+01      4.985657000000000E-01     -1.759844000000000E+02      7.155457000000000E-01     -9.380077000000000E+01
4854000000.000000      5.075684000000000E-01     -1.624922000000000E+02      4.809875000000000E-01     -7.516796000000000E+01      5.007324000000000E-01     -1.759922000000000E+02      7.182617000000000E-01     -9.370312000000000E+01
4855000000.000000      5.112000000000000E-01     -1.630781000000000E+02      4.824219000000000E-01     -7.541797000000000E+01      5.064392000000000E-01     -1.761250000000000E+02      7.206726000000000E-01     -9.365625000000000E+01
4856000000.000000      5.166321000000000E-01     -1.635078000000000E+02      4.847260000000000E-01     -7.575781000000000E+01      5.093994000000000E-01     -1.763672000000000E+02      7.248230000000000E-01     -9.385157000000000E+01
4857000000.000000      5.196228000000000E-01     -1.640391000000000E+02      4.873962000000000E-01     -7.615624000000000E+01      5.121460000000000E-01     -1.764922000000000E+02      7.266541000000000E-01     -9.390234000000000E+01
4858000000.000000      5.221863000000000E-01     -1.646016000000000E+02      4.893188000000000E-01     -7.643749000000000E+01      5.157776000000000E-01     -1.767266000000000E+02      7.290039000000000E-01     -9.397264000000000E+01
4859000000.000000      5.268555000000000E-01     -1.650938000000000E+02      4.913177000000000E-01     -7.667187000000000E+01      5.196228000000000E-01     -1.769297000000000E+02      7.334290000000000E-01     -9.405859000000000E+01
4860000000.000000      5.306091000000000E-01     -1.656016000000000E+02      4.915009000000000E-01     -7.668750000000000E+01      5.228882000000000E-01     -1.769297000000000E+02      7.351379000000000E-01     -9.402344000000000E+01
4861000000.000000      5.341187000000000E-01     -1.659609000000000E+02      4.936676000000000E-01     -7.750000000000000E+01      5.273743000000000E-01     -1.771719000000000E+02      7.377014000000000E-01     -9.414063000000000E+01
4862000000.000000      5.362549000000000E-01     -1.662969000000000E+02      4.959869000000000E-01     -7.744531000000000E+01      5.306091000000000E-01     -1.774062000000000E+02      7.424927000000000E-01     -9.412889000000000E+01
4863000000.000000      5.389099000000000E-01     -1.667891000000000E+02      4.961090000000000E-01     -7.798046000000000E+01      5.346069000000000E-01     -1.775859000000000E+02      7.438049000000000E-01     -9.412109000000000E+01
4864000000.000000      5.427551000000000E-01     -1.672656000000000E+02      4.987335000000000E-01     -7.816015000000000E+01      5.344543000000000E-01     -1.777734000000000E+02      7.469177000000000E-01     -9.417187000000000E+01
4865000000.000000      5.438843000000000E-01     -1.676953000000000E+02      4.984741000000000E-01     -7.842578000000000E+01      5.380554000000000E-01     -1.779140000000000E+02      7.499390000000000E-01     -9.411718000000000E+01
4866000000.000000      5.455322000000000E-01     -1.679531000000000E+02      4.998169000000000E-01     -7.878124000000000E+01      5.434875000000000E-01     -1.781094000000000E+02      7.522888000000000E-01     -9.414454000000000E+01
4867000000.000000      5.484009000000000E-01     -1.683281000000000E+02      5.026245000000000E-01     -7.902734000000000E+01      5.446472000000000E-01     -1.782969000000000E+02      7.555847000000000E-01     -9.426172000000000E+01
4868000000.000000      5.513611000000000E-01     -1.687734000000000E+02      5.036926000000000E-01     -7.931250000000000E+01      5.485229000000000E-01     -1.785781000000000E+02      7.575989000000000E-01     -9.424999000000000E+01
4869000000.000000      5.516357000000000E-01     -1.689687000000000E+02      5.034180000000000E-01     -7.974218000000000E+01      5.513000000000000E-01     -1.787188000000000E+02      7.606201000000000E-01     -9.451952000000000E+01
4870000000.000000      5.536804000000000E-01     -1.692969000000000E+02      5.050659000000000E-01     -7.972656000000000E+01      5.524902000000000E-01     -1.789844000000000E+02      7.640076000000000E-01     -9.424608000000000E+01
4871000000.000000      5.566406000000000E-01     -1.697734000000000E+02      5.058899000000000E-01     -8.003515000000000E+01      5.546875000000000E-01     -1.791953000000000E+02      7.648315000000000E-01     -9.451172000000000E+01
4872000000.000000      5.581360000000000E-01     -1.699219000000000E+02      5.061951000000000E-01     -8.020702000000000E+01      5.594482000000000E-01     -1.794765000000000E+02      7.686462000000000E-01     -9.449219000000000E+01
4873000000.000000      5.584412000000000E-01     -1.702031000000000E+02      5.080872000000000E-01     -8.058985000000000E+01      5.609436000000000E-01     -1.795703000000000E+02      7.703552000000000E-01     -9.454296000000000E+01
4874000000.000000      5.592041000000000E-01     -1.703828000000000E+02      5.083313000000000E-01     -8.082031000000000E+01      5.647888000000000E-01     -1.798047000000000E+02      7.742920000000000E-01     -9.435938000000000E+01
4875000000.000000      5.603943000000000E-01     -1.706563000000000E+02      5.091553000000000E-01     -8.097265000000000E+01      5.668335000000000E-01     -1.798672000000000E+02      7.744751000000000E-01     -9.463282000000000E+01
4876000000.000000      5.599976000000000E-01     -1.709453000000000E+02      5.105896000000000E-01     -8.122265000000000E+01      5.675964000000000E-01      1.797578000000000E+02      7.786865000000000E-01     -9.466015000000000E+01
4877000000.000000      5.614014000000000E-01     -1.711094000000000E+02      5.122681000000000E-01     -8.141796000000000E+01      5.698242000000000E-01      1.794688000000000E+02      7.806091000000000E-01     -9.483984000000000E+01
4878000000.000000      5.615845000000000E-01     -1.713281000000000E+02      5.135803000000000E-01     -8.164843000000000E+01      5.725403000000000E-01      1.793594000000000E+02      7.823486000000000E-01     -9.478125000000000E+01
4879000000.000000      5.625610000000000E-01     -1.715469000000000E+02      5.121155000000000E-01     -8.190624000000000E+01      5.744629000000000E-01      1.792266000000000E+02      7.853088000000000E-01     -9.476563000000000E+01
4880000000.000000      5.614319000000000E-01     -1.716875000000000E+02      5.140076000000000E-01     -8.212500000000000E+01      5.775146000000000E-01      1.789609000000000E+02      7.855530000000000E-01     -9.478516000000000E+01
4881000000.000000      5.622864000000000E-01     -1.717969000000000E+02      5.163574000000000E-01     -8.212891000000000E+01      5.791016000000000E-01      1.786250000000000E+02      7.871094000000000E-01     -9.487108000000000E+01
4882000000.000000      5.609131000000000E-01     -1.719531000000000E+02      5.182800000000000E-01     -8.251562000000000E+01      5.801697000000000E-01      1.785547000000000E+02      7.911682000000000E-01     -9.497656000000000E+01
