! Network Analyzer HP8722D
! Hewlett-Packard
! Data name: Linha & Wilkinson
! Saver's name: Rodrigo Anjos
! Comments: Teste da utilização de aquisição
continua pelo VNA HP8722D
! Time and date: 17/4/2025 16:28
!              Frequency                     S11                                                   S21                                                   S12                                                   S22
# HZ  S  MA R 50
4800000000.000000      3.366699000000000E-01     -1.164766000000000E+02      3.127747000000000E-01     -6.215038000000000E+01      3.068390000000000E-01     -1.763828000000000E+02      6.584167000000000E-01     -9.131250000000000E+01
4801000000.000000      3.358307000000000E-01     -1.174805000000000E+02      3.176727000000000E-01     -6.222656000000000E+01      3.105774000000000E-01     -1.763438000000000E+02      6.569519000000000E-01     -9.125391000000000E+01
4802000000.000000      3.346863000000000E-01     -1.184687000000000E+02      3.210754000000000E-01     -6.233007000000000E+01      3.147888000000000E-01     -1.761719000000000E+02      6.548462000000000E-01     -9.137499000000000E+01
4803000000.000000      3.344269000000000E-01     -1.195547000000000E+02      3.258820000000000E-01     -6.260351000000000E+01      3.184052000000000E-01     -1.761406000000000E+02      6.549377000000000E-01     -9.149609000000000E+01
4804000000.000000      3.332825000000000E-01     -1.203984000000000E+02      3.296967000000000E-01     -6.276172000000000E+01      3.225403000000000E-01     -1.763438000000000E+02      6.538086000000000E-01     -9.154688000000000E+01
4805000000.000000      3.338776000000000E-01     -1.215351000000000E+02      3.341675000000000E-01     -6.285156000000000E+01      3.262329000000000E-01     -1.761562000000000E+02      6.543579000000000E-01     -9.171484000000000E+01
4806000000.000000      3.334503000000000E-01     -1.225039000000000E+02      3.389130000000000E-01     -6.306445000000000E+01      3.288879000000000E-01     -1.760156000000000E+02      6.536255000000000E-01     -9.182812000000000E+01
4807000000.000000      3.342438000000000E-01     -1.236367000000000E+02      3.432312000000000E-01     -6.336132000000000E+01      3.338318000000000E-01     -1.761562000000000E+02      6.516724000000000E-01     -9.182032000000000E+01
4808000000.000000      3.342285000000000E-01     -1.246484000000000E+02      3.482971000000000E-01     -6.337891000000000E+01      3.372955000000000E-01     -1.760313000000000E+02      6.512756000000000E-01     -9.192968000000000E+01
4809000000.000000      3.348236000000000E-01     -1.257734000000000E+02      3.522949000000000E-01     -6.392968000000000E+01      3.419800000000000E-01     -1.761406000000000E+02      6.515503000000000E-01     -9.213282000000000E+01
4810000000.000000      3.361816000000000E-01     -1.268750000000000E+02      3.565674000000000E-01     -6.392578000000000E+01      3.458252000000000E-01     -1.759453000000000E+02      6.513977000000000E-01     -9.216406000000000E+01
4811000000.000000      3.375854000000000E-01     -1.280156000000000E+02      3.592987000000000E-01     -6.450781000000000E+01      3.502045000000000E-01     -1.758672000000000E+02      6.502686000000000E-01     -9.211718000000000E+01
4812000000.000000      3.385773000000000E-01     -1.289922000000000E+02      3.639374000000000E-01     -6.453125000000000E+01      3.539276000000000E-01     -1.759766000000000E+02      6.505127000000000E-01     -9.228516000000000E+01
4813000000.000000      3.399200000000000E-01     -1.301328000000000E+02      3.675079000000000E-01     -6.471093000000000E+01      3.565369000000000E-01     -1.758203000000000E+02      6.508484000000000E-01     -9.244141000000000E+01
4814000000.000000      3.411865000000000E-01     -1.313359000000000E+02      3.714294000000000E-01     -6.493359000000000E+01      3.601227000000000E-01     -1.759687000000000E+02      6.512146000000000E-01     -9.259766000000000E+01
4815000000.000000      3.430786000000000E-01     -1.323750000000000E+02      3.752899000000000E-01     -6.521484000000000E+01      3.644562000000000E-01     -1.758984000000000E+02      6.500854000000000E-01     -9.255468000000000E+01
4816000000.000000      3.455353000000000E-01     -1.334297000000000E+02      3.796844000000000E-01     -6.537109000000000E+01      3.694611000000000E-01     -1.757187000000000E+02      6.497498000000000E-01     -9.259375000000000E+01
4817000000.000000      3.482819000000000E-01     -1.344609000000000E+02      3.831329000000000E-01     -6.573437000000000E+01      3.718567000000000E-01     -1.758516000000000E+02      6.514893000000000E-01     -9.276953000000000E+01
4818000000.000000      3.504486000000000E-01     -1.356641000000000E+02      3.857574000000000E-01     -6.601171000000000E+01      3.759918000000000E-01     -1.759687000000000E+02      6.512146000000000E-01     -9.287109000000000E+01
4819000000.000000      3.534088000000000E-01     -1.366953000000000E+02      3.899536000000000E-01     -6.614843000000000E+01      3.791351000000000E-01     -1.758828000000000E+02      6.527405000000000E-01     -9.292578000000000E+01
4820000000.000000      3.554688000000000E-01     -1.377500000000000E+02      3.950195000000000E-01     -6.653906000000000E+01      3.838501000000000E-01     -1.759844000000000E+02      6.530762000000000E-01     -9.297655000000000E+01
4821000000.000000      3.590851000000000E-01     -1.388125000000000E+02      3.980865000000000E-01     -6.685547000000000E+01      3.865509000000000E-01     -1.760469000000000E+02      6.530151000000000E-01     -9.312109000000000E+01
4822000000.000000      3.638611000000000E-01     -1.399062000000000E+02      4.007721000000000E-01     -6.704296000000000E+01      3.906860000000000E-01     -1.759531000000000E+02      6.541138000000000E-01     -9.321093000000000E+01
4823000000.000000      3.661957000000000E-01     -1.409375000000000E+02      4.045410000000000E-01     -6.725390000000000E+01      3.945160000000000E-01     -1.758437000000000E+02      6.553345000000000E-01     -9.323437000000000E+01
4824000000.000000      3.704071000000000E-01     -1.420781000000000E+02      4.080048000000000E-01     -6.778515000000000E+01      3.993378000000000E-01     -1.759922000000000E+02      6.566772000000000E-01     -9.328125000000000E+01
4825000000.000000      3.736420000000000E-01     -1.430000000000000E+02      4.118347000000000E-01     -6.787499000000000E+01      4.034119000000000E-01     -1.759609000000000E+02      6.578369000000000E-01     -9.337109000000000E+01
4826000000.000000      3.780365000000000E-01     -1.440391000000000E+02      4.153748000000000E-01     -6.832031000000000E+01      4.054413000000000E-01     -1.760156000000000E+02      6.577148000000000E-01     -9.342188000000000E+01
4827000000.000000      3.821259000000000E-01     -1.449219000000000E+02      4.187164000000000E-01     -6.853516000000000E+01      4.093323000000000E-01     -1.759219000000000E+02      6.594238000000000E-01     -9.352734000000000E+01
4828000000.000000      3.873444000000000E-01     -1.458984000000000E+02      4.224548000000000E-01     -6.885156000000000E+01      4.133759000000000E-01     -1.759844000000000E+02      6.630859000000000E-01     -9.357422000000000E+01
4829000000.000000      3.901062000000000E-01     -1.467891000000000E+02      4.251556000000000E-01     -6.917187000000000E+01      4.173737000000000E-01     -1.760937000000000E+02      6.631775000000000E-01     -9.353516000000000E+01
4830000000.000000      3.952637000000000E-01     -1.477813000000000E+02      4.281616000000000E-01     -6.933984000000000E+01      4.209290000000000E-01     -1.760078000000000E+02      6.641846000000000E-01     -9.374609000000000E+01
4831000000.000000      3.993988000000000E-01     -1.486016000000000E+02      4.315033000000000E-01     -6.973437000000000E+01      4.251862000000000E-01     -1.760703000000000E+02      6.655884000000000E-01     -9.376171000000000E+01
4832000000.000000      4.048462000000000E-01     -1.496016000000000E+02      4.352875000000000E-01     -7.006640000000000E+01      4.286499000000000E-01     -1.761172000000000E+02      6.674194000000000E-01     -9.391405000000000E+01
4833000000.000000      4.096222000000000E-01     -1.505156000000000E+02      4.385071000000000E-01     -7.041016000000000E+01      4.329681000000000E-01     -1.761797000000000E+02      6.690979000000000E-01     -9.399609000000000E+01
4834000000.000000      4.141998000000000E-01     -1.513047000000000E+02      4.405212000000000E-01     -7.069921000000000E+01      4.362946000000000E-01     -1.762969000000000E+02      6.716614000000000E-01     -9.399218000000000E+01
4835000000.000000      4.192352000000000E-01     -1.521563000000000E+02      4.441528000000000E-01     -7.092578000000000E+01      4.403992000000000E-01     -1.762734000000000E+02      6.740112000000000E-01     -9.411718000000000E+01
4836000000.000000      4.250488000000000E-01     -1.528828000000000E+02      4.465637000000000E-01     -7.125390000000000E+01      4.436188000000000E-01     -1.763984000000000E+02      6.745300000000000E-01     -9.402735000000000E+01
4837000000.000000      4.302979000000000E-01     -1.537266000000000E+02      4.496765000000000E-01     -7.177734000000000E+01      4.478455000000000E-01     -1.766172000000000E+02      6.764526000000000E-01     -9.409765000000000E+01
4838000000.000000      4.351959000000000E-01     -1.545859000000000E+02      4.525604000000000E-01     -7.207421000000000E+01      4.512177000000000E-01     -1.765078000000000E+02      6.788330000000000E-01     -9.425781000000000E+01
4839000000.000000      4.407196000000000E-01     -1.552891000000000E+02      4.543762000000000E-01     -7.217968000000000E+01      4.548950000000000E-01     -1.765312000000000E+02      6.816101000000000E-01     -9.430468000000000E+01
4840000000.000000      4.447021000000000E-01     -1.560859000000000E+02      4.574585000000000E-01     -7.259766000000000E+01      4.595032000000000E-01     -1.767266000000000E+02      6.832275000000000E-01     -9.432032000000000E+01
4841000000.000000      4.503784000000000E-01     -1.569531000000000E+02      4.602814000000000E-01     -7.291406000000000E+01      4.631195000000000E-01     -1.768125000000000E+02      6.853943000000000E-01     -9.444139000000000E+01
4842000000.000000      4.557495000000000E-01     -1.575938000000000E+02      4.632263000000000E-01     -7.338672000000000E+01      4.657288000000000E-01     -1.769219000000000E+02      6.884460000000000E-01     -9.449610000000000E+01
4843000000.000000      4.603882000000000E-01     -1.583516000000000E+02      4.660492000000000E-01     -7.375781000000000E+01      4.701996000000000E-01     -1.769687000000000E+02      6.912231000000000E-01     -9.449610000000000E+01
4844000000.000000      4.649658000000000E-01     -1.589844000000000E+02      4.681854000000000E-01     -7.383984000000000E+01      4.734650000000000E-01     -1.770937000000000E+02      6.934814000000000E-01     -9.462500000000000E+01
4845000000.000000      4.696960000000000E-01     -1.596484000000000E+02      4.705048000000000E-01     -7.439062000000000E+01      4.778442000000000E-01     -1.771406000000000E+02      6.950989000000000E-01     -9.448046000000000E+01
4846000000.000000      4.749603000000000E-01     -1.602656000000000E+02      4.727173000000000E-01     -7.446094000000000E+01      4.820099000000000E-01     -1.772187000000000E+02      6.983643000000000E-01     -9.467577000000000E+01
4847000000.000000      4.802704000000000E-01     -1.610000000000000E+02      4.743652000000000E-01     -7.493359000000000E+01      4.855652000000000E-01     -1.774609000000000E+02      7.008972000000000E-01     -9.469921000000000E+01
4848000000.000000      4.854431000000000E-01     -1.615313000000000E+02      4.762726000000000E-01     -7.504296000000000E+01      4.891968000000000E-01     -1.774922000000000E+02      7.033691000000000E-01     -9.477343000000000E+01
4849000000.000000      4.895782000000000E-01     -1.624453000000000E+02      4.789734000000000E-01     -7.567187000000000E+01      4.932709000000000E-01     -1.776328000000000E+02      7.060242000000000E-01     -9.476563000000000E+01
4850000000.000000      4.942017000000000E-01     -1.628438000000000E+02      4.815063000000000E-01     -7.581640000000000E+01      4.965820000000000E-01     -1.776953000000000E+02      7.093506000000000E-01     -9.473047000000000E+01
4851000000.000000      4.988708000000000E-01     -1.634297000000000E+02      4.843445000000000E-01     -7.633594000000000E+01      4.999390000000000E-01     -1.777812000000000E+02      7.120667000000000E-01     -9.485546000000000E+01
4852000000.000000      5.032959000000000E-01     -1.640469000000000E+02      4.857788000000000E-01     -7.653515000000000E+01      5.025330000000000E-01     -1.777891000000000E+02      7.137451000000000E-01     -9.496094000000000E+01
4853000000.000000      5.080872000000000E-01     -1.646016000000000E+02      4.863129000000000E-01     -7.683203000000000E+01      5.084839000000000E-01     -1.782031000000000E+02      7.173462000000000E-01     -9.512110000000000E+01
4854000000.000000      5.118103000000000E-01     -1.651484000000000E+02      4.889374000000000E-01     -7.744141000000000E+01      5.102844000000000E-01     -1.783750000000000E+02      7.196350000000000E-01     -9.491405000000000E+01
4855000000.000000      5.148315000000000E-01     -1.656406000000000E+02      4.902344000000000E-01     -7.738671000000000E+01      5.139160000000000E-01     -1.784219000000000E+02      7.220459000000000E-01     -9.510546000000000E+01
4856000000.000000      5.199280000000000E-01     -1.661562000000000E+02      4.916077000000000E-01     -7.787499000000000E+01      5.178223000000000E-01     -1.785859000000000E+02      7.259216000000000E-01     -9.515234000000000E+01
4857000000.000000      5.231628000000000E-01     -1.667266000000000E+02      4.946442000000000E-01     -7.809765000000000E+01      5.219116000000000E-01     -1.786719000000000E+02      7.287292000000000E-01     -9.517187000000000E+01
4858000000.000000      5.249329000000000E-01     -1.672188000000000E+02      4.965057000000000E-01     -7.833984000000000E+01      5.234070000000000E-01     -1.787109000000000E+02      7.313538000000000E-01     -9.525782000000000E+01
4859000000.000000      5.293274000000000E-01     -1.677344000000000E+02      4.965363000000000E-01     -7.871875000000000E+01      5.280151000000000E-01     -1.790937000000000E+02      7.353516000000000E-01     -9.526562000000000E+01
4860000000.000000      5.330505000000000E-01     -1.681172000000000E+02      4.987488000000000E-01     -7.896484000000000E+01      5.296936000000000E-01     -1.791719000000000E+02      7.367554000000000E-01     -9.528906000000000E+01
4861000000.000000      5.358276000000000E-01     -1.685781000000000E+02      5.008545000000000E-01     -7.959374000000000E+01      5.345459000000000E-01     -1.793828000000000E+02      7.395020000000000E-01     -9.536327000000000E+01
4862000000.000000      5.384827000000000E-01     -1.689922000000000E+02      5.016785000000000E-01     -7.977734000000000E+01      5.369263000000000E-01     -1.794844000000000E+02      7.441101000000000E-01     -9.539454000000000E+01
4863000000.000000      5.409851000000000E-01     -1.693438000000000E+02      5.012512000000000E-01     -7.993359000000000E+01      5.407104000000000E-01     -1.797891000000000E+02      7.452698000000000E-01     -9.544531000000000E+01
4864000000.000000      5.438538000000000E-01     -1.697656000000000E+02      5.033875000000000E-01     -8.016796000000000E+01      5.426025000000000E-01     -1.797891000000000E+02      7.477112000000000E-01     -9.552343000000000E+01
4865000000.000000      5.449524000000000E-01     -1.702969000000000E+02      5.046997000000000E-01     -8.056250000000000E+01      5.459595000000000E-01      1.799375000000000E+02      7.501831000000000E-01     -9.541016000000000E+01
4866000000.000000      5.465088000000000E-01     -1.705234000000000E+02      5.032654000000000E-01     -8.080078000000000E+01      5.481567000000000E-01      1.796953000000000E+02      7.540283000000000E-01     -9.554688000000000E+01
4867000000.000000      5.488892000000000E-01     -1.708125000000000E+02      5.070496000000000E-01     -8.121485000000000E+01      5.523987000000000E-01      1.794765000000000E+02      7.573242000000000E-01     -9.562109000000000E+01
4868000000.000000      5.510559000000000E-01     -1.712109000000000E+02      5.084534000000000E-01     -8.139843000000000E+01      5.549316000000000E-01      1.793203000000000E+02      7.601929000000000E-01     -9.554296000000000E+01
4869000000.000000      5.511169000000000E-01     -1.715078000000000E+02      5.076904000000000E-01     -8.171484000000000E+01      5.570984000000000E-01      1.790703000000000E+02      7.623901000000000E-01     -9.575781000000000E+01
4870000000.000000      5.530090000000000E-01     -1.718203000000000E+02      5.096436000000000E-01     -8.156641000000000E+01      5.587158000000000E-01      1.788594000000000E+02      7.646790000000000E-01     -9.556641000000000E+01
4871000000.000000      5.539856000000000E-01     -1.722031000000000E+02      5.100403000000000E-01     -8.219141000000000E+01      5.603638000000000E-01      1.786641000000000E+02      7.677307000000000E-01     -9.578125000000000E+01
4872000000.000000      5.565186000000000E-01     -1.724609000000000E+02      5.106812000000000E-01     -8.229296000000000E+01      5.624084000000000E-01      1.782656000000000E+02      7.690735000000000E-01     -9.585546000000000E+01
4873000000.000000      5.568237000000000E-01     -1.725781000000000E+02      5.111694000000000E-01     -8.248047000000000E+01      5.647888000000000E-01      1.783281000000000E+02      7.721252000000000E-01     -9.586329000000000E+01
4874000000.000000      5.563049000000000E-01     -1.728437000000000E+02      5.119629000000000E-01     -8.288280000000000E+01      5.690918000000000E-01      1.782109000000000E+02      7.731934000000000E-01     -9.574610000000000E+01
4875000000.000000      5.585327000000000E-01     -1.731484000000000E+02      5.117188000000000E-01     -8.276562000000000E+01      5.706482000000000E-01      1.779297000000000E+02      7.742615000000000E-01     -9.592968000000000E+01
4876000000.000000      5.578918000000000E-01     -1.733203000000000E+02      5.138855000000000E-01     -8.310547000000000E+01      5.698547000000000E-01      1.778047000000000E+02      7.783203000000000E-01     -9.597656000000000E+01
4877000000.000000      5.580139000000000E-01     -1.735234000000000E+02      5.144043000000000E-01     -8.334764000000000E+01      5.748901000000000E-01      1.773438000000000E+02      7.801514000000000E-01     -9.613281000000000E+01
4878000000.000000      5.583496000000000E-01     -1.737109000000000E+02      5.167542000000000E-01     -8.355860000000000E+01      5.751648000000000E-01      1.774453000000000E+02      7.822876000000000E-01     -9.616405000000000E+01
4879000000.000000      5.590210000000000E-01     -1.738750000000000E+02      5.156555000000000E-01     -8.369532000000000E+01      5.771179000000000E-01      1.771406000000000E+02      7.848206000000000E-01     -9.601171000000000E+01
4880000000.000000      5.577087000000000E-01     -1.740391000000000E+02      5.175476000000000E-01     -8.400782000000000E+01      5.798950000000000E-01      1.768437000000000E+02      7.858582000000000E-01     -9.610546000000000E+01
4881000000.000000      5.578003000000000E-01     -1.740781000000000E+02      5.187988000000000E-01     -8.410156000000000E+01      5.812988000000000E-01      1.766250000000000E+02      7.879944000000000E-01     -9.625389000000000E+01
4882000000.000000      5.558472000000000E-01     -1.743203000000000E+02      5.199890000000000E-01     -8.437109000000000E+01      5.827637000000000E-01      1.765703000000000E+02      7.887878000000000E-01     -9.621874000000000E+01
