! Network Analyzer HP8722D
! Hewlett-Packard
! Data name: Linha & Wilkinson
! Saver's name: Rodrigo Anjos
! Comments: Teste da utilização de aquisição
continua pelo VNA HP8722D
! Time and date: 17/4/2025 16:12
!              Frequency                     S11                                                   S21                                                   S12                                                   S22
# HZ  S  MA R 50
4800000000.000000      3.359985000000000E-01     -1.160234000000000E+02      3.086548000000000E-01     -6.195313000000000E+01      3.043213000000000E-01     -1.761172000000000E+02      6.567688000000000E-01     -9.106249000000000E+01
4801000000.000000      3.348694000000000E-01     -1.169844000000000E+02      3.135376000000000E-01     -6.203320000000000E+01      3.072815000000000E-01     -1.761094000000000E+02      6.552734000000000E-01     -9.108202000000000E+01
4802000000.000000      3.339691000000000E-01     -1.180625000000000E+02      3.181305000000000E-01     -6.220898000000000E+01      3.110962000000000E-01     -1.760703000000000E+02      6.545715000000000E-01     -9.117579000000000E+01
4803000000.000000      3.336487000000000E-01     -1.190898000000000E+02      3.227539000000000E-01     -6.227344000000000E+01      3.148499000000000E-01     -1.759375000000000E+02      6.541138000000000E-01     -9.127733000000000E+01
4804000000.000000      3.331299000000000E-01     -1.199648000000000E+02      3.263855000000000E-01     -6.249218000000000E+01      3.188324000000000E-01     -1.759687000000000E+02      6.532288000000000E-01     -9.136328000000000E+01
4805000000.000000      3.339691000000000E-01     -1.210976000000000E+02      3.310852000000000E-01     -6.260156000000000E+01      3.236542000000000E-01     -1.758594000000000E+02      6.539307000000000E-01     -9.156250000000000E+01
4806000000.000000      3.332367000000000E-01     -1.220039000000000E+02      3.358307000000000E-01     -6.275000000000000E+01      3.264160000000000E-01     -1.756953000000000E+02      6.529541000000000E-01     -9.158983000000000E+01
4807000000.000000      3.339081000000000E-01     -1.232383000000000E+02      3.396912000000000E-01     -6.302929000000000E+01      3.307800000000000E-01     -1.758281000000000E+02      6.524048000000000E-01     -9.170702000000000E+01
4808000000.000000      3.341217000000000E-01     -1.242148000000000E+02      3.440094000000000E-01     -6.301952000000000E+01      3.340912000000000E-01     -1.757969000000000E+02      6.509705000000000E-01     -9.182032000000000E+01
4809000000.000000      3.340454000000000E-01     -1.253164000000000E+02      3.480682000000000E-01     -6.366015000000000E+01      3.386841000000000E-01     -1.758828000000000E+02      6.508484000000000E-01     -9.192186000000000E+01
4810000000.000000      3.354340000000000E-01     -1.264805000000000E+02      3.525238000000000E-01     -6.360937000000000E+01      3.424225000000000E-01     -1.757500000000000E+02      6.508789000000000E-01     -9.198828000000000E+01
4811000000.000000      3.369141000000000E-01     -1.275078000000000E+02      3.568268000000000E-01     -6.423828000000000E+01      3.470917000000000E-01     -1.756094000000000E+02      6.503906000000000E-01     -9.196484000000000E+01
4812000000.000000      3.386536000000000E-01     -1.285391000000000E+02      3.605499000000000E-01     -6.426952000000000E+01      3.507233000000000E-01     -1.755156000000000E+02      6.504822000000000E-01     -9.214062000000000E+01
4813000000.000000      3.392487000000000E-01     -1.296094000000000E+02      3.647003000000000E-01     -6.439062000000000E+01      3.541107000000000E-01     -1.754062000000000E+02      6.513672000000000E-01     -9.222656000000000E+01
4814000000.000000      3.404999000000000E-01     -1.308359000000000E+02      3.687592000000000E-01     -6.459765000000000E+01      3.579865000000000E-01     -1.756328000000000E+02      6.499634000000000E-01     -9.232813000000000E+01
4815000000.000000      3.424835000000000E-01     -1.318281000000000E+02      3.717041000000000E-01     -6.485156000000000E+01      3.609161000000000E-01     -1.756172000000000E+02      6.507568000000000E-01     -9.230860000000000E+01
4816000000.000000      3.446960000000000E-01     -1.329062000000000E+02      3.768921000000000E-01     -6.507813000000000E+01      3.659210000000000E-01     -1.755078000000000E+02      6.500244000000000E-01     -9.245312000000000E+01
4817000000.000000      3.475800000000000E-01     -1.340469000000000E+02      3.799744000000000E-01     -6.534374000000000E+01      3.688660000000000E-01     -1.756172000000000E+02      6.505127000000000E-01     -9.252733000000000E+01
4818000000.000000      3.498077000000000E-01     -1.351172000000000E+02      3.838959000000000E-01     -6.564843000000000E+01      3.734894000000000E-01     -1.755938000000000E+02      6.503296000000000E-01     -9.266796000000000E+01
4819000000.000000      3.528748000000000E-01     -1.362500000000000E+02      3.876495000000000E-01     -6.590234000000000E+01      3.766937000000000E-01     -1.755156000000000E+02      6.523438000000000E-01     -9.273829000000000E+01
4820000000.000000      3.546600000000000E-01     -1.372187000000000E+02      3.911743000000000E-01     -6.615234000000000E+01      3.807678000000000E-01     -1.756562000000000E+02      6.519165000000000E-01     -9.281250000000000E+01
4821000000.000000      3.582153000000000E-01     -1.383906000000000E+02      3.949738000000000E-01     -6.648046000000000E+01      3.838043000000000E-01     -1.758516000000000E+02      6.530151000000000E-01     -9.286327000000000E+01
4822000000.000000      3.624268000000000E-01     -1.393828000000000E+02      3.981323000000000E-01     -6.667578000000000E+01      3.883209000000000E-01     -1.756250000000000E+02      6.528931000000000E-01     -9.290234000000000E+01
4823000000.000000      3.650513000000000E-01     -1.404375000000000E+02      4.020081000000000E-01     -6.689062000000000E+01      3.911438000000000E-01     -1.755078000000000E+02      6.541748000000000E-01     -9.302734000000000E+01
4824000000.000000      3.692169000000000E-01     -1.415469000000000E+02      4.060059000000000E-01     -6.746875000000000E+01      3.961945000000000E-01     -1.756484000000000E+02      6.561890000000000E-01     -9.309374000000000E+01
4825000000.000000      3.723602000000000E-01     -1.424844000000000E+02      4.082794000000000E-01     -6.756640000000000E+01      4.002838000000000E-01     -1.756562000000000E+02      6.568604000000000E-01     -9.318750000000000E+01
4826000000.000000      3.770905000000000E-01     -1.435547000000000E+02      4.122925000000000E-01     -6.789453000000000E+01      4.033661000000000E-01     -1.756719000000000E+02      6.586304000000000E-01     -9.326952000000000E+01
4827000000.000000      3.812866000000000E-01     -1.443906000000000E+02      4.163361000000000E-01     -6.804688000000000E+01      4.065552000000000E-01     -1.756641000000000E+02      6.598511000000000E-01     -9.330858000000000E+01
4828000000.000000      3.860931000000000E-01     -1.454141000000000E+02      4.199677000000000E-01     -6.830078000000000E+01      4.105988000000000E-01     -1.757344000000000E+02      6.617432000000000E-01     -9.337109000000000E+01
4829000000.000000      3.886566000000000E-01     -1.462891000000000E+02      4.220734000000000E-01     -6.866796000000000E+01      4.145203000000000E-01     -1.757422000000000E+02      6.627502000000000E-01     -9.339844000000000E+01
4830000000.000000      3.939514000000000E-01     -1.472422000000000E+02      4.257813000000000E-01     -6.901953000000000E+01      4.183807000000000E-01     -1.755938000000000E+02      6.642151000000000E-01     -9.350000000000000E+01
4831000000.000000      3.978729000000000E-01     -1.481172000000000E+02      4.286346000000000E-01     -6.942577000000000E+01      4.229889000000000E-01     -1.756797000000000E+02      6.659241000000000E-01     -9.355469000000000E+01
4832000000.000000      4.040222000000000E-01     -1.490547000000000E+02      4.322205000000000E-01     -6.958202000000000E+01      4.254456000000000E-01     -1.757813000000000E+02      6.676331000000000E-01     -9.360937000000000E+01
4833000000.000000      4.089050000000000E-01     -1.500078000000000E+02      4.356232000000000E-01     -6.992188000000000E+01      4.295044000000000E-01     -1.758516000000000E+02      6.692505000000000E-01     -9.372265000000000E+01
4834000000.000000      4.133148000000000E-01     -1.508359000000000E+02      4.381104000000000E-01     -7.019921000000000E+01      4.340515000000000E-01     -1.758516000000000E+02      6.707764000000000E-01     -9.377733000000000E+01
4835000000.000000      4.177551000000000E-01     -1.516797000000000E+02      4.413452000000000E-01     -7.056250000000000E+01      4.389954000000000E-01     -1.759375000000000E+02      6.726990000000000E-01     -9.384375000000000E+01
4836000000.000000      4.237213000000000E-01     -1.524297000000000E+02      4.447021000000000E-01     -7.091015000000000E+01      4.415283000000000E-01     -1.759453000000000E+02      6.758423000000000E-01     -9.379686000000000E+01
4837000000.000000      4.286804000000000E-01     -1.531719000000000E+02      4.472961000000000E-01     -7.144140000000000E+01      4.450226000000000E-01     -1.761016000000000E+02      6.767578000000000E-01     -9.398046000000000E+01
4838000000.000000      4.341736000000000E-01     -1.540781000000000E+02      4.510651000000000E-01     -7.162890000000000E+01      4.489899000000000E-01     -1.761250000000000E+02      6.793518000000000E-01     -9.396484000000000E+01
4839000000.000000      4.390717000000000E-01     -1.547578000000000E+02      4.521790000000000E-01     -7.185156000000000E+01      4.533081000000000E-01     -1.762109000000000E+02      6.810608000000000E-01     -9.396093000000000E+01
4840000000.000000      4.435730000000000E-01     -1.556172000000000E+02      4.552460000000000E-01     -7.225780000000000E+01      4.571686000000000E-01     -1.763594000000000E+02      6.839905000000000E-01     -9.410936000000000E+01
4841000000.000000      4.489441000000000E-01     -1.564609000000000E+02      4.585266000000000E-01     -7.266015000000000E+01      4.609375000000000E-01     -1.764844000000000E+02      6.856384000000000E-01     -9.408594000000000E+01
4842000000.000000      4.547272000000000E-01     -1.570859000000000E+02      4.614563000000000E-01     -7.283984000000000E+01      4.638062000000000E-01     -1.764609000000000E+02      6.877136000000000E-01     -9.418749000000000E+01
4843000000.000000      4.587555000000000E-01     -1.578828000000000E+02      4.633789000000000E-01     -7.323047000000000E+01      4.680023000000000E-01     -1.766328000000000E+02      6.906433000000000E-01     -9.410936000000000E+01
4844000000.000000      4.637604000000000E-01     -1.584922000000000E+02      4.658051000000000E-01     -7.351953000000000E+01      4.721222000000000E-01     -1.767031000000000E+02      6.927490000000000E-01     -9.429296000000000E+01
4845000000.000000      4.684448000000000E-01     -1.591328000000000E+02      4.682465000000000E-01     -7.381249000000000E+01      4.757996000000000E-01     -1.768047000000000E+02      6.940308000000000E-01     -9.434374000000000E+01
4846000000.000000      4.737854000000000E-01     -1.597344000000000E+02      4.709778000000000E-01     -7.414453000000000E+01      4.801025000000000E-01     -1.768984000000000E+02      6.981201000000000E-01     -9.440233000000000E+01
4847000000.000000      4.793701000000000E-01     -1.605000000000000E+02      4.726410000000000E-01     -7.439843000000000E+01      4.838715000000000E-01     -1.770625000000000E+02      7.008972000000000E-01     -9.447266000000000E+01
4848000000.000000      4.841309000000000E-01     -1.610781000000000E+02      4.748230000000000E-01     -7.491405000000000E+01      4.874268000000000E-01     -1.770547000000000E+02      7.032471000000000E-01     -9.452343000000000E+01
4849000000.000000      4.883423000000000E-01     -1.619219000000000E+02      4.778748000000000E-01     -7.524609000000000E+01      4.915619000000000E-01     -1.772578000000000E+02      7.056885000000000E-01     -9.459764000000000E+01
4850000000.000000      4.931183000000000E-01     -1.623437000000000E+02      4.800568000000000E-01     -7.557031000000000E+01      4.948730000000000E-01     -1.772891000000000E+02      7.087402000000000E-01     -9.469530000000000E+01
4851000000.000000      4.976959000000000E-01     -1.629141000000000E+02      4.828491000000000E-01     -7.598046000000000E+01      4.973602000000000E-01     -1.774141000000000E+02      7.106628000000000E-01     -9.460155000000000E+01
4852000000.000000      5.027466000000000E-01     -1.635000000000000E+02      4.841003000000000E-01     -7.616015000000000E+01      5.006104000000000E-01     -1.774531000000000E+02      7.134094000000000E-01     -9.463671000000000E+01
4853000000.000000      5.074158000000000E-01     -1.641484000000000E+02      4.847870000000000E-01     -7.658203000000000E+01      5.055542000000000E-01     -1.777578000000000E+02      7.172241000000000E-01     -9.480860000000000E+01
4854000000.000000      5.109253000000000E-01     -1.646016000000000E+02      4.877014000000000E-01     -7.691015000000000E+01      5.091553000000000E-01     -1.778594000000000E+02      7.202454000000000E-01     -9.480469000000000E+01
4855000000.000000      5.134888000000000E-01     -1.652812000000000E+02      4.883575000000000E-01     -7.712109000000000E+01      5.126953000000000E-01     -1.779297000000000E+02      7.213440000000000E-01     -9.471483000000000E+01
4856000000.000000      5.194092000000000E-01     -1.656250000000000E+02      4.902039000000000E-01     -7.742969000000000E+01      5.158997000000000E-01     -1.780859000000000E+02      7.254944000000000E-01     -9.489061000000000E+01
4857000000.000000      5.227966000000000E-01     -1.662188000000000E+02      4.940033000000000E-01     -7.775000000000000E+01      5.190735000000000E-01     -1.782969000000000E+02      7.287598000000000E-01     -9.486719000000000E+01
4858000000.000000      5.245361000000000E-01     -1.667187000000000E+02      4.956512000000000E-01     -7.805469000000000E+01      5.216370000000000E-01     -1.785234000000000E+02      7.299805000000000E-01     -9.494141000000000E+01
4859000000.000000      5.281677000000000E-01     -1.672031000000000E+02      4.956665000000000E-01     -7.827343000000000E+01      5.264282000000000E-01     -1.787734000000000E+02      7.363892000000000E-01     -9.515234000000000E+01
4860000000.000000      5.330811000000000E-01     -1.676953000000000E+02      4.962158000000000E-01     -7.857422000000000E+01      5.286255000000000E-01     -1.788125000000000E+02      7.371826000000000E-01     -9.507813000000000E+01
4861000000.000000      5.355530000000000E-01     -1.680469000000000E+02      4.994354000000000E-01     -7.905859000000000E+01      5.324097000000000E-01     -1.790000000000000E+02      7.397156000000000E-01     -9.519531000000000E+01
4862000000.000000      5.381775000000000E-01     -1.685078000000000E+02      5.011292000000000E-01     -7.915234000000000E+01      5.365906000000000E-01     -1.791250000000000E+02      7.442322000000000E-01     -9.495703000000000E+01
4863000000.000000      5.399170000000000E-01     -1.689219000000000E+02      5.010376000000000E-01     -7.974609000000000E+01      5.403137000000000E-01     -1.792500000000000E+02      7.457581000000000E-01     -9.513281000000000E+01
4864000000.000000      5.433350000000000E-01     -1.693125000000000E+02      5.036011000000000E-01     -7.979297000000000E+01      5.408936000000000E-01     -1.795625000000000E+02      7.472534000000000E-01     -9.524609000000000E+01
4865000000.000000      5.450439000000000E-01     -1.697187000000000E+02      5.032654000000000E-01     -7.996875000000000E+01      5.438538000000000E-01     -1.796250000000000E+02      7.506104000000000E-01     -9.517969000000000E+01
4866000000.000000      5.461121000000000E-01     -1.700781000000000E+02      5.030518000000000E-01     -8.039063000000000E+01      5.484619000000000E-01     -1.798984000000000E+02      7.540283000000000E-01     -9.519922000000000E+01
4867000000.000000      5.488281000000000E-01     -1.704062000000000E+02      5.061951000000000E-01     -8.083984000000000E+01      5.504456000000000E-01      1.799609000000000E+02      7.572327000000000E-01     -9.536718000000000E+01
4868000000.000000      5.511780000000000E-01     -1.708828000000000E+02      5.075684000000000E-01     -8.097265000000000E+01      5.551453000000000E-01      1.798672000000000E+02      7.588196000000000E-01     -9.538280000000000E+01
4869000000.000000      5.511780000000000E-01     -1.711562000000000E+02      5.073853000000000E-01     -8.119532000000000E+01      5.569763000000000E-01      1.794844000000000E+02      7.613220000000000E-01     -9.558203000000000E+01
4870000000.000000      5.534668000000000E-01     -1.713984000000000E+02      5.097656000000000E-01     -8.122656000000000E+01      5.590210000000000E-01      1.793359000000000E+02      7.622070000000000E-01     -9.539063000000000E+01
4871000000.000000      5.548401000000000E-01     -1.717734000000000E+02      5.113525000000000E-01     -8.183594000000000E+01      5.602722000000000E-01      1.790703000000000E+02      7.669067000000000E-01     -9.556250000000000E+01
4872000000.000000      5.556641000000000E-01     -1.720078000000000E+02      5.112610000000000E-01     -8.174219000000000E+01      5.627747000000000E-01      1.787969000000000E+02      7.686462000000000E-01     -9.569921000000000E+01
4873000000.000000      5.567017000000000E-01     -1.722188000000000E+02      5.113831000000000E-01     -8.194921000000000E+01      5.645142000000000E-01      1.787266000000000E+02      7.707214000000000E-01     -9.569139000000000E+01
4874000000.000000      5.570068000000000E-01     -1.724297000000000E+02      5.107727000000000E-01     -8.238672000000000E+01      5.686340000000000E-01      1.784922000000000E+02      7.723694000000000E-01     -9.566797000000000E+01
4875000000.000000      5.586853000000000E-01     -1.727422000000000E+02      5.112305000000000E-01     -8.266796000000000E+01      5.697632000000000E-01      1.782500000000000E+02      7.757263000000000E-01     -9.573828000000000E+01
4876000000.000000      5.580139000000000E-01     -1.729141000000000E+02      5.138855000000000E-01     -8.283983000000000E+01      5.705566000000000E-01      1.781172000000000E+02      7.785339000000000E-01     -9.578125000000000E+01
4877000000.000000      5.580444000000000E-01     -1.730781000000000E+02      5.150146000000000E-01     -8.297655000000000E+01      5.743103000000000E-01      1.777656000000000E+02      7.798462000000000E-01     -9.578125000000000E+01
4878000000.000000      5.586548000000000E-01     -1.732656000000000E+02      5.172119000000000E-01     -8.317968000000000E+01      5.755920000000000E-01      1.776953000000000E+02      7.826843000000000E-01     -9.589844000000000E+01
4879000000.000000      5.596008000000000E-01     -1.734609000000000E+02      5.168152000000000E-01     -8.341015000000000E+01      5.768127000000000E-01      1.774062000000000E+02      7.849121000000000E-01     -9.578125000000000E+01
4880000000.000000      5.574951000000000E-01     -1.735859000000000E+02      5.173340000000000E-01     -8.376562000000000E+01      5.798950000000000E-01      1.773516000000000E+02      7.873535000000000E-01     -9.589062000000000E+01
4881000000.000000      5.587769000000000E-01     -1.736562000000000E+02      5.190430000000000E-01     -8.355078000000000E+01      5.807190000000000E-01      1.769375000000000E+02      7.881775000000000E-01     -9.601563000000000E+01
4882000000.000000      5.573120000000000E-01     -1.737813000000000E+02      5.181885000000000E-01     -8.400000000000000E+01      5.821533000000000E-01      1.769766000000000E+02      7.882996000000000E-01     -9.605858000000000E+01
