! Network Analyzer HP8722D
! Hewlett-Packard
! Data name: Linha & Wilkinson
! Saver's name: Rodrigo Anjos
! Comments: Teste da utilização de aquisição
continua pelo VNA HP8722D
! Time and date: 17/4/2025 18:08
!              Frequency                     S11                                                   S21                                                   S12                                                   S22
# HZ  S  MA R 50
4800000000.000000      3.337250000000000E-01     -1.138242000000000E+02      2.945709000000000E-01     -6.096874000000000E+01      2.884827000000000E-01     -1.751484000000000E+02      6.572571000000000E-01     -9.030077000000000E+01
4801000000.000000      3.324890000000000E-01     -1.146523000000000E+02      2.997131000000000E-01     -6.099218000000000E+01      2.918701000000000E-01     -1.749844000000000E+02      6.576843000000000E-01     -9.025000000000000E+01
4802000000.000000      3.317566000000000E-01     -1.157227000000000E+02      3.039246000000000E-01     -6.113086000000000E+01      2.965240000000000E-01     -1.749141000000000E+02      6.549377000000000E-01     -9.031250000000000E+01
4803000000.000000      3.309174000000000E-01     -1.167891000000000E+02      3.086090000000000E-01     -6.115429000000000E+01      3.000488000000000E-01     -1.748125000000000E+02      6.539612000000000E-01     -9.052343000000000E+01
4804000000.000000      3.302002000000000E-01     -1.177930000000000E+02      3.127594000000000E-01     -6.126953000000000E+01      3.046875000000000E-01     -1.748125000000000E+02      6.529236000000000E-01     -9.051172000000000E+01
4805000000.000000      3.308868000000000E-01     -1.188945000000000E+02      3.169861000000000E-01     -6.155468000000000E+01      3.085938000000000E-01     -1.746172000000000E+02      6.531677000000000E-01     -9.069139000000000E+01
4806000000.000000      3.303223000000000E-01     -1.196601000000000E+02      3.214722000000000E-01     -6.160742000000000E+01      3.121643000000000E-01     -1.744375000000000E+02      6.530457000000000E-01     -9.070704000000000E+01
4807000000.000000      3.301849000000000E-01     -1.209219000000000E+02      3.255920000000000E-01     -6.182812000000000E+01      3.168945000000000E-01     -1.745078000000000E+02      6.517029000000000E-01     -9.083202000000000E+01
4808000000.000000      3.310242000000000E-01     -1.218398000000000E+02      3.301697000000000E-01     -6.182226000000000E+01      3.202972000000000E-01     -1.744375000000000E+02      6.516418000000000E-01     -9.088671000000000E+01
4809000000.000000      3.311615000000000E-01     -1.229531000000000E+02      3.339233000000000E-01     -6.218750000000000E+01      3.252411000000000E-01     -1.742734000000000E+02      6.517029000000000E-01     -9.098436000000000E+01
4810000000.000000      3.312988000000000E-01     -1.241562000000000E+02      3.396454000000000E-01     -6.235546000000000E+01      3.285828000000000E-01     -1.744062000000000E+02      6.511536000000000E-01     -9.122265000000000E+01
4811000000.000000      3.337708000000000E-01     -1.252031000000000E+02      3.437042000000000E-01     -6.258203000000000E+01      3.337250000000000E-01     -1.741953000000000E+02      6.495056000000000E-01     -9.115234000000000E+01
4812000000.000000      3.346252000000000E-01     -1.261797000000000E+02      3.479462000000000E-01     -6.275391000000000E+01      3.372955000000000E-01     -1.741406000000000E+02      6.504822000000000E-01     -9.117968000000000E+01
4813000000.000000      3.353729000000000E-01     -1.273555000000000E+02      3.516541000000000E-01     -6.308398000000000E+01      3.408051000000000E-01     -1.740469000000000E+02      6.504211000000000E-01     -9.125780000000000E+01
4814000000.000000      3.366547000000000E-01     -1.285703000000000E+02      3.563232000000000E-01     -6.329492000000000E+01      3.445587000000000E-01     -1.741250000000000E+02      6.494446000000000E-01     -9.150782000000000E+01
4815000000.000000      3.382416000000000E-01     -1.295312000000000E+02      3.609161000000000E-01     -6.342773000000000E+01      3.479309000000000E-01     -1.740859000000000E+02      6.488953000000000E-01     -9.149218000000000E+01
4816000000.000000      3.405151000000000E-01     -1.305859000000000E+02      3.647766000000000E-01     -6.354297000000000E+01      3.537292000000000E-01     -1.739922000000000E+02      6.502380000000000E-01     -9.146875000000000E+01
4817000000.000000      3.432312000000000E-01     -1.316875000000000E+02      3.682556000000000E-01     -6.380468000000000E+01      3.563690000000000E-01     -1.740625000000000E+02      6.502686000000000E-01     -9.160936000000000E+01
4818000000.000000      3.446960000000000E-01     -1.329219000000000E+02      3.719330000000000E-01     -6.407031000000000E+01      3.612061000000000E-01     -1.739687000000000E+02      6.510925000000000E-01     -9.170313000000000E+01
4819000000.000000      3.478851000000000E-01     -1.338750000000000E+02      3.759918000000000E-01     -6.437890000000000E+01      3.645477000000000E-01     -1.740000000000000E+02      6.531372000000000E-01     -9.185156000000000E+01
4820000000.000000      3.494873000000000E-01     -1.349531000000000E+02      3.798065000000000E-01     -6.464453000000000E+01      3.688049000000000E-01     -1.739297000000000E+02      6.519165000000000E-01     -9.187500000000000E+01
4821000000.000000      3.530731000000000E-01     -1.360234000000000E+02      3.840027000000000E-01     -6.489062000000000E+01      3.722687000000000E-01     -1.740391000000000E+02      6.520081000000000E-01     -9.198828000000000E+01
4822000000.000000      3.576202000000000E-01     -1.371641000000000E+02      3.874969000000000E-01     -6.520702000000000E+01      3.760376000000000E-01     -1.739219000000000E+02      6.541748000000000E-01     -9.203125000000000E+01
4823000000.000000      3.597870000000000E-01     -1.381641000000000E+02      3.907318000000000E-01     -6.535937000000000E+01      3.806000000000000E-01     -1.737422000000000E+02      6.549377000000000E-01     -9.215235000000000E+01
4824000000.000000      3.643494000000000E-01     -1.392969000000000E+02      3.944244000000000E-01     -6.576953000000000E+01      3.849640000000000E-01     -1.739219000000000E+02      6.562805000000000E-01     -9.226563000000000E+01
4825000000.000000      3.668671000000000E-01     -1.402578000000000E+02      3.983154000000000E-01     -6.591015000000000E+01      3.894196000000000E-01     -1.738359000000000E+02      6.567078000000000E-01     -9.225000000000000E+01
4826000000.000000      3.717804000000000E-01     -1.412969000000000E+02      4.025726000000000E-01     -6.625390000000000E+01      3.926086000000000E-01     -1.739375000000000E+02      6.589050000000000E-01     -9.238672000000000E+01
4827000000.000000      3.759003000000000E-01     -1.421172000000000E+02      4.057617000000000E-01     -6.640234000000000E+01      3.962250000000000E-01     -1.737969000000000E+02      6.596069000000000E-01     -9.238672000000000E+01
4828000000.000000      3.803406000000000E-01     -1.431953000000000E+02      4.099274000000000E-01     -6.674609000000000E+01      3.999481000000000E-01     -1.738594000000000E+02      6.614380000000000E-01     -9.249609000000000E+01
4829000000.000000      3.831787000000000E-01     -1.440312000000000E+02      4.125366000000000E-01     -6.707812000000000E+01      4.038239000000000E-01     -1.738984000000000E+02      6.618958000000000E-01     -9.238672000000000E+01
4830000000.000000      3.883972000000000E-01     -1.450156000000000E+02      4.163971000000000E-01     -6.749609000000000E+01      4.081116000000000E-01     -1.738750000000000E+02      6.642151000000000E-01     -9.253515000000000E+01
4831000000.000000      3.923492000000000E-01     -1.459219000000000E+02      4.190826000000000E-01     -6.769140000000000E+01      4.126434000000000E-01     -1.739297000000000E+02      6.664124000000000E-01     -9.271875000000000E+01
4832000000.000000      3.980103000000000E-01     -1.468437000000000E+02      4.239807000000000E-01     -6.794531000000000E+01      4.165039000000000E-01     -1.740000000000000E+02      6.677246000000000E-01     -9.274218000000000E+01
4833000000.000000      4.029541000000000E-01     -1.478672000000000E+02      4.268799000000000E-01     -6.823828000000000E+01      4.196777000000000E-01     -1.741016000000000E+02      6.686096000000000E-01     -9.283983000000000E+01
4834000000.000000      4.077759000000000E-01     -1.486953000000000E+02      4.290161000000000E-01     -6.860156000000000E+01      4.241180000000000E-01     -1.740937000000000E+02      6.708679000000000E-01     -9.287109000000000E+01
4835000000.000000      4.123535000000000E-01     -1.494609000000000E+02      4.331818000000000E-01     -6.895312000000000E+01      4.287109000000000E-01     -1.740781000000000E+02      6.730042000000000E-01     -9.298828000000000E+01
4836000000.000000      4.183197000000000E-01     -1.502422000000000E+02      4.363403000000000E-01     -6.914844000000000E+01      4.328308000000000E-01     -1.741328000000000E+02      6.733398000000000E-01     -9.297266000000000E+01
4837000000.000000      4.234009000000000E-01     -1.510469000000000E+02      4.386292000000000E-01     -6.963281000000000E+01      4.362640000000000E-01     -1.742656000000000E+02      6.765137000000000E-01     -9.304688000000000E+01
4838000000.000000      4.289246000000000E-01     -1.519531000000000E+02      4.422760000000000E-01     -6.984765000000000E+01      4.402161000000000E-01     -1.742734000000000E+02      6.783142000000000E-01     -9.307812000000000E+01
4839000000.000000      4.337158000000000E-01     -1.526406000000000E+02      4.456482000000000E-01     -7.012890000000000E+01      4.445801000000000E-01     -1.742578000000000E+02      6.817932000000000E-01     -9.300781000000000E+01
4840000000.000000      4.384918000000000E-01     -1.535391000000000E+02      4.482574000000000E-01     -7.026562000000000E+01      4.484406000000000E-01     -1.744141000000000E+02      6.821594000000000E-01     -9.317968000000000E+01
4841000000.000000      4.441833000000000E-01     -1.543047000000000E+02      4.509277000000000E-01     -7.087109000000000E+01      4.526520000000000E-01     -1.745625000000000E+02      6.846924000000000E-01     -9.322266000000000E+01
4842000000.000000      4.495697000000000E-01     -1.549219000000000E+02      4.553375000000000E-01     -7.112109000000000E+01      4.560394000000000E-01     -1.745859000000000E+02      6.888123000000000E-01     -9.328905000000000E+01
4843000000.000000      4.543152000000000E-01     -1.557578000000000E+02      4.575043000000000E-01     -7.157421000000000E+01      4.602814000000000E-01     -1.746484000000000E+02      6.896362000000000E-01     -9.326563000000000E+01
4844000000.000000      4.591522000000000E-01     -1.564219000000000E+02      4.587250000000000E-01     -7.177734000000000E+01      4.640503000000000E-01     -1.747813000000000E+02      6.929626000000000E-01     -9.336329000000000E+01
4845000000.000000      4.646454000000000E-01     -1.570703000000000E+02      4.624329000000000E-01     -7.201953000000000E+01      4.684753000000000E-01     -1.748828000000000E+02      6.955566000000000E-01     -9.342577000000000E+01
4846000000.000000      4.691467000000000E-01     -1.576484000000000E+02      4.652252000000000E-01     -7.233984000000000E+01      4.730530000000000E-01     -1.749063000000000E+02      6.985474000000000E-01     -9.338282000000000E+01
4847000000.000000      4.749908000000000E-01     -1.584219000000000E+02      4.673309000000000E-01     -7.270312000000000E+01      4.770813000000000E-01     -1.750859000000000E+02      7.011108000000000E-01     -9.360546000000000E+01
4848000000.000000      4.800873000000000E-01     -1.590234000000000E+02      4.694061000000000E-01     -7.298437000000000E+01      4.807587000000000E-01     -1.751406000000000E+02      7.038879000000000E-01     -9.345312000000000E+01
4849000000.000000      4.844971000000000E-01     -1.598594000000000E+02      4.725189000000000E-01     -7.337109000000000E+01      4.848938000000000E-01     -1.753515000000000E+02      7.062378000000000E-01     -9.364452000000000E+01
4850000000.000000      4.893036000000000E-01     -1.602578000000000E+02      4.740753000000000E-01     -7.373437000000000E+01      4.886017000000000E-01     -1.754141000000000E+02      7.088013000000000E-01     -9.356249000000000E+01
4851000000.000000      4.945221000000000E-01     -1.608984000000000E+02      4.774017000000000E-01     -7.416406000000000E+01      4.923401000000000E-01     -1.755234000000000E+02      7.125854000000000E-01     -9.367579000000000E+01
4852000000.000000      4.996948000000000E-01     -1.614297000000000E+02      4.799347000000000E-01     -7.435547000000000E+01      4.963531000000000E-01     -1.756719000000000E+02      7.142334000000000E-01     -9.371094000000000E+01
4853000000.000000      5.038452000000000E-01     -1.620391000000000E+02      4.796753000000000E-01     -7.471484000000000E+01      5.005798000000000E-01     -1.758516000000000E+02      7.170715000000000E-01     -9.383204000000000E+01
4854000000.000000      5.088806000000000E-01     -1.625625000000000E+02      4.830780000000000E-01     -7.519531000000000E+01      5.047607000000000E-01     -1.760937000000000E+02      7.209473000000000E-01     -9.378515000000000E+01
4855000000.000000      5.115356000000000E-01     -1.631562000000000E+02      4.850159000000000E-01     -7.541016000000000E+01      5.062256000000000E-01     -1.761953000000000E+02      7.222595000000000E-01     -9.380468000000000E+01
4856000000.000000      5.165100000000000E-01     -1.636172000000000E+02      4.874420000000000E-01     -7.557812000000000E+01      5.115967000000000E-01     -1.762734000000000E+02      7.262268000000000E-01     -9.390625000000000E+01
4857000000.000000      5.207214000000000E-01     -1.642500000000000E+02      4.893799000000000E-01     -7.599218000000000E+01      5.156555000000000E-01     -1.763828000000000E+02      7.290344000000000E-01     -9.384375000000000E+01
4858000000.000000      5.230713000000000E-01     -1.647187000000000E+02      4.913483000000000E-01     -7.633594000000000E+01      5.179138000000000E-01     -1.765781000000000E+02      7.324219000000000E-01     -9.393749000000000E+01
4859000000.000000      5.276184000000000E-01     -1.651797000000000E+02      4.928436000000000E-01     -7.655468000000000E+01      5.221252000000000E-01     -1.768125000000000E+02      7.344666000000000E-01     -9.419140000000000E+01
4860000000.000000      5.317688000000000E-01     -1.657187000000000E+02      4.955750000000000E-01     -7.678124000000000E+01      5.252075000000000E-01     -1.768594000000000E+02      7.366028000000000E-01     -9.413280000000000E+01
4861000000.000000      5.344543000000000E-01     -1.661094000000000E+02      4.960175000000000E-01     -7.728125000000000E+01      5.282898000000000E-01     -1.770547000000000E+02      7.400208000000000E-01     -9.426172000000000E+01
4862000000.000000      5.376892000000000E-01     -1.665078000000000E+02      4.981689000000000E-01     -7.748047000000000E+01      5.338135000000000E-01     -1.772734000000000E+02      7.447510000000000E-01     -9.412500000000000E+01
4863000000.000000      5.401306000000000E-01     -1.670078000000000E+02      4.989166000000000E-01     -7.785937000000000E+01      5.363159000000000E-01     -1.773672000000000E+02      7.471008000000000E-01     -9.417969000000000E+01
4864000000.000000      5.437012000000000E-01     -1.673281000000000E+02      5.015564000000000E-01     -7.800781000000000E+01      5.387573000000000E-01     -1.775391000000000E+02      7.485046000000000E-01     -9.420702000000000E+01
4865000000.000000      5.451965000000000E-01     -1.678828000000000E+02      5.020447000000000E-01     -7.833984000000000E+01      5.421143000000000E-01     -1.778750000000000E+02      7.524109000000000E-01     -9.416796000000000E+01
4866000000.000000      5.473633000000000E-01     -1.680938000000000E+02      5.022278000000000E-01     -7.850390000000000E+01      5.447998000000000E-01     -1.780469000000000E+02      7.548523000000000E-01     -9.424999000000000E+01
4867000000.000000      5.502319000000000E-01     -1.685313000000000E+02      5.049133000000000E-01     -7.885937000000000E+01      5.481262000000000E-01     -1.782344000000000E+02      7.587891000000000E-01     -9.442968000000000E+01
4868000000.000000      5.519714000000000E-01     -1.688125000000000E+02      5.055237000000000E-01     -7.943749000000000E+01      5.509338000000000E-01     -1.785078000000000E+02      7.615662000000000E-01     -9.437500000000000E+01
4869000000.000000      5.530701000000000E-01     -1.692188000000000E+02      5.065002000000000E-01     -7.953906000000000E+01      5.538025000000000E-01     -1.786797000000000E+02      7.630615000000000E-01     -9.457031000000000E+01
4870000000.000000      5.551453000000000E-01     -1.695156000000000E+02      5.069580000000000E-01     -7.947656000000000E+01      5.557556000000000E-01     -1.789219000000000E+02      7.665100000000000E-01     -9.446875000000000E+01
4871000000.000000      5.567932000000000E-01     -1.698437000000000E+02      5.089722000000000E-01     -7.994141000000000E+01      5.585327000000000E-01     -1.790937000000000E+02      7.681580000000000E-01     -9.460938000000000E+01
4872000000.000000      5.595093000000000E-01     -1.701406000000000E+02      5.083008000000000E-01     -8.025000000000000E+01      5.618286000000000E-01     -1.794297000000000E+02      7.713013000000000E-01     -9.462109000000000E+01
4873000000.000000      5.606689000000000E-01     -1.703125000000000E+02      5.107727000000000E-01     -8.040234000000000E+01      5.633850000000000E-01     -1.795391000000000E+02      7.737427000000000E-01     -9.455858000000000E+01
4874000000.000000      5.604858000000000E-01     -1.705312000000000E+02      5.116882000000000E-01     -8.072657000000000E+01      5.676880000000000E-01     -1.797266000000000E+02      7.755127000000000E-01     -9.457422000000000E+01
4875000000.000000      5.624390000000000E-01     -1.709063000000000E+02      5.136108000000000E-01     -8.082811000000000E+01      5.689087000000000E-01      1.799531000000000E+02      7.773438000000000E-01     -9.476171000000000E+01
4876000000.000000      5.621033000000000E-01     -1.711562000000000E+02      5.139465000000000E-01     -8.129686000000000E+01      5.693970000000000E-01      1.799141000000000E+02      7.797241000000000E-01     -9.480860000000000E+01
4877000000.000000      5.631714000000000E-01     -1.712891000000000E+02      5.151978000000000E-01     -8.139452000000000E+01      5.730286000000000E-01      1.795781000000000E+02      7.819214000000000E-01     -9.491796000000000E+01
4878000000.000000      5.639343000000000E-01     -1.714687000000000E+02      5.135498000000000E-01     -8.158594000000000E+01      5.753784000000000E-01      1.794453000000000E+02      7.860107000000000E-01     -9.495703000000000E+01
4879000000.000000      5.644226000000000E-01     -1.717734000000000E+02      5.155640000000000E-01     -8.167969000000000E+01      5.779114000000000E-01      1.792109000000000E+02      7.875061000000000E-01     -9.483984000000000E+01
4880000000.000000      5.624695000000000E-01     -1.718437000000000E+02      5.174561000000000E-01     -8.209375000000000E+01      5.805969000000000E-01      1.791484000000000E+02      7.890015000000000E-01     -9.497265000000000E+01
4881000000.000000      5.642700000000000E-01     -1.719375000000000E+02      5.188904000000000E-01     -8.207031000000000E+01      5.816345000000000E-01      1.787578000000000E+02      7.925415000000000E-01     -9.495312000000000E+01
4882000000.000000      5.620422000000000E-01     -1.721250000000000E+02      5.196228000000000E-01     -8.243750000000000E+01      5.830994000000000E-01      1.785781000000000E+02      7.929382000000000E-01     -9.501171000000000E+01
