! Network Analyzer HP8722D
! Hewlett-Packard
! Data name: Linha & Wilkinson
! Saver's name: Rodrigo Anjos
! Comments: Teste da utilização de aquisição
continua pelo VNA HP8722D
! Time and date: 17/4/2025 16:38
!              Frequency                     S11                                                   S21                                                   S12                                                   S22
# HZ  S  MA R 50
4800000000.000000      3.335419000000000E-01     -1.137617000000000E+02      2.932892000000000E-01     -6.082617000000000E+01      2.868042000000000E-01     -1.751484000000000E+02      6.563416000000000E-01     -9.021093000000000E+01
4801000000.000000      3.334656000000000E-01     -1.147812000000000E+02      2.978363000000000E-01     -6.094921000000000E+01      2.905884000000000E-01     -1.749453000000000E+02      6.552429000000000E-01     -9.023829000000000E+01
4802000000.000000      3.319092000000000E-01     -1.158281000000000E+02      3.011780000000000E-01     -6.097461000000000E+01      2.943726000000000E-01     -1.747813000000000E+02      6.528931000000000E-01     -9.023829000000000E+01
4803000000.000000      3.309937000000000E-01     -1.167226000000000E+02      3.070068000000000E-01     -6.117773000000000E+01      2.989807000000000E-01     -1.746875000000000E+02      6.528320000000000E-01     -9.032421000000000E+01
4804000000.000000      3.310699000000000E-01     -1.177969000000000E+02      3.111267000000000E-01     -6.137500000000000E+01      3.027954000000000E-01     -1.747734000000000E+02      6.519165000000000E-01     -9.042969000000000E+01
4805000000.000000      3.308411000000000E-01     -1.188398000000000E+02      3.160858000000000E-01     -6.150391000000000E+01      3.070068000000000E-01     -1.746406000000000E+02      6.520996000000000E-01     -9.067577000000000E+01
4806000000.000000      3.308716000000000E-01     -1.197656000000000E+02      3.202362000000000E-01     -6.148632000000000E+01      3.099670000000000E-01     -1.744375000000000E+02      6.510315000000000E-01     -9.076952000000000E+01
4807000000.000000      3.304291000000000E-01     -1.208594000000000E+02      3.240814000000000E-01     -6.180078000000000E+01      3.151245000000000E-01     -1.745469000000000E+02      6.508484000000000E-01     -9.080858000000000E+01
4808000000.000000      3.310242000000000E-01     -1.219219000000000E+02      3.285980000000000E-01     -6.180273000000000E+01      3.187103000000000E-01     -1.744375000000000E+02      6.502075000000000E-01     -9.076952000000000E+01
4809000000.000000      3.315277000000000E-01     -1.229648000000000E+02      3.332062000000000E-01     -6.226367000000000E+01      3.235016000000000E-01     -1.744062000000000E+02      6.495667000000000E-01     -9.104687000000000E+01
4810000000.000000      3.319092000000000E-01     -1.241211000000000E+02      3.374023000000000E-01     -6.233984000000000E+01      3.270416000000000E-01     -1.742500000000000E+02      6.495972000000000E-01     -9.106249000000000E+01
4811000000.000000      3.334961000000000E-01     -1.250898000000000E+02      3.419800000000000E-01     -6.261913000000000E+01      3.319550000000000E-01     -1.742188000000000E+02      6.489258000000000E-01     -9.109766000000000E+01
4812000000.000000      3.349609000000000E-01     -1.261523000000000E+02      3.459778000000000E-01     -6.281250000000000E+01      3.357391000000000E-01     -1.741562000000000E+02      6.494751000000000E-01     -9.112499000000000E+01
4813000000.000000      3.357849000000000E-01     -1.272578000000000E+02      3.500366000000000E-01     -6.296288000000000E+01      3.382874000000000E-01     -1.739687000000000E+02      6.492310000000000E-01     -9.123827000000000E+01
4814000000.000000      3.363647000000000E-01     -1.285234000000000E+02      3.545990000000000E-01     -6.304688000000000E+01      3.424835000000000E-01     -1.740703000000000E+02      6.490784000000000E-01     -9.140625000000000E+01
4815000000.000000      3.383789000000000E-01     -1.294453000000000E+02      3.580933000000000E-01     -6.335155000000000E+01      3.464966000000000E-01     -1.739375000000000E+02      6.485901000000000E-01     -9.139843000000000E+01
4816000000.000000      3.411865000000000E-01     -1.305781000000000E+02      3.618011000000000E-01     -6.348827000000000E+01      3.514099000000000E-01     -1.739609000000000E+02      6.492310000000000E-01     -9.145311000000000E+01
4817000000.000000      3.434143000000000E-01     -1.316562000000000E+02      3.663788000000000E-01     -6.397265000000000E+01      3.544159000000000E-01     -1.739453000000000E+02      6.491089000000000E-01     -9.157030000000000E+01
4818000000.000000      3.448639000000000E-01     -1.327891000000000E+02      3.699341000000000E-01     -6.404687000000000E+01      3.591461000000000E-01     -1.739531000000000E+02      6.502686000000000E-01     -9.171484000000000E+01
4819000000.000000      3.478241000000000E-01     -1.339062000000000E+02      3.732147000000000E-01     -6.430469000000000E+01      3.629150000000000E-01     -1.738437000000000E+02      6.512146000000000E-01     -9.181641000000000E+01
4820000000.000000      3.498688000000000E-01     -1.348516000000000E+02      3.778076000000000E-01     -6.455859000000000E+01      3.669739000000000E-01     -1.738672000000000E+02      6.506653000000000E-01     -9.187109000000000E+01
4821000000.000000      3.527222000000000E-01     -1.360156000000000E+02      3.819122000000000E-01     -6.477734000000000E+01      3.709259000000000E-01     -1.740078000000000E+02      6.503601000000000E-01     -9.202734000000000E+01
4822000000.000000      3.575897000000000E-01     -1.371094000000000E+02      3.854370000000000E-01     -6.505859000000000E+01      3.749542000000000E-01     -1.739844000000000E+02      6.526184000000000E-01     -9.207422000000000E+01
4823000000.000000      3.600769000000000E-01     -1.379453000000000E+02      3.889465000000000E-01     -6.528906000000000E+01      3.782196000000000E-01     -1.737344000000000E+02      6.525574000000000E-01     -9.204687000000000E+01
4824000000.000000      3.641510000000000E-01     -1.392109000000000E+02      3.928070000000000E-01     -6.571484000000000E+01      3.829041000000000E-01     -1.739766000000000E+02      6.545715000000000E-01     -9.212891000000000E+01
4825000000.000000      3.674927000000000E-01     -1.401250000000000E+02      3.965454000000000E-01     -6.578125000000000E+01      3.872223000000000E-01     -1.738203000000000E+02      6.554871000000000E-01     -9.221874000000000E+01
4826000000.000000      3.717804000000000E-01     -1.410859000000000E+02      4.004669000000000E-01     -6.627343000000000E+01      3.899536000000000E-01     -1.739141000000000E+02      6.560974000000000E-01     -9.226954000000000E+01
4827000000.000000      3.755341000000000E-01     -1.420312000000000E+02      4.031219000000000E-01     -6.646874000000000E+01      3.937683000000000E-01     -1.738516000000000E+02      6.578979000000000E-01     -9.234766000000000E+01
4828000000.000000      3.802338000000000E-01     -1.431015000000000E+02      4.081116000000000E-01     -6.678515000000000E+01      3.979187000000000E-01     -1.738828000000000E+02      6.601563000000000E-01     -9.243750000000000E+01
4829000000.000000      3.830261000000000E-01     -1.439297000000000E+02      4.099121000000000E-01     -6.701953000000000E+01      4.020996000000000E-01     -1.739453000000000E+02      6.599731000000000E-01     -9.233984000000000E+01
4830000000.000000      3.887024000000000E-01     -1.448828000000000E+02      4.133911000000000E-01     -6.733593000000000E+01      4.060669000000000E-01     -1.738906000000000E+02      6.622314000000000E-01     -9.248827000000000E+01
4831000000.000000      3.926239000000000E-01     -1.457656000000000E+02      4.180450000000000E-01     -6.771874000000000E+01      4.100952000000000E-01     -1.738984000000000E+02      6.641846000000000E-01     -9.262499000000000E+01
4832000000.000000      3.981171000000000E-01     -1.466484000000000E+02      4.210358000000000E-01     -6.797265000000000E+01      4.134369000000000E-01     -1.739922000000000E+02      6.653137000000000E-01     -9.269531000000000E+01
4833000000.000000      4.028778000000000E-01     -1.476484000000000E+02      4.232941000000000E-01     -6.814453000000000E+01      4.176788000000000E-01     -1.740156000000000E+02      6.669312000000000E-01     -9.274609000000000E+01
4834000000.000000      4.073639000000000E-01     -1.485312000000000E+02      4.270020000000000E-01     -6.855859000000000E+01      4.227753000000000E-01     -1.740156000000000E+02      6.684570000000000E-01     -9.270702000000000E+01
4835000000.000000      4.116516000000000E-01     -1.492891000000000E+02      4.313812000000000E-01     -6.879687000000000E+01      4.265289000000000E-01     -1.741172000000000E+02      6.714478000000000E-01     -9.284765000000000E+01
4836000000.000000      4.181213000000000E-01     -1.500859000000000E+02      4.335327000000000E-01     -6.914844000000000E+01      4.309387000000000E-01     -1.740234000000000E+02      6.723938000000000E-01     -9.286718000000000E+01
4837000000.000000      4.228821000000000E-01     -1.509063000000000E+02      4.370880000000000E-01     -6.974218000000000E+01      4.337158000000000E-01     -1.742656000000000E+02      6.738281000000000E-01     -9.288280000000000E+01
4838000000.000000      4.278564000000000E-01     -1.517812000000000E+02      4.400330000000000E-01     -6.967187000000000E+01      4.387512000000000E-01     -1.742891000000000E+02      6.776733000000000E-01     -9.305468000000000E+01
4839000000.000000      4.333344000000000E-01     -1.524765000000000E+02      4.434814000000000E-01     -7.004296000000000E+01      4.423676000000000E-01     -1.742656000000000E+02      6.787415000000000E-01     -9.296875000000000E+01
4840000000.000000      4.374237000000000E-01     -1.533281000000000E+02      4.453125000000000E-01     -7.037499000000000E+01      4.465942000000000E-01     -1.744141000000000E+02      6.814880000000000E-01     -9.311327000000000E+01
4841000000.000000      4.427643000000000E-01     -1.541250000000000E+02      4.495239000000000E-01     -7.094531000000000E+01      4.505615000000000E-01     -1.745469000000000E+02      6.838074000000000E-01     -9.322266000000000E+01
4842000000.000000      4.487457000000000E-01     -1.547812000000000E+02      4.512482000000000E-01     -7.110937000000000E+01      4.536743000000000E-01     -1.745781000000000E+02      6.849976000000000E-01     -9.312109000000000E+01
4843000000.000000      4.537811000000000E-01     -1.555234000000000E+02      4.541473000000000E-01     -7.139843000000000E+01      4.584198000000000E-01     -1.745937000000000E+02      6.888428000000000E-01     -9.317968000000000E+01
4844000000.000000      4.585571000000000E-01     -1.562187000000000E+02      4.564056000000000E-01     -7.181641000000000E+01      4.616394000000000E-01     -1.747578000000000E+02      6.911621000000000E-01     -9.323046000000000E+01
4845000000.000000      4.632721000000000E-01     -1.569141000000000E+02      4.593811000000000E-01     -7.195703000000000E+01      4.663544000000000E-01     -1.748203000000000E+02      6.926270000000000E-01     -9.325781000000000E+01
4846000000.000000      4.684753000000000E-01     -1.574531000000000E+02      4.621277000000000E-01     -7.233593000000000E+01      4.706726000000000E-01     -1.749297000000000E+02      6.964417000000000E-01     -9.323437000000000E+01
4847000000.000000      4.744415000000000E-01     -1.581484000000000E+02      4.649048000000000E-01     -7.260156000000000E+01      4.746704000000000E-01     -1.751562000000000E+02      6.993408000000000E-01     -9.342577000000000E+01
4848000000.000000      4.791718000000000E-01     -1.588359000000000E+02      4.665985000000000E-01     -7.292969000000000E+01      4.784241000000000E-01     -1.751484000000000E+02      7.003479000000000E-01     -9.342577000000000E+01
4849000000.000000      4.839478000000000E-01     -1.596797000000000E+02      4.695587000000000E-01     -7.341015000000000E+01      4.823761000000000E-01     -1.753203000000000E+02      7.035522000000000E-01     -9.343359000000000E+01
4850000000.000000      4.884949000000000E-01     -1.600625000000000E+02      4.712677000000000E-01     -7.367578000000000E+01      4.860992000000000E-01     -1.753828000000000E+02      7.069702000000000E-01     -9.343359000000000E+01
4851000000.000000      4.939880000000000E-01     -1.606641000000000E+02      4.734650000000000E-01     -7.396484000000000E+01      4.897614000000000E-01     -1.755078000000000E+02      7.108154000000000E-01     -9.357031000000000E+01
4852000000.000000      4.988861000000000E-01     -1.612422000000000E+02      4.759979000000000E-01     -7.430078000000000E+01      4.942474000000000E-01     -1.756094000000000E+02      7.123718000000000E-01     -9.364843000000000E+01
4853000000.000000      5.035095000000000E-01     -1.617969000000000E+02      4.773560000000000E-01     -7.470312000000000E+01      4.974213000000000E-01     -1.758984000000000E+02      7.151794000000000E-01     -9.376562000000000E+01
4854000000.000000      5.068054000000000E-01     -1.623437000000000E+02      4.812317000000000E-01     -7.505859000000000E+01      5.011902000000000E-01     -1.760547000000000E+02      7.179260000000000E-01     -9.373438000000000E+01
4855000000.000000      5.108337000000000E-01     -1.629766000000000E+02      4.834747000000000E-01     -7.530078000000000E+01      5.051880000000000E-01     -1.760547000000000E+02      7.199402000000000E-01     -9.377344000000000E+01
4856000000.000000      5.156555000000000E-01     -1.634453000000000E+02      4.840393000000000E-01     -7.557031000000000E+01      5.082703000000000E-01     -1.762187000000000E+02      7.236633000000000E-01     -9.377733000000000E+01
4857000000.000000      5.192566000000000E-01     -1.639531000000000E+02      4.870300000000000E-01     -7.593750000000000E+01      5.121155000000000E-01     -1.763750000000000E+02      7.262268000000000E-01     -9.390234000000000E+01
4858000000.000000      5.212708000000000E-01     -1.644922000000000E+02      4.880371000000000E-01     -7.628515000000000E+01      5.153809000000000E-01     -1.764453000000000E+02      7.291565000000000E-01     -9.390234000000000E+01
4859000000.000000      5.262146000000000E-01     -1.649375000000000E+02      4.905853000000000E-01     -7.660546000000000E+01      5.205688000000000E-01     -1.767812000000000E+02      7.326355000000000E-01     -9.398829000000000E+01
4860000000.000000      5.308228000000000E-01     -1.654844000000000E+02      4.916534000000000E-01     -7.680078000000000E+01      5.226440000000000E-01     -1.769766000000000E+02      7.357178000000000E-01     -9.387890000000000E+01
4861000000.000000      5.332947000000000E-01     -1.658516000000000E+02      4.923706000000000E-01     -7.735937000000000E+01      5.266724000000000E-01     -1.769687000000000E+02      7.383118000000000E-01     -9.407812000000000E+01
4862000000.000000      5.364685000000000E-01     -1.662812000000000E+02      4.954834000000000E-01     -7.726953000000000E+01      5.316772000000000E-01     -1.772344000000000E+02      7.427673000000000E-01     -9.402344000000000E+01
4863000000.000000      5.387573000000000E-01     -1.666953000000000E+02      4.954987000000000E-01     -7.787109000000000E+01      5.335388000000000E-01     -1.773750000000000E+02      7.434692000000000E-01     -9.400391000000000E+01
4864000000.000000      5.424194000000000E-01     -1.671094000000000E+02      4.977112000000000E-01     -7.800781000000000E+01      5.362244000000000E-01     -1.773984000000000E+02      7.460022000000000E-01     -9.410547000000000E+01
4865000000.000000      5.445251000000000E-01     -1.675937000000000E+02      4.991913000000000E-01     -7.816406000000000E+01      5.387878000000000E-01     -1.779063000000000E+02      7.505493000000000E-01     -9.414843000000000E+01
4866000000.000000      5.462341000000000E-01     -1.678594000000000E+02      4.998169000000000E-01     -7.856640000000000E+01      5.419312000000000E-01     -1.779219000000000E+02      7.537231000000000E-01     -9.420702000000000E+01
4867000000.000000      5.489807000000000E-01     -1.681875000000000E+02      5.018005000000000E-01     -7.903515000000000E+01      5.438538000000000E-01     -1.782187000000000E+02      7.557068000000000E-01     -9.428514000000000E+01
4868000000.000000      5.504150000000000E-01     -1.686719000000000E+02      5.041199000000000E-01     -7.919922000000000E+01      5.487061000000000E-01     -1.783828000000000E+02      7.584229000000000E-01     -9.428514000000000E+01
4869000000.000000      5.522766000000000E-01     -1.689375000000000E+02      5.043030000000000E-01     -7.956249000000000E+01      5.505371000000000E-01     -1.786797000000000E+02      7.617493000000000E-01     -9.440233000000000E+01
4870000000.000000      5.541687000000000E-01     -1.692578000000000E+02      5.045776000000000E-01     -7.951172000000000E+01      5.549316000000000E-01     -1.787734000000000E+02      7.620544000000000E-01     -9.430468000000000E+01
4871000000.000000      5.563965000000000E-01     -1.695703000000000E+02      5.075073000000000E-01     -8.014063000000000E+01      5.552673000000000E-01     -1.790078000000000E+02      7.669678000000000E-01     -9.441797000000000E+01
4872000000.000000      5.584412000000000E-01     -1.698516000000000E+02      5.071411000000000E-01     -8.025782000000000E+01      5.576782000000000E-01     -1.792109000000000E+02      7.689819000000000E-01     -9.453125000000000E+01
4873000000.000000      5.580444000000000E-01     -1.700938000000000E+02      5.083923000000000E-01     -8.041016000000000E+01      5.611877000000000E-01     -1.794531000000000E+02      7.707520000000000E-01     -9.456249000000000E+01
4874000000.000000      5.588379000000000E-01     -1.702891000000000E+02      5.086365000000000E-01     -8.066797000000000E+01      5.651245000000000E-01     -1.796875000000000E+02      7.729797000000000E-01     -9.448046000000000E+01
4875000000.000000      5.609436000000000E-01     -1.706640000000000E+02      5.095825000000000E-01     -8.089062000000000E+01      5.661621000000000E-01     -1.799609000000000E+02      7.753906000000000E-01     -9.458593000000000E+01
4876000000.000000      5.598450000000000E-01     -1.707813000000000E+02      5.115051000000000E-01     -8.132813000000000E+01      5.682678000000000E-01      1.797578000000000E+02      7.796326000000000E-01     -9.463282000000000E+01
4877000000.000000      5.608826000000000E-01     -1.710312000000000E+02      5.121765000000000E-01     -8.145311000000000E+01      5.702515000000000E-01      1.796016000000000E+02      7.804565000000000E-01     -9.472265000000000E+01
4878000000.000000      5.617065000000000E-01     -1.711953000000000E+02      5.135498000000000E-01     -8.155077000000000E+01      5.724792000000000E-01      1.795000000000000E+02      7.839661000000000E-01     -9.479296000000000E+01
4879000000.000000      5.628357000000000E-01     -1.714297000000000E+02      5.126343000000000E-01     -8.159374000000000E+01      5.746155000000000E-01      1.792969000000000E+02      7.840576000000000E-01     -9.471094000000000E+01
4880000000.000000      5.604553000000000E-01     -1.715000000000000E+02      5.149536000000000E-01     -8.213282000000000E+01      5.764465000000000E-01      1.790859000000000E+02      7.870178000000000E-01     -9.471874000000000E+01
4881000000.000000      5.622559000000000E-01     -1.716250000000000E+02      5.173340000000000E-01     -8.196484000000000E+01      5.793762000000000E-01      1.788125000000000E+02      7.901001000000000E-01     -9.486328000000000E+01
4882000000.000000      5.614014000000000E-01     -1.717656000000000E+02      5.170288000000000E-01     -8.230469000000000E+01      5.804138000000000E-01      1.786719000000000E+02      7.907104000000000E-01     -9.500000000000000E+01
