! Network Analyzer HP8722D
! Hewlett-Packard
! Data name: Linha & Wilkinson
! Saver's name: Rodrigo Anjos
! Comments: Teste da utilização de aquisição
continua pelo VNA HP8722D
! Time and date: 17/4/2025 14:49
!              Frequency                     S11                                                   S21                                                   S12                                                   S22
# HZ  S  MA R 50
4800000000.000000      3.334808000000000E-01     -1.129180000000000E+02      2.852783000000000E-01     -6.065430000000000E+01      2.792816000000000E-01     -1.749609000000000E+02      6.550598000000000E-01     -8.991405000000000E+01
4801000000.000000      3.324127000000000E-01     -1.139219000000000E+02      2.892303000000000E-01     -6.060351000000000E+01      2.826843000000000E-01     -1.747656000000000E+02      6.548462000000000E-01     -8.991014000000000E+01
4802000000.000000      3.307495000000000E-01     -1.149453000000000E+02      2.940826000000000E-01     -6.074609000000000E+01      2.866211000000000E-01     -1.745937000000000E+02      6.534729000000000E-01     -8.991014000000000E+01
4803000000.000000      3.304291000000000E-01     -1.160390000000000E+02      2.991180000000000E-01     -6.083593000000000E+01      2.911224000000000E-01     -1.744688000000000E+02      6.525879000000000E-01     -9.008204000000000E+01
4804000000.000000      3.301086000000000E-01     -1.169492000000000E+02      3.027649000000000E-01     -6.103320000000000E+01      2.950592000000000E-01     -1.745547000000000E+02      6.511536000000000E-01     -9.011719000000000E+01
4805000000.000000      3.301239000000000E-01     -1.178594000000000E+02      3.081818000000000E-01     -6.107616000000000E+01      2.994232000000000E-01     -1.742266000000000E+02      6.520691000000000E-01     -9.022655000000000E+01
4806000000.000000      3.291168000000000E-01     -1.188633000000000E+02      3.118134000000000E-01     -6.121875000000000E+01      3.021545000000000E-01     -1.740313000000000E+02      6.506348000000000E-01     -9.037109000000000E+01
4807000000.000000      3.298187000000000E-01     -1.199687000000000E+02      3.170166000000000E-01     -6.136132000000000E+01      3.068695000000000E-01     -1.741094000000000E+02      6.492310000000000E-01     -9.049999000000000E+01
4808000000.000000      3.302612000000000E-01     -1.209023000000000E+02      3.211975000000000E-01     -6.150976000000000E+01      3.111725000000000E-01     -1.740234000000000E+02      6.479492000000000E-01     -9.052343000000000E+01
4809000000.000000      3.299408000000000E-01     -1.220117000000000E+02      3.263855000000000E-01     -6.185937000000000E+01      3.159027000000000E-01     -1.739922000000000E+02      6.486206000000000E-01     -9.065624000000000E+01
4810000000.000000      3.308563000000000E-01     -1.232422000000000E+02      3.301392000000000E-01     -6.193164000000000E+01      3.191223000000000E-01     -1.738672000000000E+02      6.495667000000000E-01     -9.072657000000000E+01
4811000000.000000      3.317871000000000E-01     -1.242773000000000E+02      3.336639000000000E-01     -6.220312000000000E+01      3.238525000000000E-01     -1.737031000000000E+02      6.477661000000000E-01     -9.076172000000000E+01
4812000000.000000      3.334656000000000E-01     -1.251563000000000E+02      3.389130000000000E-01     -6.219531000000000E+01      3.282013000000000E-01     -1.735625000000000E+02      6.479492000000000E-01     -9.088282000000000E+01
4813000000.000000      3.338165000000000E-01     -1.263515000000000E+02      3.425446000000000E-01     -6.257421000000000E+01      3.315735000000000E-01     -1.735078000000000E+02      6.483154000000000E-01     -9.094921000000000E+01
4814000000.000000      3.349304000000000E-01     -1.275898000000000E+02      3.466949000000000E-01     -6.265234000000000E+01      3.354797000000000E-01     -1.735391000000000E+02      6.476746000000000E-01     -9.107031000000000E+01
4815000000.000000      3.365936000000000E-01     -1.285000000000000E+02      3.505859000000000E-01     -6.287109000000000E+01      3.396149000000000E-01     -1.734922000000000E+02      6.459656000000000E-01     -9.105078000000000E+01
4816000000.000000      3.387451000000000E-01     -1.296172000000000E+02      3.554688000000000E-01     -6.299805000000000E+01      3.448639000000000E-01     -1.733203000000000E+02      6.476440000000000E-01     -9.112890000000000E+01
4817000000.000000      3.412933000000000E-01     -1.305938000000000E+02      3.592072000000000E-01     -6.336328000000000E+01      3.473816000000000E-01     -1.734609000000000E+02      6.475830000000000E-01     -9.121485000000000E+01
4818000000.000000      3.432617000000000E-01     -1.318125000000000E+02      3.635254000000000E-01     -6.361133000000000E+01      3.519287000000000E-01     -1.733750000000000E+02      6.489868000000000E-01     -9.133984000000000E+01
4819000000.000000      3.461761000000000E-01     -1.328906000000000E+02      3.665009000000000E-01     -6.377539000000000E+01      3.556366000000000E-01     -1.732422000000000E+02      6.505737000000000E-01     -9.146875000000000E+01
4820000000.000000      3.475342000000000E-01     -1.338438000000000E+02      3.709259000000000E-01     -6.392773000000000E+01      3.603973000000000E-01     -1.734062000000000E+02      6.500244000000000E-01     -9.142187000000000E+01
4821000000.000000      3.508911000000000E-01     -1.350000000000000E+02      3.750153000000000E-01     -6.434765000000000E+01      3.635864000000000E-01     -1.734609000000000E+02      6.500854000000000E-01     -9.166796000000000E+01
4822000000.000000      3.550568000000000E-01     -1.360781000000000E+02      3.783722000000000E-01     -6.444921000000000E+01      3.667450000000000E-01     -1.733047000000000E+02      6.516724000000000E-01     -9.166796000000000E+01
4823000000.000000      3.575592000000000E-01     -1.371016000000000E+02      3.827057000000000E-01     -6.480078000000000E+01      3.712158000000000E-01     -1.732109000000000E+02      6.517334000000000E-01     -9.175781000000000E+01
4824000000.000000      3.616638000000000E-01     -1.381641000000000E+02      3.857117000000000E-01     -6.500000000000000E+01      3.766327000000000E-01     -1.732578000000000E+02      6.534119000000000E-01     -9.191015000000000E+01
4825000000.000000      3.650208000000000E-01     -1.390781000000000E+02      3.897705000000000E-01     -6.524219000000000E+01      3.802948000000000E-01     -1.732422000000000E+02      6.540222000000000E-01     -9.182812000000000E+01
4826000000.000000      3.692932000000000E-01     -1.401406000000000E+02      3.948975000000000E-01     -6.555469000000000E+01      3.835602000000000E-01     -1.732344000000000E+02      6.557617000000000E-01     -9.189844000000000E+01
4827000000.000000      3.728943000000000E-01     -1.410000000000000E+02      3.970795000000000E-01     -6.582421000000000E+01      3.874969000000000E-01     -1.732031000000000E+02      6.565247000000000E-01     -9.192577000000000E+01
4828000000.000000      3.779297000000000E-01     -1.420469000000000E+02      4.013214000000000E-01     -6.609375000000000E+01      3.921204000000000E-01     -1.732422000000000E+02      6.595154000000000E-01     -9.206249000000000E+01
4829000000.000000      3.803406000000000E-01     -1.429219000000000E+02      4.045258000000000E-01     -6.640234000000000E+01      3.954926000000000E-01     -1.732656000000000E+02      6.608582000000000E-01     -9.206640000000000E+01
4830000000.000000      3.856201000000000E-01     -1.438984000000000E+02      4.078674000000000E-01     -6.665234000000000E+01      3.998413000000000E-01     -1.732265000000000E+02      6.612549000000000E-01     -9.212500000000000E+01
4831000000.000000      3.898926000000000E-01     -1.447891000000000E+02      4.113617000000000E-01     -6.706640000000000E+01      4.043884000000000E-01     -1.732969000000000E+02      6.630554000000000E-01     -9.221874000000000E+01
4832000000.000000      3.953705000000000E-01     -1.456875000000000E+02      4.154053000000000E-01     -6.726563000000000E+01      4.078369000000000E-01     -1.732656000000000E+02      6.641541000000000E-01     -9.232422000000000E+01
4833000000.000000      4.001617000000000E-01     -1.467031000000000E+02      4.191132000000000E-01     -6.755468000000000E+01      4.120026000000000E-01     -1.733281000000000E+02      6.658936000000000E-01     -9.240234000000000E+01
4834000000.000000      4.046478000000000E-01     -1.474844000000000E+02      4.214935000000000E-01     -6.783984000000000E+01      4.160309000000000E-01     -1.733750000000000E+02      6.683960000000000E-01     -9.239061000000000E+01
4835000000.000000      4.092102000000000E-01     -1.483125000000000E+02      4.255829000000000E-01     -6.818359000000000E+01      4.206085000000000E-01     -1.733672000000000E+02      6.707153000000000E-01     -9.248827000000000E+01
4836000000.000000      4.151001000000000E-01     -1.490781000000000E+02      4.284668000000000E-01     -6.848827000000000E+01      4.240723000000000E-01     -1.733828000000000E+02      6.711426000000000E-01     -9.248827000000000E+01
4837000000.000000      4.198608000000000E-01     -1.498906000000000E+02      4.312286000000000E-01     -6.889843000000000E+01      4.285889000000000E-01     -1.735156000000000E+02      6.730652000000000E-01     -9.256639000000000E+01
4838000000.000000      4.255981000000000E-01     -1.507813000000000E+02      4.358978000000000E-01     -6.914453000000000E+01      4.335938000000000E-01     -1.734688000000000E+02      6.761169000000000E-01     -9.262110000000000E+01
4839000000.000000      4.303284000000000E-01     -1.514219000000000E+02      4.385529000000000E-01     -6.942968000000000E+01      4.369202000000000E-01     -1.735234000000000E+02      6.782227000000000E-01     -9.258593000000000E+01
4840000000.000000      4.350586000000000E-01     -1.522734000000000E+02      4.411011000000000E-01     -6.971484000000000E+01      4.410858000000000E-01     -1.736797000000000E+02      6.798706000000000E-01     -9.265625000000000E+01
4841000000.000000      4.404907000000000E-01     -1.531641000000000E+02      4.425354000000000E-01     -7.017187000000000E+01      4.452820000000000E-01     -1.737734000000000E+02      6.837463000000000E-01     -9.273829000000000E+01
4842000000.000000      4.463348000000000E-01     -1.537969000000000E+02      4.467926000000000E-01     -7.041406000000000E+01      4.486389000000000E-01     -1.739375000000000E+02      6.848755000000000E-01     -9.280859000000000E+01
4843000000.000000      4.506378000000000E-01     -1.545859000000000E+02      4.500122000000000E-01     -7.076953000000000E+01      4.530640000000000E-01     -1.739609000000000E+02      6.883545000000000E-01     -9.284374000000000E+01
4844000000.000000      4.557343000000000E-01     -1.552500000000000E+02      4.519196000000000E-01     -7.100390000000000E+01      4.571533000000000E-01     -1.740313000000000E+02      6.897278000000000E-01     -9.293749000000000E+01
4845000000.000000      4.611359000000000E-01     -1.558906000000000E+02      4.543610000000000E-01     -7.132813000000000E+01      4.608459000000000E-01     -1.741250000000000E+02      6.918335000000000E-01     -9.288671000000000E+01
4846000000.000000      4.662933000000000E-01     -1.564141000000000E+02      4.580078000000000E-01     -7.166016000000000E+01      4.658661000000000E-01     -1.741641000000000E+02      6.949158000000000E-01     -9.295313000000000E+01
4847000000.000000      4.721222000000000E-01     -1.571875000000000E+02      4.605408000000000E-01     -7.195703000000000E+01      4.701691000000000E-01     -1.743594000000000E+02      6.989136000000000E-01     -9.315624000000000E+01
4848000000.000000      4.767151000000000E-01     -1.578203000000000E+02      4.623718000000000E-01     -7.220703000000000E+01      4.736176000000000E-01     -1.744141000000000E+02      6.998291000000000E-01     -9.311327000000000E+01
4849000000.000000      4.814606000000000E-01     -1.586719000000000E+02      4.657440000000000E-01     -7.269921000000000E+01      4.781952000000000E-01     -1.745937000000000E+02      7.033081000000000E-01     -9.305468000000000E+01
4850000000.000000      4.864807000000000E-01     -1.590781000000000E+02      4.678802000000000E-01     -7.291797000000000E+01      4.816589000000000E-01     -1.745859000000000E+02      7.060242000000000E-01     -9.307812000000000E+01
4851000000.000000      4.915009000000000E-01     -1.596797000000000E+02      4.711609000000000E-01     -7.351953000000000E+01      4.856567000000000E-01     -1.747734000000000E+02      7.090149000000000E-01     -9.320704000000000E+01
4852000000.000000      4.966888000000000E-01     -1.602813000000000E+02      4.730682000000000E-01     -7.370312000000000E+01      4.900665000000000E-01     -1.748750000000000E+02      7.114868000000000E-01     -9.326172000000000E+01
4853000000.000000      5.009460000000000E-01     -1.608203000000000E+02      4.743805000000000E-01     -7.394140000000000E+01      4.943848000000000E-01     -1.751094000000000E+02      7.143555000000000E-01     -9.324610000000000E+01
4854000000.000000      5.052795000000000E-01     -1.613984000000000E+02      4.768372000000000E-01     -7.435156000000000E+01      4.974976000000000E-01     -1.752109000000000E+02      7.164917000000000E-01     -9.339062000000000E+01
4855000000.000000      5.090027000000000E-01     -1.619688000000000E+02      4.791107000000000E-01     -7.461328000000000E+01      5.016479000000000E-01     -1.751875000000000E+02      7.191162000000000E-01     -9.328516000000000E+01
4856000000.000000      5.139160000000000E-01     -1.623594000000000E+02      4.810333000000000E-01     -7.482422000000000E+01      5.041504000000000E-01     -1.754062000000000E+02      7.242126000000000E-01     -9.354296000000000E+01
4857000000.000000      5.180054000000000E-01     -1.630391000000000E+02      4.836121000000000E-01     -7.526562000000000E+01      5.075378000000000E-01     -1.756094000000000E+02      7.245483000000000E-01     -9.335546000000000E+01
4858000000.000000      5.201111000000000E-01     -1.635234000000000E+02      4.853363000000000E-01     -7.548046000000000E+01      5.112610000000000E-01     -1.757891000000000E+02      7.290344000000000E-01     -9.350389000000000E+01
4859000000.000000      5.248718000000000E-01     -1.639844000000000E+02      4.878845000000000E-01     -7.582031000000000E+01      5.161133000000000E-01     -1.761562000000000E+02      7.326355000000000E-01     -9.366796000000000E+01
4860000000.000000      5.291748000000000E-01     -1.644766000000000E+02      4.880676000000000E-01     -7.610546000000000E+01      5.188293000000000E-01     -1.761641000000000E+02      7.347717000000000E-01     -9.366796000000000E+01
4861000000.000000      5.324707000000000E-01     -1.648594000000000E+02      4.907074000000000E-01     -7.652734000000000E+01      5.227051000000000E-01     -1.762031000000000E+02      7.372437000000000E-01     -9.363672000000000E+01
4862000000.000000      5.350342000000000E-01     -1.652969000000000E+02      4.928131000000000E-01     -7.658593000000000E+01      5.267639000000000E-01     -1.764219000000000E+02      7.409973000000000E-01     -9.369141000000000E+01
4863000000.000000      5.379333000000000E-01     -1.657812000000000E+02      4.935913000000000E-01     -7.724218000000000E+01      5.292969000000000E-01     -1.765938000000000E+02      7.427368000000000E-01     -9.365625000000000E+01
4864000000.000000      5.416260000000000E-01     -1.661797000000000E+02      4.950562000000000E-01     -7.745703000000000E+01      5.327759000000000E-01     -1.767891000000000E+02      7.463379000000000E-01     -9.382813000000000E+01
4865000000.000000      5.434265000000000E-01     -1.666797000000000E+02      4.977417000000000E-01     -7.780078000000000E+01      5.367737000000000E-01     -1.770781000000000E+02      7.508240000000000E-01     -9.360937000000000E+01
4866000000.000000      5.455017000000000E-01     -1.668828000000000E+02      4.970245000000000E-01     -7.810937000000000E+01      5.406494000000000E-01     -1.772734000000000E+02      7.536011000000000E-01     -9.382030000000000E+01
4867000000.000000      5.488892000000000E-01     -1.672578000000000E+02      5.004883000000000E-01     -7.808984000000000E+01      5.417480000000000E-01     -1.775000000000000E+02      7.550049000000000E-01     -9.370703000000000E+01
4868000000.000000      5.509949000000000E-01     -1.677187000000000E+02      5.021362000000000E-01     -7.859375000000000E+01      5.457153000000000E-01     -1.776016000000000E+02      7.579041000000000E-01     -9.387890000000000E+01
4869000000.000000      5.513306000000000E-01     -1.679141000000000E+02      5.004883000000000E-01     -7.873437000000000E+01      5.491333000000000E-01     -1.778906000000000E+02      7.596436000000000E-01     -9.406641000000000E+01
4870000000.000000      5.543518000000000E-01     -1.682969000000000E+02      5.040894000000000E-01     -7.884766000000000E+01      5.520935000000000E-01     -1.781328000000000E+02      7.644958000000000E-01     -9.390625000000000E+01
4871000000.000000      5.555115000000000E-01     -1.686250000000000E+02      5.052490000000000E-01     -7.929296000000000E+01      5.532837000000000E-01     -1.782187000000000E+02      7.647095000000000E-01     -9.410936000000000E+01
4872000000.000000      5.581665000000000E-01     -1.689766000000000E+02      5.039978000000000E-01     -7.930078000000000E+01      5.577393000000000E-01     -1.786094000000000E+02      7.694702000000000E-01     -9.398046000000000E+01
4873000000.000000      5.587463000000000E-01     -1.691719000000000E+02      5.059509000000000E-01     -7.992969000000000E+01      5.592346000000000E-01     -1.786953000000000E+02      7.691040000000000E-01     -9.414063000000000E+01
4874000000.000000      5.596924000000000E-01     -1.693281000000000E+02      5.075989000000000E-01     -8.008593000000000E+01      5.625305000000000E-01     -1.789844000000000E+02      7.739563000000000E-01     -9.409765000000000E+01
4875000000.000000      5.617371000000000E-01     -1.697187000000000E+02      5.081482000000000E-01     -8.026171000000000E+01      5.642700000000000E-01     -1.793125000000000E+02      7.748413000000000E-01     -9.416016000000000E+01
4876000000.000000      5.611877000000000E-01     -1.699687000000000E+02      5.100708000000000E-01     -8.052734000000000E+01      5.646667000000000E-01     -1.793437000000000E+02      7.788086000000000E-01     -9.424999000000000E+01
4877000000.000000      5.613098000000000E-01     -1.701562000000000E+02      5.106201000000000E-01     -8.067186000000000E+01      5.685425000000000E-01     -1.795703000000000E+02      7.814331000000000E-01     -9.432032000000000E+01
4878000000.000000      5.628357000000000E-01     -1.703906000000000E+02      5.115356000000000E-01     -8.109766000000000E+01      5.709534000000000E-01     -1.797500000000000E+02      7.823181000000000E-01     -9.438671000000000E+01
4879000000.000000      5.641479000000000E-01     -1.705781000000000E+02      5.122681000000000E-01     -8.125000000000000E+01      5.725708000000000E-01      1.798906000000000E+02      7.849121000000000E-01     -9.424999000000000E+01
4880000000.000000      5.627136000000000E-01     -1.706953000000000E+02      5.135498000000000E-01     -8.142578000000000E+01      5.760193000000000E-01      1.798203000000000E+02      7.866821000000000E-01     -9.440624000000000E+01
4881000000.000000      5.639954000000000E-01     -1.707969000000000E+02      5.159607000000000E-01     -8.136719000000000E+01      5.775452000000000E-01      1.795938000000000E+02      7.889404000000000E-01     -9.440624000000000E+01
4882000000.000000      5.622559000000000E-01     -1.708906000000000E+02      5.171814000000000E-01     -8.183203000000000E+01      5.800476000000000E-01      1.793516000000000E+02      7.904358000000000E-01     -9.449219000000000E+01
