! Network Analyzer HP8722D
! Hewlett-Packard
! Data name: Linha & Wilkinson
! Saver's name: Rodrigo Anjos
! Comments: Teste da utilização de aquisição
continua pelo VNA HP8722D
! Time and date: 17/4/2025 14:21
!              Frequency                     S11                                                   S21                                                   S12                                                   S22
# HZ  S  MA R 50
4800000000.000000      3.347168000000000E-01     -1.140000000000000E+02      2.922516000000000E-01     -6.104882000000000E+01      2.859802000000000E-01     -1.752500000000000E+02      6.550293000000000E-01     -9.026171000000000E+01
4801000000.000000      3.336334000000000E-01     -1.148086000000000E+02      2.961273000000000E-01     -6.118359000000000E+01      2.896118000000000E-01     -1.751172000000000E+02      6.546326000000000E-01     -9.019531000000000E+01
4802000000.000000      3.328094000000000E-01     -1.159492000000000E+02      3.007813000000000E-01     -6.113867000000000E+01      2.944336000000000E-01     -1.750000000000000E+02      6.527405000000000E-01     -9.034765000000000E+01
4803000000.000000      3.319397000000000E-01     -1.169062000000000E+02      3.061218000000000E-01     -6.130273000000000E+01      2.973785000000000E-01     -1.748984000000000E+02      6.518555000000000E-01     -9.052343000000000E+01
4804000000.000000      3.315735000000000E-01     -1.178945000000000E+02      3.100281000000000E-01     -6.141992000000000E+01      3.019867000000000E-01     -1.749219000000000E+02      6.522827000000000E-01     -9.055079000000000E+01
4805000000.000000      3.317413000000000E-01     -1.188867000000000E+02      3.145447000000000E-01     -6.168554000000000E+01      3.062744000000000E-01     -1.747109000000000E+02      6.516113000000000E-01     -9.068359000000000E+01
4806000000.000000      3.317261000000000E-01     -1.198438000000000E+02      3.187866000000000E-01     -6.169140000000000E+01      3.101044000000000E-01     -1.746016000000000E+02      6.513062000000000E-01     -9.081640000000000E+01
4807000000.000000      3.310852000000000E-01     -1.209766000000000E+02      3.232117000000000E-01     -6.196094000000000E+01      3.136597000000000E-01     -1.747031000000000E+02      6.499023000000000E-01     -9.088282000000000E+01
4808000000.000000      3.317261000000000E-01     -1.219961000000000E+02      3.279419000000000E-01     -6.200390000000000E+01      3.180542000000000E-01     -1.746484000000000E+02      6.493835000000000E-01     -9.081249000000000E+01
4809000000.000000      3.313904000000000E-01     -1.230312000000000E+02      3.322601000000000E-01     -6.248828000000000E+01      3.227692000000000E-01     -1.746406000000000E+02      6.481323000000000E-01     -9.107422000000000E+01
4810000000.000000      3.333893000000000E-01     -1.241953000000000E+02      3.360291000000000E-01     -6.233984000000000E+01      3.259277000000000E-01     -1.744688000000000E+02      6.497803000000000E-01     -9.116796000000000E+01
4811000000.000000      3.341675000000000E-01     -1.251992000000000E+02      3.409424000000000E-01     -6.288280000000000E+01      3.309784000000000E-01     -1.743281000000000E+02      6.479492000000000E-01     -9.116405000000000E+01
4812000000.000000      3.359528000000000E-01     -1.262773000000000E+02      3.449402000000000E-01     -6.286914000000000E+01      3.346863000000000E-01     -1.743203000000000E+02      6.484375000000000E-01     -9.126562000000000E+01
4813000000.000000      3.367462000000000E-01     -1.273750000000000E+02      3.489685000000000E-01     -6.307422000000000E+01      3.375092000000000E-01     -1.740469000000000E+02      6.488342000000000E-01     -9.125780000000000E+01
4814000000.000000      3.378143000000000E-01     -1.286016000000000E+02      3.531342000000000E-01     -6.334570000000000E+01      3.418427000000000E-01     -1.741484000000000E+02      6.486511000000000E-01     -9.140234000000000E+01
4815000000.000000      3.394623000000000E-01     -1.295312000000000E+02      3.571167000000000E-01     -6.365234000000000E+01      3.451538000000000E-01     -1.742188000000000E+02      6.478882000000000E-01     -9.147264000000000E+01
4816000000.000000      3.415985000000000E-01     -1.306719000000000E+02      3.619080000000000E-01     -6.359961000000000E+01      3.499603000000000E-01     -1.740703000000000E+02      6.480103000000000E-01     -9.148438000000000E+01
4817000000.000000      3.440094000000000E-01     -1.316250000000000E+02      3.653412000000000E-01     -6.396679000000000E+01      3.534546000000000E-01     -1.741016000000000E+02      6.474609000000000E-01     -9.167578000000000E+01
4818000000.000000      3.460083000000000E-01     -1.328281000000000E+02      3.682861000000000E-01     -6.419922000000000E+01      3.581238000000000E-01     -1.741016000000000E+02      6.481323000000000E-01     -9.185547000000000E+01
4819000000.000000      3.487854000000000E-01     -1.338828000000000E+02      3.725281000000000E-01     -6.452343000000000E+01      3.619537000000000E-01     -1.739922000000000E+02      6.507263000000000E-01     -9.192186000000000E+01
4820000000.000000      3.506317000000000E-01     -1.348984000000000E+02      3.764038000000000E-01     -6.466797000000000E+01      3.665314000000000E-01     -1.740469000000000E+02      6.498718000000000E-01     -9.192968000000000E+01
4821000000.000000      3.542023000000000E-01     -1.360156000000000E+02      3.804474000000000E-01     -6.506640000000000E+01      3.695221000000000E-01     -1.742109000000000E+02      6.500854000000000E-01     -9.206640000000000E+01
4822000000.000000      3.580170000000000E-01     -1.371250000000000E+02      3.844299000000000E-01     -6.515625000000000E+01      3.738556000000000E-01     -1.740234000000000E+02      6.514587000000000E-01     -9.202734000000000E+01
4823000000.000000      3.603821000000000E-01     -1.380625000000000E+02      3.882141000000000E-01     -6.549999000000000E+01      3.771362000000000E-01     -1.738828000000000E+02      6.514893000000000E-01     -9.213282000000000E+01
4824000000.000000      3.647308000000000E-01     -1.391875000000000E+02      3.917694000000000E-01     -6.583202000000000E+01      3.823547000000000E-01     -1.740391000000000E+02      6.535950000000000E-01     -9.216797000000000E+01
4825000000.000000      3.678894000000000E-01     -1.401484000000000E+02      3.953400000000000E-01     -6.603125000000000E+01      3.862457000000000E-01     -1.738906000000000E+02      6.550903000000000E-01     -9.228125000000000E+01
4826000000.000000      3.725128000000000E-01     -1.411641000000000E+02      3.991241000000000E-01     -6.645702000000000E+01      3.890991000000000E-01     -1.741172000000000E+02      6.557617000000000E-01     -9.233984000000000E+01
4827000000.000000      3.760529000000000E-01     -1.419922000000000E+02      4.025574000000000E-01     -6.651562000000000E+01      3.935242000000000E-01     -1.739531000000000E+02      6.577759000000000E-01     -9.239061000000000E+01
4828000000.000000      3.804932000000000E-01     -1.430234000000000E+02      4.067078000000000E-01     -6.688281000000000E+01      3.973236000000000E-01     -1.739297000000000E+02      6.590576000000000E-01     -9.244921000000000E+01
4829000000.000000      3.835602000000000E-01     -1.439687000000000E+02      4.104156000000000E-01     -6.714844000000000E+01      4.011688000000000E-01     -1.739531000000000E+02      6.593933000000000E-01     -9.248047000000000E+01
4830000000.000000      3.894043000000000E-01     -1.448437000000000E+02      4.131470000000000E-01     -6.751171000000000E+01      4.046173000000000E-01     -1.739141000000000E+02      6.610413000000000E-01     -9.259375000000000E+01
4831000000.000000      3.928833000000000E-01     -1.457656000000000E+02      4.160767000000000E-01     -6.788671000000000E+01      4.098053000000000E-01     -1.740156000000000E+02      6.635132000000000E-01     -9.257030000000000E+01
4832000000.000000      3.985138000000000E-01     -1.467344000000000E+02      4.203949000000000E-01     -6.806641000000000E+01      4.129486000000000E-01     -1.740313000000000E+02      6.644897000000000E-01     -9.272655000000000E+01
4833000000.000000      4.035645000000000E-01     -1.476953000000000E+02      4.236450000000000E-01     -6.829687000000000E+01      4.171295000000000E-01     -1.742344000000000E+02      6.665649000000000E-01     -9.274218000000000E+01
4834000000.000000      4.075623000000000E-01     -1.484844000000000E+02      4.265594000000000E-01     -6.878515000000000E+01      4.217072000000000E-01     -1.742109000000000E+02      6.677551000000000E-01     -9.283203000000000E+01
4835000000.000000      4.122772000000000E-01     -1.492578000000000E+02      4.294128000000000E-01     -6.902734000000000E+01      4.266815000000000E-01     -1.741797000000000E+02      6.699219000000000E-01     -9.293360000000000E+01
4836000000.000000      4.184723000000000E-01     -1.500469000000000E+02      4.331360000000000E-01     -6.930859000000000E+01      4.294128000000000E-01     -1.741953000000000E+02      6.710815000000000E-01     -9.294140000000000E+01
4837000000.000000      4.236603000000000E-01     -1.508437000000000E+02      4.353027000000000E-01     -6.979687000000000E+01      4.332428000000000E-01     -1.743984000000000E+02      6.738892000000000E-01     -9.297266000000000E+01
4838000000.000000      4.283600000000000E-01     -1.517109000000000E+02      4.401398000000000E-01     -6.991405000000000E+01      4.380341000000000E-01     -1.743047000000000E+02      6.767273000000000E-01     -9.314844000000000E+01
4839000000.000000      4.337006000000000E-01     -1.524453000000000E+02      4.417725000000000E-01     -7.007030000000000E+01      4.414063000000000E-01     -1.743828000000000E+02      6.780090000000000E-01     -9.303905000000000E+01
4840000000.000000      4.380646000000000E-01     -1.532578000000000E+02      4.452057000000000E-01     -7.061328000000000E+01      4.458160000000000E-01     -1.745234000000000E+02      6.797791000000000E-01     -9.310938000000000E+01
4841000000.000000      4.437256000000000E-01     -1.541094000000000E+02      4.482117000000000E-01     -7.097656000000000E+01      4.496002000000000E-01     -1.746719000000000E+02      6.820679000000000E-01     -9.324999000000000E+01
4842000000.000000      4.488373000000000E-01     -1.547188000000000E+02      4.510956000000000E-01     -7.121484000000000E+01      4.530640000000000E-01     -1.746562000000000E+02      6.858826000000000E-01     -9.311718000000000E+01
4843000000.000000      4.532928000000000E-01     -1.555391000000000E+02      4.536438000000000E-01     -7.147265000000000E+01      4.571533000000000E-01     -1.747500000000000E+02      6.870117000000000E-01     -9.321093000000000E+01
4844000000.000000      4.589996000000000E-01     -1.561797000000000E+02      4.562683000000000E-01     -7.189843000000000E+01      4.608612000000000E-01     -1.748672000000000E+02      6.901550000000000E-01     -9.333593000000000E+01
4845000000.000000      4.638062000000000E-01     -1.568125000000000E+02      4.589081000000000E-01     -7.217968000000000E+01      4.658966000000000E-01     -1.749922000000000E+02      6.928406000000000E-01     -9.344921000000000E+01
4846000000.000000      4.685669000000000E-01     -1.573750000000000E+02      4.617615000000000E-01     -7.253906000000000E+01      4.702454000000000E-01     -1.750156000000000E+02      6.953430000000000E-01     -9.337500000000000E+01
4847000000.000000      4.747467000000000E-01     -1.581484000000000E+02      4.641724000000000E-01     -7.272655000000000E+01      4.738312000000000E-01     -1.752187000000000E+02      6.982727000000000E-01     -9.347656000000000E+01
4848000000.000000      4.796906000000000E-01     -1.587578000000000E+02      4.659119000000000E-01     -7.308594000000000E+01      4.773712000000000E-01     -1.752891000000000E+02      7.000732000000000E-01     -9.348827000000000E+01
4849000000.000000      4.842529000000000E-01     -1.596562000000000E+02      4.692688000000000E-01     -7.357031000000000E+01      4.817047000000000E-01     -1.754609000000000E+02      7.034607000000000E-01     -9.353907000000000E+01
4850000000.000000      4.891510000000000E-01     -1.600391000000000E+02      4.711304000000000E-01     -7.371875000000000E+01      4.854126000000000E-01     -1.755391000000000E+02      7.064514000000000E-01     -9.362499000000000E+01
4851000000.000000      4.938049000000000E-01     -1.606016000000000E+02      4.739532000000000E-01     -7.421484000000000E+01      4.888916000000000E-01     -1.756016000000000E+02      7.088623000000000E-01     -9.359766000000000E+01
4852000000.000000      4.984131000000000E-01     -1.611953000000000E+02      4.755707000000000E-01     -7.446875000000000E+01      4.933167000000000E-01     -1.757266000000000E+02      7.124023000000000E-01     -9.366405000000000E+01
4853000000.000000      5.041199000000000E-01     -1.617266000000000E+02      4.766693000000000E-01     -7.473827000000000E+01      4.973450000000000E-01     -1.759375000000000E+02      7.142334000000000E-01     -9.391796000000000E+01
4854000000.000000      5.073853000000000E-01     -1.623125000000000E+02      4.803925000000000E-01     -7.512500000000000E+01      5.013733000000000E-01     -1.761797000000000E+02      7.166138000000000E-01     -9.379686000000000E+01
4855000000.000000      5.108337000000000E-01     -1.629219000000000E+02      4.817963000000000E-01     -7.551952000000000E+01      5.050049000000000E-01     -1.762187000000000E+02      7.197876000000000E-01     -9.389452000000000E+01
4856000000.000000      5.160522000000000E-01     -1.633437000000000E+02      4.835815000000000E-01     -7.559375000000000E+01      5.092163000000000E-01     -1.763828000000000E+02      7.232666000000000E-01     -9.397264000000000E+01
4857000000.000000      5.201721000000000E-01     -1.638984000000000E+02      4.866180000000000E-01     -7.604687000000000E+01      5.114136000000000E-01     -1.765703000000000E+02      7.254028000000000E-01     -9.389452000000000E+01
4858000000.000000      5.214539000000000E-01     -1.644063000000000E+02      4.878998000000000E-01     -7.632030000000000E+01      5.158997000000000E-01     -1.766172000000000E+02      7.277832000000000E-01     -9.398046000000000E+01
4859000000.000000      5.263977000000000E-01     -1.649219000000000E+02      4.897461000000000E-01     -7.655078000000000E+01      5.192566000000000E-01     -1.769140000000000E+02      7.336121000000000E-01     -9.410156000000000E+01
4860000000.000000      5.307007000000000E-01     -1.654140000000000E+02      4.910583000000000E-01     -7.687890000000000E+01      5.213928000000000E-01     -1.769219000000000E+02      7.337952000000000E-01     -9.406641000000000E+01
4861000000.000000      5.338745000000000E-01     -1.657422000000000E+02      4.922333000000000E-01     -7.759766000000000E+01      5.253601000000000E-01     -1.772500000000000E+02      7.367859000000000E-01     -9.416796000000000E+01
4862000000.000000      5.364685000000000E-01     -1.661562000000000E+02      4.951782000000000E-01     -7.770312000000000E+01      5.295715000000000E-01     -1.774375000000000E+02      7.420349000000000E-01     -9.406641000000000E+01
4863000000.000000      5.389099000000000E-01     -1.666172000000000E+02      4.938049000000000E-01     -7.801562000000000E+01      5.330200000000000E-01     -1.774844000000000E+02      7.428284000000000E-01     -9.421093000000000E+01
4864000000.000000      5.422363000000000E-01     -1.670469000000000E+02      4.968872000000000E-01     -7.816015000000000E+01      5.346985000000000E-01     -1.776562000000000E+02      7.456360000000000E-01     -9.426561000000000E+01
4865000000.000000      5.441589000000000E-01     -1.675937000000000E+02      4.990387000000000E-01     -7.845703000000000E+01      5.386658000000000E-01     -1.780078000000000E+02      7.504578000000000E-01     -9.408594000000000E+01
4866000000.000000      5.464478000000000E-01     -1.678359000000000E+02      4.992065000000000E-01     -7.863281000000000E+01      5.423584000000000E-01     -1.782031000000000E+02      7.536316000000000E-01     -9.415234000000000E+01
4867000000.000000      5.486450000000000E-01     -1.681406000000000E+02      5.022278000000000E-01     -7.906250000000000E+01      5.450134000000000E-01     -1.782422000000000E+02      7.555237000000000E-01     -9.432032000000000E+01
4868000000.000000      5.509949000000000E-01     -1.686172000000000E+02      5.020142000000000E-01     -7.927734000000000E+01      5.476685000000000E-01     -1.785234000000000E+02      7.562866000000000E-01     -9.428905000000000E+01
4869000000.000000      5.522766000000000E-01     -1.688281000000000E+02      5.040894000000000E-01     -7.967968000000000E+01      5.506287000000000E-01     -1.788828000000000E+02      7.585754000000000E-01     -9.445704000000000E+01
4870000000.000000      5.540466000000000E-01     -1.692266000000000E+02      5.046082000000000E-01     -7.974218000000000E+01      5.542603000000000E-01     -1.789375000000000E+02      7.640991000000000E-01     -9.437500000000000E+01
4871000000.000000      5.559998000000000E-01     -1.694844000000000E+02      5.059814000000000E-01     -8.001562000000000E+01      5.552368000000000E-01     -1.791719000000000E+02      7.648926000000000E-01     -9.446093000000000E+01
4872000000.000000      5.576477000000000E-01     -1.697891000000000E+02      5.058899000000000E-01     -8.025782000000000E+01      5.596619000000000E-01     -1.796016000000000E+02      7.677307000000000E-01     -9.456640000000000E+01
4873000000.000000      5.588074000000000E-01     -1.700312000000000E+02      5.068970000000000E-01     -8.054688000000000E+01      5.590515000000000E-01     -1.796172000000000E+02      7.700500000000000E-01     -9.461718000000000E+01
4874000000.000000      5.587463000000000E-01     -1.702500000000000E+02      5.084534000000000E-01     -8.081640000000000E+01      5.638123000000000E-01     -1.797422000000000E+02      7.726746000000000E-01     -9.452734000000000E+01
4875000000.000000      5.615234000000000E-01     -1.704766000000000E+02      5.097046000000000E-01     -8.097265000000000E+01      5.661621000000000E-01     -1.800000000000000E+02      7.726746000000000E-01     -9.466015000000000E+01
4876000000.000000      5.603333000000000E-01     -1.708359000000000E+02      5.104065000000000E-01     -8.128515000000000E+01      5.674438000000000E-01      1.798281000000000E+02      7.777405000000000E-01     -9.470312000000000E+01
4877000000.000000      5.613403000000000E-01     -1.709375000000000E+02      5.122375000000000E-01     -8.139452000000000E+01      5.701599000000000E-01      1.795000000000000E+02      7.787476000000000E-01     -9.480860000000000E+01
4878000000.000000      5.618896000000000E-01     -1.711406000000000E+02      5.134888000000000E-01     -8.174608000000000E+01      5.728760000000000E-01      1.793516000000000E+02      7.816467000000000E-01     -9.489452000000000E+01
4879000000.000000      5.627441000000000E-01     -1.713906000000000E+02      5.128479000000000E-01     -8.190624000000000E+01      5.733643000000000E-01      1.790234000000000E+02      7.831421000000000E-01     -9.474609000000000E+01
4880000000.000000      5.620728000000000E-01     -1.714609000000000E+02      5.129395000000000E-01     -8.211329000000000E+01      5.770569000000000E-01      1.788906000000000E+02      7.864075000000000E-01     -9.479296000000000E+01
4881000000.000000      5.632629000000000E-01     -1.716250000000000E+02      5.161743000000000E-01     -8.219921000000000E+01      5.788574000000000E-01      1.786875000000000E+02      7.884521000000000E-01     -9.495312000000000E+01
4882000000.000000      5.619507000000000E-01     -1.716640000000000E+02      5.173950000000000E-01     -8.242968000000000E+01      5.808716000000000E-01      1.784765000000000E+02      7.885437000000000E-01     -9.505077000000000E+01
