! Network Analyzer HP8722D
! Hewlett-Packard
! Data name: Linha & Wilkinson
! Saver's name: Rodrigo Anjos
! Comments: Teste da utilização de aquisição
continua pelo VNA HP8722D
! Time and date: 17/4/2025 15:00
!              Frequency                     S11                                                   S21                                                   S12                                                   S22
# HZ  S  MA R 50
4800000000.000000      3.329468000000000E-01     -1.129336000000000E+02      2.838440000000000E-01     -6.072460000000000E+01      2.778931000000000E-01     -1.748281000000000E+02      6.555176000000000E-01     -8.988281000000000E+01
4801000000.000000      3.315582000000000E-01     -1.137578000000000E+02      2.886963000000000E-01     -6.074413000000000E+01      2.818909000000000E-01     -1.747422000000000E+02      6.549072000000000E-01     -8.985937000000000E+01
4802000000.000000      3.304749000000000E-01     -1.147344000000000E+02      2.922821000000000E-01     -6.073242000000000E+01      2.864227000000000E-01     -1.745547000000000E+02      6.527405000000000E-01     -8.998827000000000E+01
4803000000.000000      3.304749000000000E-01     -1.158008000000000E+02      2.984009000000000E-01     -6.092578000000000E+01      2.900848000000000E-01     -1.743906000000000E+02      6.530457000000000E-01     -9.005077000000000E+01
4804000000.000000      3.294067000000000E-01     -1.167891000000000E+02      3.028564000000000E-01     -6.096874000000000E+01      2.946777000000000E-01     -1.745156000000000E+02      6.516418000000000E-01     -9.010157000000000E+01
4805000000.000000      3.300781000000000E-01     -1.177656000000000E+02      3.071136000000000E-01     -6.098242000000000E+01      2.987366000000000E-01     -1.742266000000000E+02      6.513672000000000E-01     -9.031641000000000E+01
4806000000.000000      3.292694000000000E-01     -1.187344000000000E+02      3.114929000000000E-01     -6.113086000000000E+01      3.017883000000000E-01     -1.739922000000000E+02      6.511536000000000E-01     -9.039454000000000E+01
4807000000.000000      3.290863000000000E-01     -1.199609000000000E+02      3.154602000000000E-01     -6.141406000000000E+01      3.067780000000000E-01     -1.740547000000000E+02      6.497803000000000E-01     -9.039454000000000E+01
4808000000.000000      3.293304000000000E-01     -1.208398000000000E+02      3.207703000000000E-01     -6.131836000000000E+01      3.104095000000000E-01     -1.739609000000000E+02      6.485596000000000E-01     -9.049608000000000E+01
4809000000.000000      3.299255000000000E-01     -1.219141000000000E+02      3.242188000000000E-01     -6.172265000000000E+01      3.153534000000000E-01     -1.738828000000000E+02      6.494751000000000E-01     -9.066015000000000E+01
4810000000.000000      3.303833000000000E-01     -1.230742000000000E+02      3.292542000000000E-01     -6.175586000000000E+01      3.186035000000000E-01     -1.737578000000000E+02      6.489258000000000E-01     -9.077343000000000E+01
4811000000.000000      3.310699000000000E-01     -1.241445000000000E+02      3.336792000000000E-01     -6.204687000000000E+01      3.237000000000000E-01     -1.737422000000000E+02      6.479492000000000E-01     -9.074999000000000E+01
4812000000.000000      3.328400000000000E-01     -1.250859000000000E+02      3.377991000000000E-01     -6.223633000000000E+01      3.276367000000000E-01     -1.735937000000000E+02      6.486816000000000E-01     -9.078905000000000E+01
4813000000.000000      3.333893000000000E-01     -1.262695000000000E+02      3.429108000000000E-01     -6.242188000000000E+01      3.304291000000000E-01     -1.734688000000000E+02      6.481628000000000E-01     -9.086718000000000E+01
4814000000.000000      3.350220000000000E-01     -1.274570000000000E+02      3.458862000000000E-01     -6.256836000000000E+01      3.347473000000000E-01     -1.734688000000000E+02      6.479492000000000E-01     -9.092577000000000E+01
4815000000.000000      3.364563000000000E-01     -1.283906000000000E+02      3.504486000000000E-01     -6.269531000000000E+01      3.390045000000000E-01     -1.735234000000000E+02      6.476440000000000E-01     -9.103907000000000E+01
4816000000.000000      3.389130000000000E-01     -1.294766000000000E+02      3.549194000000000E-01     -6.300976000000000E+01      3.438416000000000E-01     -1.733906000000000E+02      6.478577000000000E-01     -9.113281000000000E+01
4817000000.000000      3.409882000000000E-01     -1.305469000000000E+02      3.582153000000000E-01     -6.330859000000000E+01      3.475037000000000E-01     -1.733828000000000E+02      6.470032000000000E-01     -9.123827000000000E+01
4818000000.000000      3.430634000000000E-01     -1.317031000000000E+02      3.614197000000000E-01     -6.345312000000000E+01      3.509216000000000E-01     -1.733984000000000E+02      6.485291000000000E-01     -9.129686000000000E+01
4819000000.000000      3.456268000000000E-01     -1.327500000000000E+02      3.666229000000000E-01     -6.371288000000000E+01      3.549042000000000E-01     -1.733047000000000E+02      6.503906000000000E-01     -9.139843000000000E+01
4820000000.000000      3.474121000000000E-01     -1.337734000000000E+02      3.702850000000000E-01     -6.392187000000000E+01      3.596802000000000E-01     -1.732422000000000E+02      6.493530000000000E-01     -9.149218000000000E+01
4821000000.000000      3.509369000000000E-01     -1.348047000000000E+02      3.742828000000000E-01     -6.417969000000000E+01      3.635559000000000E-01     -1.733359000000000E+02      6.497192000000000E-01     -9.166016000000000E+01
4822000000.000000      3.546448000000000E-01     -1.359375000000000E+02      3.782501000000000E-01     -6.444921000000000E+01      3.668365000000000E-01     -1.732422000000000E+02      6.508179000000000E-01     -9.164843000000000E+01
4823000000.000000      3.570709000000000E-01     -1.369062000000000E+02      3.818054000000000E-01     -6.471874000000000E+01      3.713531000000000E-01     -1.730625000000000E+02      6.528320000000000E-01     -9.167969000000000E+01
4824000000.000000      3.618317000000000E-01     -1.381250000000000E+02      3.852844000000000E-01     -6.508984000000000E+01      3.758850000000000E-01     -1.731953000000000E+02      6.536560000000000E-01     -9.174219000000000E+01
4825000000.000000      3.645325000000000E-01     -1.389453000000000E+02      3.893127000000000E-01     -6.520312000000000E+01      3.799591000000000E-01     -1.731406000000000E+02      6.542969000000000E-01     -9.172655000000000E+01
4826000000.000000      3.692017000000000E-01     -1.400312000000000E+02      3.938446000000000E-01     -6.548046000000000E+01      3.829193000000000E-01     -1.732344000000000E+02      6.546631000000000E-01     -9.191406000000000E+01
4827000000.000000      3.727112000000000E-01     -1.408672000000000E+02      3.971710000000000E-01     -6.563281000000000E+01      3.871460000000000E-01     -1.730703000000000E+02      6.568604000000000E-01     -9.190624000000000E+01
4828000000.000000      3.774109000000000E-01     -1.419141000000000E+02      4.007111000000000E-01     -6.616796000000000E+01      3.916779000000000E-01     -1.730391000000000E+02      6.599121000000000E-01     -9.194530000000000E+01
4829000000.000000      3.800049000000000E-01     -1.428281000000000E+02      4.036560000000000E-01     -6.631640000000000E+01      3.955231000000000E-01     -1.731094000000000E+02      6.600342000000000E-01     -9.190233000000000E+01
4830000000.000000      3.854523000000000E-01     -1.438281000000000E+02      4.072418000000000E-01     -6.666797000000000E+01      3.993835000000000E-01     -1.730312000000000E+02      6.605835000000000E-01     -9.208984000000000E+01
4831000000.000000      3.896179000000000E-01     -1.446953000000000E+02      4.107666000000000E-01     -6.701953000000000E+01      4.037781000000000E-01     -1.730781000000000E+02      6.634216000000000E-01     -9.226563000000000E+01
4832000000.000000      3.951111000000000E-01     -1.455859000000000E+02      4.143677000000000E-01     -6.722265000000000E+01      4.075775000000000E-01     -1.732031000000000E+02      6.647644000000000E-01     -9.218359000000000E+01
4833000000.000000      4.002075000000000E-01     -1.465937000000000E+02      4.181061000000000E-01     -6.743750000000000E+01      4.118195000000000E-01     -1.732422000000000E+02      6.659851000000000E-01     -9.231640000000000E+01
4834000000.000000      4.040527000000000E-01     -1.473984000000000E+02      4.213562000000000E-01     -6.779687000000000E+01      4.159241000000000E-01     -1.733438000000000E+02      6.680908000000000E-01     -9.239061000000000E+01
4835000000.000000      4.088287000000000E-01     -1.481953000000000E+02      4.247284000000000E-01     -6.814843000000000E+01      4.204102000000000E-01     -1.733125000000000E+02      6.704407000000000E-01     -9.254297000000000E+01
4836000000.000000      4.149323000000000E-01     -1.489766000000000E+02      4.272919000000000E-01     -6.839844000000000E+01      4.239197000000000E-01     -1.733516000000000E+02      6.717224000000000E-01     -9.245312000000000E+01
4837000000.000000      4.200439000000000E-01     -1.497578000000000E+02      4.306946000000000E-01     -6.899219000000000E+01      4.273071000000000E-01     -1.734688000000000E+02      6.739197000000000E-01     -9.255468000000000E+01
4838000000.000000      4.253540000000000E-01     -1.506875000000000E+02      4.351196000000000E-01     -6.897655000000000E+01      4.327393000000000E-01     -1.733984000000000E+02      6.760254000000000E-01     -9.255077000000000E+01
4839000000.000000      4.304504000000000E-01     -1.513359000000000E+02      4.372253000000000E-01     -6.926952000000000E+01      4.360199000000000E-01     -1.734375000000000E+02      6.791077000000000E-01     -9.258593000000000E+01
4840000000.000000      4.350586000000000E-01     -1.522656000000000E+02      4.405365000000000E-01     -6.952734000000000E+01      4.401703000000000E-01     -1.736016000000000E+02      6.801453000000000E-01     -9.269140000000000E+01
4841000000.000000      4.401245000000000E-01     -1.530781000000000E+02      4.432678000000000E-01     -7.005077000000000E+01      4.450531000000000E-01     -1.736875000000000E+02      6.831665000000000E-01     -9.272655000000000E+01
4842000000.000000      4.458923000000000E-01     -1.536484000000000E+02      4.466400000000000E-01     -7.030078000000000E+01      4.478455000000000E-01     -1.737109000000000E+02      6.847839000000000E-01     -9.278124000000000E+01
4843000000.000000      4.501801000000000E-01     -1.544765000000000E+02      4.493561000000000E-01     -7.067577000000000E+01      4.524536000000000E-01     -1.737734000000000E+02      6.876221000000000E-01     -9.274609000000000E+01
4844000000.000000      4.555969000000000E-01     -1.551094000000000E+02      4.522247000000000E-01     -7.094921000000000E+01      4.561462000000000E-01     -1.738437000000000E+02      6.902771000000000E-01     -9.290234000000000E+01
4845000000.000000      4.608917000000000E-01     -1.557344000000000E+02      4.537201000000000E-01     -7.131249000000000E+01      4.609070000000000E-01     -1.740937000000000E+02      6.913147000000000E-01     -9.292969000000000E+01
4846000000.000000      4.651794000000000E-01     -1.563750000000000E+02      4.578552000000000E-01     -7.150391000000000E+01      4.652710000000000E-01     -1.740937000000000E+02      6.959229000000000E-01     -9.295313000000000E+01
4847000000.000000      4.715576000000000E-01     -1.570703000000000E+02      4.601593000000000E-01     -7.180469000000000E+01      4.696198000000000E-01     -1.742812000000000E+02      6.983948000000000E-01     -9.296875000000000E+01
4848000000.000000      4.768372000000000E-01     -1.576719000000000E+02      4.618988000000000E-01     -7.216406000000000E+01      4.734039000000000E-01     -1.743047000000000E+02      7.006226000000000E-01     -9.304688000000000E+01
4849000000.000000      4.811096000000000E-01     -1.586328000000000E+02      4.653473000000000E-01     -7.265625000000000E+01      4.775848000000000E-01     -1.745078000000000E+02      7.028809000000000E-01     -9.308203000000000E+01
4850000000.000000      4.862823000000000E-01     -1.589687000000000E+02      4.674225000000000E-01     -7.278515000000000E+01      4.812622000000000E-01     -1.745234000000000E+02      7.058411000000000E-01     -9.312500000000000E+01
4851000000.000000      4.915924000000000E-01     -1.595469000000000E+02      4.709930000000000E-01     -7.332031000000000E+01      4.846344000000000E-01     -1.746172000000000E+02      7.096863000000000E-01     -9.310547000000000E+01
4852000000.000000      4.966125000000000E-01     -1.601172000000000E+02      4.733734000000000E-01     -7.359375000000000E+01      4.893341000000000E-01     -1.747734000000000E+02      7.114868000000000E-01     -9.313280000000000E+01
4853000000.000000      5.010376000000000E-01     -1.607344000000000E+02      4.731750000000000E-01     -7.381640000000000E+01      4.937134000000000E-01     -1.750234000000000E+02      7.138977000000000E-01     -9.332031000000000E+01
4854000000.000000      5.052490000000000E-01     -1.612266000000000E+02      4.765472000000000E-01     -7.437500000000000E+01      4.967194000000000E-01     -1.751250000000000E+02      7.169189000000000E-01     -9.321484000000000E+01
4855000000.000000      5.090332000000000E-01     -1.618594000000000E+02      4.774475000000000E-01     -7.448047000000000E+01      5.012512000000000E-01     -1.751953000000000E+02      7.202759000000000E-01     -9.320704000000000E+01
4856000000.000000      5.140686000000000E-01     -1.623516000000000E+02      4.806366000000000E-01     -7.477734000000000E+01      5.039673000000000E-01     -1.754375000000000E+02      7.243347000000000E-01     -9.332422000000000E+01
4857000000.000000      5.176392000000000E-01     -1.628672000000000E+02      4.839325000000000E-01     -7.516406000000000E+01      5.083923000000000E-01     -1.754844000000000E+02      7.258301000000000E-01     -9.337500000000000E+01
4858000000.000000      5.198059000000000E-01     -1.634297000000000E+02      4.851990000000000E-01     -7.548437000000000E+01      5.118408000000000E-01     -1.757578000000000E+02      7.286377000000000E-01     -9.344530000000000E+01
4859000000.000000      5.246277000000000E-01     -1.639375000000000E+02      4.858246000000000E-01     -7.585546000000000E+01      5.153503000000000E-01     -1.759297000000000E+02      7.333679000000000E-01     -9.362890000000000E+01
4860000000.000000      5.294800000000000E-01     -1.643828000000000E+02      4.873047000000000E-01     -7.594140000000000E+01      5.188904000000000E-01     -1.759844000000000E+02      7.347107000000000E-01     -9.345703000000000E+01
4861000000.000000      5.321045000000000E-01     -1.647031000000000E+02      4.891968000000000E-01     -7.644140000000000E+01      5.220032000000000E-01     -1.763515000000000E+02      7.373962000000000E-01     -9.363281000000000E+01
4862000000.000000      5.346680000000000E-01     -1.652422000000000E+02      4.933014000000000E-01     -7.633594000000000E+01      5.263367000000000E-01     -1.764297000000000E+02      7.419739000000000E-01     -9.369921000000000E+01
4863000000.000000      5.381470000000000E-01     -1.655391000000000E+02      4.920502000000000E-01     -7.723437000000000E+01      5.306702000000000E-01     -1.766250000000000E+02      7.438965000000000E-01     -9.376171000000000E+01
4864000000.000000      5.416260000000000E-01     -1.660000000000000E+02      4.965820000000000E-01     -7.724999000000000E+01      5.323486000000000E-01     -1.766484000000000E+02      7.450867000000000E-01     -9.360546000000000E+01
4865000000.000000      5.434875000000000E-01     -1.665625000000000E+02      4.971008000000000E-01     -7.773046000000000E+01      5.349731000000000E-01     -1.770703000000000E+02      7.498474000000000E-01     -9.358202000000000E+01
4866000000.000000      5.457153000000000E-01     -1.668281000000000E+02      4.964142000000000E-01     -7.792969000000000E+01      5.404663000000000E-01     -1.772656000000000E+02      7.519531000000000E-01     -9.373047000000000E+01
4867000000.000000      5.485840000000000E-01     -1.671641000000000E+02      4.993134000000000E-01     -7.816796000000000E+01      5.425415000000000E-01     -1.774062000000000E+02      7.557678000000000E-01     -9.379297000000000E+01
4868000000.000000      5.500793000000000E-01     -1.676250000000000E+02      5.006409000000000E-01     -7.844140000000000E+01      5.457764000000000E-01     -1.775391000000000E+02      7.582092000000000E-01     -9.390625000000000E+01
4869000000.000000      5.518494000000000E-01     -1.678516000000000E+02      5.010681000000000E-01     -7.878124000000000E+01      5.500488000000000E-01     -1.779140000000000E+02      7.607422000000000E-01     -9.393749000000000E+01
4870000000.000000      5.549622000000000E-01     -1.682188000000000E+02      5.028381000000000E-01     -7.894140000000000E+01      5.520020000000000E-01     -1.779687000000000E+02      7.641296000000000E-01     -9.385157000000000E+01
4871000000.000000      5.561829000000000E-01     -1.685625000000000E+02      5.042419000000000E-01     -7.932031000000000E+01      5.524902000000000E-01     -1.780859000000000E+02      7.656250000000000E-01     -9.403124000000000E+01
4872000000.000000      5.577698000000000E-01     -1.688203000000000E+02      5.053711000000000E-01     -7.932812000000000E+01      5.563354000000000E-01     -1.786016000000000E+02      7.696533000000000E-01     -9.402735000000000E+01
4873000000.000000      5.587769000000000E-01     -1.690469000000000E+02      5.069885000000000E-01     -7.966015000000000E+01      5.583496000000000E-01     -1.786484000000000E+02      7.702942000000000E-01     -9.409374000000000E+01
4874000000.000000      5.592346000000000E-01     -1.692969000000000E+02      5.068054000000000E-01     -8.007813000000000E+01      5.624390000000000E-01     -1.788594000000000E+02      7.726746000000000E-01     -9.391796000000000E+01
4875000000.000000      5.620728000000000E-01     -1.696016000000000E+02      5.080566000000000E-01     -8.017187000000000E+01      5.639343000000000E-01     -1.791875000000000E+02      7.747803000000000E-01     -9.408594000000000E+01
4876000000.000000      5.611572000000000E-01     -1.698437000000000E+02      5.094604000000000E-01     -8.035547000000000E+01      5.661011000000000E-01     -1.793984000000000E+02      7.779541000000000E-01     -9.414843000000000E+01
4877000000.000000      5.625610000000000E-01     -1.700938000000000E+02      5.099182000000000E-01     -8.062891000000000E+01      5.693665000000000E-01     -1.795625000000000E+02      7.796936000000000E-01     -9.433594000000000E+01
4878000000.000000      5.630798000000000E-01     -1.701875000000000E+02      5.130005000000000E-01     -8.085155000000000E+01      5.700989000000000E-01     -1.796875000000000E+02      7.830811000000000E-01     -9.430079000000000E+01
4879000000.000000      5.643921000000000E-01     -1.704219000000000E+02      5.117798000000000E-01     -8.100389000000000E+01      5.733643000000000E-01     -1.799297000000000E+02      7.857056000000000E-01     -9.424219000000000E+01
4880000000.000000      5.627136000000000E-01     -1.705937000000000E+02      5.136108000000000E-01     -8.128124000000000E+01      5.759888000000000E-01      1.798359000000000E+02      7.870789000000000E-01     -9.433203000000000E+01
4881000000.000000      5.642395000000000E-01     -1.706563000000000E+02      5.162964000000000E-01     -8.141016000000000E+01      5.776367000000000E-01      1.795938000000000E+02      7.895203000000000E-01     -9.434765000000000E+01
4882000000.000000      5.624390000000000E-01     -1.708437000000000E+02      5.162048000000000E-01     -8.172655000000000E+01      5.796814000000000E-01      1.795234000000000E+02      7.905579000000000E-01     -9.438671000000000E+01
