! Network Analyzer HP8722D
! Hewlett-Packard
! Data name: Linha & Wilkinson
! Saver's name: Rodrigo Anjos
! Comments: Teste da utilização de aquisição
continua pelo VNA HP8722D
! Time and date: 17/4/2025 15:20
!              Frequency                     S11                                                   S21                                                   S12                                                   S22
# HZ  S  MA R 50
4800000000.000000      3.335571000000000E-01     -1.129766000000000E+02      2.859955000000000E-01     -6.064648000000000E+01      2.799835000000000E-01     -1.747969000000000E+02      6.557312000000000E-01     -8.991405000000000E+01
4801000000.000000      3.322449000000000E-01     -1.138555000000000E+02      2.903137000000000E-01     -6.074023000000000E+01      2.833557000000000E-01     -1.747500000000000E+02      6.546021000000000E-01     -8.992579000000000E+01
4802000000.000000      3.308563000000000E-01     -1.149141000000000E+02      2.944183000000000E-01     -6.070117000000000E+01      2.873535000000000E-01     -1.746250000000000E+02      6.520996000000000E-01     -8.993359000000000E+01
4803000000.000000      3.307037000000000E-01     -1.159258000000000E+02      3.000336000000000E-01     -6.078711000000000E+01      2.913361000000000E-01     -1.743438000000000E+02      6.528015000000000E-01     -9.008204000000000E+01
4804000000.000000      3.295593000000000E-01     -1.168398000000000E+02      3.043823000000000E-01     -6.098437000000000E+01      2.960968000000000E-01     -1.745078000000000E+02      6.518250000000000E-01     -9.008204000000000E+01
4805000000.000000      3.302612000000000E-01     -1.179258000000000E+02      3.080139000000000E-01     -6.113671000000000E+01      3.003082000000000E-01     -1.741719000000000E+02      6.510925000000000E-01     -9.037500000000000E+01
4806000000.000000      3.290405000000000E-01     -1.188047000000000E+02      3.131256000000000E-01     -6.122265000000000E+01      3.027344000000000E-01     -1.739766000000000E+02      6.504211000000000E-01     -9.041016000000000E+01
4807000000.000000      3.295288000000000E-01     -1.199961000000000E+02      3.174591000000000E-01     -6.145117000000000E+01      3.084106000000000E-01     -1.741016000000000E+02      6.496582000000000E-01     -9.046875000000000E+01
4808000000.000000      3.296814000000000E-01     -1.209805000000000E+02      3.221741000000000E-01     -6.133984000000000E+01      3.117371000000000E-01     -1.739219000000000E+02      6.495972000000000E-01     -9.051561000000000E+01
4809000000.000000      3.301239000000000E-01     -1.220313000000000E+02      3.266449000000000E-01     -6.171679000000000E+01      3.161469000000000E-01     -1.739766000000000E+02      6.489563000000000E-01     -9.064844000000000E+01
4810000000.000000      3.303986000000000E-01     -1.231484000000000E+02      3.305969000000000E-01     -6.174218000000000E+01      3.203430000000000E-01     -1.737656000000000E+02      6.495972000000000E-01     -9.081640000000000E+01
4811000000.000000      3.322906000000000E-01     -1.241992000000000E+02      3.353729000000000E-01     -6.215429000000000E+01      3.249207000000000E-01     -1.737031000000000E+02      6.486206000000000E-01     -9.072266000000000E+01
4812000000.000000      3.330841000000000E-01     -1.252539000000000E+02      3.397675000000000E-01     -6.232422000000000E+01      3.286438000000000E-01     -1.735391000000000E+02      6.482544000000000E-01     -9.093750000000000E+01
4813000000.000000      3.346252000000000E-01     -1.263281000000000E+02      3.431854000000000E-01     -6.250000000000000E+01      3.322601000000000E-01     -1.734922000000000E+02      6.471863000000000E-01     -9.089844000000000E+01
4814000000.000000      3.351746000000000E-01     -1.275586000000000E+02      3.474731000000000E-01     -6.261523000000000E+01      3.363495000000000E-01     -1.737187000000000E+02      6.493225000000000E-01     -9.115234000000000E+01
4815000000.000000      3.363647000000000E-01     -1.285938000000000E+02      3.516693000000000E-01     -6.282812000000000E+01      3.402100000000000E-01     -1.735469000000000E+02      6.473389000000000E-01     -9.101563000000000E+01
4816000000.000000      3.386841000000000E-01     -1.295547000000000E+02      3.562317000000000E-01     -6.307226000000000E+01      3.457031000000000E-01     -1.735000000000000E+02      6.487732000000000E-01     -9.110937000000000E+01
4817000000.000000      3.417664000000000E-01     -1.306719000000000E+02      3.599854000000000E-01     -6.336719000000000E+01      3.481903000000000E-01     -1.734453000000000E+02      6.480103000000000E-01     -9.133593000000000E+01
4818000000.000000      3.430939000000000E-01     -1.318203000000000E+02      3.634338000000000E-01     -6.352539000000000E+01      3.529968000000000E-01     -1.733750000000000E+02      6.481018000000000E-01     -9.138672000000000E+01
4819000000.000000      3.461456000000000E-01     -1.328750000000000E+02      3.675079000000000E-01     -6.381640000000000E+01      3.562622000000000E-01     -1.733203000000000E+02      6.494751000000000E-01     -9.151562000000000E+01
4820000000.000000      3.477020000000000E-01     -1.339141000000000E+02      3.718567000000000E-01     -6.390625000000000E+01      3.610840000000000E-01     -1.732422000000000E+02      6.508179000000000E-01     -9.150391000000000E+01
4821000000.000000      3.511047000000000E-01     -1.350859000000000E+02      3.759613000000000E-01     -6.434375000000000E+01      3.639221000000000E-01     -1.733750000000000E+02      6.498108000000000E-01     -9.163671000000000E+01
4822000000.000000      3.557281000000000E-01     -1.361250000000000E+02      3.795471000000000E-01     -6.450781000000000E+01      3.679504000000000E-01     -1.734141000000000E+02      6.521912000000000E-01     -9.172655000000000E+01
4823000000.000000      3.581848000000000E-01     -1.370781000000000E+02      3.832855000000000E-01     -6.475780000000000E+01      3.724823000000000E-01     -1.731406000000000E+02      6.517334000000000E-01     -9.175781000000000E+01
4824000000.000000      3.618469000000000E-01     -1.381953000000000E+02      3.873901000000000E-01     -6.507030000000000E+01      3.767700000000000E-01     -1.733047000000000E+02      6.544189000000000E-01     -9.180079000000000E+01
4825000000.000000      3.650818000000000E-01     -1.391172000000000E+02      3.906708000000000E-01     -6.532812000000000E+01      3.809357000000000E-01     -1.731953000000000E+02      6.550293000000000E-01     -9.185938000000000E+01
4826000000.000000      3.691254000000000E-01     -1.402031000000000E+02      3.945313000000000E-01     -6.570703000000000E+01      3.836975000000000E-01     -1.732734000000000E+02      6.553345000000000E-01     -9.191406000000000E+01
4827000000.000000      3.731384000000000E-01     -1.410312000000000E+02      3.979492000000000E-01     -6.582421000000000E+01      3.882446000000000E-01     -1.731641000000000E+02      6.563110000000000E-01     -9.201172000000000E+01
4828000000.000000      3.779297000000000E-01     -1.421328000000000E+02      4.019012000000000E-01     -6.610937000000000E+01      3.924561000000000E-01     -1.731562000000000E+02      6.589966000000000E-01     -9.198828000000000E+01
4829000000.000000      3.805847000000000E-01     -1.429609000000000E+02      4.046936000000000E-01     -6.650391000000000E+01      3.960114000000000E-01     -1.733359000000000E+02      6.593628000000000E-01     -9.201563000000000E+01
4830000000.000000      3.859100000000000E-01     -1.439297000000000E+02      4.086914000000000E-01     -6.681641000000000E+01      4.004974000000000E-01     -1.731328000000000E+02      6.611023000000000E-01     -9.227343000000000E+01
4831000000.000000      3.896027000000000E-01     -1.448516000000000E+02      4.122009000000000E-01     -6.707812000000000E+01      4.053497000000000E-01     -1.731797000000000E+02      6.631775000000000E-01     -9.219921000000000E+01
4832000000.000000      3.957062000000000E-01     -1.457578000000000E+02      4.154968000000000E-01     -6.733203000000000E+01      4.080505000000000E-01     -1.732734000000000E+02      6.640015000000000E-01     -9.237890000000000E+01
4833000000.000000      4.001160000000000E-01     -1.466719000000000E+02      4.191742000000000E-01     -6.758203000000000E+01      4.123077000000000E-01     -1.733047000000000E+02      6.659851000000000E-01     -9.232422000000000E+01
4834000000.000000      4.051361000000000E-01     -1.475469000000000E+02      4.223938000000000E-01     -6.793359000000000E+01      4.167023000000000E-01     -1.733984000000000E+02      6.674805000000000E-01     -9.250780000000000E+01
4835000000.000000      4.095001000000000E-01     -1.482969000000000E+02      4.259949000000000E-01     -6.826172000000000E+01      4.219360000000000E-01     -1.733594000000000E+02      6.702576000000000E-01     -9.253906000000000E+01
4836000000.000000      4.152374000000000E-01     -1.490781000000000E+02      4.285126000000000E-01     -6.850780000000000E+01      4.250488000000000E-01     -1.734062000000000E+02      6.714783000000000E-01     -9.248047000000000E+01
4837000000.000000      4.204102000000000E-01     -1.499219000000000E+02      4.314575000000000E-01     -6.905468000000000E+01      4.292755000000000E-01     -1.736328000000000E+02      6.723328000000000E-01     -9.253906000000000E+01
4838000000.000000      4.251862000000000E-01     -1.508047000000000E+02      4.363861000000000E-01     -6.909765000000000E+01      4.332581000000000E-01     -1.735781000000000E+02      6.754150000000000E-01     -9.258204000000000E+01
4839000000.000000      4.305115000000000E-01     -1.514531000000000E+02      4.382172000000000E-01     -6.925390000000000E+01      4.377747000000000E-01     -1.734609000000000E+02      6.781616000000000E-01     -9.260157000000000E+01
4840000000.000000      4.349823000000000E-01     -1.523516000000000E+02      4.424438000000000E-01     -6.973437000000000E+01      4.418488000000000E-01     -1.736953000000000E+02      6.802063000000000E-01     -9.264063000000000E+01
4841000000.000000      4.409637000000000E-01     -1.532031000000000E+02      4.448547000000000E-01     -7.020702000000000E+01      4.456024000000000E-01     -1.737813000000000E+02      6.829834000000000E-01     -9.279688000000000E+01
4842000000.000000      4.467468000000000E-01     -1.538125000000000E+02      4.470978000000000E-01     -7.039844000000000E+01      4.492035000000000E-01     -1.738516000000000E+02      6.855774000000000E-01     -9.269531000000000E+01
4843000000.000000      4.510803000000000E-01     -1.545781000000000E+02      4.500732000000000E-01     -7.071094000000000E+01      4.535980000000000E-01     -1.739063000000000E+02      6.877441000000000E-01     -9.288671000000000E+01
4844000000.000000      4.562683000000000E-01     -1.552500000000000E+02      4.513092000000000E-01     -7.105078000000000E+01      4.575958000000000E-01     -1.740156000000000E+02      6.906128000000000E-01     -9.292969000000000E+01
4845000000.000000      4.606934000000000E-01     -1.558750000000000E+02      4.542236000000000E-01     -7.137890000000000E+01      4.616852000000000E-01     -1.741484000000000E+02      6.914673000000000E-01     -9.292187000000000E+01
4846000000.000000      4.660797000000000E-01     -1.564844000000000E+02      4.576569000000000E-01     -7.162499000000000E+01      4.661102000000000E-01     -1.742344000000000E+02      6.950989000000000E-01     -9.299219000000000E+01
4847000000.000000      4.720154000000000E-01     -1.571953000000000E+02      4.613800000000000E-01     -7.195703000000000E+01      4.707336000000000E-01     -1.744062000000000E+02      6.985779000000000E-01     -9.315624000000000E+01
4848000000.000000      4.769440000000000E-01     -1.578203000000000E+02      4.632568000000000E-01     -7.223437000000000E+01      4.739380000000000E-01     -1.743906000000000E+02      6.998291000000000E-01     -9.308985000000000E+01
4849000000.000000      4.816589000000000E-01     -1.587031000000000E+02      4.658966000000000E-01     -7.276562000000000E+01      4.777374000000000E-01     -1.746172000000000E+02      7.035217000000000E-01     -9.307421000000000E+01
4850000000.000000      4.868317000000000E-01     -1.591172000000000E+02      4.681549000000000E-01     -7.288671000000000E+01      4.820099000000000E-01     -1.746484000000000E+02      7.058716000000000E-01     -9.312109000000000E+01
4851000000.000000      4.915924000000000E-01     -1.597265000000000E+02      4.712524000000000E-01     -7.344531000000000E+01      4.860840000000000E-01     -1.747969000000000E+02      7.091980000000000E-01     -9.319530000000000E+01
4852000000.000000      4.971924000000000E-01     -1.603281000000000E+02      4.730835000000000E-01     -7.368359000000000E+01      4.900665000000000E-01     -1.748672000000000E+02      7.112122000000000E-01     -9.325781000000000E+01
4853000000.000000      5.009766000000000E-01     -1.609062000000000E+02      4.740601000000000E-01     -7.401953000000000E+01      4.945068000000000E-01     -1.751094000000000E+02      7.146912000000000E-01     -9.344141000000000E+01
4854000000.000000      5.050659000000000E-01     -1.613984000000000E+02      4.769592000000000E-01     -7.440624000000000E+01      4.977112000000000E-01     -1.752500000000000E+02      7.173157000000000E-01     -9.333593000000000E+01
4855000000.000000      5.084229000000000E-01     -1.619688000000000E+02      4.780731000000000E-01     -7.459765000000000E+01      5.014038000000000E-01     -1.753438000000000E+02      7.187195000000000E-01     -9.332031000000000E+01
4856000000.000000      5.144043000000000E-01     -1.624766000000000E+02      4.813690000000000E-01     -7.480078000000000E+01      5.061035000000000E-01     -1.755859000000000E+02      7.228088000000000E-01     -9.345312000000000E+01
4857000000.000000      5.175476000000000E-01     -1.630547000000000E+02      4.831848000000000E-01     -7.526953000000000E+01      5.101318000000000E-01     -1.755859000000000E+02      7.260132000000000E-01     -9.339844000000000E+01
4858000000.000000      5.201111000000000E-01     -1.635625000000000E+02      4.857635000000000E-01     -7.546484000000000E+01      5.127563000000000E-01     -1.757813000000000E+02      7.286072000000000E-01     -9.354687000000000E+01
4859000000.000000      5.250244000000000E-01     -1.640312000000000E+02      4.878845000000000E-01     -7.594140000000000E+01      5.169373000000000E-01     -1.761016000000000E+02      7.320862000000000E-01     -9.368359000000000E+01
4860000000.000000      5.293579000000000E-01     -1.645234000000000E+02      4.881287000000000E-01     -7.615234000000000E+01      5.182495000000000E-01     -1.761719000000000E+02      7.344971000000000E-01     -9.355078000000000E+01
4861000000.000000      5.324097000000000E-01     -1.648906000000000E+02      4.904480000000000E-01     -7.659765000000000E+01      5.236206000000000E-01     -1.762891000000000E+02      7.373657000000000E-01     -9.375000000000000E+01
4862000000.000000      5.348816000000000E-01     -1.653203000000000E+02      4.950867000000000E-01     -7.676171000000000E+01      5.269775000000000E-01     -1.765078000000000E+02      7.426453000000000E-01     -9.372265000000000E+01
4863000000.000000      5.377808000000000E-01     -1.657578000000000E+02      4.933319000000000E-01     -7.722265000000000E+01      5.318909000000000E-01     -1.767031000000000E+02      7.444763000000000E-01     -9.370703000000000E+01
4864000000.000000      5.414124000000000E-01     -1.662109000000000E+02      4.956055000000000E-01     -7.732422000000000E+01      5.331116000000000E-01     -1.768047000000000E+02      7.460022000000000E-01     -9.377733000000000E+01
4865000000.000000      5.434265000000000E-01     -1.667266000000000E+02      4.982758000000000E-01     -7.762109000000000E+01      5.368042000000000E-01     -1.769453000000000E+02      7.496643000000000E-01     -9.374218000000000E+01
4866000000.000000      5.455627000000000E-01     -1.669688000000000E+02      4.971619000000000E-01     -7.791797000000000E+01      5.406189000000000E-01     -1.773984000000000E+02      7.527161000000000E-01     -9.383593000000000E+01
4867000000.000000      5.476990000000000E-01     -1.672734000000000E+02      4.999390000000000E-01     -7.825390000000000E+01      5.434875000000000E-01     -1.773750000000000E+02      7.558594000000000E-01     -9.386719000000000E+01
4868000000.000000      5.504761000000000E-01     -1.676875000000000E+02      5.024109000000000E-01     -7.884375000000000E+01      5.468750000000000E-01     -1.777031000000000E+02      7.582397000000000E-01     -9.386719000000000E+01
4869000000.000000      5.523071000000000E-01     -1.680234000000000E+02      5.012817000000000E-01     -7.878906000000000E+01      5.502014000000000E-01     -1.780859000000000E+02      7.615051000000000E-01     -9.410156000000000E+01
4870000000.000000      5.544128000000000E-01     -1.683672000000000E+02      5.040283000000000E-01     -7.894140000000000E+01      5.517883000000000E-01     -1.781563000000000E+02      7.638550000000000E-01     -9.393358000000000E+01
4871000000.000000      5.568848000000000E-01     -1.686875000000000E+02      5.046387000000000E-01     -7.943359000000000E+01      5.550232000000000E-01     -1.782812000000000E+02      7.641602000000000E-01     -9.403515000000000E+01
4872000000.000000      5.583496000000000E-01     -1.688594000000000E+02      5.052795000000000E-01     -7.935156000000000E+01      5.574951000000000E-01     -1.786328000000000E+02      7.689514000000000E-01     -9.408983000000000E+01
4873000000.000000      5.594482000000000E-01     -1.692266000000000E+02      5.066223000000000E-01     -7.971874000000000E+01      5.603027000000000E-01     -1.787344000000000E+02      7.705994000000000E-01     -9.411327000000000E+01
4874000000.000000      5.596924000000000E-01     -1.694219000000000E+02      5.060730000000000E-01     -8.009375000000000E+01      5.634766000000000E-01     -1.789375000000000E+02      7.718201000000000E-01     -9.403906000000000E+01
4875000000.000000      5.610962000000000E-01     -1.697266000000000E+02      5.084839000000000E-01     -8.029688000000000E+01      5.639038000000000E-01     -1.792891000000000E+02      7.755127000000000E-01     -9.421875000000000E+01
4876000000.000000      5.607300000000000E-01     -1.699141000000000E+02      5.093079000000000E-01     -8.069921000000000E+01      5.651245000000000E-01     -1.792812000000000E+02      7.780762000000000E-01     -9.427343000000000E+01
4877000000.000000      5.620117000000000E-01     -1.701719000000000E+02      5.100708000000000E-01     -8.070704000000000E+01      5.701904000000000E-01     -1.796484000000000E+02      7.807312000000000E-01     -9.436327000000000E+01
4878000000.000000      5.625610000000000E-01     -1.703125000000000E+02      5.124817000000000E-01     -8.109375000000000E+01      5.709839000000000E-01     -1.798047000000000E+02      7.820435000000000E-01     -9.433203000000000E+01
4879000000.000000      5.634155000000000E-01     -1.706328000000000E+02      5.115662000000000E-01     -8.104687000000000E+01      5.749817000000000E-01     -1.799531000000000E+02      7.852783000000000E-01     -9.423828000000000E+01
4880000000.000000      5.624390000000000E-01     -1.706719000000000E+02      5.143127000000000E-01     -8.143358000000000E+01      5.767212000000000E-01      1.798281000000000E+02      7.867432000000000E-01     -9.442186000000000E+01
4881000000.000000      5.646667000000000E-01     -1.708828000000000E+02      5.157471000000000E-01     -8.149609000000000E+01      5.784302000000000E-01      1.794844000000000E+02      7.893982000000000E-01     -9.449219000000000E+01
4882000000.000000      5.625305000000000E-01     -1.709687000000000E+02      5.161438000000000E-01     -8.178905000000000E+01      5.802002000000000E-01      1.792656000000000E+02      7.902222000000000E-01     -9.447657000000000E+01
