! Network Analyzer HP8722D
! Hewlett-Packard
! Data name: Linha & Wilkinson
! Saver's name: Rodrigo Anjos
! Comments: Teste da utilização de aquisição
continua pelo VNA HP8722D
! Time and date: 17/4/2025 17:14
!              Frequency                     S11                                                   S21                                                   S12                                                   S22
# HZ  S  MA R 50
4800000000.000000      3.358307000000000E-01     -1.148867000000000E+02      2.990875000000000E-01     -6.129883000000000E+01      2.929230000000000E-01     -1.753281000000000E+02      6.566162000000000E-01     -9.053514000000000E+01
4801000000.000000      3.349609000000000E-01     -1.158867000000000E+02      3.039703000000000E-01     -6.131054000000000E+01      2.967377000000000E-01     -1.753672000000000E+02      6.554565000000000E-01     -9.050390000000000E+01
4802000000.000000      3.335724000000000E-01     -1.168281000000000E+02      3.083801000000000E-01     -6.142383000000000E+01      3.014069000000000E-01     -1.752891000000000E+02      6.535950000000000E-01     -9.053905000000000E+01
4803000000.000000      3.332977000000000E-01     -1.178437000000000E+02      3.131866000000000E-01     -6.167773000000000E+01      3.053131000000000E-01     -1.751328000000000E+02      6.540222000000000E-01     -9.077343000000000E+01
4804000000.000000      3.328705000000000E-01     -1.188281000000000E+02      3.174896000000000E-01     -6.177148000000000E+01      3.094788000000000E-01     -1.751953000000000E+02      6.524353000000000E-01     -9.076952000000000E+01
4805000000.000000      3.334961000000000E-01     -1.199180000000000E+02      3.216400000000000E-01     -6.187109000000000E+01      3.134460000000000E-01     -1.750156000000000E+02      6.522217000000000E-01     -9.095312000000000E+01
4806000000.000000      3.331299000000000E-01     -1.207969000000000E+02      3.264008000000000E-01     -6.199413000000000E+01      3.168335000000000E-01     -1.748516000000000E+02      6.517944000000000E-01     -9.107422000000000E+01
4807000000.000000      3.329163000000000E-01     -1.219336000000000E+02      3.305511000000000E-01     -6.215429000000000E+01      3.209076000000000E-01     -1.750234000000000E+02      6.499939000000000E-01     -9.106640000000000E+01
4808000000.000000      3.339081000000000E-01     -1.229297000000000E+02      3.356018000000000E-01     -6.226367000000000E+01      3.252869000000000E-01     -1.749922000000000E+02      6.495361000000000E-01     -9.116405000000000E+01
4809000000.000000      3.343811000000000E-01     -1.240312000000000E+02      3.393555000000000E-01     -6.279101000000000E+01      3.295441000000000E-01     -1.749141000000000E+02      6.498718000000000E-01     -9.131639000000000E+01
4810000000.000000      3.352203000000000E-01     -1.251875000000000E+02      3.436432000000000E-01     -6.274219000000000E+01      3.329926000000000E-01     -1.747813000000000E+02      6.498413000000000E-01     -9.139063000000000E+01
4811000000.000000      3.355560000000000E-01     -1.262578000000000E+02      3.481750000000000E-01     -6.321875000000000E+01      3.386536000000000E-01     -1.747109000000000E+02      6.493835000000000E-01     -9.133593000000000E+01
4812000000.000000      3.373871000000000E-01     -1.272187000000000E+02      3.519287000000000E-01     -6.327538000000000E+01      3.419342000000000E-01     -1.747656000000000E+02      6.493530000000000E-01     -9.153515000000000E+01
4813000000.000000      3.381958000000000E-01     -1.283906000000000E+02      3.560486000000000E-01     -6.350586000000000E+01      3.450012000000000E-01     -1.746797000000000E+02      6.493530000000000E-01     -9.154297000000000E+01
4814000000.000000      3.394318000000000E-01     -1.295938000000000E+02      3.601379000000000E-01     -6.384766000000000E+01      3.491821000000000E-01     -1.745937000000000E+02      6.490479000000000E-01     -9.162500000000000E+01
4815000000.000000      3.414459000000000E-01     -1.305781000000000E+02      3.640594000000000E-01     -6.400781000000000E+01      3.519897000000000E-01     -1.746484000000000E+02      6.484375000000000E-01     -9.170702000000000E+01
4816000000.000000      3.436890000000000E-01     -1.315781000000000E+02      3.682861000000000E-01     -6.413280000000000E+01      3.572083000000000E-01     -1.745703000000000E+02      6.494141000000000E-01     -9.188671000000000E+01
4817000000.000000      3.467865000000000E-01     -1.327109000000000E+02      3.714142000000000E-01     -6.448047000000000E+01      3.604431000000000E-01     -1.746250000000000E+02      6.487122000000000E-01     -9.191015000000000E+01
4818000000.000000      3.483734000000000E-01     -1.338359000000000E+02      3.751678000000000E-01     -6.475780000000000E+01      3.642273000000000E-01     -1.745703000000000E+02      6.502075000000000E-01     -9.194921000000000E+01
4819000000.000000      3.514709000000000E-01     -1.349609000000000E+02      3.793488000000000E-01     -6.491796000000000E+01      3.681793000000000E-01     -1.745859000000000E+02      6.510620000000000E-01     -9.207031000000000E+01
4820000000.000000      3.527679000000000E-01     -1.359453000000000E+02      3.826752000000000E-01     -6.521874000000000E+01      3.729858000000000E-01     -1.745234000000000E+02      6.519470000000000E-01     -9.217188000000000E+01
4821000000.000000      3.567200000000000E-01     -1.370781000000000E+02      3.872681000000000E-01     -6.559375000000000E+01      3.758698000000000E-01     -1.746406000000000E+02      6.511536000000000E-01     -9.226954000000000E+01
4822000000.000000      3.607788000000000E-01     -1.380938000000000E+02      3.904724000000000E-01     -6.573828000000000E+01      3.795929000000000E-01     -1.745859000000000E+02      6.533813000000000E-01     -9.226954000000000E+01
4823000000.000000      3.632507000000000E-01     -1.390938000000000E+02      3.946075000000000E-01     -6.606640000000000E+01      3.832550000000000E-01     -1.744688000000000E+02      6.531372000000000E-01     -9.238281000000000E+01
4824000000.000000      3.677521000000000E-01     -1.402344000000000E+02      3.982697000000000E-01     -6.638672000000000E+01      3.885651000000000E-01     -1.745547000000000E+02      6.547546000000000E-01     -9.244921000000000E+01
4825000000.000000      3.707733000000000E-01     -1.411797000000000E+02      4.013672000000000E-01     -6.667578000000000E+01      3.919067000000000E-01     -1.745625000000000E+02      6.556396000000000E-01     -9.255859000000000E+01
4826000000.000000      3.752441000000000E-01     -1.422188000000000E+02      4.054260000000000E-01     -6.696875000000000E+01      3.946991000000000E-01     -1.746719000000000E+02      6.564026000000000E-01     -9.259375000000000E+01
4827000000.000000      3.788605000000000E-01     -1.429922000000000E+02      4.083252000000000E-01     -6.708593000000000E+01      3.993225000000000E-01     -1.745781000000000E+02      6.584473000000000E-01     -9.262499000000000E+01
4828000000.000000      3.837128000000000E-01     -1.440703000000000E+02      4.122009000000000E-01     -6.741405000000000E+01      4.030457000000000E-01     -1.745547000000000E+02      6.603088000000000E-01     -9.265234000000000E+01
4829000000.000000      3.865662000000000E-01     -1.449531000000000E+02      4.149780000000000E-01     -6.778906000000000E+01      4.066772000000000E-01     -1.746484000000000E+02      6.613159000000000E-01     -9.271484000000000E+01
4830000000.000000      3.918915000000000E-01     -1.459531000000000E+02      4.190063000000000E-01     -6.809375000000000E+01      4.108276000000000E-01     -1.745859000000000E+02      6.622009000000000E-01     -9.289063000000000E+01
4831000000.000000      3.958740000000000E-01     -1.468047000000000E+02      4.219818000000000E-01     -6.848827000000000E+01      4.156189000000000E-01     -1.745781000000000E+02      6.647339000000000E-01     -9.288280000000000E+01
4832000000.000000      4.018555000000000E-01     -1.477266000000000E+02      4.254608000000000E-01     -6.870312000000000E+01      4.193726000000000E-01     -1.746172000000000E+02      6.664734000000000E-01     -9.299999000000000E+01
4833000000.000000      4.064331000000000E-01     -1.486719000000000E+02      4.285583000000000E-01     -6.889062000000000E+01      4.229889000000000E-01     -1.747890000000000E+02      6.674805000000000E-01     -9.303125000000000E+01
4834000000.000000      4.108734000000000E-01     -1.494688000000000E+02      4.313354000000000E-01     -6.914844000000000E+01      4.266357000000000E-01     -1.747109000000000E+02      6.680908000000000E-01     -9.305468000000000E+01
4835000000.000000      4.155884000000000E-01     -1.503203000000000E+02      4.346619000000000E-01     -6.955078000000000E+01      4.311066000000000E-01     -1.747890000000000E+02      6.718750000000000E-01     -9.319530000000000E+01
4836000000.000000      4.219666000000000E-01     -1.511094000000000E+02      4.378357000000000E-01     -6.982031000000000E+01      4.345703000000000E-01     -1.747734000000000E+02      6.722107000000000E-01     -9.315624000000000E+01
4837000000.000000      4.263916000000000E-01     -1.518516000000000E+02      4.412537000000000E-01     -7.041016000000000E+01      4.381561000000000E-01     -1.749453000000000E+02      6.737366000000000E-01     -9.318359000000000E+01
4838000000.000000      4.318695000000000E-01     -1.528047000000000E+02      4.451904000000000E-01     -7.051952000000000E+01      4.425812000000000E-01     -1.749766000000000E+02      6.782837000000000E-01     -9.330078000000000E+01
4839000000.000000      4.367676000000000E-01     -1.533984000000000E+02      4.469452000000000E-01     -7.083202000000000E+01      4.465637000000000E-01     -1.750547000000000E+02      6.801758000000000E-01     -9.329687000000000E+01
4840000000.000000      4.411316000000000E-01     -1.542031000000000E+02      4.496155000000000E-01     -7.097265000000000E+01      4.507904000000000E-01     -1.751328000000000E+02      6.816101000000000E-01     -9.339062000000000E+01
4841000000.000000      4.467621000000000E-01     -1.551641000000000E+02      4.527130000000000E-01     -7.159765000000000E+01      4.545288000000000E-01     -1.752891000000000E+02      6.847839000000000E-01     -9.350000000000000E+01
4842000000.000000      4.523773000000000E-01     -1.557188000000000E+02      4.558716000000000E-01     -7.179296000000000E+01      4.575806000000000E-01     -1.753594000000000E+02      6.865540000000000E-01     -9.350780000000000E+01
4843000000.000000      4.570618000000000E-01     -1.565234000000000E+02      4.575500000000000E-01     -7.218359000000000E+01      4.616699000000000E-01     -1.754297000000000E+02      6.893921000000000E-01     -9.353907000000000E+01
4844000000.000000      4.621124000000000E-01     -1.571875000000000E+02      4.613037000000000E-01     -7.259375000000000E+01      4.658966000000000E-01     -1.754844000000000E+02      6.910095000000000E-01     -9.356249000000000E+01
4845000000.000000      4.669037000000000E-01     -1.578047000000000E+02      4.633789000000000E-01     -7.280468000000000E+01      4.695587000000000E-01     -1.756797000000000E+02      6.939087000000000E-01     -9.359375000000000E+01
4846000000.000000      4.717102000000000E-01     -1.584375000000000E+02      4.654541000000000E-01     -7.308594000000000E+01      4.748230000000000E-01     -1.756797000000000E+02      6.955261000000000E-01     -9.361719000000000E+01
4847000000.000000      4.776154000000000E-01     -1.591563000000000E+02      4.688721000000000E-01     -7.341797000000000E+01      4.784698000000000E-01     -1.759063000000000E+02      6.999817000000000E-01     -9.375780000000000E+01
4848000000.000000      4.822083000000000E-01     -1.597422000000000E+02      4.701233000000000E-01     -7.366015000000000E+01      4.817657000000000E-01     -1.759297000000000E+02      7.011108000000000E-01     -9.379297000000000E+01
4849000000.000000      4.871521000000000E-01     -1.606094000000000E+02      4.723663000000000E-01     -7.426562000000000E+01      4.857788000000000E-01     -1.760781000000000E+02      7.037964000000000E-01     -9.376953000000000E+01
4850000000.000000      4.916840000000000E-01     -1.609844000000000E+02      4.751434000000000E-01     -7.448047000000000E+01      4.893188000000000E-01     -1.761562000000000E+02      7.059937000000000E-01     -9.385157000000000E+01
4851000000.000000      4.968567000000000E-01     -1.615547000000000E+02      4.780884000000000E-01     -7.469921000000000E+01      4.926605000000000E-01     -1.762969000000000E+02      7.106018000000000E-01     -9.391796000000000E+01
4852000000.000000      5.012512000000000E-01     -1.621562000000000E+02      4.798889000000000E-01     -7.512500000000000E+01      4.974670000000000E-01     -1.764141000000000E+02      7.129822000000000E-01     -9.388672000000000E+01
4853000000.000000      5.060120000000000E-01     -1.628125000000000E+02      4.798126000000000E-01     -7.545703000000000E+01      5.019226000000000E-01     -1.766484000000000E+02      7.155762000000000E-01     -9.407030000000000E+01
4854000000.000000      5.100098000000000E-01     -1.632500000000000E+02      4.828644000000000E-01     -7.588672000000000E+01      5.046082000000000E-01     -1.766484000000000E+02      7.185669000000000E-01     -9.401953000000000E+01
4855000000.000000      5.126648000000000E-01     -1.638594000000000E+02      4.851837000000000E-01     -7.613671000000000E+01      5.083313000000000E-01     -1.767656000000000E+02      7.199097000000000E-01     -9.403124000000000E+01
4856000000.000000      5.182800000000000E-01     -1.643125000000000E+02      4.865112000000000E-01     -7.630077000000000E+01      5.121765000000000E-01     -1.770469000000000E+02      7.237854000000000E-01     -9.405077000000000E+01
4857000000.000000      5.223999000000000E-01     -1.648516000000000E+02      4.893494000000000E-01     -7.658984000000000E+01      5.158081000000000E-01     -1.771563000000000E+02      7.267151000000000E-01     -9.419140000000000E+01
4858000000.000000      5.236511000000000E-01     -1.653594000000000E+02      4.902496000000000E-01     -7.700390000000000E+01      5.189209000000000E-01     -1.773828000000000E+02      7.288208000000000E-01     -9.425781000000000E+01
4859000000.000000      5.285034000000000E-01     -1.659531000000000E+02      4.922028000000000E-01     -7.724999000000000E+01      5.207520000000000E-01     -1.776328000000000E+02      7.333984000000000E-01     -9.431250000000000E+01
4860000000.000000      5.326233000000000E-01     -1.663672000000000E+02      4.935455000000000E-01     -7.744922000000000E+01      5.247803000000000E-01     -1.776328000000000E+02      7.357483000000000E-01     -9.425390000000000E+01
4861000000.000000      5.352783000000000E-01     -1.667109000000000E+02      4.950104000000000E-01     -7.803515000000000E+01      5.291138000000000E-01     -1.777969000000000E+02      7.380981000000000E-01     -9.440233000000000E+01
4862000000.000000      5.382385000000000E-01     -1.672109000000000E+02      4.976959000000000E-01     -7.812109000000000E+01      5.327759000000000E-01     -1.779297000000000E+02      7.409668000000000E-01     -9.437109000000000E+01
4863000000.000000      5.406494000000000E-01     -1.675390000000000E+02      4.968262000000000E-01     -7.826953000000000E+01      5.354309000000000E-01     -1.781563000000000E+02      7.446899000000000E-01     -9.448046000000000E+01
4864000000.000000      5.434875000000000E-01     -1.679219000000000E+02      5.006104000000000E-01     -7.878515000000000E+01      5.374451000000000E-01     -1.782500000000000E+02      7.457581000000000E-01     -9.447657000000000E+01
4865000000.000000      5.454712000000000E-01     -1.685156000000000E+02      5.010376000000000E-01     -7.901562000000000E+01      5.405884000000000E-01     -1.785469000000000E+02      7.495117000000000E-01     -9.443359000000000E+01
4866000000.000000      5.474854000000000E-01     -1.687656000000000E+02      5.017700000000000E-01     -7.941015000000000E+01      5.430908000000000E-01     -1.787812000000000E+02      7.542419000000000E-01     -9.453125000000000E+01
4867000000.000000      5.501099000000000E-01     -1.691015000000000E+02      5.046692000000000E-01     -7.977734000000000E+01      5.470581000000000E-01     -1.791016000000000E+02      7.568665000000000E-01     -9.459375000000000E+01
4868000000.000000      5.520935000000000E-01     -1.694531000000000E+02      5.045471000000000E-01     -7.993750000000000E+01      5.494690000000000E-01     -1.791797000000000E+02      7.575989000000000E-01     -9.460546000000000E+01
4869000000.000000      5.519714000000000E-01     -1.697891000000000E+02      5.055237000000000E-01     -8.038280000000000E+01      5.525513000000000E-01     -1.794297000000000E+02      7.616882000000000E-01     -9.459375000000000E+01
4870000000.000000      5.549622000000000E-01     -1.701562000000000E+02      5.077209000000000E-01     -8.043360000000000E+01      5.560303000000000E-01     -1.795703000000000E+02      7.634583000000000E-01     -9.469141000000000E+01
4871000000.000000      5.564270000000000E-01     -1.705078000000000E+02      5.076599000000000E-01     -8.086718000000000E+01      5.572815000000000E-01     -1.798437000000000E+02      7.663879000000000E-01     -9.475389000000000E+01
4872000000.000000      5.578003000000000E-01     -1.705859000000000E+02      5.077820000000000E-01     -8.084375000000000E+01      5.593872000000000E-01      1.797891000000000E+02      7.689514000000000E-01     -9.480469000000000E+01
4873000000.000000      5.591125000000000E-01     -1.708828000000000E+02      5.100708000000000E-01     -8.123438000000000E+01      5.609741000000000E-01      1.797734000000000E+02      7.717590000000000E-01     -9.501562000000000E+01
4874000000.000000      5.594177000000000E-01     -1.711406000000000E+02      5.107422000000000E-01     -8.157812000000000E+01      5.656738000000000E-01      1.796016000000000E+02      7.725830000000000E-01     -9.471483000000000E+01
4875000000.000000      5.609436000000000E-01     -1.714766000000000E+02      5.105591000000000E-01     -8.167969000000000E+01      5.666504000000000E-01      1.791875000000000E+02      7.752380000000000E-01     -9.489061000000000E+01
4876000000.000000      5.596313000000000E-01     -1.716875000000000E+02      5.121155000000000E-01     -8.202343000000000E+01      5.671997000000000E-01      1.792969000000000E+02      7.786255000000000E-01     -9.498827000000000E+01
4877000000.000000      5.608826000000000E-01     -1.717969000000000E+02      5.132446000000000E-01     -8.210155000000000E+01      5.709534000000000E-01      1.786875000000000E+02      7.800903000000000E-01     -9.512890000000000E+01
4878000000.000000      5.606995000000000E-01     -1.720078000000000E+02      5.139465000000000E-01     -8.230078000000000E+01      5.737915000000000E-01      1.787812000000000E+02      7.829285000000000E-01     -9.519531000000000E+01
4879000000.000000      5.614014000000000E-01     -1.722109000000000E+02      5.130615000000000E-01     -8.247656000000000E+01      5.760193000000000E-01      1.785781000000000E+02      7.855835000000000E-01     -9.507421000000000E+01
4880000000.000000      5.607910000000000E-01     -1.723828000000000E+02      5.155640000000000E-01     -8.281250000000000E+01      5.778503000000000E-01      1.782500000000000E+02      7.875671000000000E-01     -9.514063000000000E+01
4881000000.000000      5.619202000000000E-01     -1.724609000000000E+02      5.184937000000000E-01     -8.289063000000000E+01      5.798340000000000E-01      1.779766000000000E+02      7.887878000000000E-01     -9.524218000000000E+01
4882000000.000000      5.601501000000000E-01     -1.725859000000000E+02      5.173340000000000E-01     -8.302343000000000E+01      5.805969000000000E-01      1.779375000000000E+02      7.899475000000000E-01     -9.519531000000000E+01
