! Network Analyzer HP8722D
! Hewlett-Packard
! Data name: Linha & Wilkinson
! Saver's name: Rodrigo Anjos
! Comments: Teste da utilização de aquisição
continua pelo VNA HP8722D
! Time and date: 17/4/2025 15:43
!              Frequency                     S11                                                   S21                                                   S12                                                   S22
# HZ  S  MA R 50
4800000000.000000      3.345795000000000E-01     -1.146992000000000E+02      2.998047000000000E-01     -6.143164000000000E+01      2.943420000000000E-01     -1.755469000000000E+02      6.573486000000000E-01     -9.061327000000000E+01
4801000000.000000      3.339691000000000E-01     -1.156328000000000E+02      3.040314000000000E-01     -6.138281000000000E+01      2.975769000000000E-01     -1.755703000000000E+02      6.554565000000000E-01     -9.062109000000000E+01
4802000000.000000      3.326721000000000E-01     -1.166406000000000E+02      3.087006000000000E-01     -6.149609000000000E+01      3.017883000000000E-01     -1.753750000000000E+02      6.536560000000000E-01     -9.075390000000000E+01
4803000000.000000      3.327637000000000E-01     -1.176015000000000E+02      3.141479000000000E-01     -6.156836000000000E+01      3.056641000000000E-01     -1.753594000000000E+02      6.542664000000000E-01     -9.088282000000000E+01
4804000000.000000      3.324738000000000E-01     -1.186601000000000E+02      3.175507000000000E-01     -6.165429000000000E+01      3.093414000000000E-01     -1.753672000000000E+02      6.531372000000000E-01     -9.088282000000000E+01
4805000000.000000      3.318634000000000E-01     -1.196484000000000E+02      3.218079000000000E-01     -6.197851000000000E+01      3.146820000000000E-01     -1.751953000000000E+02      6.526184000000000E-01     -9.109375000000000E+01
4806000000.000000      3.317719000000000E-01     -1.205351000000000E+02      3.269348000000000E-01     -6.221680000000000E+01      3.172607000000000E-01     -1.749531000000000E+02      6.517334000000000E-01     -9.117188000000000E+01
4807000000.000000      3.316803000000000E-01     -1.217617000000000E+02      3.311310000000000E-01     -6.224999000000000E+01      3.218689000000000E-01     -1.751875000000000E+02      6.519165000000000E-01     -9.124609000000000E+01
4808000000.000000      3.318939000000000E-01     -1.227500000000000E+02      3.352814000000000E-01     -6.233203000000000E+01      3.250580000000000E-01     -1.749922000000000E+02      6.497498000000000E-01     -9.117188000000000E+01
4809000000.000000      3.321533000000000E-01     -1.239101000000000E+02      3.397064000000000E-01     -6.283789000000000E+01      3.300171000000000E-01     -1.750937000000000E+02      6.497803000000000E-01     -9.148438000000000E+01
4810000000.000000      3.338165000000000E-01     -1.249297000000000E+02      3.446198000000000E-01     -6.285156000000000E+01      3.337097000000000E-01     -1.749687000000000E+02      6.502686000000000E-01     -9.157030000000000E+01
4811000000.000000      3.349152000000000E-01     -1.259648000000000E+02      3.485107000000000E-01     -6.327343000000000E+01      3.382721000000000E-01     -1.748203000000000E+02      6.502075000000000E-01     -9.144922000000000E+01
4812000000.000000      3.366394000000000E-01     -1.270234000000000E+02      3.519287000000000E-01     -6.344531000000000E+01      3.417358000000000E-01     -1.747813000000000E+02      6.487122000000000E-01     -9.166407000000000E+01
4813000000.000000      3.367920000000000E-01     -1.282266000000000E+02      3.560181000000000E-01     -6.349804000000000E+01      3.451996000000000E-01     -1.746172000000000E+02      6.488037000000000E-01     -9.170313000000000E+01
4814000000.000000      3.386230000000000E-01     -1.294219000000000E+02      3.597870000000000E-01     -6.381836000000000E+01      3.493805000000000E-01     -1.747813000000000E+02      6.494751000000000E-01     -9.194139000000000E+01
4815000000.000000      3.397064000000000E-01     -1.303984000000000E+02      3.641052000000000E-01     -6.401953000000000E+01      3.529968000000000E-01     -1.746797000000000E+02      6.490784000000000E-01     -9.182812000000000E+01
4816000000.000000      3.422546000000000E-01     -1.314531000000000E+02      3.681488000000000E-01     -6.426952000000000E+01      3.576813000000000E-01     -1.745312000000000E+02      6.498718000000000E-01     -9.198437000000000E+01
4817000000.000000      3.450012000000000E-01     -1.325781000000000E+02      3.721924000000000E-01     -6.451562000000000E+01      3.609009000000000E-01     -1.746484000000000E+02      6.498108000000000E-01     -9.209764000000000E+01
4818000000.000000      3.468018000000000E-01     -1.337188000000000E+02      3.755341000000000E-01     -6.471484000000000E+01      3.654633000000000E-01     -1.746953000000000E+02      6.497803000000000E-01     -9.214062000000000E+01
4819000000.000000      3.497467000000000E-01     -1.347812000000000E+02      3.796082000000000E-01     -6.507813000000000E+01      3.688049000000000E-01     -1.745703000000000E+02      6.531372000000000E-01     -9.224609000000000E+01
4820000000.000000      3.515167000000000E-01     -1.357891000000000E+02      3.833160000000000E-01     -6.525391000000000E+01      3.733673000000000E-01     -1.747109000000000E+02      6.522827000000000E-01     -9.229296000000000E+01
4821000000.000000      3.549805000000000E-01     -1.368438000000000E+02      3.880615000000000E-01     -6.548828000000000E+01      3.766937000000000E-01     -1.748281000000000E+02      6.520081000000000E-01     -9.248047000000000E+01
4822000000.000000      3.592682000000000E-01     -1.379688000000000E+02      3.905029000000000E-01     -6.582421000000000E+01      3.799896000000000E-01     -1.746875000000000E+02      6.533203000000000E-01     -9.240625000000000E+01
4823000000.000000      3.616028000000000E-01     -1.390000000000000E+02      3.950195000000000E-01     -6.606250000000000E+01      3.838196000000000E-01     -1.745625000000000E+02      6.544189000000000E-01     -9.263281000000000E+01
4824000000.000000      3.657227000000000E-01     -1.400938000000000E+02      3.985443000000000E-01     -6.641796000000000E+01      3.892822000000000E-01     -1.747734000000000E+02      6.549072000000000E-01     -9.268749000000000E+01
4825000000.000000      3.695374000000000E-01     -1.410547000000000E+02      4.010010000000000E-01     -6.656250000000000E+01      3.926239000000000E-01     -1.745703000000000E+02      6.563110000000000E-01     -9.265625000000000E+01
4826000000.000000      3.736877000000000E-01     -1.420078000000000E+02      4.054565000000000E-01     -6.698828000000000E+01      3.958435000000000E-01     -1.747500000000000E+02      6.580811000000000E-01     -9.263281000000000E+01
4827000000.000000      3.773651000000000E-01     -1.429453000000000E+02      4.091492000000000E-01     -6.708202000000000E+01      3.997803000000000E-01     -1.746016000000000E+02      6.589966000000000E-01     -9.277735000000000E+01
4828000000.000000      3.827057000000000E-01     -1.438906000000000E+02      4.123688000000000E-01     -6.741015000000000E+01      4.041901000000000E-01     -1.746094000000000E+02      6.611023000000000E-01     -9.284765000000000E+01
4829000000.000000      3.850708000000000E-01     -1.448203000000000E+02      4.155121000000000E-01     -6.789453000000000E+01      4.076538000000000E-01     -1.747109000000000E+02      6.616211000000000E-01     -9.285936000000000E+01
4830000000.000000      3.907776000000000E-01     -1.457969000000000E+02      4.194641000000000E-01     -6.813281000000000E+01      4.111633000000000E-01     -1.746875000000000E+02      6.626282000000000E-01     -9.302343000000000E+01
4831000000.000000      3.941956000000000E-01     -1.466797000000000E+02      4.219971000000000E-01     -6.835546000000000E+01      4.161682000000000E-01     -1.747422000000000E+02      6.647644000000000E-01     -9.304296000000000E+01
4832000000.000000      4.006653000000000E-01     -1.475937000000000E+02      4.263000000000000E-01     -6.873047000000000E+01      4.188843000000000E-01     -1.747890000000000E+02      6.666565000000000E-01     -9.312500000000000E+01
4833000000.000000      4.051361000000000E-01     -1.485547000000000E+02      4.289246000000000E-01     -6.896093000000000E+01      4.234772000000000E-01     -1.748594000000000E+02      6.691589000000000E-01     -9.312500000000000E+01
4834000000.000000      4.094391000000000E-01     -1.493438000000000E+02      4.318848000000000E-01     -6.930078000000000E+01      4.276123000000000E-01     -1.748359000000000E+02      6.699829000000000E-01     -9.323828000000000E+01
4835000000.000000      4.145813000000000E-01     -1.501797000000000E+02      4.360352000000000E-01     -6.956249000000000E+01      4.318390000000000E-01     -1.749297000000000E+02      6.720886000000000E-01     -9.347265000000000E+01
4836000000.000000      4.201050000000000E-01     -1.509766000000000E+02      4.384003000000000E-01     -6.994141000000000E+01      4.351807000000000E-01     -1.748672000000000E+02      6.736145000000000E-01     -9.337500000000000E+01
4837000000.000000      4.250183000000000E-01     -1.517422000000000E+02      4.411469000000000E-01     -7.047265000000000E+01      4.394836000000000E-01     -1.750859000000000E+02      6.760254000000000E-01     -9.341797000000000E+01
4838000000.000000      4.307556000000000E-01     -1.526641000000000E+02      4.450378000000000E-01     -7.049609000000000E+01      4.436951000000000E-01     -1.750625000000000E+02      6.766968000000000E-01     -9.351954000000000E+01
4839000000.000000      4.356537000000000E-01     -1.533047000000000E+02      4.476013000000000E-01     -7.083984000000000E+01      4.468231000000000E-01     -1.750781000000000E+02      6.803284000000000E-01     -9.347656000000000E+01
4840000000.000000      4.398193000000000E-01     -1.541797000000000E+02      4.495392000000000E-01     -7.110546000000000E+01      4.514618000000000E-01     -1.752187000000000E+02      6.819153000000000E-01     -9.352343000000000E+01
4841000000.000000      4.454651000000000E-01     -1.550547000000000E+02      4.527893000000000E-01     -7.173828000000000E+01      4.557495000000000E-01     -1.753984000000000E+02      6.840820000000000E-01     -9.367968000000000E+01
4842000000.000000      4.509430000000000E-01     -1.556562000000000E+02      4.565277000000000E-01     -7.182422000000000E+01      4.586639000000000E-01     -1.753828000000000E+02      6.877136000000000E-01     -9.365625000000000E+01
4843000000.000000      4.557190000000000E-01     -1.564297000000000E+02      4.580841000000000E-01     -7.216406000000000E+01      4.627533000000000E-01     -1.754062000000000E+02      6.895142000000000E-01     -9.364843000000000E+01
4844000000.000000      4.607239000000000E-01     -1.570625000000000E+02      4.617767000000000E-01     -7.252343000000000E+01      4.663696000000000E-01     -1.755938000000000E+02      6.923523000000000E-01     -9.382421000000000E+01
4845000000.000000      4.656677000000000E-01     -1.577578000000000E+02      4.637451000000000E-01     -7.285937000000000E+01      4.707642000000000E-01     -1.757109000000000E+02      6.939392000000000E-01     -9.381639000000000E+01
4846000000.000000      4.707336000000000E-01     -1.582734000000000E+02      4.663849000000000E-01     -7.309375000000000E+01      4.750977000000000E-01     -1.757734000000000E+02      6.972351000000000E-01     -9.392187000000000E+01
4847000000.000000      4.762421000000000E-01     -1.590469000000000E+02      4.686584000000000E-01     -7.348827000000000E+01      4.787292000000000E-01     -1.759453000000000E+02      7.002563000000000E-01     -9.397655000000000E+01
4848000000.000000      4.812775000000000E-01     -1.596562000000000E+02      4.705963000000000E-01     -7.368750000000000E+01      4.823151000000000E-01     -1.759922000000000E+02      7.022095000000000E-01     -9.392578000000000E+01
4849000000.000000      4.857635000000000E-01     -1.605391000000000E+02      4.725952000000000E-01     -7.413280000000000E+01      4.866180000000000E-01     -1.761562000000000E+02      7.053833000000000E-01     -9.394140000000000E+01
4850000000.000000      4.902496000000000E-01     -1.609062000000000E+02      4.755554000000000E-01     -7.450781000000000E+01      4.903259000000000E-01     -1.762187000000000E+02      7.080994000000000E-01     -9.391796000000000E+01
4851000000.000000      4.959564000000000E-01     -1.615156000000000E+02      4.787598000000000E-01     -7.484765000000000E+01      4.935150000000000E-01     -1.763594000000000E+02      7.104797000000000E-01     -9.414843000000000E+01
4852000000.000000      5.001526000000000E-01     -1.621797000000000E+02      4.801941000000000E-01     -7.514062000000000E+01      4.975281000000000E-01     -1.765625000000000E+02      7.142029000000000E-01     -9.409374000000000E+01
4853000000.000000      5.046692000000000E-01     -1.626953000000000E+02      4.808960000000000E-01     -7.535156000000000E+01      5.023193000000000E-01     -1.766953000000000E+02      7.170410000000000E-01     -9.433203000000000E+01
4854000000.000000      5.092163000000000E-01     -1.632422000000000E+02      4.832153000000000E-01     -7.592968000000000E+01      5.050354000000000E-01     -1.768672000000000E+02      7.184448000000000E-01     -9.418360000000000E+01
4855000000.000000      5.119629000000000E-01     -1.638125000000000E+02      4.843140000000000E-01     -7.601953000000000E+01      5.090332000000000E-01     -1.769609000000000E+02      7.210693000000000E-01     -9.428905000000000E+01
4856000000.000000      5.172119000000000E-01     -1.642422000000000E+02      4.877472000000000E-01     -7.639453000000000E+01      5.135498000000000E-01     -1.771484000000000E+02      7.252502000000000E-01     -9.429688000000000E+01
4857000000.000000      5.211487000000000E-01     -1.648125000000000E+02      4.899445000000000E-01     -7.664063000000000E+01      5.164185000000000E-01     -1.771328000000000E+02      7.271118000000000E-01     -9.435156000000000E+01
4858000000.000000      5.229492000000000E-01     -1.653281000000000E+02      4.912415000000000E-01     -7.707812000000000E+01      5.197754000000000E-01     -1.773984000000000E+02      7.302551000000000E-01     -9.442577000000000E+01
4859000000.000000      5.270386000000000E-01     -1.658203000000000E+02      4.927216000000000E-01     -7.737109000000000E+01      5.213623000000000E-01     -1.776484000000000E+02      7.354126000000000E-01     -9.454687000000000E+01
4860000000.000000      5.317383000000000E-01     -1.662734000000000E+02      4.940796000000000E-01     -7.764062000000000E+01      5.257874000000000E-01     -1.777266000000000E+02      7.358704000000000E-01     -9.440233000000000E+01
4861000000.000000      5.346680000000000E-01     -1.666797000000000E+02      4.948273000000000E-01     -7.779687000000000E+01      5.292664000000000E-01     -1.778203000000000E+02      7.388916000000000E-01     -9.462109000000000E+01
4862000000.000000      5.369568000000000E-01     -1.670859000000000E+02      4.989624000000000E-01     -7.829687000000000E+01      5.329590000000000E-01     -1.780937000000000E+02      7.423096000000000E-01     -9.451563000000000E+01
4863000000.000000      5.388184000000000E-01     -1.675234000000000E+02      4.974670000000000E-01     -7.869531000000000E+01      5.371704000000000E-01     -1.782422000000000E+02      7.456360000000000E-01     -9.460546000000000E+01
4864000000.000000      5.434570000000000E-01     -1.679922000000000E+02      5.003662000000000E-01     -7.867188000000000E+01      5.398254000000000E-01     -1.783516000000000E+02      7.469177000000000E-01     -9.467577000000000E+01
4865000000.000000      5.448303000000000E-01     -1.684609000000000E+02      5.010986000000000E-01     -7.909374000000000E+01      5.425720000000000E-01     -1.786719000000000E+02      7.508240000000000E-01     -9.469530000000000E+01
4866000000.000000      5.466309000000000E-01     -1.687109000000000E+02      5.027466000000000E-01     -7.931250000000000E+01      5.460205000000000E-01     -1.789063000000000E+02      7.530823000000000E-01     -9.471094000000000E+01
4867000000.000000      5.480652000000000E-01     -1.690547000000000E+02      5.043335000000000E-01     -7.984375000000000E+01      5.481567000000000E-01     -1.791172000000000E+02      7.564087000000000E-01     -9.479296000000000E+01
4868000000.000000      5.513611000000000E-01     -1.695000000000000E+02      5.042114000000000E-01     -7.982422000000000E+01      5.520020000000000E-01     -1.791797000000000E+02      7.586365000000000E-01     -9.479687000000000E+01
4869000000.000000      5.522766000000000E-01     -1.697422000000000E+02      5.063477000000000E-01     -8.042187000000000E+01      5.530090000000000E-01     -1.795625000000000E+02      7.607117000000000E-01     -9.508593000000000E+01
4870000000.000000      5.542908000000000E-01     -1.700625000000000E+02      5.079651000000000E-01     -8.034765000000000E+01      5.554504000000000E-01     -1.796406000000000E+02      7.652893000000000E-01     -9.479687000000000E+01
4871000000.000000      5.551453000000000E-01     -1.704141000000000E+02      5.070801000000000E-01     -8.077343000000000E+01      5.582581000000000E-01     -1.799453000000000E+02      7.662354000000000E-01     -9.503906000000000E+01
4872000000.000000      5.569763000000000E-01     -1.706484000000000E+02      5.080872000000000E-01     -8.080469000000000E+01      5.610657000000000E-01      1.798125000000000E+02      7.684631000000000E-01     -9.501562000000000E+01
4873000000.000000      5.572815000000000E-01     -1.708906000000000E+02      5.095825000000000E-01     -8.121874000000000E+01      5.632629000000000E-01      1.797656000000000E+02      7.702026000000000E-01     -9.509766000000000E+01
4874000000.000000      5.586243000000000E-01     -1.710859000000000E+02      5.097046000000000E-01     -8.152735000000000E+01      5.661011000000000E-01      1.795625000000000E+02      7.727051000000000E-01     -9.496485000000000E+01
4875000000.000000      5.604553000000000E-01     -1.715078000000000E+02      5.116577000000000E-01     -8.169140000000000E+01      5.679932000000000E-01      1.792109000000000E+02      7.765503000000000E-01     -9.513672000000000E+01
4876000000.000000      5.597534000000000E-01     -1.716328000000000E+02      5.123901000000000E-01     -8.197266000000000E+01      5.692749000000000E-01      1.791484000000000E+02      7.793579000000000E-01     -9.516796000000000E+01
4877000000.000000      5.603638000000000E-01     -1.717891000000000E+02      5.132141000000000E-01     -8.202343000000000E+01      5.727844000000000E-01      1.788203000000000E+02      7.800293000000000E-01     -9.532030000000000E+01
4878000000.000000      5.607910000000000E-01     -1.719922000000000E+02      5.150452000000000E-01     -8.233593000000000E+01      5.731201000000000E-01      1.785938000000000E+02      7.828064000000000E-01     -9.528906000000000E+01
4879000000.000000      5.613403000000000E-01     -1.722265000000000E+02      5.147400000000000E-01     -8.239452000000000E+01      5.747070000000000E-01      1.784765000000000E+02      7.841797000000000E-01     -9.525782000000000E+01
4880000000.000000      5.601501000000000E-01     -1.723906000000000E+02      5.172424000000000E-01     -8.285936000000000E+01      5.790405000000000E-01      1.781484000000000E+02      7.872009000000000E-01     -9.532812000000000E+01
4881000000.000000      5.611572000000000E-01     -1.724531000000000E+02      5.187988000000000E-01     -8.288280000000000E+01      5.805969000000000E-01      1.778281000000000E+02      7.876282000000000E-01     -9.542187000000000E+01
4882000000.000000      5.603333000000000E-01     -1.725703000000000E+02      5.183716000000000E-01     -8.288280000000000E+01      5.825195000000000E-01      1.778828000000000E+02      7.906189000000000E-01     -9.541796000000000E+01
