! Network Analyzer HP8722D
! Hewlett-Packard
! Data name: Linha & Wilkinson
! Saver's name: Rodrigo Anjos
! Comments: Teste da utilização de aquisição
continua pelo VNA HP8722D
! Time and date: 17/4/2025 17:07
!              Frequency                     S11                                                   S21                                                   S12                                                   S22
# HZ  S  MA R 50
4800000000.000000      3.374329000000000E-01     -1.171953000000000E+02      3.165588000000000E-01     -6.232616000000000E+01      3.112488000000000E-01     -1.766953000000000E+02      6.585083000000000E-01     -9.149218000000000E+01
4801000000.000000      3.368530000000000E-01     -1.182305000000000E+02      3.206940000000000E-01     -6.254492000000000E+01      3.143005000000000E-01     -1.766562000000000E+02      6.567383000000000E-01     -9.152344000000000E+01
4802000000.000000      3.352661000000000E-01     -1.192031000000000E+02      3.244629000000000E-01     -6.272655000000000E+01      3.181610000000000E-01     -1.766797000000000E+02      6.549072000000000E-01     -9.160936000000000E+01
4803000000.000000      3.353882000000000E-01     -1.202187000000000E+02      3.297577000000000E-01     -6.287890000000000E+01      3.216400000000000E-01     -1.766016000000000E+02      6.548462000000000E-01     -9.178905000000000E+01
4804000000.000000      3.351746000000000E-01     -1.213398000000000E+02      3.337555000000000E-01     -6.303711000000000E+01      3.262024000000000E-01     -1.765078000000000E+02      6.542358000000000E-01     -9.176561000000000E+01
4805000000.000000      3.356018000000000E-01     -1.223047000000000E+02      3.382874000000000E-01     -6.334765000000000E+01      3.304291000000000E-01     -1.764766000000000E+02      6.535950000000000E-01     -9.196875000000000E+01
4806000000.000000      3.348999000000000E-01     -1.233086000000000E+02      3.425598000000000E-01     -6.336132000000000E+01      3.328247000000000E-01     -1.763281000000000E+02      6.533508000000000E-01     -9.207422000000000E+01
4807000000.000000      3.355408000000000E-01     -1.244492000000000E+02      3.463135000000000E-01     -6.370898000000000E+01      3.370361000000000E-01     -1.765312000000000E+02      6.514587000000000E-01     -9.217577000000000E+01
4808000000.000000      3.362885000000000E-01     -1.255391000000000E+02      3.512573000000000E-01     -6.365429000000000E+01      3.409119000000000E-01     -1.764766000000000E+02      6.516113000000000E-01     -9.209375000000000E+01
4809000000.000000      3.365936000000000E-01     -1.265078000000000E+02      3.554382000000000E-01     -6.429296000000000E+01      3.450470000000000E-01     -1.765938000000000E+02      6.515503000000000E-01     -9.230078000000000E+01
4810000000.000000      3.378143000000000E-01     -1.277383000000000E+02      3.596802000000000E-01     -6.431641000000000E+01      3.490295000000000E-01     -1.764609000000000E+02      6.510620000000000E-01     -9.249609000000000E+01
4811000000.000000      3.392944000000000E-01     -1.287812000000000E+02      3.627625000000000E-01     -6.470312000000000E+01      3.537445000000000E-01     -1.763672000000000E+02      6.500854000000000E-01     -9.247265000000000E+01
4812000000.000000      3.411407000000000E-01     -1.298125000000000E+02      3.671570000000000E-01     -6.500390000000000E+01      3.573914000000000E-01     -1.763594000000000E+02      6.508179000000000E-01     -9.247656000000000E+01
4813000000.000000      3.418274000000000E-01     -1.309297000000000E+02      3.706970000000000E-01     -6.507030000000000E+01      3.597565000000000E-01     -1.762109000000000E+02      6.508179000000000E-01     -9.256250000000000E+01
4814000000.000000      3.434753000000000E-01     -1.321250000000000E+02      3.748016000000000E-01     -6.537109000000000E+01      3.642273000000000E-01     -1.762422000000000E+02      6.506348000000000E-01     -9.273046000000000E+01
4815000000.000000      3.453522000000000E-01     -1.330469000000000E+02      3.786926000000000E-01     -6.574219000000000E+01      3.672943000000000E-01     -1.764062000000000E+02      6.498413000000000E-01     -9.281250000000000E+01
4816000000.000000      3.475800000000000E-01     -1.342031000000000E+02      3.818207000000000E-01     -6.581640000000000E+01      3.729401000000000E-01     -1.762031000000000E+02      6.512756000000000E-01     -9.287109000000000E+01
4817000000.000000      3.504791000000000E-01     -1.352500000000000E+02      3.862457000000000E-01     -6.612890000000000E+01      3.749237000000000E-01     -1.763594000000000E+02      6.497803000000000E-01     -9.305079000000000E+01
4818000000.000000      3.526001000000000E-01     -1.364766000000000E+02      3.891449000000000E-01     -6.646093000000000E+01      3.798218000000000E-01     -1.763515000000000E+02      6.508179000000000E-01     -9.314844000000000E+01
4819000000.000000      3.560181000000000E-01     -1.374844000000000E+02      3.929596000000000E-01     -6.663671000000000E+01      3.820190000000000E-01     -1.762578000000000E+02      6.525879000000000E-01     -9.315624000000000E+01
4820000000.000000      3.576202000000000E-01     -1.385703000000000E+02      3.969269000000000E-01     -6.685156000000000E+01      3.865051000000000E-01     -1.763672000000000E+02      6.528625000000000E-01     -9.326563000000000E+01
4821000000.000000      3.609161000000000E-01     -1.396406000000000E+02      4.007111000000000E-01     -6.730859000000000E+01      3.901062000000000E-01     -1.765703000000000E+02      6.520386000000000E-01     -9.334764000000000E+01
4822000000.000000      3.659973000000000E-01     -1.407031000000000E+02      4.035187000000000E-01     -6.750000000000000E+01      3.934784000000000E-01     -1.764375000000000E+02      6.536560000000000E-01     -9.337500000000000E+01
4823000000.000000      3.683777000000000E-01     -1.416484000000000E+02      4.074249000000000E-01     -6.789063000000000E+01      3.973541000000000E-01     -1.763515000000000E+02      6.549988000000000E-01     -9.352343000000000E+01
4824000000.000000      3.733368000000000E-01     -1.427578000000000E+02      4.109039000000000E-01     -6.817187000000000E+01      4.017181000000000E-01     -1.765000000000000E+02      6.565857000000000E-01     -9.359766000000000E+01
4825000000.000000      3.760834000000000E-01     -1.436953000000000E+02      4.139709000000000E-01     -6.840234000000000E+01      4.059906000000000E-01     -1.764688000000000E+02      6.565857000000000E-01     -9.358984000000000E+01
4826000000.000000      3.807831000000000E-01     -1.447656000000000E+02      4.185181000000000E-01     -6.882421000000000E+01      4.075623000000000E-01     -1.765391000000000E+02      6.584778000000000E-01     -9.373047000000000E+01
4827000000.000000      3.844910000000000E-01     -1.455312000000000E+02      4.210968000000000E-01     -6.895312000000000E+01      4.122772000000000E-01     -1.765078000000000E+02      6.593628000000000E-01     -9.373438000000000E+01
4828000000.000000      3.895569000000000E-01     -1.465859000000000E+02      4.246368000000000E-01     -6.924218000000000E+01      4.160004000000000E-01     -1.764844000000000E+02      6.619568000000000E-01     -9.380468000000000E+01
4829000000.000000      3.921967000000000E-01     -1.474922000000000E+02      4.274445000000000E-01     -6.965234000000000E+01      4.194794000000000E-01     -1.765312000000000E+02      6.631470000000000E-01     -9.378906000000000E+01
4830000000.000000      3.977661000000000E-01     -1.484453000000000E+02      4.308472000000000E-01     -6.994141000000000E+01      4.235229000000000E-01     -1.765625000000000E+02      6.633606000000000E-01     -9.398829000000000E+01
4831000000.000000      4.018097000000000E-01     -1.493828000000000E+02      4.339447000000000E-01     -7.024219000000000E+01      4.270630000000000E-01     -1.766172000000000E+02      6.662292000000000E-01     -9.405077000000000E+01
4832000000.000000      4.079590000000000E-01     -1.502266000000000E+02      4.371338000000000E-01     -7.062109000000000E+01      4.304199000000000E-01     -1.767109000000000E+02      6.676331000000000E-01     -9.407030000000000E+01
4833000000.000000      4.125214000000000E-01     -1.511406000000000E+02      4.394684000000000E-01     -7.087500000000000E+01      4.346008000000000E-01     -1.768672000000000E+02      6.687927000000000E-01     -9.416796000000000E+01
4834000000.000000      4.170380000000000E-01     -1.520391000000000E+02      4.424133000000000E-01     -7.110546000000000E+01      4.384003000000000E-01     -1.768359000000000E+02      6.712036000000000E-01     -9.425390000000000E+01
4835000000.000000      4.219055000000000E-01     -1.528281000000000E+02      4.467468000000000E-01     -7.146484000000000E+01      4.428711000000000E-01     -1.768281000000000E+02      6.725769000000000E-01     -9.432812000000000E+01
4836000000.000000      4.276428000000000E-01     -1.535312000000000E+02      4.488525000000000E-01     -7.184375000000000E+01      4.462128000000000E-01     -1.768750000000000E+02      6.743164000000000E-01     -9.430079000000000E+01
4837000000.000000      4.324036000000000E-01     -1.543516000000000E+02      4.517822000000000E-01     -7.242188000000000E+01      4.495850000000000E-01     -1.770625000000000E+02      6.767883000000000E-01     -9.443359000000000E+01
4838000000.000000      4.375458000000000E-01     -1.552656000000000E+02      4.541779000000000E-01     -7.239843000000000E+01      4.539642000000000E-01     -1.770937000000000E+02      6.787720000000000E-01     -9.450781000000000E+01
4839000000.000000      4.422913000000000E-01     -1.558984000000000E+02      4.566956000000000E-01     -7.276562000000000E+01      4.571991000000000E-01     -1.770937000000000E+02      6.814880000000000E-01     -9.446484000000000E+01
4840000000.000000      4.468842000000000E-01     -1.568359000000000E+02      4.598083000000000E-01     -7.304296000000000E+01      4.609833000000000E-01     -1.772734000000000E+02      6.834106000000000E-01     -9.458202000000000E+01
4841000000.000000      4.523010000000000E-01     -1.575469000000000E+02      4.621124000000000E-01     -7.361718000000000E+01      4.650574000000000E-01     -1.773672000000000E+02      6.850586000000000E-01     -9.471483000000000E+01
4842000000.000000      4.577484000000000E-01     -1.582578000000000E+02      4.643555000000000E-01     -7.385937000000000E+01      4.674072000000000E-01     -1.774688000000000E+02      6.885986000000000E-01     -9.472656000000000E+01
4843000000.000000      4.622192000000000E-01     -1.590234000000000E+02      4.667358000000000E-01     -7.415625000000000E+01      4.718323000000000E-01     -1.775312000000000E+02      6.902161000000000E-01     -9.460155000000000E+01
4844000000.000000      4.672546000000000E-01     -1.596172000000000E+02      4.699554000000000E-01     -7.444921000000000E+01      4.753418000000000E-01     -1.776094000000000E+02      6.929016000000000E-01     -9.470312000000000E+01
4845000000.000000      4.726257000000000E-01     -1.602890000000000E+02      4.708862000000000E-01     -7.482031000000000E+01      4.795685000000000E-01     -1.777578000000000E+02      6.950989000000000E-01     -9.474218000000000E+01
4846000000.000000      4.766235000000000E-01     -1.609141000000000E+02      4.741211000000000E-01     -7.500390000000000E+01      4.836731000000000E-01     -1.778359000000000E+02      6.973877000000000E-01     -9.473436000000000E+01
4847000000.000000      4.825287000000000E-01     -1.616328000000000E+02      4.756012000000000E-01     -7.535156000000000E+01      4.874725000000000E-01     -1.779844000000000E+02      6.998291000000000E-01     -9.493750000000000E+01
4848000000.000000      4.870148000000000E-01     -1.621953000000000E+02      4.785156000000000E-01     -7.576953000000000E+01      4.905396000000000E-01     -1.780859000000000E+02      7.028809000000000E-01     -9.496874000000000E+01
4849000000.000000      4.912872000000000E-01     -1.630625000000000E+02      4.809570000000000E-01     -7.614062000000000E+01      4.945068000000000E-01     -1.781953000000000E+02      7.054749000000000E-01     -9.496874000000000E+01
4850000000.000000      4.959717000000000E-01     -1.634531000000000E+02      4.830322000000000E-01     -7.648438000000000E+01      4.978485000000000E-01     -1.782344000000000E+02      7.085266000000000E-01     -9.496094000000000E+01
4851000000.000000      5.009155000000000E-01     -1.640156000000000E+02      4.850159000000000E-01     -7.674609000000000E+01      5.003052000000000E-01     -1.784531000000000E+02      7.117004000000000E-01     -9.508204000000000E+01
4852000000.000000      5.050049000000000E-01     -1.646016000000000E+02      4.868317000000000E-01     -7.700390000000000E+01      5.060730000000000E-01     -1.785000000000000E+02      7.137756000000000E-01     -9.521875000000000E+01
4853000000.000000      5.096741000000000E-01     -1.652266000000000E+02      4.864197000000000E-01     -7.737499000000000E+01      5.097046000000000E-01     -1.787578000000000E+02      7.170715000000000E-01     -9.530468000000000E+01
4854000000.000000      5.132141000000000E-01     -1.657500000000000E+02      4.892578000000000E-01     -7.795703000000000E+01      5.117493000000000E-01     -1.787031000000000E+02      7.199402000000000E-01     -9.523438000000000E+01
4855000000.000000      5.160828000000000E-01     -1.662734000000000E+02      4.912567000000000E-01     -7.804296000000000E+01      5.157471000000000E-01     -1.790000000000000E+02      7.218933000000000E-01     -9.520311000000000E+01
4856000000.000000      5.215454000000000E-01     -1.667344000000000E+02      4.922943000000000E-01     -7.825781000000000E+01      5.191040000000000E-01     -1.789453000000000E+02      7.255554000000000E-01     -9.534374000000000E+01
4857000000.000000      5.248108000000000E-01     -1.672812000000000E+02      4.940643000000000E-01     -7.856640000000000E+01      5.231323000000000E-01     -1.792266000000000E+02      7.268982000000000E-01     -9.541016000000000E+01
4858000000.000000      5.263977000000000E-01     -1.677813000000000E+02      4.957275000000000E-01     -7.898828000000000E+01      5.255127000000000E-01     -1.793828000000000E+02      7.303162000000000E-01     -9.553514000000000E+01
4859000000.000000      5.303040000000000E-01     -1.682734000000000E+02      4.964600000000000E-01     -7.923437000000000E+01      5.278625000000000E-01     -1.796797000000000E+02      7.333374000000000E-01     -9.551952000000000E+01
4860000000.000000      5.335999000000000E-01     -1.687187000000000E+02      4.972839000000000E-01     -7.949609000000000E+01      5.315247000000000E-01     -1.797891000000000E+02      7.362366000000000E-01     -9.546484000000000E+01
4861000000.000000      5.370789000000000E-01     -1.690312000000000E+02      5.012512000000000E-01     -7.996094000000000E+01      5.346680000000000E-01      1.799766000000000E+02      7.380371000000000E-01     -9.566015000000000E+01
4862000000.000000      5.389099000000000E-01     -1.695313000000000E+02      5.014343000000000E-01     -8.010546000000000E+01      5.386963000000000E-01      1.798516000000000E+02      7.431335000000000E-01     -9.565624000000000E+01
4863000000.000000      5.409241000000000E-01     -1.699375000000000E+02      5.029602000000000E-01     -8.044140000000000E+01      5.411682000000000E-01      1.798203000000000E+02      7.451782000000000E-01     -9.558985000000000E+01
4864000000.000000      5.438843000000000E-01     -1.703047000000000E+02      5.029602000000000E-01     -8.064062000000000E+01      5.428772000000000E-01      1.794765000000000E+02      7.461243000000000E-01     -9.577734000000000E+01
4865000000.000000      5.454407000000000E-01     -1.707969000000000E+02      5.039978000000000E-01     -8.090235000000000E+01      5.458679000000000E-01      1.793125000000000E+02      7.500916000000000E-01     -9.571093000000000E+01
4866000000.000000      5.466003000000000E-01     -1.710312000000000E+02      5.039673000000000E-01     -8.123047000000000E+01      5.476990000000000E-01      1.791406000000000E+02      7.539673000000000E-01     -9.567186000000000E+01
4867000000.000000      5.497131000000000E-01     -1.713672000000000E+02      5.083313000000000E-01     -8.158594000000000E+01      5.511780000000000E-01      1.790469000000000E+02      7.553101000000000E-01     -9.588671000000000E+01
4868000000.000000      5.511475000000000E-01     -1.718203000000000E+02      5.071411000000000E-01     -8.178514000000000E+01      5.536804000000000E-01      1.787500000000000E+02      7.580261000000000E-01     -9.587891000000000E+01
4869000000.000000      5.521240000000000E-01     -1.720234000000000E+02      5.087585000000000E-01     -8.220703000000000E+01      5.566406000000000E-01      1.785469000000000E+02      7.607117000000000E-01     -9.603125000000000E+01
4870000000.000000      5.529785000000000E-01     -1.723750000000000E+02      5.100098000000000E-01     -8.216015000000000E+01      5.580750000000000E-01      1.784765000000000E+02      7.635193000000000E-01     -9.590624000000000E+01
4871000000.000000      5.546875000000000E-01     -1.726719000000000E+02      5.114746000000000E-01     -8.269922000000000E+01      5.598755000000000E-01      1.780859000000000E+02      7.654114000000000E-01     -9.610937000000000E+01
4872000000.000000      5.559082000000000E-01     -1.728906000000000E+02      5.089111000000000E-01     -8.257030000000000E+01      5.628052000000000E-01      1.778516000000000E+02      7.696533000000000E-01     -9.605469000000000E+01
4873000000.000000      5.559692000000000E-01     -1.731250000000000E+02      5.114441000000000E-01     -8.312500000000000E+01      5.651550000000000E-01      1.777344000000000E+02      7.688904000000000E-01     -9.617188000000000E+01
4874000000.000000      5.563965000000000E-01     -1.733359000000000E+02      5.124817000000000E-01     -8.342188000000000E+01      5.680847000000000E-01      1.775312000000000E+02      7.722473000000000E-01     -9.603516000000000E+01
4875000000.000000      5.578918000000000E-01     -1.736328000000000E+02      5.133972000000000E-01     -8.341015000000000E+01      5.702515000000000E-01      1.773438000000000E+02      7.741394000000000E-01     -9.619921000000000E+01
4876000000.000000      5.568848000000000E-01     -1.738125000000000E+02      5.139465000000000E-01     -8.368359000000000E+01      5.711365000000000E-01      1.772109000000000E+02      7.767944000000000E-01     -9.614843000000000E+01
4877000000.000000      5.571289000000000E-01     -1.740078000000000E+02      5.153809000000000E-01     -8.380468000000000E+01      5.734558000000000E-01      1.769140000000000E+02      7.778625000000000E-01     -9.628515000000000E+01
4878000000.000000      5.563660000000000E-01     -1.741875000000000E+02      5.169373000000000E-01     -8.401562000000000E+01      5.754700000000000E-01      1.769063000000000E+02      7.802124000000000E-01     -9.638281000000000E+01
4879000000.000000      5.580444000000000E-01     -1.743828000000000E+02      5.163269000000000E-01     -8.421875000000000E+01      5.765991000000000E-01      1.765859000000000E+02      7.829285000000000E-01     -9.627733000000000E+01
4880000000.000000      5.576172000000000E-01     -1.745391000000000E+02      5.175171000000000E-01     -8.444921000000000E+01      5.786438000000000E-01      1.763203000000000E+02      7.854614000000000E-01     -9.628124000000000E+01
4881000000.000000      5.575562000000000E-01     -1.745312000000000E+02      5.171509000000000E-01     -8.444139000000000E+01      5.812988000000000E-01      1.760703000000000E+02      7.873535000000000E-01     -9.648046000000000E+01
4882000000.000000      5.558167000000000E-01     -1.746875000000000E+02      5.189819000000000E-01     -8.477343000000000E+01      5.819397000000000E-01      1.760234000000000E+02      7.872314000000000E-01     -9.652733000000000E+01
