! Network Analyzer HP8722D
! Hewlett-Packard
! Data name: Linha & Wilkinson
! Saver's name: Rodrigo Anjos
! Comments: Teste da utilização de aquisição
continua pelo VNA HP8722D
! Time and date: 17/4/2025 15:52
!              Frequency                     S11                                                   S21                                                   S12                                                   S22
# HZ  S  MA R 50
4800000000.000000      3.358459000000000E-01     -1.154023000000000E+02      3.033905000000000E-01     -6.139843000000000E+01      2.960815000000000E-01     -1.755781000000000E+02      6.563721000000000E-01     -9.049999000000000E+01
4801000000.000000      3.343048000000000E-01     -1.164531000000000E+02      3.078918000000000E-01     -6.163280000000000E+01      2.995605000000000E-01     -1.754453000000000E+02      6.557312000000000E-01     -9.048437000000000E+01
4802000000.000000      3.330536000000000E-01     -1.173828000000000E+02      3.113556000000000E-01     -6.155273000000000E+01      3.043671000000000E-01     -1.754062000000000E+02      6.536255000000000E-01     -9.059374000000000E+01
4803000000.000000      3.336029000000000E-01     -1.184336000000000E+02      3.175812000000000E-01     -6.186718000000000E+01      3.071289000000000E-01     -1.753203000000000E+02      6.536560000000000E-01     -9.078516000000000E+01
4804000000.000000      3.330841000000000E-01     -1.194297000000000E+02      3.211823000000000E-01     -6.200976000000000E+01      3.116760000000000E-01     -1.754219000000000E+02      6.528015000000000E-01     -9.074219000000000E+01
4805000000.000000      3.323212000000000E-01     -1.204453000000000E+02      3.260498000000000E-01     -6.213867000000000E+01      3.163147000000000E-01     -1.752422000000000E+02      6.532898000000000E-01     -9.102343000000000E+01
4806000000.000000      3.327789000000000E-01     -1.214063000000000E+02      3.298187000000000E-01     -6.226563000000000E+01      3.193665000000000E-01     -1.749687000000000E+02      6.522217000000000E-01     -9.105078000000000E+01
4807000000.000000      3.330383000000000E-01     -1.225469000000000E+02      3.338623000000000E-01     -6.258789000000000E+01      3.231506000000000E-01     -1.752734000000000E+02      6.514893000000000E-01     -9.106640000000000E+01
4808000000.000000      3.331299000000000E-01     -1.234609000000000E+02      3.394775000000000E-01     -6.272851000000000E+01      3.273163000000000E-01     -1.751172000000000E+02      6.503906000000000E-01     -9.119921000000000E+01
4809000000.000000      3.339233000000000E-01     -1.246367000000000E+02      3.423462000000000E-01     -6.292578000000000E+01      3.320770000000000E-01     -1.751016000000000E+02      6.502686000000000E-01     -9.133984000000000E+01
4810000000.000000      3.345032000000000E-01     -1.257422000000000E+02      3.472900000000000E-01     -6.316601000000000E+01      3.356628000000000E-01     -1.750000000000000E+02      6.504211000000000E-01     -9.140625000000000E+01
4811000000.000000      3.361969000000000E-01     -1.267344000000000E+02      3.518677000000000E-01     -6.347265000000000E+01      3.406067000000000E-01     -1.749609000000000E+02      6.495361000000000E-01     -9.138281000000000E+01
4812000000.000000      3.379211000000000E-01     -1.278633000000000E+02      3.555756000000000E-01     -6.364843000000000E+01      3.432159000000000E-01     -1.748281000000000E+02      6.508484000000000E-01     -9.149609000000000E+01
4813000000.000000      3.383789000000000E-01     -1.289687000000000E+02      3.591156000000000E-01     -6.377734000000000E+01      3.468628000000000E-01     -1.747656000000000E+02      6.500549000000000E-01     -9.148046000000000E+01
4814000000.000000      3.396149000000000E-01     -1.302734000000000E+02      3.636017000000000E-01     -6.409374000000000E+01      3.517151000000000E-01     -1.749297000000000E+02      6.496277000000000E-01     -9.167578000000000E+01
4815000000.000000      3.414764000000000E-01     -1.311406000000000E+02      3.670044000000000E-01     -6.431641000000000E+01      3.546753000000000E-01     -1.748125000000000E+02      6.489563000000000E-01     -9.163671000000000E+01
4816000000.000000      3.439026000000000E-01     -1.322500000000000E+02      3.711548000000000E-01     -6.430469000000000E+01      3.592682000000000E-01     -1.746562000000000E+02      6.499939000000000E-01     -9.181250000000000E+01
4817000000.000000      3.466644000000000E-01     -1.333672000000000E+02      3.758698000000000E-01     -6.481640000000000E+01      3.629150000000000E-01     -1.747890000000000E+02      6.501160000000000E-01     -9.197657000000000E+01
4818000000.000000      3.485260000000000E-01     -1.345312000000000E+02      3.784485000000000E-01     -6.499609000000000E+01      3.670044000000000E-01     -1.747500000000000E+02      6.502075000000000E-01     -9.197266000000000E+01
4819000000.000000      3.512573000000000E-01     -1.355234000000000E+02      3.825836000000000E-01     -6.526172000000000E+01      3.703156000000000E-01     -1.746953000000000E+02      6.508179000000000E-01     -9.216406000000000E+01
4820000000.000000      3.533325000000000E-01     -1.365703000000000E+02      3.868561000000000E-01     -6.541406000000000E+01      3.750153000000000E-01     -1.747500000000000E+02      6.521301000000000E-01     -9.217188000000000E+01
4821000000.000000      3.568115000000000E-01     -1.376953000000000E+02      3.903961000000000E-01     -6.591406000000000E+01      3.780365000000000E-01     -1.747734000000000E+02      6.514587000000000E-01     -9.224218000000000E+01
4822000000.000000      3.613129000000000E-01     -1.387344000000000E+02      3.934631000000000E-01     -6.599609000000000E+01      3.808594000000000E-01     -1.747422000000000E+02      6.529541000000000E-01     -9.229296000000000E+01
4823000000.000000      3.630524000000000E-01     -1.397812000000000E+02      3.978882000000000E-01     -6.637109000000000E+01      3.856659000000000E-01     -1.746641000000000E+02      6.538086000000000E-01     -9.241014000000000E+01
4824000000.000000      3.684998000000000E-01     -1.408516000000000E+02      4.011383000000000E-01     -6.671093000000000E+01      3.902435000000000E-01     -1.747734000000000E+02      6.553955000000000E-01     -9.244921000000000E+01
4825000000.000000      3.711395000000000E-01     -1.418437000000000E+02      4.047699000000000E-01     -6.678515000000000E+01      3.943787000000000E-01     -1.747656000000000E+02      6.561890000000000E-01     -9.252733000000000E+01
4826000000.000000      3.760529000000000E-01     -1.428516000000000E+02      4.084015000000000E-01     -6.732031000000000E+01      3.971558000000000E-01     -1.748125000000000E+02      6.574097000000000E-01     -9.266405000000000E+01
4827000000.000000      3.800049000000000E-01     -1.437109000000000E+02      4.119568000000000E-01     -6.746094000000000E+01      4.010925000000000E-01     -1.748125000000000E+02      6.586304000000000E-01     -9.263672000000000E+01
4828000000.000000      3.847504000000000E-01     -1.447500000000000E+02      4.157104000000000E-01     -6.781250000000000E+01      4.041748000000000E-01     -1.746406000000000E+02      6.610413000000000E-01     -9.277344000000000E+01
4829000000.000000      3.872833000000000E-01     -1.456406000000000E+02      4.181824000000000E-01     -6.808594000000000E+01      4.086761000000000E-01     -1.747969000000000E+02      6.614075000000000E-01     -9.270311000000000E+01
4830000000.000000      3.930511000000000E-01     -1.466172000000000E+02      4.217377000000000E-01     -6.847656000000000E+01      4.127045000000000E-01     -1.748437000000000E+02      6.623230000000000E-01     -9.290625000000000E+01
4831000000.000000      3.968201000000000E-01     -1.474922000000000E+02      4.243469000000000E-01     -6.876562000000000E+01      4.179382000000000E-01     -1.747969000000000E+02      6.638489000000000E-01     -9.292969000000000E+01
4832000000.000000      4.022064000000000E-01     -1.484062000000000E+02      4.293823000000000E-01     -6.903906000000000E+01      4.204559000000000E-01     -1.748672000000000E+02      6.664429000000000E-01     -9.300781000000000E+01
4833000000.000000      4.071045000000000E-01     -1.494297000000000E+02      4.321442000000000E-01     -6.933594000000000E+01      4.241486000000000E-01     -1.749297000000000E+02      6.672058000000000E-01     -9.301172000000000E+01
4834000000.000000      4.117432000000000E-01     -1.502422000000000E+02      4.345551000000000E-01     -6.960546000000000E+01      4.288025000000000E-01     -1.749687000000000E+02      6.689453000000000E-01     -9.307032000000000E+01
4835000000.000000      4.167786000000000E-01     -1.510313000000000E+02      4.384003000000000E-01     -6.996875000000000E+01      4.334869000000000E-01     -1.749609000000000E+02      6.712036000000000E-01     -9.318750000000000E+01
4836000000.000000      4.218597000000000E-01     -1.517891000000000E+02      4.403687000000000E-01     -7.016015000000000E+01      4.363861000000000E-01     -1.751250000000000E+02      6.732178000000000E-01     -9.312500000000000E+01
4837000000.000000      4.272614000000000E-01     -1.525156000000000E+02      4.434052000000000E-01     -7.081640000000000E+01      4.405823000000000E-01     -1.751797000000000E+02      6.752625000000000E-01     -9.330469000000000E+01
4838000000.000000      4.329224000000000E-01     -1.535078000000000E+02      4.472351000000000E-01     -7.084765000000000E+01      4.441986000000000E-01     -1.752266000000000E+02      6.769714000000000E-01     -9.330078000000000E+01
4839000000.000000      4.376831000000000E-01     -1.541250000000000E+02      4.490662000000000E-01     -7.125000000000000E+01      4.482727000000000E-01     -1.751953000000000E+02      6.795349000000000E-01     -9.328516000000000E+01
4840000000.000000      4.420166000000000E-01     -1.549844000000000E+02      4.523468000000000E-01     -7.139453000000000E+01      4.526520000000000E-01     -1.753906000000000E+02      6.827698000000000E-01     -9.348047000000000E+01
4841000000.000000      4.474792000000000E-01     -1.558750000000000E+02      4.553833000000000E-01     -7.195313000000000E+01      4.562683000000000E-01     -1.756016000000000E+02      6.842346000000000E-01     -9.346094000000000E+01
4842000000.000000      4.531097000000000E-01     -1.564297000000000E+02      4.578552000000000E-01     -7.215234000000000E+01      4.591217000000000E-01     -1.755312000000000E+02      6.864319000000000E-01     -9.353516000000000E+01
4843000000.000000      4.576416000000000E-01     -1.572500000000000E+02      4.607697000000000E-01     -7.260156000000000E+01      4.638214000000000E-01     -1.756016000000000E+02      6.888428000000000E-01     -9.349609000000000E+01
4844000000.000000      4.624786000000000E-01     -1.579375000000000E+02      4.625549000000000E-01     -7.279687000000000E+01      4.675751000000000E-01     -1.757344000000000E+02      6.923218000000000E-01     -9.369921000000000E+01
4845000000.000000      4.675140000000000E-01     -1.584844000000000E+02      4.656067000000000E-01     -7.315234000000000E+01      4.712219000000000E-01     -1.758594000000000E+02      6.938782000000000E-01     -9.353516000000000E+01
4846000000.000000      4.725800000000000E-01     -1.591406000000000E+02      4.680176000000000E-01     -7.338672000000000E+01      4.757385000000000E-01     -1.758906000000000E+02      6.964417000000000E-01     -9.367579000000000E+01
4847000000.000000      4.781494000000000E-01     -1.598516000000000E+02      4.697266000000000E-01     -7.385547000000000E+01      4.798126000000000E-01     -1.760781000000000E+02      6.990051000000000E-01     -9.382421000000000E+01
4848000000.000000      4.828339000000000E-01     -1.604687000000000E+02      4.714966000000000E-01     -7.404687000000000E+01      4.831238000000000E-01     -1.761641000000000E+02      7.017517000000000E-01     -9.382030000000000E+01
4849000000.000000      4.870605000000000E-01     -1.613750000000000E+02      4.751587000000000E-01     -7.453906000000000E+01      4.871826000000000E-01     -1.763672000000000E+02      7.037964000000000E-01     -9.381639000000000E+01
4850000000.000000      4.925079000000000E-01     -1.616875000000000E+02      4.771423000000000E-01     -7.476563000000000E+01      4.910278000000000E-01     -1.763750000000000E+02      7.071228000000000E-01     -9.375391000000000E+01
4851000000.000000      4.973450000000000E-01     -1.622969000000000E+02      4.803619000000000E-01     -7.526953000000000E+01      4.941711000000000E-01     -1.765703000000000E+02      7.099609000000000E-01     -9.394922000000000E+01
4852000000.000000      5.023193000000000E-01     -1.628906000000000E+02      4.819489000000000E-01     -7.542187000000000E+01      4.983673000000000E-01     -1.766172000000000E+02      7.135010000000000E-01     -9.398438000000000E+01
4853000000.000000      5.066833000000000E-01     -1.634766000000000E+02      4.823303000000000E-01     -7.570703000000000E+01      5.023804000000000E-01     -1.769609000000000E+02      7.160034000000000E-01     -9.412889000000000E+01
4854000000.000000      5.102234000000000E-01     -1.640078000000000E+02      4.852142000000000E-01     -7.628124000000000E+01      5.059204000000000E-01     -1.769063000000000E+02      7.183228000000000E-01     -9.409765000000000E+01
4855000000.000000      5.135803000000000E-01     -1.646016000000000E+02      4.867096000000000E-01     -7.642578000000000E+01      5.073242000000000E-01     -1.770156000000000E+02      7.200317000000000E-01     -9.406641000000000E+01
4856000000.000000      5.183716000000000E-01     -1.649765000000000E+02      4.883118000000000E-01     -7.673437000000000E+01      5.134277000000000E-01     -1.772500000000000E+02      7.239990000000000E-01     -9.411718000000000E+01
4857000000.000000      5.221252000000000E-01     -1.656250000000000E+02      4.917603000000000E-01     -7.710938000000000E+01      5.159302000000000E-01     -1.771328000000000E+02      7.270508000000000E-01     -9.421484000000000E+01
4858000000.000000      5.238342000000000E-01     -1.661016000000000E+02      4.933472000000000E-01     -7.745703000000000E+01      5.187073000000000E-01     -1.776016000000000E+02      7.287903000000000E-01     -9.429296000000000E+01
4859000000.000000      5.278625000000000E-01     -1.666094000000000E+02      4.949341000000000E-01     -7.770312000000000E+01      5.228882000000000E-01     -1.778437000000000E+02      7.335815000000000E-01     -9.438671000000000E+01
4860000000.000000      5.324707000000000E-01     -1.670938000000000E+02      4.957275000000000E-01     -7.775000000000000E+01      5.274353000000000E-01     -1.777969000000000E+02      7.356262000000000E-01     -9.442968000000000E+01
4861000000.000000      5.349426000000000E-01     -1.674453000000000E+02      4.969482000000000E-01     -7.830859000000000E+01      5.303345000000000E-01     -1.780781000000000E+02      7.372437000000000E-01     -9.447657000000000E+01
4862000000.000000      5.379028000000000E-01     -1.679453000000000E+02      4.994507000000000E-01     -7.850780000000000E+01      5.333252000000000E-01     -1.781953000000000E+02      7.428894000000000E-01     -9.441797000000000E+01
4863000000.000000      5.401611000000000E-01     -1.683672000000000E+02      4.991150000000000E-01     -7.893359000000000E+01      5.366211000000000E-01     -1.783750000000000E+02      7.459412000000000E-01     -9.452343000000000E+01
4864000000.000000      5.435181000000000E-01     -1.686875000000000E+02      5.001221000000000E-01     -7.895702000000000E+01      5.395508000000000E-01     -1.785547000000000E+02      7.481384000000000E-01     -9.448828000000000E+01
4865000000.000000      5.450745000000000E-01     -1.692109000000000E+02      5.020752000000000E-01     -7.938671000000000E+01      5.419922000000000E-01     -1.787734000000000E+02      7.501526000000000E-01     -9.444921000000000E+01
4866000000.000000      5.469971000000000E-01     -1.693984000000000E+02      5.027466000000000E-01     -7.964453000000000E+01      5.456238000000000E-01     -1.790547000000000E+02      7.544556000000000E-01     -9.445313000000000E+01
4867000000.000000      5.490723000000000E-01     -1.698203000000000E+02      5.045166000000000E-01     -8.006639000000000E+01      5.476074000000000E-01     -1.791875000000000E+02      7.551575000000000E-01     -9.458984000000000E+01
4868000000.000000      5.520935000000000E-01     -1.701641000000000E+02      5.057373000000000E-01     -8.029688000000000E+01      5.520630000000000E-01     -1.792891000000000E+02      7.575378000000000E-01     -9.458984000000000E+01
4869000000.000000      5.513306000000000E-01     -1.705781000000000E+02      5.060120000000000E-01     -8.058985000000000E+01      5.545044000000000E-01     -1.796328000000000E+02      7.612610000000000E-01     -9.487890000000000E+01
4870000000.000000      5.534363000000000E-01     -1.708594000000000E+02      5.082397000000000E-01     -8.066797000000000E+01      5.559082000000000E-01     -1.798437000000000E+02      7.641602000000000E-01     -9.474609000000000E+01
4871000000.000000      5.552063000000000E-01     -1.710938000000000E+02      5.079346000000000E-01     -8.110546000000000E+01      5.578613000000000E-01      1.799453000000000E+02      7.647400000000000E-01     -9.492968000000000E+01
4872000000.000000      5.571899000000000E-01     -1.714062000000000E+02      5.084229000000000E-01     -8.114452000000000E+01      5.605774000000000E-01      1.795156000000000E+02      7.685547000000000E-01     -9.496485000000000E+01
4873000000.000000      5.571289000000000E-01     -1.715703000000000E+02      5.114136000000000E-01     -8.149218000000000E+01      5.627136000000000E-01      1.795391000000000E+02      7.708130000000000E-01     -9.490234000000000E+01
4874000000.000000      5.585632000000000E-01     -1.718906000000000E+02      5.115662000000000E-01     -8.191797000000000E+01      5.670166000000000E-01      1.794609000000000E+02      7.734375000000000E-01     -9.485155000000000E+01
4875000000.000000      5.596619000000000E-01     -1.721562000000000E+02      5.115967000000000E-01     -8.184374000000000E+01      5.682373000000000E-01      1.792187000000000E+02      7.750549000000000E-01     -9.493359000000000E+01
4876000000.000000      5.583801000000000E-01     -1.723906000000000E+02      5.133057000000000E-01     -8.220703000000000E+01      5.707397000000000E-01      1.790156000000000E+02      7.785645000000000E-01     -9.499218000000000E+01
4877000000.000000      5.596008000000000E-01     -1.725000000000000E+02      5.139160000000000E-01     -8.243359000000000E+01      5.727539000000000E-01      1.786719000000000E+02      7.814331000000000E-01     -9.516016000000000E+01
4878000000.000000      5.596924000000000E-01     -1.726641000000000E+02      5.150146000000000E-01     -8.243359000000000E+01      5.745850000000000E-01      1.786328000000000E+02      7.831421000000000E-01     -9.516016000000000E+01
4879000000.000000      5.605469000000000E-01     -1.729922000000000E+02      5.156250000000000E-01     -8.266405000000000E+01      5.763550000000000E-01      1.782812000000000E+02      7.844543000000000E-01     -9.513672000000000E+01
4880000000.000000      5.586243000000000E-01     -1.730547000000000E+02      5.158997000000000E-01     -8.303905000000000E+01      5.782471000000000E-01      1.783203000000000E+02      7.868042000000000E-01     -9.516796000000000E+01
4881000000.000000      5.603943000000000E-01     -1.731250000000000E+02      5.190430000000000E-01     -8.311718000000000E+01      5.807800000000000E-01      1.779453000000000E+02      7.890320000000000E-01     -9.523438000000000E+01
4882000000.000000      5.593262000000000E-01     -1.732656000000000E+02      5.179749000000000E-01     -8.332031000000000E+01      5.827942000000000E-01      1.777109000000000E+02      7.897339000000000E-01     -9.530859000000000E+01
