! Network Analyzer HP8722D
! Hewlett-Packard
! Data name: Linha & Wilkinson
! Saver's name: Rodrigo Anjos
! Comments: Teste da utilização de aquisição
continua pelo VNA HP8722D
! Time and date: 17/4/2025 16:05
!              Frequency                     S11                                                   S21                                                   S12                                                   S22
# HZ  S  MA R 50
4800000000.000000      3.350220000000000E-01     -1.158633000000000E+02      3.076019000000000E-01     -6.180664000000000E+01      3.020172000000000E-01     -1.761016000000000E+02      6.577148000000000E-01     -9.102343000000000E+01
4801000000.000000      3.353729000000000E-01     -1.167109000000000E+02      3.120117000000000E-01     -6.185937000000000E+01      3.055115000000000E-01     -1.760937000000000E+02      6.563721000000000E-01     -9.103516000000000E+01
4802000000.000000      3.337555000000000E-01     -1.177266000000000E+02      3.162079000000000E-01     -6.208202000000000E+01      3.100128000000000E-01     -1.758672000000000E+02      6.535339000000000E-01     -9.104687000000000E+01
4803000000.000000      3.335419000000000E-01     -1.187461000000000E+02      3.209381000000000E-01     -6.190820000000000E+01      3.134613000000000E-01     -1.757422000000000E+02      6.551819000000000E-01     -9.121485000000000E+01
4804000000.000000      3.328705000000000E-01     -1.197930000000000E+02      3.248444000000000E-01     -6.240820000000000E+01      3.177948000000000E-01     -1.758828000000000E+02      6.534119000000000E-01     -9.122656000000000E+01
4805000000.000000      3.332977000000000E-01     -1.208437000000000E+02      3.295898000000000E-01     -6.255273000000000E+01      3.216553000000000E-01     -1.757109000000000E+02      6.529541000000000E-01     -9.144922000000000E+01
4806000000.000000      3.326416000000000E-01     -1.217773000000000E+02      3.339539000000000E-01     -6.272265000000000E+01      3.239899000000000E-01     -1.756719000000000E+02      6.524353000000000E-01     -9.151171000000000E+01
4807000000.000000      3.331146000000000E-01     -1.229297000000000E+02      3.378754000000000E-01     -6.291210000000000E+01      3.291016000000000E-01     -1.756094000000000E+02      6.515503000000000E-01     -9.165625000000000E+01
4808000000.000000      3.336029000000000E-01     -1.239492000000000E+02      3.426971000000000E-01     -6.298242000000000E+01      3.329010000000000E-01     -1.756484000000000E+02      6.510925000000000E-01     -9.166796000000000E+01
4809000000.000000      3.343811000000000E-01     -1.250352000000000E+02      3.477936000000000E-01     -6.335938000000000E+01      3.372192000000000E-01     -1.756562000000000E+02      6.509705000000000E-01     -9.178514000000000E+01
4810000000.000000      3.354340000000000E-01     -1.261055000000000E+02      3.510132000000000E-01     -6.348633000000000E+01      3.403931000000000E-01     -1.755547000000000E+02      6.517639000000000E-01     -9.196484000000000E+01
4811000000.000000      3.361969000000000E-01     -1.271836000000000E+02      3.551636000000000E-01     -6.403125000000000E+01      3.454590000000000E-01     -1.755391000000000E+02      6.493530000000000E-01     -9.191015000000000E+01
4812000000.000000      3.378143000000000E-01     -1.282422000000000E+02      3.596344000000000E-01     -6.400781000000000E+01      3.492126000000000E-01     -1.754844000000000E+02      6.499939000000000E-01     -9.206640000000000E+01
4813000000.000000      3.388367000000000E-01     -1.294219000000000E+02      3.622131000000000E-01     -6.429296000000000E+01      3.516693000000000E-01     -1.754219000000000E+02      6.505737000000000E-01     -9.210155000000000E+01
4814000000.000000      3.394623000000000E-01     -1.306406000000000E+02      3.669128000000000E-01     -6.433594000000000E+01      3.565369000000000E-01     -1.755000000000000E+02      6.505737000000000E-01     -9.221874000000000E+01
4815000000.000000      3.420410000000000E-01     -1.315156000000000E+02      3.706818000000000E-01     -6.480078000000000E+01      3.595123000000000E-01     -1.754141000000000E+02      6.509094000000000E-01     -9.216797000000000E+01
4816000000.000000      3.445587000000000E-01     -1.326484000000000E+02      3.750153000000000E-01     -6.494922000000000E+01      3.648834000000000E-01     -1.753672000000000E+02      6.497803000000000E-01     -9.231640000000000E+01
4817000000.000000      3.470459000000000E-01     -1.337422000000000E+02      3.796082000000000E-01     -6.535546000000000E+01      3.675079000000000E-01     -1.753281000000000E+02      6.502686000000000E-01     -9.251171000000000E+01
4818000000.000000      3.490906000000000E-01     -1.349531000000000E+02      3.820038000000000E-01     -6.550781000000000E+01      3.717346000000000E-01     -1.753594000000000E+02      6.510315000000000E-01     -9.255468000000000E+01
4819000000.000000      3.521271000000000E-01     -1.359531000000000E+02      3.866882000000000E-01     -6.577343000000000E+01      3.751678000000000E-01     -1.753125000000000E+02      6.516724000000000E-01     -9.270311000000000E+01
4820000000.000000      3.536530000000000E-01     -1.369297000000000E+02      3.897858000000000E-01     -6.608593000000000E+01      3.795471000000000E-01     -1.753984000000000E+02      6.523743000000000E-01     -9.269531000000000E+01
4821000000.000000      3.572845000000000E-01     -1.380859000000000E+02      3.938293000000000E-01     -6.634766000000000E+01      3.830261000000000E-01     -1.756250000000000E+02      6.524048000000000E-01     -9.284374000000000E+01
4822000000.000000      3.621216000000000E-01     -1.392187000000000E+02      3.969421000000000E-01     -6.649219000000000E+01      3.857880000000000E-01     -1.753906000000000E+02      6.546021000000000E-01     -9.285936000000000E+01
4823000000.000000      3.646393000000000E-01     -1.401406000000000E+02      4.013214000000000E-01     -6.688671000000000E+01      3.903656000000000E-01     -1.753515000000000E+02      6.544189000000000E-01     -9.293360000000000E+01
4824000000.000000      3.685150000000000E-01     -1.413281000000000E+02      4.039764000000000E-01     -6.722656000000000E+01      3.946381000000000E-01     -1.754609000000000E+02      6.559753000000000E-01     -9.303125000000000E+01
4825000000.000000      3.723145000000000E-01     -1.422266000000000E+02      4.075470000000000E-01     -6.746094000000000E+01      3.982544000000000E-01     -1.753750000000000E+02      6.571960000000000E-01     -9.305859000000000E+01
4826000000.000000      3.765106000000000E-01     -1.432266000000000E+02      4.114227000000000E-01     -6.791016000000000E+01      4.017181000000000E-01     -1.754062000000000E+02      6.584167000000000E-01     -9.318750000000000E+01
4827000000.000000      3.804474000000000E-01     -1.440938000000000E+02      4.148865000000000E-01     -6.791797000000000E+01      4.061890000000000E-01     -1.753828000000000E+02      6.593323000000000E-01     -9.324219000000000E+01
4828000000.000000      3.856659000000000E-01     -1.451406000000000E+02      4.185333000000000E-01     -6.831249000000000E+01      4.089966000000000E-01     -1.754297000000000E+02      6.613464000000000E-01     -9.335938000000000E+01
4829000000.000000      3.880157000000000E-01     -1.460391000000000E+02      4.209747000000000E-01     -6.856250000000000E+01      4.137726000000000E-01     -1.755703000000000E+02      6.627808000000000E-01     -9.325390000000000E+01
4830000000.000000      3.933716000000000E-01     -1.470000000000000E+02      4.241333000000000E-01     -6.900391000000000E+01      4.180756000000000E-01     -1.755312000000000E+02      6.632385000000000E-01     -9.345703000000000E+01
4831000000.000000      3.975677000000000E-01     -1.479453000000000E+02      4.276733000000000E-01     -6.930469000000000E+01      4.216919000000000E-01     -1.755391000000000E+02      6.652527000000000E-01     -9.351563000000000E+01
4832000000.000000      4.035492000000000E-01     -1.488750000000000E+02      4.310608000000000E-01     -6.945703000000000E+01      4.249115000000000E-01     -1.756641000000000E+02      6.675415000000000E-01     -9.360937000000000E+01
4833000000.000000      4.078522000000000E-01     -1.497266000000000E+02      4.339600000000000E-01     -6.992188000000000E+01      4.287567000000000E-01     -1.757500000000000E+02      6.686096000000000E-01     -9.356249000000000E+01
4834000000.000000      4.124908000000000E-01     -1.506406000000000E+02      4.368896000000000E-01     -7.001953000000000E+01      4.330139000000000E-01     -1.757578000000000E+02      6.703491000000000E-01     -9.371485000000000E+01
4835000000.000000      4.174194000000000E-01     -1.513672000000000E+02      4.410400000000000E-01     -7.053124000000000E+01      4.370728000000000E-01     -1.757187000000000E+02      6.723633000000000E-01     -9.375780000000000E+01
4836000000.000000      4.231110000000000E-01     -1.521484000000000E+02      4.433289000000000E-01     -7.073828000000000E+01      4.403534000000000E-01     -1.757500000000000E+02      6.737061000000000E-01     -9.371874000000000E+01
4837000000.000000      4.282227000000000E-01     -1.529453000000000E+02      4.458618000000000E-01     -7.128515000000000E+01      4.444885000000000E-01     -1.759687000000000E+02      6.757507000000000E-01     -9.384766000000000E+01
4838000000.000000      4.338531000000000E-01     -1.538672000000000E+02      4.501343000000000E-01     -7.146874000000000E+01      4.485474000000000E-01     -1.759844000000000E+02      6.779175000000000E-01     -9.387110000000000E+01
4839000000.000000      4.387360000000000E-01     -1.545312000000000E+02      4.518433000000000E-01     -7.173046000000000E+01      4.524536000000000E-01     -1.760000000000000E+02      6.811829000000000E-01     -9.389452000000000E+01
4840000000.000000      4.431000000000000E-01     -1.553516000000000E+02      4.543457000000000E-01     -7.200781000000000E+01      4.562531000000000E-01     -1.761016000000000E+02      6.831055000000000E-01     -9.399218000000000E+01
4841000000.000000      4.481506000000000E-01     -1.561719000000000E+02      4.574280000000000E-01     -7.250000000000000E+01      4.599152000000000E-01     -1.763281000000000E+02      6.848145000000000E-01     -9.412889000000000E+01
4842000000.000000      4.537354000000000E-01     -1.568125000000000E+02      4.600220000000000E-01     -7.269531000000000E+01      4.627838000000000E-01     -1.762969000000000E+02      6.871643000000000E-01     -9.406641000000000E+01
4843000000.000000      4.583893000000000E-01     -1.576094000000000E+02      4.634705000000000E-01     -7.317968000000000E+01      4.669800000000000E-01     -1.763594000000000E+02      6.908569000000000E-01     -9.410156000000000E+01
4844000000.000000      4.636078000000000E-01     -1.582734000000000E+02      4.650421000000000E-01     -7.342187000000000E+01      4.709015000000000E-01     -1.764922000000000E+02      6.921387000000000E-01     -9.432032000000000E+01
4845000000.000000      4.685974000000000E-01     -1.589375000000000E+02      4.670563000000000E-01     -7.373828000000000E+01      4.750977000000000E-01     -1.765469000000000E+02      6.939697000000000E-01     -9.419140000000000E+01
4846000000.000000      4.732208000000000E-01     -1.594844000000000E+02      4.701233000000000E-01     -7.394140000000000E+01      4.797821000000000E-01     -1.766641000000000E+02      6.973572000000000E-01     -9.428905000000000E+01
4847000000.000000      4.786224000000000E-01     -1.602344000000000E+02      4.722748000000000E-01     -7.437500000000000E+01      4.834442000000000E-01     -1.768594000000000E+02      7.006836000000000E-01     -9.440233000000000E+01
4848000000.000000      4.835510000000000E-01     -1.608516000000000E+02      4.735413000000000E-01     -7.454296000000000E+01      4.872131000000000E-01     -1.769219000000000E+02      7.016907000000000E-01     -9.431641000000000E+01
4849000000.000000      4.881744000000000E-01     -1.617656000000000E+02      4.770813000000000E-01     -7.511719000000000E+01      4.904480000000000E-01     -1.770781000000000E+02      7.044983000000000E-01     -9.445704000000000E+01
4850000000.000000      4.926453000000000E-01     -1.620703000000000E+02      4.794464000000000E-01     -7.533593000000000E+01      4.941406000000000E-01     -1.770859000000000E+02      7.089844000000000E-01     -9.446484000000000E+01
4851000000.000000      4.976196000000000E-01     -1.626406000000000E+02      4.827118000000000E-01     -7.576562000000000E+01      4.977112000000000E-01     -1.772344000000000E+02      7.112122000000000E-01     -9.449610000000000E+01
4852000000.000000      5.021667000000000E-01     -1.633281000000000E+02      4.830475000000000E-01     -7.609375000000000E+01      5.032349000000000E-01     -1.774219000000000E+02      7.142639000000000E-01     -9.458984000000000E+01
4853000000.000000      5.074158000000000E-01     -1.638594000000000E+02      4.842072000000000E-01     -7.629687000000000E+01      5.054016000000000E-01     -1.775547000000000E+02      7.162170000000000E-01     -9.471483000000000E+01
4854000000.000000      5.104980000000000E-01     -1.643672000000000E+02      4.872131000000000E-01     -7.682422000000000E+01      5.089722000000000E-01     -1.777266000000000E+02      7.192078000000000E-01     -9.476171000000000E+01
4855000000.000000      5.135193000000000E-01     -1.649609000000000E+02      4.880066000000000E-01     -7.697656000000000E+01      5.120239000000000E-01     -1.778750000000000E+02      7.224121000000000E-01     -9.471094000000000E+01
4856000000.000000      5.191650000000000E-01     -1.653906000000000E+02      4.902954000000000E-01     -7.726953000000000E+01      5.153809000000000E-01     -1.779375000000000E+02      7.268982000000000E-01     -9.485546000000000E+01
4857000000.000000      5.220642000000000E-01     -1.660312000000000E+02      4.935303000000000E-01     -7.755859000000000E+01      5.199585000000000E-01     -1.780625000000000E+02      7.287292000000000E-01     -9.491405000000000E+01
4858000000.000000      5.242004000000000E-01     -1.664844000000000E+02      4.937134000000000E-01     -7.783593000000000E+01      5.217285000000000E-01     -1.782969000000000E+02      7.309875000000000E-01     -9.488672000000000E+01
4859000000.000000      5.288086000000000E-01     -1.670078000000000E+02      4.958496000000000E-01     -7.818359000000000E+01      5.255127000000000E-01     -1.785625000000000E+02      7.345886000000000E-01     -9.500391000000000E+01
4860000000.000000      5.324097000000000E-01     -1.674297000000000E+02      4.967194000000000E-01     -7.843359000000000E+01      5.283813000000000E-01     -1.786953000000000E+02      7.362366000000000E-01     -9.494532000000000E+01
4861000000.000000      5.355835000000000E-01     -1.678125000000000E+02      4.994507000000000E-01     -7.897655000000000E+01      5.319824000000000E-01     -1.787656000000000E+02      7.392578000000000E-01     -9.501953000000000E+01
4862000000.000000      5.384827000000000E-01     -1.682891000000000E+02      4.999084000000000E-01     -7.907031000000000E+01      5.356445000000000E-01     -1.788672000000000E+02      7.438965000000000E-01     -9.504686000000000E+01
4863000000.000000      5.401306000000000E-01     -1.686641000000000E+02      4.996796000000000E-01     -7.956640000000000E+01      5.390930000000000E-01     -1.791484000000000E+02      7.458496000000000E-01     -9.508984000000000E+01
4864000000.000000      5.432739000000000E-01     -1.690859000000000E+02      5.030212000000000E-01     -7.960546000000000E+01      5.410461000000000E-01     -1.793125000000000E+02      7.478943000000000E-01     -9.511719000000000E+01
4865000000.000000      5.447083000000000E-01     -1.696094000000000E+02      5.025024000000000E-01     -7.992969000000000E+01      5.445251000000000E-01     -1.795312000000000E+02      7.511292000000000E-01     -9.512890000000000E+01
4866000000.000000      5.462036000000000E-01     -1.698203000000000E+02      5.053406000000000E-01     -8.030468000000000E+01      5.474243000000000E-01     -1.797656000000000E+02      7.525330000000000E-01     -9.514452000000000E+01
4867000000.000000      5.486450000000000E-01     -1.701719000000000E+02      5.062561000000000E-01     -8.060156000000000E+01      5.505981000000000E-01     -1.797891000000000E+02      7.554626000000000E-01     -9.520702000000000E+01
4868000000.000000      5.509949000000000E-01     -1.706172000000000E+02      5.076904000000000E-01     -8.078125000000000E+01      5.527954000000000E-01      1.799375000000000E+02      7.583008000000000E-01     -9.532812000000000E+01
4869000000.000000      5.516968000000000E-01     -1.708437000000000E+02      5.072937000000000E-01     -8.121094000000000E+01      5.557251000000000E-01      1.796641000000000E+02      7.623596000000000E-01     -9.541016000000000E+01
4870000000.000000      5.530396000000000E-01     -1.712031000000000E+02      5.088501000000000E-01     -8.113672000000000E+01      5.574646000000000E-01      1.794297000000000E+02      7.650146000000000E-01     -9.530859000000000E+01
4871000000.000000      5.550537000000000E-01     -1.714531000000000E+02      5.096741000000000E-01     -8.151562000000000E+01      5.590820000000000E-01      1.792500000000000E+02      7.663269000000000E-01     -9.544531000000000E+01
4872000000.000000      5.576782000000000E-01     -1.717266000000000E+02      5.091553000000000E-01     -8.153515000000000E+01      5.624084000000000E-01      1.790547000000000E+02      7.697449000000000E-01     -9.552734000000000E+01
4873000000.000000      5.572815000000000E-01     -1.719453000000000E+02      5.115967000000000E-01     -8.211718000000000E+01      5.642700000000000E-01      1.788906000000000E+02      7.723999000000000E-01     -9.555859000000000E+01
4874000000.000000      5.565796000000000E-01     -1.721797000000000E+02      5.122681000000000E-01     -8.235155000000000E+01      5.679626000000000E-01      1.786250000000000E+02      7.742310000000000E-01     -9.550390000000000E+01
4875000000.000000      5.593567000000000E-01     -1.725234000000000E+02      5.127258000000000E-01     -8.241405000000000E+01      5.690613000000000E-01      1.783125000000000E+02      7.758484000000000E-01     -9.559374000000000E+01
4876000000.000000      5.580750000000000E-01     -1.727031000000000E+02      5.128174000000000E-01     -8.267187000000000E+01      5.702515000000000E-01      1.783125000000000E+02      7.785034000000000E-01     -9.571484000000000E+01
4877000000.000000      5.582275000000000E-01     -1.728672000000000E+02      5.147400000000000E-01     -8.287109000000000E+01      5.756226000000000E-01      1.780078000000000E+02      7.805786000000000E-01     -9.577343000000000E+01
4878000000.000000      5.586548000000000E-01     -1.729766000000000E+02      5.150146000000000E-01     -8.294140000000000E+01      5.752258000000000E-01      1.778828000000000E+02      7.825623000000000E-01     -9.580858000000000E+01
4879000000.000000      5.607605000000000E-01     -1.732422000000000E+02      5.156555000000000E-01     -8.317186000000000E+01      5.776978000000000E-01      1.776172000000000E+02      7.854614000000000E-01     -9.567968000000000E+01
4880000000.000000      5.585327000000000E-01     -1.734141000000000E+02      5.170288000000000E-01     -8.346094000000000E+01      5.794678000000000E-01      1.774219000000000E+02      7.857971000000000E-01     -9.579687000000000E+01
4881000000.000000      5.595398000000000E-01     -1.735000000000000E+02      5.187378000000000E-01     -8.357813000000000E+01      5.822754000000000E-01      1.772891000000000E+02      7.879944000000000E-01     -9.584764000000000E+01
4882000000.000000      5.575562000000000E-01     -1.735859000000000E+02      5.195618000000000E-01     -8.379297000000000E+01      5.827942000000000E-01      1.771641000000000E+02      7.893677000000000E-01     -9.593359000000000E+01
