! Network Analyzer HP8722D
! Hewlett-Packard
! Data name: Linha & Wilkinson
! Saver's name: Rodrigo Anjos
! Comments: Teste da utilização de aquisição
continua pelo VNA HP8722D
! Time and date: 17/4/2025 14:35
!              Frequency                     S11                                                   S21                                                   S12                                                   S22
# HZ  S  MA R 50
4800000000.000000      3.334503000000000E-01     -1.132031000000000E+02      2.871094000000000E-01     -6.066992000000000E+01      2.801971000000000E-01     -1.749375000000000E+02      6.560974000000000E-01     -8.996874000000000E+01
4801000000.000000      3.321075000000000E-01     -1.140508000000000E+02      2.906342000000000E-01     -6.080078000000000E+01      2.836151000000000E-01     -1.748437000000000E+02      6.539307000000000E-01     -8.996874000000000E+01
4802000000.000000      3.309631000000000E-01     -1.150273000000000E+02      2.950439000000000E-01     -6.090429000000000E+01      2.883911000000000E-01     -1.747266000000000E+02      6.521606000000000E-01     -8.996094000000000E+01
4803000000.000000      3.307495000000000E-01     -1.161641000000000E+02      3.008270000000000E-01     -6.088672000000000E+01      2.916718000000000E-01     -1.745625000000000E+02      6.522522000000000E-01     -9.015625000000000E+01
4804000000.000000      3.299408000000000E-01     -1.170859000000000E+02      3.040009000000000E-01     -6.108788000000000E+01      2.964172000000000E-01     -1.745391000000000E+02      6.515503000000000E-01     -9.018358000000000E+01
4805000000.000000      3.305511000000000E-01     -1.180430000000000E+02      3.090057000000000E-01     -6.120507000000000E+01      3.001099000000000E-01     -1.743515000000000E+02      6.513062000000000E-01     -9.035936000000000E+01
4806000000.000000      3.294373000000000E-01     -1.190195000000000E+02      3.134918000000000E-01     -6.133203000000000E+01      3.036194000000000E-01     -1.740937000000000E+02      6.513367000000000E-01     -9.043360000000000E+01
4807000000.000000      3.295441000000000E-01     -1.202344000000000E+02      3.177338000000000E-01     -6.147070000000000E+01      3.087311000000000E-01     -1.742109000000000E+02      6.501770000000000E-01     -9.049608000000000E+01
4808000000.000000      3.297577000000000E-01     -1.211406000000000E+02      3.230896000000000E-01     -6.161133000000000E+01      3.132172000000000E-01     -1.740469000000000E+02      6.489868000000000E-01     -9.058203000000000E+01
4809000000.000000      3.302002000000000E-01     -1.222890000000000E+02      3.267670000000000E-01     -6.188086000000000E+01      3.167877000000000E-01     -1.740625000000000E+02      6.483765000000000E-01     -9.077343000000000E+01
4810000000.000000      3.310852000000000E-01     -1.233945000000000E+02      3.311615000000000E-01     -6.185547000000000E+01      3.214417000000000E-01     -1.739922000000000E+02      6.488037000000000E-01     -9.085155000000000E+01
4811000000.000000      3.321838000000000E-01     -1.243945000000000E+02      3.356171000000000E-01     -6.236133000000000E+01      3.252563000000000E-01     -1.737969000000000E+02      6.482849000000000E-01     -9.078905000000000E+01
4812000000.000000      3.332977000000000E-01     -1.255039000000000E+02      3.403320000000000E-01     -6.245507000000000E+01      3.295135000000000E-01     -1.736875000000000E+02      6.482239000000000E-01     -9.098827000000000E+01
4813000000.000000      3.342133000000000E-01     -1.265508000000000E+02      3.441162000000000E-01     -6.272851000000000E+01      3.327332000000000E-01     -1.736562000000000E+02      6.476746000000000E-01     -9.096483000000000E+01
4814000000.000000      3.354340000000000E-01     -1.277422000000000E+02      3.483124000000000E-01     -6.268164000000000E+01      3.363953000000000E-01     -1.736484000000000E+02      6.484985000000000E-01     -9.110937000000000E+01
4815000000.000000      3.369293000000000E-01     -1.286797000000000E+02      3.518219000000000E-01     -6.312890000000000E+01      3.408203000000000E-01     -1.735391000000000E+02      6.473083000000000E-01     -9.114843000000000E+01
4816000000.000000      3.388672000000000E-01     -1.297266000000000E+02      3.570404000000000E-01     -6.311132000000000E+01      3.455200000000000E-01     -1.734922000000000E+02      6.484680000000000E-01     -9.128124000000000E+01
4817000000.000000      3.423004000000000E-01     -1.308594000000000E+02      3.608551000000000E-01     -6.347265000000000E+01      3.490601000000000E-01     -1.735859000000000E+02      6.479492000000000E-01     -9.137499000000000E+01
4818000000.000000      3.439331000000000E-01     -1.320781000000000E+02      3.637848000000000E-01     -6.379687000000000E+01      3.537445000000000E-01     -1.734922000000000E+02      6.489868000000000E-01     -9.143358000000000E+01
4819000000.000000      3.466949000000000E-01     -1.330937000000000E+02      3.681183000000000E-01     -6.399414000000000E+01      3.566132000000000E-01     -1.733984000000000E+02      6.510925000000000E-01     -9.153124000000000E+01
4820000000.000000      3.477936000000000E-01     -1.340234000000000E+02      3.724060000000000E-01     -6.408203000000000E+01      3.616943000000000E-01     -1.734609000000000E+02      6.495056000000000E-01     -9.156641000000000E+01
4821000000.000000      3.511963000000000E-01     -1.352344000000000E+02      3.760529000000000E-01     -6.455078000000000E+01      3.651886000000000E-01     -1.734922000000000E+02      6.498108000000000E-01     -9.162889000000000E+01
4822000000.000000      3.556976000000000E-01     -1.362578000000000E+02      3.789520000000000E-01     -6.455078000000000E+01      3.681183000000000E-01     -1.734688000000000E+02      6.513367000000000E-01     -9.170313000000000E+01
4823000000.000000      3.580322000000000E-01     -1.372344000000000E+02      3.841705000000000E-01     -6.492969000000000E+01      3.727112000000000E-01     -1.731953000000000E+02      6.526184000000000E-01     -9.175781000000000E+01
4824000000.000000      3.618622000000000E-01     -1.384063000000000E+02      3.874664000000000E-01     -6.525781000000000E+01      3.772888000000000E-01     -1.733594000000000E+02      6.528931000000000E-01     -9.184374000000000E+01
4825000000.000000      3.653259000000000E-01     -1.393203000000000E+02      3.906250000000000E-01     -6.540625000000000E+01      3.812256000000000E-01     -1.734062000000000E+02      6.542969000000000E-01     -9.197657000000000E+01
4826000000.000000      3.699188000000000E-01     -1.404141000000000E+02      3.951263000000000E-01     -6.580078000000000E+01      3.842773000000000E-01     -1.734766000000000E+02      6.550293000000000E-01     -9.203905000000000E+01
4827000000.000000      3.734436000000000E-01     -1.411641000000000E+02      3.985291000000000E-01     -6.579687000000000E+01      3.889313000000000E-01     -1.733828000000000E+02      6.576538000000000E-01     -9.209764000000000E+01
4828000000.000000      3.779144000000000E-01     -1.423125000000000E+02      4.028168000000000E-01     -6.626171000000000E+01      3.923950000000000E-01     -1.733281000000000E+02      6.595154000000000E-01     -9.216406000000000E+01
4829000000.000000      3.806610000000000E-01     -1.431250000000000E+02      4.052734000000000E-01     -6.643359000000000E+01      3.965454000000000E-01     -1.733516000000000E+02      6.595764000000000E-01     -9.211329000000000E+01
4830000000.000000      3.859863000000000E-01     -1.440781000000000E+02      4.087524000000000E-01     -6.686718000000000E+01      4.009094000000000E-01     -1.732812000000000E+02      6.608276000000000E-01     -9.232813000000000E+01
4831000000.000000      3.903503000000000E-01     -1.449922000000000E+02      4.121552000000000E-01     -6.716015000000000E+01      4.060211000000000E-01     -1.733047000000000E+02      6.638794000000000E-01     -9.236719000000000E+01
4832000000.000000      3.960876000000000E-01     -1.458984000000000E+02      4.159241000000000E-01     -6.741796000000000E+01      4.091034000000000E-01     -1.734922000000000E+02      6.641541000000000E-01     -9.232813000000000E+01
4833000000.000000      4.006348000000000E-01     -1.468594000000000E+02      4.198914000000000E-01     -6.785156000000000E+01      4.133453000000000E-01     -1.735156000000000E+02      6.660461000000000E-01     -9.251562000000000E+01
4834000000.000000      4.051056000000000E-01     -1.477187000000000E+02      4.223785000000000E-01     -6.803124000000000E+01      4.170685000000000E-01     -1.735234000000000E+02      6.677551000000000E-01     -9.255859000000000E+01
4835000000.000000      4.095154000000000E-01     -1.485078000000000E+02      4.264679000000000E-01     -6.835938000000000E+01      4.221649000000000E-01     -1.735000000000000E+02      6.697388000000000E-01     -9.257030000000000E+01
4836000000.000000      4.157257000000000E-01     -1.493515000000000E+02      4.284973000000000E-01     -6.861718000000000E+01      4.247742000000000E-01     -1.735078000000000E+02      6.719666000000000E-01     -9.260157000000000E+01
4837000000.000000      4.206696000000000E-01     -1.500625000000000E+02      4.331055000000000E-01     -6.920312000000000E+01      4.291992000000000E-01     -1.736875000000000E+02      6.739807000000000E-01     -9.267578000000000E+01
4838000000.000000      4.262695000000000E-01     -1.510156000000000E+02      4.364166000000000E-01     -6.927343000000000E+01      4.342041000000000E-01     -1.737578000000000E+02      6.758728000000000E-01     -9.267969000000000E+01
4839000000.000000      4.309387000000000E-01     -1.516172000000000E+02      4.384613000000000E-01     -6.955859000000000E+01      4.378967000000000E-01     -1.736016000000000E+02      6.791077000000000E-01     -9.269140000000000E+01
4840000000.000000      4.355469000000000E-01     -1.525000000000000E+02      4.415588000000000E-01     -6.987890000000000E+01      4.423828000000000E-01     -1.738516000000000E+02      6.800842000000000E-01     -9.286327000000000E+01
4841000000.000000      4.409485000000000E-01     -1.533672000000000E+02      4.450989000000000E-01     -7.033203000000000E+01      4.462738000000000E-01     -1.739687000000000E+02      6.822510000000000E-01     -9.292578000000000E+01
4842000000.000000      4.464111000000000E-01     -1.539141000000000E+02      4.475708000000000E-01     -7.057422000000000E+01      4.490662000000000E-01     -1.740078000000000E+02      6.854858000000000E-01     -9.285547000000000E+01
4843000000.000000      4.510651000000000E-01     -1.547422000000000E+02      4.504395000000000E-01     -7.099999000000000E+01      4.539948000000000E-01     -1.740937000000000E+02      6.875916000000000E-01     -9.296875000000000E+01
4844000000.000000      4.563446000000000E-01     -1.553906000000000E+02      4.534760000000000E-01     -7.109375000000000E+01      4.582520000000000E-01     -1.741094000000000E+02      6.905823000000000E-01     -9.316406000000000E+01
4845000000.000000      4.615326000000000E-01     -1.560469000000000E+02      4.556427000000000E-01     -7.158593000000000E+01      4.624939000000000E-01     -1.742109000000000E+02      6.928101000000000E-01     -9.299999000000000E+01
4846000000.000000      4.662781000000000E-01     -1.566562000000000E+02      4.586334000000000E-01     -7.173046000000000E+01      4.667511000000000E-01     -1.743125000000000E+02      6.945496000000000E-01     -9.319921000000000E+01
4847000000.000000      4.725494000000000E-01     -1.573984000000000E+02      4.606476000000000E-01     -7.221093000000000E+01      4.709320000000000E-01     -1.745156000000000E+02      6.990662000000000E-01     -9.315233000000000E+01
4848000000.000000      4.771271000000000E-01     -1.579922000000000E+02      4.630127000000000E-01     -7.246484000000000E+01      4.743347000000000E-01     -1.746172000000000E+02      7.007141000000000E-01     -9.323828000000000E+01
4849000000.000000      4.818115000000000E-01     -1.588438000000000E+02      4.667664000000000E-01     -7.292969000000000E+01      4.786835000000000E-01     -1.747578000000000E+02      7.040710000000000E-01     -9.328516000000000E+01
4850000000.000000      4.867249000000000E-01     -1.592734000000000E+02      4.692230000000000E-01     -7.319530000000000E+01      4.827423000000000E-01     -1.748047000000000E+02      7.063293000000000E-01     -9.328516000000000E+01
4851000000.000000      4.915619000000000E-01     -1.598672000000000E+02      4.713287000000000E-01     -7.362109000000000E+01      4.860840000000000E-01     -1.749219000000000E+02      7.101746000000000E-01     -9.322657000000000E+01
4852000000.000000      4.967651000000000E-01     -1.604531000000000E+02      4.739685000000000E-01     -7.383594000000000E+01      4.907074000000000E-01     -1.749766000000000E+02      7.117004000000000E-01     -9.333984000000000E+01
4853000000.000000      5.019226000000000E-01     -1.610234000000000E+02      4.751282000000000E-01     -7.405468000000000E+01      4.947968000000000E-01     -1.752500000000000E+02      7.142944000000000E-01     -9.352343000000000E+01
4854000000.000000      5.052185000000000E-01     -1.615781000000000E+02      4.773865000000000E-01     -7.453906000000000E+01      4.980316000000000E-01     -1.753594000000000E+02      7.162781000000000E-01     -9.340624000000000E+01
4855000000.000000      5.093384000000000E-01     -1.621562000000000E+02      4.795532000000000E-01     -7.473827000000000E+01      5.014343000000000E-01     -1.754375000000000E+02      7.199402000000000E-01     -9.351563000000000E+01
4856000000.000000      5.142517000000000E-01     -1.626328000000000E+02      4.820099000000000E-01     -7.499609000000000E+01      5.052795000000000E-01     -1.756641000000000E+02      7.236023000000000E-01     -9.357031000000000E+01
4857000000.000000      5.184631000000000E-01     -1.631406000000000E+02      4.838257000000000E-01     -7.535546000000000E+01      5.088501000000000E-01     -1.758281000000000E+02      7.252502000000000E-01     -9.353516000000000E+01
4858000000.000000      5.203857000000000E-01     -1.636719000000000E+02      4.852905000000000E-01     -7.562109000000000E+01      5.128174000000000E-01     -1.758125000000000E+02      7.289429000000000E-01     -9.360937000000000E+01
4859000000.000000      5.246277000000000E-01     -1.642031000000000E+02      4.870300000000000E-01     -7.602734000000000E+01      5.160522000000000E-01     -1.762500000000000E+02      7.336426000000000E-01     -9.373047000000000E+01
4860000000.000000      5.293579000000000E-01     -1.646719000000000E+02      4.911957000000000E-01     -7.629296000000000E+01      5.196533000000000E-01     -1.761328000000000E+02      7.347412000000000E-01     -9.360546000000000E+01
4861000000.000000      5.328369000000000E-01     -1.650625000000000E+02      4.900360000000000E-01     -7.666016000000000E+01      5.242004000000000E-01     -1.765000000000000E+02      7.374573000000000E-01     -9.383593000000000E+01
4862000000.000000      5.355225000000000E-01     -1.655156000000000E+02      4.927521000000000E-01     -7.681250000000000E+01      5.284119000000000E-01     -1.766562000000000E+02      7.421265000000000E-01     -9.379686000000000E+01
4863000000.000000      5.380859000000000E-01     -1.659062000000000E+02      4.938965000000000E-01     -7.733593000000000E+01      5.305481000000000E-01     -1.767266000000000E+02      7.441406000000000E-01     -9.381250000000000E+01
4864000000.000000      5.414429000000000E-01     -1.663359000000000E+02      4.962311000000000E-01     -7.728906000000000E+01      5.330200000000000E-01     -1.769140000000000E+02      7.466431000000000E-01     -9.392969000000000E+01
4865000000.000000      5.435486000000000E-01     -1.668750000000000E+02      4.978027000000000E-01     -7.766796000000000E+01      5.358887000000000E-01     -1.772266000000000E+02      7.498474000000000E-01     -9.372656000000000E+01
4866000000.000000      5.455933000000000E-01     -1.670859000000000E+02      4.988098000000000E-01     -7.803515000000000E+01      5.401611000000000E-01     -1.774062000000000E+02      7.513428000000000E-01     -9.387499000000000E+01
4867000000.000000      5.478821000000000E-01     -1.675625000000000E+02      5.009766000000000E-01     -7.856250000000000E+01      5.437622000000000E-01     -1.776406000000000E+02      7.551270000000000E-01     -9.395311000000000E+01
4868000000.000000      5.509033000000000E-01     -1.679297000000000E+02      5.026550000000000E-01     -7.880077000000000E+01      5.475464000000000E-01     -1.778828000000000E+02      7.585449000000000E-01     -9.380859000000000E+01
4869000000.000000      5.521240000000000E-01     -1.682656000000000E+02      5.032349000000000E-01     -7.894140000000000E+01      5.494385000000000E-01     -1.780859000000000E+02      7.611694000000000E-01     -9.414843000000000E+01
4870000000.000000      5.545654000000000E-01     -1.685000000000000E+02      5.038452000000000E-01     -7.901172000000000E+01      5.523987000000000E-01     -1.781953000000000E+02      7.640381000000000E-01     -9.400000000000000E+01
4871000000.000000      5.565491000000000E-01     -1.688828000000000E+02      5.060120000000000E-01     -7.944921000000000E+01      5.543213000000000E-01     -1.785938000000000E+02      7.654724000000000E-01     -9.417578000000000E+01
4872000000.000000      5.586243000000000E-01     -1.690781000000000E+02      5.053711000000000E-01     -7.953906000000000E+01      5.565186000000000E-01     -1.788047000000000E+02      7.684631000000000E-01     -9.415625000000000E+01
4873000000.000000      5.580444000000000E-01     -1.692969000000000E+02      5.070496000000000E-01     -7.983984000000000E+01      5.592346000000000E-01     -1.789375000000000E+02      7.707825000000000E-01     -9.429296000000000E+01
4874000000.000000      5.595093000000000E-01     -1.696172000000000E+02      5.082397000000000E-01     -8.026171000000000E+01      5.640869000000000E-01     -1.791172000000000E+02      7.726440000000000E-01     -9.420313000000000E+01
4875000000.000000      5.614014000000000E-01     -1.699531000000000E+02      5.088196000000000E-01     -8.044531000000000E+01      5.645752000000000E-01     -1.792969000000000E+02      7.755432000000000E-01     -9.428125000000000E+01
4876000000.000000      5.613403000000000E-01     -1.701953000000000E+02      5.090942000000000E-01     -8.078516000000000E+01      5.655823000000000E-01     -1.795703000000000E+02      7.782288000000000E-01     -9.435938000000000E+01
4877000000.000000      5.620728000000000E-01     -1.703594000000000E+02      5.111694000000000E-01     -8.090624000000000E+01      5.686340000000000E-01     -1.797344000000000E+02      7.806091000000000E-01     -9.442577000000000E+01
4878000000.000000      5.632935000000000E-01     -1.705156000000000E+02      5.136414000000000E-01     -8.110937000000000E+01      5.713501000000000E-01     -1.798516000000000E+02      7.824097000000000E-01     -9.446484000000000E+01
4879000000.000000      5.634766000000000E-01     -1.707422000000000E+02      5.113220000000000E-01     -8.116014000000000E+01      5.734558000000000E-01      1.797656000000000E+02      7.845154000000000E-01     -9.435547000000000E+01
4880000000.000000      5.632019000000000E-01     -1.708437000000000E+02      5.138855000000000E-01     -8.130468000000000E+01      5.762634000000000E-01      1.796094000000000E+02      7.875977000000000E-01     -9.442577000000000E+01
4881000000.000000      5.635681000000000E-01     -1.709609000000000E+02      5.149231000000000E-01     -8.162109000000000E+01      5.790710000000000E-01      1.792500000000000E+02      7.902832000000000E-01     -9.460155000000000E+01
4882000000.000000      5.627136000000000E-01     -1.711641000000000E+02      5.166016000000000E-01     -8.192186000000000E+01      5.810547000000000E-01      1.791797000000000E+02      7.916870000000000E-01     -9.458984000000000E+01
