! Network Analyzer HP8722D
! Hewlett-Packard
! Data name: Linha & Wilkinson
! Saver's name: Rodrigo Anjos
! Comments: Teste da utilização de aquisição
continua pelo VNA HP8722D
! Time and date: 17/4/2025 16:20
!              Frequency                     S11                                                   S21                                                   S12                                                   S22
# HZ  S  MA R 50
4800000000.000000      3.337402000000000E-01     -1.134844000000000E+02      2.903137000000000E-01     -6.085742000000000E+01      2.841949000000000E-01     -1.750859000000000E+02      6.569824000000000E-01     -9.008204000000000E+01
4801000000.000000      3.330688000000000E-01     -1.144531000000000E+02      2.948303000000000E-01     -6.081055000000000E+01      2.882080000000000E-01     -1.748984000000000E+02      6.553955000000000E-01     -9.015234000000000E+01
4802000000.000000      3.314667000000000E-01     -1.154844000000000E+02      2.995148000000000E-01     -6.081249000000000E+01      2.931061000000000E-01     -1.747578000000000E+02      6.539001000000000E-01     -9.015234000000000E+01
4803000000.000000      3.313599000000000E-01     -1.164258000000000E+02      3.044891000000000E-01     -6.107616000000000E+01      2.962646000000000E-01     -1.745937000000000E+02      6.531067000000000E-01     -9.028124000000000E+01
4804000000.000000      3.305969000000000E-01     -1.173867000000000E+02      3.086853000000000E-01     -6.098046000000000E+01      3.006897000000000E-01     -1.745859000000000E+02      6.526489000000000E-01     -9.030859000000000E+01
4805000000.000000      3.307343000000000E-01     -1.184492000000000E+02      3.135223000000000E-01     -6.129687000000000E+01      3.043823000000000E-01     -1.743906000000000E+02      6.521301000000000E-01     -9.057421000000000E+01
4806000000.000000      3.301086000000000E-01     -1.194258000000000E+02      3.176727000000000E-01     -6.144531000000000E+01      3.079987000000000E-01     -1.742891000000000E+02      6.520081000000000E-01     -9.058985000000000E+01
4807000000.000000      3.303680000000000E-01     -1.205273000000000E+02      3.220062000000000E-01     -6.162499000000000E+01      3.126984000000000E-01     -1.743281000000000E+02      6.499329000000000E-01     -9.066015000000000E+01
4808000000.000000      3.307190000000000E-01     -1.214922000000000E+02      3.269501000000000E-01     -6.150585000000000E+01      3.160858000000000E-01     -1.742891000000000E+02      6.501465000000000E-01     -9.058985000000000E+01
4809000000.000000      3.309021000000000E-01     -1.226523000000000E+02      3.310089000000000E-01     -6.217968000000000E+01      3.207703000000000E-01     -1.742500000000000E+02      6.499023000000000E-01     -9.088671000000000E+01
4810000000.000000      3.314667000000000E-01     -1.238555000000000E+02      3.349915000000000E-01     -6.211132000000000E+01      3.253479000000000E-01     -1.741406000000000E+02      6.488647000000000E-01     -9.100780000000000E+01
4811000000.000000      3.323212000000000E-01     -1.248672000000000E+02      3.401642000000000E-01     -6.252734000000000E+01      3.292542000000000E-01     -1.739766000000000E+02      6.491394000000000E-01     -9.095703000000000E+01
4812000000.000000      3.340607000000000E-01     -1.258555000000000E+02      3.448029000000000E-01     -6.258789000000000E+01      3.336945000000000E-01     -1.739375000000000E+02      6.475525000000000E-01     -9.111328000000000E+01
4813000000.000000      3.347626000000000E-01     -1.269765000000000E+02      3.469849000000000E-01     -6.271289000000000E+01      3.363800000000000E-01     -1.737969000000000E+02      6.488647000000000E-01     -9.124218000000000E+01
4814000000.000000      3.359070000000000E-01     -1.282344000000000E+02      3.518219000000000E-01     -6.296875000000000E+01      3.401031000000000E-01     -1.738672000000000E+02      6.483459000000000E-01     -9.123827000000000E+01
4815000000.000000      3.374786000000000E-01     -1.290781000000000E+02      3.558807000000000E-01     -6.321679000000000E+01      3.445129000000000E-01     -1.737969000000000E+02      6.481934000000000E-01     -9.121485000000000E+01
4816000000.000000      3.397369000000000E-01     -1.301797000000000E+02      3.600006000000000E-01     -6.337891000000000E+01      3.490143000000000E-01     -1.737187000000000E+02      6.483459000000000E-01     -9.127733000000000E+01
4817000000.000000      3.423004000000000E-01     -1.312578000000000E+02      3.648682000000000E-01     -6.357422000000000E+01      3.531036000000000E-01     -1.737734000000000E+02      6.475525000000000E-01     -9.153906000000000E+01
4818000000.000000      3.444366000000000E-01     -1.323828000000000E+02      3.666992000000000E-01     -6.402344000000000E+01      3.568878000000000E-01     -1.737187000000000E+02      6.495361000000000E-01     -9.153515000000000E+01
4819000000.000000      3.472137000000000E-01     -1.334922000000000E+02      3.715820000000000E-01     -6.412890000000000E+01      3.602753000000000E-01     -1.736406000000000E+02      6.508789000000000E-01     -9.167187000000000E+01
4820000000.000000      3.487854000000000E-01     -1.345391000000000E+02      3.751068000000000E-01     -6.431641000000000E+01      3.649445000000000E-01     -1.737187000000000E+02      6.510620000000000E-01     -9.174219000000000E+01
4821000000.000000      3.522339000000000E-01     -1.356562000000000E+02      3.795776000000000E-01     -6.459765000000000E+01      3.683472000000000E-01     -1.737813000000000E+02      6.498108000000000E-01     -9.189844000000000E+01
4822000000.000000      3.567505000000000E-01     -1.367109000000000E+02      3.826294000000000E-01     -6.486328000000000E+01      3.719788000000000E-01     -1.737109000000000E+02      6.527710000000000E-01     -9.191797000000000E+01
4823000000.000000      3.591156000000000E-01     -1.376719000000000E+02      3.876038000000000E-01     -6.519140000000000E+01      3.760681000000000E-01     -1.735781000000000E+02      6.526184000000000E-01     -9.198437000000000E+01
4824000000.000000      3.633118000000000E-01     -1.387812000000000E+02      3.906708000000000E-01     -6.537499000000000E+01      3.819733000000000E-01     -1.736406000000000E+02      6.542664000000000E-01     -9.207422000000000E+01
4825000000.000000      3.662262000000000E-01     -1.397266000000000E+02      3.940430000000000E-01     -6.567187000000000E+01      3.856201000000000E-01     -1.736641000000000E+02      6.549072000000000E-01     -9.207422000000000E+01
4826000000.000000      3.709717000000000E-01     -1.407344000000000E+02      3.980560000000000E-01     -6.610546000000000E+01      3.874817000000000E-01     -1.736719000000000E+02      6.554871000000000E-01     -9.214453000000000E+01
4827000000.000000      3.747406000000000E-01     -1.416406000000000E+02      4.019470000000000E-01     -6.625781000000000E+01      3.917542000000000E-01     -1.736641000000000E+02      6.577759000000000E-01     -9.218359000000000E+01
4828000000.000000      3.791046000000000E-01     -1.426797000000000E+02      4.053955000000000E-01     -6.649219000000000E+01      3.962860000000000E-01     -1.735859000000000E+02      6.597290000000000E-01     -9.228516000000000E+01
4829000000.000000      3.819885000000000E-01     -1.435625000000000E+02      4.083862000000000E-01     -6.675390000000000E+01      3.997040000000000E-01     -1.736719000000000E+02      6.604919000000000E-01     -9.220312000000000E+01
4830000000.000000      3.876038000000000E-01     -1.445469000000000E+02      4.117126000000000E-01     -6.715234000000000E+01      4.040222000000000E-01     -1.736016000000000E+02      6.618652000000000E-01     -9.242579000000000E+01
4831000000.000000      3.915863000000000E-01     -1.453984000000000E+02      4.152222000000000E-01     -6.747656000000000E+01      4.088440000000000E-01     -1.736328000000000E+02      6.637573000000000E-01     -9.258204000000000E+01
4832000000.000000      3.968658000000000E-01     -1.463047000000000E+02      4.195709000000000E-01     -6.771093000000000E+01      4.124756000000000E-01     -1.736797000000000E+02      6.661682000000000E-01     -9.262499000000000E+01
4833000000.000000      4.016266000000000E-01     -1.472891000000000E+02      4.228973000000000E-01     -6.791406000000000E+01      4.165802000000000E-01     -1.737500000000000E+02      6.665344000000000E-01     -9.251953000000000E+01
4834000000.000000      4.062653000000000E-01     -1.481328000000000E+02      4.259644000000000E-01     -6.820703000000000E+01      4.199066000000000E-01     -1.737656000000000E+02      6.674805000000000E-01     -9.272264000000000E+01
4835000000.000000      4.110718000000000E-01     -1.489531000000000E+02      4.294281000000000E-01     -6.864843000000000E+01      4.248962000000000E-01     -1.738125000000000E+02      6.711731000000000E-01     -9.276171000000000E+01
4836000000.000000      4.168854000000000E-01     -1.497109000000000E+02      4.319153000000000E-01     -6.885937000000000E+01      4.282532000000000E-01     -1.738437000000000E+02      6.721191000000000E-01     -9.271093000000000E+01
4837000000.000000      4.221802000000000E-01     -1.505781000000000E+02      4.352417000000000E-01     -6.940234000000000E+01      4.318390000000000E-01     -1.740391000000000E+02      6.747437000000000E-01     -9.284765000000000E+01
4838000000.000000      4.270020000000000E-01     -1.514531000000000E+02      4.389191000000000E-01     -6.958202000000000E+01      4.367828000000000E-01     -1.740000000000000E+02      6.771545000000000E-01     -9.291796000000000E+01
4839000000.000000      4.321594000000000E-01     -1.521016000000000E+02      4.410553000000000E-01     -6.977734000000000E+01      4.404144000000000E-01     -1.739844000000000E+02      6.788940000000000E-01     -9.280077000000000E+01
4840000000.000000      4.364014000000000E-01     -1.530000000000000E+02      4.445038000000000E-01     -7.015234000000000E+01      4.452515000000000E-01     -1.740703000000000E+02      6.811218000000000E-01     -9.299999000000000E+01
4841000000.000000      4.423370000000000E-01     -1.537812000000000E+02      4.473114000000000E-01     -7.070703000000000E+01      4.499207000000000E-01     -1.742891000000000E+02      6.832581000000000E-01     -9.305079000000000E+01
4842000000.000000      4.476624000000000E-01     -1.543516000000000E+02      4.505005000000000E-01     -7.071875000000000E+01      4.518433000000000E-01     -1.742656000000000E+02      6.854553000000000E-01     -9.305859000000000E+01
4843000000.000000      4.523010000000000E-01     -1.551875000000000E+02      4.533386000000000E-01     -7.123047000000000E+01      4.567719000000000E-01     -1.743984000000000E+02      6.876831000000000E-01     -9.306641000000000E+01
4844000000.000000      4.575348000000000E-01     -1.558594000000000E+02      4.553680000000000E-01     -7.149219000000000E+01      4.599609000000000E-01     -1.745000000000000E+02      6.906433000000000E-01     -9.310938000000000E+01
4845000000.000000      4.624939000000000E-01     -1.565312000000000E+02      4.579163000000000E-01     -7.174609000000000E+01      4.650574000000000E-01     -1.745781000000000E+02      6.925354000000000E-01     -9.324610000000000E+01
4846000000.000000      4.677124000000000E-01     -1.571172000000000E+02      4.598846000000000E-01     -7.209374000000000E+01      4.692383000000000E-01     -1.746484000000000E+02      6.959839000000000E-01     -9.324999000000000E+01
4847000000.000000      4.736328000000000E-01     -1.578047000000000E+02      4.635468000000000E-01     -7.243359000000000E+01      4.736633000000000E-01     -1.748125000000000E+02      6.992188000000000E-01     -9.335546000000000E+01
4848000000.000000      4.782715000000000E-01     -1.584531000000000E+02      4.649506000000000E-01     -7.264843000000000E+01      4.767761000000000E-01     -1.748359000000000E+02      7.005005000000000E-01     -9.342577000000000E+01
4849000000.000000      4.833221000000000E-01     -1.593359000000000E+02      4.686127000000000E-01     -7.319530000000000E+01      4.811554000000000E-01     -1.750469000000000E+02      7.046509000000000E-01     -9.338282000000000E+01
4850000000.000000      4.877167000000000E-01     -1.596875000000000E+02      4.704742000000000E-01     -7.332031000000000E+01      4.850159000000000E-01     -1.750859000000000E+02      7.070007000000000E-01     -9.340235000000000E+01
4851000000.000000      4.931641000000000E-01     -1.602813000000000E+02      4.743042000000000E-01     -7.386328000000000E+01      4.884949000000000E-01     -1.752031000000000E+02      7.109070000000000E-01     -9.339453000000000E+01
4852000000.000000      4.976044000000000E-01     -1.608828000000000E+02      4.754944000000000E-01     -7.408593000000000E+01      4.929352000000000E-01     -1.753359000000000E+02      7.122803000000000E-01     -9.350000000000000E+01
4853000000.000000      5.024109000000000E-01     -1.614297000000000E+02      4.764709000000000E-01     -7.433203000000000E+01      4.981079000000000E-01     -1.755703000000000E+02      7.149963000000000E-01     -9.361719000000000E+01
4854000000.000000      5.062561000000000E-01     -1.619609000000000E+02      4.796600000000000E-01     -7.482812000000000E+01      5.010071000000000E-01     -1.756641000000000E+02      7.176819000000000E-01     -9.365234000000000E+01
4855000000.000000      5.098572000000000E-01     -1.626094000000000E+02      4.805450000000000E-01     -7.515234000000000E+01      5.035706000000000E-01     -1.758047000000000E+02      7.202759000000000E-01     -9.358593000000000E+01
4856000000.000000      5.151062000000000E-01     -1.630078000000000E+02      4.832306000000000E-01     -7.528125000000000E+01      5.071106000000000E-01     -1.758359000000000E+02      7.244873000000000E-01     -9.373438000000000E+01
4857000000.000000      5.196533000000000E-01     -1.636484000000000E+02      4.855957000000000E-01     -7.572266000000000E+01      5.115356000000000E-01     -1.760391000000000E+02      7.276001000000000E-01     -9.366796000000000E+01
4858000000.000000      5.211487000000000E-01     -1.641797000000000E+02      4.872589000000000E-01     -7.584765000000000E+01      5.147095000000000E-01     -1.762578000000000E+02      7.289124000000000E-01     -9.392578000000000E+01
4859000000.000000      5.264282000000000E-01     -1.646484000000000E+02      4.897308000000000E-01     -7.621094000000000E+01      5.171814000000000E-01     -1.765234000000000E+02      7.340393000000000E-01     -9.394922000000000E+01
4860000000.000000      5.301514000000000E-01     -1.650547000000000E+02      4.904938000000000E-01     -7.648046000000000E+01      5.216370000000000E-01     -1.766016000000000E+02      7.340088000000000E-01     -9.376562000000000E+01
4861000000.000000      5.327148000000000E-01     -1.655078000000000E+02      4.937744000000000E-01     -7.714062000000000E+01      5.260315000000000E-01     -1.768750000000000E+02      7.363892000000000E-01     -9.392578000000000E+01
4862000000.000000      5.359192000000000E-01     -1.659297000000000E+02      4.946442000000000E-01     -7.723827000000000E+01      5.282898000000000E-01     -1.769687000000000E+02      7.422791000000000E-01     -9.386328000000000E+01
4863000000.000000      5.382385000000000E-01     -1.662656000000000E+02      4.936676000000000E-01     -7.762500000000000E+01      5.332031000000000E-01     -1.771406000000000E+02      7.427368000000000E-01     -9.402344000000000E+01
4864000000.000000      5.417480000000000E-01     -1.667578000000000E+02      4.974823000000000E-01     -7.766406000000000E+01      5.353699000000000E-01     -1.773906000000000E+02      7.462158000000000E-01     -9.408983000000000E+01
4865000000.000000      5.439758000000000E-01     -1.672812000000000E+02      4.977112000000000E-01     -7.807422000000000E+01      5.382690000000000E-01     -1.774688000000000E+02      7.506104000000000E-01     -9.391405000000000E+01
4866000000.000000      5.461121000000000E-01     -1.675156000000000E+02      4.986725000000000E-01     -7.836719000000000E+01      5.413818000000000E-01     -1.777812000000000E+02      7.527466000000000E-01     -9.398438000000000E+01
4867000000.000000      5.491638000000000E-01     -1.679219000000000E+02      5.024719000000000E-01     -7.856640000000000E+01      5.444336000000000E-01     -1.779687000000000E+02      7.555237000000000E-01     -9.412109000000000E+01
4868000000.000000      5.506592000000000E-01     -1.683672000000000E+02      5.024414000000000E-01     -7.890234000000000E+01      5.489197000000000E-01     -1.781641000000000E+02      7.590637000000000E-01     -9.408983000000000E+01
4869000000.000000      5.516357000000000E-01     -1.685390000000000E+02      5.033569000000000E-01     -7.921875000000000E+01      5.498657000000000E-01     -1.783984000000000E+02      7.609253000000000E-01     -9.430859000000000E+01
4870000000.000000      5.536194000000000E-01     -1.688203000000000E+02      5.043335000000000E-01     -7.930859000000000E+01      5.534973000000000E-01     -1.785312000000000E+02      7.641296000000000E-01     -9.415234000000000E+01
4871000000.000000      5.557861000000000E-01     -1.692734000000000E+02      5.064087000000000E-01     -7.993359000000000E+01      5.556946000000000E-01     -1.788281000000000E+02      7.659302000000000E-01     -9.433203000000000E+01
4872000000.000000      5.577087000000000E-01     -1.695156000000000E+02      5.064697000000000E-01     -7.970703000000000E+01      5.581665000000000E-01     -1.791953000000000E+02      7.692261000000000E-01     -9.439062000000000E+01
4873000000.000000      5.579834000000000E-01     -1.697500000000000E+02      5.069885000000000E-01     -8.020311000000000E+01      5.593262000000000E-01     -1.792187000000000E+02      7.701111000000000E-01     -9.437891000000000E+01
4874000000.000000      5.589600000000000E-01     -1.700234000000000E+02      5.083008000000000E-01     -8.064453000000000E+01      5.644226000000000E-01     -1.793281000000000E+02      7.737122000000000E-01     -9.420702000000000E+01
4875000000.000000      5.614319000000000E-01     -1.703359000000000E+02      5.097351000000000E-01     -8.070704000000000E+01      5.642700000000000E-01     -1.797344000000000E+02      7.737427000000000E-01     -9.452734000000000E+01
4876000000.000000      5.605164000000000E-01     -1.705781000000000E+02      5.108032000000000E-01     -8.091797000000000E+01      5.671692000000000E-01     -1.797578000000000E+02      7.787170000000000E-01     -9.455078000000000E+01
4877000000.000000      5.614014000000000E-01     -1.706563000000000E+02      5.119019000000000E-01     -8.109375000000000E+01      5.709839000000000E-01      1.798437000000000E+02      7.805176000000000E-01     -9.453905000000000E+01
4878000000.000000      5.619812000000000E-01     -1.708359000000000E+02      5.130310000000000E-01     -8.130859000000000E+01      5.712280000000000E-01      1.796328000000000E+02      7.833252000000000E-01     -9.469921000000000E+01
4879000000.000000      5.626831000000000E-01     -1.710312000000000E+02      5.134277000000000E-01     -8.152735000000000E+01      5.754395000000000E-01      1.795156000000000E+02      7.851257000000000E-01     -9.462891000000000E+01
4880000000.000000      5.616150000000000E-01     -1.712265000000000E+02      5.140686000000000E-01     -8.179688000000000E+01      5.769653000000000E-01      1.794609000000000E+02      7.875977000000000E-01     -9.458593000000000E+01
4881000000.000000      5.632324000000000E-01     -1.712891000000000E+02      5.155640000000000E-01     -8.193750000000000E+01      5.777588000000000E-01      1.789531000000000E+02      7.897644000000000E-01     -9.473436000000000E+01
4882000000.000000      5.613708000000000E-01     -1.715234000000000E+02      5.174561000000000E-01     -8.202343000000000E+01      5.795593000000000E-01      1.788359000000000E+02      7.910461000000000E-01     -9.473047000000000E+01
