! Network Analyzer HP8722D
! Hewlett-Packard
! Data name: Linha & Wilkinson
! Saver's name: Rodrigo Anjos
! Comments: Teste da utilização de aquisição
continua pelo VNA HP8722D
! Time and date: 17/4/2025 15:49
!              Frequency                     S11                                                   S21                                                   S12                                                   S22
# HZ  S  MA R 50
4800000000.000000      3.348846000000000E-01     -1.154219000000000E+02      3.048401000000000E-01     -6.164063000000000E+01      2.989349000000000E-01     -1.758984000000000E+02      6.566467000000000E-01     -9.086718000000000E+01
4801000000.000000      3.343506000000000E-01     -1.163984000000000E+02      3.096466000000000E-01     -6.164063000000000E+01      3.021851000000000E-01     -1.758125000000000E+02      6.561584000000000E-01     -9.091797000000000E+01
4802000000.000000      3.336487000000000E-01     -1.173047000000000E+02      3.136749000000000E-01     -6.171288000000000E+01      3.068390000000000E-01     -1.756250000000000E+02      6.547852000000000E-01     -9.098827000000000E+01
4803000000.000000      3.330231000000000E-01     -1.184180000000000E+02      3.188324000000000E-01     -6.191796000000000E+01      3.103790000000000E-01     -1.756484000000000E+02      6.532593000000000E-01     -9.112890000000000E+01
4804000000.000000      3.322449000000000E-01     -1.194648000000000E+02      3.226166000000000E-01     -6.208789000000000E+01      3.150787000000000E-01     -1.756172000000000E+02      6.528625000000000E-01     -9.112108000000000E+01
4805000000.000000      3.333130000000000E-01     -1.203828000000000E+02      3.270569000000000E-01     -6.233398000000000E+01      3.191223000000000E-01     -1.755469000000000E+02      6.539917000000000E-01     -9.132030000000000E+01
4806000000.000000      3.331146000000000E-01     -1.213633000000000E+02      3.317719000000000E-01     -6.247460000000000E+01      3.216858000000000E-01     -1.754062000000000E+02      6.520996000000000E-01     -9.139843000000000E+01
4807000000.000000      3.326874000000000E-01     -1.224375000000000E+02      3.352203000000000E-01     -6.262304000000000E+01      3.256683000000000E-01     -1.755234000000000E+02      6.511536000000000E-01     -9.147655000000000E+01
4808000000.000000      3.329468000000000E-01     -1.235469000000000E+02      3.404999000000000E-01     -6.273632000000000E+01      3.297882000000000E-01     -1.753906000000000E+02      6.508179000000000E-01     -9.153906000000000E+01
4809000000.000000      3.334656000000000E-01     -1.245898000000000E+02      3.442688000000000E-01     -6.334179000000000E+01      3.344269000000000E-01     -1.754531000000000E+02      6.513977000000000E-01     -9.163671000000000E+01
4810000000.000000      3.348694000000000E-01     -1.257695000000000E+02      3.486786000000000E-01     -6.324023000000000E+01      3.380890000000000E-01     -1.752656000000000E+02      6.508484000000000E-01     -9.169531000000000E+01
4811000000.000000      3.359070000000000E-01     -1.267305000000000E+02      3.526459000000000E-01     -6.371875000000000E+01      3.432465000000000E-01     -1.752187000000000E+02      6.501770000000000E-01     -9.172655000000000E+01
4812000000.000000      3.375854000000000E-01     -1.278086000000000E+02      3.571167000000000E-01     -6.380468000000000E+01      3.464355000000000E-01     -1.751953000000000E+02      6.503906000000000E-01     -9.174219000000000E+01
4813000000.000000      3.381500000000000E-01     -1.288750000000000E+02      3.607483000000000E-01     -6.403125000000000E+01      3.492126000000000E-01     -1.750625000000000E+02      6.500549000000000E-01     -9.191406000000000E+01
4814000000.000000      3.390656000000000E-01     -1.301406000000000E+02      3.645020000000000E-01     -6.422265000000000E+01      3.536530000000000E-01     -1.751797000000000E+02      6.503906000000000E-01     -9.205078000000000E+01
4815000000.000000      3.416901000000000E-01     -1.312109000000000E+02      3.686523000000000E-01     -6.437109000000000E+01      3.572540000000000E-01     -1.751016000000000E+02      6.491699000000000E-01     -9.202734000000000E+01
4816000000.000000      3.436127000000000E-01     -1.321640000000000E+02      3.728027000000000E-01     -6.473046000000000E+01      3.620758000000000E-01     -1.750547000000000E+02      6.499939000000000E-01     -9.217577000000000E+01
4817000000.000000      3.463440000000000E-01     -1.332344000000000E+02      3.758698000000000E-01     -6.491796000000000E+01      3.657227000000000E-01     -1.751953000000000E+02      6.510010000000000E-01     -9.232813000000000E+01
4818000000.000000      3.482971000000000E-01     -1.344844000000000E+02      3.794250000000000E-01     -6.514453000000000E+01      3.692017000000000E-01     -1.750469000000000E+02      6.509094000000000E-01     -9.240234000000000E+01
4819000000.000000      3.518829000000000E-01     -1.355156000000000E+02      3.836517000000000E-01     -6.555859000000000E+01      3.716736000000000E-01     -1.750391000000000E+02      6.522522000000000E-01     -9.244141000000000E+01
4820000000.000000      3.533630000000000E-01     -1.365000000000000E+02      3.871155000000000E-01     -6.574609000000000E+01      3.774414000000000E-01     -1.750547000000000E+02      6.521912000000000E-01     -9.256250000000000E+01
4821000000.000000      3.564301000000000E-01     -1.377031000000000E+02      3.914948000000000E-01     -6.606250000000000E+01      3.807068000000000E-01     -1.751719000000000E+02      6.515198000000000E-01     -9.265625000000000E+01
4822000000.000000      3.612061000000000E-01     -1.387578000000000E+02      3.951111000000000E-01     -6.624218000000000E+01      3.844452000000000E-01     -1.751328000000000E+02      6.542969000000000E-01     -9.262890000000000E+01
4823000000.000000      3.635254000000000E-01     -1.397734000000000E+02      3.982391000000000E-01     -6.649609000000000E+01      3.883514000000000E-01     -1.750000000000000E+02      6.542053000000000E-01     -9.284374000000000E+01
4824000000.000000      3.684845000000000E-01     -1.408359000000000E+02      4.021759000000000E-01     -6.694140000000000E+01      3.931274000000000E-01     -1.750937000000000E+02      6.559143000000000E-01     -9.278515000000000E+01
4825000000.000000      3.711090000000000E-01     -1.417422000000000E+02      4.051819000000000E-01     -6.703125000000000E+01      3.968353000000000E-01     -1.750625000000000E+02      6.570435000000000E-01     -9.292187000000000E+01
4826000000.000000      3.752441000000000E-01     -1.428437000000000E+02      4.090424000000000E-01     -6.758203000000000E+01      3.995056000000000E-01     -1.752656000000000E+02      6.575012000000000E-01     -9.293360000000000E+01
4827000000.000000      3.794250000000000E-01     -1.436563000000000E+02      4.132080000000000E-01     -6.757030000000000E+01      4.028625000000000E-01     -1.751016000000000E+02      6.596985000000000E-01     -9.302343000000000E+01
4828000000.000000      3.844299000000000E-01     -1.446953000000000E+02      4.162750000000000E-01     -6.798828000000000E+01      4.071503000000000E-01     -1.750703000000000E+02      6.614380000000000E-01     -9.305468000000000E+01
4829000000.000000      3.868408000000000E-01     -1.456328000000000E+02      4.188385000000000E-01     -6.828125000000000E+01      4.114075000000000E-01     -1.752266000000000E+02      6.622925000000000E-01     -9.315624000000000E+01
4830000000.000000      3.924255000000000E-01     -1.465156000000000E+02      4.230347000000000E-01     -6.862109000000000E+01      4.148407000000000E-01     -1.751484000000000E+02      6.633606000000000E-01     -9.332811000000000E+01
4831000000.000000      3.966522000000000E-01     -1.474375000000000E+02      4.259491000000000E-01     -6.894531000000000E+01      4.186707000000000E-01     -1.752031000000000E+02      6.655884000000000E-01     -9.337891000000000E+01
4832000000.000000      4.022980000000000E-01     -1.483047000000000E+02      4.296112000000000E-01     -6.918359000000000E+01      4.227600000000000E-01     -1.752656000000000E+02      6.667786000000000E-01     -9.338671000000000E+01
4833000000.000000      4.073944000000000E-01     -1.492812000000000E+02      4.324646000000000E-01     -6.944530000000000E+01      4.270020000000000E-01     -1.753438000000000E+02      6.694336000000000E-01     -9.350780000000000E+01
4834000000.000000      4.118805000000000E-01     -1.502344000000000E+02      4.356537000000000E-01     -6.986328000000000E+01      4.304199000000000E-01     -1.753750000000000E+02      6.699829000000000E-01     -9.358202000000000E+01
4835000000.000000      4.166260000000000E-01     -1.509140000000000E+02      4.392853000000000E-01     -7.019140000000000E+01      4.357452000000000E-01     -1.754531000000000E+02      6.723633000000000E-01     -9.366405000000000E+01
4836000000.000000      4.219360000000000E-01     -1.517734000000000E+02      4.413605000000000E-01     -7.030078000000000E+01      4.384766000000000E-01     -1.754141000000000E+02      6.734314000000000E-01     -9.360155000000000E+01
4837000000.000000      4.271088000000000E-01     -1.525312000000000E+02      4.445343000000000E-01     -7.099999000000000E+01      4.427490000000000E-01     -1.755703000000000E+02      6.752319000000000E-01     -9.362108000000000E+01
4838000000.000000      4.321594000000000E-01     -1.533828000000000E+02      4.483032000000000E-01     -7.110156000000000E+01      4.465637000000000E-01     -1.755859000000000E+02      6.779175000000000E-01     -9.368359000000000E+01
4839000000.000000      4.374390000000000E-01     -1.540703000000000E+02      4.497223000000000E-01     -7.124609000000000E+01      4.502258000000000E-01     -1.756562000000000E+02      6.805115000000000E-01     -9.367968000000000E+01
4840000000.000000      4.418030000000000E-01     -1.549531000000000E+02      4.529572000000000E-01     -7.164063000000000E+01      4.539032000000000E-01     -1.757578000000000E+02      6.825256000000000E-01     -9.378906000000000E+01
4841000000.000000      4.473419000000000E-01     -1.557812000000000E+02      4.560242000000000E-01     -7.217968000000000E+01      4.580688000000000E-01     -1.759140000000000E+02      6.839294000000000E-01     -9.387110000000000E+01
4842000000.000000      4.531708000000000E-01     -1.563594000000000E+02      4.581604000000000E-01     -7.233203000000000E+01      4.606476000000000E-01     -1.759297000000000E+02      6.879883000000000E-01     -9.386719000000000E+01
4843000000.000000      4.574127000000000E-01     -1.572578000000000E+02      4.617310000000000E-01     -7.278125000000000E+01      4.654694000000000E-01     -1.759844000000000E+02      6.900330000000000E-01     -9.391016000000000E+01
4844000000.000000      4.626923000000000E-01     -1.578047000000000E+02      4.639435000000000E-01     -7.308984000000000E+01      4.691315000000000E-01     -1.761953000000000E+02      6.932373000000000E-01     -9.400391000000000E+01
4845000000.000000      4.675140000000000E-01     -1.584766000000000E+02      4.668121000000000E-01     -7.340234000000000E+01      4.732208000000000E-01     -1.762656000000000E+02      6.943054000000000E-01     -9.409374000000000E+01
4846000000.000000      4.721832000000000E-01     -1.590547000000000E+02      4.684753000000000E-01     -7.364843000000000E+01      4.777222000000000E-01     -1.763203000000000E+02      6.976624000000000E-01     -9.413671000000000E+01
4847000000.000000      4.778748000000000E-01     -1.598672000000000E+02      4.709320000000000E-01     -7.404297000000000E+01      4.814758000000000E-01     -1.764531000000000E+02      7.013855000000000E-01     -9.412109000000000E+01
4848000000.000000      4.827576000000000E-01     -1.603906000000000E+02      4.724274000000000E-01     -7.429296000000000E+01      4.846497000000000E-01     -1.765000000000000E+02      7.026672000000000E-01     -9.422655000000000E+01
4849000000.000000      4.875641000000000E-01     -1.612734000000000E+02      4.763336000000000E-01     -7.468359000000000E+01      4.891357000000000E-01     -1.767187000000000E+02      7.047119000000000E-01     -9.427734000000000E+01
4850000000.000000      4.917145000000000E-01     -1.616875000000000E+02      4.775238000000000E-01     -7.500390000000000E+01      4.926147000000000E-01     -1.768125000000000E+02      7.086182000000000E-01     -9.421484000000000E+01
4851000000.000000      4.966888000000000E-01     -1.622422000000000E+02      4.807434000000000E-01     -7.541016000000000E+01      4.958954000000000E-01     -1.769063000000000E+02      7.113647000000000E-01     -9.428905000000000E+01
4852000000.000000      5.016479000000000E-01     -1.628750000000000E+02      4.831085000000000E-01     -7.574219000000000E+01      4.997406000000000E-01     -1.771250000000000E+02      7.135315000000000E-01     -9.439844000000000E+01
4853000000.000000      5.056458000000000E-01     -1.634766000000000E+02      4.830017000000000E-01     -7.604297000000000E+01      5.041504000000000E-01     -1.772031000000000E+02      7.164612000000000E-01     -9.462109000000000E+01
4854000000.000000      5.096436000000000E-01     -1.639922000000000E+02      4.853210000000000E-01     -7.632030000000000E+01      5.069275000000000E-01     -1.773906000000000E+02      7.199707000000000E-01     -9.443359000000000E+01
4855000000.000000      5.130920000000000E-01     -1.645391000000000E+02      4.873352000000000E-01     -7.668750000000000E+01      5.110779000000000E-01     -1.774375000000000E+02      7.204590000000000E-01     -9.444921000000000E+01
4856000000.000000      5.185242000000000E-01     -1.650156000000000E+02      4.885101000000000E-01     -7.683984000000000E+01      5.154724000000000E-01     -1.776328000000000E+02      7.241516000000000E-01     -9.465624000000000E+01
4857000000.000000      5.223389000000000E-01     -1.655391000000000E+02      4.923706000000000E-01     -7.724999000000000E+01      5.192566000000000E-01     -1.777422000000000E+02      7.286377000000000E-01     -9.462500000000000E+01
4858000000.000000      5.232544000000000E-01     -1.661016000000000E+02      4.942169000000000E-01     -7.760156000000000E+01      5.210266000000000E-01     -1.780156000000000E+02      7.303772000000000E-01     -9.467577000000000E+01
4859000000.000000      5.282593000000000E-01     -1.665625000000000E+02      4.953003000000000E-01     -7.795703000000000E+01      5.238647000000000E-01     -1.781641000000000E+02      7.341614000000000E-01     -9.478125000000000E+01
4860000000.000000      5.325623000000000E-01     -1.670703000000000E+02      4.977570000000000E-01     -7.804688000000000E+01      5.279541000000000E-01     -1.783516000000000E+02      7.349854000000000E-01     -9.471483000000000E+01
4861000000.000000      5.353088000000000E-01     -1.673750000000000E+02      4.973755000000000E-01     -7.844921000000000E+01      5.311890000000000E-01     -1.785000000000000E+02      7.395630000000000E-01     -9.486719000000000E+01
4862000000.000000      5.377808000000000E-01     -1.678906000000000E+02      4.989014000000000E-01     -7.871875000000000E+01      5.357056000000000E-01     -1.786094000000000E+02      7.423096000000000E-01     -9.485937000000000E+01
4863000000.000000      5.397034000000000E-01     -1.682266000000000E+02      5.000305000000000E-01     -7.913280000000000E+01      5.381470000000000E-01     -1.787422000000000E+02      7.454529000000000E-01     -9.481249000000000E+01
4864000000.000000      5.426636000000000E-01     -1.687109000000000E+02      5.009460000000000E-01     -7.928515000000000E+01      5.402222000000000E-01     -1.790390000000000E+02      7.476807000000000E-01     -9.493359000000000E+01
4865000000.000000      5.441895000000000E-01     -1.691406000000000E+02      5.043945000000000E-01     -7.966015000000000E+01      5.422363000000000E-01     -1.791328000000000E+02      7.511597000000000E-01     -9.489061000000000E+01
4866000000.000000      5.473633000000000E-01     -1.694297000000000E+02      5.041809000000000E-01     -7.993359000000000E+01      5.460510000000000E-01     -1.794141000000000E+02      7.536316000000000E-01     -9.494532000000000E+01
4867000000.000000      5.488586000000000E-01     -1.697656000000000E+02      5.054626000000000E-01     -8.018749000000000E+01      5.494385000000000E-01     -1.795078000000000E+02      7.566528000000000E-01     -9.505859000000000E+01
4868000000.000000      5.506592000000000E-01     -1.702109000000000E+02      5.072632000000000E-01     -8.063280000000000E+01      5.534058000000000E-01     -1.798125000000000E+02      7.582397000000000E-01     -9.503515000000000E+01
4869000000.000000      5.518188000000000E-01     -1.704062000000000E+02      5.066223000000000E-01     -8.083202000000000E+01      5.560608000000000E-01     -1.800000000000000E+02      7.619629000000000E-01     -9.524218000000000E+01
4870000000.000000      5.538025000000000E-01     -1.708594000000000E+02      5.090637000000000E-01     -8.091406000000000E+01      5.581055000000000E-01      1.798984000000000E+02      7.646484000000000E-01     -9.514063000000000E+01
4871000000.000000      5.554810000000000E-01     -1.711484000000000E+02      5.091858000000000E-01     -8.144922000000000E+01      5.591431000000000E-01      1.797656000000000E+02      7.655029000000000E-01     -9.528515000000000E+01
4872000000.000000      5.569763000000000E-01     -1.713984000000000E+02      5.102234000000000E-01     -8.139843000000000E+01      5.614319000000000E-01      1.792344000000000E+02      7.687683000000000E-01     -9.526171000000000E+01
4873000000.000000      5.574036000000000E-01     -1.715859000000000E+02      5.114136000000000E-01     -8.162500000000000E+01      5.643311000000000E-01      1.792812000000000E+02      7.721863000000000E-01     -9.528906000000000E+01
4874000000.000000      5.575256000000000E-01     -1.718437000000000E+02      5.115662000000000E-01     -8.209764000000000E+01      5.664673000000000E-01      1.791250000000000E+02      7.719421000000000E-01     -9.522655000000000E+01
4875000000.000000      5.585022000000000E-01     -1.720234000000000E+02      5.127563000000000E-01     -8.214453000000000E+01      5.686340000000000E-01      1.786484000000000E+02      7.757874000000000E-01     -9.547266000000000E+01
4876000000.000000      5.589600000000000E-01     -1.723828000000000E+02      5.130615000000000E-01     -8.235155000000000E+01      5.697937000000000E-01      1.785938000000000E+02      7.784119000000000E-01     -9.536327000000000E+01
4877000000.000000      5.593872000000000E-01     -1.724453000000000E+02      5.149841000000000E-01     -8.243750000000000E+01      5.733032000000000E-01      1.782266000000000E+02      7.805176000000000E-01     -9.561327000000000E+01
4878000000.000000      5.598755000000000E-01     -1.727656000000000E+02      5.152283000000000E-01     -8.270702000000000E+01      5.747986000000000E-01      1.782734000000000E+02      7.824097000000000E-01     -9.559374000000000E+01
4879000000.000000      5.605774000000000E-01     -1.728750000000000E+02      5.160828000000000E-01     -8.292578000000000E+01      5.760803000000000E-01      1.778281000000000E+02      7.831421000000000E-01     -9.555079000000000E+01
4880000000.000000      5.595093000000000E-01     -1.730391000000000E+02      5.166626000000000E-01     -8.311718000000000E+01      5.802917000000000E-01      1.778281000000000E+02      7.862854000000000E-01     -9.552343000000000E+01
4881000000.000000      5.598145000000000E-01     -1.731172000000000E+02      5.186768000000000E-01     -8.323046000000000E+01      5.814819000000000E-01      1.774688000000000E+02      7.885742000000000E-01     -9.562500000000000E+01
4882000000.000000      5.585022000000000E-01     -1.732734000000000E+02      5.188293000000000E-01     -8.362890000000000E+01      5.811157000000000E-01      1.772891000000000E+02      7.898560000000000E-01     -9.576563000000000E+01
