! Network Analyzer HP8722D
! Hewlett-Packard
! Data name: Linha & Wilkinson
! Saver's name: Rodrigo Anjos
! Comments: Teste da utilização de aquisição
continua pelo VNA HP8722D
! Time and date: 17/4/2025 16:38
!              Frequency                     S11                                                   S21                                                   S12                                                   S22
# HZ  S  MA R 50
4800000000.000000      3.339844000000000E-01     -1.138320000000000E+02      2.928162000000000E-01     -6.091601000000000E+01      2.862701000000000E-01     -1.751484000000000E+02      6.563110000000000E-01     -9.011328000000000E+01
4801000000.000000      3.330688000000000E-01     -1.147578000000000E+02      2.967987000000000E-01     -6.080078000000000E+01      2.901611000000000E-01     -1.749844000000000E+02      6.551819000000000E-01     -9.017578000000000E+01
4802000000.000000      3.321228000000000E-01     -1.157227000000000E+02      3.014526000000000E-01     -6.108203000000000E+01      2.952576000000000E-01     -1.747813000000000E+02      6.537476000000000E-01     -9.028124000000000E+01
4803000000.000000      3.309174000000000E-01     -1.167305000000000E+02      3.065796000000000E-01     -6.112695000000000E+01      2.981720000000000E-01     -1.747344000000000E+02      6.530762000000000E-01     -9.038671000000000E+01
4804000000.000000      3.306274000000000E-01     -1.177539000000000E+02      3.107452000000000E-01     -6.115429000000000E+01      3.026733000000000E-01     -1.748281000000000E+02      6.524963000000000E-01     -9.051561000000000E+01
4805000000.000000      3.313446000000000E-01     -1.187734000000000E+02      3.150787000000000E-01     -6.146484000000000E+01      3.069000000000000E-01     -1.745391000000000E+02      6.528015000000000E-01     -9.063280000000000E+01
4806000000.000000      3.306732000000000E-01     -1.197148000000000E+02      3.201599000000000E-01     -6.156054000000000E+01      3.107452000000000E-01     -1.743281000000000E+02      6.512146000000000E-01     -9.074999000000000E+01
4807000000.000000      3.303528000000000E-01     -1.208164000000000E+02      3.246460000000000E-01     -6.170507000000000E+01      3.147430000000000E-01     -1.745234000000000E+02      6.509705000000000E-01     -9.071484000000000E+01
4808000000.000000      3.309326000000000E-01     -1.217539000000000E+02      3.287659000000000E-01     -6.176171000000000E+01      3.179321000000000E-01     -1.743203000000000E+02      6.494141000000000E-01     -9.078516000000000E+01
4809000000.000000      3.314667000000000E-01     -1.229140000000000E+02      3.326721000000000E-01     -6.219531000000000E+01      3.230286000000000E-01     -1.743672000000000E+02      6.499023000000000E-01     -9.108202000000000E+01
4810000000.000000      3.320618000000000E-01     -1.240937000000000E+02      3.375092000000000E-01     -6.219336000000000E+01      3.267365000000000E-01     -1.742734000000000E+02      6.500854000000000E-01     -9.105078000000000E+01
4811000000.000000      3.330383000000000E-01     -1.251055000000000E+02      3.412323000000000E-01     -6.259570000000000E+01      3.313904000000000E-01     -1.742422000000000E+02      6.489563000000000E-01     -9.099609000000000E+01
4812000000.000000      3.343353000000000E-01     -1.261289000000000E+02      3.451233000000000E-01     -6.281836000000000E+01      3.352966000000000E-01     -1.740937000000000E+02      6.483459000000000E-01     -9.126562000000000E+01
4813000000.000000      3.358459000000000E-01     -1.272422000000000E+02      3.497009000000000E-01     -6.291210000000000E+01      3.386078000000000E-01     -1.739922000000000E+02      6.483154000000000E-01     -9.123827000000000E+01
4814000000.000000      3.365479000000000E-01     -1.285391000000000E+02      3.544006000000000E-01     -6.314258000000000E+01      3.423462000000000E-01     -1.740937000000000E+02      6.490479000000000E-01     -9.137110000000000E+01
4815000000.000000      3.386536000000000E-01     -1.295156000000000E+02      3.577728000000000E-01     -6.321875000000000E+01      3.454895000000000E-01     -1.738672000000000E+02      6.487122000000000E-01     -9.142969000000000E+01
4816000000.000000      3.407288000000000E-01     -1.304766000000000E+02      3.621826000000000E-01     -6.352734000000000E+01      3.517761000000000E-01     -1.739219000000000E+02      6.481934000000000E-01     -9.148046000000000E+01
4817000000.000000      3.431702000000000E-01     -1.315938000000000E+02      3.657990000000000E-01     -6.378124000000000E+01      3.543091000000000E-01     -1.740156000000000E+02      6.491699000000000E-01     -9.161718000000000E+01
4818000000.000000      3.449860000000000E-01     -1.327422000000000E+02      3.690491000000000E-01     -6.405078000000000E+01      3.586578000000000E-01     -1.738750000000000E+02      6.489258000000000E-01     -9.175390000000000E+01
4819000000.000000      3.479462000000000E-01     -1.338203000000000E+02      3.727112000000000E-01     -6.425781000000000E+01      3.621674000000000E-01     -1.739297000000000E+02      6.514282000000000E-01     -9.176561000000000E+01
4820000000.000000      3.494873000000000E-01     -1.347734000000000E+02      3.775940000000000E-01     -6.458202000000000E+01      3.665771000000000E-01     -1.738594000000000E+02      6.515503000000000E-01     -9.180859000000000E+01
4821000000.000000      3.531647000000000E-01     -1.359453000000000E+02      3.816986000000000E-01     -6.482422000000000E+01      3.703308000000000E-01     -1.740000000000000E+02      6.497192000000000E-01     -9.200781000000000E+01
4822000000.000000      3.574219000000000E-01     -1.370312000000000E+02      3.847809000000000E-01     -6.500000000000000E+01      3.743896000000000E-01     -1.739844000000000E+02      6.529846000000000E-01     -9.190233000000000E+01
4823000000.000000      3.594055000000000E-01     -1.379844000000000E+02      3.881836000000000E-01     -6.539844000000000E+01      3.783417000000000E-01     -1.737890000000000E+02      6.534424000000000E-01     -9.206640000000000E+01
4824000000.000000      3.639221000000000E-01     -1.391406000000000E+02      3.930206000000000E-01     -6.570703000000000E+01      3.826752000000000E-01     -1.738828000000000E+02      6.537781000000000E-01     -9.212500000000000E+01
4825000000.000000      3.675537000000000E-01     -1.400156000000000E+02      3.962708000000000E-01     -6.585546000000000E+01      3.869934000000000E-01     -1.738984000000000E+02      6.552734000000000E-01     -9.212500000000000E+01
4826000000.000000      3.712158000000000E-01     -1.411250000000000E+02      3.995667000000000E-01     -6.611718000000000E+01      3.899384000000000E-01     -1.738437000000000E+02      6.564331000000000E-01     -9.222656000000000E+01
4827000000.000000      3.753357000000000E-01     -1.419531000000000E+02      4.030151000000000E-01     -6.632421000000000E+01      3.935089000000000E-01     -1.738203000000000E+02      6.579590000000000E-01     -9.228125000000000E+01
4828000000.000000      3.803406000000000E-01     -1.430234000000000E+02      4.075165000000000E-01     -6.668750000000000E+01      3.975677000000000E-01     -1.737890000000000E+02      6.605835000000000E-01     -9.235155000000000E+01
4829000000.000000      3.831329000000000E-01     -1.438359000000000E+02      4.096680000000000E-01     -6.697656000000000E+01      4.021301000000000E-01     -1.738750000000000E+02      6.598816000000000E-01     -9.234375000000000E+01
4830000000.000000      3.885040000000000E-01     -1.448672000000000E+02      4.127502000000000E-01     -6.734765000000000E+01      4.061737000000000E-01     -1.738906000000000E+02      6.622620000000000E-01     -9.254297000000000E+01
4831000000.000000      3.922729000000000E-01     -1.457109000000000E+02      4.165955000000000E-01     -6.757813000000000E+01      4.103394000000000E-01     -1.738672000000000E+02      6.648560000000000E-01     -9.263281000000000E+01
4832000000.000000      3.977661000000000E-01     -1.466719000000000E+02      4.221649000000000E-01     -6.779687000000000E+01      4.141693000000000E-01     -1.739453000000000E+02      6.654663000000000E-01     -9.262110000000000E+01
4833000000.000000      4.028015000000000E-01     -1.476484000000000E+02      4.247131000000000E-01     -6.819140000000000E+01      4.184570000000000E-01     -1.740547000000000E+02      6.676331000000000E-01     -9.266796000000000E+01
4834000000.000000      4.075623000000000E-01     -1.484219000000000E+02      4.271545000000000E-01     -6.852734000000000E+01      4.220428000000000E-01     -1.740000000000000E+02      6.681824000000000E-01     -9.273046000000000E+01
4835000000.000000      4.119415000000000E-01     -1.492344000000000E+02      4.309235000000000E-01     -6.883203000000000E+01      4.269409000000000E-01     -1.741406000000000E+02      6.712036000000000E-01     -9.281641000000000E+01
4836000000.000000      4.181061000000000E-01     -1.500703000000000E+02      4.333038000000000E-01     -6.903125000000000E+01      4.302216000000000E-01     -1.740703000000000E+02      6.725769000000000E-01     -9.281641000000000E+01
4837000000.000000      4.227295000000000E-01     -1.508359000000000E+02      4.365997000000000E-01     -6.966797000000000E+01      4.340363000000000E-01     -1.742031000000000E+02      6.746521000000000E-01     -9.288280000000000E+01
4838000000.000000      4.281311000000000E-01     -1.517500000000000E+02      4.401245000000000E-01     -6.976171000000000E+01      4.383698000000000E-01     -1.741875000000000E+02      6.760559000000000E-01     -9.298828000000000E+01
4839000000.000000      4.329224000000000E-01     -1.523672000000000E+02      4.428711000000000E-01     -7.010156000000000E+01      4.422455000000000E-01     -1.741875000000000E+02      6.799011000000000E-01     -9.297266000000000E+01
4840000000.000000      4.375763000000000E-01     -1.532812000000000E+02      4.448395000000000E-01     -7.039063000000000E+01      4.461060000000000E-01     -1.744219000000000E+02      6.817322000000000E-01     -9.306250000000000E+01
4841000000.000000      4.431458000000000E-01     -1.540703000000000E+02      4.487762000000000E-01     -7.088672000000000E+01      4.505615000000000E-01     -1.744688000000000E+02      6.839600000000000E-01     -9.312891000000000E+01
4842000000.000000      4.487152000000000E-01     -1.547188000000000E+02      4.508972000000000E-01     -7.097656000000000E+01      4.532318000000000E-01     -1.745234000000000E+02      6.860962000000000E-01     -9.317186000000000E+01
4843000000.000000      4.536591000000000E-01     -1.554766000000000E+02      4.546661000000000E-01     -7.146874000000000E+01      4.579315000000000E-01     -1.746328000000000E+02      6.885376000000000E-01     -9.323046000000000E+01
4844000000.000000      4.582672000000000E-01     -1.561641000000000E+02      4.572296000000000E-01     -7.160546000000000E+01      4.615173000000000E-01     -1.748047000000000E+02      6.912537000000000E-01     -9.323437000000000E+01
4845000000.000000      4.636688000000000E-01     -1.567734000000000E+02      4.593201000000000E-01     -7.196875000000000E+01      4.659882000000000E-01     -1.747734000000000E+02      6.940918000000000E-01     -9.337500000000000E+01
4846000000.000000      4.682922000000000E-01     -1.574687000000000E+02      4.627228000000000E-01     -7.228125000000000E+01      4.712982000000000E-01     -1.749219000000000E+02      6.959839000000000E-01     -9.326172000000000E+01
4847000000.000000      4.741364000000000E-01     -1.581094000000000E+02      4.639740000000000E-01     -7.260547000000000E+01      4.745483000000000E-01     -1.750859000000000E+02      6.988831000000000E-01     -9.342577000000000E+01
4848000000.000000      4.788818000000000E-01     -1.586953000000000E+02      4.667664000000000E-01     -7.292969000000000E+01      4.785919000000000E-01     -1.750781000000000E+02      7.015686000000000E-01     -9.347265000000000E+01
4849000000.000000      4.838562000000000E-01     -1.596172000000000E+02      4.701080000000000E-01     -7.327343000000000E+01      4.824982000000000E-01     -1.752266000000000E+02      7.048645000000000E-01     -9.344141000000000E+01
4850000000.000000      4.883728000000000E-01     -1.600000000000000E+02      4.719696000000000E-01     -7.366015000000000E+01      4.863739000000000E-01     -1.753438000000000E+02      7.067566000000000E-01     -9.344141000000000E+01
4851000000.000000      4.938049000000000E-01     -1.605703000000000E+02      4.753723000000000E-01     -7.408203000000000E+01      4.893188000000000E-01     -1.755703000000000E+02      7.098083000000000E-01     -9.356640000000000E+01
4852000000.000000      4.987335000000000E-01     -1.612344000000000E+02      4.768829000000000E-01     -7.434375000000000E+01      4.941254000000000E-01     -1.756484000000000E+02      7.118835000000000E-01     -9.367968000000000E+01
4853000000.000000      5.029297000000000E-01     -1.617891000000000E+02      4.763489000000000E-01     -7.464453000000000E+01      4.982605000000000E-01     -1.758437000000000E+02      7.153015000000000E-01     -9.372265000000000E+01
4854000000.000000      5.066833000000000E-01     -1.623125000000000E+02      4.808197000000000E-01     -7.509766000000000E+01      5.013428000000000E-01     -1.759297000000000E+02      7.179260000000000E-01     -9.370703000000000E+01
4855000000.000000      5.103455000000000E-01     -1.628984000000000E+02      4.808655000000000E-01     -7.532421000000000E+01      5.052185000000000E-01     -1.762187000000000E+02      7.212830000000000E-01     -9.370312000000000E+01
4856000000.000000      5.154114000000000E-01     -1.633594000000000E+02      4.841614000000000E-01     -7.547265000000000E+01      5.098267000000000E-01     -1.762969000000000E+02      7.247009000000000E-01     -9.376171000000000E+01
4857000000.000000      5.195923000000000E-01     -1.639688000000000E+02      4.864807000000000E-01     -7.583984000000000E+01      5.122375000000000E-01     -1.763672000000000E+02      7.276306000000000E-01     -9.385157000000000E+01
4858000000.000000      5.214539000000000E-01     -1.644687000000000E+02      4.886932000000000E-01     -7.617969000000000E+01      5.155334000000000E-01     -1.764766000000000E+02      7.294312000000000E-01     -9.385157000000000E+01
4859000000.000000      5.256653000000000E-01     -1.649844000000000E+02      4.907379000000000E-01     -7.663280000000000E+01      5.192566000000000E-01     -1.768359000000000E+02      7.332764000000000E-01     -9.410547000000000E+01
4860000000.000000      5.304871000000000E-01     -1.653828000000000E+02      4.919281000000000E-01     -7.683594000000000E+01      5.239868000000000E-01     -1.768672000000000E+02      7.342529000000000E-01     -9.395702000000000E+01
4861000000.000000      5.333862000000000E-01     -1.657656000000000E+02      4.918213000000000E-01     -7.733984000000000E+01      5.272217000000000E-01     -1.770547000000000E+02      7.390137000000000E-01     -9.409374000000000E+01
4862000000.000000      5.363464000000000E-01     -1.662266000000000E+02      4.957123000000000E-01     -7.741015000000000E+01      5.302429000000000E-01     -1.772266000000000E+02      7.427979000000000E-01     -9.405468000000000E+01
4863000000.000000      5.387573000000000E-01     -1.666484000000000E+02      4.969025000000000E-01     -7.778906000000000E+01      5.330200000000000E-01     -1.773750000000000E+02      7.448120000000000E-01     -9.400782000000000E+01
4864000000.000000      5.422668000000000E-01     -1.670078000000000E+02      4.976654000000000E-01     -7.792969000000000E+01      5.351257000000000E-01     -1.775625000000000E+02      7.475891000000000E-01     -9.417969000000000E+01
4865000000.000000      5.449829000000000E-01     -1.676172000000000E+02      4.993744000000000E-01     -7.820703000000000E+01      5.393066000000000E-01     -1.779063000000000E+02      7.499084000000000E-01     -9.400782000000000E+01
4866000000.000000      5.458984000000000E-01     -1.677969000000000E+02      4.985199000000000E-01     -7.853906000000000E+01      5.416870000000000E-01     -1.780313000000000E+02      7.532043000000000E-01     -9.412889000000000E+01
4867000000.000000      5.482483000000000E-01     -1.681719000000000E+02      5.012817000000000E-01     -7.891015000000000E+01      5.450439000000000E-01     -1.781797000000000E+02      7.548523000000000E-01     -9.429688000000000E+01
4868000000.000000      5.510559000000000E-01     -1.686484000000000E+02      5.036926000000000E-01     -7.919922000000000E+01      5.493469000000000E-01     -1.783516000000000E+02      7.580872000000000E-01     -9.426952000000000E+01
4869000000.000000      5.515442000000000E-01     -1.688984000000000E+02      5.040894000000000E-01     -7.923437000000000E+01      5.520020000000000E-01     -1.786094000000000E+02      7.608948000000000E-01     -9.442968000000000E+01
4870000000.000000      5.542297000000000E-01     -1.691953000000000E+02      5.050964000000000E-01     -7.946875000000000E+01      5.534363000000000E-01     -1.788672000000000E+02      7.645264000000000E-01     -9.426172000000000E+01
4871000000.000000      5.565491000000000E-01     -1.695547000000000E+02      5.055542000000000E-01     -8.001562000000000E+01      5.562744000000000E-01     -1.790234000000000E+02      7.664795000000000E-01     -9.434765000000000E+01
4872000000.000000      5.580750000000000E-01     -1.696719000000000E+02      5.076904000000000E-01     -8.004297000000000E+01      5.584106000000000E-01     -1.793437000000000E+02      7.695007000000000E-01     -9.446093000000000E+01
4873000000.000000      5.583496000000000E-01     -1.700391000000000E+02      5.081177000000000E-01     -8.036718000000000E+01      5.608521000000000E-01     -1.794062000000000E+02      7.713928000000000E-01     -9.451563000000000E+01
4874000000.000000      5.585022000000000E-01     -1.702969000000000E+02      5.093994000000000E-01     -8.067186000000000E+01      5.649414000000000E-01     -1.796562000000000E+02      7.718811000000000E-01     -9.442577000000000E+01
4875000000.000000      5.608826000000000E-01     -1.705391000000000E+02      5.101318000000000E-01     -8.084375000000000E+01      5.664063000000000E-01      1.799687000000000E+02      7.752991000000000E-01     -9.453516000000000E+01
4876000000.000000      5.606384000000000E-01     -1.707344000000000E+02      5.112000000000000E-01     -8.111719000000000E+01      5.672607000000000E-01      1.799609000000000E+02      7.779236000000000E-01     -9.462109000000000E+01
4877000000.000000      5.609131000000000E-01     -1.709453000000000E+02      5.127563000000000E-01     -8.135157000000000E+01      5.707703000000000E-01      1.795703000000000E+02      7.806396000000000E-01     -9.473436000000000E+01
4878000000.000000      5.613098000000000E-01     -1.711562000000000E+02      5.139771000000000E-01     -8.150391000000000E+01      5.722351000000000E-01      1.795000000000000E+02      7.829590000000000E-01     -9.471483000000000E+01
4879000000.000000      5.630188000000000E-01     -1.713438000000000E+02      5.129700000000000E-01     -8.176561000000000E+01      5.750427000000000E-01      1.792656000000000E+02      7.843933000000000E-01     -9.473827000000000E+01
4880000000.000000      5.617065000000000E-01     -1.714531000000000E+02      5.147400000000000E-01     -8.202343000000000E+01      5.779724000000000E-01      1.791094000000000E+02      7.866821000000000E-01     -9.474218000000000E+01
4881000000.000000      5.622559000000000E-01     -1.716640000000000E+02      5.169373000000000E-01     -8.202343000000000E+01      5.794678000000000E-01      1.787891000000000E+02      7.896118000000000E-01     -9.475780000000000E+01
4882000000.000000      5.608215000000000E-01     -1.717734000000000E+02      5.171509000000000E-01     -8.237108000000000E+01      5.805359000000000E-01      1.786484000000000E+02      7.909546000000000E-01     -9.490234000000000E+01
