! Network Analyzer HP8722D
! Hewlett-Packard
! Data name: Linha & Wilkinson
! Saver's name: Rodrigo Anjos
! Comments: Teste da utilização de aquisição
continua pelo VNA HP8722D
! Time and date: 17/4/2025 14:25
!              Frequency                     S11                                                   S21                                                   S12                                                   S22
# HZ  S  MA R 50
4800000000.000000      3.335876000000000E-01     -1.133984000000000E+02      2.885742000000000E-01     -6.095703000000000E+01      2.823029000000000E-01     -1.750859000000000E+02      6.555786000000000E-01     -9.007421000000000E+01
4801000000.000000      3.324432000000000E-01     -1.144570000000000E+02      2.924500000000000E-01     -6.104297000000000E+01      2.852020000000000E-01     -1.750703000000000E+02      6.541443000000000E-01     -9.009375000000000E+01
4802000000.000000      3.315887000000000E-01     -1.153203000000000E+02      2.962341000000000E-01     -6.109765000000000E+01      2.898712000000000E-01     -1.748281000000000E+02      6.533813000000000E-01     -9.014452000000000E+01
4803000000.000000      3.312225000000000E-01     -1.163867000000000E+02      3.025665000000000E-01     -6.108788000000000E+01      2.933502000000000E-01     -1.746328000000000E+02      6.527710000000000E-01     -9.020702000000000E+01
4804000000.000000      3.305359000000000E-01     -1.173438000000000E+02      3.064423000000000E-01     -6.110546000000000E+01      2.981567000000000E-01     -1.747890000000000E+02      6.514282000000000E-01     -9.032030000000000E+01
4805000000.000000      3.305817000000000E-01     -1.183672000000000E+02      3.105011000000000E-01     -6.147265000000000E+01      3.027191000000000E-01     -1.744688000000000E+02      6.512451000000000E-01     -9.053905000000000E+01
4806000000.000000      3.300781000000000E-01     -1.193047000000000E+02      3.148956000000000E-01     -6.142187000000000E+01      3.061371000000000E-01     -1.742266000000000E+02      6.514282000000000E-01     -9.059374000000000E+01
4807000000.000000      3.304596000000000E-01     -1.204844000000000E+02      3.196716000000000E-01     -6.174023000000000E+01      3.103180000000000E-01     -1.744531000000000E+02      6.491394000000000E-01     -9.058594000000000E+01
4808000000.000000      3.306580000000000E-01     -1.214258000000000E+02      3.244171000000000E-01     -6.159180000000000E+01      3.138733000000000E-01     -1.743515000000000E+02      6.485901000000000E-01     -9.062500000000000E+01
4809000000.000000      3.309631000000000E-01     -1.224805000000000E+02      3.288116000000000E-01     -6.206445000000000E+01      3.187714000000000E-01     -1.743828000000000E+02      6.487427000000000E-01     -9.093750000000000E+01
4810000000.000000      3.320313000000000E-01     -1.236523000000000E+02      3.331299000000000E-01     -6.214257000000000E+01      3.218994000000000E-01     -1.741641000000000E+02      6.492310000000000E-01     -9.091406000000000E+01
4811000000.000000      3.329468000000000E-01     -1.246445000000000E+02      3.378601000000000E-01     -6.251367000000000E+01      3.269653000000000E-01     -1.740156000000000E+02      6.471863000000000E-01     -9.094921000000000E+01
4812000000.000000      3.345795000000000E-01     -1.256445000000000E+02      3.420258000000000E-01     -6.258594000000000E+01      3.313293000000000E-01     -1.739297000000000E+02      6.482849000000000E-01     -9.102734000000000E+01
4813000000.000000      3.349915000000000E-01     -1.268359000000000E+02      3.457947000000000E-01     -6.271289000000000E+01      3.344574000000000E-01     -1.738359000000000E+02      6.481018000000000E-01     -9.102734000000000E+01
4814000000.000000      3.360901000000000E-01     -1.280000000000000E+02      3.498383000000000E-01     -6.300781000000000E+01      3.381653000000000E-01     -1.739453000000000E+02      6.476135000000000E-01     -9.124218000000000E+01
4815000000.000000      3.378754000000000E-01     -1.290703000000000E+02      3.536987000000000E-01     -6.327929000000000E+01      3.420868000000000E-01     -1.738203000000000E+02      6.470947000000000E-01     -9.121874000000000E+01
4816000000.000000      3.399658000000000E-01     -1.300547000000000E+02      3.587494000000000E-01     -6.316601000000000E+01      3.474884000000000E-01     -1.737187000000000E+02      6.481628000000000E-01     -9.134766000000000E+01
4817000000.000000      3.425293000000000E-01     -1.311250000000000E+02      3.621674000000000E-01     -6.367578000000000E+01      3.502045000000000E-01     -1.736797000000000E+02      6.475220000000000E-01     -9.143358000000000E+01
4818000000.000000      3.442535000000000E-01     -1.322734000000000E+02      3.653870000000000E-01     -6.398046000000000E+01      3.550873000000000E-01     -1.737109000000000E+02      6.483765000000000E-01     -9.155468000000000E+01
4819000000.000000      3.470612000000000E-01     -1.334063000000000E+02      3.690033000000000E-01     -6.410937000000000E+01      3.574524000000000E-01     -1.736172000000000E+02      6.504822000000000E-01     -9.159765000000000E+01
4820000000.000000      3.490753000000000E-01     -1.343281000000000E+02      3.732452000000000E-01     -6.434765000000000E+01      3.625336000000000E-01     -1.736719000000000E+02      6.506348000000000E-01     -9.174999000000000E+01
4821000000.000000      3.525696000000000E-01     -1.354922000000000E+02      3.777313000000000E-01     -6.474218000000000E+01      3.665466000000000E-01     -1.738203000000000E+02      6.491089000000000E-01     -9.182421000000000E+01
4822000000.000000      3.563080000000000E-01     -1.365703000000000E+02      3.812408000000000E-01     -6.473046000000000E+01      3.698730000000000E-01     -1.736562000000000E+02      6.524658000000000E-01     -9.176172000000000E+01
4823000000.000000      3.586273000000000E-01     -1.374844000000000E+02      3.852539000000000E-01     -6.517578000000000E+01      3.741302000000000E-01     -1.735547000000000E+02      6.516113000000000E-01     -9.193750000000000E+01
4824000000.000000      3.625183000000000E-01     -1.386406000000000E+02      3.890381000000000E-01     -6.550390000000000E+01      3.790588000000000E-01     -1.735469000000000E+02      6.532288000000000E-01     -9.200781000000000E+01
4825000000.000000      3.658905000000000E-01     -1.395859000000000E+02      3.924408000000000E-01     -6.560156000000000E+01      3.835144000000000E-01     -1.735859000000000E+02      6.539612000000000E-01     -9.199999000000000E+01
4826000000.000000      3.703308000000000E-01     -1.405781000000000E+02      3.961639000000000E-01     -6.603125000000000E+01      3.861237000000000E-01     -1.736719000000000E+02      6.558533000000000E-01     -9.211718000000000E+01
4827000000.000000      3.743591000000000E-01     -1.414375000000000E+02      3.996277000000000E-01     -6.613281000000000E+01      3.900909000000000E-01     -1.735547000000000E+02      6.571045000000000E-01     -9.214844000000000E+01
4828000000.000000      3.792267000000000E-01     -1.425313000000000E+02      4.042053000000000E-01     -6.658984000000000E+01      3.946533000000000E-01     -1.736641000000000E+02      6.594543000000000E-01     -9.221483000000000E+01
4829000000.000000      3.817596000000000E-01     -1.433906000000000E+02      4.073792000000000E-01     -6.670703000000000E+01      3.984375000000000E-01     -1.736094000000000E+02      6.598816000000000E-01     -9.217188000000000E+01
4830000000.000000      3.872375000000000E-01     -1.443672000000000E+02      4.105072000000000E-01     -6.708202000000000E+01      4.023132000000000E-01     -1.736016000000000E+02      6.619873000000000E-01     -9.240625000000000E+01
4831000000.000000      3.908997000000000E-01     -1.452344000000000E+02      4.136200000000000E-01     -6.746484000000000E+01      4.071045000000000E-01     -1.736016000000000E+02      6.631775000000000E-01     -9.241014000000000E+01
4832000000.000000      3.967285000000000E-01     -1.462031000000000E+02      4.183197000000000E-01     -6.755859000000000E+01      4.097290000000000E-01     -1.736953000000000E+02      6.648254000000000E-01     -9.252733000000000E+01
4833000000.000000      4.015350000000000E-01     -1.471094000000000E+02      4.211121000000000E-01     -6.789063000000000E+01      4.139862000000000E-01     -1.736562000000000E+02      6.665039000000000E-01     -9.252344000000000E+01
4834000000.000000      4.061127000000000E-01     -1.479766000000000E+02      4.231262000000000E-01     -6.820313000000000E+01      4.188538000000000E-01     -1.737187000000000E+02      6.675110000000000E-01     -9.261719000000000E+01
4835000000.000000      4.104309000000000E-01     -1.487969000000000E+02      4.273376000000000E-01     -6.867969000000000E+01      4.235687000000000E-01     -1.737422000000000E+02      6.703796000000000E-01     -9.271875000000000E+01
4836000000.000000      4.165955000000000E-01     -1.495391000000000E+02      4.306488000000000E-01     -6.880859000000000E+01      4.270935000000000E-01     -1.737500000000000E+02      6.725159000000000E-01     -9.262890000000000E+01
4837000000.000000      4.212341000000000E-01     -1.503359000000000E+02      4.331970000000000E-01     -6.932422000000000E+01      4.300079000000000E-01     -1.739141000000000E+02      6.736450000000000E-01     -9.286327000000000E+01
4838000000.000000      4.266205000000000E-01     -1.512891000000000E+02      4.369507000000000E-01     -6.932812000000000E+01      4.352417000000000E-01     -1.740781000000000E+02      6.761169000000000E-01     -9.280859000000000E+01
4839000000.000000      4.317780000000000E-01     -1.519140000000000E+02      4.393921000000000E-01     -6.976563000000000E+01      4.387360000000000E-01     -1.738984000000000E+02      6.786804000000000E-01     -9.287109000000000E+01
4840000000.000000      4.362946000000000E-01     -1.527891000000000E+02      4.428864000000000E-01     -7.009375000000000E+01      4.431458000000000E-01     -1.740937000000000E+02      6.799927000000000E-01     -9.290625000000000E+01
4841000000.000000      4.418640000000000E-01     -1.535938000000000E+02      4.459991000000000E-01     -7.062890000000000E+01      4.474335000000000E-01     -1.741641000000000E+02      6.814270000000000E-01     -9.298828000000000E+01
4842000000.000000      4.473114000000000E-01     -1.541797000000000E+02      4.487305000000000E-01     -7.071094000000000E+01      4.502411000000000E-01     -1.742031000000000E+02      6.854553000000000E-01     -9.309374000000000E+01
4843000000.000000      4.520416000000000E-01     -1.550469000000000E+02      4.519043000000000E-01     -7.111328000000000E+01      4.548187000000000E-01     -1.742969000000000E+02      6.886292000000000E-01     -9.304688000000000E+01
4844000000.000000      4.570923000000000E-01     -1.556250000000000E+02      4.546661000000000E-01     -7.139453000000000E+01      4.590759000000000E-01     -1.743750000000000E+02      6.901855000000000E-01     -9.316406000000000E+01
4845000000.000000      4.619141000000000E-01     -1.563359000000000E+02      4.569855000000000E-01     -7.171484000000000E+01      4.636078000000000E-01     -1.746016000000000E+02      6.920776000000000E-01     -9.316406000000000E+01
4846000000.000000      4.672089000000000E-01     -1.569297000000000E+02      4.598694000000000E-01     -7.212500000000000E+01      4.676971000000000E-01     -1.745781000000000E+02      6.948853000000000E-01     -9.321093000000000E+01
4847000000.000000      4.733582000000000E-01     -1.576094000000000E+02      4.626007000000000E-01     -7.237109000000000E+01      4.716339000000000E-01     -1.747500000000000E+02      6.984558000000000E-01     -9.328905000000000E+01
4848000000.000000      4.776459000000000E-01     -1.582969000000000E+02      4.644470000000000E-01     -7.261719000000000E+01      4.754944000000000E-01     -1.748281000000000E+02      6.999207000000000E-01     -9.333202000000000E+01
4849000000.000000      4.823303000000000E-01     -1.591328000000000E+02      4.669647000000000E-01     -7.310547000000000E+01      4.800415000000000E-01     -1.749531000000000E+02      7.037048000000000E-01     -9.332031000000000E+01
4850000000.000000      4.877777000000000E-01     -1.595859000000000E+02      4.700470000000000E-01     -7.326562000000000E+01      4.831085000000000E-01     -1.750625000000000E+02      7.052917000000000E-01     -9.333202000000000E+01
4851000000.000000      4.923706000000000E-01     -1.601094000000000E+02      4.735260000000000E-01     -7.372656000000000E+01      4.872131000000000E-01     -1.751484000000000E+02      7.092590000000000E-01     -9.334764000000000E+01
4852000000.000000      4.971008000000000E-01     -1.607109000000000E+02      4.747467000000000E-01     -7.405078000000000E+01      4.920197000000000E-01     -1.752734000000000E+02      7.119751000000000E-01     -9.341797000000000E+01
4853000000.000000      5.018311000000000E-01     -1.612890000000000E+02      4.751434000000000E-01     -7.435547000000000E+01      4.956207000000000E-01     -1.754688000000000E+02      7.153320000000000E-01     -9.367188000000000E+01
4854000000.000000      5.065308000000000E-01     -1.617891000000000E+02      4.789276000000000E-01     -7.483203000000000E+01      4.994965000000000E-01     -1.755781000000000E+02      7.174683000000000E-01     -9.354687000000000E+01
4855000000.000000      5.097046000000000E-01     -1.624375000000000E+02      4.792480000000000E-01     -7.494531000000000E+01      5.032043000000000E-01     -1.756641000000000E+02      7.199707000000000E-01     -9.351171000000000E+01
4856000000.000000      5.155640000000000E-01     -1.628984000000000E+02      4.819946000000000E-01     -7.534374000000000E+01      5.070496000000000E-01     -1.757891000000000E+02      7.239075000000000E-01     -9.356249000000000E+01
4857000000.000000      5.191650000000000E-01     -1.634531000000000E+02      4.854431000000000E-01     -7.566015000000000E+01      5.113525000000000E-01     -1.760313000000000E+02      7.275391000000000E-01     -9.371094000000000E+01
4858000000.000000      5.213318000000000E-01     -1.639531000000000E+02      4.864807000000000E-01     -7.585155000000000E+01      5.130310000000000E-01     -1.761797000000000E+02      7.279968000000000E-01     -9.361719000000000E+01
4859000000.000000      5.255127000000000E-01     -1.644063000000000E+02      4.882965000000000E-01     -7.631249000000000E+01      5.170898000000000E-01     -1.763750000000000E+02      7.326050000000000E-01     -9.386719000000000E+01
4860000000.000000      5.295715000000000E-01     -1.649219000000000E+02      4.904327000000000E-01     -7.653906000000000E+01      5.203552000000000E-01     -1.765625000000000E+02      7.350159000000000E-01     -9.375000000000000E+01
4861000000.000000      5.328674000000000E-01     -1.653047000000000E+02      4.905396000000000E-01     -7.681250000000000E+01      5.243835000000000E-01     -1.767187000000000E+02      7.378845000000000E-01     -9.391405000000000E+01
4862000000.000000      5.355835000000000E-01     -1.657578000000000E+02      4.942017000000000E-01     -7.716015000000000E+01      5.285034000000000E-01     -1.770234000000000E+02      7.420654000000000E-01     -9.391405000000000E+01
4863000000.000000      5.385742000000000E-01     -1.661797000000000E+02      4.948883000000000E-01     -7.748437000000000E+01      5.311279000000000E-01     -1.771016000000000E+02      7.441711000000000E-01     -9.398438000000000E+01
4864000000.000000      5.419006000000000E-01     -1.665390000000000E+02      4.964600000000000E-01     -7.772265000000000E+01      5.334473000000000E-01     -1.772969000000000E+02      7.468872000000000E-01     -9.405468000000000E+01
4865000000.000000      5.436401000000000E-01     -1.671250000000000E+02      4.987793000000000E-01     -7.786718000000000E+01      5.378723000000000E-01     -1.774375000000000E+02      7.506714000000000E-01     -9.394140000000000E+01
4866000000.000000      5.457764000000000E-01     -1.673672000000000E+02      4.989166000000000E-01     -7.823437000000000E+01      5.414124000000000E-01     -1.776328000000000E+02      7.525940000000000E-01     -9.391796000000000E+01
4867000000.000000      5.480347000000000E-01     -1.676875000000000E+02      5.007935000000000E-01     -7.855078000000000E+01      5.432434000000000E-01     -1.777578000000000E+02      7.569275000000000E-01     -9.392187000000000E+01
4868000000.000000      5.511780000000000E-01     -1.682031000000000E+02      5.027466000000000E-01     -7.892578000000000E+01      5.466614000000000E-01     -1.780078000000000E+02      7.571106000000000E-01     -9.402735000000000E+01
4869000000.000000      5.519104000000000E-01     -1.683828000000000E+02      5.022888000000000E-01     -7.920312000000000E+01      5.494995000000000E-01     -1.782891000000000E+02      7.613525000000000E-01     -9.425390000000000E+01
4870000000.000000      5.533142000000000E-01     -1.687813000000000E+02      5.030518000000000E-01     -7.931641000000000E+01      5.530396000000000E-01     -1.785078000000000E+02      7.631531000000000E-01     -9.412109000000000E+01
4871000000.000000      5.562134000000000E-01     -1.690859000000000E+02      5.050049000000000E-01     -7.981640000000000E+01      5.545654000000000E-01     -1.787266000000000E+02      7.648926000000000E-01     -9.434374000000000E+01
4872000000.000000      5.583496000000000E-01     -1.693203000000000E+02      5.062561000000000E-01     -7.957812000000000E+01      5.584717000000000E-01     -1.789844000000000E+02      7.692261000000000E-01     -9.430079000000000E+01
4873000000.000000      5.580750000000000E-01     -1.695469000000000E+02      5.076599000000000E-01     -8.004686000000000E+01      5.586853000000000E-01     -1.791094000000000E+02      7.707520000000000E-01     -9.438671000000000E+01
4874000000.000000      5.592346000000000E-01     -1.698437000000000E+02      5.082703000000000E-01     -8.036718000000000E+01      5.640259000000000E-01     -1.792656000000000E+02      7.729492000000000E-01     -9.416796000000000E+01
4875000000.000000      5.611267000000000E-01     -1.701562000000000E+02      5.095825000000000E-01     -8.055859000000000E+01      5.645752000000000E-01     -1.795078000000000E+02      7.741089000000000E-01     -9.442577000000000E+01
4876000000.000000      5.603943000000000E-01     -1.703438000000000E+02      5.094604000000000E-01     -8.074999000000000E+01      5.668335000000000E-01     -1.798437000000000E+02      7.789307000000000E-01     -9.448828000000000E+01
4877000000.000000      5.615540000000000E-01     -1.705469000000000E+02      5.123596000000000E-01     -8.101171000000000E+01      5.689087000000000E-01      1.798437000000000E+02      7.799988000000000E-01     -9.456249000000000E+01
4878000000.000000      5.625610000000000E-01     -1.706875000000000E+02      5.125122000000000E-01     -8.128515000000000E+01      5.723572000000000E-01      1.798125000000000E+02      7.845459000000000E-01     -9.452343000000000E+01
4879000000.000000      5.636597000000000E-01     -1.709844000000000E+02      5.121155000000000E-01     -8.143358000000000E+01      5.736389000000000E-01      1.796094000000000E+02      7.848206000000000E-01     -9.440233000000000E+01
4880000000.000000      5.624390000000000E-01     -1.711719000000000E+02      5.142212000000000E-01     -8.178514000000000E+01      5.771790000000000E-01      1.793906000000000E+02      7.871094000000000E-01     -9.458202000000000E+01
4881000000.000000      5.628662000000000E-01     -1.712734000000000E+02      5.161438000000000E-01     -8.183594000000000E+01      5.791321000000000E-01      1.790859000000000E+02      7.895203000000000E-01     -9.471483000000000E+01
4882000000.000000      5.625610000000000E-01     -1.712969000000000E+02      5.158997000000000E-01     -8.207422000000000E+01      5.802307000000000E-01      1.789141000000000E+02      7.911377000000000E-01     -9.470703000000000E+01
