! Network Analyzer HP8722D
! Hewlett-Packard
! Data name: Linha & Wilkinson
! Saver's name: Rodrigo Anjos
! Comments: Teste da utilização de aquisição
continua pelo VNA HP8722D
! Time and date: 17/4/2025 15:05
!              Frequency                     S11                                                   S21                                                   S12                                                   S22
# HZ  S  MA R 50
4800000000.000000      3.339691000000000E-01     -1.135938000000000E+02      2.901611000000000E-01     -6.093750000000000E+01      2.843018000000000E-01     -1.750937000000000E+02      6.560059000000000E-01     -9.010546000000000E+01
4801000000.000000      3.326569000000000E-01     -1.144883000000000E+02      2.945709000000000E-01     -6.094531000000000E+01      2.877655000000000E-01     -1.750156000000000E+02      6.551514000000000E-01     -9.021484000000000E+01
4802000000.000000      3.318481000000000E-01     -1.154336000000000E+02      2.992249000000000E-01     -6.098633000000000E+01      2.926636000000000E-01     -1.748125000000000E+02      6.528931000000000E-01     -9.022264000000000E+01
4803000000.000000      3.314819000000000E-01     -1.165469000000000E+02      3.038483000000000E-01     -6.110352000000000E+01      2.954865000000000E-01     -1.747031000000000E+02      6.525574000000000E-01     -9.031250000000000E+01
4804000000.000000      3.307495000000000E-01     -1.174766000000000E+02      3.087921000000000E-01     -6.122851000000000E+01      3.003082000000000E-01     -1.747266000000000E+02      6.528931000000000E-01     -9.037500000000000E+01
4805000000.000000      3.311920000000000E-01     -1.185156000000000E+02      3.124237000000000E-01     -6.134179000000000E+01      3.045654000000000E-01     -1.746016000000000E+02      6.519470000000000E-01     -9.055079000000000E+01
4806000000.000000      3.299713000000000E-01     -1.194492000000000E+02      3.174133000000000E-01     -6.157227000000000E+01      3.076477000000000E-01     -1.742969000000000E+02      6.516113000000000E-01     -9.053125000000000E+01
4807000000.000000      3.306427000000000E-01     -1.205703000000000E+02      3.218536000000000E-01     -6.169726000000000E+01      3.126221000000000E-01     -1.744609000000000E+02      6.506958000000000E-01     -9.066406000000000E+01
4808000000.000000      3.307648000000000E-01     -1.216367000000000E+02      3.263092000000000E-01     -6.171288000000000E+01      3.165283000000000E-01     -1.742500000000000E+02      6.493835000000000E-01     -9.073046000000000E+01
4809000000.000000      3.311462000000000E-01     -1.226953000000000E+02      3.310242000000000E-01     -6.208008000000000E+01      3.204346000000000E-01     -1.743438000000000E+02      6.500549000000000E-01     -9.085938000000000E+01
4810000000.000000      3.315735000000000E-01     -1.238359000000000E+02      3.358307000000000E-01     -6.209374000000000E+01      3.243408000000000E-01     -1.741719000000000E+02      6.492310000000000E-01     -9.096094000000000E+01
4811000000.000000      3.328857000000000E-01     -1.247266000000000E+02      3.391266000000000E-01     -6.255664000000000E+01      3.298340000000000E-01     -1.740156000000000E+02      6.478271000000000E-01     -9.092188000000000E+01
4812000000.000000      3.343811000000000E-01     -1.258359000000000E+02      3.437042000000000E-01     -6.269921000000000E+01      3.330536000000000E-01     -1.739844000000000E+02      6.490784000000000E-01     -9.109375000000000E+01
4813000000.000000      3.349915000000000E-01     -1.269414000000000E+02      3.473053000000000E-01     -6.280663000000000E+01      3.362732000000000E-01     -1.738437000000000E+02      6.486206000000000E-01     -9.114061000000000E+01
4814000000.000000      3.360901000000000E-01     -1.281797000000000E+02      3.515167000000000E-01     -6.296679000000000E+01      3.406219000000000E-01     -1.739297000000000E+02      6.488647000000000E-01     -9.136719000000000E+01
4815000000.000000      3.382874000000000E-01     -1.291406000000000E+02      3.551788000000000E-01     -6.315820000000000E+01      3.445282000000000E-01     -1.739375000000000E+02      6.474609000000000E-01     -9.130077000000000E+01
4816000000.000000      3.403015000000000E-01     -1.301641000000000E+02      3.601990000000000E-01     -6.350976000000000E+01      3.492126000000000E-01     -1.738437000000000E+02      6.489258000000000E-01     -9.134766000000000E+01
4817000000.000000      3.426514000000000E-01     -1.312422000000000E+02      3.635101000000000E-01     -6.372070000000000E+01      3.522644000000000E-01     -1.738516000000000E+02      6.477051000000000E-01     -9.147655000000000E+01
4818000000.000000      3.445129000000000E-01     -1.323984000000000E+02      3.676910000000000E-01     -6.401172000000000E+01      3.571014000000000E-01     -1.737500000000000E+02      6.495056000000000E-01     -9.168360000000000E+01
4819000000.000000      3.472595000000000E-01     -1.334766000000000E+02      3.714447000000000E-01     -6.417578000000000E+01      3.599854000000000E-01     -1.737031000000000E+02      6.508179000000000E-01     -9.180079000000000E+01
4820000000.000000      3.491364000000000E-01     -1.344766000000000E+02      3.753967000000000E-01     -6.434375000000000E+01      3.643951000000000E-01     -1.737500000000000E+02      6.504517000000000E-01     -9.178905000000000E+01
4821000000.000000      3.525085000000000E-01     -1.356797000000000E+02      3.788452000000000E-01     -6.469531000000000E+01      3.679810000000000E-01     -1.737969000000000E+02      6.502991000000000E-01     -9.187500000000000E+01
4822000000.000000      3.571320000000000E-01     -1.367109000000000E+02      3.825378000000000E-01     -6.501171000000000E+01      3.723145000000000E-01     -1.736797000000000E+02      6.531372000000000E-01     -9.191015000000000E+01
4823000000.000000      3.589325000000000E-01     -1.377266000000000E+02      3.868103000000000E-01     -6.516015000000000E+01      3.754883000000000E-01     -1.735312000000000E+02      6.524963000000000E-01     -9.198046000000000E+01
4824000000.000000      3.634491000000000E-01     -1.388438000000000E+02      3.908997000000000E-01     -6.549609000000000E+01      3.806305000000000E-01     -1.736797000000000E+02      6.546326000000000E-01     -9.204296000000000E+01
4825000000.000000      3.666840000000000E-01     -1.397344000000000E+02      3.932648000000000E-01     -6.562890000000000E+01      3.848114000000000E-01     -1.736484000000000E+02      6.552124000000000E-01     -9.205858000000000E+01
4826000000.000000      3.708954000000000E-01     -1.407578000000000E+02      3.977509000000000E-01     -6.607031000000000E+01      3.872070000000000E-01     -1.737734000000000E+02      6.560059000000000E-01     -9.228516000000000E+01
4827000000.000000      3.745880000000000E-01     -1.416172000000000E+02      4.013672000000000E-01     -6.612499000000000E+01      3.920898000000000E-01     -1.736797000000000E+02      6.575623000000000E-01     -9.215624000000000E+01
4828000000.000000      3.795624000000000E-01     -1.426641000000000E+02      4.053650000000000E-01     -6.642578000000000E+01      3.953094000000000E-01     -1.736562000000000E+02      6.598816000000000E-01     -9.225389000000000E+01
4829000000.000000      3.818359000000000E-01     -1.435469000000000E+02      4.085388000000000E-01     -6.680859000000000E+01      3.999939000000000E-01     -1.736719000000000E+02      6.596069000000000E-01     -9.225780000000000E+01
4830000000.000000      3.876343000000000E-01     -1.445469000000000E+02      4.118347000000000E-01     -6.718359000000000E+01      4.043274000000000E-01     -1.737578000000000E+02      6.609802000000000E-01     -9.243359000000000E+01
4831000000.000000      3.917694000000000E-01     -1.454609000000000E+02      4.145966000000000E-01     -6.754687000000000E+01      4.085236000000000E-01     -1.736953000000000E+02      6.632080000000000E-01     -9.251171000000000E+01
4832000000.000000      3.969116000000000E-01     -1.463359000000000E+02      4.187469000000000E-01     -6.771484000000000E+01      4.119415000000000E-01     -1.738047000000000E+02      6.648560000000000E-01     -9.264452000000000E+01
4833000000.000000      4.019012000000000E-01     -1.473203000000000E+02      4.221649000000000E-01     -6.807031000000000E+01      4.160461000000000E-01     -1.737890000000000E+02      6.668701000000000E-01     -9.267969000000000E+01
4834000000.000000      4.064789000000000E-01     -1.481719000000000E+02      4.256287000000000E-01     -6.831249000000000E+01      4.198761000000000E-01     -1.738984000000000E+02      6.683044000000000E-01     -9.268749000000000E+01
4835000000.000000      4.113007000000000E-01     -1.489844000000000E+02      4.293213000000000E-01     -6.858203000000000E+01      4.250183000000000E-01     -1.738828000000000E+02      6.706238000000000E-01     -9.287500000000000E+01
4836000000.000000      4.169769000000000E-01     -1.497187000000000E+02      4.326019000000000E-01     -6.895702000000000E+01      4.282227000000000E-01     -1.739141000000000E+02      6.723328000000000E-01     -9.275391000000000E+01
4837000000.000000      4.221649000000000E-01     -1.505156000000000E+02      4.347534000000000E-01     -6.954687000000000E+01      4.320068000000000E-01     -1.740469000000000E+02      6.744690000000000E-01     -9.283983000000000E+01
4838000000.000000      4.278259000000000E-01     -1.514922000000000E+02      4.393158000000000E-01     -6.951172000000000E+01      4.369202000000000E-01     -1.740469000000000E+02      6.764526000000000E-01     -9.294140000000000E+01
4839000000.000000      4.325409000000000E-01     -1.520703000000000E+02      4.405670000000000E-01     -6.995312000000000E+01      4.405060000000000E-01     -1.740156000000000E+02      6.798706000000000E-01     -9.285547000000000E+01
4840000000.000000      4.367371000000000E-01     -1.529687000000000E+02      4.427338000000000E-01     -7.008594000000000E+01      4.445953000000000E-01     -1.743125000000000E+02      6.803589000000000E-01     -9.294922000000000E+01
4841000000.000000      4.424438000000000E-01     -1.538047000000000E+02      4.475250000000000E-01     -7.062500000000000E+01      4.483337000000000E-01     -1.743828000000000E+02      6.829224000000000E-01     -9.313671000000000E+01
4842000000.000000      4.476013000000000E-01     -1.544141000000000E+02      4.499207000000000E-01     -7.083202000000000E+01      4.516907000000000E-01     -1.743438000000000E+02      6.846008000000000E-01     -9.307421000000000E+01
4843000000.000000      4.524536000000000E-01     -1.551563000000000E+02      4.518433000000000E-01     -7.136328000000000E+01      4.564209000000000E-01     -1.744922000000000E+02      6.887817000000000E-01     -9.301952000000000E+01
4844000000.000000      4.574738000000000E-01     -1.558828000000000E+02      4.557953000000000E-01     -7.160937000000000E+01      4.594421000000000E-01     -1.745469000000000E+02      6.908875000000000E-01     -9.321484000000000E+01
4845000000.000000      4.623871000000000E-01     -1.564922000000000E+02      4.584656000000000E-01     -7.195313000000000E+01      4.648132000000000E-01     -1.746641000000000E+02      6.920471000000000E-01     -9.319921000000000E+01
4846000000.000000      4.677124000000000E-01     -1.571016000000000E+02      4.611664000000000E-01     -7.204687000000000E+01      4.691162000000000E-01     -1.747187000000000E+02      6.956482000000000E-01     -9.314453000000000E+01
4847000000.000000      4.733582000000000E-01     -1.578125000000000E+02      4.631195000000000E-01     -7.258203000000000E+01      4.730530000000000E-01     -1.748984000000000E+02      6.992188000000000E-01     -9.333202000000000E+01
4848000000.000000      4.784241000000000E-01     -1.583984000000000E+02      4.644318000000000E-01     -7.266406000000000E+01      4.771423000000000E-01     -1.748750000000000E+02      7.008667000000000E-01     -9.337500000000000E+01
4849000000.000000      4.830322000000000E-01     -1.593281000000000E+02      4.688568000000000E-01     -7.321484000000000E+01      4.809265000000000E-01     -1.750781000000000E+02      7.032776000000000E-01     -9.341406000000000E+01
4850000000.000000      4.878998000000000E-01     -1.596797000000000E+02      4.711761000000000E-01     -7.339844000000000E+01      4.847870000000000E-01     -1.751562000000000E+02      7.061157000000000E-01     -9.338282000000000E+01
4851000000.000000      4.932098000000000E-01     -1.602890000000000E+02      4.739380000000000E-01     -7.392578000000000E+01      4.885712000000000E-01     -1.753594000000000E+02      7.097778000000000E-01     -9.349609000000000E+01
4852000000.000000      4.979248000000000E-01     -1.609453000000000E+02      4.756622000000000E-01     -7.418750000000000E+01      4.930267000000000E-01     -1.753828000000000E+02      7.122192000000000E-01     -9.348827000000000E+01
4853000000.000000      5.022583000000000E-01     -1.615469000000000E+02      4.758606000000000E-01     -7.433594000000000E+01      4.967041000000000E-01     -1.756484000000000E+02      7.144775000000000E-01     -9.368359000000000E+01
4854000000.000000      5.066528000000000E-01     -1.620547000000000E+02      4.798279000000000E-01     -7.483984000000000E+01      5.003052000000000E-01     -1.758047000000000E+02      7.185364000000000E-01     -9.357422000000000E+01
4855000000.000000      5.101013000000000E-01     -1.625781000000000E+02      4.803162000000000E-01     -7.514843000000000E+01      5.048523000000000E-01     -1.758203000000000E+02      7.206726000000000E-01     -9.371094000000000E+01
4856000000.000000      5.146484000000000E-01     -1.630391000000000E+02      4.832153000000000E-01     -7.540234000000000E+01      5.068054000000000E-01     -1.760391000000000E+02      7.249146000000000E-01     -9.376953000000000E+01
4857000000.000000      5.189514000000000E-01     -1.636016000000000E+02      4.856567000000000E-01     -7.580078000000000E+01      5.119324000000000E-01     -1.760547000000000E+02      7.259521000000000E-01     -9.378515000000000E+01
4858000000.000000      5.210266000000000E-01     -1.641719000000000E+02      4.866943000000000E-01     -7.598046000000000E+01      5.147095000000000E-01     -1.762812000000000E+02      7.286377000000000E-01     -9.378515000000000E+01
4859000000.000000      5.257874000000000E-01     -1.646563000000000E+02      4.894104000000000E-01     -7.636328000000000E+01      5.189209000000000E-01     -1.765469000000000E+02      7.331848000000000E-01     -9.393749000000000E+01
4860000000.000000      5.298157000000000E-01     -1.651250000000000E+02      4.902039000000000E-01     -7.674609000000000E+01      5.213623000000000E-01     -1.766953000000000E+02      7.333374000000000E-01     -9.381639000000000E+01
4861000000.000000      5.335388000000000E-01     -1.655391000000000E+02      4.933014000000000E-01     -7.687109000000000E+01      5.254517000000000E-01     -1.768125000000000E+02      7.370605000000000E-01     -9.395311000000000E+01
4862000000.000000      5.362549000000000E-01     -1.659219000000000E+02      4.953308000000000E-01     -7.723827000000000E+01      5.294495000000000E-01     -1.769453000000000E+02      7.423706000000000E-01     -9.385546000000000E+01
4863000000.000000      5.376892000000000E-01     -1.663281000000000E+02      4.948273000000000E-01     -7.759375000000000E+01      5.331116000000000E-01     -1.772266000000000E+02      7.449341000000000E-01     -9.404297000000000E+01
4864000000.000000      5.421753000000000E-01     -1.667812000000000E+02      4.974823000000000E-01     -7.787499000000000E+01      5.354919000000000E-01     -1.774375000000000E+02      7.471619000000000E-01     -9.406641000000000E+01
4865000000.000000      5.435486000000000E-01     -1.672344000000000E+02      4.974213000000000E-01     -7.807812000000000E+01      5.383606000000000E-01     -1.776094000000000E+02      7.487793000000000E-01     -9.408203000000000E+01
4866000000.000000      5.462341000000000E-01     -1.675937000000000E+02      5.002441000000000E-01     -7.849218000000000E+01      5.414734000000000E-01     -1.777734000000000E+02      7.528076000000000E-01     -9.407421000000000E+01
4867000000.000000      5.478516000000000E-01     -1.678516000000000E+02      5.015564000000000E-01     -7.880859000000000E+01      5.445862000000000E-01     -1.780391000000000E+02      7.565613000000000E-01     -9.414063000000000E+01
4868000000.000000      5.516357000000000E-01     -1.682969000000000E+02      5.032349000000000E-01     -7.896093000000000E+01      5.480042000000000E-01     -1.781641000000000E+02      7.586975000000000E-01     -9.412109000000000E+01
4869000000.000000      5.517578000000000E-01     -1.685469000000000E+02      5.028076000000000E-01     -7.931250000000000E+01      5.502014000000000E-01     -1.783828000000000E+02      7.620239000000000E-01     -9.439062000000000E+01
4870000000.000000      5.543213000000000E-01     -1.689687000000000E+02      5.045471000000000E-01     -7.939453000000000E+01      5.537415000000000E-01     -1.785938000000000E+02      7.631226000000000E-01     -9.412109000000000E+01
4871000000.000000      5.558472000000000E-01     -1.692500000000000E+02      5.060730000000000E-01     -7.977734000000000E+01      5.551147000000000E-01     -1.789531000000000E+02      7.652588000000000E-01     -9.437500000000000E+01
4872000000.000000      5.584412000000000E-01     -1.695469000000000E+02      5.058289000000000E-01     -7.991796000000000E+01      5.582581000000000E-01     -1.792031000000000E+02      7.688293000000000E-01     -9.436327000000000E+01
4873000000.000000      5.587769000000000E-01     -1.697578000000000E+02      5.071106000000000E-01     -8.022264000000000E+01      5.602112000000000E-01     -1.792578000000000E+02      7.716064000000000E-01     -9.441015000000000E+01
4874000000.000000      5.591736000000000E-01     -1.699922000000000E+02      5.086060000000000E-01     -8.061718000000000E+01      5.647888000000000E-01     -1.793672000000000E+02      7.725220000000000E-01     -9.438280000000000E+01
4875000000.000000      5.605774000000000E-01     -1.702812000000000E+02      5.103455000000000E-01     -8.074999000000000E+01      5.654602000000000E-01     -1.798594000000000E+02      7.759399000000000E-01     -9.453516000000000E+01
4876000000.000000      5.609436000000000E-01     -1.705703000000000E+02      5.098572000000000E-01     -8.094530000000000E+01      5.677795000000000E-01     -1.798359000000000E+02      7.776184000000000E-01     -9.458593000000000E+01
4877000000.000000      5.617065000000000E-01     -1.706640000000000E+02      5.120544000000000E-01     -8.108202000000000E+01      5.710754000000000E-01      1.798125000000000E+02      7.802429000000000E-01     -9.460155000000000E+01
4878000000.000000      5.620117000000000E-01     -1.708828000000000E+02      5.123901000000000E-01     -8.147264000000000E+01      5.720215000000000E-01      1.796484000000000E+02      7.828674000000000E-01     -9.469921000000000E+01
4879000000.000000      5.633850000000000E-01     -1.711094000000000E+02      5.137329000000000E-01     -8.140625000000000E+01      5.735168000000000E-01      1.794297000000000E+02      7.857361000000000E-01     -9.462500000000000E+01
4880000000.000000      5.627136000000000E-01     -1.712578000000000E+02      5.142822000000000E-01     -8.185938000000000E+01      5.778198000000000E-01      1.793281000000000E+02      7.872620000000000E-01     -9.466406000000000E+01
4881000000.000000      5.635986000000000E-01     -1.714219000000000E+02      5.157166000000000E-01     -8.196875000000000E+01      5.779724000000000E-01      1.788984000000000E+02      7.894897000000000E-01     -9.485155000000000E+01
4882000000.000000      5.628052000000000E-01     -1.714922000000000E+02      5.171204000000000E-01     -8.225780000000000E+01      5.813599000000000E-01      1.788984000000000E+02      7.894592000000000E-01     -9.482031000000000E+01
