! Network Analyzer HP8722D
! Hewlett-Packard
! Data name: Linha & Wilkinson
! Saver's name: Rodrigo Anjos
! Comments: Teste da utilização de aquisição
continua pelo VNA HP8722D
! Time and date: 17/4/2025 15:37
!              Frequency                     S11                                                   S21                                                   S12                                                   S22
# HZ  S  MA R 50
4800000000.000000      3.338165000000000E-01     -1.133203000000000E+02      2.885132000000000E-01     -6.082421000000000E+01      2.821045000000000E-01     -1.749375000000000E+02      6.559448000000000E-01     -8.995703000000000E+01
4801000000.000000      3.325500000000000E-01     -1.142422000000000E+02      2.928925000000000E-01     -6.088085000000000E+01      2.856750000000000E-01     -1.747578000000000E+02      6.552734000000000E-01     -9.009375000000000E+01
4802000000.000000      3.316803000000000E-01     -1.152031000000000E+02      2.973480000000000E-01     -6.073828000000000E+01      2.901459000000000E-01     -1.746172000000000E+02      6.535339000000000E-01     -9.007421000000000E+01
4803000000.000000      3.304291000000000E-01     -1.162617000000000E+02      3.017426000000000E-01     -6.088281000000000E+01      2.938843000000000E-01     -1.745547000000000E+02      6.530762000000000E-01     -9.025000000000000E+01
4804000000.000000      3.300323000000000E-01     -1.172461000000000E+02      3.062592000000000E-01     -6.108398000000000E+01      2.987671000000000E-01     -1.746562000000000E+02      6.512146000000000E-01     -9.033594000000000E+01
4805000000.000000      3.306580000000000E-01     -1.181914000000000E+02      3.117218000000000E-01     -6.134375000000000E+01      3.020172000000000E-01     -1.742422000000000E+02      6.523438000000000E-01     -9.044531000000000E+01
4806000000.000000      3.293915000000000E-01     -1.191484000000000E+02      3.148804000000000E-01     -6.137695000000000E+01      3.061066000000000E-01     -1.741719000000000E+02      6.515198000000000E-01     -9.049608000000000E+01
4807000000.000000      3.297272000000000E-01     -1.202070000000000E+02      3.200989000000000E-01     -6.151757000000000E+01      3.101349000000000E-01     -1.741719000000000E+02      6.505127000000000E-01     -9.053905000000000E+01
4808000000.000000      3.304291000000000E-01     -1.212695000000000E+02      3.245850000000000E-01     -6.162109000000000E+01      3.142548000000000E-01     -1.741484000000000E+02      6.490479000000000E-01     -9.062109000000000E+01
4809000000.000000      3.304749000000000E-01     -1.223867000000000E+02      3.293762000000000E-01     -6.199219000000000E+01      3.188171000000000E-01     -1.742422000000000E+02      6.490784000000000E-01     -9.079296000000000E+01
4810000000.000000      3.310852000000000E-01     -1.235000000000000E+02      3.332214000000000E-01     -6.198437000000000E+01      3.225708000000000E-01     -1.739453000000000E+02      6.503906000000000E-01     -9.094921000000000E+01
4811000000.000000      3.331146000000000E-01     -1.245976000000000E+02      3.373108000000000E-01     -6.223242000000000E+01      3.269806000000000E-01     -1.737890000000000E+02      6.485901000000000E-01     -9.085155000000000E+01
4812000000.000000      3.340302000000000E-01     -1.255000000000000E+02      3.414917000000000E-01     -6.248632000000000E+01      3.312073000000000E-01     -1.738047000000000E+02      6.488647000000000E-01     -9.102343000000000E+01
4813000000.000000      3.347321000000000E-01     -1.266484000000000E+02      3.456268000000000E-01     -6.262695000000000E+01      3.342743000000000E-01     -1.737422000000000E+02      6.484375000000000E-01     -9.103125000000000E+01
4814000000.000000      3.355713000000000E-01     -1.279375000000000E+02      3.500061000000000E-01     -6.289453000000000E+01      3.387909000000000E-01     -1.738359000000000E+02      6.487427000000000E-01     -9.107422000000000E+01
4815000000.000000      3.371887000000000E-01     -1.288828000000000E+02      3.531952000000000E-01     -6.299609000000000E+01      3.425598000000000E-01     -1.736484000000000E+02      6.476135000000000E-01     -9.114061000000000E+01
4816000000.000000      3.396149000000000E-01     -1.299766000000000E+02      3.579254000000000E-01     -6.323242000000000E+01      3.472900000000000E-01     -1.735859000000000E+02      6.489563000000000E-01     -9.125000000000000E+01
4817000000.000000      3.416138000000000E-01     -1.310234000000000E+02      3.622589000000000E-01     -6.355273000000000E+01      3.511505000000000E-01     -1.736094000000000E+02      6.487732000000000E-01     -9.141796000000000E+01
4818000000.000000      3.440552000000000E-01     -1.321719000000000E+02      3.660583000000000E-01     -6.374413000000000E+01      3.546143000000000E-01     -1.736250000000000E+02      6.483154000000000E-01     -9.149218000000000E+01
4819000000.000000      3.469696000000000E-01     -1.332500000000000E+02      3.698730000000000E-01     -6.398046000000000E+01      3.588562000000000E-01     -1.735391000000000E+02      6.507568000000000E-01     -9.161327000000000E+01
4820000000.000000      3.483429000000000E-01     -1.341719000000000E+02      3.744049000000000E-01     -6.415234000000000E+01      3.633270000000000E-01     -1.736875000000000E+02      6.507263000000000E-01     -9.161718000000000E+01
4821000000.000000      3.515320000000000E-01     -1.353672000000000E+02      3.777618000000000E-01     -6.455468000000000E+01      3.662872000000000E-01     -1.736328000000000E+02      6.497192000000000E-01     -9.177343000000000E+01
4822000000.000000      3.559418000000000E-01     -1.364453000000000E+02      3.813629000000000E-01     -6.463281000000000E+01      3.701172000000000E-01     -1.735312000000000E+02      6.525574000000000E-01     -9.173828000000000E+01
4823000000.000000      3.583069000000000E-01     -1.374063000000000E+02      3.857422000000000E-01     -6.496875000000000E+01      3.741302000000000E-01     -1.734922000000000E+02      6.522827000000000E-01     -9.189062000000000E+01
4824000000.000000      3.626709000000000E-01     -1.385000000000000E+02      3.892365000000000E-01     -6.534765000000000E+01      3.793030000000000E-01     -1.736172000000000E+02      6.542664000000000E-01     -9.191797000000000E+01
4825000000.000000      3.657684000000000E-01     -1.395078000000000E+02      3.918304000000000E-01     -6.546484000000000E+01      3.832092000000000E-01     -1.734453000000000E+02      6.546631000000000E-01     -9.204687000000000E+01
4826000000.000000      3.701477000000000E-01     -1.405000000000000E+02      3.969727000000000E-01     -6.591406000000000E+01      3.864594000000000E-01     -1.735547000000000E+02      6.553955000000000E-01     -9.205858000000000E+01
4827000000.000000      3.739014000000000E-01     -1.413516000000000E+02      4.002533000000000E-01     -6.596874000000000E+01      3.905640000000000E-01     -1.735312000000000E+02      6.570129000000000E-01     -9.207031000000000E+01
4828000000.000000      3.786011000000000E-01     -1.424141000000000E+02      4.040222000000000E-01     -6.632030000000000E+01      3.946686000000000E-01     -1.734375000000000E+02      6.596985000000000E-01     -9.212500000000000E+01
4829000000.000000      3.814545000000000E-01     -1.433125000000000E+02      4.074249000000000E-01     -6.671484000000000E+01      3.985443000000000E-01     -1.734453000000000E+02      6.598816000000000E-01     -9.204296000000000E+01
4830000000.000000      3.864594000000000E-01     -1.442109000000000E+02      4.103546000000000E-01     -6.696484000000000E+01      4.026642000000000E-01     -1.733906000000000E+02      6.612549000000000E-01     -9.235155000000000E+01
4831000000.000000      3.906860000000000E-01     -1.452031000000000E+02      4.142303000000000E-01     -6.737890000000000E+01      4.071808000000000E-01     -1.734062000000000E+02      6.636658000000000E-01     -9.234766000000000E+01
4832000000.000000      3.964081000000000E-01     -1.460703000000000E+02      4.181671000000000E-01     -6.731250000000000E+01      4.104462000000000E-01     -1.735312000000000E+02      6.647034000000000E-01     -9.245312000000000E+01
4833000000.000000      4.010773000000000E-01     -1.470469000000000E+02      4.203796000000000E-01     -6.775000000000000E+01      4.147339000000000E-01     -1.736250000000000E+02      6.667175000000000E-01     -9.249218000000000E+01
4834000000.000000      4.059906000000000E-01     -1.478437000000000E+02      4.235535000000000E-01     -6.808594000000000E+01      4.190216000000000E-01     -1.736094000000000E+02      6.681519000000000E-01     -9.248827000000000E+01
4835000000.000000      4.103851000000000E-01     -1.486797000000000E+02      4.280396000000000E-01     -6.847265000000000E+01      4.235382000000000E-01     -1.736875000000000E+02      6.707458000000000E-01     -9.264843000000000E+01
4836000000.000000      4.164581000000000E-01     -1.494766000000000E+02      4.303436000000000E-01     -6.865624000000000E+01      4.270325000000000E-01     -1.736094000000000E+02      6.726990000000000E-01     -9.265234000000000E+01
4837000000.000000      4.211884000000000E-01     -1.503047000000000E+02      4.343262000000000E-01     -6.923828000000000E+01      4.307404000000000E-01     -1.737656000000000E+02      6.735535000000000E-01     -9.274609000000000E+01
4838000000.000000      4.263153000000000E-01     -1.511328000000000E+02      4.377899000000000E-01     -6.926562000000000E+01      4.350433000000000E-01     -1.737813000000000E+02      6.756592000000000E-01     -9.263672000000000E+01
4839000000.000000      4.313507000000000E-01     -1.518047000000000E+02      4.393921000000000E-01     -6.960155000000000E+01      4.387665000000000E-01     -1.738203000000000E+02      6.780701000000000E-01     -9.280468000000000E+01
4840000000.000000      4.362183000000000E-01     -1.526719000000000E+02      4.427032000000000E-01     -6.991796000000000E+01      4.436188000000000E-01     -1.739687000000000E+02      6.802368000000000E-01     -9.282812000000000E+01
4841000000.000000      4.418640000000000E-01     -1.534844000000000E+02      4.463501000000000E-01     -7.031250000000000E+01      4.477997000000000E-01     -1.740937000000000E+02      6.844177000000000E-01     -9.292578000000000E+01
4842000000.000000      4.473877000000000E-01     -1.541563000000000E+02      4.488831000000000E-01     -7.065234000000000E+01      4.503937000000000E-01     -1.740859000000000E+02      6.849670000000000E-01     -9.303125000000000E+01
4843000000.000000      4.519196000000000E-01     -1.549375000000000E+02      4.509430000000000E-01     -7.100780000000000E+01      4.556122000000000E-01     -1.741875000000000E+02      6.885681000000000E-01     -9.294531000000000E+01
4844000000.000000      4.570007000000000E-01     -1.555781000000000E+02      4.542542000000000E-01     -7.126562000000000E+01      4.589844000000000E-01     -1.742578000000000E+02      6.901245000000000E-01     -9.307421000000000E+01
4845000000.000000      4.618530000000000E-01     -1.562344000000000E+02      4.566803000000000E-01     -7.155859000000000E+01      4.635773000000000E-01     -1.744297000000000E+02      6.929626000000000E-01     -9.304688000000000E+01
4846000000.000000      4.670868000000000E-01     -1.568125000000000E+02      4.597473000000000E-01     -7.195313000000000E+01      4.680328000000000E-01     -1.744688000000000E+02      6.957397000000000E-01     -9.304296000000000E+01
4847000000.000000      4.732056000000000E-01     -1.575703000000000E+02      4.615631000000000E-01     -7.223046000000000E+01      4.721527000000000E-01     -1.746016000000000E+02      6.995544000000000E-01     -9.319139000000000E+01
4848000000.000000      4.776459000000000E-01     -1.581953000000000E+02      4.641418000000000E-01     -7.250000000000000E+01      4.761353000000000E-01     -1.746875000000000E+02      7.008362000000000E-01     -9.317186000000000E+01
4849000000.000000      4.825287000000000E-01     -1.590469000000000E+02      4.675446000000000E-01     -7.293750000000000E+01      4.802704000000000E-01     -1.748750000000000E+02      7.028198000000000E-01     -9.322266000000000E+01
4850000000.000000      4.874115000000000E-01     -1.594766000000000E+02      4.691315000000000E-01     -7.307812000000000E+01      4.834900000000000E-01     -1.749141000000000E+02      7.062378000000000E-01     -9.331249000000000E+01
4851000000.000000      4.921570000000000E-01     -1.600391000000000E+02      4.725189000000000E-01     -7.361718000000000E+01      4.875488000000000E-01     -1.750234000000000E+02      7.106628000000000E-01     -9.333593000000000E+01
4852000000.000000      4.970093000000000E-01     -1.606328000000000E+02      4.742279000000000E-01     -7.391015000000000E+01      4.916687000000000E-01     -1.751719000000000E+02      7.120361000000000E-01     -9.328905000000000E+01
4853000000.000000      5.020142000000000E-01     -1.612344000000000E+02      4.753876000000000E-01     -7.417187000000000E+01      4.961395000000000E-01     -1.753828000000000E+02      7.144470000000000E-01     -9.353516000000000E+01
4854000000.000000      5.060120000000000E-01     -1.616953000000000E+02      4.788208000000000E-01     -7.464844000000000E+01      4.995728000000000E-01     -1.754688000000000E+02      7.175598000000000E-01     -9.352734000000000E+01
4855000000.000000      5.090027000000000E-01     -1.622734000000000E+02      4.796600000000000E-01     -7.492578000000000E+01      5.036926000000000E-01     -1.756094000000000E+02      7.190857000000000E-01     -9.352734000000000E+01
4856000000.000000      5.144958000000000E-01     -1.627891000000000E+02      4.824371000000000E-01     -7.514453000000000E+01      5.070801000000000E-01     -1.758437000000000E+02      7.226868000000000E-01     -9.353516000000000E+01
4857000000.000000      5.186768000000000E-01     -1.633750000000000E+02      4.860077000000000E-01     -7.553515000000000E+01      5.110779000000000E-01     -1.757656000000000E+02      7.269592000000000E-01     -9.358593000000000E+01
4858000000.000000      5.206299000000000E-01     -1.638750000000000E+02      4.871521000000000E-01     -7.580859000000000E+01      5.151062000000000E-01     -1.762031000000000E+02      7.281799000000000E-01     -9.360937000000000E+01
4859000000.000000      5.250549000000000E-01     -1.643594000000000E+02      4.897614000000000E-01     -7.612109000000000E+01      5.178528000000000E-01     -1.762578000000000E+02      7.333679000000000E-01     -9.378906000000000E+01
4860000000.000000      5.295105000000000E-01     -1.648125000000000E+02      4.910736000000000E-01     -7.629296000000000E+01      5.213928000000000E-01     -1.765938000000000E+02      7.345581000000000E-01     -9.363281000000000E+01
4861000000.000000      5.322876000000000E-01     -1.652266000000000E+02      4.909363000000000E-01     -7.679688000000000E+01      5.257263000000000E-01     -1.766875000000000E+02      7.381287000000000E-01     -9.380077000000000E+01
4862000000.000000      5.354004000000000E-01     -1.656719000000000E+02      4.941254000000000E-01     -7.689843000000000E+01      5.278625000000000E-01     -1.767969000000000E+02      7.412109000000000E-01     -9.385157000000000E+01
4863000000.000000      5.381470000000000E-01     -1.660625000000000E+02      4.927063000000000E-01     -7.736718000000000E+01      5.313110000000000E-01     -1.769687000000000E+02      7.446594000000000E-01     -9.384766000000000E+01
4864000000.000000      5.416870000000000E-01     -1.664922000000000E+02      4.969025000000000E-01     -7.764062000000000E+01      5.342407000000000E-01     -1.771094000000000E+02      7.457886000000000E-01     -9.386719000000000E+01
4865000000.000000      5.439148000000000E-01     -1.670547000000000E+02      4.972229000000000E-01     -7.782812000000000E+01      5.368347000000000E-01     -1.774453000000000E+02      7.491760000000000E-01     -9.375780000000000E+01
4866000000.000000      5.458374000000000E-01     -1.672578000000000E+02      4.987640000000000E-01     -7.832031000000000E+01      5.408020000000000E-01     -1.776328000000000E+02      7.530518000000000E-01     -9.382813000000000E+01
4867000000.000000      5.477295000000000E-01     -1.676484000000000E+02      5.010681000000000E-01     -7.844921000000000E+01      5.439758000000000E-01     -1.776875000000000E+02      7.560730000000000E-01     -9.398829000000000E+01
4868000000.000000      5.513000000000000E-01     -1.680547000000000E+02      5.019226000000000E-01     -7.883203000000000E+01      5.480042000000000E-01     -1.778516000000000E+02      7.587891000000000E-01     -9.400782000000000E+01
4869000000.000000      5.516663000000000E-01     -1.683047000000000E+02      5.024109000000000E-01     -7.908593000000000E+01      5.500183000000000E-01     -1.781797000000000E+02      7.610779000000000E-01     -9.414843000000000E+01
4870000000.000000      5.539856000000000E-01     -1.686406000000000E+02      5.041504000000000E-01     -7.930078000000000E+01      5.540466000000000E-01     -1.783125000000000E+02      7.633972000000000E-01     -9.408594000000000E+01
4871000000.000000      5.563660000000000E-01     -1.690859000000000E+02      5.055847000000000E-01     -7.965234000000000E+01      5.554810000000000E-01     -1.784453000000000E+02      7.653809000000000E-01     -9.419140000000000E+01
4872000000.000000      5.574036000000000E-01     -1.693125000000000E+02      5.068054000000000E-01     -7.970703000000000E+01      5.571899000000000E-01     -1.789453000000000E+02      7.701721000000000E-01     -9.413280000000000E+01
4873000000.000000      5.590210000000000E-01     -1.695156000000000E+02      5.058594000000000E-01     -8.005468000000000E+01      5.590820000000000E-01     -1.790313000000000E+02      7.703247000000000E-01     -9.427734000000000E+01
4874000000.000000      5.590820000000000E-01     -1.697344000000000E+02      5.084534000000000E-01     -8.024609000000000E+01      5.648499000000000E-01     -1.791797000000000E+02      7.737732000000000E-01     -9.417578000000000E+01
4875000000.000000      5.625305000000000E-01     -1.701562000000000E+02      5.090637000000000E-01     -8.053125000000000E+01      5.646973000000000E-01     -1.795781000000000E+02      7.749023000000000E-01     -9.433203000000000E+01
4876000000.000000      5.606384000000000E-01     -1.703203000000000E+02      5.097351000000000E-01     -8.066797000000000E+01      5.673523000000000E-01     -1.797031000000000E+02      7.792664000000000E-01     -9.443359000000000E+01
4877000000.000000      5.610352000000000E-01     -1.705078000000000E+02      5.112305000000000E-01     -8.091797000000000E+01      5.706177000000000E-01      1.799297000000000E+02      7.807007000000000E-01     -9.453905000000000E+01
4878000000.000000      5.631409000000000E-01     -1.706484000000000E+02      5.135803000000000E-01     -8.116796000000000E+01      5.724182000000000E-01      1.799531000000000E+02      7.839966000000000E-01     -9.458593000000000E+01
4879000000.000000      5.630188000000000E-01     -1.709141000000000E+02      5.126343000000000E-01     -8.135157000000000E+01      5.745850000000000E-01      1.796328000000000E+02      7.850647000000000E-01     -9.433985000000000E+01
4880000000.000000      5.624084000000000E-01     -1.710547000000000E+02      5.154419000000000E-01     -8.162109000000000E+01      5.776978000000000E-01      1.794688000000000E+02      7.879639000000000E-01     -9.446875000000000E+01
4881000000.000000      5.640564000000000E-01     -1.711406000000000E+02      5.163879000000000E-01     -8.166796000000000E+01      5.783081000000000E-01      1.791250000000000E+02      7.891846000000000E-01     -9.457811000000000E+01
4882000000.000000      5.625305000000000E-01     -1.712969000000000E+02      5.167847000000000E-01     -8.201172000000000E+01      5.818176000000000E-01      1.790937000000000E+02      7.904663000000000E-01     -9.470312000000000E+01
