! Network Analyzer HP8722D
! Hewlett-Packard
! Data name: Linha & Wilkinson
! Saver's name: Rodrigo Anjos
! Comments: Teste da utilização de aquisição
continua pelo VNA HP8722D
! Time and date: 17/4/2025 14:30
!              Frequency                     S11                                                   S21                                                   S12                                                   S22
# HZ  S  MA R 50
4800000000.000000      3.334961000000000E-01     -1.132187000000000E+02      2.869415000000000E-01     -6.085546000000000E+01      2.810669000000000E-01     -1.749922000000000E+02      6.564331000000000E-01     -8.991014000000000E+01
4801000000.000000      3.322906000000000E-01     -1.141875000000000E+02      2.913361000000000E-01     -6.081249000000000E+01      2.843018000000000E-01     -1.747969000000000E+02      6.535645000000000E-01     -9.001171000000000E+01
4802000000.000000      3.311462000000000E-01     -1.151484000000000E+02      2.955780000000000E-01     -6.082617000000000E+01      2.892761000000000E-01     -1.746953000000000E+02      6.522217000000000E-01     -9.007813000000000E+01
4803000000.000000      3.303375000000000E-01     -1.161601000000000E+02      3.013306000000000E-01     -6.106640000000000E+01      2.923889000000000E-01     -1.745781000000000E+02      6.524048000000000E-01     -9.025782000000000E+01
4804000000.000000      3.296814000000000E-01     -1.171836000000000E+02      3.053741000000000E-01     -6.099804000000000E+01      2.970123000000000E-01     -1.745391000000000E+02      6.521301000000000E-01     -9.017187000000000E+01
4805000000.000000      3.303528000000000E-01     -1.181367000000000E+02      3.094635000000000E-01     -6.123241000000000E+01      3.012695000000000E-01     -1.744062000000000E+02      6.505127000000000E-01     -9.051561000000000E+01
4806000000.000000      3.297729000000000E-01     -1.191758000000000E+02      3.140717000000000E-01     -6.131640000000000E+01      3.040009000000000E-01     -1.742344000000000E+02      6.505127000000000E-01     -9.056250000000000E+01
4807000000.000000      3.294067000000000E-01     -1.202891000000000E+02      3.189392000000000E-01     -6.154101000000000E+01      3.089142000000000E-01     -1.742578000000000E+02      6.499329000000000E-01     -9.055079000000000E+01
4808000000.000000      3.300934000000000E-01     -1.211953000000000E+02      3.229065000000000E-01     -6.151953000000000E+01      3.137207000000000E-01     -1.741484000000000E+02      6.491089000000000E-01     -9.067577000000000E+01
4809000000.000000      3.304443000000000E-01     -1.223555000000000E+02      3.271332000000000E-01     -6.193945000000000E+01      3.175354000000000E-01     -1.741797000000000E+02      6.484985000000000E-01     -9.082422000000000E+01
4810000000.000000      3.316803000000000E-01     -1.234258000000000E+02      3.316803000000000E-01     -6.199804000000000E+01      3.213043000000000E-01     -1.740547000000000E+02      6.490784000000000E-01     -9.091406000000000E+01
4811000000.000000      3.326416000000000E-01     -1.244570000000000E+02      3.361511000000000E-01     -6.239258000000000E+01      3.264465000000000E-01     -1.739141000000000E+02      6.488953000000000E-01     -9.081640000000000E+01
4812000000.000000      3.334351000000000E-01     -1.254570000000000E+02      3.406677000000000E-01     -6.249413000000000E+01      3.297882000000000E-01     -1.738203000000000E+02      6.485901000000000E-01     -9.097656000000000E+01
4813000000.000000      3.344116000000000E-01     -1.266680000000000E+02      3.443756000000000E-01     -6.277148000000000E+01      3.335114000000000E-01     -1.737344000000000E+02      6.480103000000000E-01     -9.096094000000000E+01
4814000000.000000      3.356323000000000E-01     -1.279140000000000E+02      3.487549000000000E-01     -6.289453000000000E+01      3.369751000000000E-01     -1.737734000000000E+02      6.478882000000000E-01     -9.113281000000000E+01
4815000000.000000      3.373108000000000E-01     -1.287734000000000E+02      3.533020000000000E-01     -6.308203000000000E+01      3.414307000000000E-01     -1.737266000000000E+02      6.473083000000000E-01     -9.117968000000000E+01
4816000000.000000      3.391876000000000E-01     -1.298984000000000E+02      3.572845000000000E-01     -6.326953000000000E+01      3.468018000000000E-01     -1.736406000000000E+02      6.485901000000000E-01     -9.125000000000000E+01
4817000000.000000      3.419800000000000E-01     -1.308828000000000E+02      3.609619000000000E-01     -6.353710000000000E+01      3.491211000000000E-01     -1.736172000000000E+02      6.475525000000000E-01     -9.138281000000000E+01
4818000000.000000      3.438568000000000E-01     -1.321328000000000E+02      3.642731000000000E-01     -6.379687000000000E+01      3.539886000000000E-01     -1.735547000000000E+02      6.480408000000000E-01     -9.150391000000000E+01
4819000000.000000      3.469238000000000E-01     -1.331484000000000E+02      3.685608000000000E-01     -6.401953000000000E+01      3.569794000000000E-01     -1.734922000000000E+02      6.505127000000000E-01     -9.156641000000000E+01
4820000000.000000      3.480835000000000E-01     -1.341641000000000E+02      3.728943000000000E-01     -6.428515000000000E+01      3.614960000000000E-01     -1.734141000000000E+02      6.509094000000000E-01     -9.160156000000000E+01
4821000000.000000      3.519440000000000E-01     -1.353437000000000E+02      3.767395000000000E-01     -6.462500000000000E+01      3.651581000000000E-01     -1.735547000000000E+02      6.492310000000000E-01     -9.170313000000000E+01
4822000000.000000      3.558655000000000E-01     -1.363594000000000E+02      3.796082000000000E-01     -6.462500000000000E+01      3.692627000000000E-01     -1.735859000000000E+02      6.510925000000000E-01     -9.187500000000000E+01
4823000000.000000      3.577576000000000E-01     -1.373437000000000E+02      3.838043000000000E-01     -6.491796000000000E+01      3.731079000000000E-01     -1.733281000000000E+02      6.525879000000000E-01     -9.180079000000000E+01
4824000000.000000      3.622284000000000E-01     -1.384063000000000E+02      3.876343000000000E-01     -6.530859000000000E+01      3.778229000000000E-01     -1.735000000000000E+02      6.542358000000000E-01     -9.197266000000000E+01
4825000000.000000      3.653259000000000E-01     -1.393828000000000E+02      3.915558000000000E-01     -6.548046000000000E+01      3.825989000000000E-01     -1.734141000000000E+02      6.544495000000000E-01     -9.198046000000000E+01
4826000000.000000      3.696289000000000E-01     -1.404297000000000E+02      3.952332000000000E-01     -6.590234000000000E+01      3.850098000000000E-01     -1.734766000000000E+02      6.560974000000000E-01     -9.206640000000000E+01
4827000000.000000      3.735657000000000E-01     -1.412812000000000E+02      3.991699000000000E-01     -6.605078000000000E+01      3.891754000000000E-01     -1.734219000000000E+02      6.574402000000000E-01     -9.211718000000000E+01
4828000000.000000      3.782806000000000E-01     -1.423125000000000E+02      4.029541000000000E-01     -6.625390000000000E+01      3.936005000000000E-01     -1.734062000000000E+02      6.590881000000000E-01     -9.211718000000000E+01
4829000000.000000      3.814392000000000E-01     -1.432266000000000E+02      4.057312000000000E-01     -6.655859000000000E+01      3.977051000000000E-01     -1.734375000000000E+02      6.604004000000000E-01     -9.219530000000000E+01
4830000000.000000      3.863525000000000E-01     -1.441641000000000E+02      4.098969000000000E-01     -6.694140000000000E+01      4.013214000000000E-01     -1.734453000000000E+02      6.616516000000000E-01     -9.230469000000000E+01
4831000000.000000      3.900909000000000E-01     -1.450859000000000E+02      4.129181000000000E-01     -6.733593000000000E+01      4.056091000000000E-01     -1.734219000000000E+02      6.626282000000000E-01     -9.232813000000000E+01
4832000000.000000      3.964081000000000E-01     -1.459531000000000E+02      4.167938000000000E-01     -6.747265000000000E+01      4.094086000000000E-01     -1.734844000000000E+02      6.646118000000000E-01     -9.244141000000000E+01
4833000000.000000      4.008789000000000E-01     -1.469531000000000E+02      4.203491000000000E-01     -6.771484000000000E+01      4.130554000000000E-01     -1.735859000000000E+02      6.666870000000000E-01     -9.247656000000000E+01
4834000000.000000      4.049835000000000E-01     -1.477656000000000E+02      4.228821000000000E-01     -6.805859000000000E+01      4.177094000000000E-01     -1.736172000000000E+02      6.676941000000000E-01     -9.246485000000000E+01
4835000000.000000      4.100189000000000E-01     -1.485937000000000E+02      4.265900000000000E-01     -6.846874000000000E+01      4.227753000000000E-01     -1.735703000000000E+02      6.700745000000000E-01     -9.269140000000000E+01
4836000000.000000      4.157257000000000E-01     -1.493828000000000E+02      4.297791000000000E-01     -6.861328000000000E+01      4.262543000000000E-01     -1.736484000000000E+02      6.712952000000000E-01     -9.265625000000000E+01
4837000000.000000      4.207916000000000E-01     -1.502187000000000E+02      4.328156000000000E-01     -6.927734000000000E+01      4.296265000000000E-01     -1.737109000000000E+02      6.738586000000000E-01     -9.268358000000000E+01
4838000000.000000      4.262695000000000E-01     -1.511094000000000E+02      4.377594000000000E-01     -6.941796000000000E+01      4.339294000000000E-01     -1.737266000000000E+02      6.772461000000000E-01     -9.272264000000000E+01
4839000000.000000      4.312897000000000E-01     -1.517109000000000E+02      4.392242000000000E-01     -6.966797000000000E+01      4.382019000000000E-01     -1.738203000000000E+02      6.791992000000000E-01     -9.275391000000000E+01
4840000000.000000      4.355774000000000E-01     -1.525781000000000E+02      4.418945000000000E-01     -6.998047000000000E+01      4.422760000000000E-01     -1.739844000000000E+02      6.797485000000000E-01     -9.283983000000000E+01
4841000000.000000      4.411011000000000E-01     -1.534453000000000E+02      4.444885000000000E-01     -7.040234000000000E+01      4.465027000000000E-01     -1.740313000000000E+02      6.828308000000000E-01     -9.283594000000000E+01
4842000000.000000      4.471130000000000E-01     -1.540000000000000E+02      4.479523000000000E-01     -7.057422000000000E+01      4.499512000000000E-01     -1.740937000000000E+02      6.859436000000000E-01     -9.295313000000000E+01
4843000000.000000      4.513397000000000E-01     -1.548203000000000E+02      4.510498000000000E-01     -7.101563000000000E+01      4.539032000000000E-01     -1.741250000000000E+02      6.875305000000000E-01     -9.294531000000000E+01
4844000000.000000      4.563599000000000E-01     -1.555234000000000E+02      4.535522000000000E-01     -7.131640000000000E+01      4.581299000000000E-01     -1.742578000000000E+02      6.904907000000000E-01     -9.308203000000000E+01
4845000000.000000      4.613342000000000E-01     -1.561875000000000E+02      4.558563000000000E-01     -7.160156000000000E+01      4.628601000000000E-01     -1.743984000000000E+02      6.910400000000000E-01     -9.299999000000000E+01
4846000000.000000      4.665527000000000E-01     -1.567656000000000E+02      4.587402000000000E-01     -7.180078000000000E+01      4.669800000000000E-01     -1.744375000000000E+02      6.946716000000000E-01     -9.312891000000000E+01
4847000000.000000      4.726868000000000E-01     -1.574844000000000E+02      4.611206000000000E-01     -7.222656000000000E+01      4.715424000000000E-01     -1.746406000000000E+02      6.983337000000000E-01     -9.330858000000000E+01
4848000000.000000      4.777527000000000E-01     -1.580937000000000E+02      4.629364000000000E-01     -7.240624000000000E+01      4.746552000000000E-01     -1.746953000000000E+02      7.002563000000000E-01     -9.323437000000000E+01
4849000000.000000      4.822083000000000E-01     -1.589687000000000E+02      4.667053000000000E-01     -7.296484000000000E+01      4.792938000000000E-01     -1.747890000000000E+02      7.037354000000000E-01     -9.319921000000000E+01
4850000000.000000      4.874115000000000E-01     -1.593516000000000E+02      4.693909000000000E-01     -7.323047000000000E+01      4.827271000000000E-01     -1.748672000000000E+02      7.061157000000000E-01     -9.326563000000000E+01
4851000000.000000      4.916534000000000E-01     -1.599766000000000E+02      4.727325000000000E-01     -7.360937000000000E+01      4.862366000000000E-01     -1.750234000000000E+02      7.095947000000000E-01     -9.332811000000000E+01
4852000000.000000      4.971466000000000E-01     -1.605156000000000E+02      4.743042000000000E-01     -7.386328000000000E+01      4.913330000000000E-01     -1.750937000000000E+02      7.113647000000000E-01     -9.337500000000000E+01
4853000000.000000      5.019226000000000E-01     -1.611484000000000E+02      4.741974000000000E-01     -7.423437000000000E+01      4.949951000000000E-01     -1.753672000000000E+02      7.147827000000000E-01     -9.351563000000000E+01
4854000000.000000      5.053406000000000E-01     -1.616641000000000E+02      4.778748000000000E-01     -7.462891000000000E+01      4.980774000000000E-01     -1.754609000000000E+02      7.169800000000000E-01     -9.351563000000000E+01
4855000000.000000      5.094910000000000E-01     -1.622187000000000E+02      4.792175000000000E-01     -7.485546000000000E+01      5.021973000000000E-01     -1.755234000000000E+02      7.203369000000000E-01     -9.340624000000000E+01
4856000000.000000      5.143738000000000E-01     -1.626875000000000E+02      4.816895000000000E-01     -7.512109000000000E+01      5.066528000000000E-01     -1.756875000000000E+02      7.238770000000000E-01     -9.365234000000000E+01
4857000000.000000      5.181580000000000E-01     -1.632969000000000E+02      4.844055000000000E-01     -7.544531000000000E+01      5.101318000000000E-01     -1.757813000000000E+02      7.265930000000000E-01     -9.354687000000000E+01
4858000000.000000      5.205383000000000E-01     -1.637656000000000E+02      4.860382000000000E-01     -7.578515000000000E+01      5.121460000000000E-01     -1.760937000000000E+02      7.291260000000000E-01     -9.367968000000000E+01
4859000000.000000      5.247192000000000E-01     -1.643203000000000E+02      4.874420000000000E-01     -7.609765000000000E+01      5.166016000000000E-01     -1.763281000000000E+02      7.321167000000000E-01     -9.381250000000000E+01
4860000000.000000      5.296936000000000E-01     -1.648281000000000E+02      4.897614000000000E-01     -7.637500000000000E+01      5.204163000000000E-01     -1.763906000000000E+02      7.348328000000000E-01     -9.369141000000000E+01
4861000000.000000      5.327759000000000E-01     -1.651797000000000E+02      4.911194000000000E-01     -7.673046000000000E+01      5.238953000000000E-01     -1.765547000000000E+02      7.376404000000000E-01     -9.387890000000000E+01
4862000000.000000      5.352478000000000E-01     -1.656250000000000E+02      4.941254000000000E-01     -7.708984000000000E+01      5.275574000000000E-01     -1.766484000000000E+02      7.421570000000000E-01     -9.381250000000000E+01
4863000000.000000      5.381470000000000E-01     -1.660312000000000E+02      4.941864000000000E-01     -7.747656000000000E+01      5.311890000000000E-01     -1.767344000000000E+02      7.445679000000000E-01     -9.382030000000000E+01
4864000000.000000      5.417175000000000E-01     -1.664063000000000E+02      4.971771000000000E-01     -7.751171000000000E+01      5.324402000000000E-01     -1.770313000000000E+02      7.464905000000000E-01     -9.394140000000000E+01
4865000000.000000      5.431824000000000E-01     -1.669765000000000E+02      4.972534000000000E-01     -7.781640000000000E+01      5.375366000000000E-01     -1.773438000000000E+02      7.501526000000000E-01     -9.378515000000000E+01
4866000000.000000      5.454712000000000E-01     -1.671562000000000E+02      4.989624000000000E-01     -7.815624000000000E+01      5.414124000000000E-01     -1.774844000000000E+02      7.533875000000000E-01     -9.385546000000000E+01
4867000000.000000      5.481567000000000E-01     -1.675937000000000E+02      4.997406000000000E-01     -7.860937000000000E+01      5.427856000000000E-01     -1.777266000000000E+02      7.559814000000000E-01     -9.396484000000000E+01
4868000000.000000      5.509949000000000E-01     -1.679844000000000E+02      5.005798000000000E-01     -7.878124000000000E+01      5.476990000000000E-01     -1.779531000000000E+02      7.575684000000000E-01     -9.403515000000000E+01
4869000000.000000      5.516663000000000E-01     -1.682109000000000E+02      5.016785000000000E-01     -7.904687000000000E+01      5.497742000000000E-01     -1.781172000000000E+02      7.608032000000000E-01     -9.414843000000000E+01
4870000000.000000      5.534668000000000E-01     -1.686172000000000E+02      5.044861000000000E-01     -7.914063000000000E+01      5.520325000000000E-01     -1.783281000000000E+02      7.637329000000000E-01     -9.403906000000000E+01
4871000000.000000      5.557861000000000E-01     -1.689922000000000E+02      5.061035000000000E-01     -7.947266000000000E+01      5.552673000000000E-01     -1.785781000000000E+02      7.652893000000000E-01     -9.417969000000000E+01
4872000000.000000      5.577698000000000E-01     -1.692266000000000E+02      5.059814000000000E-01     -7.950000000000000E+01      5.581970000000000E-01     -1.790078000000000E+02      7.698059000000000E-01     -9.416796000000000E+01
4873000000.000000      5.583191000000000E-01     -1.694141000000000E+02      5.069275000000000E-01     -8.005859000000000E+01      5.591736000000000E-01     -1.790313000000000E+02      7.707214000000000E-01     -9.431641000000000E+01
4874000000.000000      5.594177000000000E-01     -1.697266000000000E+02      5.086975000000000E-01     -8.017187000000000E+01      5.637512000000000E-01     -1.792109000000000E+02      7.726440000000000E-01     -9.417969000000000E+01
4875000000.000000      5.614319000000000E-01     -1.700000000000000E+02      5.091553000000000E-01     -8.053125000000000E+01      5.651245000000000E-01     -1.795391000000000E+02      7.758789000000000E-01     -9.433985000000000E+01
4876000000.000000      5.605469000000000E-01     -1.702031000000000E+02      5.106506000000000E-01     -8.074219000000000E+01      5.667114000000000E-01     -1.795938000000000E+02      7.788391000000000E-01     -9.439062000000000E+01
4877000000.000000      5.616455000000000E-01     -1.704375000000000E+02      5.123291000000000E-01     -8.092188000000000E+01      5.699463000000000E-01     -1.799375000000000E+02      7.796936000000000E-01     -9.446484000000000E+01
4878000000.000000      5.622253000000000E-01     -1.705625000000000E+02      5.129700000000000E-01     -8.119532000000000E+01      5.715332000000000E-01     -1.799922000000000E+02      7.830505000000000E-01     -9.454687000000000E+01
4879000000.000000      5.635376000000000E-01     -1.708125000000000E+02      5.128784000000000E-01     -8.130468000000000E+01      5.749512000000000E-01      1.796875000000000E+02      7.839050000000000E-01     -9.441406000000000E+01
4880000000.000000      5.628967000000000E-01     -1.710000000000000E+02      5.146179000000000E-01     -8.140625000000000E+01      5.758057000000000E-01      1.794922000000000E+02      7.882385000000000E-01     -9.450390000000000E+01
4881000000.000000      5.640259000000000E-01     -1.711172000000000E+02      5.155945000000000E-01     -8.168749000000000E+01      5.796509000000000E-01      1.792266000000000E+02      7.891235000000000E-01     -9.464062000000000E+01
4882000000.000000      5.617065000000000E-01     -1.712344000000000E+02      5.165100000000000E-01     -8.193750000000000E+01      5.812378000000000E-01      1.791953000000000E+02      7.894592000000000E-01     -9.467968000000000E+01
