! Network Analyzer HP8722D
! Hewlett-Packard
! Data name: Linha & Wilkinson
! Saver's name: Rodrigo Anjos
! Comments: Teste da utilização de aquisição
continua pelo VNA HP8722D
! Time and date: 17/4/2025 15:57
!              Frequency                     S11                                                   S21                                                   S12                                                   S22
# HZ  S  MA R 50
4800000000.000000      3.335876000000000E-01     -1.135195000000000E+02      2.901917000000000E-01     -6.080664000000000E+01      2.839813000000000E-01     -1.749687000000000E+02      6.567383000000000E-01     -8.999609000000000E+01
4801000000.000000      3.326416000000000E-01     -1.144570000000000E+02      2.948914000000000E-01     -6.083593000000000E+01      2.881317000000000E-01     -1.748984000000000E+02      6.545715000000000E-01     -9.010546000000000E+01
4802000000.000000      3.309937000000000E-01     -1.154844000000000E+02      2.989655000000000E-01     -6.083593000000000E+01      2.921143000000000E-01     -1.747344000000000E+02      6.535034000000000E-01     -9.013672000000000E+01
4803000000.000000      3.306885000000000E-01     -1.163945000000000E+02      3.044281000000000E-01     -6.114843000000000E+01      2.956238000000000E-01     -1.746250000000000E+02      6.530762000000000E-01     -9.022655000000000E+01
4804000000.000000      3.303070000000000E-01     -1.174414000000000E+02      3.081512000000000E-01     -6.124804000000000E+01      3.003082000000000E-01     -1.747031000000000E+02      6.520691000000000E-01     -9.032030000000000E+01
4805000000.000000      3.313141000000000E-01     -1.184453000000000E+02      3.130798000000000E-01     -6.119726000000000E+01      3.042450000000000E-01     -1.745234000000000E+02      6.527710000000000E-01     -9.051952000000000E+01
4806000000.000000      3.303833000000000E-01     -1.194765000000000E+02      3.177338000000000E-01     -6.146484000000000E+01      3.077545000000000E-01     -1.742734000000000E+02      6.506042000000000E-01     -9.064062000000000E+01
4807000000.000000      3.302307000000000E-01     -1.205312000000000E+02      3.212891000000000E-01     -6.171093000000000E+01      3.120880000000000E-01     -1.743125000000000E+02      6.504822000000000E-01     -9.055079000000000E+01
4808000000.000000      3.310394000000000E-01     -1.214961000000000E+02      3.263550000000000E-01     -6.160742000000000E+01      3.159637000000000E-01     -1.741797000000000E+02      6.494141000000000E-01     -9.064062000000000E+01
4809000000.000000      3.308716000000000E-01     -1.226133000000000E+02      3.311005000000000E-01     -6.212695000000000E+01      3.208923000000000E-01     -1.742188000000000E+02      6.498718000000000E-01     -9.085938000000000E+01
4810000000.000000      3.315430000000000E-01     -1.238281000000000E+02      3.349915000000000E-01     -6.211914000000000E+01      3.248138000000000E-01     -1.741328000000000E+02      6.486511000000000E-01     -9.091406000000000E+01
4811000000.000000      3.329468000000000E-01     -1.247539000000000E+02      3.399506000000000E-01     -6.248241000000000E+01      3.295898000000000E-01     -1.740000000000000E+02      6.484070000000000E-01     -9.104296000000000E+01
4812000000.000000      3.341370000000000E-01     -1.258672000000000E+02      3.435211000000000E-01     -6.263672000000000E+01      3.332520000000000E-01     -1.739141000000000E+02      6.483154000000000E-01     -9.105860000000000E+01
4813000000.000000      3.352509000000000E-01     -1.268594000000000E+02      3.474884000000000E-01     -6.278515000000000E+01      3.369293000000000E-01     -1.737422000000000E+02      6.491699000000000E-01     -9.109766000000000E+01
4814000000.000000      3.358612000000000E-01     -1.281016000000000E+02      3.514099000000000E-01     -6.298242000000000E+01      3.407288000000000E-01     -1.739453000000000E+02      6.491089000000000E-01     -9.129686000000000E+01
4815000000.000000      3.380127000000000E-01     -1.290703000000000E+02      3.557587000000000E-01     -6.323437000000000E+01      3.438721000000000E-01     -1.737109000000000E+02      6.481628000000000E-01     -9.131250000000000E+01
4816000000.000000      3.400116000000000E-01     -1.300937000000000E+02      3.609467000000000E-01     -6.336132000000000E+01      3.495789000000000E-01     -1.737187000000000E+02      6.491394000000000E-01     -9.133984000000000E+01
4817000000.000000      3.425751000000000E-01     -1.312187000000000E+02      3.643188000000000E-01     -6.366211000000000E+01      3.514099000000000E-01     -1.737109000000000E+02      6.489563000000000E-01     -9.152344000000000E+01
4818000000.000000      3.446198000000000E-01     -1.324297000000000E+02      3.674316000000000E-01     -6.384570000000000E+01      3.562622000000000E-01     -1.737266000000000E+02      6.488342000000000E-01     -9.156250000000000E+01
4819000000.000000      3.475800000000000E-01     -1.335156000000000E+02      3.716125000000000E-01     -6.409765000000000E+01      3.600006000000000E-01     -1.736641000000000E+02      6.506348000000000E-01     -9.165234000000000E+01
4820000000.000000      3.488312000000000E-01     -1.344687000000000E+02      3.754578000000000E-01     -6.435547000000000E+01      3.648987000000000E-01     -1.735859000000000E+02      6.508789000000000E-01     -9.169531000000000E+01
4821000000.000000      3.519287000000000E-01     -1.355547000000000E+02      3.793488000000000E-01     -6.465625000000000E+01      3.679810000000000E-01     -1.737187000000000E+02      6.502686000000000E-01     -9.182421000000000E+01
4822000000.000000      3.569031000000000E-01     -1.367422000000000E+02      3.834534000000000E-01     -6.489843000000000E+01      3.719482000000000E-01     -1.737656000000000E+02      6.519775000000000E-01     -9.175390000000000E+01
4823000000.000000      3.589020000000000E-01     -1.376484000000000E+02      3.868408000000000E-01     -6.507813000000000E+01      3.761749000000000E-01     -1.735312000000000E+02      6.528015000000000E-01     -9.187109000000000E+01
4824000000.000000      3.636627000000000E-01     -1.387500000000000E+02      3.902740000000000E-01     -6.548437000000000E+01      3.811188000000000E-01     -1.737734000000000E+02      6.543274000000000E-01     -9.195704000000000E+01
4825000000.000000      3.663330000000000E-01     -1.397266000000000E+02      3.942261000000000E-01     -6.567187000000000E+01      3.845367000000000E-01     -1.734609000000000E+02      6.545410000000000E-01     -9.203905000000000E+01
4826000000.000000      3.711548000000000E-01     -1.407500000000000E+02      3.979034000000000E-01     -6.601171000000000E+01      3.881378000000000E-01     -1.736406000000000E+02      6.555481000000000E-01     -9.214844000000000E+01
4827000000.000000      3.746948000000000E-01     -1.416094000000000E+02      4.012146000000000E-01     -6.621875000000000E+01      3.914185000000000E-01     -1.736328000000000E+02      6.575623000000000E-01     -9.218359000000000E+01
4828000000.000000      3.792419000000000E-01     -1.426406000000000E+02      4.057159000000000E-01     -6.641015000000000E+01      3.959198000000000E-01     -1.735469000000000E+02      6.600647000000000E-01     -9.233984000000000E+01
4829000000.000000      3.819122000000000E-01     -1.435313000000000E+02      4.089050000000000E-01     -6.691406000000000E+01      4.004211000000000E-01     -1.736250000000000E+02      6.608582000000000E-01     -9.219921000000000E+01
4830000000.000000      3.874817000000000E-01     -1.444766000000000E+02      4.122162000000000E-01     -6.711719000000000E+01      4.038239000000000E-01     -1.735625000000000E+02      6.610718000000000E-01     -9.242188000000000E+01
4831000000.000000      3.911438000000000E-01     -1.454141000000000E+02      4.154663000000000E-01     -6.751171000000000E+01      4.090881000000000E-01     -1.735937000000000E+02      6.631775000000000E-01     -9.250780000000000E+01
4832000000.000000      3.971100000000000E-01     -1.462812000000000E+02      4.186096000000000E-01     -6.771874000000000E+01      4.119720000000000E-01     -1.737422000000000E+02      6.647949000000000E-01     -9.260546000000000E+01
4833000000.000000      4.020081000000000E-01     -1.473047000000000E+02      4.218292000000000E-01     -6.791016000000000E+01      4.162445000000000E-01     -1.737656000000000E+02      6.658936000000000E-01     -9.255077000000000E+01
4834000000.000000      4.067688000000000E-01     -1.481406000000000E+02      4.250183000000000E-01     -6.826172000000000E+01      4.199982000000000E-01     -1.738437000000000E+02      6.685181000000000E-01     -9.262890000000000E+01
4835000000.000000      4.112244000000000E-01     -1.489453000000000E+02      4.290466000000000E-01     -6.864062000000000E+01      4.250946000000000E-01     -1.738281000000000E+02      6.711731000000000E-01     -9.269140000000000E+01
4836000000.000000      4.168701000000000E-01     -1.497031000000000E+02      4.323273000000000E-01     -6.879296000000000E+01      4.285278000000000E-01     -1.738437000000000E+02      6.712341000000000E-01     -9.280859000000000E+01
4837000000.000000      4.222717000000000E-01     -1.504297000000000E+02      4.351501000000000E-01     -6.942968000000000E+01      4.319458000000000E-01     -1.740156000000000E+02      6.743469000000000E-01     -9.277735000000000E+01
4838000000.000000      4.272461000000000E-01     -1.514141000000000E+02      4.393768000000000E-01     -6.949609000000000E+01      4.371490000000000E-01     -1.740000000000000E+02      6.757813000000000E-01     -9.289843000000000E+01
4839000000.000000      4.323120000000000E-01     -1.520547000000000E+02      4.414978000000000E-01     -6.980078000000000E+01      4.406281000000000E-01     -1.740078000000000E+02      6.792603000000000E-01     -9.282812000000000E+01
4840000000.000000      4.369812000000000E-01     -1.529219000000000E+02      4.446259000000000E-01     -7.007813000000000E+01      4.449005000000000E-01     -1.741172000000000E+02      6.809692000000000E-01     -9.298046000000000E+01
4841000000.000000      4.423981000000000E-01     -1.537656000000000E+02      4.478302000000000E-01     -7.057422000000000E+01      4.489594000000000E-01     -1.742969000000000E+02      6.832275000000000E-01     -9.292578000000000E+01
4842000000.000000      4.479218000000000E-01     -1.543750000000000E+02      4.503021000000000E-01     -7.088672000000000E+01      4.516602000000000E-01     -1.743359000000000E+02      6.855774000000000E-01     -9.300390000000000E+01
4843000000.000000      4.521942000000000E-01     -1.552031000000000E+02      4.534912000000000E-01     -7.126562000000000E+01      4.562683000000000E-01     -1.743359000000000E+02      6.885071000000000E-01     -9.308203000000000E+01
4844000000.000000      4.576416000000000E-01     -1.558437000000000E+02      4.552002000000000E-01     -7.162890000000000E+01      4.602509000000000E-01     -1.744766000000000E+02      6.917419000000000E-01     -9.308203000000000E+01
4845000000.000000      4.623718000000000E-01     -1.565078000000000E+02      4.595642000000000E-01     -7.173046000000000E+01      4.647980000000000E-01     -1.746406000000000E+02      6.926270000000000E-01     -9.316015000000000E+01
4846000000.000000      4.676819000000000E-01     -1.571172000000000E+02      4.613800000000000E-01     -7.206640000000000E+01      4.691620000000000E-01     -1.746719000000000E+02      6.958618000000000E-01     -9.323437000000000E+01
4847000000.000000      4.735565000000000E-01     -1.578672000000000E+02      4.637756000000000E-01     -7.242969000000000E+01      4.730225000000000E-01     -1.748125000000000E+02      6.994934000000000E-01     -9.339062000000000E+01
4848000000.000000      4.782562000000000E-01     -1.583594000000000E+02      4.664764000000000E-01     -7.270312000000000E+01      4.767609000000000E-01     -1.749063000000000E+02      6.998596000000000E-01     -9.334764000000000E+01
4849000000.000000      4.830017000000000E-01     -1.592578000000000E+02      4.683838000000000E-01     -7.316406000000000E+01      4.811249000000000E-01     -1.750469000000000E+02      7.035522000000000E-01     -9.338282000000000E+01
4850000000.000000      4.877319000000000E-01     -1.596875000000000E+02      4.705963000000000E-01     -7.333984000000000E+01      4.852142000000000E-01     -1.751172000000000E+02      7.063599000000000E-01     -9.339844000000000E+01
4851000000.000000      4.928894000000000E-01     -1.602344000000000E+02      4.731750000000000E-01     -7.381640000000000E+01      4.882660000000000E-01     -1.752734000000000E+02      7.086792000000000E-01     -9.337109000000000E+01
4852000000.000000      4.975586000000000E-01     -1.608828000000000E+02      4.756317000000000E-01     -7.407812000000000E+01      4.929352000000000E-01     -1.753281000000000E+02      7.127686000000000E-01     -9.343750000000000E+01
4853000000.000000      5.025635000000000E-01     -1.614531000000000E+02      4.762421000000000E-01     -7.445703000000000E+01      4.968567000000000E-01     -1.755547000000000E+02      7.151794000000000E-01     -9.366405000000000E+01
4854000000.000000      5.060730000000000E-01     -1.620156000000000E+02      4.795227000000000E-01     -7.497656000000000E+01      5.005493000000000E-01     -1.755781000000000E+02      7.185059000000000E-01     -9.365234000000000E+01
4855000000.000000      5.094604000000000E-01     -1.625703000000000E+02      4.803467000000000E-01     -7.499218000000000E+01      5.045776000000000E-01     -1.757734000000000E+02      7.202454000000000E-01     -9.359766000000000E+01
4856000000.000000      5.149841000000000E-01     -1.630703000000000E+02      4.837799000000000E-01     -7.529687000000000E+01      5.078735000000000E-01     -1.759219000000000E+02      7.252197000000000E-01     -9.369921000000000E+01
4857000000.000000      5.191956000000000E-01     -1.635937000000000E+02      4.861755000000000E-01     -7.573437000000000E+01      5.108643000000000E-01     -1.761094000000000E+02      7.275391000000000E-01     -9.365234000000000E+01
4858000000.000000      5.208130000000000E-01     -1.641094000000000E+02      4.871063000000000E-01     -7.603516000000000E+01      5.151978000000000E-01     -1.761562000000000E+02      7.287903000000000E-01     -9.371485000000000E+01
4859000000.000000      5.260010000000000E-01     -1.646250000000000E+02      4.899139000000000E-01     -7.645702000000000E+01      5.183411000000000E-01     -1.765078000000000E+02      7.338562000000000E-01     -9.380468000000000E+01
4860000000.000000      5.303345000000000E-01     -1.651250000000000E+02      4.906769000000000E-01     -7.658984000000000E+01      5.211487000000000E-01     -1.766094000000000E+02      7.343140000000000E-01     -9.382421000000000E+01
4861000000.000000      5.331726000000000E-01     -1.654531000000000E+02      4.937744000000000E-01     -7.696094000000000E+01      5.253906000000000E-01     -1.767187000000000E+02      7.386475000000000E-01     -9.397655000000000E+01
4862000000.000000      5.356140000000000E-01     -1.658906000000000E+02      4.950867000000000E-01     -7.721484000000000E+01      5.284119000000000E-01     -1.769531000000000E+02      7.424622000000000E-01     -9.390625000000000E+01
4863000000.000000      5.389709000000000E-01     -1.663047000000000E+02      4.947968000000000E-01     -7.779297000000000E+01      5.323181000000000E-01     -1.772187000000000E+02      7.454834000000000E-01     -9.398046000000000E+01
4864000000.000000      5.416870000000000E-01     -1.667656000000000E+02      4.976196000000000E-01     -7.763672000000000E+01      5.343933000000000E-01     -1.773906000000000E+02      7.467651000000000E-01     -9.397264000000000E+01
4865000000.000000      5.433655000000000E-01     -1.671562000000000E+02      4.978943000000000E-01     -7.802734000000000E+01      5.379639000000000E-01     -1.774688000000000E+02      7.502747000000000E-01     -9.396484000000000E+01
4866000000.000000      5.453491000000000E-01     -1.675390000000000E+02      5.011597000000000E-01     -7.835546000000000E+01      5.419312000000000E-01     -1.776484000000000E+02      7.522888000000000E-01     -9.398046000000000E+01
4867000000.000000      5.481567000000000E-01     -1.679609000000000E+02      5.023193000000000E-01     -7.887890000000000E+01      5.450439000000000E-01     -1.780234000000000E+02      7.569885000000000E-01     -9.403515000000000E+01
4868000000.000000      5.506897000000000E-01     -1.683359000000000E+02      5.029297000000000E-01     -7.891796000000000E+01      5.476074000000000E-01     -1.781250000000000E+02      7.581482000000000E-01     -9.410936000000000E+01
4869000000.000000      5.522766000000000E-01     -1.686016000000000E+02      5.035706000000000E-01     -7.951172000000000E+01      5.502319000000000E-01     -1.782578000000000E+02      7.607117000000000E-01     -9.418360000000000E+01
4870000000.000000      5.539856000000000E-01     -1.689062000000000E+02      5.036621000000000E-01     -7.937109000000000E+01      5.539246000000000E-01     -1.785312000000000E+02      7.644348000000000E-01     -9.426172000000000E+01
4871000000.000000      5.549927000000000E-01     -1.692891000000000E+02      5.070496000000000E-01     -7.963281000000000E+01      5.548706000000000E-01     -1.788672000000000E+02      7.659912000000000E-01     -9.430859000000000E+01
4872000000.000000      5.581970000000000E-01     -1.695234000000000E+02      5.068665000000000E-01     -7.985937000000000E+01      5.596619000000000E-01     -1.791875000000000E+02      7.704468000000000E-01     -9.425781000000000E+01
4873000000.000000      5.583496000000000E-01     -1.697344000000000E+02      5.079956000000000E-01     -8.032030000000000E+01      5.609131000000000E-01     -1.792344000000000E+02      7.705383000000000E-01     -9.438671000000000E+01
4874000000.000000      5.588379000000000E-01     -1.699922000000000E+02      5.089111000000000E-01     -8.058203000000000E+01      5.641479000000000E-01     -1.794375000000000E+02      7.736206000000000E-01     -9.424219000000000E+01
4875000000.000000      5.607605000000000E-01     -1.702344000000000E+02      5.100403000000000E-01     -8.059765000000000E+01      5.657349000000000E-01     -1.796562000000000E+02      7.746887000000000E-01     -9.449219000000000E+01
4876000000.000000      5.603638000000000E-01     -1.704922000000000E+02      5.111389000000000E-01     -8.085546000000000E+01      5.668945000000000E-01     -1.798281000000000E+02      7.783813000000000E-01     -9.458202000000000E+01
4877000000.000000      5.614929000000000E-01     -1.707187000000000E+02      5.116882000000000E-01     -8.116405000000000E+01      5.696716000000000E-01      1.798516000000000E+02      7.813416000000000E-01     -9.448828000000000E+01
4878000000.000000      5.614319000000000E-01     -1.708594000000000E+02      5.135803000000000E-01     -8.128906000000000E+01      5.717163000000000E-01      1.798281000000000E+02      7.841492000000000E-01     -9.462891000000000E+01
4879000000.000000      5.632935000000000E-01     -1.710859000000000E+02      5.141296000000000E-01     -8.135157000000000E+01      5.740051000000000E-01      1.794922000000000E+02      7.845764000000000E-01     -9.457031000000000E+01
4880000000.000000      5.621338000000000E-01     -1.712500000000000E+02      5.161133000000000E-01     -8.189844000000000E+01      5.759888000000000E-01      1.793906000000000E+02      7.853394000000000E-01     -9.458202000000000E+01
4881000000.000000      5.637817000000000E-01     -1.713750000000000E+02      5.170898000000000E-01     -8.179296000000000E+01      5.799561000000000E-01      1.790156000000000E+02      7.896118000000000E-01     -9.459375000000000E+01
4882000000.000000      5.615540000000000E-01     -1.715078000000000E+02      5.177307000000000E-01     -8.223827000000000E+01      5.810547000000000E-01      1.788750000000000E+02      7.911987000000000E-01     -9.475389000000000E+01
