! Network Analyzer HP8722D
! Hewlett-Packard
! Data name: Linha & Wilkinson
! Saver's name: Rodrigo Anjos
! Comments: Teste da utilização de aquisição
continua pelo VNA HP8722D
! Time and date: 17/4/2025 15:46
!              Frequency                     S11                                                   S21                                                   S12                                                   S22
# HZ  S  MA R 50
4800000000.000000      3.353424000000000E-01     -1.152773000000000E+02      3.031464000000000E-01     -6.162109000000000E+01      2.972717000000000E-01     -1.758047000000000E+02      6.566467000000000E-01     -9.077343000000000E+01
4801000000.000000      3.350830000000000E-01     -1.160742000000000E+02      3.078156000000000E-01     -6.155468000000000E+01      3.007050000000000E-01     -1.757344000000000E+02      6.559143000000000E-01     -9.078905000000000E+01
4802000000.000000      3.332977000000000E-01     -1.171875000000000E+02      3.115387000000000E-01     -6.170507000000000E+01      3.058319000000000E-01     -1.756172000000000E+02      6.538086000000000E-01     -9.082811000000000E+01
4803000000.000000      3.330536000000000E-01     -1.181602000000000E+02      3.176117000000000E-01     -6.190234000000000E+01      3.084717000000000E-01     -1.754688000000000E+02      6.535645000000000E-01     -9.105469000000000E+01
4804000000.000000      3.325348000000000E-01     -1.192188000000000E+02      3.215179000000000E-01     -6.202148000000000E+01      3.136139000000000E-01     -1.756328000000000E+02      6.535034000000000E-01     -9.112108000000000E+01
4805000000.000000      3.328094000000000E-01     -1.201836000000000E+02      3.260803000000000E-01     -6.234179000000000E+01      3.174591000000000E-01     -1.755234000000000E+02      6.532593000000000E-01     -9.128906000000000E+01
4806000000.000000      3.330383000000000E-01     -1.211758000000000E+02      3.297882000000000E-01     -6.249609000000000E+01      3.206635000000000E-01     -1.753203000000000E+02      6.524963000000000E-01     -9.130077000000000E+01
4807000000.000000      3.324432000000000E-01     -1.223203000000000E+02      3.344116000000000E-01     -6.264843000000000E+01      3.256073000000000E-01     -1.753750000000000E+02      6.510010000000000E-01     -9.140625000000000E+01
4808000000.000000      3.335876000000000E-01     -1.233320000000000E+02      3.389740000000000E-01     -6.257813000000000E+01      3.291321000000000E-01     -1.753281000000000E+02      6.510315000000000E-01     -9.143749000000000E+01
4809000000.000000      3.335724000000000E-01     -1.244297000000000E+02      3.431549000000000E-01     -6.312500000000000E+01      3.333435000000000E-01     -1.754219000000000E+02      6.510315000000000E-01     -9.163671000000000E+01
4810000000.000000      3.347015000000000E-01     -1.256367000000000E+02      3.474884000000000E-01     -6.315820000000000E+01      3.371277000000000E-01     -1.751719000000000E+02      6.513062000000000E-01     -9.169531000000000E+01
4811000000.000000      3.355713000000000E-01     -1.266172000000000E+02      3.514404000000000E-01     -6.353516000000000E+01      3.416748000000000E-01     -1.751406000000000E+02      6.502686000000000E-01     -9.166796000000000E+01
4812000000.000000      3.375397000000000E-01     -1.276445000000000E+02      3.555450000000000E-01     -6.362499000000000E+01      3.456116000000000E-01     -1.751094000000000E+02      6.495056000000000E-01     -9.186718000000000E+01
4813000000.000000      3.379517000000000E-01     -1.287812000000000E+02      3.591461000000000E-01     -6.403515000000000E+01      3.482208000000000E-01     -1.749297000000000E+02      6.499023000000000E-01     -9.178125000000000E+01
4814000000.000000      3.392792000000000E-01     -1.300390000000000E+02      3.638306000000000E-01     -6.412890000000000E+01      3.523712000000000E-01     -1.751250000000000E+02      6.504822000000000E-01     -9.206249000000000E+01
4815000000.000000      3.412628000000000E-01     -1.309844000000000E+02      3.674469000000000E-01     -6.429296000000000E+01      3.567047000000000E-01     -1.749844000000000E+02      6.497498000000000E-01     -9.201952000000000E+01
4816000000.000000      3.435364000000000E-01     -1.320625000000000E+02      3.716583000000000E-01     -6.444921000000000E+01      3.610687000000000E-01     -1.749766000000000E+02      6.491699000000000E-01     -9.208984000000000E+01
4817000000.000000      3.464203000000000E-01     -1.330937000000000E+02      3.753815000000000E-01     -6.482422000000000E+01      3.638763000000000E-01     -1.750000000000000E+02      6.498108000000000E-01     -9.227734000000000E+01
4818000000.000000      3.481445000000000E-01     -1.342891000000000E+02      3.786163000000000E-01     -6.508203000000000E+01      3.683014000000000E-01     -1.748437000000000E+02      6.515808000000000E-01     -9.233202000000000E+01
4819000000.000000      3.512268000000000E-01     -1.353672000000000E+02      3.826752000000000E-01     -6.536327000000000E+01      3.713684000000000E-01     -1.749766000000000E+02      6.524048000000000E-01     -9.237108000000000E+01
4820000000.000000      3.527222000000000E-01     -1.363750000000000E+02      3.868866000000000E-01     -6.557812000000000E+01      3.757172000000000E-01     -1.750078000000000E+02      6.520996000000000E-01     -9.252733000000000E+01
4821000000.000000      3.567047000000000E-01     -1.374141000000000E+02      3.905640000000000E-01     -6.583202000000000E+01      3.794403000000000E-01     -1.751094000000000E+02      6.518860000000000E-01     -9.256250000000000E+01
4822000000.000000      3.604279000000000E-01     -1.386016000000000E+02      3.934479000000000E-01     -6.621484000000000E+01      3.830261000000000E-01     -1.750234000000000E+02      6.542053000000000E-01     -9.259766000000000E+01
4823000000.000000      3.630829000000000E-01     -1.395078000000000E+02      3.982849000000000E-01     -6.641796000000000E+01      3.869019000000000E-01     -1.747969000000000E+02      6.539307000000000E-01     -9.267578000000000E+01
4824000000.000000      3.674469000000000E-01     -1.406406000000000E+02      4.016418000000000E-01     -6.685937000000000E+01      3.915405000000000E-01     -1.750469000000000E+02      6.559448000000000E-01     -9.275000000000000E+01
4825000000.000000      3.704529000000000E-01     -1.415937000000000E+02      4.044800000000000E-01     -6.698047000000000E+01      3.955688000000000E-01     -1.749531000000000E+02      6.567383000000000E-01     -9.283594000000000E+01
4826000000.000000      3.753204000000000E-01     -1.425937000000000E+02      4.073944000000000E-01     -6.729687000000000E+01      3.984528000000000E-01     -1.751250000000000E+02      6.580811000000000E-01     -9.292578000000000E+01
4827000000.000000      3.792572000000000E-01     -1.435156000000000E+02      4.118195000000000E-01     -6.755859000000000E+01      4.026184000000000E-01     -1.750313000000000E+02      6.586914000000000E-01     -9.296093000000000E+01
4828000000.000000      3.838806000000000E-01     -1.444844000000000E+02      4.158325000000000E-01     -6.784374000000000E+01      4.064026000000000E-01     -1.749922000000000E+02      6.608582000000000E-01     -9.306250000000000E+01
4829000000.000000      3.865051000000000E-01     -1.453594000000000E+02      4.178314000000000E-01     -6.812109000000000E+01      4.105530000000000E-01     -1.750625000000000E+02      6.620178000000000E-01     -9.306250000000000E+01
4830000000.000000      3.921814000000000E-01     -1.463516000000000E+02      4.214172000000000E-01     -6.842187000000000E+01      4.136810000000000E-01     -1.751172000000000E+02      6.639099000000000E-01     -9.321093000000000E+01
4831000000.000000      3.962402000000000E-01     -1.472734000000000E+02      4.244537000000000E-01     -6.893749000000000E+01      4.187927000000000E-01     -1.750781000000000E+02      6.656799000000000E-01     -9.322266000000000E+01
4832000000.000000      4.020844000000000E-01     -1.481719000000000E+02      4.278412000000000E-01     -6.908593000000000E+01      4.220734000000000E-01     -1.750781000000000E+02      6.666870000000000E-01     -9.322266000000000E+01
4833000000.000000      4.066620000000000E-01     -1.491484000000000E+02      4.317169000000000E-01     -6.929688000000000E+01      4.259033000000000E-01     -1.752734000000000E+02      6.686707000000000E-01     -9.343750000000000E+01
4834000000.000000      4.109955000000000E-01     -1.499922000000000E+02      4.344940000000000E-01     -6.975780000000000E+01      4.296265000000000E-01     -1.752734000000000E+02      6.704407000000000E-01     -9.349218000000000E+01
4835000000.000000      4.158630000000000E-01     -1.507813000000000E+02      4.376831000000000E-01     -7.000781000000000E+01      4.345245000000000E-01     -1.753125000000000E+02      6.712646000000000E-01     -9.360937000000000E+01
4836000000.000000      4.217987000000000E-01     -1.515156000000000E+02      4.410553000000000E-01     -7.033203000000000E+01      4.375763000000000E-01     -1.752812000000000E+02      6.735840000000000E-01     -9.352734000000000E+01
4837000000.000000      4.265594000000000E-01     -1.523750000000000E+02      4.443207000000000E-01     -7.082812000000000E+01      4.410400000000000E-01     -1.754609000000000E+02      6.759338000000000E-01     -9.353125000000000E+01
4838000000.000000      4.322052000000000E-01     -1.532734000000000E+02      4.476318000000000E-01     -7.080468000000000E+01      4.461975000000000E-01     -1.754766000000000E+02      6.779480000000000E-01     -9.367579000000000E+01
4839000000.000000      4.372101000000000E-01     -1.538672000000000E+02      4.492035000000000E-01     -7.117188000000000E+01      4.497681000000000E-01     -1.754531000000000E+02      6.805115000000000E-01     -9.364843000000000E+01
4840000000.000000      4.411316000000000E-01     -1.547500000000000E+02      4.520721000000000E-01     -7.150000000000000E+01      4.533997000000000E-01     -1.756172000000000E+02      6.827087000000000E-01     -9.373438000000000E+01
4841000000.000000      4.469757000000000E-01     -1.556094000000000E+02      4.549408000000000E-01     -7.202343000000000E+01      4.577179000000000E-01     -1.757969000000000E+02      6.842346000000000E-01     -9.381250000000000E+01
4842000000.000000      4.524078000000000E-01     -1.562422000000000E+02      4.579620000000000E-01     -7.229687000000000E+01      4.605865000000000E-01     -1.757891000000000E+02      6.857910000000000E-01     -9.383593000000000E+01
4843000000.000000      4.569702000000000E-01     -1.570000000000000E+02      4.608459000000000E-01     -7.264843000000000E+01      4.645996000000000E-01     -1.758516000000000E+02      6.896362000000000E-01     -9.389843000000000E+01
4844000000.000000      4.617462000000000E-01     -1.576797000000000E+02      4.632263000000000E-01     -7.289844000000000E+01      4.684143000000000E-01     -1.759609000000000E+02      6.920776000000000E-01     -9.400000000000000E+01
4845000000.000000      4.671326000000000E-01     -1.582734000000000E+02      4.649200000000000E-01     -7.321094000000000E+01      4.731445000000000E-01     -1.760781000000000E+02      6.936340000000000E-01     -9.394922000000000E+01
4846000000.000000      4.720764000000000E-01     -1.588828000000000E+02      4.671631000000000E-01     -7.351563000000000E+01      4.770355000000000E-01     -1.761641000000000E+02      6.971436000000000E-01     -9.408203000000000E+01
4847000000.000000      4.773407000000000E-01     -1.595937000000000E+02      4.708710000000000E-01     -7.385547000000000E+01      4.813690000000000E-01     -1.763828000000000E+02      7.008667000000000E-01     -9.412889000000000E+01
4848000000.000000      4.821625000000000E-01     -1.602344000000000E+02      4.723511000000000E-01     -7.412499000000000E+01      4.844666000000000E-01     -1.763906000000000E+02      7.029114000000000E-01     -9.415625000000000E+01
4849000000.000000      4.868622000000000E-01     -1.611328000000000E+02      4.754791000000000E-01     -7.456640000000000E+01      4.879608000000000E-01     -1.765781000000000E+02      7.056580000000000E-01     -9.410547000000000E+01
4850000000.000000      4.921265000000000E-01     -1.615000000000000E+02      4.763947000000000E-01     -7.487499000000000E+01      4.919739000000000E-01     -1.766172000000000E+02      7.072449000000000E-01     -9.418360000000000E+01
4851000000.000000      4.965363000000000E-01     -1.620547000000000E+02      4.802551000000000E-01     -7.525391000000000E+01      4.954529000000000E-01     -1.768125000000000E+02      7.101135000000000E-01     -9.424999000000000E+01
4852000000.000000      5.017700000000000E-01     -1.627031000000000E+02      4.817352000000000E-01     -7.574219000000000E+01      4.994812000000000E-01     -1.769453000000000E+02      7.137756000000000E-01     -9.432812000000000E+01
4853000000.000000      5.055237000000000E-01     -1.632734000000000E+02      4.823608000000000E-01     -7.579687000000000E+01      5.031738000000000E-01     -1.770156000000000E+02      7.160645000000000E-01     -9.454687000000000E+01
4854000000.000000      5.093689000000000E-01     -1.637969000000000E+02      4.851685000000000E-01     -7.632030000000000E+01      5.062561000000000E-01     -1.771328000000000E+02      7.195129000000000E-01     -9.446484000000000E+01
4855000000.000000      5.128784000000000E-01     -1.643203000000000E+02      4.864960000000000E-01     -7.649219000000000E+01      5.093689000000000E-01     -1.772891000000000E+02      7.214355000000000E-01     -9.445704000000000E+01
4856000000.000000      5.177002000000000E-01     -1.647891000000000E+02      4.888458000000000E-01     -7.678124000000000E+01      5.144348000000000E-01     -1.775781000000000E+02      7.254944000000000E-01     -9.454296000000000E+01
4857000000.000000      5.211792000000000E-01     -1.653750000000000E+02      4.927216000000000E-01     -7.714844000000000E+01      5.164185000000000E-01     -1.776328000000000E+02      7.284546000000000E-01     -9.455858000000000E+01
4858000000.000000      5.234680000000000E-01     -1.659765000000000E+02      4.913940000000000E-01     -7.735937000000000E+01      5.200500000000000E-01     -1.777969000000000E+02      7.305298000000000E-01     -9.460155000000000E+01
4859000000.000000      5.281677000000000E-01     -1.664219000000000E+02      4.939270000000000E-01     -7.774609000000000E+01      5.238342000000000E-01     -1.781641000000000E+02      7.342224000000000E-01     -9.463282000000000E+01
4860000000.000000      5.322571000000000E-01     -1.668828000000000E+02      4.963684000000000E-01     -7.795703000000000E+01      5.260925000000000E-01     -1.781641000000000E+02      7.360840000000000E-01     -9.465624000000000E+01
4861000000.000000      5.349121000000000E-01     -1.672734000000000E+02      4.961243000000000E-01     -7.843750000000000E+01      5.304565000000000E-01     -1.784297000000000E+02      7.384338000000000E-01     -9.488672000000000E+01
4862000000.000000      5.372009000000000E-01     -1.676797000000000E+02      4.998016000000000E-01     -7.848046000000000E+01      5.330200000000000E-01     -1.785078000000000E+02      7.428894000000000E-01     -9.469530000000000E+01
4863000000.000000      5.394592000000000E-01     -1.680547000000000E+02      4.998474000000000E-01     -7.884766000000000E+01      5.366211000000000E-01     -1.787031000000000E+02      7.451172000000000E-01     -9.473436000000000E+01
4864000000.000000      5.426025000000000E-01     -1.685469000000000E+02      5.012512000000000E-01     -7.935937000000000E+01      5.394897000000000E-01     -1.788594000000000E+02      7.480164000000000E-01     -9.484375000000000E+01
4865000000.000000      5.444946000000000E-01     -1.690078000000000E+02      5.030518000000000E-01     -7.957812000000000E+01      5.439148000000000E-01     -1.790625000000000E+02      7.509460000000000E-01     -9.480860000000000E+01
4866000000.000000      5.466003000000000E-01     -1.692812000000000E+02      5.034790000000000E-01     -7.984765000000000E+01      5.463257000000000E-01     -1.793984000000000E+02      7.542114000000000E-01     -9.478907000000000E+01
4867000000.000000      5.486450000000000E-01     -1.695937000000000E+02      5.040894000000000E-01     -8.024218000000000E+01      5.487366000000000E-01     -1.795000000000000E+02      7.574158000000000E-01     -9.500000000000000E+01
4868000000.000000      5.514832000000000E-01     -1.700469000000000E+02      5.055237000000000E-01     -8.057421000000000E+01      5.530396000000000E-01     -1.797422000000000E+02      7.582397000000000E-01     -9.498827000000000E+01
4869000000.000000      5.516968000000000E-01     -1.703203000000000E+02      5.057068000000000E-01     -8.060156000000000E+01      5.547485000000000E-01     -1.799687000000000E+02      7.626038000000000E-01     -9.517969000000000E+01
4870000000.000000      5.532837000000000E-01     -1.706172000000000E+02      5.084534000000000E-01     -8.073828000000000E+01      5.564880000000000E-01      1.798281000000000E+02      7.645874000000000E-01     -9.501562000000000E+01
4871000000.000000      5.556946000000000E-01     -1.708984000000000E+02      5.083313000000000E-01     -8.119141000000000E+01      5.590820000000000E-01      1.797188000000000E+02      7.654114000000000E-01     -9.520702000000000E+01
4872000000.000000      5.575256000000000E-01     -1.711953000000000E+02      5.089417000000000E-01     -8.130077000000000E+01      5.606995000000000E-01      1.793828000000000E+02      7.696838000000000E-01     -9.528515000000000E+01
4873000000.000000      5.578003000000000E-01     -1.713516000000000E+02      5.111389000000000E-01     -8.165625000000000E+01      5.631409000000000E-01      1.794141000000000E+02      7.707825000000000E-01     -9.538280000000000E+01
4874000000.000000      5.577698000000000E-01     -1.716640000000000E+02      5.125732000000000E-01     -8.196093000000000E+01      5.672913000000000E-01      1.792656000000000E+02      7.733154000000000E-01     -9.512499000000000E+01
4875000000.000000      5.598450000000000E-01     -1.718984000000000E+02      5.114441000000000E-01     -8.194921000000000E+01      5.682983000000000E-01      1.787344000000000E+02      7.759399000000000E-01     -9.544140000000000E+01
4876000000.000000      5.587158000000000E-01     -1.722656000000000E+02      5.142212000000000E-01     -8.232031000000000E+01      5.699768000000000E-01      1.787578000000000E+02      7.786560000000000E-01     -9.536718000000000E+01
4877000000.000000      5.596313000000000E-01     -1.723594000000000E+02      5.141907000000000E-01     -8.246485000000000E+01      5.733948000000000E-01      1.784922000000000E+02      7.811279000000000E-01     -9.554688000000000E+01
4878000000.000000      5.601501000000000E-01     -1.724375000000000E+02      5.162659000000000E-01     -8.273438000000000E+01      5.738220000000000E-01      1.782734000000000E+02      7.821655000000000E-01     -9.556250000000000E+01
4879000000.000000      5.603333000000000E-01     -1.726406000000000E+02      5.152893000000000E-01     -8.285936000000000E+01      5.765076000000000E-01      1.780469000000000E+02      7.840271000000000E-01     -9.548046000000000E+01
4880000000.000000      5.594788000000000E-01     -1.728281000000000E+02      5.161133000000000E-01     -8.303514000000000E+01      5.788879000000000E-01      1.779844000000000E+02      7.865601000000000E-01     -9.554296000000000E+01
4881000000.000000      5.604858000000000E-01     -1.729766000000000E+02      5.176392000000000E-01     -8.312891000000000E+01      5.821838000000000E-01      1.775781000000000E+02      7.882385000000000E-01     -9.556641000000000E+01
4882000000.000000      5.587769000000000E-01     -1.730625000000000E+02      5.191345000000000E-01     -8.339062000000000E+01      5.822144000000000E-01      1.774765000000000E+02      7.896423000000000E-01     -9.564844000000000E+01
