! Network Analyzer HP8722D
! Hewlett-Packard
! Data name: Linha & Wilkinson
! Saver's name: Rodrigo Anjos
! Comments: Teste da utilização de aquisição
continua pelo VNA HP8722D
! Time and date: 17/4/2025 15:51
!              Frequency                     S11                                                   S21                                                   S12                                                   S22
# HZ  S  MA R 50
4800000000.000000      3.348541000000000E-01     -1.154531000000000E+02      3.050995000000000E-01     -6.163086000000000E+01      2.992706000000000E-01     -1.759297000000000E+02      6.580505000000000E-01     -9.082422000000000E+01
4801000000.000000      3.342896000000000E-01     -1.164336000000000E+02      3.098297000000000E-01     -6.171484000000000E+01      3.028412000000000E-01     -1.758281000000000E+02      6.555481000000000E-01     -9.083593000000000E+01
4802000000.000000      3.332825000000000E-01     -1.174258000000000E+02      3.136902000000000E-01     -6.180273000000000E+01      3.070831000000000E-01     -1.757187000000000E+02      6.554260000000000E-01     -9.084764000000000E+01
4803000000.000000      3.330536000000000E-01     -1.185234000000000E+02      3.183746000000000E-01     -6.195507000000000E+01      3.104706000000000E-01     -1.756641000000000E+02      6.536865000000000E-01     -9.106249000000000E+01
4804000000.000000      3.332520000000000E-01     -1.194531000000000E+02      3.232727000000000E-01     -6.208202000000000E+01      3.148499000000000E-01     -1.756875000000000E+02      6.544189000000000E-01     -9.109766000000000E+01
4805000000.000000      3.333893000000000E-01     -1.205078000000000E+02      3.273621000000000E-01     -6.239452000000000E+01      3.190765000000000E-01     -1.755000000000000E+02      6.534424000000000E-01     -9.131639000000000E+01
4806000000.000000      3.323669000000000E-01     -1.213515000000000E+02      3.315430000000000E-01     -6.252734000000000E+01      3.226013000000000E-01     -1.753281000000000E+02      6.522522000000000E-01     -9.138672000000000E+01
4807000000.000000      3.325043000000000E-01     -1.225820000000000E+02      3.354950000000000E-01     -6.275976000000000E+01      3.270416000000000E-01     -1.755078000000000E+02      6.514893000000000E-01     -9.142969000000000E+01
4808000000.000000      3.333435000000000E-01     -1.235898000000000E+02      3.402252000000000E-01     -6.281054000000000E+01      3.302917000000000E-01     -1.753203000000000E+02      6.513062000000000E-01     -9.152344000000000E+01
4809000000.000000      3.334961000000000E-01     -1.247148000000000E+02      3.444214000000000E-01     -6.322656000000000E+01      3.348694000000000E-01     -1.754531000000000E+02      6.506653000000000E-01     -9.173046000000000E+01
4810000000.000000      3.349762000000000E-01     -1.257734000000000E+02      3.486481000000000E-01     -6.318945000000000E+01      3.386536000000000E-01     -1.752969000000000E+02      6.511230000000000E-01     -9.173828000000000E+01
4811000000.000000      3.358459000000000E-01     -1.268125000000000E+02      3.531342000000000E-01     -6.367773000000000E+01      3.432770000000000E-01     -1.752500000000000E+02      6.501160000000000E-01     -9.176561000000000E+01
4812000000.000000      3.376312000000000E-01     -1.278281000000000E+02      3.572540000000000E-01     -6.391406000000000E+01      3.467865000000000E-01     -1.752187000000000E+02      6.507874000000000E-01     -9.183594000000000E+01
4813000000.000000      3.388062000000000E-01     -1.290078000000000E+02      3.610077000000000E-01     -6.402734000000000E+01      3.498688000000000E-01     -1.750000000000000E+02      6.500244000000000E-01     -9.185547000000000E+01
4814000000.000000      3.394928000000000E-01     -1.303203000000000E+02      3.652039000000000E-01     -6.426562000000000E+01      3.542480000000000E-01     -1.752109000000000E+02      6.501160000000000E-01     -9.209764000000000E+01
4815000000.000000      3.413849000000000E-01     -1.311875000000000E+02      3.685608000000000E-01     -6.457812000000000E+01      3.577118000000000E-01     -1.751797000000000E+02      6.492310000000000E-01     -9.205469000000000E+01
4816000000.000000      3.441315000000000E-01     -1.322891000000000E+02      3.725891000000000E-01     -6.477734000000000E+01      3.625488000000000E-01     -1.750391000000000E+02      6.501465000000000E-01     -9.214453000000000E+01
4817000000.000000      3.466034000000000E-01     -1.333516000000000E+02      3.771820000000000E-01     -6.503906000000000E+01      3.655548000000000E-01     -1.751562000000000E+02      6.503601000000000E-01     -9.234375000000000E+01
4818000000.000000      3.488159000000000E-01     -1.345391000000000E+02      3.805389000000000E-01     -6.525000000000000E+01      3.697662000000000E-01     -1.751562000000000E+02      6.505127000000000E-01     -9.237499000000000E+01
4819000000.000000      3.518372000000000E-01     -1.355625000000000E+02      3.836670000000000E-01     -6.556641000000000E+01      3.728790000000000E-01     -1.751484000000000E+02      6.527100000000000E-01     -9.248438000000000E+01
4820000000.000000      3.534241000000000E-01     -1.366250000000000E+02      3.879395000000000E-01     -6.570313000000000E+01      3.775940000000000E-01     -1.750234000000000E+02      6.526794000000000E-01     -9.259766000000000E+01
4821000000.000000      3.569336000000000E-01     -1.377344000000000E+02      3.918915000000000E-01     -6.603516000000000E+01      3.813629000000000E-01     -1.751406000000000E+02      6.520996000000000E-01     -9.268749000000000E+01
4822000000.000000      3.611298000000000E-01     -1.387969000000000E+02      3.952026000000000E-01     -6.643749000000000E+01      3.843994000000000E-01     -1.752266000000000E+02      6.537781000000000E-01     -9.267187000000000E+01
4823000000.000000      3.633423000000000E-01     -1.397891000000000E+02      3.987885000000000E-01     -6.660156000000000E+01      3.887482000000000E-01     -1.750234000000000E+02      6.537781000000000E-01     -9.285547000000000E+01
4824000000.000000      3.683014000000000E-01     -1.409297000000000E+02      4.024200000000000E-01     -6.699609000000000E+01      3.934784000000000E-01     -1.750937000000000E+02      6.553650000000000E-01     -9.289454000000000E+01
4825000000.000000      3.714294000000000E-01     -1.417891000000000E+02      4.059601000000000E-01     -6.716015000000000E+01      3.969421000000000E-01     -1.751875000000000E+02      6.568298000000000E-01     -9.289843000000000E+01
4826000000.000000      3.759460000000000E-01     -1.428906000000000E+02      4.096832000000000E-01     -6.757421000000000E+01      3.998718000000000E-01     -1.752344000000000E+02      6.579285000000000E-01     -9.295702000000000E+01
4827000000.000000      3.795624000000000E-01     -1.437187000000000E+02      4.133453000000000E-01     -6.769531000000000E+01      4.033813000000000E-01     -1.751484000000000E+02      6.597290000000000E-01     -9.300390000000000E+01
4828000000.000000      3.845825000000000E-01     -1.447422000000000E+02      4.168396000000000E-01     -6.806250000000000E+01      4.078522000000000E-01     -1.751016000000000E+02      6.609192000000000E-01     -9.318359000000000E+01
4829000000.000000      3.873596000000000E-01     -1.456484000000000E+02      4.189301000000000E-01     -6.833202000000000E+01      4.117432000000000E-01     -1.752422000000000E+02      6.622925000000000E-01     -9.316406000000000E+01
4830000000.000000      3.929749000000000E-01     -1.466406000000000E+02      4.223633000000000E-01     -6.869141000000000E+01      4.150238000000000E-01     -1.751953000000000E+02      6.632385000000000E-01     -9.322657000000000E+01
4831000000.000000      3.962860000000000E-01     -1.475234000000000E+02      4.259033000000000E-01     -6.906640000000000E+01      4.195862000000000E-01     -1.751875000000000E+02      6.657410000000000E-01     -9.338671000000000E+01
4832000000.000000      4.023285000000000E-01     -1.483594000000000E+02      4.295197000000000E-01     -6.915234000000000E+01      4.226227000000000E-01     -1.753828000000000E+02      6.674500000000000E-01     -9.338671000000000E+01
4833000000.000000      4.071808000000000E-01     -1.493750000000000E+02      4.317932000000000E-01     -6.947266000000000E+01      4.266052000000000E-01     -1.753594000000000E+02      6.689453000000000E-01     -9.350389000000000E+01
4834000000.000000      4.121552000000000E-01     -1.502031000000000E+02      4.347534000000000E-01     -6.983984000000000E+01      4.309845000000000E-01     -1.754062000000000E+02      6.698608000000000E-01     -9.358984000000000E+01
4835000000.000000      4.163666000000000E-01     -1.510313000000000E+02      4.394836000000000E-01     -7.017968000000000E+01      4.358978000000000E-01     -1.754141000000000E+02      6.720276000000000E-01     -9.356249000000000E+01
4836000000.000000      4.226379000000000E-01     -1.518437000000000E+02      4.405060000000000E-01     -7.037890000000000E+01      4.388275000000000E-01     -1.755391000000000E+02      6.741333000000000E-01     -9.359766000000000E+01
4837000000.000000      4.275055000000000E-01     -1.526094000000000E+02      4.450378000000000E-01     -7.108593000000000E+01      4.424438000000000E-01     -1.756328000000000E+02      6.759644000000000E-01     -9.369921000000000E+01
4838000000.000000      4.324188000000000E-01     -1.534765000000000E+02      4.487610000000000E-01     -7.114062000000000E+01      4.465637000000000E-01     -1.756406000000000E+02      6.786499000000000E-01     -9.378906000000000E+01
4839000000.000000      4.375610000000000E-01     -1.541406000000000E+02      4.508362000000000E-01     -7.143359000000000E+01      4.507294000000000E-01     -1.756406000000000E+02      6.809692000000000E-01     -9.355078000000000E+01
4840000000.000000      4.417725000000000E-01     -1.550156000000000E+02      4.524841000000000E-01     -7.173437000000000E+01      4.543457000000000E-01     -1.758281000000000E+02      6.827393000000000E-01     -9.382030000000000E+01
4841000000.000000      4.471893000000000E-01     -1.558281000000000E+02      4.559479000000000E-01     -7.216015000000000E+01      4.586639000000000E-01     -1.759766000000000E+02      6.853943000000000E-01     -9.397264000000000E+01
4842000000.000000      4.532623000000000E-01     -1.564219000000000E+02      4.590912000000000E-01     -7.257030000000000E+01      4.611053000000000E-01     -1.759922000000000E+02      6.885376000000000E-01     -9.391405000000000E+01
4843000000.000000      4.574585000000000E-01     -1.573047000000000E+02      4.619293000000000E-01     -7.278906000000000E+01      4.656982000000000E-01     -1.760234000000000E+02      6.893921000000000E-01     -9.391405000000000E+01
4844000000.000000      4.626617000000000E-01     -1.579375000000000E+02      4.634247000000000E-01     -7.311718000000000E+01      4.694366000000000E-01     -1.761562000000000E+02      6.921692000000000E-01     -9.410156000000000E+01
4845000000.000000      4.674530000000000E-01     -1.585312000000000E+02      4.666290000000000E-01     -7.342578000000000E+01      4.733429000000000E-01     -1.763672000000000E+02      6.940918000000000E-01     -9.403124000000000E+01
4846000000.000000      4.724579000000000E-01     -1.591640000000000E+02      4.693909000000000E-01     -7.363281000000000E+01      4.785309000000000E-01     -1.763594000000000E+02      6.978760000000000E-01     -9.401171000000000E+01
4847000000.000000      4.783936000000000E-01     -1.598672000000000E+02      4.715576000000000E-01     -7.396874000000000E+01      4.820099000000000E-01     -1.765625000000000E+02      7.010193000000000E-01     -9.432032000000000E+01
4848000000.000000      4.828949000000000E-01     -1.604609000000000E+02      4.727478000000000E-01     -7.424218000000000E+01      4.849091000000000E-01     -1.765469000000000E+02      7.031860000000000E-01     -9.422266000000000E+01
4849000000.000000      4.868774000000000E-01     -1.613672000000000E+02      4.765320000000000E-01     -7.477344000000000E+01      4.892426000000000E-01     -1.767734000000000E+02      7.049255000000000E-01     -9.432812000000000E+01
4850000000.000000      4.920502000000000E-01     -1.617578000000000E+02      4.782715000000000E-01     -7.502734000000000E+01      4.928436000000000E-01     -1.768359000000000E+02      7.080383000000000E-01     -9.423828000000000E+01
4851000000.000000      4.969482000000000E-01     -1.623281000000000E+02      4.810791000000000E-01     -7.548437000000000E+01      4.958954000000000E-01     -1.769140000000000E+02      7.120056000000000E-01     -9.435938000000000E+01
4852000000.000000      5.018616000000000E-01     -1.629297000000000E+02      4.822540000000000E-01     -7.575390000000000E+01      5.003357000000000E-01     -1.770781000000000E+02      7.140808000000000E-01     -9.444139000000000E+01
4853000000.000000      5.064087000000000E-01     -1.634922000000000E+02      4.821167000000000E-01     -7.597656000000000E+01      5.042725000000000E-01     -1.773516000000000E+02      7.165833000000000E-01     -9.459375000000000E+01
4854000000.000000      5.100708000000000E-01     -1.639844000000000E+02      4.865875000000000E-01     -7.646093000000000E+01      5.086670000000000E-01     -1.775000000000000E+02      7.191467000000000E-01     -9.451563000000000E+01
4855000000.000000      5.131531000000000E-01     -1.646250000000000E+02      4.870911000000000E-01     -7.670312000000000E+01      5.117493000000000E-01     -1.774688000000000E+02      7.213135000000000E-01     -9.454296000000000E+01
4856000000.000000      5.180359000000000E-01     -1.650547000000000E+02      4.895477000000000E-01     -7.705468000000000E+01      5.142822000000000E-01     -1.776797000000000E+02      7.250061000000000E-01     -9.463671000000000E+01
4857000000.000000      5.220337000000000E-01     -1.656016000000000E+02      4.915771000000000E-01     -7.724999000000000E+01      5.181580000000000E-01     -1.778281000000000E+02      7.281494000000000E-01     -9.476954000000000E+01
4858000000.000000      5.233154000000000E-01     -1.662031000000000E+02      4.921722000000000E-01     -7.757813000000000E+01      5.204773000000000E-01     -1.780703000000000E+02      7.297363000000000E-01     -9.476563000000000E+01
4859000000.000000      5.282898000000000E-01     -1.666016000000000E+02      4.943542000000000E-01     -7.794922000000000E+01      5.247192000000000E-01     -1.781250000000000E+02      7.341614000000000E-01     -9.486719000000000E+01
4860000000.000000      5.327759000000000E-01     -1.670938000000000E+02      4.967194000000000E-01     -7.823828000000000E+01      5.274048000000000E-01     -1.783594000000000E+02      7.366333000000000E-01     -9.480860000000000E+01
4861000000.000000      5.350037000000000E-01     -1.674687000000000E+02      4.975281000000000E-01     -7.857031000000000E+01      5.310059000000000E-01     -1.784062000000000E+02      7.394714000000000E-01     -9.486719000000000E+01
4862000000.000000      5.373840000000000E-01     -1.678984000000000E+02      4.995728000000000E-01     -7.887109000000000E+01      5.346985000000000E-01     -1.784922000000000E+02      7.432861000000000E-01     -9.485937000000000E+01
4863000000.000000      5.399475000000000E-01     -1.683594000000000E+02      5.019531000000000E-01     -7.924609000000000E+01      5.389404000000000E-01     -1.787656000000000E+02      7.454224000000000E-01     -9.491796000000000E+01
4864000000.000000      5.434875000000000E-01     -1.687344000000000E+02      5.016174000000000E-01     -7.928905000000000E+01      5.410767000000000E-01     -1.789687000000000E+02      7.467957000000000E-01     -9.499609000000000E+01
4865000000.000000      5.452881000000000E-01     -1.692031000000000E+02      5.020142000000000E-01     -7.967968000000000E+01      5.446472000000000E-01     -1.792187000000000E+02      7.495728000000000E-01     -9.487890000000000E+01
4866000000.000000      5.467529000000000E-01     -1.694531000000000E+02      5.032349000000000E-01     -7.985156000000000E+01      5.465393000000000E-01     -1.794531000000000E+02      7.545166000000000E-01     -9.498047000000000E+01
4867000000.000000      5.489197000000000E-01     -1.698281000000000E+02      5.058594000000000E-01     -8.017969000000000E+01      5.484314000000000E-01     -1.796016000000000E+02      7.573547000000000E-01     -9.510546000000000E+01
4868000000.000000      5.513000000000000E-01     -1.702109000000000E+02      5.054321000000000E-01     -8.061327000000000E+01      5.537720000000000E-01     -1.798125000000000E+02      7.583923000000000E-01     -9.506250000000000E+01
4869000000.000000      5.523987000000000E-01     -1.705000000000000E+02      5.069275000000000E-01     -8.066406000000000E+01      5.550842000000000E-01      1.799609000000000E+02      7.625122000000000E-01     -9.520702000000000E+01
4870000000.000000      5.527649000000000E-01     -1.708594000000000E+02      5.093384000000000E-01     -8.087500000000000E+01      5.570068000000000E-01      1.798047000000000E+02      7.641907000000000E-01     -9.524609000000000E+01
4871000000.000000      5.551147000000000E-01     -1.712265000000000E+02      5.093079000000000E-01     -8.139063000000000E+01      5.592957000000000E-01      1.794844000000000E+02      7.644348000000000E-01     -9.533594000000000E+01
4872000000.000000      5.567932000000000E-01     -1.714531000000000E+02      5.101013000000000E-01     -8.133204000000000E+01      5.630798000000000E-01      1.792109000000000E+02      7.680664000000000E-01     -9.528515000000000E+01
4873000000.000000      5.563660000000000E-01     -1.716250000000000E+02      5.096436000000000E-01     -8.175781000000000E+01      5.638428000000000E-01      1.792187000000000E+02      7.700806000000000E-01     -9.546875000000000E+01
4874000000.000000      5.581055000000000E-01     -1.719141000000000E+02      5.112305000000000E-01     -8.202343000000000E+01      5.678406000000000E-01      1.788984000000000E+02      7.722168000000000E-01     -9.525391000000000E+01
4875000000.000000      5.597229000000000E-01     -1.721484000000000E+02      5.131531000000000E-01     -8.210546000000000E+01      5.686951000000000E-01      1.786484000000000E+02      7.762756000000000E-01     -9.546484000000000E+01
4876000000.000000      5.585022000000000E-01     -1.723906000000000E+02      5.141907000000000E-01     -8.246874000000000E+01      5.699463000000000E-01      1.786719000000000E+02      7.781067000000000E-01     -9.546093000000000E+01
4877000000.000000      5.588074000000000E-01     -1.725391000000000E+02      5.147095000000000E-01     -8.253124000000000E+01      5.732422000000000E-01      1.782422000000000E+02      7.806396000000000E-01     -9.551561000000000E+01
4878000000.000000      5.601807000000000E-01     -1.727500000000000E+02      5.166626000000000E-01     -8.276171000000000E+01      5.754700000000000E-01      1.781016000000000E+02      7.826843000000000E-01     -9.563280000000000E+01
4879000000.000000      5.594177000000000E-01     -1.729531000000000E+02      5.147705000000000E-01     -8.297655000000000E+01      5.762024000000000E-01      1.778437000000000E+02      7.839355000000000E-01     -9.555859000000000E+01
4880000000.000000      5.594788000000000E-01     -1.730781000000000E+02      5.176086000000000E-01     -8.332422000000000E+01      5.783386000000000E-01      1.777187000000000E+02      7.869263000000000E-01     -9.563280000000000E+01
4881000000.000000      5.599976000000000E-01     -1.731250000000000E+02      5.190430000000000E-01     -8.338282000000000E+01      5.815735000000000E-01      1.775156000000000E+02      7.886047000000000E-01     -9.574610000000000E+01
4882000000.000000      5.584106000000000E-01     -1.732656000000000E+02      5.200500000000000E-01     -8.361328000000000E+01      5.818176000000000E-01      1.773828000000000E+02      7.897644000000000E-01     -9.579296000000000E+01
