! Network Analyzer HP8722D
! Hewlett-Packard
! Data name: Linha & Wilkinson
! Saver's name: Rodrigo Anjos
! Comments: Teste da utilização de aquisição
continua pelo VNA HP8722D
! Time and date: 17/4/2025 16:06
!              Frequency                     S11                                                   S21                                                   S12                                                   S22
# HZ  S  MA R 50
4800000000.000000      3.360901000000000E-01     -1.159258000000000E+02      3.087006000000000E-01     -6.190039000000000E+01      3.024750000000000E-01     -1.760469000000000E+02      6.574402000000000E-01     -9.104687000000000E+01
4801000000.000000      3.349304000000000E-01     -1.168633000000000E+02      3.124084000000000E-01     -6.194921000000000E+01      3.056946000000000E-01     -1.761406000000000E+02      6.560669000000000E-01     -9.108984000000000E+01
4802000000.000000      3.336182000000000E-01     -1.177734000000000E+02      3.173065000000000E-01     -6.197656000000000E+01      3.101196000000000E-01     -1.758594000000000E+02      6.548767000000000E-01     -9.106640000000000E+01
4803000000.000000      3.337555000000000E-01     -1.189531000000000E+02      3.221741000000000E-01     -6.214062000000000E+01      3.139801000000000E-01     -1.758516000000000E+02      6.541138000000000E-01     -9.130468000000000E+01
4804000000.000000      3.333282000000000E-01     -1.198555000000000E+02      3.262024000000000E-01     -6.238281000000000E+01      3.179016000000000E-01     -1.759531000000000E+02      6.538086000000000E-01     -9.126562000000000E+01
4805000000.000000      3.340149000000000E-01     -1.210312000000000E+02      3.306427000000000E-01     -6.254883000000000E+01      3.222504000000000E-01     -1.757031000000000E+02      6.527405000000000E-01     -9.145702000000000E+01
4806000000.000000      3.334045000000000E-01     -1.218828000000000E+02      3.341064000000000E-01     -6.283593000000000E+01      3.250732000000000E-01     -1.755391000000000E+02      6.522217000000000E-01     -9.163671000000000E+01
4807000000.000000      3.331451000000000E-01     -1.230156000000000E+02      3.386078000000000E-01     -6.294531000000000E+01      3.291168000000000E-01     -1.757656000000000E+02      6.524658000000000E-01     -9.164843000000000E+01
4808000000.000000      3.339081000000000E-01     -1.239531000000000E+02      3.432617000000000E-01     -6.297461000000000E+01      3.334808000000000E-01     -1.756953000000000E+02      6.516724000000000E-01     -9.169140000000000E+01
4809000000.000000      3.342285000000000E-01     -1.250352000000000E+02      3.473816000000000E-01     -6.343554000000000E+01      3.382263000000000E-01     -1.758203000000000E+02      6.509399000000000E-01     -9.185156000000000E+01
4810000000.000000      3.352661000000000E-01     -1.262422000000000E+02      3.518066000000000E-01     -6.343359000000000E+01      3.412628000000000E-01     -1.756641000000000E+02      6.506348000000000E-01     -9.200390000000000E+01
4811000000.000000      3.367157000000000E-01     -1.273789000000000E+02      3.560944000000000E-01     -6.379296000000000E+01      3.459473000000000E-01     -1.756250000000000E+02      6.494751000000000E-01     -9.187109000000000E+01
4812000000.000000      3.380890000000000E-01     -1.282656000000000E+02      3.593750000000000E-01     -6.413671000000000E+01      3.494263000000000E-01     -1.755000000000000E+02      6.500549000000000E-01     -9.207811000000000E+01
4813000000.000000      3.400726000000000E-01     -1.294531000000000E+02      3.635712000000000E-01     -6.435937000000000E+01      3.526917000000000E-01     -1.754062000000000E+02      6.503296000000000E-01     -9.216015000000000E+01
4814000000.000000      3.405304000000000E-01     -1.307344000000000E+02      3.675842000000000E-01     -6.448047000000000E+01      3.564758000000000E-01     -1.756719000000000E+02      6.505127000000000E-01     -9.227734000000000E+01
4815000000.000000      3.423767000000000E-01     -1.316641000000000E+02      3.715973000000000E-01     -6.478906000000000E+01      3.608398000000000E-01     -1.754766000000000E+02      6.503906000000000E-01     -9.228907000000000E+01
4816000000.000000      3.446045000000000E-01     -1.327266000000000E+02      3.755035000000000E-01     -6.496094000000000E+01      3.653717000000000E-01     -1.754531000000000E+02      6.492615000000000E-01     -9.239061000000000E+01
4817000000.000000      3.473969000000000E-01     -1.338672000000000E+02      3.791809000000000E-01     -6.536327000000000E+01      3.679810000000000E-01     -1.754453000000000E+02      6.504517000000000E-01     -9.257421000000000E+01
4818000000.000000      3.493805000000000E-01     -1.349766000000000E+02      3.824463000000000E-01     -6.551952000000000E+01      3.719330000000000E-01     -1.754766000000000E+02      6.508484000000000E-01     -9.262499000000000E+01
4819000000.000000      3.527832000000000E-01     -1.360547000000000E+02      3.865051000000000E-01     -6.577343000000000E+01      3.757172000000000E-01     -1.754141000000000E+02      6.528625000000000E-01     -9.266016000000000E+01
4820000000.000000      3.538971000000000E-01     -1.370469000000000E+02      3.906250000000000E-01     -6.600780000000000E+01      3.800201000000000E-01     -1.752812000000000E+02      6.532288000000000E-01     -9.288280000000000E+01
4821000000.000000      3.575897000000000E-01     -1.381562000000000E+02      3.941956000000000E-01     -6.633594000000000E+01      3.830261000000000E-01     -1.754922000000000E+02      6.522217000000000E-01     -9.284374000000000E+01
4822000000.000000      3.621063000000000E-01     -1.392578000000000E+02      3.973083000000000E-01     -6.656640000000000E+01      3.864288000000000E-01     -1.754844000000000E+02      6.539917000000000E-01     -9.286718000000000E+01
4823000000.000000      3.645020000000000E-01     -1.402656000000000E+02      4.014282000000000E-01     -6.686328000000000E+01      3.911285000000000E-01     -1.753281000000000E+02      6.543884000000000E-01     -9.298046000000000E+01
4824000000.000000      3.689423000000000E-01     -1.413437000000000E+02      4.048920000000000E-01     -6.720312000000000E+01      3.951263000000000E-01     -1.755000000000000E+02      6.556091000000000E-01     -9.312500000000000E+01
4825000000.000000      3.721313000000000E-01     -1.422812000000000E+02      4.084778000000000E-01     -6.753515000000000E+01      3.987732000000000E-01     -1.754297000000000E+02      6.570129000000000E-01     -9.309374000000000E+01
4826000000.000000      3.769073000000000E-01     -1.433438000000000E+02      4.122009000000000E-01     -6.777344000000000E+01      4.025726000000000E-01     -1.755391000000000E+02      6.578064000000000E-01     -9.323828000000000E+01
4827000000.000000      3.809967000000000E-01     -1.441797000000000E+02      4.153900000000000E-01     -6.794922000000000E+01      4.059143000000000E-01     -1.755000000000000E+02      6.591797000000000E-01     -9.322266000000000E+01
4828000000.000000      3.854675000000000E-01     -1.452109000000000E+02      4.197693000000000E-01     -6.844921000000000E+01      4.098663000000000E-01     -1.755469000000000E+02      6.625671000000000E-01     -9.336718000000000E+01
4829000000.000000      3.884888000000000E-01     -1.461250000000000E+02      4.215698000000000E-01     -6.860937000000000E+01      4.137878000000000E-01     -1.755938000000000E+02      6.629028000000000E-01     -9.332031000000000E+01
4830000000.000000      3.942871000000000E-01     -1.470547000000000E+02      4.246063000000000E-01     -6.889062000000000E+01      4.172821000000000E-01     -1.756016000000000E+02      6.629944000000000E-01     -9.348827000000000E+01
4831000000.000000      3.978729000000000E-01     -1.480234000000000E+02      4.284210000000000E-01     -6.932422000000000E+01      4.216766000000000E-01     -1.756328000000000E+02      6.663513000000000E-01     -9.358593000000000E+01
4832000000.000000      4.034271000000000E-01     -1.488594000000000E+02      4.320374000000000E-01     -6.955859000000000E+01      4.245605000000000E-01     -1.756562000000000E+02      6.673584000000000E-01     -9.361328000000000E+01
4833000000.000000      4.084015000000000E-01     -1.498672000000000E+02      4.345856000000000E-01     -6.986328000000000E+01      4.283447000000000E-01     -1.757969000000000E+02      6.682129000000000E-01     -9.369141000000000E+01
4834000000.000000      4.124451000000000E-01     -1.507109000000000E+02      4.375458000000000E-01     -7.016015000000000E+01      4.336853000000000E-01     -1.758437000000000E+02      6.700745000000000E-01     -9.372265000000000E+01
4835000000.000000      4.177704000000000E-01     -1.514922000000000E+02      4.414673000000000E-01     -7.049609000000000E+01      4.378052000000000E-01     -1.757578000000000E+02      6.721497000000000E-01     -9.381639000000000E+01
4836000000.000000      4.233398000000000E-01     -1.522734000000000E+02      4.430237000000000E-01     -7.085938000000000E+01      4.404755000000000E-01     -1.758125000000000E+02      6.741943000000000E-01     -9.384766000000000E+01
4837000000.000000      4.281006000000000E-01     -1.529687000000000E+02      4.465179000000000E-01     -7.133594000000000E+01      4.443359000000000E-01     -1.759609000000000E+02      6.760559000000000E-01     -9.379686000000000E+01
4838000000.000000      4.333344000000000E-01     -1.539219000000000E+02      4.510803000000000E-01     -7.155078000000000E+01      4.489136000000000E-01     -1.760859000000000E+02      6.788025000000000E-01     -9.394140000000000E+01
4839000000.000000      4.384918000000000E-01     -1.546016000000000E+02      4.520264000000000E-01     -7.173828000000000E+01      4.523468000000000E-01     -1.760703000000000E+02      6.808472000000000E-01     -9.394922000000000E+01
4840000000.000000      4.427490000000000E-01     -1.554922000000000E+02      4.549866000000000E-01     -7.215234000000000E+01      4.564819000000000E-01     -1.761719000000000E+02      6.824951000000000E-01     -9.403515000000000E+01
4841000000.000000      4.487610000000000E-01     -1.562422000000000E+02      4.586334000000000E-01     -7.252343000000000E+01      4.606781000000000E-01     -1.762734000000000E+02      6.854248000000000E-01     -9.408983000000000E+01
4842000000.000000      4.537964000000000E-01     -1.568672000000000E+02      4.614105000000000E-01     -7.280468000000000E+01      4.630890000000000E-01     -1.763594000000000E+02      6.875000000000000E-01     -9.405077000000000E+01
4843000000.000000      4.586945000000000E-01     -1.577266000000000E+02      4.633484000000000E-01     -7.318359000000000E+01      4.673004000000000E-01     -1.764297000000000E+02      6.898804000000000E-01     -9.414843000000000E+01
4844000000.000000      4.631805000000000E-01     -1.583828000000000E+02      4.652863000000000E-01     -7.333593000000000E+01      4.705353000000000E-01     -1.765547000000000E+02      6.927490000000000E-01     -9.426172000000000E+01
4845000000.000000      4.685211000000000E-01     -1.589297000000000E+02      4.675903000000000E-01     -7.374218000000000E+01      4.747620000000000E-01     -1.766641000000000E+02      6.937866000000000E-01     -9.424608000000000E+01
4846000000.000000      4.732056000000000E-01     -1.595937000000000E+02      4.703064000000000E-01     -7.400000000000000E+01      4.797058000000000E-01     -1.767578000000000E+02      6.973572000000000E-01     -9.439062000000000E+01
4847000000.000000      4.791260000000000E-01     -1.603203000000000E+02      4.725342000000000E-01     -7.437109000000000E+01      4.830780000000000E-01     -1.769063000000000E+02      7.001038000000000E-01     -9.443750000000000E+01
4848000000.000000      4.835815000000000E-01     -1.608984000000000E+02      4.744415000000000E-01     -7.473437000000000E+01      4.869537000000000E-01     -1.769375000000000E+02      7.029419000000000E-01     -9.447266000000000E+01
4849000000.000000      4.879913000000000E-01     -1.618047000000000E+02      4.771881000000000E-01     -7.518359000000000E+01      4.909668000000000E-01     -1.771406000000000E+02      7.056885000000000E-01     -9.449999000000000E+01
4850000000.000000      4.931946000000000E-01     -1.621875000000000E+02      4.781647000000000E-01     -7.530078000000000E+01      4.945526000000000E-01     -1.771719000000000E+02      7.086487000000000E-01     -9.449999000000000E+01
4851000000.000000      4.976807000000000E-01     -1.627734000000000E+02      4.818420000000000E-01     -7.578906000000000E+01      4.978027000000000E-01     -1.773125000000000E+02      7.121887000000000E-01     -9.450781000000000E+01
4852000000.000000      5.030212000000000E-01     -1.633750000000000E+02      4.841309000000000E-01     -7.608593000000000E+01      5.018616000000000E-01     -1.774765000000000E+02      7.144165000000000E-01     -9.459375000000000E+01
4853000000.000000      5.068359000000000E-01     -1.639688000000000E+02      4.835663000000000E-01     -7.627343000000000E+01      5.060425000000000E-01     -1.776797000000000E+02      7.164612000000000E-01     -9.476171000000000E+01
4854000000.000000      5.102844000000000E-01     -1.644375000000000E+02      4.868622000000000E-01     -7.697266000000000E+01      5.090637000000000E-01     -1.777578000000000E+02      7.200623000000000E-01     -9.471094000000000E+01
4855000000.000000      5.144958000000000E-01     -1.649922000000000E+02      4.883118000000000E-01     -7.707812000000000E+01      5.120544000000000E-01     -1.778047000000000E+02      7.218933000000000E-01     -9.471483000000000E+01
4856000000.000000      5.187683000000000E-01     -1.655391000000000E+02      4.912872000000000E-01     -7.736718000000000E+01      5.169373000000000E-01     -1.780859000000000E+02      7.254639000000000E-01     -9.478125000000000E+01
4857000000.000000      5.226746000000000E-01     -1.660781000000000E+02      4.925995000000000E-01     -7.769531000000000E+01      5.187988000000000E-01     -1.781797000000000E+02      7.291260000000000E-01     -9.483984000000000E+01
4858000000.000000      5.245056000000000E-01     -1.665703000000000E+02      4.944611000000000E-01     -7.792187000000000E+01      5.226746000000000E-01     -1.784062000000000E+02      7.317505000000000E-01     -9.494921000000000E+01
4859000000.000000      5.280457000000000E-01     -1.671797000000000E+02      4.950409000000000E-01     -7.831249000000000E+01      5.260315000000000E-01     -1.785781000000000E+02      7.337952000000000E-01     -9.504686000000000E+01
4860000000.000000      5.327454000000000E-01     -1.675234000000000E+02      4.971161000000000E-01     -7.855859000000000E+01      5.291748000000000E-01     -1.786484000000000E+02      7.368774000000000E-01     -9.500780000000000E+01
4861000000.000000      5.354614000000000E-01     -1.679375000000000E+02      4.982758000000000E-01     -7.897265000000000E+01      5.323486000000000E-01     -1.788437000000000E+02      7.386780000000000E-01     -9.501171000000000E+01
4862000000.000000      5.383911000000000E-01     -1.683125000000000E+02      4.996643000000000E-01     -7.916406000000000E+01      5.363770000000000E-01     -1.790547000000000E+02      7.450562000000000E-01     -9.507813000000000E+01
4863000000.000000      5.401611000000000E-01     -1.687187000000000E+02      4.997253000000000E-01     -7.966015000000000E+01      5.392761000000000E-01     -1.792422000000000E+02      7.456970000000000E-01     -9.510546000000000E+01
4864000000.000000      5.429688000000000E-01     -1.691562000000000E+02      5.026855000000000E-01     -7.976171000000000E+01      5.406799000000000E-01     -1.793437000000000E+02      7.478943000000000E-01     -9.521875000000000E+01
4865000000.000000      5.450439000000000E-01     -1.696640000000000E+02      5.037537000000000E-01     -7.985546000000000E+01      5.443115000000000E-01     -1.796641000000000E+02      7.515869000000000E-01     -9.509766000000000E+01
4866000000.000000      5.470581000000000E-01     -1.698750000000000E+02      5.042419000000000E-01     -8.025000000000000E+01      5.473022000000000E-01     -1.798125000000000E+02      7.539673000000000E-01     -9.516016000000000E+01
4867000000.000000      5.487976000000000E-01     -1.702656000000000E+02      5.059814000000000E-01     -8.067577000000000E+01      5.485840000000000E-01     -1.799375000000000E+02      7.565613000000000E-01     -9.533594000000000E+01
4868000000.000000      5.512695000000000E-01     -1.706875000000000E+02      5.073547000000000E-01     -8.096483000000000E+01      5.528564000000000E-01      1.798906000000000E+02      7.581177000000000E-01     -9.533203000000000E+01
4869000000.000000      5.517273000000000E-01     -1.709219000000000E+02      5.067139000000000E-01     -8.111719000000000E+01      5.558167000000000E-01      1.796094000000000E+02      7.633057000000000E-01     -9.539454000000000E+01
4870000000.000000      5.535583000000000E-01     -1.712422000000000E+02      5.098877000000000E-01     -8.121874000000000E+01      5.576477000000000E-01      1.793594000000000E+02      7.641296000000000E-01     -9.531250000000000E+01
4871000000.000000      5.551147000000000E-01     -1.716250000000000E+02      5.091553000000000E-01     -8.172266000000000E+01      5.594788000000000E-01      1.791094000000000E+02      7.660828000000000E-01     -9.550781000000000E+01
4872000000.000000      5.568848000000000E-01     -1.718594000000000E+02      5.092163000000000E-01     -8.158203000000000E+01      5.622253000000000E-01      1.789219000000000E+02      7.692566000000000E-01     -9.554688000000000E+01
4873000000.000000      5.567932000000000E-01     -1.720781000000000E+02      5.113831000000000E-01     -8.205078000000000E+01      5.653076000000000E-01      1.788047000000000E+02      7.712708000000000E-01     -9.563280000000000E+01
4874000000.000000      5.575256000000000E-01     -1.722031000000000E+02      5.127258000000000E-01     -8.252344000000000E+01      5.670471000000000E-01      1.786250000000000E+02      7.727966000000000E-01     -9.552343000000000E+01
4875000000.000000      5.589905000000000E-01     -1.725547000000000E+02      5.127563000000000E-01     -8.267187000000000E+01      5.694275000000000E-01      1.783594000000000E+02      7.749329000000000E-01     -9.555859000000000E+01
4876000000.000000      5.583496000000000E-01     -1.727422000000000E+02      5.124817000000000E-01     -8.260546000000000E+01      5.708618000000000E-01      1.781250000000000E+02      7.788086000000000E-01     -9.566406000000000E+01
4877000000.000000      5.588684000000000E-01     -1.729063000000000E+02      5.143738000000000E-01     -8.291796000000000E+01      5.736694000000000E-01      1.779687000000000E+02      7.792053000000000E-01     -9.580858000000000E+01
4878000000.000000      5.596008000000000E-01     -1.731094000000000E+02      5.182190000000000E-01     -8.301561000000000E+01      5.762329000000000E-01      1.779219000000000E+02      7.821960000000000E-01     -9.580858000000000E+01
4879000000.000000      5.592346000000000E-01     -1.733828000000000E+02      5.156860000000000E-01     -8.324219000000000E+01      5.763855000000000E-01      1.775391000000000E+02      7.850647000000000E-01     -9.565624000000000E+01
4880000000.000000      5.585327000000000E-01     -1.734453000000000E+02      5.161133000000000E-01     -8.366796000000000E+01      5.779419000000000E-01      1.773516000000000E+02      7.868042000000000E-01     -9.582422000000000E+01
4881000000.000000      5.599976000000000E-01     -1.735391000000000E+02      5.180969000000000E-01     -8.366014000000000E+01      5.808716000000000E-01      1.769375000000000E+02      7.873230000000000E-01     -9.600780000000000E+01
4882000000.000000      5.574036000000000E-01     -1.736719000000000E+02      5.187683000000000E-01     -8.392969000000000E+01      5.824585000000000E-01      1.770000000000000E+02      7.893066000000000E-01     -9.602343000000000E+01
