! Network Analyzer HP8722D
! Hewlett-Packard
! Data name: Linha & Wilkinson
! Saver's name: Rodrigo Anjos
! Comments: Teste da utilização de aquisição
continua pelo VNA HP8722D
! Time and date: 17/4/2025 16:03
!              Frequency                     S11                                                   S21                                                   S12                                                   S22
# HZ  S  MA R 50
4800000000.000000      3.348846000000000E-01     -1.147578000000000E+02      3.003693000000000E-01     -6.137304000000000E+01      2.958832000000000E-01     -1.757187000000000E+02      6.566162000000000E-01     -9.072657000000000E+01
4801000000.000000      3.336334000000000E-01     -1.156797000000000E+02      3.055115000000000E-01     -6.151953000000000E+01      2.987823000000000E-01     -1.755781000000000E+02      6.562805000000000E-01     -9.076563000000000E+01
4802000000.000000      3.325806000000000E-01     -1.167617000000000E+02      3.096008000000000E-01     -6.164453000000000E+01      3.037262000000000E-01     -1.754297000000000E+02      6.550293000000000E-01     -9.090235000000000E+01
4803000000.000000      3.319702000000000E-01     -1.177851000000000E+02      3.143005000000000E-01     -6.176758000000000E+01      3.079834000000000E-01     -1.754688000000000E+02      6.544800000000000E-01     -9.104296000000000E+01
4804000000.000000      3.318634000000000E-01     -1.187070000000000E+02      3.184967000000000E-01     -6.193164000000000E+01      3.114319000000000E-01     -1.754766000000000E+02      6.535339000000000E-01     -9.103516000000000E+01
4805000000.000000      3.318634000000000E-01     -1.197148000000000E+02      3.231659000000000E-01     -6.198632000000000E+01      3.154297000000000E-01     -1.752500000000000E+02      6.535339000000000E-01     -9.117188000000000E+01
4806000000.000000      3.311005000000000E-01     -1.206836000000000E+02      3.277740000000000E-01     -6.224609000000000E+01      3.188477000000000E-01     -1.750391000000000E+02      6.522217000000000E-01     -9.137890000000000E+01
4807000000.000000      3.319855000000000E-01     -1.217656000000000E+02      3.319244000000000E-01     -6.236133000000000E+01      3.235779000000000E-01     -1.752187000000000E+02      6.517944000000000E-01     -9.134766000000000E+01
4808000000.000000      3.317871000000000E-01     -1.227969000000000E+02      3.367767000000000E-01     -6.257813000000000E+01      3.269653000000000E-01     -1.752422000000000E+02      6.510925000000000E-01     -9.143749000000000E+01
4809000000.000000      3.323212000000000E-01     -1.238594000000000E+02      3.403168000000000E-01     -6.294922000000000E+01      3.317108000000000E-01     -1.752266000000000E+02      6.506042000000000E-01     -9.155077000000000E+01
4810000000.000000      3.333740000000000E-01     -1.250547000000000E+02      3.450317000000000E-01     -6.300781000000000E+01      3.353271000000000E-01     -1.750313000000000E+02      6.507874000000000E-01     -9.171484000000000E+01
4811000000.000000      3.349304000000000E-01     -1.261601000000000E+02      3.492432000000000E-01     -6.325390000000000E+01      3.404388000000000E-01     -1.749922000000000E+02      6.501465000000000E-01     -9.170313000000000E+01
4812000000.000000      3.368225000000000E-01     -1.269727000000000E+02      3.535309000000000E-01     -6.344140000000000E+01      3.439026000000000E-01     -1.749609000000000E+02      6.513977000000000E-01     -9.183985000000000E+01
4813000000.000000      3.370514000000000E-01     -1.282500000000000E+02      3.575592000000000E-01     -6.373437000000000E+01      3.467865000000000E-01     -1.748437000000000E+02      6.502991000000000E-01     -9.179688000000000E+01
4814000000.000000      3.383179000000000E-01     -1.294375000000000E+02      3.608704000000000E-01     -6.391602000000000E+01      3.510132000000000E-01     -1.748672000000000E+02      6.506958000000000E-01     -9.197266000000000E+01
4815000000.000000      3.403625000000000E-01     -1.304766000000000E+02      3.647003000000000E-01     -6.428515000000000E+01      3.545380000000000E-01     -1.748750000000000E+02      6.492615000000000E-01     -9.202343000000000E+01
4816000000.000000      3.423004000000000E-01     -1.315000000000000E+02      3.695068000000000E-01     -6.435156000000000E+01      3.592377000000000E-01     -1.747813000000000E+02      6.498108000000000E-01     -9.214062000000000E+01
4817000000.000000      3.450928000000000E-01     -1.325156000000000E+02      3.724670000000000E-01     -6.473437000000000E+01      3.623810000000000E-01     -1.748516000000000E+02      6.502380000000000E-01     -9.219921000000000E+01
4818000000.000000      3.471985000000000E-01     -1.337031000000000E+02      3.760071000000000E-01     -6.494922000000000E+01      3.670502000000000E-01     -1.747422000000000E+02      6.507874000000000E-01     -9.235937000000000E+01
4819000000.000000      3.501587000000000E-01     -1.348516000000000E+02      3.794098000000000E-01     -6.514062000000000E+01      3.699341000000000E-01     -1.748594000000000E+02      6.528320000000000E-01     -9.249218000000000E+01
4820000000.000000      3.515320000000000E-01     -1.358359000000000E+02      3.839417000000000E-01     -6.533203000000000E+01      3.747101000000000E-01     -1.748437000000000E+02      6.529236000000000E-01     -9.240234000000000E+01
4821000000.000000      3.550720000000000E-01     -1.369688000000000E+02      3.883820000000000E-01     -6.574609000000000E+01      3.784943000000000E-01     -1.749375000000000E+02      6.521912000000000E-01     -9.264063000000000E+01
4822000000.000000      3.594818000000000E-01     -1.380234000000000E+02      3.910065000000000E-01     -6.592968000000000E+01      3.822174000000000E-01     -1.748203000000000E+02      6.534729000000000E-01     -9.259375000000000E+01
4823000000.000000      3.621368000000000E-01     -1.389375000000000E+02      3.950958000000000E-01     -6.618750000000000E+01      3.847504000000000E-01     -1.746953000000000E+02      6.538696000000000E-01     -9.269140000000000E+01
4824000000.000000      3.664246000000000E-01     -1.401250000000000E+02      3.990173000000000E-01     -6.658984000000000E+01      3.898163000000000E-01     -1.748672000000000E+02      6.562195000000000E-01     -9.279688000000000E+01
4825000000.000000      3.696594000000000E-01     -1.410391000000000E+02      4.022369000000000E-01     -6.671875000000000E+01      3.941193000000000E-01     -1.748359000000000E+02      6.568298000000000E-01     -9.281641000000000E+01
4826000000.000000      3.739471000000000E-01     -1.421094000000000E+02      4.062042000000000E-01     -6.721093000000000E+01      3.968811000000000E-01     -1.748828000000000E+02      6.580200000000000E-01     -9.285156000000000E+01
4827000000.000000      3.779297000000000E-01     -1.429453000000000E+02      4.091492000000000E-01     -6.741015000000000E+01      4.009247000000000E-01     -1.747422000000000E+02      6.588440000000000E-01     -9.298437000000000E+01
4828000000.000000      3.825836000000000E-01     -1.439844000000000E+02      4.144440000000000E-01     -6.762500000000000E+01      4.042969000000000E-01     -1.748906000000000E+02      6.606445000000000E-01     -9.305079000000000E+01
4829000000.000000      3.854980000000000E-01     -1.448516000000000E+02      4.158325000000000E-01     -6.803515000000000E+01      4.093170000000000E-01     -1.748594000000000E+02      6.616211000000000E-01     -9.308203000000000E+01
4830000000.000000      3.906708000000000E-01     -1.458984000000000E+02      4.191132000000000E-01     -6.826953000000000E+01      4.128265000000000E-01     -1.748672000000000E+02      6.632690000000000E-01     -9.318359000000000E+01
4831000000.000000      3.946686000000000E-01     -1.467266000000000E+02      4.228668000000000E-01     -6.848827000000000E+01      4.176331000000000E-01     -1.748672000000000E+02      6.648254000000000E-01     -9.319530000000000E+01
4832000000.000000      4.006958000000000E-01     -1.476250000000000E+02      4.276123000000000E-01     -6.885156000000000E+01      4.206238000000000E-01     -1.749687000000000E+02      6.672058000000000E-01     -9.326952000000000E+01
4833000000.000000      4.053040000000000E-01     -1.486172000000000E+02      4.297028000000000E-01     -6.907031000000000E+01      4.245300000000000E-01     -1.750547000000000E+02      6.682739000000000E-01     -9.333593000000000E+01
4834000000.000000      4.100342000000000E-01     -1.494297000000000E+02      4.325256000000000E-01     -6.950390000000000E+01      4.289093000000000E-01     -1.750547000000000E+02      6.701660000000000E-01     -9.338671000000000E+01
4835000000.000000      4.147644000000000E-01     -1.502734000000000E+02      4.362335000000000E-01     -6.988671000000000E+01      4.325409000000000E-01     -1.751250000000000E+02      6.729736000000000E-01     -9.352343000000000E+01
4836000000.000000      4.202423000000000E-01     -1.510391000000000E+02      4.385223000000000E-01     -7.017968000000000E+01      4.363251000000000E-01     -1.750781000000000E+02      6.735229000000000E-01     -9.348436000000000E+01
4837000000.000000      4.254303000000000E-01     -1.518203000000000E+02      4.415283000000000E-01     -7.052734000000000E+01      4.398499000000000E-01     -1.752109000000000E+02      6.759949000000000E-01     -9.355860000000000E+01
4838000000.000000      4.304352000000000E-01     -1.527344000000000E+02      4.450531000000000E-01     -7.056250000000000E+01      4.446564000000000E-01     -1.753672000000000E+02      6.782532000000000E-01     -9.365234000000000E+01
4839000000.000000      4.355774000000000E-01     -1.533437000000000E+02      4.475708000000000E-01     -7.100780000000000E+01      4.483032000000000E-01     -1.753047000000000E+02      6.806946000000000E-01     -9.364061000000000E+01
4840000000.000000      4.399719000000000E-01     -1.542031000000000E+02      4.499817000000000E-01     -7.136328000000000E+01      4.519806000000000E-01     -1.754922000000000E+02      6.816711000000000E-01     -9.377344000000000E+01
4841000000.000000      4.457703000000000E-01     -1.550547000000000E+02      4.541168000000000E-01     -7.179688000000000E+01      4.564209000000000E-01     -1.756016000000000E+02      6.846924000000000E-01     -9.384375000000000E+01
4842000000.000000      4.515228000000000E-01     -1.556562000000000E+02      4.562225000000000E-01     -7.201172000000000E+01      4.593506000000000E-01     -1.756484000000000E+02      6.875610000000000E-01     -9.384766000000000E+01
4843000000.000000      4.555511000000000E-01     -1.565000000000000E+02      4.590607000000000E-01     -7.224609000000000E+01      4.639435000000000E-01     -1.756016000000000E+02      6.905518000000000E-01     -9.386719000000000E+01
4844000000.000000      4.610443000000000E-01     -1.571172000000000E+02      4.609222000000000E-01     -7.269140000000000E+01      4.675598000000000E-01     -1.757578000000000E+02      6.929932000000000E-01     -9.403124000000000E+01
4845000000.000000      4.657288000000000E-01     -1.577500000000000E+02      4.635925000000000E-01     -7.292187000000000E+01      4.713440000000000E-01     -1.759140000000000E+02      6.943665000000000E-01     -9.398438000000000E+01
4846000000.000000      4.708405000000000E-01     -1.583828000000000E+02      4.659729000000000E-01     -7.328906000000000E+01      4.757385000000000E-01     -1.758750000000000E+02      6.972046000000000E-01     -9.395311000000000E+01
4847000000.000000      4.767761000000000E-01     -1.590937000000000E+02      4.689331000000000E-01     -7.358593000000000E+01      4.793549000000000E-01     -1.761719000000000E+02      7.005310000000000E-01     -9.416407000000000E+01
4848000000.000000      4.815369000000000E-01     -1.596719000000000E+02      4.701385000000000E-01     -7.397655000000000E+01      4.833679000000000E-01     -1.762266000000000E+02      7.031250000000000E-01     -9.411327000000000E+01
4849000000.000000      4.858856000000000E-01     -1.606016000000000E+02      4.730072000000000E-01     -7.431641000000000E+01      4.876099000000000E-01     -1.763750000000000E+02      7.051392000000000E-01     -9.421093000000000E+01
4850000000.000000      4.909363000000000E-01     -1.609531000000000E+02      4.757385000000000E-01     -7.452343000000000E+01      4.912262000000000E-01     -1.763984000000000E+02      7.072754000000000E-01     -9.419922000000000E+01
4851000000.000000      4.955597000000000E-01     -1.615625000000000E+02      4.780121000000000E-01     -7.501562000000000E+01      4.943542000000000E-01     -1.765625000000000E+02      7.108459000000000E-01     -9.419140000000000E+01
4852000000.000000      5.004883000000000E-01     -1.621250000000000E+02      4.808807000000000E-01     -7.530468000000000E+01      4.974213000000000E-01     -1.766562000000000E+02      7.143860000000000E-01     -9.429296000000000E+01
4853000000.000000      5.051575000000000E-01     -1.627266000000000E+02      4.806366000000000E-01     -7.563671000000000E+01      5.035095000000000E-01     -1.769140000000000E+02      7.173767000000000E-01     -9.444139000000000E+01
4854000000.000000      5.093384000000000E-01     -1.632422000000000E+02      4.838104000000000E-01     -7.589844000000000E+01      5.062256000000000E-01     -1.770859000000000E+02      7.190247000000000E-01     -9.441015000000000E+01
4855000000.000000      5.126343000000000E-01     -1.638750000000000E+02      4.853668000000000E-01     -7.631249000000000E+01      5.098267000000000E-01     -1.770625000000000E+02      7.206421000000000E-01     -9.434765000000000E+01
4856000000.000000      5.173340000000000E-01     -1.643047000000000E+02      4.879761000000000E-01     -7.657421000000000E+01      5.135193000000000E-01     -1.772344000000000E+02      7.265930000000000E-01     -9.443359000000000E+01
4857000000.000000      5.209656000000000E-01     -1.649062000000000E+02      4.904480000000000E-01     -7.689062000000000E+01      5.169983000000000E-01     -1.774297000000000E+02      7.276917000000000E-01     -9.458202000000000E+01
4858000000.000000      5.223694000000000E-01     -1.653828000000000E+02      4.918365000000000E-01     -7.715234000000000E+01      5.187988000000000E-01     -1.775312000000000E+02      7.303772000000000E-01     -9.462891000000000E+01
4859000000.000000      5.270081000000000E-01     -1.658906000000000E+02      4.926147000000000E-01     -7.758984000000000E+01      5.238342000000000E-01     -1.778437000000000E+02      7.336426000000000E-01     -9.468359000000000E+01
4860000000.000000      5.315857000000000E-01     -1.663203000000000E+02      4.948120000000000E-01     -7.778125000000000E+01      5.264282000000000E-01     -1.779297000000000E+02      7.374268000000000E-01     -9.464844000000000E+01
4861000000.000000      5.346375000000000E-01     -1.667109000000000E+02      4.969788000000000E-01     -7.828515000000000E+01      5.295105000000000E-01     -1.781016000000000E+02      7.395630000000000E-01     -9.483202000000000E+01
4862000000.000000      5.375977000000000E-01     -1.671484000000000E+02      4.970856000000000E-01     -7.826562000000000E+01      5.332031000000000E-01     -1.782187000000000E+02      7.431030000000000E-01     -9.476954000000000E+01
4863000000.000000      5.398865000000000E-01     -1.675547000000000E+02      4.984741000000000E-01     -7.887109000000000E+01      5.358887000000000E-01     -1.785000000000000E+02      7.461243000000000E-01     -9.473436000000000E+01
4864000000.000000      5.429993000000000E-01     -1.679844000000000E+02      5.009460000000000E-01     -7.898046000000000E+01      5.391541000000000E-01     -1.785547000000000E+02      7.474060000000000E-01     -9.496094000000000E+01
4865000000.000000      5.444336000000000E-01     -1.684375000000000E+02      5.017090000000000E-01     -7.919531000000000E+01      5.423584000000000E-01     -1.789453000000000E+02      7.505493000000000E-01     -9.482031000000000E+01
4866000000.000000      5.464783000000000E-01     -1.687656000000000E+02      5.021057000000000E-01     -7.958593000000000E+01      5.453186000000000E-01     -1.790234000000000E+02      7.546387000000000E-01     -9.487108000000000E+01
4867000000.000000      5.487976000000000E-01     -1.690078000000000E+02      5.036011000000000E-01     -7.980469000000000E+01      5.469360000000000E-01     -1.793594000000000E+02      7.572021000000000E-01     -9.490625000000000E+01
4868000000.000000      5.504761000000000E-01     -1.694609000000000E+02      5.051575000000000E-01     -8.017187000000000E+01      5.511169000000000E-01     -1.794062000000000E+02      7.579651000000000E-01     -9.502733000000000E+01
4869000000.000000      5.517883000000000E-01     -1.698437000000000E+02      5.046387000000000E-01     -8.048046000000000E+01      5.533142000000000E-01     -1.796719000000000E+02      7.612610000000000E-01     -9.518358000000000E+01
4870000000.000000      5.536804000000000E-01     -1.701094000000000E+02      5.077820000000000E-01     -8.071484000000000E+01      5.565491000000000E-01     -1.797422000000000E+02      7.643738000000000E-01     -9.503906000000000E+01
4871000000.000000      5.554504000000000E-01     -1.704453000000000E+02      5.086975000000000E-01     -8.080858000000000E+01      5.577393000000000E-01      1.799062000000000E+02      7.662354000000000E-01     -9.514843000000000E+01
4872000000.000000      5.578918000000000E-01     -1.706016000000000E+02      5.084534000000000E-01     -8.104687000000000E+01      5.614014000000000E-01      1.795312000000000E+02      7.690735000000000E-01     -9.518749000000000E+01
4873000000.000000      5.585327000000000E-01     -1.708750000000000E+02      5.089417000000000E-01     -8.139063000000000E+01      5.633240000000000E-01      1.794531000000000E+02      7.709656000000000E-01     -9.535936000000000E+01
4874000000.000000      5.585022000000000E-01     -1.711641000000000E+02      5.111389000000000E-01     -8.164454000000000E+01      5.672913000000000E-01      1.792031000000000E+02      7.735901000000000E-01     -9.510937000000000E+01
4875000000.000000      5.606689000000000E-01     -1.715234000000000E+02      5.115662000000000E-01     -8.185156000000000E+01      5.683594000000000E-01      1.789531000000000E+02      7.752380000000000E-01     -9.531641000000000E+01
4876000000.000000      5.598755000000000E-01     -1.716640000000000E+02      5.111694000000000E-01     -8.197266000000000E+01      5.692749000000000E-01      1.790000000000000E+02      7.788391000000000E-01     -9.539843000000000E+01
4877000000.000000      5.600586000000000E-01     -1.718672000000000E+02      5.133362000000000E-01     -8.209375000000000E+01      5.736694000000000E-01      1.786172000000000E+02      7.810669000000000E-01     -9.542187000000000E+01
4878000000.000000      5.606079000000000E-01     -1.720547000000000E+02      5.162048000000000E-01     -8.243359000000000E+01      5.742493000000000E-01      1.783437000000000E+02      7.835388000000000E-01     -9.558594000000000E+01
4879000000.000000      5.613708000000000E-01     -1.722109000000000E+02      5.132446000000000E-01     -8.248438000000000E+01      5.755615000000000E-01      1.782500000000000E+02      7.841492000000000E-01     -9.547266000000000E+01
4880000000.000000      5.606079000000000E-01     -1.724062000000000E+02      5.153503000000000E-01     -8.290625000000000E+01      5.780945000000000E-01      1.781406000000000E+02      7.877197000000000E-01     -9.558203000000000E+01
4881000000.000000      5.616455000000000E-01     -1.724531000000000E+02      5.176086000000000E-01     -8.293360000000000E+01      5.821838000000000E-01      1.778672000000000E+02      7.892456000000000E-01     -9.550390000000000E+01
4882000000.000000      5.602417000000000E-01     -1.725625000000000E+02      5.179749000000000E-01     -8.314453000000000E+01      5.816956000000000E-01      1.777031000000000E+02      7.903137000000000E-01     -9.560547000000000E+01
