! Network Analyzer HP8722D
! Hewlett-Packard
! Data name: Linha & Wilkinson
! Saver's name: Rodrigo Anjos
! Comments: Teste da utilização de aquisição
continua pelo VNA HP8722D
! Time and date: 17/4/2025 14:31
!              Frequency                     S11                                                   S21                                                   S12                                                   S22
# HZ  S  MA R 50
4800000000.000000      3.334656000000000E-01     -1.133398000000000E+02      2.868805000000000E-01     -6.079883000000000E+01      2.812805000000000E-01     -1.749844000000000E+02      6.551819000000000E-01     -8.989843000000000E+01
4801000000.000000      3.326874000000000E-01     -1.141328000000000E+02      2.911224000000000E-01     -6.084374000000000E+01      2.843323000000000E-01     -1.748437000000000E+02      6.540833000000000E-01     -9.003515000000000E+01
4802000000.000000      3.315430000000000E-01     -1.151406000000000E+02      2.956238000000000E-01     -6.096484000000000E+01      2.888641000000000E-01     -1.747187000000000E+02      6.528931000000000E-01     -8.998047000000000E+01
4803000000.000000      3.305054000000000E-01     -1.162070000000000E+02      3.011627000000000E-01     -6.097851000000000E+01      2.923737000000000E-01     -1.747266000000000E+02      6.529236000000000E-01     -9.020702000000000E+01
4804000000.000000      3.301239000000000E-01     -1.172422000000000E+02      3.048859000000000E-01     -6.110742000000000E+01      2.970428000000000E-01     -1.746094000000000E+02      6.513672000000000E-01     -9.025782000000000E+01
4805000000.000000      3.300323000000000E-01     -1.182031000000000E+02      3.094635000000000E-01     -6.126171000000000E+01      3.010559000000000E-01     -1.744062000000000E+02      6.517029000000000E-01     -9.036718000000000E+01
4806000000.000000      3.293610000000000E-01     -1.190586000000000E+02      3.134460000000000E-01     -6.142187000000000E+01      3.044128000000000E-01     -1.741406000000000E+02      6.510925000000000E-01     -9.048046000000000E+01
4807000000.000000      3.296356000000000E-01     -1.201992000000000E+02      3.188629000000000E-01     -6.158789000000000E+01      3.088531000000000E-01     -1.742656000000000E+02      6.499329000000000E-01     -9.051952000000000E+01
4808000000.000000      3.305054000000000E-01     -1.211562000000000E+02      3.233490000000000E-01     -6.157617000000000E+01      3.133240000000000E-01     -1.741797000000000E+02      6.485596000000000E-01     -9.071484000000000E+01
4809000000.000000      3.303528000000000E-01     -1.224023000000000E+02      3.273163000000000E-01     -6.214257000000000E+01      3.176575000000000E-01     -1.740859000000000E+02      6.486816000000000E-01     -9.073437000000000E+01
4810000000.000000      3.312836000000000E-01     -1.234766000000000E+02      3.316650000000000E-01     -6.201953000000000E+01      3.209381000000000E-01     -1.740391000000000E+02      6.501160000000000E-01     -9.091015000000000E+01
4811000000.000000      3.328705000000000E-01     -1.244492000000000E+02      3.364258000000000E-01     -6.242188000000000E+01      3.263550000000000E-01     -1.738906000000000E+02      6.477661000000000E-01     -9.088671000000000E+01
4812000000.000000      3.336792000000000E-01     -1.255508000000000E+02      3.402863000000000E-01     -6.252734000000000E+01      3.298035000000000E-01     -1.738594000000000E+02      6.493225000000000E-01     -9.097265000000000E+01
4813000000.000000      3.348541000000000E-01     -1.266367000000000E+02      3.451996000000000E-01     -6.263085000000000E+01      3.334656000000000E-01     -1.737656000000000E+02      6.479187000000000E-01     -9.098436000000000E+01
4814000000.000000      3.352203000000000E-01     -1.278359000000000E+02      3.481140000000000E-01     -6.276953000000000E+01      3.372803000000000E-01     -1.738125000000000E+02      6.481323000000000E-01     -9.109766000000000E+01
4815000000.000000      3.371277000000000E-01     -1.288281000000000E+02      3.520508000000000E-01     -6.310937000000000E+01      3.412476000000000E-01     -1.736953000000000E+02      6.481628000000000E-01     -9.120312000000000E+01
4816000000.000000      3.392944000000000E-01     -1.297969000000000E+02      3.561859000000000E-01     -6.320507000000000E+01      3.461151000000000E-01     -1.734922000000000E+02      6.485596000000000E-01     -9.129686000000000E+01
4817000000.000000      3.415985000000000E-01     -1.309297000000000E+02      3.608246000000000E-01     -6.349023000000000E+01      3.492126000000000E-01     -1.736562000000000E+02      6.475830000000000E-01     -9.142969000000000E+01
4818000000.000000      3.438263000000000E-01     -1.320937000000000E+02      3.651123000000000E-01     -6.375390000000000E+01      3.537140000000000E-01     -1.736328000000000E+02      6.485596000000000E-01     -9.147655000000000E+01
4819000000.000000      3.464508000000000E-01     -1.331406000000000E+02      3.685150000000000E-01     -6.396093000000000E+01      3.580170000000000E-01     -1.735625000000000E+02      6.493530000000000E-01     -9.152735000000000E+01
4820000000.000000      3.479767000000000E-01     -1.341406000000000E+02      3.725128000000000E-01     -6.410937000000000E+01      3.618774000000000E-01     -1.734609000000000E+02      6.502686000000000E-01     -9.162109000000000E+01
4821000000.000000      3.512878000000000E-01     -1.352890000000000E+02      3.771515000000000E-01     -6.447656000000000E+01      3.649902000000000E-01     -1.735937000000000E+02      6.494751000000000E-01     -9.182032000000000E+01
4822000000.000000      3.556824000000000E-01     -1.363125000000000E+02      3.806305000000000E-01     -6.460938000000000E+01      3.693237000000000E-01     -1.735156000000000E+02      6.511230000000000E-01     -9.184765000000000E+01
4823000000.000000      3.582458000000000E-01     -1.373281000000000E+02      3.841553000000000E-01     -6.506249000000000E+01      3.727417000000000E-01     -1.733750000000000E+02      6.514893000000000E-01     -9.188280000000000E+01
4824000000.000000      3.629456000000000E-01     -1.384609000000000E+02      3.878326000000000E-01     -6.541016000000000E+01      3.769684000000000E-01     -1.735234000000000E+02      6.531372000000000E-01     -9.192577000000000E+01
4825000000.000000      3.650208000000000E-01     -1.393359000000000E+02      3.906403000000000E-01     -6.548046000000000E+01      3.824463000000000E-01     -1.733203000000000E+02      6.544189000000000E-01     -9.189844000000000E+01
4826000000.000000      3.695374000000000E-01     -1.404453000000000E+02      3.952942000000000E-01     -6.588281000000000E+01      3.850250000000000E-01     -1.734609000000000E+02      6.552734000000000E-01     -9.214844000000000E+01
4827000000.000000      3.736877000000000E-01     -1.412969000000000E+02      3.988953000000000E-01     -6.606640000000000E+01      3.887024000000000E-01     -1.733750000000000E+02      6.563721000000000E-01     -9.210155000000000E+01
4828000000.000000      3.782959000000000E-01     -1.422969000000000E+02      4.038391000000000E-01     -6.635156000000000E+01      3.932495000000000E-01     -1.733594000000000E+02      6.593933000000000E-01     -9.214844000000000E+01
4829000000.000000      3.810425000000000E-01     -1.431953000000000E+02      4.053955000000000E-01     -6.665234000000000E+01      3.979340000000000E-01     -1.733359000000000E+02      6.602478000000000E-01     -9.217188000000000E+01
4830000000.000000      3.866425000000000E-01     -1.441406000000000E+02      4.088440000000000E-01     -6.698047000000000E+01      4.017792000000000E-01     -1.734297000000000E+02      6.611938000000000E-01     -9.233202000000000E+01
4831000000.000000      3.905945000000000E-01     -1.450703000000000E+02      4.135132000000000E-01     -6.729297000000000E+01      4.059448000000000E-01     -1.734219000000000E+02      6.634216000000000E-01     -9.230078000000000E+01
4832000000.000000      3.962402000000000E-01     -1.459219000000000E+02      4.168243000000000E-01     -6.755859000000000E+01      4.090576000000000E-01     -1.734609000000000E+02      6.643677000000000E-01     -9.246874000000000E+01
4833000000.000000      4.007263000000000E-01     -1.469844000000000E+02      4.200134000000000E-01     -6.774609000000000E+01      4.133301000000000E-01     -1.735937000000000E+02      6.662903000000000E-01     -9.244921000000000E+01
4834000000.000000      4.056244000000000E-01     -1.477813000000000E+02      4.229431000000000E-01     -6.795703000000000E+01      4.180298000000000E-01     -1.736562000000000E+02      6.679382000000000E-01     -9.250391000000000E+01
4835000000.000000      4.096527000000000E-01     -1.485937000000000E+02      4.270325000000000E-01     -6.848827000000000E+01      4.225769000000000E-01     -1.736328000000000E+02      6.695251000000000E-01     -9.266405000000000E+01
4836000000.000000      4.155426000000000E-01     -1.493438000000000E+02      4.297028000000000E-01     -6.864452000000000E+01      4.255676000000000E-01     -1.736641000000000E+02      6.712952000000000E-01     -9.262110000000000E+01
4837000000.000000      4.208679000000000E-01     -1.501250000000000E+02      4.329376000000000E-01     -6.921093000000000E+01      4.295807000000000E-01     -1.738281000000000E+02      6.738586000000000E-01     -9.271875000000000E+01
4838000000.000000      4.260559000000000E-01     -1.511016000000000E+02      4.374390000000000E-01     -6.945313000000000E+01      4.340668000000000E-01     -1.737813000000000E+02      6.768494000000000E-01     -9.278124000000000E+01
4839000000.000000      4.309235000000000E-01     -1.517344000000000E+02      4.395599000000000E-01     -6.958984000000000E+01      4.385529000000000E-01     -1.737422000000000E+02      6.793518000000000E-01     -9.269922000000000E+01
4840000000.000000      4.352570000000000E-01     -1.526484000000000E+02      4.418335000000000E-01     -6.989452000000000E+01      4.417419000000000E-01     -1.739375000000000E+02      6.801453000000000E-01     -9.283983000000000E+01
4841000000.000000      4.411469000000000E-01     -1.533437000000000E+02      4.447479000000000E-01     -7.038671000000000E+01      4.471130000000000E-01     -1.741016000000000E+02      6.831055000000000E-01     -9.288671000000000E+01
4842000000.000000      4.469299000000000E-01     -1.540547000000000E+02      4.478455000000000E-01     -7.060156000000000E+01      4.491730000000000E-01     -1.741094000000000E+02      6.850891000000000E-01     -9.296093000000000E+01
4843000000.000000      4.514923000000000E-01     -1.548047000000000E+02      4.514008000000000E-01     -7.105078000000000E+01      4.544830000000000E-01     -1.740937000000000E+02      6.875000000000000E-01     -9.299608000000000E+01
4844000000.000000      4.564209000000000E-01     -1.554922000000000E+02      4.534912000000000E-01     -7.130077000000000E+01      4.583588000000000E-01     -1.742422000000000E+02      6.906128000000000E-01     -9.309374000000000E+01
4845000000.000000      4.613342000000000E-01     -1.561641000000000E+02      4.560394000000000E-01     -7.162890000000000E+01      4.626007000000000E-01     -1.743125000000000E+02      6.910706000000000E-01     -9.300781000000000E+01
4846000000.000000      4.667664000000000E-01     -1.567031000000000E+02      4.590607000000000E-01     -7.177343000000000E+01      4.672852000000000E-01     -1.744141000000000E+02      6.954956000000000E-01     -9.308203000000000E+01
4847000000.000000      4.725342000000000E-01     -1.575078000000000E+02      4.615479000000000E-01     -7.214844000000000E+01      4.712067000000000E-01     -1.745859000000000E+02      6.983032000000000E-01     -9.322266000000000E+01
4848000000.000000      4.769897000000000E-01     -1.580781000000000E+02      4.635010000000000E-01     -7.247656000000000E+01      4.747009000000000E-01     -1.745859000000000E+02      6.995544000000000E-01     -9.319921000000000E+01
4849000000.000000      4.818726000000000E-01     -1.589531000000000E+02      4.666595000000000E-01     -7.294531000000000E+01      4.786987000000000E-01     -1.747656000000000E+02      7.044678000000000E-01     -9.318359000000000E+01
4850000000.000000      4.873810000000000E-01     -1.593281000000000E+02      4.694672000000000E-01     -7.318749000000000E+01      4.827881000000000E-01     -1.748672000000000E+02      7.067871000000000E-01     -9.326172000000000E+01
4851000000.000000      4.925842000000000E-01     -1.599219000000000E+02      4.721222000000000E-01     -7.355859000000000E+01      4.864502000000000E-01     -1.749687000000000E+02      7.092896000000000E-01     -9.338282000000000E+01
4852000000.000000      4.968872000000000E-01     -1.605234000000000E+02      4.739075000000000E-01     -7.391406000000000E+01      4.907379000000000E-01     -1.750703000000000E+02      7.119141000000000E-01     -9.340235000000000E+01
4853000000.000000      5.017700000000000E-01     -1.611562000000000E+02      4.744110000000000E-01     -7.421093000000000E+01      4.952087000000000E-01     -1.753281000000000E+02      7.139893000000000E-01     -9.346483000000000E+01
4854000000.000000      5.055847000000000E-01     -1.616328000000000E+02      4.789276000000000E-01     -7.457031000000000E+01      4.978485000000000E-01     -1.754375000000000E+02      7.180786000000000E-01     -9.347656000000000E+01
4855000000.000000      5.089111000000000E-01     -1.622422000000000E+02      4.790344000000000E-01     -7.487109000000000E+01      5.021667000000000E-01     -1.755391000000000E+02      7.188721000000000E-01     -9.351954000000000E+01
4856000000.000000      5.143127000000000E-01     -1.627187000000000E+02      4.811707000000000E-01     -7.507421000000000E+01      5.052490000000000E-01     -1.757813000000000E+02      7.227173000000000E-01     -9.356249000000000E+01
4857000000.000000      5.186768000000000E-01     -1.632813000000000E+02      4.850159000000000E-01     -7.549999000000000E+01      5.096130000000000E-01     -1.758516000000000E+02      7.251282000000000E-01     -9.351563000000000E+01
4858000000.000000      5.206299000000000E-01     -1.637656000000000E+02      4.860840000000000E-01     -7.579296000000000E+01      5.135803000000000E-01     -1.759844000000000E+02      7.284241000000000E-01     -9.369141000000000E+01
4859000000.000000      5.252380000000000E-01     -1.643125000000000E+02      4.885559000000000E-01     -7.625000000000000E+01      5.170898000000000E-01     -1.762578000000000E+02      7.326050000000000E-01     -9.373827000000000E+01
4860000000.000000      5.290833000000000E-01     -1.647422000000000E+02      4.898987000000000E-01     -7.638672000000000E+01      5.197144000000000E-01     -1.763672000000000E+02      7.335815000000000E-01     -9.378515000000000E+01
4861000000.000000      5.324707000000000E-01     -1.651094000000000E+02      4.908752000000000E-01     -7.673437000000000E+01      5.231934000000000E-01     -1.766250000000000E+02      7.364807000000000E-01     -9.377733000000000E+01
4862000000.000000      5.350342000000000E-01     -1.655469000000000E+02      4.932098000000000E-01     -7.703906000000000E+01      5.285339000000000E-01     -1.766016000000000E+02      7.427673000000000E-01     -9.380077000000000E+01
4863000000.000000      5.380859000000000E-01     -1.660156000000000E+02      4.931335000000000E-01     -7.743359000000000E+01      5.317993000000000E-01     -1.769453000000000E+02      7.443848000000000E-01     -9.378515000000000E+01
4864000000.000000      5.413818000000000E-01     -1.663984000000000E+02      4.966583000000000E-01     -7.743750000000000E+01      5.332947000000000E-01     -1.770078000000000E+02      7.465820000000000E-01     -9.393749000000000E+01
4865000000.000000      5.436707000000000E-01     -1.668984000000000E+02      4.977264000000000E-01     -7.783203000000000E+01      5.354919000000000E-01     -1.772422000000000E+02      7.484436000000000E-01     -9.383984000000000E+01
4866000000.000000      5.450745000000000E-01     -1.672109000000000E+02      4.984131000000000E-01     -7.806641000000000E+01      5.409851000000000E-01     -1.775078000000000E+02      7.534790000000000E-01     -9.375780000000000E+01
4867000000.000000      5.485535000000000E-01     -1.675390000000000E+02      4.987183000000000E-01     -7.849999000000000E+01      5.436401000000000E-01     -1.777187000000000E+02      7.562256000000000E-01     -9.399609000000000E+01
4868000000.000000      5.506592000000000E-01     -1.679609000000000E+02      5.002747000000000E-01     -7.876171000000000E+01      5.469360000000000E-01     -1.778516000000000E+02      7.579041000000000E-01     -9.396875000000000E+01
4869000000.000000      5.519714000000000E-01     -1.682500000000000E+02      5.021362000000000E-01     -7.896093000000000E+01      5.493774000000000E-01     -1.781250000000000E+02      7.615356000000000E-01     -9.417969000000000E+01
4870000000.000000      5.545349000000000E-01     -1.686406000000000E+02      5.042725000000000E-01     -7.907421000000000E+01      5.520325000000000E-01     -1.784141000000000E+02      7.624512000000000E-01     -9.406250000000000E+01
4871000000.000000      5.558167000000000E-01     -1.689922000000000E+02      5.051880000000000E-01     -7.953515000000000E+01      5.536499000000000E-01     -1.786172000000000E+02      7.652588000000000E-01     -9.421484000000000E+01
4872000000.000000      5.582275000000000E-01     -1.692031000000000E+02      5.061646000000000E-01     -7.954296000000000E+01      5.567627000000000E-01     -1.788125000000000E+02      7.693176000000000E-01     -9.419140000000000E+01
4873000000.000000      5.586853000000000E-01     -1.693906000000000E+02      5.077820000000000E-01     -8.000000000000000E+01      5.596619000000000E-01     -1.789453000000000E+02      7.709656000000000E-01     -9.423437000000000E+01
4874000000.000000      5.597229000000000E-01     -1.696563000000000E+02      5.091553000000000E-01     -8.022264000000000E+01      5.632324000000000E-01     -1.792578000000000E+02      7.730713000000000E-01     -9.420313000000000E+01
4875000000.000000      5.613708000000000E-01     -1.700078000000000E+02      5.101013000000000E-01     -8.039063000000000E+01      5.656128000000000E-01     -1.794765000000000E+02      7.735901000000000E-01     -9.438671000000000E+01
4876000000.000000      5.613098000000000E-01     -1.701484000000000E+02      5.111389000000000E-01     -8.049219000000000E+01      5.670776000000000E-01     -1.796484000000000E+02      7.783813000000000E-01     -9.437500000000000E+01
4877000000.000000      5.620728000000000E-01     -1.703594000000000E+02      5.107117000000000E-01     -8.090624000000000E+01      5.692749000000000E-01     -1.798906000000000E+02      7.803955000000000E-01     -9.442577000000000E+01
4878000000.000000      5.622559000000000E-01     -1.705469000000000E+02      5.132446000000000E-01     -8.122656000000000E+01      5.724792000000000E-01     -1.799609000000000E+02      7.846985000000000E-01     -9.444921000000000E+01
4879000000.000000      5.635986000000000E-01     -1.707500000000000E+02      5.124207000000000E-01     -8.126953000000000E+01      5.732727000000000E-01      1.797891000000000E+02      7.848511000000000E-01     -9.442186000000000E+01
4880000000.000000      5.630493000000000E-01     -1.708828000000000E+02      5.148010000000000E-01     -8.158983000000000E+01      5.763855000000000E-01      1.796562000000000E+02      7.880249000000000E-01     -9.446484000000000E+01
4881000000.000000      5.649414000000000E-01     -1.709687000000000E+02      5.164490000000000E-01     -8.167969000000000E+01      5.786743000000000E-01      1.792891000000000E+02      7.897034000000000E-01     -9.455078000000000E+01
4882000000.000000      5.631104000000000E-01     -1.712031000000000E+02      5.166626000000000E-01     -8.188280000000000E+01      5.802002000000000E-01      1.790859000000000E+02      7.904968000000000E-01     -9.455078000000000E+01
