! Network Analyzer HP8722D
! Hewlett-Packard
! Data name: Linha & Wilkinson
! Saver's name: Rodrigo Anjos
! Comments: Teste da utilização de aquisição
continua pelo VNA HP8722D
! Time and date: 17/4/2025 15:00
!              Frequency                     S11                                                   S21                                                   S12                                                   S22
# HZ  S  MA R 50
4800000000.000000      3.329010000000000E-01     -1.129140000000000E+02      2.843323000000000E-01     -6.063867000000000E+01      2.779083000000000E-01     -1.748281000000000E+02      6.545105000000000E-01     -8.980078000000000E+01
4801000000.000000      3.319397000000000E-01     -1.138555000000000E+02      2.888641000000000E-01     -6.063477000000000E+01      2.819214000000000E-01     -1.747031000000000E+02      6.539001000000000E-01     -8.987108000000000E+01
4802000000.000000      3.310089000000000E-01     -1.148320000000000E+02      2.930145000000000E-01     -6.076172000000000E+01      2.866669000000000E-01     -1.745547000000000E+02      6.526794000000000E-01     -8.981640000000000E+01
4803000000.000000      3.298798000000000E-01     -1.157773000000000E+02      2.986450000000000E-01     -6.076562000000000E+01      2.902985000000000E-01     -1.743438000000000E+02      6.528625000000000E-01     -9.009766000000000E+01
4804000000.000000      3.295441000000000E-01     -1.168125000000000E+02      3.026886000000000E-01     -6.091406000000000E+01      2.939301000000000E-01     -1.743984000000000E+02      6.519165000000000E-01     -9.012890000000000E+01
4805000000.000000      3.293915000000000E-01     -1.178125000000000E+02      3.070374000000000E-01     -6.108007000000000E+01      2.985229000000000E-01     -1.741406000000000E+02      6.510925000000000E-01     -9.023438000000000E+01
4806000000.000000      3.291931000000000E-01     -1.187656000000000E+02      3.117981000000000E-01     -6.100586000000000E+01      3.017120000000000E-01     -1.738984000000000E+02      6.514282000000000E-01     -9.042187000000000E+01
4807000000.000000      3.293304000000000E-01     -1.198750000000000E+02      3.162842000000000E-01     -6.142773000000000E+01      3.065643000000000E-01     -1.740391000000000E+02      6.494751000000000E-01     -9.036327000000000E+01
4808000000.000000      3.297272000000000E-01     -1.208086000000000E+02      3.211670000000000E-01     -6.129687000000000E+01      3.106689000000000E-01     -1.739297000000000E+02      6.487732000000000E-01     -9.053514000000000E+01
4809000000.000000      3.300629000000000E-01     -1.219414000000000E+02      3.249969000000000E-01     -6.174805000000000E+01      3.150635000000000E-01     -1.738984000000000E+02      6.484070000000000E-01     -9.061327000000000E+01
4810000000.000000      3.303833000000000E-01     -1.230547000000000E+02      3.302765000000000E-01     -6.177148000000000E+01      3.187256000000000E-01     -1.737813000000000E+02      6.482849000000000E-01     -9.074219000000000E+01
4811000000.000000      3.312073000000000E-01     -1.241289000000000E+02      3.341217000000000E-01     -6.225780000000000E+01      3.240967000000000E-01     -1.736719000000000E+02      6.477966000000000E-01     -9.070704000000000E+01
4812000000.000000      3.329163000000000E-01     -1.251680000000000E+02      3.379822000000000E-01     -6.225976000000000E+01      3.278961000000000E-01     -1.735703000000000E+02      6.486511000000000E-01     -9.079687000000000E+01
4813000000.000000      3.339233000000000E-01     -1.262422000000000E+02      3.412018000000000E-01     -6.234179000000000E+01      3.310089000000000E-01     -1.734922000000000E+02      6.475830000000000E-01     -9.081640000000000E+01
4814000000.000000      3.348846000000000E-01     -1.274844000000000E+02      3.467865000000000E-01     -6.266211000000000E+01      3.349915000000000E-01     -1.735078000000000E+02      6.481018000000000E-01     -9.098827000000000E+01
4815000000.000000      3.365326000000000E-01     -1.284453000000000E+02      3.501587000000000E-01     -6.287890000000000E+01      3.391418000000000E-01     -1.733359000000000E+02      6.470642000000000E-01     -9.096483000000000E+01
4816000000.000000      3.382874000000000E-01     -1.295156000000000E+02      3.556061000000000E-01     -6.298242000000000E+01      3.436584000000000E-01     -1.732344000000000E+02      6.480103000000000E-01     -9.111719000000000E+01
4817000000.000000      3.413696000000000E-01     -1.305391000000000E+02      3.591461000000000E-01     -6.330078000000000E+01      3.474121000000000E-01     -1.733594000000000E+02      6.471252000000000E-01     -9.123047000000000E+01
4818000000.000000      3.429718000000000E-01     -1.317188000000000E+02      3.626862000000000E-01     -6.352734000000000E+01      3.513031000000000E-01     -1.732422000000000E+02      6.483459000000000E-01     -9.123827000000000E+01
4819000000.000000      3.458405000000000E-01     -1.327891000000000E+02      3.662262000000000E-01     -6.384570000000000E+01      3.547363000000000E-01     -1.732812000000000E+02      6.494446000000000E-01     -9.132421000000000E+01
4820000000.000000      3.471222000000000E-01     -1.337734000000000E+02      3.711548000000000E-01     -6.386132000000000E+01      3.595123000000000E-01     -1.731719000000000E+02      6.497803000000000E-01     -9.154688000000000E+01
4821000000.000000      3.510742000000000E-01     -1.348750000000000E+02      3.750000000000000E-01     -6.417969000000000E+01      3.627777000000000E-01     -1.733438000000000E+02      6.496582000000000E-01     -9.162889000000000E+01
4822000000.000000      3.548889000000000E-01     -1.359688000000000E+02      3.784180000000000E-01     -6.441015000000000E+01      3.663483000000000E-01     -1.732031000000000E+02      6.511841000000000E-01     -9.158594000000000E+01
4823000000.000000      3.573456000000000E-01     -1.369766000000000E+02      3.817444000000000E-01     -6.465234000000000E+01      3.710175000000000E-01     -1.730625000000000E+02      6.520386000000000E-01     -9.165625000000000E+01
4824000000.000000      3.617096000000000E-01     -1.381250000000000E+02      3.860016000000000E-01     -6.512500000000000E+01      3.762665000000000E-01     -1.732031000000000E+02      6.539001000000000E-01     -9.185547000000000E+01
4825000000.000000      3.644714000000000E-01     -1.390156000000000E+02      3.891907000000000E-01     -6.517187000000000E+01      3.800964000000000E-01     -1.731797000000000E+02      6.542969000000000E-01     -9.175390000000000E+01
4826000000.000000      3.693848000000000E-01     -1.400547000000000E+02      3.929443000000000E-01     -6.565234000000000E+01      3.823700000000000E-01     -1.732265000000000E+02      6.543579000000000E-01     -9.200781000000000E+01
4827000000.000000      3.728485000000000E-01     -1.408984000000000E+02      3.973694000000000E-01     -6.573047000000000E+01      3.872986000000000E-01     -1.731094000000000E+02      6.566162000000000E-01     -9.193359000000000E+01
4828000000.000000      3.775635000000000E-01     -1.419141000000000E+02      4.016266000000000E-01     -6.611328000000000E+01      3.911285000000000E-01     -1.731406000000000E+02      6.589050000000000E-01     -9.197266000000000E+01
4829000000.000000      3.801270000000000E-01     -1.428750000000000E+02      4.030304000000000E-01     -6.632030000000000E+01      3.962250000000000E-01     -1.731719000000000E+02      6.600952000000000E-01     -9.203516000000000E+01
4830000000.000000      3.856201000000000E-01     -1.437734000000000E+02      4.077759000000000E-01     -6.677734000000000E+01      3.992615000000000E-01     -1.731250000000000E+02      6.613464000000000E-01     -9.210546000000000E+01
4831000000.000000      3.892822000000000E-01     -1.447031000000000E+02      4.100647000000000E-01     -6.704296000000000E+01      4.036865000000000E-01     -1.731328000000000E+02      6.631165000000000E-01     -9.213671000000000E+01
4832000000.000000      3.953857000000000E-01     -1.455781000000000E+02      4.145203000000000E-01     -6.723827000000000E+01      4.077759000000000E-01     -1.731875000000000E+02      6.644897000000000E-01     -9.228907000000000E+01
4833000000.000000      3.996735000000000E-01     -1.465625000000000E+02      4.179535000000000E-01     -6.748437000000000E+01      4.114990000000000E-01     -1.732656000000000E+02      6.658936000000000E-01     -9.230860000000000E+01
4834000000.000000      4.043427000000000E-01     -1.474219000000000E+02      4.208069000000000E-01     -6.782031000000000E+01      4.161530000000000E-01     -1.732578000000000E+02      6.667480000000000E-01     -9.239843000000000E+01
4835000000.000000      4.091644000000000E-01     -1.482500000000000E+02      4.253845000000000E-01     -6.801562000000000E+01      4.204712000000000E-01     -1.733438000000000E+02      6.701355000000000E-01     -9.253515000000000E+01
4836000000.000000      4.148560000000000E-01     -1.489766000000000E+02      4.281311000000000E-01     -6.842578000000000E+01      4.236450000000000E-01     -1.732500000000000E+02      6.709900000000000E-01     -9.250000000000000E+01
4837000000.000000      4.198608000000000E-01     -1.497656000000000E+02      4.301758000000000E-01     -6.901953000000000E+01      4.276733000000000E-01     -1.735078000000000E+02      6.724548000000000E-01     -9.257030000000000E+01
4838000000.000000      4.248199000000000E-01     -1.506719000000000E+02      4.355316000000000E-01     -6.892968000000000E+01      4.320221000000000E-01     -1.734531000000000E+02      6.766968000000000E-01     -9.252733000000000E+01
4839000000.000000      4.303436000000000E-01     -1.513594000000000E+02      4.370422000000000E-01     -6.933203000000000E+01      4.366608000000000E-01     -1.733672000000000E+02      6.781921000000000E-01     -9.252733000000000E+01
4840000000.000000      4.346619000000000E-01     -1.521875000000000E+02      4.406281000000000E-01     -6.954296000000000E+01      4.408875000000000E-01     -1.736250000000000E+02      6.795959000000000E-01     -9.274218000000000E+01
4841000000.000000      4.404449000000000E-01     -1.530000000000000E+02      4.436340000000000E-01     -7.020702000000000E+01      4.450989000000000E-01     -1.736953000000000E+02      6.825562000000000E-01     -9.278515000000000E+01
4842000000.000000      4.455566000000000E-01     -1.536797000000000E+02      4.468994000000000E-01     -7.030859000000000E+01      4.477844000000000E-01     -1.737500000000000E+02      6.848145000000000E-01     -9.275391000000000E+01
4843000000.000000      4.502563000000000E-01     -1.545078000000000E+02      4.492950000000000E-01     -7.070703000000000E+01      4.529266000000000E-01     -1.738672000000000E+02      6.866150000000000E-01     -9.280077000000000E+01
4844000000.000000      4.558563000000000E-01     -1.551172000000000E+02      4.515839000000000E-01     -7.092187000000000E+01      4.561920000000000E-01     -1.738594000000000E+02      6.895752000000000E-01     -9.284765000000000E+01
4845000000.000000      4.605408000000000E-01     -1.558047000000000E+02      4.544525000000000E-01     -7.124609000000000E+01      4.609528000000000E-01     -1.739531000000000E+02      6.920166000000000E-01     -9.291407000000000E+01
4846000000.000000      4.662628000000000E-01     -1.563516000000000E+02      4.576721000000000E-01     -7.159765000000000E+01      4.652252000000000E-01     -1.741094000000000E+02      6.953735000000000E-01     -9.303514000000000E+01
4847000000.000000      4.714050000000000E-01     -1.571016000000000E+02      4.589844000000000E-01     -7.185937000000000E+01      4.699554000000000E-01     -1.742734000000000E+02      6.987610000000000E-01     -9.307421000000000E+01
4848000000.000000      4.768219000000000E-01     -1.576641000000000E+02      4.614563000000000E-01     -7.200390000000000E+01      4.734039000000000E-01     -1.743281000000000E+02      6.991272000000000E-01     -9.307812000000000E+01
4849000000.000000      4.815521000000000E-01     -1.585859000000000E+02      4.659424000000000E-01     -7.274609000000000E+01      4.777069000000000E-01     -1.744688000000000E+02      7.023621000000000E-01     -9.301952000000000E+01
4850000000.000000      4.864502000000000E-01     -1.589766000000000E+02      4.680481000000000E-01     -7.286327000000000E+01      4.812775000000000E-01     -1.745391000000000E+02      7.038269000000000E-01     -9.298828000000000E+01
4851000000.000000      4.911041000000000E-01     -1.595391000000000E+02      4.705811000000000E-01     -7.328125000000000E+01      4.852600000000000E-01     -1.746875000000000E+02      7.081604000000000E-01     -9.311718000000000E+01
4852000000.000000      4.960022000000000E-01     -1.601719000000000E+02      4.732513000000000E-01     -7.351171000000000E+01      4.898071000000000E-01     -1.747656000000000E+02      7.107239000000000E-01     -9.314453000000000E+01
4853000000.000000      5.006104000000000E-01     -1.607656000000000E+02      4.732208000000000E-01     -7.383984000000000E+01      4.935760000000000E-01     -1.750313000000000E+02      7.147827000000000E-01     -9.341015000000000E+01
4854000000.000000      5.048828000000000E-01     -1.612656000000000E+02      4.778442000000000E-01     -7.431250000000000E+01      4.968872000000000E-01     -1.751641000000000E+02      7.168274000000000E-01     -9.332031000000000E+01
4855000000.000000      5.083923000000000E-01     -1.618750000000000E+02      4.779663000000000E-01     -7.444921000000000E+01      5.007019000000000E-01     -1.752734000000000E+02      7.192688000000000E-01     -9.332811000000000E+01
4856000000.000000      5.137634000000000E-01     -1.623359000000000E+02      4.806519000000000E-01     -7.473046000000000E+01      5.033569000000000E-01     -1.753359000000000E+02      7.238464000000000E-01     -9.341015000000000E+01
4857000000.000000      5.178528000000000E-01     -1.628594000000000E+02      4.833527000000000E-01     -7.518359000000000E+01      5.083923000000000E-01     -1.754531000000000E+02      7.258911000000000E-01     -9.336718000000000E+01
4858000000.000000      5.199585000000000E-01     -1.634063000000000E+02      4.849396000000000E-01     -7.540234000000000E+01      5.130920000000000E-01     -1.756172000000000E+02      7.285461000000000E-01     -9.354687000000000E+01
4859000000.000000      5.250549000000000E-01     -1.639844000000000E+02      4.867859000000000E-01     -7.578906000000000E+01      5.151367000000000E-01     -1.759687000000000E+02      7.322998000000000E-01     -9.362890000000000E+01
4860000000.000000      5.292969000000000E-01     -1.644297000000000E+02      4.891510000000000E-01     -7.598046000000000E+01      5.189819000000000E-01     -1.760859000000000E+02      7.343750000000000E-01     -9.343750000000000E+01
4861000000.000000      5.325928000000000E-01     -1.647187000000000E+02      4.902344000000000E-01     -7.631640000000000E+01      5.237427000000000E-01     -1.761484000000000E+02      7.372437000000000E-01     -9.360546000000000E+01
4862000000.000000      5.350037000000000E-01     -1.652266000000000E+02      4.920807000000000E-01     -7.666797000000000E+01      5.262756000000000E-01     -1.763984000000000E+02      7.409363000000000E-01     -9.367579000000000E+01
4863000000.000000      5.375671000000000E-01     -1.656250000000000E+02      4.927673000000000E-01     -7.712891000000000E+01      5.303650000000000E-01     -1.766406000000000E+02      7.430420000000000E-01     -9.364061000000000E+01
4864000000.000000      5.414429000000000E-01     -1.660469000000000E+02      4.942169000000000E-01     -7.739062000000000E+01      5.322571000000000E-01     -1.768281000000000E+02      7.462158000000000E-01     -9.373827000000000E+01
4865000000.000000      5.434570000000000E-01     -1.665625000000000E+02      4.964142000000000E-01     -7.755077000000000E+01      5.352783000000000E-01     -1.770547000000000E+02      7.496643000000000E-01     -9.370312000000000E+01
4866000000.000000      5.455627000000000E-01     -1.668281000000000E+02      4.969940000000000E-01     -7.793359000000000E+01      5.399170000000000E-01     -1.772969000000000E+02      7.523193000000000E-01     -9.369141000000000E+01
4867000000.000000      5.476685000000000E-01     -1.671094000000000E+02      5.009766000000000E-01     -7.829687000000000E+01      5.421143000000000E-01     -1.774141000000000E+02      7.555847000000000E-01     -9.385546000000000E+01
4868000000.000000      5.502930000000000E-01     -1.676797000000000E+02      5.007324000000000E-01     -7.844921000000000E+01      5.462036000000000E-01     -1.775703000000000E+02      7.568054000000000E-01     -9.386719000000000E+01
4869000000.000000      5.520325000000000E-01     -1.678828000000000E+02      5.010681000000000E-01     -7.864452000000000E+01      5.480347000000000E-01     -1.778437000000000E+02      7.591248000000000E-01     -9.393749000000000E+01
4870000000.000000      5.541992000000000E-01     -1.682578000000000E+02      5.032349000000000E-01     -7.894140000000000E+01      5.516357000000000E-01     -1.781563000000000E+02      7.636108000000000E-01     -9.382030000000000E+01
4871000000.000000      5.564880000000000E-01     -1.685937000000000E+02      5.048828000000000E-01     -7.916016000000000E+01      5.527039000000000E-01     -1.781094000000000E+02      7.654419000000000E-01     -9.406641000000000E+01
4872000000.000000      5.581360000000000E-01     -1.688672000000000E+02      5.041199000000000E-01     -7.944140000000000E+01      5.567627000000000E-01     -1.785781000000000E+02      7.681885000000000E-01     -9.402344000000000E+01
4873000000.000000      5.586548000000000E-01     -1.690312000000000E+02      5.057373000000000E-01     -7.964062000000000E+01      5.599976000000000E-01     -1.785781000000000E+02      7.701111000000000E-01     -9.416016000000000E+01
4874000000.000000      5.601196000000000E-01     -1.693750000000000E+02      5.075378000000000E-01     -8.003124000000000E+01      5.631104000000000E-01     -1.788984000000000E+02      7.730103000000000E-01     -9.392578000000000E+01
4875000000.000000      5.617065000000000E-01     -1.696172000000000E+02      5.079346000000000E-01     -8.021875000000000E+01      5.646973000000000E-01     -1.791641000000000E+02      7.756042000000000E-01     -9.416796000000000E+01
4876000000.000000      5.612183000000000E-01     -1.698750000000000E+02      5.094910000000000E-01     -8.039454000000000E+01      5.656433000000000E-01     -1.793359000000000E+02      7.785645000000000E-01     -9.419922000000000E+01
4877000000.000000      5.617371000000000E-01     -1.699922000000000E+02      5.103149000000000E-01     -8.069139000000000E+01      5.693970000000000E-01     -1.795078000000000E+02      7.806091000000000E-01     -9.423046000000000E+01
4878000000.000000      5.632935000000000E-01     -1.702031000000000E+02      5.115662000000000E-01     -8.082031000000000E+01      5.708313000000000E-01     -1.796484000000000E+02      7.830811000000000E-01     -9.434765000000000E+01
4879000000.000000      5.636902000000000E-01     -1.704922000000000E+02      5.120239000000000E-01     -8.104687000000000E+01      5.730896000000000E-01     -1.799844000000000E+02      7.829895000000000E-01     -9.420313000000000E+01
4880000000.000000      5.635986000000000E-01     -1.705391000000000E+02      5.148010000000000E-01     -8.140234000000000E+01      5.756226000000000E-01      1.798984000000000E+02      7.867737000000000E-01     -9.428514000000000E+01
4881000000.000000      5.639954000000000E-01     -1.707031000000000E+02      5.166626000000000E-01     -8.140625000000000E+01      5.790710000000000E-01      1.795859000000000E+02      7.888184000000000E-01     -9.431641000000000E+01
4882000000.000000      5.628967000000000E-01     -1.708516000000000E+02      5.158081000000000E-01     -8.166407000000000E+01      5.807800000000000E-01      1.795000000000000E+02      7.903442000000000E-01     -9.440624000000000E+01
