! Network Analyzer HP8722D
! Hewlett-Packard
! Data name: Linha & Wilkinson
! Saver's name: Rodrigo Anjos
! Comments: Teste da utilização de aquisição
continua pelo VNA HP8722D
! Time and date: 17/4/2025 15:34
!              Frequency                     S11                                                   S21                                                   S12                                                   S22
# HZ  S  MA R 50
4800000000.000000      3.334045000000000E-01     -1.135664000000000E+02      2.906799000000000E-01     -6.077734000000000E+01      2.840424000000000E-01     -1.749609000000000E+02      6.560669000000000E-01     -9.006639000000000E+01
4801000000.000000      3.323975000000000E-01     -1.144453000000000E+02      2.943268000000000E-01     -6.097461000000000E+01      2.875061000000000E-01     -1.749844000000000E+02      6.548767000000000E-01     -9.001562000000000E+01
4802000000.000000      3.318634000000000E-01     -1.154180000000000E+02      2.983856000000000E-01     -6.078125000000000E+01      2.922821000000000E-01     -1.747109000000000E+02      6.535645000000000E-01     -9.015625000000000E+01
4803000000.000000      3.308411000000000E-01     -1.164805000000000E+02      3.045044000000000E-01     -6.109179000000000E+01      2.956543000000000E-01     -1.746797000000000E+02      6.522217000000000E-01     -9.028515000000000E+01
4804000000.000000      3.304901000000000E-01     -1.175039000000000E+02      3.083038000000000E-01     -6.121484000000000E+01      3.001556000000000E-01     -1.746250000000000E+02      6.521912000000000E-01     -9.028124000000000E+01
4805000000.000000      3.309021000000000E-01     -1.184453000000000E+02      3.125610000000000E-01     -6.140820000000000E+01      3.049164000000000E-01     -1.744453000000000E+02      6.523132000000000E-01     -9.047266000000000E+01
4806000000.000000      3.296814000000000E-01     -1.193984000000000E+02      3.168945000000000E-01     -6.138476000000000E+01      3.072815000000000E-01     -1.741719000000000E+02      6.502991000000000E-01     -9.065233000000000E+01
4807000000.000000      3.301392000000000E-01     -1.204531000000000E+02      3.212280000000000E-01     -6.163476000000000E+01      3.120270000000000E-01     -1.744531000000000E+02      6.494751000000000E-01     -9.069921000000000E+01
4808000000.000000      3.302155000000000E-01     -1.214414000000000E+02      3.267517000000000E-01     -6.170507000000000E+01      3.155823000000000E-01     -1.742734000000000E+02      6.487427000000000E-01     -9.062500000000000E+01
4809000000.000000      3.313446000000000E-01     -1.226523000000000E+02      3.301849000000000E-01     -6.203125000000000E+01      3.206787000000000E-01     -1.742812000000000E+02      6.496582000000000E-01     -9.085938000000000E+01
4810000000.000000      3.319092000000000E-01     -1.237344000000000E+02      3.352661000000000E-01     -6.202538000000000E+01      3.242340000000000E-01     -1.741016000000000E+02      6.491089000000000E-01     -9.094921000000000E+01
4811000000.000000      3.328400000000000E-01     -1.248164000000000E+02      3.390198000000000E-01     -6.251953000000000E+01      3.296814000000000E-01     -1.741172000000000E+02      6.482544000000000E-01     -9.099609000000000E+01
4812000000.000000      3.337097000000000E-01     -1.258047000000000E+02      3.431549000000000E-01     -6.263866000000000E+01      3.322449000000000E-01     -1.739063000000000E+02      6.486816000000000E-01     -9.110937000000000E+01
4813000000.000000      3.354340000000000E-01     -1.269687000000000E+02      3.479614000000000E-01     -6.279491000000000E+01      3.360291000000000E-01     -1.737813000000000E+02      6.485901000000000E-01     -9.110155000000000E+01
4814000000.000000      3.361816000000000E-01     -1.280937000000000E+02      3.510284000000000E-01     -6.292969000000000E+01      3.402405000000000E-01     -1.738750000000000E+02      6.481628000000000E-01     -9.126953000000000E+01
4815000000.000000      3.377533000000000E-01     -1.291172000000000E+02      3.551636000000000E-01     -6.323828000000000E+01      3.441010000000000E-01     -1.737578000000000E+02      6.477661000000000E-01     -9.120312000000000E+01
4816000000.000000      3.398895000000000E-01     -1.302187000000000E+02      3.598480000000000E-01     -6.327734000000000E+01      3.489532000000000E-01     -1.737422000000000E+02      6.490173000000000E-01     -9.129297000000000E+01
4817000000.000000      3.425598000000000E-01     -1.312500000000000E+02      3.639221000000000E-01     -6.364062000000000E+01      3.525085000000000E-01     -1.737813000000000E+02      6.485596000000000E-01     -9.150391000000000E+01
4818000000.000000      3.445740000000000E-01     -1.324766000000000E+02      3.674164000000000E-01     -6.386913000000000E+01      3.566895000000000E-01     -1.736641000000000E+02      6.500549000000000E-01     -9.158203000000000E+01
4819000000.000000      3.470001000000000E-01     -1.335000000000000E+02      3.713531000000000E-01     -6.412890000000000E+01      3.601227000000000E-01     -1.737187000000000E+02      6.505432000000000E-01     -9.161718000000000E+01
4820000000.000000      3.489838000000000E-01     -1.344687000000000E+02      3.754272000000000E-01     -6.432422000000000E+01      3.640747000000000E-01     -1.736406000000000E+02      6.508789000000000E-01     -9.173046000000000E+01
4821000000.000000      3.522949000000000E-01     -1.355234000000000E+02      3.796539000000000E-01     -6.461328000000000E+01      3.679199000000000E-01     -1.736719000000000E+02      6.504822000000000E-01     -9.186327000000000E+01
4822000000.000000      3.565674000000000E-01     -1.366875000000000E+02      3.827057000000000E-01     -6.484765000000000E+01      3.712463000000000E-01     -1.736719000000000E+02      6.526489000000000E-01     -9.185547000000000E+01
4823000000.000000      3.589478000000000E-01     -1.376953000000000E+02      3.868866000000000E-01     -6.506640000000000E+01      3.754578000000000E-01     -1.734688000000000E+02      6.533508000000000E-01     -9.189453000000000E+01
4824000000.000000      3.633270000000000E-01     -1.387734000000000E+02      3.900452000000000E-01     -6.550781000000000E+01      3.803864000000000E-01     -1.736797000000000E+02      6.541138000000000E-01     -9.203905000000000E+01
4825000000.000000      3.665161000000000E-01     -1.396484000000000E+02      3.933258000000000E-01     -6.565234000000000E+01      3.847961000000000E-01     -1.736016000000000E+02      6.549377000000000E-01     -9.206640000000000E+01
4826000000.000000      3.706055000000000E-01     -1.407656000000000E+02      3.982391000000000E-01     -6.600390000000000E+01      3.871460000000000E-01     -1.737109000000000E+02      6.565857000000000E-01     -9.211329000000000E+01
4827000000.000000      3.742828000000000E-01     -1.416406000000000E+02      4.016724000000000E-01     -6.609765000000000E+01      3.915710000000000E-01     -1.735312000000000E+02      6.570740000000000E-01     -9.209764000000000E+01
4828000000.000000      3.795624000000000E-01     -1.426719000000000E+02      4.054108000000000E-01     -6.660546000000000E+01      3.955383000000000E-01     -1.735781000000000E+02      6.596069000000000E-01     -9.228125000000000E+01
4829000000.000000      3.818665000000000E-01     -1.435781000000000E+02      4.092865000000000E-01     -6.682812000000000E+01      3.999329000000000E-01     -1.736328000000000E+02      6.602173000000000E-01     -9.226171000000000E+01
4830000000.000000      3.877106000000000E-01     -1.444609000000000E+02      4.119568000000000E-01     -6.712109000000000E+01      4.042206000000000E-01     -1.736562000000000E+02      6.611633000000000E-01     -9.241014000000000E+01
4831000000.000000      3.911591000000000E-01     -1.453594000000000E+02      4.156647000000000E-01     -6.754687000000000E+01      4.083252000000000E-01     -1.736016000000000E+02      6.638184000000000E-01     -9.249609000000000E+01
4832000000.000000      3.967896000000000E-01     -1.462500000000000E+02      4.187317000000000E-01     -6.766015000000000E+01      4.122009000000000E-01     -1.737109000000000E+02      6.653137000000000E-01     -9.245703000000000E+01
4833000000.000000      4.019470000000000E-01     -1.472500000000000E+02      4.223175000000000E-01     -6.800390000000000E+01      4.162598000000000E-01     -1.737734000000000E+02      6.672363000000000E-01     -9.256639000000000E+01
4834000000.000000      4.063110000000000E-01     -1.481094000000000E+02      4.250183000000000E-01     -6.824219000000000E+01      4.199677000000000E-01     -1.737109000000000E+02      6.678162000000000E-01     -9.269922000000000E+01
4835000000.000000      4.110413000000000E-01     -1.489609000000000E+02      4.290161000000000E-01     -6.864452000000000E+01      4.245911000000000E-01     -1.738203000000000E+02      6.701660000000000E-01     -9.280468000000000E+01
4836000000.000000      4.170837000000000E-01     -1.497500000000000E+02      4.320526000000000E-01     -6.896093000000000E+01      4.277191000000000E-01     -1.738047000000000E+02      6.714478000000000E-01     -9.268749000000000E+01
4837000000.000000      4.219971000000000E-01     -1.505312000000000E+02      4.352570000000000E-01     -6.942187000000000E+01      4.319763000000000E-01     -1.739766000000000E+02      6.742554000000000E-01     -9.280077000000000E+01
4838000000.000000      4.272308000000000E-01     -1.514219000000000E+02      4.391174000000000E-01     -6.950390000000000E+01      4.368591000000000E-01     -1.739609000000000E+02      6.756592000000000E-01     -9.292187000000000E+01
4839000000.000000      4.320831000000000E-01     -1.520156000000000E+02      4.412994000000000E-01     -6.983593000000000E+01      4.403992000000000E-01     -1.739609000000000E+02      6.788025000000000E-01     -9.275391000000000E+01
4840000000.000000      4.363403000000000E-01     -1.528906000000000E+02      4.438934000000000E-01     -7.010937000000000E+01      4.448853000000000E-01     -1.741719000000000E+02      6.806335000000000E-01     -9.289063000000000E+01
4841000000.000000      4.422913000000000E-01     -1.537656000000000E+02      4.470520000000000E-01     -7.057812000000000E+01      4.487762000000000E-01     -1.742578000000000E+02      6.832275000000000E-01     -9.296875000000000E+01
4842000000.000000      4.477081000000000E-01     -1.543359000000000E+02      4.496155000000000E-01     -7.087891000000000E+01      4.515076000000000E-01     -1.743125000000000E+02      6.855164000000000E-01     -9.297655000000000E+01
4843000000.000000      4.524841000000000E-01     -1.551875000000000E+02      4.528656000000000E-01     -7.125000000000000E+01      4.560242000000000E-01     -1.743281000000000E+02      6.879578000000000E-01     -9.305079000000000E+01
4844000000.000000      4.570465000000000E-01     -1.558359000000000E+02      4.549561000000000E-01     -7.152734000000000E+01      4.598541000000000E-01     -1.744453000000000E+02      6.909485000000000E-01     -9.317186000000000E+01
4845000000.000000      4.623108000000000E-01     -1.564922000000000E+02      4.572754000000000E-01     -7.177343000000000E+01      4.643555000000000E-01     -1.745859000000000E+02      6.926880000000000E-01     -9.312109000000000E+01
4846000000.000000      4.675140000000000E-01     -1.571484000000000E+02      4.613495000000000E-01     -7.203906000000000E+01      4.692383000000000E-01     -1.746875000000000E+02      6.947937000000000E-01     -9.319139000000000E+01
4847000000.000000      4.734344000000000E-01     -1.578203000000000E+02      4.637451000000000E-01     -7.239062000000000E+01      4.728394000000000E-01     -1.748125000000000E+02      6.988525000000000E-01     -9.330858000000000E+01
4848000000.000000      4.783325000000000E-01     -1.583750000000000E+02      4.654999000000000E-01     -7.266015000000000E+01      4.772034000000000E-01     -1.748828000000000E+02      6.999512000000000E-01     -9.329687000000000E+01
4849000000.000000      4.830170000000000E-01     -1.593125000000000E+02      4.684601000000000E-01     -7.322266000000000E+01      4.811554000000000E-01     -1.750547000000000E+02      7.031860000000000E-01     -9.335546000000000E+01
4850000000.000000      4.882202000000000E-01     -1.595937000000000E+02      4.704895000000000E-01     -7.331640000000000E+01      4.846191000000000E-01     -1.750391000000000E+02      7.074890000000000E-01     -9.328125000000000E+01
4851000000.000000      4.929962000000000E-01     -1.602734000000000E+02      4.735870000000000E-01     -7.376171000000000E+01      4.880219000000000E-01     -1.752578000000000E+02      7.108459000000000E-01     -9.337109000000000E+01
4852000000.000000      4.981079000000000E-01     -1.608125000000000E+02      4.757233000000000E-01     -7.417578000000000E+01      4.928589000000000E-01     -1.753594000000000E+02      7.115784000000000E-01     -9.348436000000000E+01
4853000000.000000      5.027161000000000E-01     -1.614687000000000E+02      4.754791000000000E-01     -7.426952000000000E+01      4.967194000000000E-01     -1.755312000000000E+02      7.149658000000000E-01     -9.365625000000000E+01
4854000000.000000      5.068359000000000E-01     -1.619531000000000E+02      4.798889000000000E-01     -7.478125000000000E+01      4.992065000000000E-01     -1.754688000000000E+02      7.185059000000000E-01     -9.363672000000000E+01
4855000000.000000      5.096741000000000E-01     -1.625625000000000E+02      4.799500000000000E-01     -7.509766000000000E+01      5.045471000000000E-01     -1.757266000000000E+02      7.200317000000000E-01     -9.363281000000000E+01
4856000000.000000      5.148010000000000E-01     -1.630234000000000E+02      4.835815000000000E-01     -7.526172000000000E+01      5.073547000000000E-01     -1.758984000000000E+02      7.235107000000000E-01     -9.362499000000000E+01
4857000000.000000      5.192261000000000E-01     -1.636172000000000E+02      4.850922000000000E-01     -7.570703000000000E+01      5.112915000000000E-01     -1.760625000000000E+02      7.265930000000000E-01     -9.369141000000000E+01
4858000000.000000      5.215454000000000E-01     -1.641016000000000E+02      4.874268000000000E-01     -7.604687000000000E+01      5.154114000000000E-01     -1.761406000000000E+02      7.288818000000000E-01     -9.373827000000000E+01
4859000000.000000      5.257874000000000E-01     -1.646172000000000E+02      4.886627000000000E-01     -7.627343000000000E+01      5.182495000000000E-01     -1.765781000000000E+02      7.326660000000000E-01     -9.392969000000000E+01
4860000000.000000      5.294189000000000E-01     -1.651094000000000E+02      4.903870000000000E-01     -7.674999000000000E+01      5.211487000000000E-01     -1.766562000000000E+02      7.337341000000000E-01     -9.382421000000000E+01
4861000000.000000      5.330200000000000E-01     -1.654297000000000E+02      4.930878000000000E-01     -7.698047000000000E+01      5.252991000000000E-01     -1.768437000000000E+02      7.368774000000000E-01     -9.391405000000000E+01
4862000000.000000      5.353088000000000E-01     -1.658984000000000E+02      4.942017000000000E-01     -7.711328000000000E+01      5.292969000000000E-01     -1.769375000000000E+02      7.414856000000000E-01     -9.389452000000000E+01
4863000000.000000      5.381470000000000E-01     -1.662656000000000E+02      4.948273000000000E-01     -7.754687000000000E+01      5.331421000000000E-01     -1.770625000000000E+02      7.447815000000000E-01     -9.396484000000000E+01
4864000000.000000      5.417175000000000E-01     -1.667656000000000E+02      4.985199000000000E-01     -7.778906000000000E+01      5.344238000000000E-01     -1.773594000000000E+02      7.460022000000000E-01     -9.399218000000000E+01
4865000000.000000      5.433044000000000E-01     -1.672656000000000E+02      4.979553000000000E-01     -7.806250000000000E+01      5.384521000000000E-01     -1.776562000000000E+02      7.497559000000000E-01     -9.397264000000000E+01
4866000000.000000      5.463257000000000E-01     -1.675078000000000E+02      4.982758000000000E-01     -7.819530000000000E+01      5.412903000000000E-01     -1.778516000000000E+02      7.531433000000000E-01     -9.398046000000000E+01
4867000000.000000      5.484009000000000E-01     -1.678203000000000E+02      5.006104000000000E-01     -7.873047000000000E+01      5.442505000000000E-01     -1.778359000000000E+02      7.558594000000000E-01     -9.408594000000000E+01
4868000000.000000      5.515442000000000E-01     -1.682891000000000E+02      5.037231000000000E-01     -7.900391000000000E+01      5.485229000000000E-01     -1.780937000000000E+02      7.588806000000000E-01     -9.405077000000000E+01
4869000000.000000      5.522156000000000E-01     -1.685547000000000E+02      5.022583000000000E-01     -7.929688000000000E+01      5.502014000000000E-01     -1.783672000000000E+02      7.610779000000000E-01     -9.431250000000000E+01
4870000000.000000      5.537109000000000E-01     -1.689453000000000E+02      5.065918000000000E-01     -7.941796000000000E+01      5.535583000000000E-01     -1.785781000000000E+02      7.646484000000000E-01     -9.420313000000000E+01
4871000000.000000      5.556946000000000E-01     -1.691562000000000E+02      5.062561000000000E-01     -7.979297000000000E+01      5.552368000000000E-01     -1.787891000000000E+02      7.654114000000000E-01     -9.426952000000000E+01
4872000000.000000      5.581360000000000E-01     -1.695234000000000E+02      5.058289000000000E-01     -7.982031000000000E+01      5.578308000000000E-01     -1.791172000000000E+02      7.694092000000000E-01     -9.433594000000000E+01
4873000000.000000      5.580139000000000E-01     -1.697109000000000E+02      5.089417000000000E-01     -8.019922000000000E+01      5.606384000000000E-01     -1.792031000000000E+02      7.716675000000000E-01     -9.435547000000000E+01
4874000000.000000      5.592651000000000E-01     -1.699375000000000E+02      5.086060000000000E-01     -8.054296000000000E+01      5.650330000000000E-01     -1.793828000000000E+02      7.736511000000000E-01     -9.429296000000000E+01
4875000000.000000      5.621033000000000E-01     -1.702500000000000E+02      5.098267000000000E-01     -8.063671000000000E+01      5.660400000000000E-01     -1.797109000000000E+02      7.755432000000000E-01     -9.441406000000000E+01
4876000000.000000      5.603943000000000E-01     -1.705469000000000E+02      5.108948000000000E-01     -8.083984000000000E+01      5.677490000000000E-01     -1.797188000000000E+02      7.783813000000000E-01     -9.442968000000000E+01
4877000000.000000      5.610657000000000E-01     -1.706797000000000E+02      5.131836000000000E-01     -8.119141000000000E+01      5.702209000000000E-01      1.798906000000000E+02      7.807617000000000E-01     -9.464453000000000E+01
4878000000.000000      5.623779000000000E-01     -1.709063000000000E+02      5.139465000000000E-01     -8.126953000000000E+01      5.732422000000000E-01      1.797344000000000E+02      7.843933000000000E-01     -9.466015000000000E+01
4879000000.000000      5.626831000000000E-01     -1.711484000000000E+02      5.139771000000000E-01     -8.155468000000000E+01      5.726318000000000E-01      1.795391000000000E+02      7.836914000000000E-01     -9.464453000000000E+01
4880000000.000000      5.624695000000000E-01     -1.712344000000000E+02      5.156250000000000E-01     -8.151953000000000E+01      5.777283000000000E-01      1.792578000000000E+02      7.863464000000000E-01     -9.461329000000000E+01
4881000000.000000      5.631104000000000E-01     -1.713203000000000E+02      5.157776000000000E-01     -8.192968000000000E+01      5.792847000000000E-01      1.789063000000000E+02      7.893066000000000E-01     -9.474609000000000E+01
4882000000.000000      5.621643000000000E-01     -1.714531000000000E+02      5.169983000000000E-01     -8.226563000000000E+01      5.810852000000000E-01      1.788516000000000E+02      7.899780000000000E-01     -9.468750000000000E+01
