! Network Analyzer HP8722D
! Hewlett-Packard
! Data name: Linha & Wilkinson
! Saver's name: Rodrigo Anjos
! Comments: Teste da utilização de aquisição
continua pelo VNA HP8722D
! Time and date: 17/4/2025 16:36
!              Frequency                     S11                                                   S21                                                   S12                                                   S22
# HZ  S  MA R 50
4800000000.000000      3.341675000000000E-01     -1.139531000000000E+02      2.941895000000000E-01     -6.093945000000000E+01      2.881622000000000E-01     -1.752109000000000E+02      6.554565000000000E-01     -9.027735000000000E+01
4801000000.000000      3.331146000000000E-01     -1.149648000000000E+02      2.985535000000000E-01     -6.095117000000000E+01      2.916107000000000E-01     -1.751719000000000E+02      6.549988000000000E-01     -9.034765000000000E+01
4802000000.000000      3.321838000000000E-01     -1.158750000000000E+02      3.035431000000000E-01     -6.095117000000000E+01      2.954559000000000E-01     -1.749766000000000E+02      6.543274000000000E-01     -9.018358000000000E+01
4803000000.000000      3.316193000000000E-01     -1.170391000000000E+02      3.078308000000000E-01     -6.112109000000000E+01      2.992859000000000E-01     -1.748672000000000E+02      6.533203000000000E-01     -9.050781000000000E+01
4804000000.000000      3.313751000000000E-01     -1.178516000000000E+02      3.118286000000000E-01     -6.131836000000000E+01      3.045349000000000E-01     -1.748125000000000E+02      6.522522000000000E-01     -9.052343000000000E+01
4805000000.000000      3.314209000000000E-01     -1.189219000000000E+02      3.165283000000000E-01     -6.157617000000000E+01      3.087158000000000E-01     -1.745937000000000E+02      6.525574000000000E-01     -9.076172000000000E+01
4806000000.000000      3.305969000000000E-01     -1.199570000000000E+02      3.208008000000000E-01     -6.147851000000000E+01      3.112946000000000E-01     -1.745391000000000E+02      6.516724000000000E-01     -9.081249000000000E+01
4807000000.000000      3.305054000000000E-01     -1.210117000000000E+02      3.256073000000000E-01     -6.200195000000000E+01      3.162231000000000E-01     -1.746484000000000E+02      6.507874000000000E-01     -9.089062000000000E+01
4808000000.000000      3.312683000000000E-01     -1.220508000000000E+02      3.298035000000000E-01     -6.197851000000000E+01      3.194885000000000E-01     -1.744531000000000E+02      6.499023000000000E-01     -9.091015000000000E+01
4809000000.000000      3.308868000000000E-01     -1.231836000000000E+02      3.348541000000000E-01     -6.225195000000000E+01      3.243866000000000E-01     -1.744609000000000E+02      6.497192000000000E-01     -9.098436000000000E+01
4810000000.000000      3.321686000000000E-01     -1.242578000000000E+02      3.387604000000000E-01     -6.235937000000000E+01      3.283386000000000E-01     -1.743984000000000E+02      6.493835000000000E-01     -9.114452000000000E+01
4811000000.000000      3.334961000000000E-01     -1.254258000000000E+02      3.428345000000000E-01     -6.288867000000000E+01      3.332367000000000E-01     -1.742969000000000E+02      6.498413000000000E-01     -9.112499000000000E+01
4812000000.000000      3.347321000000000E-01     -1.263047000000000E+02      3.476715000000000E-01     -6.286718000000000E+01      3.366394000000000E-01     -1.742812000000000E+02      6.497498000000000E-01     -9.116796000000000E+01
4813000000.000000      3.355255000000000E-01     -1.274492000000000E+02      3.514709000000000E-01     -6.282812000000000E+01      3.394165000000000E-01     -1.741016000000000E+02      6.476440000000000E-01     -9.133984000000000E+01
4814000000.000000      3.365631000000000E-01     -1.287109000000000E+02      3.556213000000000E-01     -6.339453000000000E+01      3.446350000000000E-01     -1.742344000000000E+02      6.494751000000000E-01     -9.151171000000000E+01
4815000000.000000      3.382721000000000E-01     -1.297109000000000E+02      3.587036000000000E-01     -6.342187000000000E+01      3.478241000000000E-01     -1.739844000000000E+02      6.480408000000000E-01     -9.134766000000000E+01
4816000000.000000      3.411102000000000E-01     -1.307422000000000E+02      3.636017000000000E-01     -6.364062000000000E+01      3.522339000000000E-01     -1.739453000000000E+02      6.487732000000000E-01     -9.152344000000000E+01
4817000000.000000      3.434906000000000E-01     -1.318359000000000E+02      3.669434000000000E-01     -6.396484000000000E+01      3.555756000000000E-01     -1.740625000000000E+02      6.488953000000000E-01     -9.165625000000000E+01
4818000000.000000      3.457489000000000E-01     -1.329844000000000E+02      3.703766000000000E-01     -6.423828000000000E+01      3.601837000000000E-01     -1.740078000000000E+02      6.493225000000000E-01     -9.178514000000000E+01
4819000000.000000      3.486481000000000E-01     -1.340391000000000E+02      3.746490000000000E-01     -6.443749000000000E+01      3.633423000000000E-01     -1.739844000000000E+02      6.514893000000000E-01     -9.185156000000000E+01
4820000000.000000      3.501282000000000E-01     -1.349844000000000E+02      3.798523000000000E-01     -6.468359000000000E+01      3.680878000000000E-01     -1.740703000000000E+02      6.510925000000000E-01     -9.187500000000000E+01
4821000000.000000      3.537140000000000E-01     -1.360781000000000E+02      3.830109000000000E-01     -6.498437000000000E+01      3.716736000000000E-01     -1.740625000000000E+02      6.506958000000000E-01     -9.200390000000000E+01
4822000000.000000      3.580170000000000E-01     -1.372578000000000E+02      3.858795000000000E-01     -6.519531000000000E+01      3.752594000000000E-01     -1.740234000000000E+02      6.520081000000000E-01     -9.201952000000000E+01
4823000000.000000      3.603516000000000E-01     -1.382109000000000E+02      3.905945000000000E-01     -6.547656000000000E+01      3.792114000000000E-01     -1.739609000000000E+02      6.534424000000000E-01     -9.209764000000000E+01
4824000000.000000      3.644257000000000E-01     -1.393125000000000E+02      3.936768000000000E-01     -6.577734000000000E+01      3.840942000000000E-01     -1.740234000000000E+02      6.553650000000000E-01     -9.219141000000000E+01
4825000000.000000      3.673553000000000E-01     -1.402422000000000E+02      3.968506000000000E-01     -6.593750000000000E+01      3.883820000000000E-01     -1.739531000000000E+02      6.553345000000000E-01     -9.224218000000000E+01
4826000000.000000      3.720398000000000E-01     -1.413047000000000E+02      4.007416000000000E-01     -6.628124000000000E+01      3.913574000000000E-01     -1.741094000000000E+02      6.564941000000000E-01     -9.238672000000000E+01
4827000000.000000      3.760529000000000E-01     -1.421719000000000E+02      4.050293000000000E-01     -6.653125000000000E+01      3.951721000000000E-01     -1.740547000000000E+02      6.574097000000000E-01     -9.247656000000000E+01
4828000000.000000      3.814240000000000E-01     -1.431953000000000E+02      4.087982000000000E-01     -6.690234000000000E+01      3.989868000000000E-01     -1.739844000000000E+02      6.611328000000000E-01     -9.246874000000000E+01
4829000000.000000      3.837433000000000E-01     -1.440391000000000E+02      4.115295000000000E-01     -6.722265000000000E+01      4.027710000000000E-01     -1.740703000000000E+02      6.607971000000000E-01     -9.246094000000000E+01
4830000000.000000      3.888245000000000E-01     -1.451016000000000E+02      4.149475000000000E-01     -6.743750000000000E+01      4.071655000000000E-01     -1.740078000000000E+02      6.618347000000000E-01     -9.260937000000000E+01
4831000000.000000      3.929901000000000E-01     -1.459297000000000E+02      4.181976000000000E-01     -6.764843000000000E+01      4.116516000000000E-01     -1.739141000000000E+02      6.648254000000000E-01     -9.262110000000000E+01
4832000000.000000      3.985901000000000E-01     -1.468672000000000E+02      4.229584000000000E-01     -6.807031000000000E+01      4.145660000000000E-01     -1.740937000000000E+02      6.651306000000000E-01     -9.273046000000000E+01
4833000000.000000      4.035034000000000E-01     -1.478750000000000E+02      4.254761000000000E-01     -6.830468000000000E+01      4.188995000000000E-01     -1.742031000000000E+02      6.675110000000000E-01     -9.282812000000000E+01
4834000000.000000      4.077454000000000E-01     -1.486641000000000E+02      4.276123000000000E-01     -6.869141000000000E+01      4.232483000000000E-01     -1.742031000000000E+02      6.684570000000000E-01     -9.285156000000000E+01
4835000000.000000      4.122772000000000E-01     -1.494766000000000E+02      4.313660000000000E-01     -6.917187000000000E+01      4.275513000000000E-01     -1.741562000000000E+02      6.716919000000000E-01     -9.297266000000000E+01
4836000000.000000      4.182892000000000E-01     -1.502187000000000E+02      4.340668000000000E-01     -6.924218000000000E+01      4.308929000000000E-01     -1.742031000000000E+02      6.730957000000000E-01     -9.296093000000000E+01
4837000000.000000      4.229736000000000E-01     -1.510547000000000E+02      4.371796000000000E-01     -6.987109000000000E+01      4.342804000000000E-01     -1.744062000000000E+02      6.743469000000000E-01     -9.295313000000000E+01
4838000000.000000      4.284821000000000E-01     -1.519609000000000E+02      4.414368000000000E-01     -6.987890000000000E+01      4.387360000000000E-01     -1.743906000000000E+02      6.770630000000000E-01     -9.307421000000000E+01
4839000000.000000      4.334106000000000E-01     -1.525938000000000E+02      4.434814000000000E-01     -7.000000000000000E+01      4.431915000000000E-01     -1.743984000000000E+02      6.795654000000000E-01     -9.296093000000000E+01
4840000000.000000      4.380035000000000E-01     -1.535078000000000E+02      4.458618000000000E-01     -7.064843000000000E+01      4.474945000000000E-01     -1.745703000000000E+02      6.801453000000000E-01     -9.323437000000000E+01
4841000000.000000      4.434052000000000E-01     -1.543203000000000E+02      4.498444000000000E-01     -7.087500000000000E+01      4.510651000000000E-01     -1.746484000000000E+02      6.840515000000000E-01     -9.319921000000000E+01
4842000000.000000      4.495697000000000E-01     -1.548906000000000E+02      4.521027000000000E-01     -7.119531000000000E+01      4.548950000000000E-01     -1.746797000000000E+02      6.858215000000000E-01     -9.325390000000000E+01
4843000000.000000      4.535217000000000E-01     -1.556875000000000E+02      4.557343000000000E-01     -7.155078000000000E+01      4.589233000000000E-01     -1.747890000000000E+02      6.888428000000000E-01     -9.325781000000000E+01
4844000000.000000      4.589691000000000E-01     -1.564062000000000E+02      4.569855000000000E-01     -7.183203000000000E+01      4.626617000000000E-01     -1.748359000000000E+02      6.912842000000000E-01     -9.343750000000000E+01
4845000000.000000      4.635010000000000E-01     -1.570078000000000E+02      4.602966000000000E-01     -7.224609000000000E+01      4.667206000000000E-01     -1.749844000000000E+02      6.934814000000000E-01     -9.328516000000000E+01
4846000000.000000      4.685516000000000E-01     -1.576250000000000E+02      4.632416000000000E-01     -7.257421000000000E+01      4.713287000000000E-01     -1.750469000000000E+02      6.949158000000000E-01     -9.337109000000000E+01
4847000000.000000      4.747009000000000E-01     -1.583750000000000E+02      4.650116000000000E-01     -7.284765000000000E+01      4.757538000000000E-01     -1.751875000000000E+02      6.994019000000000E-01     -9.348436000000000E+01
4848000000.000000      4.797211000000000E-01     -1.589609000000000E+02      4.666138000000000E-01     -7.307812000000000E+01      4.790955000000000E-01     -1.753203000000000E+02      7.021484000000000E-01     -9.359375000000000E+01
4849000000.000000      4.841461000000000E-01     -1.598047000000000E+02      4.701691000000000E-01     -7.364452000000000E+01      4.835815000000000E-01     -1.754688000000000E+02      7.039795000000000E-01     -9.351171000000000E+01
4850000000.000000      4.888611000000000E-01     -1.602109000000000E+02      4.730835000000000E-01     -7.374218000000000E+01      4.866333000000000E-01     -1.754844000000000E+02      7.070007000000000E-01     -9.358202000000000E+01
4851000000.000000      4.935455000000000E-01     -1.608047000000000E+02      4.754028000000000E-01     -7.421484000000000E+01      4.903870000000000E-01     -1.756719000000000E+02      7.104187000000000E-01     -9.362499000000000E+01
4852000000.000000      4.985046000000000E-01     -1.614609000000000E+02      4.775238000000000E-01     -7.439453000000000E+01      4.944916000000000E-01     -1.757969000000000E+02      7.121277000000000E-01     -9.373047000000000E+01
4853000000.000000      5.035400000000000E-01     -1.619453000000000E+02      4.780731000000000E-01     -7.487499000000000E+01      4.988403000000000E-01     -1.759766000000000E+02      7.145081000000000E-01     -9.378906000000000E+01
4854000000.000000      5.070496000000000E-01     -1.624687000000000E+02      4.808655000000000E-01     -7.523828000000000E+01      5.008850000000000E-01     -1.761641000000000E+02      7.181396000000000E-01     -9.386719000000000E+01
4855000000.000000      5.109558000000000E-01     -1.631328000000000E+02      4.827118000000000E-01     -7.539063000000000E+01      5.068970000000000E-01     -1.762187000000000E+02      7.203064000000000E-01     -9.382421000000000E+01
4856000000.000000      5.158386000000000E-01     -1.635313000000000E+02      4.846649000000000E-01     -7.567187000000000E+01      5.093079000000000E-01     -1.764219000000000E+02      7.254639000000000E-01     -9.389063000000000E+01
4857000000.000000      5.202637000000000E-01     -1.641250000000000E+02      4.873962000000000E-01     -7.601563000000000E+01      5.125732000000000E-01     -1.764922000000000E+02      7.254639000000000E-01     -9.382030000000000E+01
4858000000.000000      5.217896000000000E-01     -1.646563000000000E+02      4.887848000000000E-01     -7.627343000000000E+01      5.151672000000000E-01     -1.765859000000000E+02      7.285461000000000E-01     -9.395702000000000E+01
4859000000.000000      5.262146000000000E-01     -1.651562000000000E+02      4.905548000000000E-01     -7.669531000000000E+01      5.193787000000000E-01     -1.769375000000000E+02      7.336121000000000E-01     -9.410156000000000E+01
4860000000.000000      5.310364000000000E-01     -1.656094000000000E+02      4.920807000000000E-01     -7.685547000000000E+01      5.238647000000000E-01     -1.770547000000000E+02      7.351685000000000E-01     -9.402344000000000E+01
4861000000.000000      5.337524000000000E-01     -1.659453000000000E+02      4.946136000000000E-01     -7.751171000000000E+01      5.267944000000000E-01     -1.772812000000000E+02      7.377014000000000E-01     -9.411718000000000E+01
4862000000.000000      5.364685000000000E-01     -1.664063000000000E+02      4.970703000000000E-01     -7.764453000000000E+01      5.314331000000000E-01     -1.774375000000000E+02      7.424927000000000E-01     -9.407421000000000E+01
4863000000.000000      5.389099000000000E-01     -1.667969000000000E+02      4.955292000000000E-01     -7.798437000000000E+01      5.333862000000000E-01     -1.775547000000000E+02      7.451172000000000E-01     -9.419531000000000E+01
4864000000.000000      5.424805000000000E-01     -1.672656000000000E+02      4.981232000000000E-01     -7.808594000000000E+01      5.357971000000000E-01     -1.775547000000000E+02      7.474060000000000E-01     -9.429296000000000E+01
4865000000.000000      5.438538000000000E-01     -1.677344000000000E+02      4.994049000000000E-01     -7.841406000000000E+01      5.402222000000000E-01     -1.779609000000000E+02      7.500610000000000E-01     -9.427734000000000E+01
4866000000.000000      5.460815000000000E-01     -1.680000000000000E+02      4.994202000000000E-01     -7.871875000000000E+01      5.418396000000000E-01     -1.781016000000000E+02      7.534180000000000E-01     -9.424219000000000E+01
4867000000.000000      5.488281000000000E-01     -1.684062000000000E+02      5.024414000000000E-01     -7.914844000000000E+01      5.454102000000000E-01     -1.783594000000000E+02      7.558899000000000E-01     -9.426172000000000E+01
4868000000.000000      5.516663000000000E-01     -1.688047000000000E+02      5.040894000000000E-01     -7.944530000000000E+01      5.492249000000000E-01     -1.786406000000000E+02      7.583008000000000E-01     -9.435547000000000E+01
4869000000.000000      5.527649000000000E-01     -1.690547000000000E+02      5.052795000000000E-01     -7.946484000000000E+01      5.519104000000000E-01     -1.788359000000000E+02      7.615967000000000E-01     -9.449999000000000E+01
4870000000.000000      5.537109000000000E-01     -1.694687000000000E+02      5.061035000000000E-01     -7.971484000000000E+01      5.543823000000000E-01     -1.789609000000000E+02      7.637329000000000E-01     -9.437891000000000E+01
4871000000.000000      5.557556000000000E-01     -1.698125000000000E+02      5.067444000000000E-01     -8.009375000000000E+01      5.551758000000000E-01     -1.792500000000000E+02      7.666321000000000E-01     -9.451952000000000E+01
4872000000.000000      5.575867000000000E-01     -1.700625000000000E+02      5.075073000000000E-01     -8.017969000000000E+01      5.594177000000000E-01     -1.794844000000000E+02      7.690430000000000E-01     -9.446093000000000E+01
4873000000.000000      5.584106000000000E-01     -1.702422000000000E+02      5.093079000000000E-01     -8.057812000000000E+01      5.612488000000000E-01     -1.796719000000000E+02      7.713623000000000E-01     -9.458202000000000E+01
4874000000.000000      5.581665000000000E-01     -1.704766000000000E+02      5.101624000000000E-01     -8.081249000000000E+01      5.656738000000000E-01     -1.798281000000000E+02      7.729797000000000E-01     -9.446875000000000E+01
4875000000.000000      5.607910000000000E-01     -1.707656000000000E+02      5.105591000000000E-01     -8.099609000000000E+01      5.659485000000000E-01      1.798672000000000E+02      7.746887000000000E-01     -9.451563000000000E+01
4876000000.000000      5.600891000000000E-01     -1.710078000000000E+02      5.111084000000000E-01     -8.125391000000000E+01      5.681458000000000E-01      1.797891000000000E+02      7.789307000000000E-01     -9.470703000000000E+01
4877000000.000000      5.610657000000000E-01     -1.711719000000000E+02      5.123901000000000E-01     -8.143358000000000E+01      5.719604000000000E-01      1.795312000000000E+02      7.810974000000000E-01     -9.483202000000000E+01
4878000000.000000      5.613098000000000E-01     -1.713203000000000E+02      5.147705000000000E-01     -8.171093000000000E+01      5.717773000000000E-01      1.793047000000000E+02      7.827454000000000E-01     -9.483593000000000E+01
4879000000.000000      5.620728000000000E-01     -1.715781000000000E+02      5.134888000000000E-01     -8.181250000000000E+01      5.742798000000000E-01      1.792578000000000E+02      7.855530000000000E-01     -9.477343000000000E+01
4880000000.000000      5.616150000000000E-01     -1.717031000000000E+02      5.153198000000000E-01     -8.217577000000000E+01      5.773621000000000E-01      1.789609000000000E+02      7.861023000000000E-01     -9.483984000000000E+01
4881000000.000000      5.625305000000000E-01     -1.718516000000000E+02      5.156555000000000E-01     -8.225389000000000E+01      5.793457000000000E-01      1.786953000000000E+02      7.895203000000000E-01     -9.498827000000000E+01
4882000000.000000      5.615234000000000E-01     -1.719063000000000E+02      5.176086000000000E-01     -8.251953000000000E+01      5.810852000000000E-01      1.786719000000000E+02      7.890930000000000E-01     -9.494921000000000E+01
