! Network Analyzer HP8722D
! Hewlett-Packard
! Data name: Linha & Wilkinson
! Saver's name: Rodrigo Anjos
! Comments: Teste da utilização de aquisição
continua pelo VNA HP8722D
! Time and date: 17/4/2025 14:24
!              Frequency                     S11                                                   S21                                                   S12                                                   S22
# HZ  S  MA R 50
4800000000.000000      3.341217000000000E-01     -1.135078000000000E+02      2.882538000000000E-01     -6.099999000000000E+01      2.826385000000000E-01     -1.750625000000000E+02      6.552734000000000E-01     -9.008204000000000E+01
4801000000.000000      3.327026000000000E-01     -1.143672000000000E+02      2.926025000000000E-01     -6.095703000000000E+01      2.861023000000000E-01     -1.751172000000000E+02      6.540222000000000E-01     -9.008593000000000E+01
4802000000.000000      3.317871000000000E-01     -1.154180000000000E+02      2.973480000000000E-01     -6.096680000000000E+01      2.905579000000000E-01     -1.748672000000000E+02      6.531677000000000E-01     -9.007813000000000E+01
4803000000.000000      3.310089000000000E-01     -1.165273000000000E+02      3.022919000000000E-01     -6.118750000000000E+01      2.946014000000000E-01     -1.747656000000000E+02      6.523132000000000E-01     -9.028906000000000E+01
4804000000.000000      3.311462000000000E-01     -1.174336000000000E+02      3.072968000000000E-01     -6.119141000000000E+01      2.985382000000000E-01     -1.747813000000000E+02      6.513977000000000E-01     -9.039843000000000E+01
4805000000.000000      3.306580000000000E-01     -1.183906000000000E+02      3.110046000000000E-01     -6.153710000000000E+01      3.029480000000000E-01     -1.744688000000000E+02      6.512146000000000E-01     -9.043360000000000E+01
4806000000.000000      3.299103000000000E-01     -1.193750000000000E+02      3.158417000000000E-01     -6.142773000000000E+01      3.057556000000000E-01     -1.743047000000000E+02      6.499329000000000E-01     -9.063280000000000E+01
4807000000.000000      3.300323000000000E-01     -1.204726000000000E+02      3.202667000000000E-01     -6.172070000000000E+01      3.106689000000000E-01     -1.744688000000000E+02      6.493530000000000E-01     -9.066797000000000E+01
4808000000.000000      3.311768000000000E-01     -1.215312000000000E+02      3.248138000000000E-01     -6.174023000000000E+01      3.142090000000000E-01     -1.743906000000000E+02      6.485291000000000E-01     -9.074219000000000E+01
4809000000.000000      3.311462000000000E-01     -1.225586000000000E+02      3.294525000000000E-01     -6.200390000000000E+01      3.194885000000000E-01     -1.743594000000000E+02      6.488342000000000E-01     -9.087500000000000E+01
4810000000.000000      3.318787000000000E-01     -1.237344000000000E+02      3.329773000000000E-01     -6.225586000000000E+01      3.233032000000000E-01     -1.741406000000000E+02      6.490479000000000E-01     -9.105469000000000E+01
4811000000.000000      3.329315000000000E-01     -1.246758000000000E+02      3.380585000000000E-01     -6.253906000000000E+01      3.279877000000000E-01     -1.739922000000000E+02      6.482544000000000E-01     -9.093750000000000E+01
4812000000.000000      3.347931000000000E-01     -1.257578000000000E+02      3.418427000000000E-01     -6.261328000000000E+01      3.314514000000000E-01     -1.739766000000000E+02      6.476135000000000E-01     -9.111719000000000E+01
4813000000.000000      3.348846000000000E-01     -1.269414000000000E+02      3.456573000000000E-01     -6.280078000000000E+01      3.349915000000000E-01     -1.738750000000000E+02      6.474915000000000E-01     -9.105469000000000E+01
4814000000.000000      3.359528000000000E-01     -1.281328000000000E+02      3.503723000000000E-01     -6.309960000000000E+01      3.388519000000000E-01     -1.740234000000000E+02      6.480713000000000E-01     -9.125780000000000E+01
4815000000.000000      3.378906000000000E-01     -1.290547000000000E+02      3.536224000000000E-01     -6.329102000000000E+01      3.429565000000000E-01     -1.738047000000000E+02      6.474304000000000E-01     -9.124218000000000E+01
4816000000.000000      3.399658000000000E-01     -1.301719000000000E+02      3.584595000000000E-01     -6.331640000000000E+01      3.479004000000000E-01     -1.737578000000000E+02      6.481934000000000E-01     -9.133593000000000E+01
4817000000.000000      3.423615000000000E-01     -1.312344000000000E+02      3.619843000000000E-01     -6.373047000000000E+01      3.506470000000000E-01     -1.737890000000000E+02      6.481323000000000E-01     -9.141405000000000E+01
4818000000.000000      3.443298000000000E-01     -1.323594000000000E+02      3.656769000000000E-01     -6.393945000000000E+01      3.550568000000000E-01     -1.737500000000000E+02      6.483459000000000E-01     -9.165234000000000E+01
4819000000.000000      3.475342000000000E-01     -1.333750000000000E+02      3.695831000000000E-01     -6.418359000000000E+01      3.589783000000000E-01     -1.737813000000000E+02      6.502991000000000E-01     -9.163671000000000E+01
4820000000.000000      3.488617000000000E-01     -1.344063000000000E+02      3.732300000000000E-01     -6.434765000000000E+01      3.630829000000000E-01     -1.736094000000000E+02      6.490173000000000E-01     -9.172266000000000E+01
4821000000.000000      3.521881000000000E-01     -1.355234000000000E+02      3.781433000000000E-01     -6.469921000000000E+01      3.669891000000000E-01     -1.737813000000000E+02      6.495972000000000E-01     -9.189844000000000E+01
4822000000.000000      3.565216000000000E-01     -1.366484000000000E+02      3.815460000000000E-01     -6.481250000000000E+01      3.705597000000000E-01     -1.736797000000000E+02      6.519775000000000E-01     -9.181641000000000E+01
4823000000.000000      3.591003000000000E-01     -1.375078000000000E+02      3.859406000000000E-01     -6.517187000000000E+01      3.748016000000000E-01     -1.734062000000000E+02      6.524963000000000E-01     -9.195313000000000E+01
4824000000.000000      3.632050000000000E-01     -1.386953000000000E+02      3.897400000000000E-01     -6.551952000000000E+01      3.789825000000000E-01     -1.736562000000000E+02      6.534424000000000E-01     -9.201952000000000E+01
4825000000.000000      3.662720000000000E-01     -1.396406000000000E+02      3.924866000000000E-01     -6.559765000000000E+01      3.836975000000000E-01     -1.736094000000000E+02      6.546326000000000E-01     -9.204687000000000E+01
4826000000.000000      3.704987000000000E-01     -1.406641000000000E+02      3.962860000000000E-01     -6.610937000000000E+01      3.863220000000000E-01     -1.736953000000000E+02      6.561890000000000E-01     -9.207422000000000E+01
4827000000.000000      3.744812000000000E-01     -1.415156000000000E+02      4.001312000000000E-01     -6.616796000000000E+01      3.908539000000000E-01     -1.735547000000000E+02      6.570129000000000E-01     -9.212891000000000E+01
4828000000.000000      3.794708000000000E-01     -1.425703000000000E+02      4.037628000000000E-01     -6.648438000000000E+01      3.941803000000000E-01     -1.735625000000000E+02      6.597595000000000E-01     -9.226563000000000E+01
4829000000.000000      3.816528000000000E-01     -1.435078000000000E+02      4.065247000000000E-01     -6.675781000000000E+01      3.989105000000000E-01     -1.737344000000000E+02      6.590271000000000E-01     -9.226563000000000E+01
4830000000.000000      3.871613000000000E-01     -1.444375000000000E+02      4.103088000000000E-01     -6.716406000000000E+01      4.023743000000000E-01     -1.734844000000000E+02      6.609802000000000E-01     -9.239061000000000E+01
4831000000.000000      3.912354000000000E-01     -1.452969000000000E+02      4.133759000000000E-01     -6.753515000000000E+01      4.075317000000000E-01     -1.735703000000000E+02      6.630859000000000E-01     -9.242188000000000E+01
4832000000.000000      3.965607000000000E-01     -1.462109000000000E+02      4.176178000000000E-01     -6.774219000000000E+01      4.103546000000000E-01     -1.736484000000000E+02      6.649780000000000E-01     -9.255859000000000E+01
4833000000.000000      4.020386000000000E-01     -1.472109000000000E+02      4.214172000000000E-01     -6.796875000000000E+01      4.149475000000000E-01     -1.737422000000000E+02      6.666870000000000E-01     -9.266405000000000E+01
4834000000.000000      4.062805000000000E-01     -1.480547000000000E+02      4.243011000000000E-01     -6.837891000000000E+01      4.192657000000000E-01     -1.737109000000000E+02      6.674805000000000E-01     -9.260157000000000E+01
4835000000.000000      4.106903000000000E-01     -1.488672000000000E+02      4.276276000000000E-01     -6.867578000000000E+01      4.236450000000000E-01     -1.737656000000000E+02      6.699524000000000E-01     -9.275000000000000E+01
4836000000.000000      4.163666000000000E-01     -1.496094000000000E+02      4.311218000000000E-01     -6.891406000000000E+01      4.270172000000000E-01     -1.737734000000000E+02      6.718445000000000E-01     -9.267969000000000E+01
4837000000.000000      4.217834000000000E-01     -1.503984000000000E+02      4.338226000000000E-01     -6.952343000000000E+01      4.312134000000000E-01     -1.740078000000000E+02      6.731873000000000E-01     -9.278124000000000E+01
4838000000.000000      4.268188000000000E-01     -1.513594000000000E+02      4.381409000000000E-01     -6.942187000000000E+01      4.356232000000000E-01     -1.739687000000000E+02      6.763916000000000E-01     -9.276562000000000E+01
4839000000.000000      4.320831000000000E-01     -1.519766000000000E+02      4.401398000000000E-01     -6.981640000000000E+01      4.390717000000000E-01     -1.740156000000000E+02      6.781616000000000E-01     -9.282030000000000E+01
4840000000.000000      4.363708000000000E-01     -1.528359000000000E+02      4.434052000000000E-01     -7.016796000000000E+01      4.436646000000000E-01     -1.741328000000000E+02      6.803284000000000E-01     -9.302343000000000E+01
4841000000.000000      4.421997000000000E-01     -1.536562000000000E+02      4.462585000000000E-01     -7.046875000000000E+01      4.478912000000000E-01     -1.742188000000000E+02      6.826172000000000E-01     -9.306250000000000E+01
4842000000.000000      4.476776000000000E-01     -1.543203000000000E+02      4.496613000000000E-01     -7.082421000000000E+01      4.507446000000000E-01     -1.742656000000000E+02      6.845398000000000E-01     -9.298828000000000E+01
4843000000.000000      4.520721000000000E-01     -1.550859000000000E+02      4.516296000000000E-01     -7.117188000000000E+01      4.553986000000000E-01     -1.744062000000000E+02      6.878662000000000E-01     -9.307032000000000E+01
4844000000.000000      4.570007000000000E-01     -1.557422000000000E+02      4.551086000000000E-01     -7.149609000000000E+01      4.587860000000000E-01     -1.744766000000000E+02      6.902466000000000E-01     -9.307812000000000E+01
4845000000.000000      4.617310000000000E-01     -1.563516000000000E+02      4.573822000000000E-01     -7.175781000000000E+01      4.633789000000000E-01     -1.746172000000000E+02      6.922607000000000E-01     -9.314844000000000E+01
4846000000.000000      4.677582000000000E-01     -1.570078000000000E+02      4.601746000000000E-01     -7.216797000000000E+01      4.680023000000000E-01     -1.746172000000000E+02      6.947632000000000E-01     -9.320704000000000E+01
4847000000.000000      4.730682000000000E-01     -1.577578000000000E+02      4.626465000000000E-01     -7.229687000000000E+01      4.721069000000000E-01     -1.747813000000000E+02      6.980591000000000E-01     -9.322266000000000E+01
4848000000.000000      4.782562000000000E-01     -1.583203000000000E+02      4.633484000000000E-01     -7.267187000000000E+01      4.756012000000000E-01     -1.748906000000000E+02      7.008362000000000E-01     -9.335155000000000E+01
4849000000.000000      4.828186000000000E-01     -1.592578000000000E+02      4.670410000000000E-01     -7.311328000000000E+01      4.801941000000000E-01     -1.749844000000000E+02      7.023315000000000E-01     -9.329687000000000E+01
4850000000.000000      4.877319000000000E-01     -1.595703000000000E+02      4.697571000000000E-01     -7.326562000000000E+01      4.838409000000000E-01     -1.750625000000000E+02      7.050476000000000E-01     -9.336329000000000E+01
4851000000.000000      4.929962000000000E-01     -1.601719000000000E+02      4.724121000000000E-01     -7.394140000000000E+01      4.870758000000000E-01     -1.752031000000000E+02      7.089539000000000E-01     -9.331249000000000E+01
4852000000.000000      4.978638000000000E-01     -1.607500000000000E+02      4.749451000000000E-01     -7.401953000000000E+01      4.918213000000000E-01     -1.753828000000000E+02      7.122803000000000E-01     -9.349609000000000E+01
4853000000.000000      5.018311000000000E-01     -1.613594000000000E+02      4.747162000000000E-01     -7.444140000000000E+01      4.961548000000000E-01     -1.755469000000000E+02      7.151184000000000E-01     -9.356249000000000E+01
4854000000.000000      5.060730000000000E-01     -1.618984000000000E+02      4.789124000000000E-01     -7.489062000000000E+01      5.000916000000000E-01     -1.757500000000000E+02      7.171326000000000E-01     -9.355078000000000E+01
4855000000.000000      5.099487000000000E-01     -1.625156000000000E+02      4.798889000000000E-01     -7.496875000000000E+01      5.035095000000000E-01     -1.757422000000000E+02      7.202148000000000E-01     -9.360155000000000E+01
4856000000.000000      5.143738000000000E-01     -1.629688000000000E+02      4.826660000000000E-01     -7.535156000000000E+01      5.064087000000000E-01     -1.760234000000000E+02      7.229919000000000E-01     -9.367968000000000E+01
4857000000.000000      5.186157000000000E-01     -1.635547000000000E+02      4.850616000000000E-01     -7.562500000000000E+01      5.105286000000000E-01     -1.761406000000000E+02      7.264709000000000E-01     -9.367968000000000E+01
4858000000.000000      5.208130000000000E-01     -1.640078000000000E+02      4.864349000000000E-01     -7.592187000000000E+01      5.135498000000000E-01     -1.763984000000000E+02      7.297363000000000E-01     -9.373827000000000E+01
4859000000.000000      5.257263000000000E-01     -1.645937000000000E+02      4.881134000000000E-01     -7.629687000000000E+01      5.181885000000000E-01     -1.764375000000000E+02      7.331543000000000E-01     -9.379686000000000E+01
4860000000.000000      5.296021000000000E-01     -1.649765000000000E+02      4.894257000000000E-01     -7.643359000000000E+01      5.206299000000000E-01     -1.765781000000000E+02      7.335205000000000E-01     -9.369532000000000E+01
4861000000.000000      5.334167000000000E-01     -1.653359000000000E+02      4.916077000000000E-01     -7.715625000000000E+01      5.249634000000000E-01     -1.767422000000000E+02      7.377625000000000E-01     -9.394531000000000E+01
4862000000.000000      5.359192000000000E-01     -1.658203000000000E+02      4.940948000000000E-01     -7.708593000000000E+01      5.278625000000000E-01     -1.768984000000000E+02      7.413330000000000E-01     -9.400391000000000E+01
4863000000.000000      5.382080000000000E-01     -1.662266000000000E+02      4.927673000000000E-01     -7.767968000000000E+01      5.321045000000000E-01     -1.771406000000000E+02      7.435608000000000E-01     -9.382813000000000E+01
4864000000.000000      5.422668000000000E-01     -1.666641000000000E+02      4.961853000000000E-01     -7.778906000000000E+01      5.345459000000000E-01     -1.772422000000000E+02      7.459106000000000E-01     -9.398046000000000E+01
4865000000.000000      5.434570000000000E-01     -1.671172000000000E+02      4.985504000000000E-01     -7.800390000000000E+01      5.384216000000000E-01     -1.775781000000000E+02      7.487488000000000E-01     -9.388281000000000E+01
4866000000.000000      5.453491000000000E-01     -1.673984000000000E+02      5.001221000000000E-01     -7.826172000000000E+01      5.412903000000000E-01     -1.777109000000000E+02      7.528687000000000E-01     -9.400782000000000E+01
4867000000.000000      5.479736000000000E-01     -1.678359000000000E+02      5.005798000000000E-01     -7.877343000000000E+01      5.443420000000000E-01     -1.779140000000000E+02      7.562866000000000E-01     -9.405468000000000E+01
4868000000.000000      5.513306000000000E-01     -1.681953000000000E+02      5.022278000000000E-01     -7.897265000000000E+01      5.465393000000000E-01     -1.780000000000000E+02      7.566223000000000E-01     -9.408203000000000E+01
4869000000.000000      5.522156000000000E-01     -1.685313000000000E+02      5.017395000000000E-01     -7.915625000000000E+01      5.490112000000000E-01     -1.782969000000000E+02      7.606201000000000E-01     -9.427734000000000E+01
4870000000.000000      5.537720000000000E-01     -1.688516000000000E+02      5.040894000000000E-01     -7.934375000000000E+01      5.524292000000000E-01     -1.785234000000000E+02      7.641907000000000E-01     -9.415234000000000E+01
4871000000.000000      5.568237000000000E-01     -1.691406000000000E+02      5.059814000000000E-01     -7.969531000000000E+01      5.545654000000000E-01     -1.786562000000000E+02      7.651672000000000E-01     -9.425390000000000E+01
4872000000.000000      5.577393000000000E-01     -1.694219000000000E+02      5.060120000000000E-01     -7.981640000000000E+01      5.578308000000000E-01     -1.790234000000000E+02      7.692261000000000E-01     -9.432421000000000E+01
4873000000.000000      5.582275000000000E-01     -1.696172000000000E+02      5.064697000000000E-01     -8.019922000000000E+01      5.592651000000000E-01     -1.790937000000000E+02      7.705688000000000E-01     -9.442968000000000E+01
4874000000.000000      5.596924000000000E-01     -1.698203000000000E+02      5.090027000000000E-01     -8.058985000000000E+01      5.642395000000000E-01     -1.793594000000000E+02      7.736816000000000E-01     -9.420313000000000E+01
4875000000.000000      5.610657000000000E-01     -1.702188000000000E+02      5.084839000000000E-01     -8.058203000000000E+01      5.648804000000000E-01     -1.796016000000000E+02      7.754822000000000E-01     -9.449999000000000E+01
4876000000.000000      5.605469000000000E-01     -1.704141000000000E+02      5.090027000000000E-01     -8.089844000000000E+01      5.670166000000000E-01     -1.797344000000000E+02      7.782593000000000E-01     -9.448046000000000E+01
4877000000.000000      5.614624000000000E-01     -1.706016000000000E+02      5.122070000000000E-01     -8.103516000000000E+01      5.701599000000000E-01      1.797812000000000E+02      7.806091000000000E-01     -9.452343000000000E+01
4878000000.000000      5.627747000000000E-01     -1.707422000000000E+02      5.145569000000000E-01     -8.119532000000000E+01      5.715637000000000E-01      1.797422000000000E+02      7.817383000000000E-01     -9.462500000000000E+01
4879000000.000000      5.632324000000000E-01     -1.711172000000000E+02      5.124817000000000E-01     -8.162500000000000E+01      5.723877000000000E-01      1.795312000000000E+02      7.835083000000000E-01     -9.458984000000000E+01
4880000000.000000      5.616150000000000E-01     -1.711094000000000E+02      5.144348000000000E-01     -8.177734000000000E+01      5.761414000000000E-01      1.792734000000000E+02      7.870789000000000E-01     -9.457422000000000E+01
4881000000.000000      5.636292000000000E-01     -1.712891000000000E+02      5.161133000000000E-01     -8.178125000000000E+01      5.804749000000000E-01      1.790234000000000E+02      7.893372000000000E-01     -9.467188000000000E+01
4882000000.000000      5.629272000000000E-01     -1.714766000000000E+02      5.173035000000000E-01     -8.214453000000000E+01      5.803833000000000E-01      1.789141000000000E+02      7.896118000000000E-01     -9.470703000000000E+01
