! Network Analyzer HP8722D
! Hewlett-Packard
! Data name: Linha & Wilkinson
! Saver's name: Rodrigo Anjos
! Comments: Teste da utilização de aquisição
continua pelo VNA HP8722D
! Time and date: 17/4/2025 15:47
!              Frequency                     S11                                                   S21                                                   S12                                                   S22
# HZ  S  MA R 50
4800000000.000000      3.348846000000000E-01     -1.152773000000000E+02      3.043365000000000E-01     -6.157812000000000E+01      2.980652000000000E-01     -1.757813000000000E+02      6.578674000000000E-01     -9.078516000000000E+01
4801000000.000000      3.345947000000000E-01     -1.162070000000000E+02      3.085785000000000E-01     -6.171093000000000E+01      3.013763000000000E-01     -1.757969000000000E+02      6.567993000000000E-01     -9.087891000000000E+01
4802000000.000000      3.331146000000000E-01     -1.172305000000000E+02      3.126221000000000E-01     -6.172265000000000E+01      3.058777000000000E-01     -1.756406000000000E+02      6.542969000000000E-01     -9.076952000000000E+01
4803000000.000000      3.328094000000000E-01     -1.182109000000000E+02      3.184052000000000E-01     -6.197266000000000E+01      3.094177000000000E-01     -1.755938000000000E+02      6.538086000000000E-01     -9.097656000000000E+01
4804000000.000000      3.326874000000000E-01     -1.192891000000000E+02      3.215942000000000E-01     -6.210351000000000E+01      3.133698000000000E-01     -1.755547000000000E+02      6.531677000000000E-01     -9.106640000000000E+01
4805000000.000000      3.328094000000000E-01     -1.202383000000000E+02      3.260651000000000E-01     -6.234765000000000E+01      3.178101000000000E-01     -1.753828000000000E+02      6.532288000000000E-01     -9.130859000000000E+01
4806000000.000000      3.320007000000000E-01     -1.212187000000000E+02      3.304596000000000E-01     -6.242578000000000E+01      3.210449000000000E-01     -1.752344000000000E+02      6.530151000000000E-01     -9.133984000000000E+01
4807000000.000000      3.323669000000000E-01     -1.224101000000000E+02      3.344269000000000E-01     -6.273632000000000E+01      3.256378000000000E-01     -1.753515000000000E+02      6.510010000000000E-01     -9.130468000000000E+01
4808000000.000000      3.330231000000000E-01     -1.233867000000000E+02      3.392029000000000E-01     -6.273632000000000E+01      3.294373000000000E-01     -1.752812000000000E+02      6.503601000000000E-01     -9.139063000000000E+01
4809000000.000000      3.331451000000000E-01     -1.245234000000000E+02      3.435669000000000E-01     -6.315234000000000E+01      3.341064000000000E-01     -1.753828000000000E+02      6.505127000000000E-01     -9.164454000000000E+01
4810000000.000000      3.345032000000000E-01     -1.255430000000000E+02      3.473358000000000E-01     -6.310937000000000E+01      3.375854000000000E-01     -1.752266000000000E+02      6.508484000000000E-01     -9.173828000000000E+01
4811000000.000000      3.353577000000000E-01     -1.266836000000000E+02      3.516998000000000E-01     -6.362890000000000E+01      3.420410000000000E-01     -1.751953000000000E+02      6.497803000000000E-01     -9.169140000000000E+01
4812000000.000000      3.367310000000000E-01     -1.276953000000000E+02      3.554230000000000E-01     -6.380468000000000E+01      3.464661000000000E-01     -1.751328000000000E+02      6.502380000000000E-01     -9.177734000000000E+01
4813000000.000000      3.384705000000000E-01     -1.288594000000000E+02      3.596191000000000E-01     -6.395508000000000E+01      3.490753000000000E-01     -1.750000000000000E+02      6.495361000000000E-01     -9.183985000000000E+01
4814000000.000000      3.393402000000000E-01     -1.301094000000000E+02      3.641815000000000E-01     -6.427734000000000E+01      3.530731000000000E-01     -1.751406000000000E+02      6.492310000000000E-01     -9.198828000000000E+01
4815000000.000000      3.412323000000000E-01     -1.311094000000000E+02      3.670044000000000E-01     -6.440234000000000E+01      3.562622000000000E-01     -1.751094000000000E+02      6.492615000000000E-01     -9.202343000000000E+01
4816000000.000000      3.434906000000000E-01     -1.320781000000000E+02      3.717957000000000E-01     -6.458593000000000E+01      3.611450000000000E-01     -1.749922000000000E+02      6.499329000000000E-01     -9.208984000000000E+01
4817000000.000000      3.463287000000000E-01     -1.331797000000000E+02      3.757172000000000E-01     -6.488281000000000E+01      3.645630000000000E-01     -1.750000000000000E+02      6.493835000000000E-01     -9.223827000000000E+01
4818000000.000000      3.480072000000000E-01     -1.343516000000000E+02      3.789215000000000E-01     -6.517578000000000E+01      3.685303000000000E-01     -1.749609000000000E+02      6.499634000000000E-01     -9.239843000000000E+01
4819000000.000000      3.511353000000000E-01     -1.354219000000000E+02      3.829041000000000E-01     -6.533984000000000E+01      3.714294000000000E-01     -1.749531000000000E+02      6.526489000000000E-01     -9.244141000000000E+01
4820000000.000000      3.528290000000000E-01     -1.364531000000000E+02      3.867950000000000E-01     -6.560156000000000E+01      3.768463000000000E-01     -1.750078000000000E+02      6.517029000000000E-01     -9.240625000000000E+01
4821000000.000000      3.565063000000000E-01     -1.375391000000000E+02      3.903351000000000E-01     -6.594531000000000E+01      3.798523000000000E-01     -1.751562000000000E+02      6.515503000000000E-01     -9.260937000000000E+01
4822000000.000000      3.608551000000000E-01     -1.386016000000000E+02      3.941803000000000E-01     -6.620703000000000E+01      3.829498000000000E-01     -1.750859000000000E+02      6.544495000000000E-01     -9.267969000000000E+01
4823000000.000000      3.636169000000000E-01     -1.395703000000000E+02      3.982697000000000E-01     -6.648046000000000E+01      3.878326000000000E-01     -1.748750000000000E+02      6.543579000000000E-01     -9.272655000000000E+01
4824000000.000000      3.677979000000000E-01     -1.406719000000000E+02      4.019928000000000E-01     -6.691796000000000E+01      3.920135000000000E-01     -1.751172000000000E+02      6.557312000000000E-01     -9.275000000000000E+01
4825000000.000000      3.712616000000000E-01     -1.416406000000000E+02      4.052277000000000E-01     -6.689843000000000E+01      3.961639000000000E-01     -1.750469000000000E+02      6.568909000000000E-01     -9.285936000000000E+01
4826000000.000000      3.756561000000000E-01     -1.426563000000000E+02      4.090576000000000E-01     -6.744141000000000E+01      3.989258000000000E-01     -1.751094000000000E+02      6.582336000000000E-01     -9.290234000000000E+01
4827000000.000000      3.794861000000000E-01     -1.435469000000000E+02      4.124298000000000E-01     -6.746094000000000E+01      4.022217000000000E-01     -1.751016000000000E+02      6.597900000000000E-01     -9.295313000000000E+01
4828000000.000000      3.847046000000000E-01     -1.445781000000000E+02      4.152832000000000E-01     -6.792578000000000E+01      4.063568000000000E-01     -1.750469000000000E+02      6.613159000000000E-01     -9.307032000000000E+01
4829000000.000000      3.867493000000000E-01     -1.454531000000000E+02      4.186554000000000E-01     -6.822656000000000E+01      4.105377000000000E-01     -1.750547000000000E+02      6.615906000000000E-01     -9.301561000000000E+01
4830000000.000000      3.925781000000000E-01     -1.464922000000000E+02      4.220428000000000E-01     -6.848437000000000E+01      4.144287000000000E-01     -1.750859000000000E+02      6.631470000000000E-01     -9.318750000000000E+01
4831000000.000000      3.962097000000000E-01     -1.472812000000000E+02      4.254608000000000E-01     -6.899609000000000E+01      4.185028000000000E-01     -1.750781000000000E+02      6.658325000000000E-01     -9.321484000000000E+01
4832000000.000000      4.021454000000000E-01     -1.482109000000000E+02      4.284363000000000E-01     -6.910937000000000E+01      4.219971000000000E-01     -1.752422000000000E+02      6.667175000000000E-01     -9.336329000000000E+01
4833000000.000000      4.069366000000000E-01     -1.492812000000000E+02      4.318085000000000E-01     -6.934765000000000E+01      4.255066000000000E-01     -1.753672000000000E+02      6.679993000000000E-01     -9.338671000000000E+01
4834000000.000000      4.117889000000000E-01     -1.500547000000000E+02      4.351807000000000E-01     -6.975780000000000E+01      4.301147000000000E-01     -1.753047000000000E+02      6.696472000000000E-01     -9.337500000000000E+01
4835000000.000000      4.161377000000000E-01     -1.508125000000000E+02      4.383850000000000E-01     -7.002343000000000E+01      4.346161000000000E-01     -1.753438000000000E+02      6.723328000000000E-01     -9.363281000000000E+01
4836000000.000000      4.218140000000000E-01     -1.515859000000000E+02      4.410248000000000E-01     -7.019140000000000E+01      4.376831000000000E-01     -1.753906000000000E+02      6.741943000000000E-01     -9.345312000000000E+01
4837000000.000000      4.268646000000000E-01     -1.524062000000000E+02      4.440918000000000E-01     -7.093359000000000E+01      4.415283000000000E-01     -1.755234000000000E+02      6.748352000000000E-01     -9.355860000000000E+01
4838000000.000000      4.322815000000000E-01     -1.533281000000000E+02      4.480591000000000E-01     -7.099999000000000E+01      4.460907000000000E-01     -1.755547000000000E+02      6.767883000000000E-01     -9.374218000000000E+01
4839000000.000000      4.370575000000000E-01     -1.539297000000000E+02      4.496613000000000E-01     -7.126562000000000E+01      4.502258000000000E-01     -1.755156000000000E+02      6.802979000000000E-01     -9.363672000000000E+01
4840000000.000000      4.417572000000000E-01     -1.548437000000000E+02      4.521332000000000E-01     -7.164844000000000E+01      4.532471000000000E-01     -1.756797000000000E+02      6.822815000000000E-01     -9.372656000000000E+01
4841000000.000000      4.471130000000000E-01     -1.557031000000000E+02      4.553528000000000E-01     -7.212891000000000E+01      4.578705000000000E-01     -1.757813000000000E+02      6.838989000000000E-01     -9.389063000000000E+01
4842000000.000000      4.528351000000000E-01     -1.562734000000000E+02      4.588928000000000E-01     -7.227344000000000E+01      4.612427000000000E-01     -1.758203000000000E+02      6.872864000000000E-01     -9.391016000000000E+01
4843000000.000000      4.570770000000000E-01     -1.570625000000000E+02      4.609070000000000E-01     -7.258984000000000E+01      4.653320000000000E-01     -1.759063000000000E+02      6.884766000000000E-01     -9.389063000000000E+01
4844000000.000000      4.619446000000000E-01     -1.577578000000000E+02      4.634094000000000E-01     -7.295312000000000E+01      4.684296000000000E-01     -1.760313000000000E+02      6.923828000000000E-01     -9.398829000000000E+01
4845000000.000000      4.667664000000000E-01     -1.583828000000000E+02      4.653931000000000E-01     -7.319140000000000E+01      4.729004000000000E-01     -1.761328000000000E+02      6.946106000000000E-01     -9.393749000000000E+01
4846000000.000000      4.717407000000000E-01     -1.590000000000000E+02      4.675903000000000E-01     -7.355078000000000E+01      4.775848000000000E-01     -1.762734000000000E+02      6.971130000000000E-01     -9.410936000000000E+01
4847000000.000000      4.781036000000000E-01     -1.597188000000000E+02      4.704895000000000E-01     -7.388281000000000E+01      4.812164000000000E-01     -1.763750000000000E+02      7.014160000000000E-01     -9.413280000000000E+01
4848000000.000000      4.824982000000000E-01     -1.602813000000000E+02      4.723511000000000E-01     -7.419531000000000E+01      4.843597000000000E-01     -1.764688000000000E+02      7.027588000000000E-01     -9.418749000000000E+01
4849000000.000000      4.872894000000000E-01     -1.611484000000000E+02      4.758301000000000E-01     -7.466406000000000E+01      4.885254000000000E-01     -1.766094000000000E+02      7.052917000000000E-01     -9.417969000000000E+01
4850000000.000000      4.920654000000000E-01     -1.615469000000000E+02      4.771729000000000E-01     -7.478125000000000E+01      4.920807000000000E-01     -1.766953000000000E+02      7.085266000000000E-01     -9.428514000000000E+01
4851000000.000000      4.967194000000000E-01     -1.621641000000000E+02      4.803162000000000E-01     -7.533203000000000E+01      4.953766000000000E-01     -1.767891000000000E+02      7.101746000000000E-01     -9.428125000000000E+01
4852000000.000000      5.018921000000000E-01     -1.627500000000000E+02      4.819489000000000E-01     -7.554688000000000E+01      4.993286000000000E-01     -1.769375000000000E+02      7.143555000000000E-01     -9.435547000000000E+01
4853000000.000000      5.059814000000000E-01     -1.633516000000000E+02      4.819794000000000E-01     -7.594531000000000E+01      5.049133000000000E-01     -1.771953000000000E+02      7.165833000000000E-01     -9.452734000000000E+01
4854000000.000000      5.097046000000000E-01     -1.638047000000000E+02      4.858093000000000E-01     -7.623437000000000E+01      5.077820000000000E-01     -1.771719000000000E+02      7.188416000000000E-01     -9.441015000000000E+01
4855000000.000000      5.128784000000000E-01     -1.644687000000000E+02      4.880219000000000E-01     -7.647655000000000E+01      5.115356000000000E-01     -1.773672000000000E+02      7.219238000000000E-01     -9.452734000000000E+01
4856000000.000000      5.182190000000000E-01     -1.648750000000000E+02      4.886627000000000E-01     -7.673046000000000E+01      5.140991000000000E-01     -1.774609000000000E+02      7.256165000000000E-01     -9.455078000000000E+01
4857000000.000000      5.215454000000000E-01     -1.654687000000000E+02      4.915314000000000E-01     -7.714453000000000E+01      5.173340000000000E-01     -1.776953000000000E+02      7.269897000000000E-01     -9.457422000000000E+01
4858000000.000000      5.233459000000000E-01     -1.659219000000000E+02      4.937134000000000E-01     -7.737499000000000E+01      5.206299000000000E-01     -1.779766000000000E+02      7.300720000000000E-01     -9.466406000000000E+01
4859000000.000000      5.281067000000000E-01     -1.665078000000000E+02      4.948730000000000E-01     -7.776953000000000E+01      5.234070000000000E-01     -1.780469000000000E+02      7.347717000000000E-01     -9.473047000000000E+01
4860000000.000000      5.323792000000000E-01     -1.669844000000000E+02      4.959717000000000E-01     -7.823828000000000E+01      5.273132000000000E-01     -1.781406000000000E+02      7.359924000000000E-01     -9.475000000000000E+01
4861000000.000000      5.347290000000000E-01     -1.673125000000000E+02      4.969940000000000E-01     -7.838672000000000E+01      5.307007000000000E-01     -1.784062000000000E+02      7.386475000000000E-01     -9.473827000000000E+01
4862000000.000000      5.364990000000000E-01     -1.677344000000000E+02      4.994659000000000E-01     -7.864062000000000E+01      5.346069000000000E-01     -1.784844000000000E+02      7.439270000000000E-01     -9.468359000000000E+01
4863000000.000000      5.397644000000000E-01     -1.681875000000000E+02      4.985657000000000E-01     -7.907812000000000E+01      5.382996000000000E-01     -1.786172000000000E+02      7.459106000000000E-01     -9.479687000000000E+01
4864000000.000000      5.433044000000000E-01     -1.686016000000000E+02      5.020752000000000E-01     -7.930078000000000E+01      5.405273000000000E-01     -1.788359000000000E+02      7.476807000000000E-01     -9.479296000000000E+01
4865000000.000000      5.449829000000000E-01     -1.690938000000000E+02      5.020752000000000E-01     -7.954687000000000E+01      5.427856000000000E-01     -1.790703000000000E+02      7.516479000000000E-01     -9.485546000000000E+01
4866000000.000000      5.466309000000000E-01     -1.693516000000000E+02      5.033264000000000E-01     -7.968359000000000E+01      5.458679000000000E-01     -1.791484000000000E+02      7.542114000000000E-01     -9.491405000000000E+01
4867000000.000000      5.487671000000000E-01     -1.696328000000000E+02      5.060730000000000E-01     -8.008593000000000E+01      5.477600000000000E-01     -1.794453000000000E+02      7.568665000000000E-01     -9.502344000000000E+01
4868000000.000000      5.513611000000000E-01     -1.701172000000000E+02      5.055847000000000E-01     -8.044531000000000E+01      5.518494000000000E-01     -1.796484000000000E+02      7.589111000000000E-01     -9.507421000000000E+01
4869000000.000000      5.514832000000000E-01     -1.703438000000000E+02      5.070496000000000E-01     -8.078905000000000E+01      5.548706000000000E-01     -1.798516000000000E+02      7.628174000000000E-01     -9.518358000000000E+01
4870000000.000000      5.540771000000000E-01     -1.707344000000000E+02      5.080872000000000E-01     -8.077343000000000E+01      5.568542000000000E-01      1.798750000000000E+02      7.634888000000000E-01     -9.509375000000000E+01
4871000000.000000      5.552979000000000E-01     -1.710469000000000E+02      5.083618000000000E-01     -8.115234000000000E+01      5.598145000000000E-01      1.797266000000000E+02      7.662964000000000E-01     -9.525391000000000E+01
4872000000.000000      5.575562000000000E-01     -1.712734000000000E+02      5.086975000000000E-01     -8.117968000000000E+01      5.614929000000000E-01      1.793984000000000E+02      7.698059000000000E-01     -9.528124000000000E+01
4873000000.000000      5.570068000000000E-01     -1.714375000000000E+02      5.101624000000000E-01     -8.158594000000000E+01      5.638733000000000E-01      1.791563000000000E+02      7.708435000000000E-01     -9.526953000000000E+01
4874000000.000000      5.581360000000000E-01     -1.717109000000000E+02      5.124512000000000E-01     -8.203125000000000E+01      5.665283000000000E-01      1.791875000000000E+02      7.727051000000000E-01     -9.520311000000000E+01
4875000000.000000      5.597229000000000E-01     -1.720000000000000E+02      5.118408000000000E-01     -8.201563000000000E+01      5.682373000000000E-01      1.787891000000000E+02      7.749939000000000E-01     -9.533983000000000E+01
4876000000.000000      5.590515000000000E-01     -1.721875000000000E+02      5.133057000000000E-01     -8.235937000000000E+01      5.709839000000000E-01      1.786484000000000E+02      7.781982000000000E-01     -9.547266000000000E+01
4877000000.000000      5.595093000000000E-01     -1.724062000000000E+02      5.148315000000000E-01     -8.237890000000000E+01      5.726624000000000E-01      1.783906000000000E+02      7.808838000000000E-01     -9.544922000000000E+01
4878000000.000000      5.602722000000000E-01     -1.725625000000000E+02      5.161438000000000E-01     -8.276562000000000E+01      5.753479000000000E-01      1.782344000000000E+02      7.826843000000000E-01     -9.558594000000000E+01
4879000000.000000      5.600891000000000E-01     -1.728125000000000E+02      5.147705000000000E-01     -8.300390000000000E+01      5.768127000000000E-01      1.780859000000000E+02      7.845764000000000E-01     -9.548046000000000E+01
4880000000.000000      5.589294000000000E-01     -1.728984000000000E+02      5.159302000000000E-01     -8.315624000000000E+01      5.783386000000000E-01      1.779297000000000E+02      7.865295000000000E-01     -9.556250000000000E+01
4881000000.000000      5.606079000000000E-01     -1.730391000000000E+02      5.181580000000000E-01     -8.315624000000000E+01      5.805054000000000E-01      1.775547000000000E+02      7.885132000000000E-01     -9.571484000000000E+01
4882000000.000000      5.580444000000000E-01     -1.731250000000000E+02      5.197144000000000E-01     -8.332031000000000E+01      5.831299000000000E-01      1.774844000000000E+02      7.899475000000000E-01     -9.574219000000000E+01
