! Network Analyzer HP8722D
! Hewlett-Packard
! Data name: Linha & Wilkinson
! Saver's name: Rodrigo Anjos
! Comments: Teste da utilização de aquisição
continua pelo VNA HP8722D
! Time and date: 17/4/2025 17:32
!              Frequency                     S11                                                   S21                                                   S12                                                   S22
# HZ  S  MA R 50
4800000000.000000      3.384399000000000E-01     -1.171523000000000E+02      3.168793000000000E-01     -6.239062000000000E+01      3.110046000000000E-01     -1.765703000000000E+02      6.583252000000000E-01     -9.150391000000000E+01
4801000000.000000      3.367157000000000E-01     -1.180547000000000E+02      3.211975000000000E-01     -6.248437000000000E+01      3.141327000000000E-01     -1.765547000000000E+02      6.561584000000000E-01     -9.155077000000000E+01
4802000000.000000      3.366241000000000E-01     -1.191172000000000E+02      3.253784000000000E-01     -6.267968000000000E+01      3.185272000000000E-01     -1.766484000000000E+02      6.559753000000000E-01     -9.162109000000000E+01
4803000000.000000      3.362579000000000E-01     -1.201641000000000E+02      3.304596000000000E-01     -6.296679000000000E+01      3.226166000000000E-01     -1.765000000000000E+02      6.551208000000000E-01     -9.179296000000000E+01
4804000000.000000      3.357544000000000E-01     -1.211601000000000E+02      3.348083000000000E-01     -6.284765000000000E+01      3.263092000000000E-01     -1.765703000000000E+02      6.542664000000000E-01     -9.182421000000000E+01
4805000000.000000      3.366394000000000E-01     -1.222539000000000E+02      3.386536000000000E-01     -6.336132000000000E+01      3.301392000000000E-01     -1.764844000000000E+02      6.544189000000000E-01     -9.191406000000000E+01
4806000000.000000      3.354645000000000E-01     -1.231172000000000E+02      3.420563000000000E-01     -6.333398000000000E+01      3.337708000000000E-01     -1.763672000000000E+02      6.541748000000000E-01     -9.196093000000000E+01
4807000000.000000      3.368378000000000E-01     -1.243594000000000E+02      3.465271000000000E-01     -6.377148000000000E+01      3.376923000000000E-01     -1.764844000000000E+02      6.529846000000000E-01     -9.218359000000000E+01
4808000000.000000      3.371887000000000E-01     -1.252695000000000E+02      3.518066000000000E-01     -6.376367000000000E+01      3.417664000000000E-01     -1.764062000000000E+02      6.520691000000000E-01     -9.217968000000000E+01
4809000000.000000      3.371735000000000E-01     -1.263984000000000E+02      3.553162000000000E-01     -6.430859000000000E+01      3.459930000000000E-01     -1.764609000000000E+02      6.516418000000000E-01     -9.237890000000000E+01
4810000000.000000      3.383636000000000E-01     -1.275469000000000E+02      3.599548000000000E-01     -6.430078000000000E+01      3.496399000000000E-01     -1.764609000000000E+02      6.520081000000000E-01     -9.242968000000000E+01
4811000000.000000      3.396454000000000E-01     -1.286797000000000E+02      3.635712000000000E-01     -6.471484000000000E+01      3.541260000000000E-01     -1.763594000000000E+02      6.510315000000000E-01     -9.243359000000000E+01
4812000000.000000      3.412476000000000E-01     -1.296875000000000E+02      3.678131000000000E-01     -6.478516000000000E+01      3.576508000000000E-01     -1.763125000000000E+02      6.510925000000000E-01     -9.255859000000000E+01
4813000000.000000      3.431091000000000E-01     -1.307266000000000E+02      3.711395000000000E-01     -6.510156000000000E+01      3.606567000000000E-01     -1.761797000000000E+02      6.513062000000000E-01     -9.250780000000000E+01
4814000000.000000      3.438263000000000E-01     -1.319609000000000E+02      3.748779000000000E-01     -6.544531000000000E+01      3.642273000000000E-01     -1.763672000000000E+02      6.510620000000000E-01     -9.267969000000000E+01
4815000000.000000      3.460083000000000E-01     -1.330156000000000E+02      3.784637000000000E-01     -6.548828000000000E+01      3.677368000000000E-01     -1.762187000000000E+02      6.504517000000000E-01     -9.278515000000000E+01
4816000000.000000      3.482666000000000E-01     -1.341406000000000E+02      3.835449000000000E-01     -6.581249000000000E+01      3.726807000000000E-01     -1.762422000000000E+02      6.512756000000000E-01     -9.282812000000000E+01
4817000000.000000      3.511353000000000E-01     -1.351563000000000E+02      3.871918000000000E-01     -6.613281000000000E+01      3.754578000000000E-01     -1.762812000000000E+02      6.509705000000000E-01     -9.298437000000000E+01
4818000000.000000      3.532715000000000E-01     -1.363203000000000E+02      3.899536000000000E-01     -6.650000000000000E+01      3.798828000000000E-01     -1.762578000000000E+02      6.519165000000000E-01     -9.304296000000000E+01
4819000000.000000      3.560486000000000E-01     -1.374687000000000E+02      3.935089000000000E-01     -6.669531000000000E+01      3.829651000000000E-01     -1.762422000000000E+02      6.533508000000000E-01     -9.319530000000000E+01
4820000000.000000      3.580322000000000E-01     -1.383672000000000E+02      3.978729000000000E-01     -6.695703000000000E+01      3.873901000000000E-01     -1.762734000000000E+02      6.530151000000000E-01     -9.318359000000000E+01
4821000000.000000      3.619995000000000E-01     -1.394766000000000E+02      4.013824000000000E-01     -6.715625000000000E+01      3.905792000000000E-01     -1.765391000000000E+02      6.530151000000000E-01     -9.342188000000000E+01
4822000000.000000      3.662109000000000E-01     -1.406094000000000E+02      4.044800000000000E-01     -6.757421000000000E+01      3.944244000000000E-01     -1.765000000000000E+02      6.553345000000000E-01     -9.345312000000000E+01
4823000000.000000      3.685150000000000E-01     -1.415937000000000E+02      4.078369000000000E-01     -6.776562000000000E+01      3.975372000000000E-01     -1.762500000000000E+02      6.557922000000000E-01     -9.348436000000000E+01
4824000000.000000      3.732605000000000E-01     -1.426953000000000E+02      4.114532000000000E-01     -6.817968000000000E+01      4.025726000000000E-01     -1.764844000000000E+02      6.563721000000000E-01     -9.360937000000000E+01
4825000000.000000      3.767700000000000E-01     -1.436484000000000E+02      4.141541000000000E-01     -6.841797000000000E+01      4.066467000000000E-01     -1.764297000000000E+02      6.584778000000000E-01     -9.352343000000000E+01
4826000000.000000      3.808441000000000E-01     -1.446250000000000E+02      4.186859000000000E-01     -6.868750000000000E+01      4.087830000000000E-01     -1.765000000000000E+02      6.599121000000000E-01     -9.371485000000000E+01
4827000000.000000      3.849335000000000E-01     -1.454375000000000E+02      4.212646000000000E-01     -6.898438000000000E+01      4.135742000000000E-01     -1.764297000000000E+02      6.608276000000000E-01     -9.367968000000000E+01
4828000000.000000      3.901215000000000E-01     -1.465312000000000E+02      4.254913000000000E-01     -6.920703000000000E+01      4.167328000000000E-01     -1.764844000000000E+02      6.629639000000000E-01     -9.379297000000000E+01
4829000000.000000      3.924561000000000E-01     -1.474375000000000E+02      4.282837000000000E-01     -6.952734000000000E+01      4.204865000000000E-01     -1.764844000000000E+02      6.626892000000000E-01     -9.382421000000000E+01
4830000000.000000      3.983002000000000E-01     -1.483750000000000E+02      4.309845000000000E-01     -7.001562000000000E+01      4.243469000000000E-01     -1.765312000000000E+02      6.651917000000000E-01     -9.402735000000000E+01
4831000000.000000      4.021149000000000E-01     -1.492969000000000E+02      4.340515000000000E-01     -7.025391000000000E+01      4.282990000000000E-01     -1.765547000000000E+02      6.671448000000000E-01     -9.401953000000000E+01
4832000000.000000      4.084930000000000E-01     -1.501719000000000E+02      4.374847000000000E-01     -7.056641000000000E+01      4.315186000000000E-01     -1.766875000000000E+02      6.687317000000000E-01     -9.414063000000000E+01
4833000000.000000      4.132996000000000E-01     -1.511406000000000E+02      4.407501000000000E-01     -7.069921000000000E+01      4.354553000000000E-01     -1.767266000000000E+02      6.704102000000000E-01     -9.417578000000000E+01
4834000000.000000      4.174500000000000E-01     -1.519687000000000E+02      4.435883000000000E-01     -7.125000000000000E+01      4.396210000000000E-01     -1.767734000000000E+02      6.709595000000000E-01     -9.428514000000000E+01
4835000000.000000      4.219818000000000E-01     -1.527344000000000E+02      4.468689000000000E-01     -7.155468000000000E+01      4.436493000000000E-01     -1.768047000000000E+02      6.733398000000000E-01     -9.437891000000000E+01
4836000000.000000      4.277802000000000E-01     -1.535703000000000E+02      4.494781000000000E-01     -7.176171000000000E+01      4.465790000000000E-01     -1.768516000000000E+02      6.753845000000000E-01     -9.430859000000000E+01
4837000000.000000      4.329681000000000E-01     -1.543125000000000E+02      4.518433000000000E-01     -7.234375000000000E+01      4.501495000000000E-01     -1.769687000000000E+02      6.763916000000000E-01     -9.441015000000000E+01
4838000000.000000      4.381866000000000E-01     -1.551797000000000E+02      4.560852000000000E-01     -7.242969000000000E+01      4.542847000000000E-01     -1.769922000000000E+02      6.799927000000000E-01     -9.444530000000000E+01
4839000000.000000      4.432831000000000E-01     -1.559141000000000E+02      4.570160000000000E-01     -7.260937000000000E+01      4.576874000000000E-01     -1.769922000000000E+02      6.815491000000000E-01     -9.452343000000000E+01
4840000000.000000      4.477692000000000E-01     -1.567344000000000E+02      4.602814000000000E-01     -7.306641000000000E+01      4.613800000000000E-01     -1.771172000000000E+02      6.834717000000000E-01     -9.461329000000000E+01
4841000000.000000      4.531555000000000E-01     -1.575391000000000E+02      4.632263000000000E-01     -7.346484000000000E+01      4.657440000000000E-01     -1.773438000000000E+02      6.855164000000000E-01     -9.460155000000000E+01
4842000000.000000      4.584656000000000E-01     -1.581953000000000E+02      4.653320000000000E-01     -7.379687000000000E+01      4.687805000000000E-01     -1.773594000000000E+02      6.886902000000000E-01     -9.470312000000000E+01
4843000000.000000      4.623566000000000E-01     -1.590078000000000E+02      4.681549000000000E-01     -7.419140000000000E+01      4.726257000000000E-01     -1.774609000000000E+02      6.912231000000000E-01     -9.458984000000000E+01
4844000000.000000      4.678345000000000E-01     -1.596094000000000E+02      4.701843000000000E-01     -7.436328000000000E+01      4.762878000000000E-01     -1.775547000000000E+02      6.940613000000000E-01     -9.478125000000000E+01
4845000000.000000      4.727020000000000E-01     -1.602813000000000E+02      4.725800000000000E-01     -7.471484000000000E+01      4.804840000000000E-01     -1.777109000000000E+02      6.954346000000000E-01     -9.476954000000000E+01
4846000000.000000      4.773712000000000E-01     -1.608594000000000E+02      4.748535000000000E-01     -7.505859000000000E+01      4.847412000000000E-01     -1.776641000000000E+02      6.990967000000000E-01     -9.486719000000000E+01
4847000000.000000      4.833832000000000E-01     -1.614844000000000E+02      4.769897000000000E-01     -7.542187000000000E+01      4.877625000000000E-01     -1.779297000000000E+02      7.026672000000000E-01     -9.500000000000000E+01
4848000000.000000      4.878845000000000E-01     -1.621641000000000E+02      4.791565000000000E-01     -7.570313000000000E+01      4.916992000000000E-01     -1.779531000000000E+02      7.036133000000000E-01     -9.501953000000000E+01
4849000000.000000      4.919891000000000E-01     -1.629609000000000E+02      4.810181000000000E-01     -7.616796000000000E+01      4.955444000000000E-01     -1.781797000000000E+02      7.055969000000000E-01     -9.503124000000000E+01
4850000000.000000      4.970703000000000E-01     -1.634140000000000E+02      4.836731000000000E-01     -7.621875000000000E+01      4.989624000000000E-01     -1.782031000000000E+02      7.084961000000000E-01     -9.509766000000000E+01
4851000000.000000      5.014038000000000E-01     -1.639766000000000E+02      4.863586000000000E-01     -7.676562000000000E+01      5.014038000000000E-01     -1.783359000000000E+02      7.114563000000000E-01     -9.504686000000000E+01
4852000000.000000      5.055237000000000E-01     -1.645469000000000E+02      4.871979000000000E-01     -7.707421000000000E+01      5.057983000000000E-01     -1.784062000000000E+02      7.156677000000000E-01     -9.513672000000000E+01
4853000000.000000      5.102844000000000E-01     -1.651250000000000E+02      4.874725000000000E-01     -7.733984000000000E+01      5.104065000000000E-01     -1.786797000000000E+02      7.175903000000000E-01     -9.528906000000000E+01
4854000000.000000      5.138550000000000E-01     -1.656719000000000E+02      4.907074000000000E-01     -7.781250000000000E+01      5.121765000000000E-01     -1.787969000000000E+02      7.217102000000000E-01     -9.520311000000000E+01
4855000000.000000      5.174561000000000E-01     -1.662031000000000E+02      4.912262000000000E-01     -7.805469000000000E+01      5.160217000000000E-01     -1.787734000000000E+02      7.236328000000000E-01     -9.530077000000000E+01
4856000000.000000      5.218506000000000E-01     -1.666641000000000E+02      4.939880000000000E-01     -7.811328000000000E+01      5.202942000000000E-01     -1.790234000000000E+02      7.264709000000000E-01     -9.537889000000000E+01
4857000000.000000      5.251465000000000E-01     -1.672500000000000E+02      4.979553000000000E-01     -7.851171000000000E+01      5.237427000000000E-01     -1.790937000000000E+02      7.287598000000000E-01     -9.534765000000000E+01
4858000000.000000      5.270081000000000E-01     -1.677891000000000E+02      4.979858000000000E-01     -7.891015000000000E+01      5.247192000000000E-01     -1.793594000000000E+02      7.315674000000000E-01     -9.549999000000000E+01
4859000000.000000      5.310669000000000E-01     -1.682812000000000E+02      4.993439000000000E-01     -7.914844000000000E+01      5.290527000000000E-01     -1.796797000000000E+02      7.352600000000000E-01     -9.560547000000000E+01
4860000000.000000      5.349426000000000E-01     -1.687266000000000E+02      5.009766000000000E-01     -7.962891000000000E+01      5.321655000000000E-01     -1.797422000000000E+02      7.372131000000000E-01     -9.555859000000000E+01
4861000000.000000      5.379944000000000E-01     -1.690938000000000E+02      5.019226000000000E-01     -7.994531000000000E+01      5.362854000000000E-01     -1.798594000000000E+02      7.404785000000000E-01     -9.561718000000000E+01
4862000000.000000      5.397034000000000E-01     -1.695625000000000E+02      5.033875000000000E-01     -7.999218000000000E+01      5.387268000000000E-01      1.799141000000000E+02      7.441711000000000E-01     -9.567968000000000E+01
4863000000.000000      5.415344000000000E-01     -1.699219000000000E+02      5.044556000000000E-01     -8.053125000000000E+01      5.421753000000000E-01      1.797344000000000E+02      7.470398000000000E-01     -9.581249000000000E+01
4864000000.000000      5.448608000000000E-01     -1.703281000000000E+02      5.068359000000000E-01     -8.057421000000000E+01      5.440369000000000E-01      1.796406000000000E+02      7.474670000000000E-01     -9.574610000000000E+01
4865000000.000000      5.460815000000000E-01     -1.708125000000000E+02      5.058594000000000E-01     -8.123438000000000E+01      5.466003000000000E-01      1.793906000000000E+02      7.510986000000000E-01     -9.576172000000000E+01
4866000000.000000      5.479736000000000E-01     -1.710938000000000E+02      5.069580000000000E-01     -8.117188000000000E+01      5.505981000000000E-01      1.791875000000000E+02      7.543640000000000E-01     -9.567968000000000E+01
4867000000.000000      5.498962000000000E-01     -1.714453000000000E+02      5.079346000000000E-01     -8.151562000000000E+01      5.520325000000000E-01      1.789531000000000E+02      7.571106000000000E-01     -9.589844000000000E+01
4868000000.000000      5.516052000000000E-01     -1.717969000000000E+02      5.098572000000000E-01     -8.177343000000000E+01      5.551453000000000E-01      1.787656000000000E+02      7.584229000000000E-01     -9.591797000000000E+01
4869000000.000000      5.521240000000000E-01     -1.720937000000000E+02      5.104980000000000E-01     -8.197657000000000E+01      5.581360000000000E-01      1.788203000000000E+02      7.619934000000000E-01     -9.600780000000000E+01
4870000000.000000      5.536499000000000E-01     -1.723516000000000E+02      5.109863000000000E-01     -8.214453000000000E+01      5.604858000000000E-01      1.784219000000000E+02      7.652588000000000E-01     -9.591406000000000E+01
4871000000.000000      5.558472000000000E-01     -1.727031000000000E+02      5.131836000000000E-01     -8.263672000000000E+01      5.610657000000000E-01      1.781797000000000E+02      7.666321000000000E-01     -9.617968000000000E+01
4872000000.000000      5.570984000000000E-01     -1.728906000000000E+02      5.123291000000000E-01     -8.255859000000000E+01      5.640259000000000E-01      1.779140000000000E+02      7.694702000000000E-01     -9.609375000000000E+01
4873000000.000000      5.576477000000000E-01     -1.730547000000000E+02      5.130920000000000E-01     -8.304296000000000E+01      5.659180000000000E-01      1.777969000000000E+02      7.716064000000000E-01     -9.618750000000000E+01
4874000000.000000      5.572510000000000E-01     -1.733750000000000E+02      5.136719000000000E-01     -8.324999000000000E+01      5.690308000000000E-01      1.776016000000000E+02      7.731018000000000E-01     -9.598436000000000E+01
4875000000.000000      5.591431000000000E-01     -1.736797000000000E+02      5.151062000000000E-01     -8.346874000000000E+01      5.711060000000000E-01      1.773281000000000E+02      7.749634000000000E-01     -9.624218000000000E+01
4876000000.000000      5.581055000000000E-01     -1.738594000000000E+02      5.148315000000000E-01     -8.359766000000000E+01      5.726929000000000E-01      1.772969000000000E+02      7.775879000000000E-01     -9.622656000000000E+01
4877000000.000000      5.584717000000000E-01     -1.739922000000000E+02      5.166016000000000E-01     -8.375391000000000E+01      5.743103000000000E-01      1.769609000000000E+02      7.791748000000000E-01     -9.637890000000000E+01
4878000000.000000      5.584717000000000E-01     -1.742500000000000E+02      5.165405000000000E-01     -8.403515000000000E+01      5.769653000000000E-01      1.767500000000000E+02      7.821960000000000E-01     -9.639452000000000E+01
4879000000.000000      5.602112000000000E-01     -1.743984000000000E+02      5.162659000000000E-01     -8.404688000000000E+01      5.779724000000000E-01      1.764609000000000E+02      7.841187000000000E-01     -9.632813000000000E+01
4880000000.000000      5.573425000000000E-01     -1.744141000000000E+02      5.188293000000000E-01     -8.441797000000000E+01      5.814514000000000E-01      1.764609000000000E+02      7.868652000000000E-01     -9.631639000000000E+01
4881000000.000000      5.584717000000000E-01     -1.746562000000000E+02      5.203552000000000E-01     -8.437109000000000E+01      5.834961000000000E-01      1.762109000000000E+02      7.883301000000000E-01     -9.659765000000000E+01
4882000000.000000      5.568542000000000E-01     -1.747578000000000E+02      5.215149000000000E-01     -8.467577000000000E+01      5.830994000000000E-01      1.762344000000000E+02      7.884827000000000E-01     -9.656639000000000E+01
