! Network Analyzer HP8722D
! Hewlett-Packard
! Data name: Linha com CNT
! Saver's name: Rodrigo Anjos
! Comments: Teste de deteccao de acetona 0-100ppm a partir de cilindro
! Time and date: 10/9/2025 17:47
!              Frequency                     S11                                                   S21                                                   S12                                                   S22
# HZ  S  MA R 50
3000000000.000000      1.311493000000000E-01      4.592382000000000E+01      4.077148000000000E-01      2.554688000000000E+01
3020000000.000000      1.513901000000000E-01      4.280469000000000E+01      4.097748000000000E-01     -3.474487000000000E+00
3040000000.000000      1.615906000000000E-01      3.549023000000000E+01      4.089203000000000E-01     -3.234961000000000E+01
3060000000.000000      1.583710000000000E-01      2.745117000000000E+01      4.081116000000000E-01     -6.105078000000000E+01
3080000000.000000      1.449051000000000E-01      2.162988000000000E+01      4.085083000000000E-01     -8.951952000000000E+01
3100000000.000000      1.309052000000000E-01      1.992578000000000E+01      4.046021000000000E-01     -1.179766000000000E+02
3120000000.000000      1.241837000000000E-01      2.158398000000000E+01      4.034119000000000E-01     -1.466797000000000E+02
3140000000.000000      1.227570000000000E-01      2.139941000000000E+01      3.981934000000000E-01     -1.751641000000000E+02
3160000000.000000      1.166573000000000E-01      1.920117000000000E+01      3.951263000000000E-01      1.563516000000000E+02
3180000000.000000      9.836960000000000E-02      1.889160000000000E+01      3.916168000000000E-01      1.277773000000000E+02
3200000000.000000      7.563782000000000E-02      3.143261000000000E+01      3.877106000000000E-01      9.840624000000000E+01
3220000000.000000      7.876587000000000E-02      6.121679000000000E+01      3.749237000000000E-01      6.935937000000000E+01
3240000000.000000      1.191063000000000E-01      7.433203000000000E+01      3.643036000000000E-01      4.247851000000000E+01
3260000000.000000      1.690903000000000E-01      7.137109000000000E+01      3.709106000000000E-01      1.542041000000000E+01
3280000000.000000      2.116623000000000E-01      6.197070000000000E+01      3.762054000000000E-01     -1.382080000000000E+01
3300000000.000000      2.409668000000000E-01      5.064648000000000E+01      3.736267000000000E-01     -4.243750000000000E+01
3320000000.000000      2.539063000000000E-01      3.937891000000000E+01      3.781586000000000E-01     -7.085155000000000E+01
3340000000.000000      2.529144000000000E-01      2.972070000000000E+01      3.833923000000000E-01     -9.955467000000000E+01
3360000000.000000      2.405243000000000E-01      2.218750000000000E+01      3.850708000000000E-01     -1.280547000000000E+02
3380000000.000000      2.247620000000000E-01      1.783594000000000E+01      3.882751000000000E-01     -1.566172000000000E+02
3400000000.000000      2.100372000000000E-01      1.538086000000000E+01      3.898926000000000E-01      1.746875000000000E+02
3420000000.000000      1.980209000000000E-01      1.398828000000000E+01      3.903351000000000E-01      1.457969000000000E+02
3440000000.000000      1.870041000000000E-01      1.296631000000000E+01      3.875427000000000E-01      1.169687000000000E+02
3460000000.000000      1.768723000000000E-01      1.253125000000000E+01      3.860626000000000E-01      8.884766000000000E+01
3480000000.000000      1.707382000000000E-01      1.279590000000000E+01      3.857269000000000E-01      5.984179000000000E+01
3500000000.000000      1.661911000000000E-01      1.340039000000000E+01      3.813171000000000E-01      3.110352000000000E+01
3520000000.000000      1.633759000000000E-01      1.378076000000000E+01      3.791351000000000E-01      2.801514000000000E+00
3540000000.000000      1.613464000000000E-01      1.453467000000000E+01      3.802490000000000E-01     -2.587305000000000E+01
3560000000.000000      1.588898000000000E-01      1.661621000000000E+01      3.812256000000000E-01     -5.485156000000000E+01
3580000000.000000      1.600800000000000E-01      1.961035000000000E+01      3.815155000000000E-01     -8.329296000000000E+01
3600000000.000000      1.678772000000000E-01      2.183105000000000E+01      3.803864000000000E-01     -1.114844000000000E+02
3620000000.000000      1.793671000000000E-01      2.163574000000000E+01      3.828278000000000E-01     -1.396563000000000E+02
3640000000.000000      1.877136000000000E-01      1.850976000000000E+01      3.831177000000000E-01     -1.680312000000000E+02
3660000000.000000      1.878281000000000E-01      1.384375000000000E+01      3.813782000000000E-01      1.640391000000000E+02
3680000000.000000      1.800842000000000E-01      1.045605000000000E+01      3.838654000000000E-01      1.360547000000000E+02
3700000000.000000      1.676254000000000E-01      1.017725000000000E+01      3.856659000000000E-01      1.076914000000000E+02
3720000000.000000      1.617126000000000E-01      1.383154000000000E+01      3.851318000000000E-01      7.924218000000000E+01
3740000000.000000      1.710663000000000E-01      1.781348000000000E+01      3.779907000000000E-01      5.053320000000000E+01
3760000000.000000      1.867828000000000E-01      1.804492000000000E+01      3.738708000000000E-01      2.301270000000000E+01
3780000000.000000      1.978989000000000E-01      1.402930000000000E+01      3.752441000000000E-01     -4.869873000000000E+00
3800000000.000000      1.975174000000000E-01      8.818848000000000E+00      3.736267000000000E-01     -3.331250000000000E+01
3820000000.000000      1.841049000000000E-01      5.002686000000000E+00      3.752441000000000E-01     -6.229687000000000E+01
3840000000.000000      1.693420000000000E-01      5.399658000000000E+00      3.733215000000000E-01     -9.119532000000000E+01
3860000000.000000      1.658325000000000E-01      9.382324000000000E+00      3.734436000000000E-01     -1.199531000000000E+02
3880000000.000000      1.765976000000000E-01      1.196924000000000E+01      3.697510000000000E-01     -1.493515000000000E+02
3900000000.000000      1.914673000000000E-01      1.012207000000000E+01      3.636017000000000E-01     -1.773125000000000E+02
3920000000.000000      1.964951000000000E-01      5.274658000000000E+00      3.655701000000000E-01      1.550156000000000E+02
3940000000.000000      1.852722000000000E-01      1.005249000000000E+00      3.713226000000000E-01      1.265156000000000E+02
3960000000.000000      1.669312000000000E-01      1.533936000000000E+00      3.702545000000000E-01      9.732811000000000E+01
3980000000.000000      1.582794000000000E-01      8.249023000000000E+00      3.626862000000000E-01      6.883594000000000E+01
4000000000.000000      1.734695000000000E-01      1.468311000000000E+01      3.570557000000000E-01      4.215039000000000E+01
4020000000.000000      2.031708000000000E-01      1.411865000000000E+01      3.651733000000000E-01      1.433838000000000E+01
4040000000.000000      2.298126000000000E-01      7.123047000000000E+00      3.658295000000000E-01     -1.582471000000000E+01
4060000000.000000      2.379837000000000E-01     -2.624390000000000E+00      3.534241000000000E-01     -4.444140000000000E+01
4080000000.000000      2.238235000000000E-01     -1.281445000000000E+01      3.527679000000000E-01     -7.174609000000000E+01
4100000000.000000      1.911011000000000E-01     -1.977344000000000E+01      3.602295000000000E-01     -1.005195000000000E+02
4120000000.000000      1.540375000000000E-01     -1.901367000000000E+01      3.585052000000000E-01     -1.307109000000000E+02
4140000000.000000      1.355972000000000E-01     -1.003467000000000E+01      3.527985000000000E-01     -1.595000000000000E+02
4160000000.000000      1.397934000000000E-01     -1.891052000000000E+00      3.531647000000000E-01      1.730547000000000E+02
4180000000.000000      1.519699000000000E-01      3.707886000000000E-02      3.592834000000000E-01      1.441641000000000E+02
4200000000.000000      1.548157000000000E-01     -1.468079000000000E+00      3.585052000000000E-01      1.144375000000000E+02
4220000000.000000      1.519394000000000E-01     -1.295044000000000E+00      3.543701000000000E-01      8.566406000000000E+01
4240000000.000000      1.495590000000000E-01      3.043213000000000E+00      3.492737000000000E-01      5.690039000000000E+01
4260000000.000000      1.611099000000000E-01      8.048828000000000E+00      3.439026000000000E-01      2.897168000000000E+01
4280000000.000000      1.829071000000000E-01      8.977051000000000E+00      3.459625000000000E-01      9.049988000000000E-01
4300000000.000000      2.025681000000000E-01      5.214355000000000E+00      3.425293000000000E-01     -2.792187000000000E+01
4320000000.000000      2.112122000000000E-01     -4.847717000000000E-01      3.409729000000000E-01     -5.659374000000000E+01
4340000000.000000      2.067337000000000E-01     -5.710205000000000E+00      3.404388000000000E-01     -8.561327000000000E+01
4360000000.000000      1.969070000000000E-01     -7.789307000000000E+00      3.391113000000000E-01     -1.151992000000000E+02
4380000000.000000      1.922455000000000E-01     -6.972412000000000E+00      3.361053000000000E-01     -1.446016000000000E+02
4400000000.000000      1.989517000000000E-01     -6.212891000000000E+00      3.329773000000000E-01     -1.737656000000000E+02
4420000000.000000      2.098236000000000E-01     -8.203125000000000E+00      3.353882000000000E-01      1.574453000000000E+02
4440000000.000000      2.129669000000000E-01     -1.275537000000000E+01      3.374939000000000E-01      1.277578000000000E+02
4460000000.000000      2.035828000000000E-01     -1.649805000000000E+01      3.329315000000000E-01      9.809765000000000E+01
4480000000.000000      1.855621000000000E-01     -1.667187000000000E+01      3.304138000000000E-01      6.979687000000000E+01
4500000000.000000      1.765060000000000E-01     -1.204541000000000E+01      3.278961000000000E-01      4.094140000000000E+01
4520000000.000000      1.866074000000000E-01     -6.534180000000000E+00      3.249664000000000E-01      1.166992000000000E+01
4540000000.000000      2.106323000000000E-01     -6.041260000000000E+00      3.164978000000000E-01     -1.744922000000000E+01
4560000000.000000      2.341003000000000E-01     -9.981445000000000E+00      3.125000000000000E-01     -4.551758000000000E+01
4580000000.000000      2.473679000000000E-01     -1.619531000000000E+01      3.138428000000000E-01     -7.517968000000000E+01
4600000000.000000      2.491684000000000E-01     -2.184863000000000E+01      3.115234000000000E-01     -1.053789000000000E+02
4620000000.000000      2.444687000000000E-01     -2.590625000000000E+01      3.071594000000000E-01     -1.347344000000000E+02
4640000000.000000      2.417145000000000E-01     -2.829004000000000E+01      3.061218000000000E-01     -1.645078000000000E+02
4660000000.000000      2.433777000000000E-01     -3.061523000000000E+01      3.051910000000000E-01      1.663125000000000E+02
4680000000.000000      2.468796000000000E-01     -3.434179000000000E+01      3.101501000000000E-01      1.370859000000000E+02
4700000000.000000      2.458267000000000E-01     -3.934765000000000E+01      3.102264000000000E-01      1.073438000000000E+02
4720000000.000000      2.371445000000000E-01     -4.483594000000000E+01      3.079071000000000E-01      7.941796000000000E+01
4740000000.000000      2.246246000000000E-01     -4.994335000000000E+01      3.135223000000000E-01      5.131054000000000E+01
4760000000.000000      2.073135000000000E-01     -5.457812000000000E+01      3.128357000000000E-01      2.271973000000000E+01
4780000000.000000      1.882324000000000E-01     -5.885937000000000E+01      3.096008000000000E-01     -5.679932000000000E+00
4800000000.000000      1.644821000000000E-01     -6.331640000000000E+01      3.053589000000000E-01     -3.430078000000000E+01
4820000000.000000      1.289673000000000E-01     -6.649219000000000E+01      2.967529000000000E-01     -6.315234000000000E+01
4840000000.000000      8.580780000000000E-02     -5.791210000000000E+01      2.887726000000000E-01     -9.208593000000000E+01
4860000000.000000      7.096481000000000E-02     -2.092968000000000E+01      2.819061000000000E-01     -1.222890000000000E+02
4880000000.000000      1.148415000000000E-01      3.606201000000000E+00      2.634430000000000E-01     -1.531406000000000E+02
4900000000.000000      1.765747000000000E-01      2.173828000000000E+00      2.430191000000000E-01      1.799219000000000E+02
4920000000.000000      2.330170000000000E-01     -7.205811000000000E+00      2.453537000000000E-01      1.546953000000000E+02
4940000000.000000      2.725525000000000E-01     -1.870312000000000E+01      2.591553000000000E-01      1.260469000000000E+02
4960000000.000000      2.922668000000000E-01     -3.110547000000000E+01      2.639008000000000E-01      9.598436000000000E+01
4980000000.000000      2.888794000000000E-01     -4.300000000000000E+01      2.700653000000000E-01      6.843359000000000E+01
5000000000.000000      2.637482000000000E-01     -5.257617000000000E+01      2.845154000000000E-01      4.040625000000000E+01
5020000000.000000      2.282410000000000E-01     -5.741796000000000E+01      2.924347000000000E-01      1.177002000000000E+01
5040000000.000000      1.983185000000000E-01     -5.623828000000000E+01      2.979889000000000E-01     -1.550586000000000E+01
5060000000.000000      1.884766000000000E-01     -5.115820000000000E+01      3.046875000000000E-01     -4.256836000000000E+01
5080000000.000000      1.950836000000000E-01     -4.776757000000000E+01      3.112183000000000E-01     -7.077343000000000E+01
5100000000.000000      2.063828000000000E-01     -4.799024000000000E+01      3.058929000000000E-01     -9.920311000000000E+01
5120000000.000000      2.133560000000000E-01     -5.022461000000000E+01      3.015900000000000E-01     -1.265898000000000E+02
5140000000.000000      2.176514000000000E-01     -5.272070000000000E+01      3.004761000000000E-01     -1.549687000000000E+02
5160000000.000000      2.205505000000000E-01     -5.477539000000000E+01      2.966461000000000E-01      1.757578000000000E+02
5180000000.000000      2.255402000000000E-01     -5.735937000000000E+01      2.935486000000000E-01      1.459922000000000E+02
5200000000.000000      2.294922000000000E-01     -6.046093000000000E+01      2.912598000000000E-01      1.160312000000000E+02
5220000000.000000      2.284317000000000E-01     -6.395312000000000E+01      2.916412000000000E-01      8.639843000000000E+01
5240000000.000000      2.233200000000000E-01     -6.635547000000000E+01      2.960663000000000E-01      5.655468000000000E+01
5260000000.000000      2.171402000000000E-01     -6.760156000000000E+01      3.005371000000000E-01      2.697070000000000E+01
5280000000.000000      2.126465000000000E-01     -6.757030000000000E+01      3.044128000000000E-01     -2.182251000000000E+00
5300000000.000000      2.148590000000000E-01     -6.781640000000000E+01      3.068848000000000E-01     -3.021679000000000E+01
5320000000.000000      2.183533000000000E-01     -6.950000000000000E+01      3.118286000000000E-01     -5.741601000000000E+01
5340000000.000000      2.191315000000000E-01     -7.220312000000000E+01      3.148956000000000E-01     -8.509375000000000E+01
5360000000.000000      2.157593000000000E-01     -7.492188000000000E+01      3.110809000000000E-01     -1.125430000000000E+02
5380000000.000000      2.113037000000000E-01     -7.652344000000000E+01      3.078308000000000E-01     -1.391172000000000E+02
5400000000.000000      2.095642000000000E-01     -7.683984000000000E+01      3.053284000000000E-01     -1.668516000000000E+02
5420000000.000000      2.169189000000000E-01     -7.662109000000000E+01      2.997284000000000E-01      1.651328000000000E+02
5440000000.000000      2.272644000000000E-01     -7.815624000000000E+01      2.944336000000000E-01      1.360937000000000E+02
5460000000.000000      2.360306000000000E-01     -8.183203000000000E+01      2.852173000000000E-01      1.065117000000000E+02
5480000000.000000      2.373581000000000E-01     -8.657421000000000E+01      2.804718000000000E-01      7.705468000000000E+01
5500000000.000000      2.275543000000000E-01     -9.150391000000000E+01      2.819824000000000E-01      4.719140000000000E+01
5520000000.000000      2.107925000000000E-01     -9.509375000000000E+01      2.834320000000000E-01      1.683301000000000E+01
5540000000.000000      1.946945000000000E-01     -9.641014000000000E+01      2.869415000000000E-01     -1.307129000000000E+01
5560000000.000000      1.817551000000000E-01     -9.643358000000000E+01      2.913513000000000E-01     -4.197656000000000E+01
5580000000.000000      1.728439000000000E-01     -9.543749000000000E+01      2.975311000000000E-01     -7.046093000000000E+01
5600000000.000000      1.663971000000000E-01     -9.396484000000000E+01      3.016815000000000E-01     -9.843359000000000E+01
5620000000.000000      1.634827000000000E-01     -9.088282000000000E+01      3.041992000000000E-01     -1.260820000000000E+02
5640000000.000000      1.675797000000000E-01     -8.628515000000000E+01      3.022766000000000E-01     -1.536641000000000E+02
5660000000.000000      1.829453000000000E-01     -8.307421000000000E+01      2.967682000000000E-01      1.794062000000000E+02
5680000000.000000      2.063599000000000E-01     -8.353125000000000E+01      2.907715000000000E-01      1.515625000000000E+02
5700000000.000000      2.294464000000000E-01     -8.841015000000000E+01      2.797852000000000E-01      1.236211000000000E+02
5720000000.000000      2.414246000000000E-01     -9.599218000000000E+01      2.702026000000000E-01      9.586329000000000E+01
5740000000.000000      2.382202000000000E-01     -1.043672000000000E+02      2.663727000000000E-01      6.699609000000000E+01
5760000000.000000      2.204285000000000E-01     -1.112187000000000E+02      2.629547000000000E-01      3.608593000000000E+01
5780000000.000000      1.961746000000000E-01     -1.144258000000000E+02      2.580109000000000E-01      5.208740000000000E+00
5800000000.000000      1.787567000000000E-01     -1.128984000000000E+02      2.578735000000000E-01     -2.481054000000000E+01
5820000000.000000      1.772766000000000E-01     -1.099844000000000E+02      2.639771000000000E-01     -5.482812000000000E+01
5840000000.000000      1.854401000000000E-01     -1.106055000000000E+02      2.717896000000000E-01     -8.535156000000000E+01
5860000000.000000      1.919708000000000E-01     -1.145937000000000E+02      2.727966000000000E-01     -1.145508000000000E+02
5880000000.000000      1.893387000000000E-01     -1.206797000000000E+02      2.751617000000000E-01     -1.418672000000000E+02
5900000000.000000      1.764297000000000E-01     -1.255547000000000E+02      2.818146000000000E-01     -1.691562000000000E+02
5920000000.000000      1.607666000000000E-01     -1.271406000000000E+02      2.847443000000000E-01      1.628594000000000E+02
5940000000.000000      1.511078000000000E-01     -1.255273000000000E+02      2.787781000000000E-01      1.343516000000000E+02
5960000000.000000      1.468735000000000E-01     -1.249453000000000E+02      2.669220000000000E-01      1.069062000000000E+02
5980000000.000000      1.406479000000000E-01     -1.263047000000000E+02      2.593689000000000E-01      7.958202000000000E+01
6000000000.000000      1.247673000000000E-01     -1.285000000000000E+02      2.544250000000000E-01      4.997265000000000E+01
6020000000.000000      1.017265000000000E-01     -1.256328000000000E+02      2.438507000000000E-01      1.909082000000000E+01
6040000000.000000      8.705521000000000E-02     -1.127422000000000E+02      2.316055000000000E-01     -1.107422000000000E+01
6060000000.000000      9.492874000000000E-02     -9.680468000000000E+01      2.273483000000000E-01     -4.095703000000000E+01
6080000000.000000      1.206856000000000E-01     -9.194530000000000E+01      2.334366000000000E-01     -7.131249000000000E+01
