! Network Analyzer HP8722D
! Hewlett-Packard
! Data name: Linha com CNT
! Saver's name: Rodrigo Anjos
! Comments: Teste de deteccao de acetona 0-100ppm a partir de cilindro
! Time and date: 10/9/2025 18:34
!              Frequency                     S11                                                   S21                                                   S12                                                   S22
# HZ  S  MA R 50
3000000000.000000      8.182907000000000E-02      9.104687000000000E+01      4.553375000000000E-01      2.488086000000000E+01
3020000000.000000      9.607315000000000E-02      7.648046000000000E+01      4.552612000000000E-01     -3.984009000000000E+00
3040000000.000000      9.601974000000000E-02      6.051758000000000E+01      4.554138000000000E-01     -3.302734000000000E+01
3060000000.000000      8.238220000000000E-02      4.638867000000000E+01      4.535217000000000E-01     -6.128515000000000E+01
3080000000.000000      6.159973000000000E-02      3.773242000000000E+01      4.531860000000000E-01     -9.010937000000000E+01
3100000000.000000      4.446220000000000E-02      4.137695000000000E+01      4.518738000000000E-01     -1.185898000000000E+02
3120000000.000000      4.004669000000000E-02      5.444140000000000E+01      4.487457000000000E-01     -1.470937000000000E+02
3140000000.000000      3.973007000000000E-02      5.793163000000000E+01      4.453278000000000E-01     -1.756250000000000E+02
3160000000.000000      3.133392000000000E-02      6.078320000000000E+01      4.419556000000000E-01      1.561406000000000E+02
3180000000.000000      2.232552000000000E-02      1.088594000000000E+02      4.407043000000000E-01      1.274805000000000E+02
3200000000.000000      5.425072000000000E-02      1.425390000000000E+02      4.352417000000000E-01      9.807812000000000E+01
3220000000.000000      1.052856000000000E-01      1.361250000000000E+02      4.235077000000000E-01      6.856250000000000E+01
3240000000.000000      1.560287000000000E-01      1.214492000000000E+02      4.118652000000000E-01      4.130078000000000E+01
3260000000.000000      1.975250000000000E-01      1.050352000000000E+02      4.149475000000000E-01      1.388379000000000E+01
3280000000.000000      2.240829000000000E-01      8.819139000000000E+01      4.193726000000000E-01     -1.549658000000000E+01
3300000000.000000      2.327118000000000E-01      7.184375000000000E+01      4.144135000000000E-01     -4.405859000000000E+01
3320000000.000000      2.266464000000000E-01      5.701757000000000E+01      4.166870000000000E-01     -7.185937000000000E+01
3340000000.000000      2.101059000000000E-01      4.450585000000000E+01      4.212952000000000E-01     -1.005156000000000E+02
3360000000.000000      1.860886000000000E-01      3.540039000000000E+01      4.235077000000000E-01     -1.289766000000000E+02
3380000000.000000      1.626892000000000E-01      3.057324000000000E+01      4.272156000000000E-01     -1.571719000000000E+02
3400000000.000000      1.436691000000000E-01      2.867090000000000E+01      4.306030000000000E-01      1.739453000000000E+02
3420000000.000000      1.294174000000000E-01      2.868164000000000E+01      4.319000000000000E-01      1.453594000000000E+02
3440000000.000000      1.168556000000000E-01      2.911621000000000E+01      4.307251000000000E-01      1.166328000000000E+02
3460000000.000000      1.056290000000000E-01      3.098926000000000E+01      4.279327000000000E-01      8.837500000000000E+01
3480000000.000000      9.900665000000000E-02      3.371679000000000E+01      4.295654000000000E-01      5.936718000000000E+01
3500000000.000000      9.623718000000000E-02      3.702929000000000E+01      4.246521000000000E-01      3.029590000000000E+01
3520000000.000000      9.485245000000000E-02      3.979687000000000E+01      4.218292000000000E-01      2.286499000000000E+00
3540000000.000000      9.526062000000000E-02      4.335156000000000E+01      4.252014000000000E-01     -2.615039000000000E+01
3560000000.000000      9.784317000000000E-02      4.868945000000000E+01      4.263000000000000E-01     -5.544531000000000E+01
3580000000.000000      1.065216000000000E-01      5.365429000000000E+01      4.252777000000000E-01     -8.410936000000000E+01
3600000000.000000      1.212425000000000E-01      5.445898000000000E+01      4.235382000000000E-01     -1.121836000000000E+02
3620000000.000000      1.344757000000000E-01      5.088867000000000E+01      4.247131000000000E-01     -1.404687000000000E+02
3640000000.000000      1.395493000000000E-01      4.470508000000000E+01      4.250946000000000E-01     -1.687969000000000E+02
3660000000.000000      1.333313000000000E-01      3.796289000000000E+01      4.253693000000000E-01      1.632813000000000E+02
3680000000.000000      1.197472000000000E-01      3.496289000000000E+01      4.282379000000000E-01      1.355703000000000E+02
3700000000.000000      1.078072000000000E-01      3.883203000000000E+01      4.302063000000000E-01      1.070508000000000E+02
3720000000.000000      1.104050000000000E-01      4.734571000000000E+01      4.284668000000000E-01      7.853125000000000E+01
3740000000.000000      1.288071000000000E-01      5.040429000000000E+01      4.210968000000000E-01      5.006249000000000E+01
3760000000.000000      1.474838000000000E-01      4.631249000000000E+01      4.146881000000000E-01      2.212500000000000E+01
3780000000.000000      1.537018000000000E-01      3.883789000000000E+01      4.149780000000000E-01     -5.562012000000000E+00
3800000000.000000      1.450653000000000E-01      3.170605000000000E+01      4.171143000000000E-01     -3.405468000000000E+01
3820000000.000000      1.258163000000000E-01      2.901758000000000E+01      4.165497000000000E-01     -6.287499000000000E+01
3840000000.000000      1.120224000000000E-01      3.483593000000000E+01      4.156799000000000E-01     -9.178125000000000E+01
3860000000.000000      1.182404000000000E-01      4.271680000000000E+01      4.154968000000000E-01     -1.207344000000000E+02
3880000000.000000      1.375275000000000E-01      4.335156000000000E+01      4.136810000000000E-01     -1.500391000000000E+02
3900000000.000000      1.514282000000000E-01      3.732422000000000E+01      4.049377000000000E-01     -1.783828000000000E+02
3920000000.000000      1.483688000000000E-01      2.985352000000000E+01      4.059448000000000E-01      1.544219000000000E+02
3940000000.000000      1.299515000000000E-01      2.641504000000000E+01      4.138641000000000E-01      1.258476000000000E+02
3960000000.000000      1.131630000000000E-01      3.299023000000000E+01      4.124146000000000E-01      9.676561000000000E+01
3980000000.000000      1.201782000000000E-01      4.579883000000000E+01      4.053955000000000E-01      6.786718000000000E+01
4000000000.000000      1.516190000000000E-01      4.858593000000000E+01      3.988800000000000E-01      4.109571000000000E+01
4020000000.000000      1.837921000000000E-01      4.124804000000000E+01      4.046021000000000E-01      1.337158000000000E+01
4040000000.000000      2.005920000000000E-01      2.868359000000000E+01      4.049683000000000E-01     -1.668066000000000E+01
4060000000.000000      1.939163000000000E-01      1.497021000000000E+01      3.919220000000000E-01     -4.543359000000000E+01
4080000000.000000      1.633224000000000E-01      2.113403000000000E+00      3.905792000000000E-01     -7.230078000000000E+01
4100000000.000000      1.178093000000000E-01     -4.360352000000000E+00      4.010773000000000E-01     -1.011914000000000E+02
4120000000.000000      7.836533000000000E-02      7.579102000000000E+00      3.984833000000000E-01     -1.309453000000000E+02
4140000000.000000      7.934952000000000E-02      3.507421000000000E+01      3.937531000000000E-01     -1.598047000000000E+02
4160000000.000000      1.031036000000000E-01      4.322070000000000E+01      3.938446000000000E-01      1.722188000000000E+02
4180000000.000000      1.200562000000000E-01      4.027344000000000E+01      4.010925000000000E-01      1.434375000000000E+02
4200000000.000000      1.220741000000000E-01      3.728711000000000E+01      4.018707000000000E-01      1.134141000000000E+02
4220000000.000000      1.212769000000000E-01      3.929492000000000E+01      3.937378000000000E-01      8.448437000000000E+01
4240000000.000000      1.308212000000000E-01      4.478125000000000E+01      3.892822000000000E-01      5.613476000000000E+01
4260000000.000000      1.560059000000000E-01      4.607617000000000E+01      3.863525000000000E-01      2.805176000000000E+01
4280000000.000000      1.815262000000000E-01      4.143359000000000E+01      3.849792000000000E-01     -2.018738000000000E-01
4300000000.000000      1.965332000000000E-01      3.348633000000000E+01      3.823242000000000E-01     -2.927051000000000E+01
4320000000.000000      1.952209000000000E-01      2.562207000000000E+01      3.794556000000000E-01     -5.785156000000000E+01
4340000000.000000      1.818924000000000E-01      2.025586000000000E+01      3.794403000000000E-01     -8.673437000000000E+01
4360000000.000000      1.688614000000000E-01      1.975586000000000E+01      3.762207000000000E-01     -1.161328000000000E+02
4380000000.000000      1.682892000000000E-01      2.205469000000000E+01      3.742371000000000E-01     -1.455469000000000E+02
4400000000.000000      1.795425000000000E-01      2.167383000000000E+01      3.703308000000000E-01     -1.748125000000000E+02
4420000000.000000      1.885452000000000E-01      1.737402000000000E+01      3.716278000000000E-01      1.565391000000000E+02
4440000000.000000      1.851730000000000E-01      1.166602000000000E+01      3.741150000000000E-01      1.267930000000000E+02
4460000000.000000      1.686401000000000E-01      8.968750000000000E+00      3.680725000000000E-01      9.708984000000000E+01
4480000000.000000      1.517029000000000E-01      1.262305000000000E+01      3.655090000000000E-01      6.893749000000000E+01
4500000000.000000      1.545029000000000E-01      2.113281000000000E+01      3.649597000000000E-01      3.984179000000000E+01
4520000000.000000      1.794662000000000E-01      2.466406000000000E+01      3.618164000000000E-01      1.053564000000000E+01
4540000000.000000      2.092133000000000E-01      2.070899000000000E+01      3.529205000000000E-01     -1.890820000000000E+01
4560000000.000000      2.284088000000000E-01      1.297070000000000E+01      3.462067000000000E-01     -4.716210000000000E+01
4580000000.000000      2.332077000000000E-01      4.383545000000000E+00      3.463898000000000E-01     -7.625781000000000E+01
4600000000.000000      2.259598000000000E-01     -2.658691000000000E+00      3.454132000000000E-01     -1.065859000000000E+02
4620000000.000000      2.148895000000000E-01     -6.920166000000000E+00      3.379822000000000E-01     -1.360078000000000E+02
4640000000.000000      2.093735000000000E-01     -9.486816000000000E+00      3.376770000000000E-01     -1.653750000000000E+02
4660000000.000000      2.083282000000000E-01     -1.250830000000000E+01      3.374786000000000E-01      1.654844000000000E+02
4680000000.000000      2.076035000000000E-01     -1.746973000000000E+01      3.417664000000000E-01      1.364375000000000E+02
4700000000.000000      1.994095000000000E-01     -2.395996000000000E+01      3.403931000000000E-01      1.066640000000000E+02
4720000000.000000      1.828995000000000E-01     -3.057910000000000E+01      3.374023000000000E-01      7.875781000000000E+01
4740000000.000000      1.625366000000000E-01     -3.639257000000000E+01      3.436432000000000E-01      5.079492000000000E+01
4760000000.000000      1.387787000000000E-01     -4.123632000000000E+01      3.449554000000000E-01      2.220801000000000E+01
4780000000.000000      1.134682000000000E-01     -4.531836000000000E+01      3.413391000000000E-01     -6.292480000000000E+00
4800000000.000000      8.124161000000000E-02     -4.888085000000000E+01      3.380890000000000E-01     -3.493555000000000E+01
4820000000.000000      3.898430000000000E-02     -3.981054000000000E+01      3.312836000000000E-01     -6.392187000000000E+01
4840000000.000000      3.996277000000000E-02      5.039453000000000E+01      3.253174000000000E-01     -9.287109000000000E+01
4860000000.000000      1.063004000000000E-01      5.845117000000000E+01      3.187103000000000E-01     -1.235156000000000E+02
4880000000.000000      1.766663000000000E-01      4.658789000000000E+01      2.988129000000000E-01     -1.545625000000000E+02
4900000000.000000      2.360458000000000E-01      3.157324000000000E+01      2.764740000000000E-01      1.779531000000000E+02
4920000000.000000      2.780609000000000E-01      1.561670000000000E+01      2.769012000000000E-01      1.526875000000000E+02
4940000000.000000      2.981720000000000E-01      2.430725000000000E-01      2.896118000000000E-01      1.241367000000000E+02
4960000000.000000      2.955017000000000E-01     -1.453369000000000E+01      2.928925000000000E-01      9.428905000000000E+01
4980000000.000000      2.689056000000000E-01     -2.784961000000000E+01      2.978363000000000E-01      6.716406000000000E+01
5000000000.000000      2.265396000000000E-01     -3.763281000000000E+01      3.107147000000000E-01      3.955664000000000E+01
5020000000.000000      1.799011000000000E-01     -4.004687000000000E+01      3.213959000000000E-01      1.122070000000000E+01
5040000000.000000      1.502991000000000E-01     -3.326953000000000E+01      3.287354000000000E-01     -1.615625000000000E+01
5060000000.000000      1.519089000000000E-01     -2.368262000000000E+01      3.372955000000000E-01     -4.348828000000000E+01
5080000000.000000      1.684036000000000E-01     -2.071289000000000E+01      3.424225000000000E-01     -7.187500000000000E+01
5100000000.000000      1.813431000000000E-01     -2.306347000000000E+01      3.372803000000000E-01     -1.005703000000000E+02
5120000000.000000      1.868820000000000E-01     -2.693164000000000E+01      3.325500000000000E-01     -1.280313000000000E+02
5140000000.000000      1.880341000000000E-01     -3.026269000000000E+01      3.314362000000000E-01     -1.562734000000000E+02
5160000000.000000      1.889191000000000E-01     -3.313867000000000E+01      3.291016000000000E-01      1.742969000000000E+02
5180000000.000000      1.911392000000000E-01     -3.630273000000000E+01      3.253021000000000E-01      1.448594000000000E+02
5200000000.000000      1.924973000000000E-01     -4.060156000000000E+01      3.245087000000000E-01      1.149687000000000E+02
5220000000.000000      1.869583000000000E-01     -4.440430000000000E+01      3.236542000000000E-01      8.550390000000000E+01
5240000000.000000      1.785507000000000E-01     -4.663476000000000E+01      3.276672000000000E-01      5.589257000000000E+01
5260000000.000000      1.721573000000000E-01     -4.671484000000000E+01      3.318024000000000E-01      2.636133000000000E+01
5280000000.000000      1.702652000000000E-01     -4.572266000000000E+01      3.360901000000000E-01     -2.716431000000000E+00
5300000000.000000      1.744614000000000E-01     -4.625000000000000E+01      3.381348000000000E-01     -3.100293000000000E+01
5320000000.000000      1.777802000000000E-01     -4.892968000000000E+01      3.417358000000000E-01     -5.821484000000000E+01
5340000000.000000      1.755753000000000E-01     -5.235546000000000E+01      3.464661000000000E-01     -8.615625000000000E+01
5360000000.000000      1.689224000000000E-01     -5.554296000000000E+01      3.409424000000000E-01     -1.136523000000000E+02
5380000000.000000      1.621857000000000E-01     -5.665820000000000E+01      3.374481000000000E-01     -1.401484000000000E+02
5400000000.000000      1.618042000000000E-01     -5.614062000000000E+01      3.379364000000000E-01     -1.678516000000000E+02
5420000000.000000      1.699905000000000E-01     -5.624023000000000E+01      3.311310000000000E-01      1.638672000000000E+02
5440000000.000000      1.809158000000000E-01     -5.900391000000000E+01      3.262482000000000E-01      1.348438000000000E+02
5460000000.000000      1.866150000000000E-01     -6.459374000000000E+01      3.170471000000000E-01      1.053203000000000E+02
5480000000.000000      1.817932000000000E-01     -7.102734000000000E+01      3.114777000000000E-01      7.604687000000000E+01
5500000000.000000      1.656265000000000E-01     -7.660546000000000E+01      3.129425000000000E-01      4.670312000000000E+01
5520000000.000000      1.445694000000000E-01     -7.966406000000000E+01      3.142395000000000E-01      1.642285000000000E+01
5540000000.000000      1.268768000000000E-01     -7.869922000000000E+01      3.182220000000000E-01     -1.308887000000000E+01
5560000000.000000      1.145973000000000E-01     -7.559375000000000E+01      3.229065000000000E-01     -4.218750000000000E+01
5580000000.000000      1.086235000000000E-01     -7.105078000000000E+01      3.291473000000000E-01     -7.076562000000000E+01
5600000000.000000      1.061859000000000E-01     -6.601563000000000E+01      3.331146000000000E-01     -9.880077000000000E+01
5620000000.000000      1.098366000000000E-01     -5.902929000000000E+01      3.346710000000000E-01     -1.267344000000000E+02
5640000000.000000      1.245651000000000E-01     -5.290039000000000E+01      3.334198000000000E-01     -1.544688000000000E+02
5660000000.000000      1.487198000000000E-01     -5.239843000000000E+01      3.278351000000000E-01      1.781875000000000E+02
5680000000.000000      1.750565000000000E-01     -5.756836000000000E+01      3.213654000000000E-01      1.502109000000000E+02
5700000000.000000      1.931992000000000E-01     -6.722656000000000E+01      3.105316000000000E-01      1.218476000000000E+02
5720000000.000000      1.964111000000000E-01     -7.844921000000000E+01      2.987061000000000E-01      9.428514000000000E+01
5740000000.000000      1.824493000000000E-01     -8.980469000000000E+01      2.957153000000000E-01      6.580468000000000E+01
5760000000.000000      1.554871000000000E-01     -9.818359000000000E+01      2.922821000000000E-01      3.533398000000000E+01
5780000000.000000      1.265411000000000E-01     -9.955858000000000E+01      2.880249000000000E-01      5.248535000000000E+00
5800000000.000000      1.108780000000000E-01     -9.271484000000000E+01      2.895203000000000E-01     -2.473633000000000E+01
5820000000.000000      1.153145000000000E-01     -8.685547000000000E+01      2.937927000000000E-01     -5.477929000000000E+01
5840000000.000000      1.258011000000000E-01     -8.943750000000000E+01      3.014221000000000E-01     -8.509375000000000E+01
5860000000.000000      1.273651000000000E-01     -9.714062000000000E+01      3.011017000000000E-01     -1.144258000000000E+02
5880000000.000000      1.169815000000000E-01     -1.067930000000000E+02      3.005066000000000E-01     -1.416016000000000E+02
5900000000.000000      9.781265000000000E-02     -1.131758000000000E+02      3.095551000000000E-01     -1.689609000000000E+02
5920000000.000000      7.770920000000000E-02     -1.114023000000000E+02      3.135529000000000E-01      1.626484000000000E+02
5940000000.000000      7.064438000000000E-02     -1.017344000000000E+02      3.084106000000000E-01      1.337188000000000E+02
5960000000.000000      6.993103000000000E-02     -9.624218000000000E+01      2.962646000000000E-01      1.059687000000000E+02
5980000000.000000      6.403732000000000E-02     -9.548046000000000E+01      2.889709000000000E-01      7.834374000000000E+01
6000000000.000000      4.848862000000000E-02     -8.762499000000000E+01      2.855682000000000E-01      4.894921000000000E+01
6020000000.000000      4.101181000000000E-02     -5.330273000000000E+01      2.750854000000000E-01      1.786035000000000E+01
6040000000.000000      6.473160000000000E-02     -2.961133000000000E+01      2.638397000000000E-01     -1.213477000000000E+01
6060000000.000000      9.855652000000000E-02     -3.184277000000000E+01      2.603912000000000E-01     -4.171679000000000E+01
6080000000.000000      1.272583000000000E-01     -4.287499000000000E+01      2.663269000000000E-01     -7.211719000000000E+01
