! Network Analyzer HP8722D
! Hewlett-Packard
! Data name: Linha com CNT
! Saver's name: Rodrigo Anjos
! Comments: Teste de deteccao de acetona 0-100ppm a partir de cilindro
! Time and date: 10/9/2025 16:07
!              Frequency                     S11                                                   S21                                                   S12                                                   S22
# HZ  S  MA R 50
3000000000.000000      4.169617000000000E-01      1.643066000000000E+01      2.633972000000000E-01      3.232226000000000E+01
3020000000.000000      4.256897000000000E-01      1.593555000000000E+01      2.673187000000000E-01      2.878418000000000E+00
3040000000.000000      4.340210000000000E-01      1.475732000000000E+01      2.676697000000000E-01     -2.633203000000000E+01
3060000000.000000      4.391174000000000E-01      1.275879000000000E+01      2.671814000000000E-01     -5.540234000000000E+01
3080000000.000000      4.359436000000000E-01      1.084863000000000E+01      2.635345000000000E-01     -8.433594000000000E+01
3100000000.000000      4.324341000000000E-01      9.324219000000000E+00      2.619324000000000E-01     -1.122305000000000E+02
3120000000.000000      4.299011000000000E-01      8.471680000000000E+00      2.612915000000000E-01     -1.408516000000000E+02
3140000000.000000      4.299011000000000E-01      7.576416000000000E+00      2.570953000000000E-01     -1.693984000000000E+02
3160000000.000000      4.295044000000000E-01      6.406250000000000E+00      2.533875000000000E-01      1.619766000000000E+02
3180000000.000000      4.239807000000000E-01      5.167480000000000E+00      2.473755000000000E-01      1.337422000000000E+02
3200000000.000000      4.134521000000000E-01      4.590820000000000E+00      2.432480000000000E-01      1.052422000000000E+02
3220000000.000000      4.011993000000000E-01      4.829834000000000E+00      2.327652000000000E-01      7.655078000000000E+01
3240000000.000000      3.949890000000000E-01      6.325195000000000E+00      2.262192000000000E-01      5.111133000000000E+01
3260000000.000000      3.987427000000000E-01      7.968994000000000E+00      2.355652000000000E-01      2.501660000000000E+01
3280000000.000000      4.121399000000000E-01      8.934570000000000E+00      2.429886000000000E-01     -4.460449000000000E+00
3300000000.000000      4.332733000000000E-01      8.503418000000000E+00      2.454224000000000E-01     -3.320117000000000E+01
3320000000.000000      4.531555000000000E-01      6.704346000000000E+00      2.532501000000000E-01     -6.179882000000000E+01
3340000000.000000      4.655609000000000E-01      4.251709000000000E+00      2.586060000000000E-01     -9.155468000000000E+01
3360000000.000000      4.697571000000000E-01      1.609497000000000E+00      2.609558000000000E-01     -1.211836000000000E+02
3380000000.000000      4.671173000000000E-01     -3.886414000000000E-01      2.604065000000000E-01     -1.503359000000000E+02
3400000000.000000      4.624176000000000E-01     -1.900635000000000E+00      2.600098000000000E-01     -1.791250000000000E+02
3420000000.000000      4.578705000000000E-01     -3.043213000000000E+00      2.581940000000000E-01      1.516484000000000E+02
3440000000.000000      4.532471000000000E-01     -4.309570000000000E+00      2.540436000000000E-01      1.234883000000000E+02
3460000000.000000      4.490662000000000E-01     -5.366943000000000E+00      2.544861000000000E-01      9.524218000000000E+01
3480000000.000000      4.463959000000000E-01     -6.414795000000000E+00      2.517090000000000E-01      6.617578000000000E+01
3500000000.000000      4.443817000000000E-01     -7.123291000000000E+00      2.488708000000000E-01      3.807617000000000E+01
3520000000.000000      4.438324000000000E-01     -8.139648000000000E+00      2.492218000000000E-01      9.200684000000000E+00
3540000000.000000      4.421844000000000E-01     -8.893555000000000E+00      2.450485000000000E-01     -1.933887000000000E+01
3560000000.000000      4.413757000000000E-01     -9.486816000000000E+00      2.464752000000000E-01     -4.748437000000000E+01
3580000000.000000      4.391174000000000E-01     -9.971680000000000E+00      2.462616000000000E-01     -7.624609000000000E+01
3600000000.000000      4.381104000000000E-01     -1.049219000000000E+01      2.462692000000000E-01     -1.038320000000000E+02
3620000000.000000      4.404907000000000E-01     -1.088770000000000E+01      2.502136000000000E-01     -1.321250000000000E+02
3640000000.000000      4.434052000000000E-01     -1.170605000000000E+01      2.514496000000000E-01     -1.605547000000000E+02
3660000000.000000      4.459076000000000E-01     -1.327979000000000E+01      2.525635000000000E-01      1.711406000000000E+02
3680000000.000000      4.458160000000000E-01     -1.473828000000000E+01      2.511597000000000E-01      1.427031000000000E+02
3700000000.000000      4.414368000000000E-01     -1.604883000000000E+01      2.492599000000000E-01      1.152891000000000E+02
3720000000.000000      4.367828000000000E-01     -1.667090000000000E+01      2.513123000000000E-01      8.697657000000000E+01
3740000000.000000      4.350586000000000E-01     -1.683105000000000E+01      2.455063000000000E-01      5.861523000000000E+01
3760000000.000000      4.392700000000000E-01     -1.673144000000000E+01      2.446365000000000E-01      3.130762000000000E+01
3780000000.000000      4.449615000000000E-01     -1.757813000000000E+01      2.471390000000000E-01      2.897583000000000E+00
3800000000.000000      4.498291000000000E-01     -1.903809000000000E+01      2.456741000000000E-01     -2.629199000000000E+01
3820000000.000000      4.485779000000000E-01     -2.106543000000000E+01      2.439117000000000E-01     -5.496094000000000E+01
3840000000.000000      4.436340000000000E-01     -2.237109000000000E+01      2.433472000000000E-01     -8.351171000000000E+01
3860000000.000000      4.389801000000000E-01     -2.319824000000000E+01      2.442398000000000E-01     -1.125898000000000E+02
3880000000.000000      4.374084000000000E-01     -2.337500000000000E+01      2.413712000000000E-01     -1.414219000000000E+02
3900000000.000000      4.427948000000000E-01     -2.389941000000000E+01      2.397461000000000E-01     -1.690234000000000E+02
3920000000.000000      4.475403000000000E-01     -2.520703000000000E+01      2.425690000000000E-01      1.626562000000000E+02
3940000000.000000      4.477844000000000E-01     -2.681933000000000E+01      2.425385000000000E-01      1.340547000000000E+02
3960000000.000000      4.415131000000000E-01     -2.819824000000000E+01      2.429581000000000E-01      1.057930000000000E+02
3980000000.000000      4.322968000000000E-01     -2.875683000000000E+01      2.362671000000000E-01      7.705468000000000E+01
4000000000.000000      4.279327000000000E-01     -2.850293000000000E+01      2.326508000000000E-01      5.131445000000000E+01
4020000000.000000      4.328003000000000E-01     -2.815136000000000E+01      2.409210000000000E-01      2.353125000000000E+01
4040000000.000000      4.472961000000000E-01     -2.874609000000000E+01      2.411575000000000E-01     -7.061523000000000E+00
4060000000.000000      4.622955000000000E-01     -3.069336000000000E+01      2.363358000000000E-01     -3.562891000000000E+01
4080000000.000000      4.686279000000000E-01     -3.383398000000000E+01      2.357712000000000E-01     -6.441406000000000E+01
4100000000.000000      4.617767000000000E-01     -3.671093000000000E+01      2.373581000000000E-01     -9.362108000000000E+01
4120000000.000000      4.482574000000000E-01     -3.884180000000000E+01      2.344666000000000E-01     -1.240000000000000E+02
4140000000.000000      4.349213000000000E-01     -3.939258000000000E+01      2.265701000000000E-01     -1.523047000000000E+02
4160000000.000000      4.286957000000000E-01     -3.951172000000000E+01      2.288513000000000E-01     -1.790234000000000E+02
4180000000.000000      4.280090000000000E-01     -3.983398000000000E+01      2.341919000000000E-01      1.519375000000000E+02
4200000000.000000      4.282837000000000E-01     -4.075585000000000E+01      2.313461000000000E-01      1.232227000000000E+02
4220000000.000000      4.280396000000000E-01     -4.184375000000000E+01      2.325211000000000E-01      9.493750000000000E+01
4240000000.000000      4.225464000000000E-01     -4.268555000000000E+01      2.277908000000000E-01      6.591015000000000E+01
4260000000.000000      4.199524000000000E-01     -4.274610000000000E+01      2.223663000000000E-01      3.888086000000000E+01
4280000000.000000      4.210968000000000E-01     -4.249219000000000E+01      2.239532000000000E-01      1.127588000000000E+01
4300000000.000000      4.261017000000000E-01     -4.266797000000000E+01      2.228470000000000E-01     -1.736621000000000E+01
4320000000.000000      4.343719000000000E-01     -4.366015000000000E+01      2.230225000000000E-01     -4.633789000000000E+01
4340000000.000000      4.378815000000000E-01     -4.559179000000000E+01      2.231140000000000E-01     -7.569530000000000E+01
4360000000.000000      4.375000000000000E-01     -4.740624000000000E+01      2.230148000000000E-01     -1.056367000000000E+02
4380000000.000000      4.328461000000000E-01     -4.863281000000000E+01      2.207108000000000E-01     -1.356953000000000E+02
4400000000.000000      4.315491000000000E-01     -4.914844000000000E+01      2.189255000000000E-01     -1.645078000000000E+02
4420000000.000000      4.345093000000000E-01     -4.975586000000000E+01      2.231979000000000E-01      1.668437000000000E+02
4440000000.000000      4.402466000000000E-01     -5.091797000000000E+01      2.249603000000000E-01      1.368438000000000E+02
4460000000.000000      4.417725000000000E-01     -5.259375000000000E+01      2.234268000000000E-01      1.077578000000000E+02
4480000000.000000      4.376526000000000E-01     -5.435937000000000E+01      2.212906000000000E-01      7.895702000000000E+01
4500000000.000000      4.289246000000000E-01     -5.558594000000000E+01      2.182465000000000E-01      5.092382000000000E+01
4520000000.000000      4.208221000000000E-01     -5.574804000000000E+01      2.150650000000000E-01      2.232422000000000E+01
4540000000.000000      4.227448000000000E-01     -5.568945000000000E+01      2.089539000000000E-01     -5.833740000000000E+00
4560000000.000000      4.299164000000000E-01     -5.595703000000000E+01      2.078705000000000E-01     -3.343359000000000E+01
4580000000.000000      4.407654000000000E-01     -5.704102000000000E+01      2.092056000000000E-01     -6.359961000000000E+01
4600000000.000000      4.477539000000000E-01     -5.864843000000000E+01      2.068100000000000E-01     -9.385546000000000E+01
4620000000.000000      4.510651000000000E-01     -6.038867000000000E+01      2.066345000000000E-01     -1.247305000000000E+02
4640000000.000000      4.510193000000000E-01     -6.168750000000000E+01      2.031555000000000E-01     -1.559297000000000E+02
4660000000.000000      4.530334000000000E-01     -6.287890000000000E+01      2.034531000000000E-01      1.751250000000000E+02
4680000000.000000      4.575500000000000E-01     -6.405078000000000E+01      2.098312000000000E-01      1.450625000000000E+02
4700000000.000000      4.628754000000000E-01     -6.568749000000000E+01      2.116394000000000E-01      1.153008000000000E+02
4720000000.000000      4.665070000000000E-01     -6.783984000000000E+01      2.142410000000000E-01      8.687109000000000E+01
4740000000.000000      4.670105000000000E-01     -7.024219000000000E+01      2.178497000000000E-01      5.841015000000000E+01
4760000000.000000      4.641266000000000E-01     -7.250000000000000E+01      2.171173000000000E-01      3.052637000000000E+01
4780000000.000000      4.603119000000000E-01     -7.485156000000000E+01      2.135620000000000E-01      2.312622000000000E+00
4800000000.000000      4.536591000000000E-01     -7.717187000000000E+01      2.065125000000000E-01     -2.552832000000000E+01
4820000000.000000      4.407501000000000E-01     -7.955078000000000E+01      1.958084000000000E-01     -5.356250000000000E+01
4840000000.000000      4.219971000000000E-01     -8.114843000000000E+01      1.851883000000000E-01     -8.100389000000000E+01
4860000000.000000      4.003601000000000E-01     -8.168749000000000E+01      1.773224000000000E-01     -1.101953000000000E+02
4880000000.000000      3.809509000000000E-01     -8.028515000000000E+01      1.618423000000000E-01     -1.403437000000000E+02
4900000000.000000      3.740234000000000E-01     -7.776562000000000E+01      1.474609000000000E-01     -1.663125000000000E+02
4920000000.000000      3.814850000000000E-01     -7.517187000000000E+01      1.519928000000000E-01      1.690547000000000E+02
4940000000.000000      4.020233000000000E-01     -7.371484000000000E+01      1.651688000000000E-01      1.388984000000000E+02
4960000000.000000      4.304810000000000E-01     -7.448047000000000E+01      1.742172000000000E-01      1.073633000000000E+02
4980000000.000000      4.530792000000000E-01     -7.739843000000000E+01      1.837082000000000E-01      7.805859000000000E+01
5000000000.000000      4.616394000000000E-01     -8.113281000000000E+01      1.954727000000000E-01      4.841991000000000E+01
5020000000.000000      4.567108000000000E-01     -8.445313000000000E+01      2.024231000000000E-01      1.915723000000000E+01
5040000000.000000      4.432068000000000E-01     -8.665234000000000E+01      2.044601000000000E-01     -7.529785000000000E+00
5060000000.000000      4.321442000000000E-01     -8.742968000000000E+01      2.101517000000000E-01     -3.310351000000000E+01
5080000000.000000      4.269714000000000E-01     -8.784765000000000E+01      2.159882000000000E-01     -6.026562000000000E+01
5100000000.000000      4.262543000000000E-01     -8.816015000000000E+01      2.124557000000000E-01     -8.749218000000000E+01
5120000000.000000      4.289856000000000E-01     -8.889452000000000E+01      2.111282000000000E-01     -1.143516000000000E+02
5140000000.000000      4.318542000000000E-01     -8.987890000000000E+01      2.063065000000000E-01     -1.428516000000000E+02
5160000000.000000      4.355621000000000E-01     -9.081249000000000E+01      2.004013000000000E-01     -1.717734000000000E+02
5180000000.000000      4.413147000000000E-01     -9.180079000000000E+01      1.962433000000000E-01      1.582031000000000E+02
5200000000.000000      4.484100000000000E-01     -9.314453000000000E+01      1.929474000000000E-01      1.273711000000000E+02
5220000000.000000      4.523163000000000E-01     -9.484375000000000E+01      1.934814000000000E-01      9.679688000000000E+01
5240000000.000000      4.535980000000000E-01     -9.652344000000000E+01      1.966858000000000E-01      6.545703000000000E+01
5260000000.000000      4.519501000000000E-01     -9.826172000000000E+01      2.019501000000000E-01      3.500195000000000E+01
5280000000.000000      4.475555000000000E-01     -9.960938000000000E+01      2.064362000000000E-01      5.322754000000000E+00
5300000000.000000      4.449615000000000E-01     -1.005820000000000E+02      2.108459000000000E-01     -2.201465000000000E+01
5320000000.000000      4.445343000000000E-01     -1.015430000000000E+02      2.186432000000000E-01     -4.848437000000000E+01
5340000000.000000      4.451141000000000E-01     -1.027539000000000E+02      2.227020000000000E-01     -7.591015000000000E+01
5360000000.000000      4.465637000000000E-01     -1.042031000000000E+02      2.220612000000000E-01     -1.021719000000000E+02
5380000000.000000      4.470367000000000E-01     -1.055195000000000E+02      2.198181000000000E-01     -1.286953000000000E+02
5400000000.000000      4.464417000000000E-01     -1.065820000000000E+02      2.129288000000000E-01     -1.553594000000000E+02
5420000000.000000      4.487305000000000E-01     -1.070117000000000E+02      2.072830000000000E-01      1.777422000000000E+02
5440000000.000000      4.555054000000000E-01     -1.076601000000000E+02      2.008514000000000E-01      1.483125000000000E+02
5460000000.000000      4.635315000000000E-01     -1.090469000000000E+02      1.902390000000000E-01      1.186680000000000E+02
5480000000.000000      4.701691000000000E-01     -1.109101000000000E+02      1.860886000000000E-01      8.799219000000000E+01
5500000000.000000      4.712524000000000E-01     -1.134883000000000E+02      1.852493000000000E-01      5.634570000000000E+01
5520000000.000000      4.651337000000000E-01     -1.158359000000000E+02      1.870804000000000E-01      2.420410000000000E+01
5540000000.000000      4.574280000000000E-01     -1.177461000000000E+02      1.889496000000000E-01     -6.964111000000000E+00
5560000000.000000      4.492493000000000E-01     -1.194219000000000E+02      1.941681000000000E-01     -3.533398000000000E+01
5580000000.000000      4.415283000000000E-01     -1.206445000000000E+02      2.040710000000000E-01     -6.358007000000000E+01
5600000000.000000      4.366302000000000E-01     -1.216797000000000E+02      2.094955000000000E-01     -9.087500000000000E+01
5620000000.000000      4.311371000000000E-01     -1.222812000000000E+02      2.141571000000000E-01     -1.171836000000000E+02
5640000000.000000      4.285126000000000E-01     -1.225664000000000E+02      2.146835000000000E-01     -1.435937000000000E+02
5660000000.000000      4.284973000000000E-01     -1.224414000000000E+02      2.103882000000000E-01     -1.690469000000000E+02
5680000000.000000      4.340973000000000E-01     -1.224180000000000E+02      2.046890000000000E-01      1.645781000000000E+02
5700000000.000000      4.446869000000000E-01     -1.230586000000000E+02      1.955338000000000E-01      1.380312000000000E+02
5720000000.000000      4.568176000000000E-01     -1.247734000000000E+02      1.861496000000000E-01      1.102500000000000E+02
5740000000.000000      4.649200000000000E-01     -1.277305000000000E+02      1.778870000000000E-01      8.003906000000000E+01
5760000000.000000      4.625092000000000E-01     -1.310313000000000E+02      1.689377000000000E-01      4.734961000000000E+01
5780000000.000000      4.507904000000000E-01     -1.335703000000000E+02      1.614685000000000E-01      1.432617000000000E+01
5800000000.000000      4.362335000000000E-01     -1.349297000000000E+02      1.584244000000000E-01     -1.748535000000000E+01
5820000000.000000      4.293365000000000E-01     -1.352187000000000E+02      1.666412000000000E-01     -4.858984000000000E+01
5840000000.000000      4.290771000000000E-01     -1.358438000000000E+02      1.778107000000000E-01     -8.004686000000000E+01
5860000000.000000      4.347687000000000E-01     -1.367266000000000E+02      1.861572000000000E-01     -1.092305000000000E+02
5880000000.000000      4.403839000000000E-01     -1.386875000000000E+02      1.939087000000000E-01     -1.368281000000000E+02
5900000000.000000      4.411469000000000E-01     -1.406328000000000E+02      2.000732000000000E-01     -1.634375000000000E+02
5920000000.000000      4.364777000000000E-01     -1.424297000000000E+02      2.037125000000000E-01      1.706640000000000E+02
5940000000.000000      4.314423000000000E-01     -1.437422000000000E+02      1.986237000000000E-01      1.441484000000000E+02
5960000000.000000      4.273376000000000E-01     -1.451328000000000E+02      1.894684000000000E-01      1.190234000000000E+02
5980000000.000000      4.228668000000000E-01     -1.467734000000000E+02      1.820221000000000E-01      9.320313000000000E+01
6000000000.000000      4.126282000000000E-01     -1.485859000000000E+02      1.705856000000000E-01      6.479297000000000E+01
6020000000.000000      3.978577000000000E-01     -1.501016000000000E+02      1.560059000000000E-01      3.488281000000000E+01
6040000000.000000      3.826294000000000E-01     -1.506094000000000E+02      1.393509000000000E-01      4.049805000000000E+00
6060000000.000000      3.728180000000000E-01     -1.503047000000000E+02      1.316910000000000E-01     -2.618066000000000E+01
6080000000.000000      3.699188000000000E-01     -1.492344000000000E+02      1.362000000000000E-01     -5.842968000000000E+01
