! Network Analyzer HP8722D
! Hewlett-Packard
! Data name: Linha com CNT
! Saver's name: Rodrigo Anjos
! Comments: Teste de deteccao de acetona 0-100ppm a partir de cilindro
! Time and date: 10/9/2025 15:15
!              Frequency                     S11                                                   S21                                                   S12                                                   S22
# HZ  S  MA R 50
3000000000.000000      6.014404000000000E-01      1.116895000000000E+01      1.761932000000000E-01      4.364453000000000E+01
3020000000.000000      6.061096000000000E-01      1.038574000000000E+01      1.801682000000000E-01      1.380957000000000E+01
3040000000.000000      6.094971000000000E-01      9.724121000000000E+00      1.808548000000000E-01     -1.532617000000000E+01
3060000000.000000      6.142578000000000E-01      8.441406000000000E+00      1.809235000000000E-01     -4.490820000000000E+01
3080000000.000000      6.125488000000000E-01      7.005127000000000E+00      1.767883000000000E-01     -7.378906000000000E+01
3100000000.000000      6.140747000000000E-01      5.932617000000000E+00      1.761169000000000E-01     -1.013086000000000E+02
3120000000.000000      6.129456000000000E-01      4.986328000000000E+00      1.761703000000000E-01     -1.299141000000000E+02
3140000000.000000      6.152649000000000E-01      3.824585000000000E+00      1.733932000000000E-01     -1.584531000000000E+02
3160000000.000000      6.165466000000000E-01      2.774048000000000E+00      1.698990000000000E-01      1.729922000000000E+02
3180000000.000000      6.159668000000000E-01      1.636963000000000E+00      1.643143000000000E-01      1.453047000000000E+02
3200000000.000000      6.087036000000000E-01      6.660461000000000E-01      1.614456000000000E-01      1.172617000000000E+02
3220000000.000000      6.026306000000000E-01     -1.620483000000000E-01      1.541977000000000E-01      8.884766000000000E+01
3240000000.000000      5.966492000000000E-01     -8.294678000000000E-01      1.490326000000000E-01      6.458984000000000E+01
3260000000.000000      5.934448000000000E-01     -1.083557000000000E+00      1.574631000000000E-01      3.903515000000000E+01
3280000000.000000      5.929260000000000E-01     -1.097290000000000E+00      1.647110000000000E-01      9.261230000000000E+00
3300000000.000000      6.019287000000000E-01     -1.466675000000000E+00      1.686249000000000E-01     -1.945019000000000E+01
3320000000.000000      6.136169000000000E-01     -2.102539000000000E+00      1.756592000000000E-01     -4.874023000000000E+01
3340000000.000000      6.200867000000000E-01     -3.379761000000000E+00      1.801682000000000E-01     -7.910546000000000E+01
3360000000.000000      6.256409000000000E-01     -4.846436000000000E+00      1.822128000000000E-01     -1.094023000000000E+02
3380000000.000000      6.276855000000000E-01     -6.038574000000000E+00      1.806564000000000E-01     -1.390625000000000E+02
3400000000.000000      6.262207000000000E-01     -7.219482000000000E+00      1.799927000000000E-01     -1.676484000000000E+02
3420000000.000000      6.255493000000000E-01     -8.330566000000000E+00      1.782837000000000E-01      1.630938000000000E+02
3440000000.000000      6.207581000000000E-01     -9.572266000000000E+00      1.745071000000000E-01      1.353359000000000E+02
3460000000.000000      6.177673000000000E-01     -1.033691000000000E+01      1.753616000000000E-01      1.074453000000000E+02
3480000000.000000      6.168518000000000E-01     -1.134912000000000E+01      1.723709000000000E-01      7.828906000000000E+01
3500000000.000000      6.170654000000000E-01     -1.234766000000000E+01      1.711426000000000E-01      5.063867000000000E+01
3520000000.000000      6.167908000000000E-01     -1.342285000000000E+01      1.716156000000000E-01      2.132715000000000E+01
3540000000.000000      6.170959000000000E-01     -1.428516000000000E+01      1.672211000000000E-01     -7.192139000000000E+00
3560000000.000000      6.168213000000000E-01     -1.522998000000000E+01      1.684418000000000E-01     -3.498828000000000E+01
3580000000.000000      6.143494000000000E-01     -1.602539000000000E+01      1.686554000000000E-01     -6.378515000000000E+01
3600000000.000000      6.119995000000000E-01     -1.677832000000000E+01      1.685333000000000E-01     -9.100000000000000E+01
3620000000.000000      6.120605000000000E-01     -1.754883000000000E+01      1.727905000000000E-01     -1.193945000000000E+02
3640000000.000000      6.129761000000000E-01     -1.854297000000000E+01      1.741486000000000E-01     -1.479375000000000E+02
3660000000.000000      6.130676000000000E-01     -1.959863000000000E+01      1.755905000000000E-01     -1.764766000000000E+02
3680000000.000000      6.141357000000000E-01     -2.076465000000000E+01      1.729126000000000E-01      1.550156000000000E+02
3700000000.000000      6.129761000000000E-01     -2.190039000000000E+01      1.712112000000000E-01      1.284531000000000E+02
3720000000.000000      6.094360000000000E-01     -2.289355000000000E+01      1.739502000000000E-01      1.000273000000000E+02
3740000000.000000      6.096191000000000E-01     -2.343164000000000E+01      1.697311000000000E-01      7.198047000000000E+01
3760000000.000000      6.100159000000000E-01     -2.404687000000000E+01      1.706467000000000E-01      4.499219000000000E+01
3780000000.000000      6.116333000000000E-01     -2.468554000000000E+01      1.727295000000000E-01      1.600781000000000E+01
3800000000.000000      6.152344000000000E-01     -2.568945000000000E+01      1.711273000000000E-01     -1.336768000000000E+01
3820000000.000000      6.148376000000000E-01     -2.708203000000000E+01      1.689224000000000E-01     -4.208008000000000E+01
3840000000.000000      6.150513000000000E-01     -2.843457000000000E+01      1.692352000000000E-01     -7.046484000000000E+01
3860000000.000000      6.130371000000000E-01     -2.954394000000000E+01      1.698685000000000E-01     -9.971092000000000E+01
3880000000.000000      6.104431000000000E-01     -3.032129000000000E+01      1.682968000000000E-01     -1.285156000000000E+02
3900000000.000000      6.129150000000000E-01     -3.111523000000000E+01      1.689224000000000E-01     -1.557188000000000E+02
3920000000.000000      6.138916000000000E-01     -3.216015000000000E+01      1.717377000000000E-01      1.754453000000000E+02
3940000000.000000      6.174927000000000E-01     -3.329297000000000E+01      1.700821000000000E-01      1.471875000000000E+02
3960000000.000000      6.145325000000000E-01     -3.449609000000000E+01      1.705780000000000E-01      1.194062000000000E+02
3980000000.000000      6.099243000000000E-01     -3.561523000000000E+01      1.655731000000000E-01      9.112108000000000E+01
4000000000.000000      6.041260000000000E-01     -3.633984000000000E+01      1.634827000000000E-01      6.603125000000000E+01
4020000000.000000      6.036072000000000E-01     -3.673828000000000E+01      1.712189000000000E-01      3.813281000000000E+01
4040000000.000000      6.086426000000000E-01     -3.745117000000000E+01      1.712418000000000E-01      7.543457000000000E+00
4060000000.000000      6.180115000000000E-01     -3.815820000000000E+01      1.690750000000000E-01     -2.146679000000000E+01
4080000000.000000      6.272888000000000E-01     -3.999023000000000E+01      1.682663000000000E-01     -5.116211000000000E+01
4100000000.000000      6.279297000000000E-01     -4.176562000000000E+01      1.669617000000000E-01     -8.082422000000000E+01
4120000000.000000      6.245728000000000E-01     -4.374023000000000E+01      1.643829000000000E-01     -1.113281000000000E+02
4140000000.000000      6.170349000000000E-01     -4.486133000000000E+01      1.578522000000000E-01     -1.396094000000000E+02
4160000000.000000      6.111755000000000E-01     -4.602929000000000E+01      1.607132000000000E-01     -1.655313000000000E+02
4180000000.000000      6.084900000000000E-01     -4.664648000000000E+01      1.650085000000000E-01      1.650625000000000E+02
4200000000.000000      6.083069000000000E-01     -4.776953000000000E+01      1.628723000000000E-01      1.371250000000000E+02
4220000000.000000      6.094666000000000E-01     -4.884179000000000E+01      1.660233000000000E-01      1.094687000000000E+02
4240000000.000000      6.045532000000000E-01     -5.005273000000000E+01      1.627274000000000E-01      8.047655000000000E+01
4260000000.000000      6.023560000000000E-01     -5.093554000000000E+01      1.582108000000000E-01      5.387695000000000E+01
4280000000.000000      6.008911000000000E-01     -5.168945000000000E+01      1.599579000000000E-01      2.680078000000000E+01
4300000000.000000      6.015930000000000E-01     -5.228320000000000E+01      1.594009000000000E-01     -1.999512000000000E+00
4320000000.000000      6.053467000000000E-01     -5.319726000000000E+01      1.596222000000000E-01     -3.078418000000000E+01
4340000000.000000      6.056519000000000E-01     -5.447460000000000E+01      1.586838000000000E-01     -6.042578000000000E+01
4360000000.000000      6.083374000000000E-01     -5.594727000000000E+01      1.588669000000000E-01     -9.103125000000000E+01
4380000000.000000      6.058044000000000E-01     -5.719140000000000E+01      1.569138000000000E-01     -1.214375000000000E+02
4400000000.000000      6.030273000000000E-01     -5.813086000000000E+01      1.562881000000000E-01     -1.502109000000000E+02
4420000000.000000      6.038818000000000E-01     -5.879883000000000E+01      1.609497000000000E-01     -1.793594000000000E+02
4440000000.000000      6.056519000000000E-01     -5.978516000000000E+01      1.631775000000000E-01      1.508281000000000E+02
4460000000.000000      6.096802000000000E-01     -6.113281000000000E+01      1.642227000000000E-01      1.219336000000000E+02
4480000000.000000      6.064758000000000E-01     -6.267187000000000E+01      1.639404000000000E-01      9.310547000000000E+01
4500000000.000000      6.039429000000000E-01     -6.405859000000000E+01      1.611099000000000E-01      6.578515000000000E+01
4520000000.000000      5.989380000000000E-01     -6.517187000000000E+01      1.593323000000000E-01      3.795898000000000E+01
4540000000.000000      5.964966000000000E-01     -6.607422000000000E+01      1.543427000000000E-01      1.059619000000000E+01
4560000000.000000      5.987549000000000E-01     -6.670703000000000E+01      1.542587000000000E-01     -1.640820000000000E+01
4580000000.000000      6.013489000000000E-01     -6.769531000000000E+01      1.535187000000000E-01     -4.671875000000000E+01
4600000000.000000      6.042786000000000E-01     -6.875781000000000E+01      1.503220000000000E-01     -7.708593000000000E+01
4620000000.000000      6.069336000000000E-01     -7.007030000000000E+01      1.495209000000000E-01     -1.089180000000000E+02
4640000000.000000      6.075439000000000E-01     -7.117578000000000E+01      1.450882000000000E-01     -1.411406000000000E+02
4660000000.000000      6.079407000000000E-01     -7.203515000000000E+01      1.462860000000000E-01     -1.706719000000000E+02
4680000000.000000      6.096802000000000E-01     -7.302734000000000E+01      1.520996000000000E-01      1.581328000000000E+02
4700000000.000000      6.114197000000000E-01     -7.414844000000000E+01      1.557693000000000E-01      1.277734000000000E+02
4720000000.000000      6.173706000000000E-01     -7.533203000000000E+01      1.613693000000000E-01      9.900780000000000E+01
4740000000.000000      6.197815000000000E-01     -7.698047000000000E+01      1.655350000000000E-01      6.971484000000000E+01
4760000000.000000      6.218262000000000E-01     -7.878515000000000E+01      1.656418000000000E-01      4.233594000000000E+01
4780000000.000000      6.228027000000000E-01     -8.032030000000000E+01      1.639633000000000E-01      1.488770000000000E+01
4800000000.000000      6.244507000000000E-01     -8.230860000000000E+01      1.574402000000000E-01     -1.181592000000000E+01
4820000000.000000      6.203613000000000E-01     -8.425390000000000E+01      1.477280000000000E-01     -3.838476000000000E+01
4840000000.000000      6.098633000000000E-01     -8.601563000000000E+01      1.368637000000000E-01     -6.389648000000000E+01
4860000000.000000      6.005554000000000E-01     -8.746874000000000E+01      1.294632000000000E-01     -9.133204000000000E+01
4880000000.000000      5.845642000000000E-01     -8.864452000000000E+01      1.157227000000000E-01     -1.198789000000000E+02
4900000000.000000      5.710754000000000E-01     -8.880859000000000E+01      1.039047000000000E-01     -1.445469000000000E+02
4920000000.000000      5.653381000000000E-01     -8.867188000000000E+01      1.062202000000000E-01     -1.697734000000000E+02
4940000000.000000      5.665588000000000E-01     -8.832031000000000E+01      1.160240000000000E-01      1.583594000000000E+02
4960000000.000000      5.774841000000000E-01     -8.834375000000000E+01      1.243095000000000E-01      1.243476000000000E+02
4980000000.000000      5.929565000000000E-01     -8.914063000000000E+01      1.347275000000000E-01      9.235546000000000E+01
5000000000.000000      6.044617000000000E-01     -9.076172000000000E+01      1.453476000000000E-01      6.093359000000000E+01
5020000000.000000      6.101074000000000E-01     -9.289843000000000E+01      1.519470000000000E-01      3.074512000000000E+01
5040000000.000000      6.061707000000000E-01     -9.486719000000000E+01      1.546707000000000E-01      4.156738000000000E+00
5060000000.000000      5.999146000000000E-01     -9.642578000000000E+01      1.611328000000000E-01     -1.999121000000000E+01
5080000000.000000      5.917053000000000E-01     -9.740234000000000E+01      1.683655000000000E-01     -4.622266000000000E+01
5100000000.000000      5.899963000000000E-01     -9.826561000000000E+01      1.677551000000000E-01     -7.238281000000000E+01
5120000000.000000      5.875244000000000E-01     -9.920702000000000E+01      1.673203000000000E-01     -9.811327000000000E+01
5140000000.000000      5.906067000000000E-01     -1.000820000000000E+02      1.627960000000000E-01     -1.258633000000000E+02
5160000000.000000      5.913086000000000E-01     -1.010352000000000E+02      1.559296000000000E-01     -1.538203000000000E+02
5180000000.000000      5.970459000000000E-01     -1.018476000000000E+02      1.493607000000000E-01      1.761094000000000E+02
5200000000.000000      6.003113000000000E-01     -1.028672000000000E+02      1.436691000000000E-01      1.450781000000000E+02
5220000000.000000      6.048889000000000E-01     -1.042969000000000E+02      1.422348000000000E-01      1.130898000000000E+02
5240000000.000000      6.085815000000000E-01     -1.054375000000000E+02      1.436462000000000E-01      8.012890000000000E+01
5260000000.000000      6.097107000000000E-01     -1.071211000000000E+02      1.477051000000000E-01      4.822851000000000E+01
5280000000.000000      6.064453000000000E-01     -1.086601000000000E+02      1.532059000000000E-01      1.740723000000000E+01
5300000000.000000      6.043701000000000E-01     -1.101758000000000E+02      1.591415000000000E-01     -9.854980000000000E+00
5320000000.000000      6.029968000000000E-01     -1.110078000000000E+02      1.695786000000000E-01     -3.615039000000000E+01
5340000000.000000      6.015015000000000E-01     -1.123203000000000E+02      1.755600000000000E-01     -6.307226000000000E+01
5360000000.000000      6.002808000000000E-01     -1.134180000000000E+02      1.777878000000000E-01     -8.833984000000000E+01
5380000000.000000      6.022034000000000E-01     -1.144883000000000E+02      1.776886000000000E-01     -1.142148000000000E+02
5400000000.000000      6.006775000000000E-01     -1.156719000000000E+02      1.715317000000000E-01     -1.394766000000000E+02
5420000000.000000      6.013489000000000E-01     -1.163437000000000E+02      1.667786000000000E-01     -1.653359000000000E+02
5440000000.000000      6.083984000000000E-01     -1.172031000000000E+02      1.586838000000000E-01      1.659765000000000E+02
5460000000.000000      6.120911000000000E-01     -1.182891000000000E+02      1.465378000000000E-01      1.365547000000000E+02
5480000000.000000      6.186218000000000E-01     -1.195937000000000E+02      1.401367000000000E-01      1.052851000000000E+02
5500000000.000000      6.233215000000000E-01     -1.214570000000000E+02      1.353836000000000E-01      7.192968000000000E+01
5520000000.000000      6.216125000000000E-01     -1.235156000000000E+02      1.344452000000000E-01      3.734375000000000E+01
5540000000.000000      6.188354000000000E-01     -1.252734000000000E+02      1.357422000000000E-01      4.654053000000000E+00
5560000000.000000      6.144104000000000E-01     -1.271758000000000E+02      1.430893000000000E-01     -2.428808000000000E+01
5580000000.000000      6.062012000000000E-01     -1.288281000000000E+02      1.551743000000000E-01     -5.283789000000000E+01
5600000000.000000      6.026306000000000E-01     -1.297969000000000E+02      1.630249000000000E-01     -7.991796000000000E+01
5620000000.000000      5.972290000000000E-01     -1.311719000000000E+02      1.718597000000000E-01     -1.050898000000000E+02
5640000000.000000      5.946350000000000E-01     -1.319219000000000E+02      1.757736000000000E-01     -1.303672000000000E+02
5660000000.000000      5.894165000000000E-01     -1.328203000000000E+02      1.747284000000000E-01     -1.545156000000000E+02
5680000000.000000      5.896301000000000E-01     -1.334453000000000E+02      1.711807000000000E-01     -1.790937000000000E+02
5700000000.000000      5.944214000000000E-01     -1.339922000000000E+02      1.629562000000000E-01      1.555234000000000E+02
5720000000.000000      6.026001000000000E-01     -1.350703000000000E+02      1.532364000000000E-01      1.290937000000000E+02
5740000000.000000      6.082764000000000E-01     -1.368906000000000E+02      1.399841000000000E-01      9.926561000000000E+01
5760000000.000000      6.084900000000000E-01     -1.391953000000000E+02      1.246872000000000E-01      6.667969000000000E+01
5780000000.000000      6.031494000000000E-01     -1.414766000000000E+02      1.110420000000000E-01      3.198339000000000E+01
5800000000.000000      5.909424000000000E-01     -1.431953000000000E+02      1.057663000000000E-01     -2.853760000000000E+00
5820000000.000000      5.805054000000000E-01     -1.442422000000000E+02      1.126671000000000E-01     -3.708593000000000E+01
5840000000.000000      5.747986000000000E-01     -1.450547000000000E+02      1.258316000000000E-01     -7.092968000000000E+01
5860000000.000000      5.751343000000000E-01     -1.454687000000000E+02      1.397629000000000E-01     -1.008672000000000E+02
5880000000.000000      5.800476000000000E-01     -1.465469000000000E+02      1.533585000000000E-01     -1.292734000000000E+02
5900000000.000000      5.840759000000000E-01     -1.478516000000000E+02      1.630096000000000E-01     -1.551016000000000E+02
5920000000.000000      5.849609000000000E-01     -1.494297000000000E+02      1.691284000000000E-01     -1.796953000000000E+02
5940000000.000000      5.835571000000000E-01     -1.509297000000000E+02      1.671982000000000E-01      1.556875000000000E+02
5960000000.000000      5.796509000000000E-01     -1.523125000000000E+02      1.615372000000000E-01      1.332969000000000E+02
5980000000.000000      5.747375000000000E-01     -1.539453000000000E+02      1.548538000000000E-01      1.095820000000000E+02
6000000000.000000      5.683289000000000E-01     -1.556328000000000E+02      1.424179000000000E-01      8.405468000000000E+01
6020000000.000000      5.570984000000000E-01     -1.569766000000000E+02      1.255188000000000E-01      5.751171000000000E+01
6040000000.000000      5.428162000000000E-01     -1.585156000000000E+02      1.062050000000000E-01      2.986425000000000E+01
6060000000.000000      5.357361000000000E-01     -1.593203000000000E+02      9.307098000000000E-02      4.298401000000000E-01
6080000000.000000      5.281067000000000E-01     -1.593281000000000E+02      9.095001000000000E-02     -3.496289000000000E+01
