! Network Analyzer HP8722D
! Hewlett-Packard
! Data name: Linha com CNT
! Saver's name: Rodrigo Anjos
! Comments: Teste de deteccao de acetona 0-100ppm a partir de cilindro
! Time and date: 10/9/2025 16:53
!              Frequency                     S11                                                   S21                                                   S12                                                   S22
# HZ  S  MA R 50
3000000000.000000      4.362640000000000E-01      1.604687000000000E+01      2.396545000000000E-01      3.467968000000000E+01
3020000000.000000      4.442902000000000E-01      1.561523000000000E+01      2.441635000000000E-01      5.307617000000000E+00
3040000000.000000      4.524536000000000E-01      1.436182000000000E+01      2.440872000000000E-01     -2.411718000000000E+01
3060000000.000000      4.558563000000000E-01      1.249121000000000E+01      2.440262000000000E-01     -5.341991000000000E+01
3080000000.000000      4.533539000000000E-01      1.060547000000000E+01      2.402649000000000E-01     -8.228516000000000E+01
3100000000.000000      4.499359000000000E-01      9.221191000000000E+00      2.384720000000000E-01     -1.099844000000000E+02
3120000000.000000      4.477081000000000E-01      8.382324000000000E+00      2.383194000000000E-01     -1.387187000000000E+02
3140000000.000000      4.486389000000000E-01      7.456787000000000E+00      2.345200000000000E-01     -1.673281000000000E+02
3160000000.000000      4.487762000000000E-01      6.236084000000000E+00      2.305374000000000E-01      1.641562000000000E+02
3180000000.000000      4.434357000000000E-01      5.119629000000000E+00      2.248840000000000E-01      1.360781000000000E+02
3200000000.000000      4.329376000000000E-01      4.439697000000000E+00      2.213364000000000E-01      1.077109000000000E+02
3220000000.000000      4.214325000000000E-01      4.601807000000000E+00      2.115784000000000E-01      7.904687000000000E+01
3240000000.000000      4.154663000000000E-01      5.639893000000000E+00      2.054214000000000E-01      5.388672000000000E+01
3260000000.000000      4.177399000000000E-01      7.187744000000000E+00      2.144012000000000E-01      2.804590000000000E+01
3280000000.000000      4.300995000000000E-01      8.084473000000000E+00      2.222137000000000E-01     -1.668579000000000E+00
3300000000.000000      4.497986000000000E-01      7.649170000000000E+00      2.249451000000000E-01     -3.025000000000000E+01
3320000000.000000      4.686737000000000E-01      6.054688000000000E+00      2.332001000000000E-01     -5.910937000000000E+01
3340000000.000000      4.808502000000000E-01      3.755859000000000E+00      2.370987000000000E-01     -8.891796000000000E+01
3360000000.000000      4.852448000000000E-01      1.424072000000000E+00      2.402344000000000E-01     -1.186484000000000E+02
3380000000.000000      4.841003000000000E-01     -4.710388000000000E-01      2.395554000000000E-01     -1.480547000000000E+02
3400000000.000000      4.793091000000000E-01     -2.029785000000000E+00      2.389755000000000E-01     -1.767031000000000E+02
3420000000.000000      4.753723000000000E-01     -3.173706000000000E+00      2.373428000000000E-01      1.540859000000000E+02
3440000000.000000      4.709930000000000E-01     -4.427490000000000E+00      2.328568000000000E-01      1.259453000000000E+02
3460000000.000000      4.665527000000000E-01     -5.415039000000000E+00      2.335892000000000E-01      9.775000000000000E+01
3480000000.000000      4.644318000000000E-01     -6.513672000000000E+00      2.309189000000000E-01      6.857422000000000E+01
3500000000.000000      4.624786000000000E-01     -7.264893000000000E+00      2.283783000000000E-01      4.058789000000000E+01
3520000000.000000      4.622955000000000E-01     -8.279785000000000E+00      2.285843000000000E-01      1.165234000000000E+01
3540000000.000000      4.616394000000000E-01     -9.104004000000000E+00      2.241974000000000E-01     -1.685059000000000E+01
3560000000.000000      4.601135000000000E-01     -9.721680000000000E+00      2.255859000000000E-01     -4.503125000000000E+01
3580000000.000000      4.570313000000000E-01     -1.023242000000000E+01      2.253723000000000E-01     -7.380859000000000E+01
3600000000.000000      4.563141000000000E-01     -1.079004000000000E+01      2.252731000000000E-01     -1.012539000000000E+02
3620000000.000000      4.585419000000000E-01     -1.122021000000000E+01      2.296906000000000E-01     -1.293984000000000E+02
3640000000.000000      4.611969000000000E-01     -1.208643000000000E+01      2.308426000000000E-01     -1.579687000000000E+02
3660000000.000000      4.635315000000000E-01     -1.354639000000000E+01      2.323456000000000E-01      1.736875000000000E+02
3680000000.000000      4.639740000000000E-01     -1.504590000000000E+01      2.303314000000000E-01      1.450781000000000E+02
3700000000.000000      4.600220000000000E-01     -1.636035000000000E+01      2.284012000000000E-01      1.179140000000000E+02
3720000000.000000      4.536285000000000E-01     -1.711133000000000E+01      2.303772000000000E-01      8.955858000000000E+01
3740000000.000000      4.535980000000000E-01     -1.724902000000000E+01      2.257690000000000E-01      6.125390000000000E+01
3760000000.000000      4.572601000000000E-01     -1.732226000000000E+01      2.250366000000000E-01      3.421093000000000E+01
3780000000.000000      4.617004000000000E-01     -1.812695000000000E+01      2.277069000000000E-01      5.494385000000000E+00
3800000000.000000      4.667969000000000E-01     -1.956738000000000E+01      2.260590000000000E-01     -2.356445000000000E+01
3820000000.000000      4.659271000000000E-01     -2.137890000000000E+01      2.238922000000000E-01     -5.216991000000000E+01
3840000000.000000      4.604645000000000E-01     -2.279395000000000E+01      2.236557000000000E-01     -8.079296000000000E+01
3860000000.000000      4.557190000000000E-01     -2.353418000000000E+01      2.238617000000000E-01     -1.097930000000000E+02
3880000000.000000      4.548035000000000E-01     -2.384375000000000E+01      2.216339000000000E-01     -1.387422000000000E+02
3900000000.000000      4.598083000000000E-01     -2.436718000000000E+01      2.207108000000000E-01     -1.663516000000000E+02
3920000000.000000      4.647064000000000E-01     -2.563672000000000E+01      2.232361000000000E-01      1.651719000000000E+02
3940000000.000000      4.653015000000000E-01     -2.728125000000000E+01      2.225952000000000E-01      1.367500000000000E+02
3960000000.000000      4.589539000000000E-01     -2.867383000000000E+01      2.225266000000000E-01      1.084687000000000E+02
3980000000.000000      4.496765000000000E-01     -2.932129000000000E+01      2.171021000000000E-01      7.976563000000000E+01
4000000000.000000      4.445953000000000E-01     -2.919531000000000E+01      2.138443000000000E-01      5.425586000000000E+01
4020000000.000000      4.489746000000000E-01     -2.890918000000000E+01      2.223969000000000E-01      2.641797000000000E+01
4040000000.000000      4.627533000000000E-01     -2.942578000000000E+01      2.227097000000000E-01     -4.008789000000000E+00
4060000000.000000      4.768372000000000E-01     -3.128027000000000E+01      2.185745000000000E-01     -3.280664000000000E+01
4080000000.000000      4.828644000000000E-01     -3.435937000000000E+01      2.184296000000000E-01     -6.170507000000000E+01
4100000000.000000      4.775238000000000E-01     -3.711523000000000E+01      2.189026000000000E-01     -9.096483000000000E+01
4120000000.000000      4.653320000000000E-01     -3.898242000000000E+01      2.157059000000000E-01     -1.212266000000000E+02
4140000000.000000      4.525299000000000E-01     -3.978125000000000E+01      2.079010000000000E-01     -1.496094000000000E+02
4160000000.000000      4.458466000000000E-01     -4.001367000000000E+01      2.101593000000000E-01     -1.761328000000000E+02
4180000000.000000      4.451752000000000E-01     -4.041211000000000E+01      2.145309000000000E-01      1.546562000000000E+02
4200000000.000000      4.458313000000000E-01     -4.135156000000000E+01      2.119980000000000E-01      1.260039000000000E+02
4220000000.000000      4.455261000000000E-01     -4.246679000000000E+01      2.137985000000000E-01      9.804296000000000E+01
4240000000.000000      4.389954000000000E-01     -4.321485000000000E+01      2.099991000000000E-01      6.886719000000000E+01
4260000000.000000      4.359131000000000E-01     -4.338281000000000E+01      2.051468000000000E-01      4.190039000000000E+01
4280000000.000000      4.353943000000000E-01     -4.348437000000000E+01      2.064896000000000E-01      1.434375000000000E+01
4300000000.000000      4.425507000000000E-01     -4.356445000000000E+01      2.059555000000000E-01     -1.427686000000000E+01
4320000000.000000      4.488983000000000E-01     -4.477539000000000E+01      2.061386000000000E-01     -4.302734000000000E+01
4340000000.000000      4.525604000000000E-01     -4.640821000000000E+01      2.059708000000000E-01     -7.258984000000000E+01
4360000000.000000      4.525452000000000E-01     -4.816992000000000E+01      2.060242000000000E-01     -1.024805000000000E+02
4380000000.000000      4.481659000000000E-01     -4.935937000000000E+01      2.039261000000000E-01     -1.325312000000000E+02
4400000000.000000      4.468231000000000E-01     -4.991405000000000E+01      2.022018000000000E-01     -1.610859000000000E+02
4420000000.000000      4.496460000000000E-01     -5.046875000000000E+01      2.064209000000000E-01      1.699062000000000E+02
4440000000.000000      4.541168000000000E-01     -5.143359000000000E+01      2.076874000000000E-01      1.400312000000000E+02
4460000000.000000      4.571991000000000E-01     -5.323632000000000E+01      2.063980000000000E-01      1.108594000000000E+02
4480000000.000000      4.519653000000000E-01     -5.521874000000000E+01      2.046967000000000E-01      8.202343000000000E+01
4500000000.000000      4.432831000000000E-01     -5.634766000000000E+01      2.017365000000000E-01      5.398632000000000E+01
4520000000.000000      4.375610000000000E-01     -5.683203000000000E+01      1.991272000000000E-01      2.546679000000000E+01
4540000000.000000      4.370117000000000E-01     -5.679688000000000E+01      1.936340000000000E-01     -2.701294000000000E+00
4560000000.000000      4.441528000000000E-01     -5.709374000000000E+01      1.938324000000000E-01     -3.005859000000000E+01
4580000000.000000      4.540558000000000E-01     -5.805859000000000E+01      1.945801000000000E-01     -6.023828000000000E+01
4600000000.000000      4.600677000000000E-01     -5.958398000000000E+01      1.924973000000000E-01     -9.040625000000000E+01
4620000000.000000      4.627228000000000E-01     -6.110156000000000E+01      1.924133000000000E-01     -1.214023000000000E+02
4640000000.000000      4.642487000000000E-01     -6.263476000000000E+01      1.892090000000000E-01     -1.526250000000000E+02
4660000000.000000      4.663391000000000E-01     -6.338476000000000E+01      1.894913000000000E-01      1.784688000000000E+02
4680000000.000000      4.709167000000000E-01     -6.472656000000000E+01      1.950226000000000E-01      1.481875000000000E+02
4700000000.000000      4.757233000000000E-01     -6.641406000000000E+01      1.964874000000000E-01      1.183047000000000E+02
4720000000.000000      4.789886000000000E-01     -6.847656000000000E+01      1.999588000000000E-01      8.997656000000000E+01
4740000000.000000      4.799194000000000E-01     -7.076953000000000E+01      2.031021000000000E-01      6.101953000000000E+01
4760000000.000000      4.777527000000000E-01     -7.294531000000000E+01      2.024307000000000E-01      3.296289000000000E+01
4780000000.000000      4.750519000000000E-01     -7.528125000000000E+01      1.987152000000000E-01      4.932861000000000E+00
4800000000.000000      4.687653000000000E-01     -7.759766000000000E+01      1.919250000000000E-01     -2.284472000000000E+01
4820000000.000000      4.571228000000000E-01     -7.991796000000000E+01      1.813812000000000E-01     -5.080078000000000E+01
4840000000.000000      4.385834000000000E-01     -8.171093000000000E+01      1.711655000000000E-01     -7.819140000000000E+01
4860000000.000000      4.192963000000000E-01     -8.225000000000000E+01      1.638565000000000E-01     -1.070430000000000E+02
4880000000.000000      4.003601000000000E-01     -8.128906000000000E+01      1.499481000000000E-01     -1.368125000000000E+02
4900000000.000000      3.922119000000000E-01     -7.921484000000000E+01      1.363525000000000E-01     -1.623516000000000E+02
4920000000.000000      3.973236000000000E-01     -7.697266000000000E+01      1.411438000000000E-01      1.730156000000000E+02
4940000000.000000      4.154205000000000E-01     -7.551952000000000E+01      1.539230000000000E-01      1.428281000000000E+02
4960000000.000000      4.425964000000000E-01     -7.610546000000000E+01      1.624756000000000E-01      1.112070000000000E+02
4980000000.000000      4.644318000000000E-01     -7.871484000000000E+01      1.715469000000000E-01      8.156250000000000E+01
5000000000.000000      4.737091000000000E-01     -8.224609000000000E+01      1.828613000000000E-01      5.167187000000000E+01
5020000000.000000      4.698944000000000E-01     -8.535156000000000E+01      1.892090000000000E-01      2.205176000000000E+01
5040000000.000000      4.577484000000000E-01     -8.751171000000000E+01      1.901627000000000E-01     -4.687256000000000E+00
5060000000.000000      4.477234000000000E-01     -8.862108000000000E+01      1.961212000000000E-01     -3.002930000000000E+01
5080000000.000000      4.415131000000000E-01     -8.907812000000000E+01      2.011032000000000E-01     -5.722461000000000E+01
5100000000.000000      4.409180000000000E-01     -8.961718000000000E+01      1.992035000000000E-01     -8.451172000000000E+01
5120000000.000000      4.429626000000000E-01     -9.043749000000000E+01      1.973495000000000E-01     -1.113594000000000E+02
5140000000.000000      4.463654000000000E-01     -9.118750000000000E+01      1.934662000000000E-01     -1.396719000000000E+02
5160000000.000000      4.488068000000000E-01     -9.221874000000000E+01      1.880951000000000E-01     -1.683828000000000E+02
5180000000.000000      4.552765000000000E-01     -9.325781000000000E+01      1.839294000000000E-01      1.613125000000000E+02
5200000000.000000      4.613800000000000E-01     -9.452343000000000E+01      1.801987000000000E-01      1.308125000000000E+02
5220000000.000000      4.650269000000000E-01     -9.616405000000000E+01      1.806946000000000E-01      1.000937000000000E+02
5240000000.000000      4.665985000000000E-01     -9.775391000000000E+01      1.835556000000000E-01      6.885547000000000E+01
5260000000.000000      4.651337000000000E-01     -9.944530000000000E+01      1.880951000000000E-01      3.815625000000000E+01
5280000000.000000      4.609833000000000E-01     -1.007695000000000E+02      1.926727000000000E-01      8.583984000000000E+00
5300000000.000000      4.592438000000000E-01     -1.018164000000000E+02      1.960602000000000E-01     -1.888769000000000E+01
5320000000.000000      4.591217000000000E-01     -1.028203000000000E+02      2.043915000000000E-01     -4.551953000000000E+01
5340000000.000000      4.597015000000000E-01     -1.040078000000000E+02      2.081757000000000E-01     -7.300390000000000E+01
5360000000.000000      4.597168000000000E-01     -1.055117000000000E+02      2.080383000000000E-01     -9.908592000000000E+01
5380000000.000000      4.608154000000000E-01     -1.067226000000000E+02      2.064896000000000E-01     -1.257656000000000E+02
5400000000.000000      4.609833000000000E-01     -1.079102000000000E+02      1.999664000000000E-01     -1.524062000000000E+02
5420000000.000000      4.636688000000000E-01     -1.084375000000000E+02      1.946716000000000E-01     -1.793594000000000E+02
5440000000.000000      4.691772000000000E-01     -1.091094000000000E+02      1.885986000000000E-01      1.514609000000000E+02
5460000000.000000      4.759216000000000E-01     -1.103047000000000E+02      1.786575000000000E-01      1.221211000000000E+02
5480000000.000000      4.826660000000000E-01     -1.120781000000000E+02      1.750870000000000E-01      9.117579000000000E+01
5500000000.000000      4.832916000000000E-01     -1.144570000000000E+02      1.734467000000000E-01      5.952343000000000E+01
5520000000.000000      4.787140000000000E-01     -1.167617000000000E+02      1.740875000000000E-01      2.727441000000000E+01
5540000000.000000      4.727631000000000E-01     -1.187383000000000E+02      1.757660000000000E-01     -3.669434000000000E+00
5560000000.000000      4.654083000000000E-01     -1.204726000000000E+02      1.812363000000000E-01     -3.235937000000000E+01
5580000000.000000      4.576874000000000E-01     -1.217148000000000E+02      1.900253000000000E-01     -6.069530000000000E+01
5600000000.000000      4.524689000000000E-01     -1.227656000000000E+02      1.954727000000000E-01     -8.818359000000000E+01
5620000000.000000      4.481049000000000E-01     -1.234805000000000E+02      1.999207000000000E-01     -1.143359000000000E+02
5640000000.000000      4.448853000000000E-01     -1.236953000000000E+02      2.008209000000000E-01     -1.406953000000000E+02
5660000000.000000      4.439850000000000E-01     -1.237852000000000E+02      1.976700000000000E-01     -1.661094000000000E+02
5680000000.000000      4.488525000000000E-01     -1.238750000000000E+02      1.929245000000000E-01      1.677266000000000E+02
5700000000.000000      4.600220000000000E-01     -1.246914000000000E+02      1.850815000000000E-01      1.407031000000000E+02
5720000000.000000      4.714203000000000E-01     -1.262461000000000E+02      1.772003000000000E-01      1.134961000000000E+02
5740000000.000000      4.793091000000000E-01     -1.288437000000000E+02      1.692581000000000E-01      8.335155000000000E+01
5760000000.000000      4.780731000000000E-01     -1.318906000000000E+02      1.607437000000000E-01      5.079102000000000E+01
5780000000.000000      4.687347000000000E-01     -1.344453000000000E+02      1.528702000000000E-01      1.777832000000000E+01
5800000000.000000      4.558868000000000E-01     -1.359062000000000E+02      1.497574000000000E-01     -1.381982000000000E+01
5820000000.000000      4.485626000000000E-01     -1.364063000000000E+02      1.564407000000000E-01     -4.511132000000000E+01
5840000000.000000      4.488678000000000E-01     -1.371328000000000E+02      1.669617000000000E-01     -7.673046000000000E+01
5860000000.000000      4.539185000000000E-01     -1.381016000000000E+02      1.745682000000000E-01     -1.056719000000000E+02
5880000000.000000      4.591827000000000E-01     -1.399609000000000E+02      1.815567000000000E-01     -1.338594000000000E+02
5900000000.000000      4.603119000000000E-01     -1.419141000000000E+02      1.876678000000000E-01     -1.605703000000000E+02
5920000000.000000      4.560089000000000E-01     -1.437891000000000E+02      1.904602000000000E-01      1.731328000000000E+02
5940000000.000000      4.521790000000000E-01     -1.451875000000000E+02      1.857300000000000E-01      1.467891000000000E+02
5960000000.000000      4.477386000000000E-01     -1.465312000000000E+02      1.772614000000000E-01      1.217617000000000E+02
5980000000.000000      4.434204000000000E-01     -1.479453000000000E+02      1.705322000000000E-01      9.566406000000000E+01
6000000000.000000      4.351501000000000E-01     -1.498516000000000E+02      1.602554000000000E-01      6.706640000000000E+01
6020000000.000000      4.208221000000000E-01     -1.514609000000000E+02      1.468811000000000E-01      3.716797000000000E+01
6040000000.000000      4.071808000000000E-01     -1.523906000000000E+02      1.317902000000000E-01      6.590332000000000E+00
6060000000.000000      3.971710000000000E-01     -1.526484000000000E+02      1.245728000000000E-01     -2.363183000000000E+01
6080000000.000000      3.929138000000000E-01     -1.519297000000000E+02      1.288834000000000E-01     -5.550586000000000E+01
