! Network Analyzer HP8722D
! Hewlett-Packard
! Data name: Linha com CNT
! Saver's name: Rodrigo Anjos
! Comments: Teste de deteccao de acetona 0-100ppm a partir de cilindro
! Time and date: 10/9/2025 17:51
!              Frequency                     S11                                                   S21                                                   S12                                                   S22
# HZ  S  MA R 50
3000000000.000000      1.128273000000000E-01      5.401172000000000E+01      4.212952000000000E-01      2.525879000000000E+01
3020000000.000000      1.329727000000000E-01      4.897655000000000E+01      4.235382000000000E-01     -3.622803000000000E+00
3040000000.000000      1.424789000000000E-01      3.988476000000000E+01      4.237823000000000E-01     -3.277539000000000E+01
3060000000.000000      1.369781000000000E-01      3.059375000000000E+01      4.222870000000000E-01     -6.125195000000000E+01
3080000000.000000      1.219444000000000E-01      2.379492000000000E+01      4.224701000000000E-01     -8.990234000000000E+01
3100000000.000000      1.072235000000000E-01      2.256445000000000E+01      4.185638000000000E-01     -1.181445000000000E+02
3120000000.000000      9.995651000000000E-02      2.511523000000000E+01      4.172974000000000E-01     -1.467734000000000E+02
3140000000.000000      9.865189000000000E-02      2.554296000000000E+01      4.122314000000000E-01     -1.754141000000000E+02
3160000000.000000      9.217072000000000E-02      2.274707000000000E+01      4.090424000000000E-01      1.561094000000000E+02
3180000000.000000      7.265472000000000E-02      2.392188000000000E+01      4.077301000000000E-01      1.276797000000000E+02
3200000000.000000      5.227280000000000E-02      4.700781000000000E+01      4.014282000000000E-01      9.839062000000000E+01
3220000000.000000      7.104111000000000E-02      8.380859000000000E+01      3.907166000000000E-01      6.904297000000000E+01
3240000000.000000      1.199760000000000E-01      8.917578000000000E+01      3.791962000000000E-01      4.190234000000000E+01
3260000000.000000      1.702347000000000E-01      8.126171000000000E+01      3.830109000000000E-01      1.482568000000000E+01
3280000000.000000      2.102051000000000E-01      6.924218000000000E+01      3.893433000000000E-01     -1.447900000000000E+01
3300000000.000000      2.358093000000000E-01      5.612499000000000E+01      3.860931000000000E-01     -4.302148000000000E+01
3320000000.000000      2.444305000000000E-01      4.365234000000000E+01      3.900452000000000E-01     -7.107812000000000E+01
3340000000.000000      2.399902000000000E-01      3.307031000000000E+01      3.964233000000000E-01     -9.994141000000000E+01
3360000000.000000      2.247543000000000E-01      2.519922000000000E+01      3.966370000000000E-01     -1.285156000000000E+02
3380000000.000000      2.069702000000000E-01      2.054688000000000E+01      4.020538000000000E-01     -1.570391000000000E+02
3400000000.000000      1.908875000000000E-01      1.807226000000000E+01      4.021301000000000E-01      1.744688000000000E+02
3420000000.000000      1.784286000000000E-01      1.690722000000000E+01      4.027252000000000E-01      1.455859000000000E+02
3440000000.000000      1.668472000000000E-01      1.618652000000000E+01      4.007416000000000E-01      1.167734000000000E+02
3460000000.000000      1.566544000000000E-01      1.600293000000000E+01      3.997040000000000E-01      8.869532000000000E+01
3480000000.000000      1.501923000000000E-01      1.632422000000000E+01      3.994141000000000E-01      5.972265000000000E+01
3500000000.000000      1.458054000000000E-01      1.762891000000000E+01      3.952026000000000E-01      3.062402000000000E+01
3520000000.000000      1.428452000000000E-01      1.823437000000000E+01      3.925629000000000E-01      2.596802000000000E+00
3540000000.000000      1.413879000000000E-01      1.967187000000000E+01      3.939667000000000E-01     -2.588281000000000E+01
3560000000.000000      1.391907000000000E-01      2.236621000000000E+01      3.959351000000000E-01     -5.498437000000000E+01
3580000000.000000      1.419220000000000E-01      2.615234000000000E+01      3.943329000000000E-01     -8.375000000000000E+01
3600000000.000000      1.513977000000000E-01      2.848730000000000E+01      3.943176000000000E-01     -1.116836000000000E+02
3620000000.000000      1.639175000000000E-01      2.779492000000000E+01      3.949280000000000E-01     -1.400547000000000E+02
3640000000.000000      1.717224000000000E-01      2.407617000000000E+01      3.976898000000000E-01     -1.683594000000000E+02
3660000000.000000      1.711044000000000E-01      1.884082000000000E+01      3.954468000000000E-01      1.637656000000000E+02
3680000000.000000      1.617279000000000E-01      1.541748000000000E+01      3.971863000000000E-01      1.357578000000000E+02
3700000000.000000      1.483917000000000E-01      1.561279000000000E+01      3.985901000000000E-01      1.074570000000000E+02
3720000000.000000      1.441803000000000E-01      2.048242000000000E+01      3.969269000000000E-01      7.893749000000000E+01
3740000000.000000      1.551895000000000E-01      2.480566000000000E+01      3.909760000000000E-01      5.038867000000000E+01
3760000000.000000      1.724625000000000E-01      2.421582000000000E+01      3.870697000000000E-01      2.277246000000000E+01
3780000000.000000      1.838455000000000E-01      1.942578000000000E+01      3.879547000000000E-01     -5.196533000000000E+00
3800000000.000000      1.810760000000000E-01      1.359961000000000E+01      3.884888000000000E-01     -3.375586000000000E+01
3820000000.000000      1.663742000000000E-01      9.706055000000000E+00      3.883057000000000E-01     -6.241992000000000E+01
3840000000.000000      1.512451000000000E-01      1.116455000000000E+01      3.864441000000000E-01     -9.153906000000000E+01
3860000000.000000      1.490936000000000E-01      1.611621000000000E+01      3.858490000000000E-01     -1.203516000000000E+02
3880000000.000000      1.616669000000000E-01      1.882422000000000E+01      3.837128000000000E-01     -1.496328000000000E+02
3900000000.000000      1.776505000000000E-01      1.610937000000000E+01      3.754883000000000E-01     -1.776953000000000E+02
3920000000.000000      1.806717000000000E-01      1.054541000000000E+01      3.780670000000000E-01      1.548672000000000E+02
3940000000.000000      1.678314000000000E-01      6.260742000000000E+00      3.840790000000000E-01      1.263945000000000E+02
3960000000.000000      1.486588000000000E-01      7.563965000000000E+00      3.842316000000000E-01      9.714844000000000E+01
3980000000.000000      1.432343000000000E-01      1.626172000000000E+01      3.765106000000000E-01      6.835938000000000E+01
4000000000.000000      1.627960000000000E-01      2.278809000000000E+01      3.708496000000000E-01      4.166016000000000E+01
4020000000.000000      1.940460000000000E-01      2.076465000000000E+01      3.768311000000000E-01      1.402539000000000E+01
4040000000.000000      2.195663000000000E-01      1.222900000000000E+01      3.777466000000000E-01     -1.613281000000000E+01
4060000000.000000      2.244415000000000E-01      1.376038000000000E+00      3.649139000000000E-01     -4.491796000000000E+01
4080000000.000000      2.064819000000000E-01     -9.471680000000000E+00      3.646851000000000E-01     -7.218750000000000E+01
4100000000.000000      1.698914000000000E-01     -1.665820000000000E+01      3.727417000000000E-01     -1.007969000000000E+02
4120000000.000000      1.320496000000000E-01     -1.470264000000000E+01      3.704529000000000E-01     -1.308125000000000E+02
4140000000.000000      1.154175000000000E-01     -2.650513000000000E+00      3.644562000000000E-01     -1.598281000000000E+02
4160000000.000000      1.238785000000000E-01      7.180908000000000E+00      3.659973000000000E-01      1.727578000000000E+02
4180000000.000000      1.377716000000000E-01      8.811035000000000E+00      3.733978000000000E-01      1.439531000000000E+02
4200000000.000000      1.409225000000000E-01      6.968018000000000E+00      3.719177000000000E-01      1.139883000000000E+02
4220000000.000000      1.374664000000000E-01      7.665527000000000E+00      3.675079000000000E-01      8.510546000000000E+01
4240000000.000000      1.378098000000000E-01      1.281787000000000E+01      3.616943000000000E-01      5.651172000000000E+01
4260000000.000000      1.536179000000000E-01      1.768457000000000E+01      3.568268000000000E-01      2.851269000000000E+01
4280000000.000000      1.771927000000000E-01      1.731152000000000E+01      3.576965000000000E-01      4.490662000000000E-01
4300000000.000000      1.967392000000000E-01      1.263965000000000E+01      3.547668000000000E-01     -2.827929000000000E+01
4320000000.000000      2.030411000000000E-01      6.069824000000000E+00      3.525848000000000E-01     -5.710742000000000E+01
4340000000.000000      1.964951000000000E-01      5.094910000000000E-01      3.519745000000000E-01     -8.618359000000000E+01
4360000000.000000      1.857910000000000E-01     -1.329346000000000E+00      3.498688000000000E-01     -1.153828000000000E+02
4380000000.000000      1.817093000000000E-01      1.922607000000000E-02      3.487244000000000E-01     -1.451250000000000E+02
4400000000.000000      1.896362000000000E-01      5.355835000000000E-01      3.457947000000000E-01     -1.742109000000000E+02
4420000000.000000      2.003937000000000E-01     -1.976196000000000E+00      3.470459000000000E-01      1.570937000000000E+02
4440000000.000000      2.020950000000000E-01     -6.815674000000000E+00      3.490295000000000E-01      1.274570000000000E+02
4460000000.000000      1.913757000000000E-01     -1.062256000000000E+01      3.436737000000000E-01      9.782030000000000E+01
4480000000.000000      1.726685000000000E-01     -1.010205000000000E+01      3.397827000000000E-01      6.937890000000000E+01
4500000000.000000      1.658020000000000E-01     -4.211914000000000E+00      3.405457000000000E-01      4.064649000000000E+01
4520000000.000000      1.796341000000000E-01      1.450195000000000E+00      3.353882000000000E-01      1.133887000000000E+01
4540000000.000000      2.062454000000000E-01      9.324646000000000E-01      3.278046000000000E-01     -1.784375000000000E+01
4560000000.000000      2.288513000000000E-01     -4.003174000000000E+00      3.226624000000000E-01     -4.618360000000000E+01
4580000000.000000      2.409592000000000E-01     -1.091650000000000E+01      3.244934000000000E-01     -7.542578000000000E+01
4600000000.000000      2.404251000000000E-01     -1.709082000000000E+01      3.205872000000000E-01     -1.059297000000000E+02
4620000000.000000      2.339783000000000E-01     -2.123340000000000E+01      3.163300000000000E-01     -1.352422000000000E+02
4640000000.000000      2.310028000000000E-01     -2.373926000000000E+01      3.151398000000000E-01     -1.651250000000000E+02
4660000000.000000      2.319870000000000E-01     -2.633203000000000E+01      3.153687000000000E-01      1.659922000000000E+02
4680000000.000000      2.345886000000000E-01     -3.031445000000000E+01      3.189545000000000E-01      1.369219000000000E+02
4700000000.000000      2.320023000000000E-01     -3.581836000000000E+01      3.193512000000000E-01      1.071992000000000E+02
4720000000.000000      2.216797000000000E-01     -4.167188000000000E+01      3.172302000000000E-01      7.901172000000000E+01
4740000000.000000      2.070923000000000E-01     -4.711133000000000E+01      3.226318000000000E-01      5.111523000000000E+01
4760000000.000000      1.883469000000000E-01     -5.182812000000000E+01      3.225250000000000E-01      2.244629000000000E+01
4780000000.000000      1.681519000000000E-01     -5.638476000000000E+01      3.198242000000000E-01     -5.956055000000000E+00
4800000000.000000      1.415253000000000E-01     -6.118164000000000E+01      3.156738000000000E-01     -3.447266000000000E+01
4820000000.000000      1.042595000000000E-01     -6.372070000000000E+01      3.065186000000000E-01     -6.350586000000000E+01
4840000000.000000      6.077003000000000E-02     -4.781640000000000E+01      2.998657000000000E-01     -9.230078000000000E+01
4860000000.000000      6.395721000000000E-02      4.810547000000000E+00      2.930603000000000E-01     -1.230430000000000E+02
4880000000.000000      1.235085000000000E-01      1.860742000000000E+01      2.740631000000000E-01     -1.536172000000000E+02
4900000000.000000      1.870117000000000E-01      1.166455000000000E+01      2.532349000000000E-01      1.790937000000000E+02
4920000000.000000      2.406464000000000E-01     -1.744080000000000E-01      2.539063000000000E-01      1.539922000000000E+02
4940000000.000000      2.768555000000000E-01     -1.330859000000000E+01      2.683105000000000E-01      1.252578000000000E+02
4960000000.000000      2.907562000000000E-01     -2.665430000000000E+01      2.730713000000000E-01      9.538280000000000E+01
4980000000.000000      2.821350000000000E-01     -3.910937000000000E+01      2.783508000000000E-01      6.784765000000000E+01
5000000000.000000      2.526398000000000E-01     -4.887304000000000E+01      2.914276000000000E-01      4.002539000000000E+01
5020000000.000000      2.134171000000000E-01     -5.351757000000000E+01      3.011475000000000E-01      1.171924000000000E+01
5040000000.000000      1.835327000000000E-01     -5.126562000000000E+01      3.078461000000000E-01     -1.582178000000000E+01
5060000000.000000      1.755447000000000E-01     -4.498242000000000E+01      3.151855000000000E-01     -4.279492000000000E+01
5080000000.000000      1.845016000000000E-01     -4.128320000000000E+01      3.204498000000000E-01     -7.123828000000000E+01
5100000000.000000      1.965790000000000E-01     -4.196679000000000E+01      3.163147000000000E-01     -9.962891000000000E+01
5120000000.000000      2.031479000000000E-01     -4.458593000000000E+01      3.112946000000000E-01     -1.271289000000000E+02
5140000000.000000      2.072372000000000E-01     -4.722461000000000E+01      3.098755000000000E-01     -1.554219000000000E+02
5160000000.000000      2.096329000000000E-01     -4.965038000000000E+01      3.069763000000000E-01      1.751797000000000E+02
5180000000.000000      2.141495000000000E-01     -5.240624000000000E+01      3.035431000000000E-01      1.453984000000000E+02
5200000000.000000      2.173538000000000E-01     -5.572656000000000E+01      3.009796000000000E-01      1.155859000000000E+02
5220000000.000000      2.150879000000000E-01     -5.925390000000000E+01      3.016663000000000E-01      8.601563000000000E+01
5240000000.000000      2.092743000000000E-01     -6.185937000000000E+01      3.061981000000000E-01      5.615039000000000E+01
5260000000.000000      2.026520000000000E-01     -6.292773000000000E+01      3.102112000000000E-01      2.658886000000000E+01
5280000000.000000      1.989441000000000E-01     -6.272070000000000E+01      3.144379000000000E-01     -2.396484000000000E+00
5300000000.000000      2.016907000000000E-01     -6.286523000000000E+01      3.166656000000000E-01     -3.060547000000000E+01
5320000000.000000      2.056656000000000E-01     -6.466797000000000E+01      3.211365000000000E-01     -5.778320000000000E+01
5340000000.000000      2.056198000000000E-01     -6.771093000000000E+01      3.242340000000000E-01     -8.558203000000000E+01
5360000000.000000      2.013931000000000E-01     -7.057422000000000E+01      3.206329000000000E-01     -1.128164000000000E+02
5380000000.000000      1.965103000000000E-01     -7.195703000000000E+01      3.168488000000000E-01     -1.395469000000000E+02
5400000000.000000      1.952362000000000E-01     -7.210546000000000E+01      3.157196000000000E-01     -1.671484000000000E+02
5420000000.000000      2.023773000000000E-01     -7.205859000000000E+01      3.094482000000000E-01      1.646953000000000E+02
5440000000.000000      2.140808000000000E-01     -7.379687000000000E+01      3.043671000000000E-01      1.356719000000000E+02
5460000000.000000      2.212982000000000E-01     -7.788280000000000E+01      2.946320000000000E-01      1.060039000000000E+02
5480000000.000000      2.209854000000000E-01     -8.300390000000000E+01      2.900238000000000E-01      7.667187000000000E+01
5500000000.000000      2.098541000000000E-01     -8.836329000000000E+01      2.914276000000000E-01      4.694140000000000E+01
5520000000.000000      1.920624000000000E-01     -9.196875000000000E+01      2.928009000000000E-01      1.656738000000000E+01
5540000000.000000      1.750488000000000E-01     -9.280468000000000E+01      2.965240000000000E-01     -1.313965000000000E+01
5560000000.000000      1.623535000000000E-01     -9.241014000000000E+01      3.013916000000000E-01     -4.210938000000000E+01
5580000000.000000      1.537933000000000E-01     -9.078125000000000E+01      3.073578000000000E-01     -7.064843000000000E+01
5600000000.000000      1.480637000000000E-01     -8.844921000000000E+01      3.113098000000000E-01     -9.859764000000000E+01
5620000000.000000      1.453781000000000E-01     -8.444139000000000E+01      3.135376000000000E-01     -1.263984000000000E+02
5640000000.000000      1.520309000000000E-01     -7.940624000000000E+01      3.117371000000000E-01     -1.539844000000000E+02
5660000000.000000      1.698761000000000E-01     -7.592968000000000E+01      3.058624000000000E-01      1.789297000000000E+02
5680000000.000000      1.947556000000000E-01     -7.742188000000000E+01      3.001404000000000E-01      1.511328000000000E+02
5700000000.000000      2.175522000000000E-01     -8.341015000000000E+01      2.890472000000000E-01      1.229062000000000E+02
5720000000.000000      2.278824000000000E-01     -9.185547000000000E+01      2.790527000000000E-01      9.515234000000000E+01
5740000000.000000      2.218323000000000E-01     -1.010234000000000E+02      2.754059000000000E-01      6.648828000000000E+01
5760000000.000000      2.022781000000000E-01     -1.085820000000000E+02      2.716522000000000E-01      3.557812000000000E+01
5780000000.000000      1.769485000000000E-01     -1.115703000000000E+02      2.669830000000000E-01      5.144287000000000E+00
5800000000.000000      1.591568000000000E-01     -1.090156000000000E+02      2.678375000000000E-01     -2.485547000000000E+01
5820000000.000000      1.588058000000000E-01     -1.053594000000000E+02      2.731934000000000E-01     -5.482226000000000E+01
5840000000.000000      1.677399000000000E-01     -1.061797000000000E+02      2.808990000000000E-01     -8.532812000000000E+01
5860000000.000000      1.737061000000000E-01     -1.111133000000000E+02      2.814484000000000E-01     -1.144765000000000E+02
5880000000.000000      1.690598000000000E-01     -1.179453000000000E+02      2.831879000000000E-01     -1.419609000000000E+02
5900000000.000000      1.549988000000000E-01     -1.232656000000000E+02      2.907257000000000E-01     -1.690625000000000E+02
5920000000.000000      1.382065000000000E-01     -1.243984000000000E+02      2.936859000000000E-01      1.627344000000000E+02
5940000000.000000      1.283112000000000E-01     -1.217226000000000E+02      2.880859000000000E-01      1.340391000000000E+02
5960000000.000000      1.247253000000000E-01     -1.205430000000000E+02      2.762146000000000E-01      1.067148000000000E+02
5980000000.000000      1.187019000000000E-01     -1.218984000000000E+02      2.685242000000000E-01      7.905078000000000E+01
6000000000.000000      1.019554000000000E-01     -1.232969000000000E+02      2.645416000000000E-01      4.953320000000000E+01
6020000000.000000      7.923889000000000E-02     -1.177148000000000E+02      2.532349000000000E-01      1.864746000000000E+01
6040000000.000000      6.885147000000000E-02     -9.726171000000000E+01      2.412109000000000E-01     -1.163330000000000E+01
6060000000.000000      8.498764000000000E-02     -8.027735000000000E+01      2.382278000000000E-01     -4.139257000000000E+01
6080000000.000000      1.145859000000000E-01     -7.886719000000000E+01      2.442932000000000E-01     -7.164063000000000E+01
