! Network Analyzer HP8722D
! Hewlett-Packard
! Data name: Linha com CNT
! Saver's name: Rodrigo Anjos
! Comments: Teste de deteccao de acetona 0-100ppm a partir de cilindro
! Time and date: 10/9/2025 15:20
!              Frequency                     S11                                                   S21                                                   S12                                                   S22
# HZ  S  MA R 50
3000000000.000000      6.453247000000000E-01      1.053857000000000E+01      1.893158000000000E-01      4.129883000000000E+01
3020000000.000000      6.516113000000000E-01      9.746094000000000E+00      1.940384000000000E-01      1.147363000000000E+01
3040000000.000000      6.537781000000000E-01      9.117188000000000E+00      1.944962000000000E-01     -1.767187000000000E+01
3060000000.000000      6.583557000000000E-01      7.910156000000000E+00      1.951752000000000E-01     -4.707227000000000E+01
3080000000.000000      6.611328000000000E-01      6.624756000000000E+00      1.910248000000000E-01     -7.603516000000000E+01
3100000000.000000      6.610413000000000E-01      5.321289000000000E+00      1.900787000000000E-01     -1.035508000000000E+02
3120000000.000000      6.601257000000000E-01      4.191162000000000E+00      1.896362000000000E-01     -1.321172000000000E+02
3140000000.000000      6.618652000000000E-01      3.367310000000000E+00      1.865005000000000E-01     -1.607812000000000E+02
3160000000.000000      6.640015000000000E-01      2.330444000000000E+00      1.832275000000000E-01      1.706094000000000E+02
3180000000.000000      6.651001000000000E-01      1.040955000000000E+00      1.778259000000000E-01      1.429062000000000E+02
3200000000.000000      6.617126000000000E-01      1.744080000000000E-01      1.742325000000000E-01      1.147148000000000E+02
3220000000.000000      6.571045000000000E-01     -9.049988000000000E-01      1.663666000000000E-01      8.626953000000000E+01
3240000000.000000      6.509094000000000E-01     -1.767456000000000E+00      1.612625000000000E-01      6.161133000000000E+01
3260000000.000000      6.478577000000000E-01     -2.197266000000000E+00      1.698151000000000E-01      3.605273000000000E+01
3280000000.000000      6.463013000000000E-01     -2.757568000000000E+00      1.771927000000000E-01      6.384277000000000E+00
3300000000.000000      6.495972000000000E-01     -3.228638000000000E+00      1.811218000000000E-01     -2.237402000000000E+01
3320000000.000000      6.574707000000000E-01     -3.762817000000000E+00      1.885376000000000E-01     -5.158398000000000E+01
3340000000.000000      6.668701000000000E-01     -4.817627000000000E+00      1.929169000000000E-01     -8.178125000000000E+01
3360000000.000000      6.714783000000000E-01     -6.032959000000000E+00      1.946945000000000E-01     -1.119375000000000E+02
3380000000.000000      6.740112000000000E-01     -7.248291000000000E+00      1.933212000000000E-01     -1.414922000000000E+02
3400000000.000000      6.724854000000000E-01     -8.510742000000000E+00      1.927338000000000E-01     -1.701484000000000E+02
3420000000.000000      6.715393000000000E-01     -9.324707000000000E+00      1.905365000000000E-01      1.607109000000000E+02
3440000000.000000      6.683044000000000E-01     -1.062793000000000E+01      1.865997000000000E-01      1.329453000000000E+02
3460000000.000000      6.647339000000000E-01     -1.165381000000000E+01      1.875687000000000E-01      1.048047000000000E+02
3480000000.000000      6.664429000000000E-01     -1.272949000000000E+01      1.842880000000000E-01      7.573047000000000E+01
3500000000.000000      6.650085000000000E-01     -1.362598000000000E+01      1.827011000000000E-01      4.799218000000000E+01
3520000000.000000      6.645203000000000E-01     -1.463818000000000E+01      1.827164000000000E-01      1.876269000000000E+01
3540000000.000000      6.648865000000000E-01     -1.558447000000000E+01      1.779480000000000E-01     -9.452637000000000E+00
3560000000.000000      6.636963000000000E-01     -1.639941000000000E+01      1.794052000000000E-01     -3.737109000000000E+01
3580000000.000000      6.641541000000000E-01     -1.737793000000000E+01      1.791763000000000E-01     -6.627734000000000E+01
3600000000.000000      6.626892000000000E-01     -1.829590000000000E+01      1.791916000000000E-01     -9.352734000000000E+01
3620000000.000000      6.629333000000000E-01     -1.916308000000000E+01      1.833496000000000E-01     -1.218750000000000E+02
3640000000.000000      6.615601000000000E-01     -1.991699000000000E+01      1.850739000000000E-01     -1.504141000000000E+02
3660000000.000000      6.592102000000000E-01     -2.110644000000000E+01      1.866302000000000E-01     -1.788828000000000E+02
3680000000.000000      6.633606000000000E-01     -2.216406000000000E+01      1.847763000000000E-01      1.524375000000000E+02
3700000000.000000      6.615906000000000E-01     -2.351074000000000E+01      1.837006000000000E-01      1.254961000000000E+02
3720000000.000000      6.584778000000000E-01     -2.456836000000000E+01      1.857986000000000E-01      9.724998000000000E+01
3740000000.000000      6.596069000000000E-01     -2.515234000000000E+01      1.829071000000000E-01      6.871484000000000E+01
3760000000.000000      6.585999000000000E-01     -2.584179000000000E+01      1.836319000000000E-01      4.163671000000000E+01
3780000000.000000      6.587524000000000E-01     -2.640234000000000E+01      1.862488000000000E-01      1.246387000000000E+01
3800000000.000000      6.634216000000000E-01     -2.742188000000000E+01      1.855087000000000E-01     -1.716016000000000E+01
3820000000.000000      6.635437000000000E-01     -2.882031000000000E+01      1.841660000000000E-01     -4.587500000000000E+01
3840000000.000000      6.652222000000000E-01     -3.011914000000000E+01      1.849823000000000E-01     -7.440234000000000E+01
3860000000.000000      6.637878000000000E-01     -3.111230000000000E+01      1.864929000000000E-01     -1.038437000000000E+02
3880000000.000000      6.603088000000000E-01     -3.213476000000000E+01      1.842728000000000E-01     -1.329062000000000E+02
3900000000.000000      6.624451000000000E-01     -3.301367000000000E+01      1.856689000000000E-01     -1.604375000000000E+02
3920000000.000000      6.629944000000000E-01     -3.385742000000000E+01      1.889038000000000E-01      1.708750000000000E+02
3940000000.000000      6.672668000000000E-01     -3.493750000000000E+01      1.874619000000000E-01      1.423437000000000E+02
3960000000.000000      6.665039000000000E-01     -3.618750000000000E+01      1.878357000000000E-01      1.143164000000000E+02
3980000000.000000      6.626892000000000E-01     -3.747461000000000E+01      1.829300000000000E-01      8.582811000000000E+01
4000000000.000000      6.542969000000000E-01     -3.837695000000000E+01      1.803360000000000E-01      6.068945000000000E+01
4020000000.000000      6.521606000000000E-01     -3.887109000000000E+01      1.883087000000000E-01      3.291601000000000E+01
4040000000.000000      6.571045000000000E-01     -3.949609000000000E+01      1.880264000000000E-01      2.386719000000000E+00
4060000000.000000      6.651306000000000E-01     -4.039453000000000E+01      1.852722000000000E-01     -2.656933000000000E+01
4080000000.000000      6.749573000000000E-01     -4.199804000000000E+01      1.848297000000000E-01     -5.596680000000000E+01
4100000000.000000      6.740112000000000E-01     -4.353320000000000E+01      1.835632000000000E-01     -8.543360000000000E+01
4120000000.000000      6.729736000000000E-01     -4.516015000000000E+01      1.806335000000000E-01     -1.157734000000000E+02
4140000000.000000      6.688232000000000E-01     -4.616211000000000E+01      1.733780000000000E-01     -1.440469000000000E+02
4160000000.000000      6.656799000000000E-01     -4.744922000000000E+01      1.764908000000000E-01     -1.701406000000000E+02
4180000000.000000      6.607056000000000E-01     -4.835938000000000E+01      1.808472000000000E-01      1.605781000000000E+02
4200000000.000000      6.614685000000000E-01     -4.963085000000000E+01      1.783981000000000E-01      1.323437000000000E+02
4220000000.000000      6.632385000000000E-01     -5.060547000000000E+01      1.811371000000000E-01      1.045469000000000E+02
4240000000.000000      6.575928000000000E-01     -5.196289000000000E+01      1.767426000000000E-01      7.552343000000000E+01
4260000000.000000      6.581726000000000E-01     -5.283789000000000E+01      1.718903000000000E-01      4.912499000000000E+01
4280000000.000000      6.544189000000000E-01     -5.355469000000000E+01      1.732178000000000E-01      2.201172000000000E+01
4300000000.000000      6.533508000000000E-01     -5.442577000000000E+01      1.727448000000000E-01     -6.572754000000000E+00
4320000000.000000      6.563721000000000E-01     -5.536718000000000E+01      1.714401000000000E-01     -3.519336000000000E+01
4340000000.000000      6.593323000000000E-01     -5.648242000000000E+01      1.711502000000000E-01     -6.491015000000000E+01
4360000000.000000      6.588135000000000E-01     -5.797070000000000E+01      1.701660000000000E-01     -9.496874000000000E+01
4380000000.000000      6.589050000000000E-01     -5.900976000000000E+01      1.668854000000000E-01     -1.251992000000000E+02
4400000000.000000      6.558228000000000E-01     -6.030663000000000E+01      1.662369000000000E-01     -1.538516000000000E+02
4420000000.000000      6.546631000000000E-01     -6.118750000000000E+01      1.709366000000000E-01      1.771797000000000E+02
4440000000.000000      6.592102000000000E-01     -6.208398000000000E+01      1.728058000000000E-01      1.474609000000000E+02
4460000000.000000      6.621094000000000E-01     -6.316796000000000E+01      1.729584000000000E-01      1.182617000000000E+02
4480000000.000000      6.597900000000000E-01     -6.460155000000000E+01      1.725998000000000E-01      8.957811000000000E+01
4500000000.000000      6.589966000000000E-01     -6.598827000000000E+01      1.698303000000000E-01      6.202538000000000E+01
4520000000.000000      6.526794000000000E-01     -6.717187000000000E+01      1.675262000000000E-01      3.443750000000000E+01
4540000000.000000      6.502075000000000E-01     -6.823828000000000E+01      1.624451000000000E-01      6.947266000000000E+00
4560000000.000000      6.494141000000000E-01     -6.909765000000000E+01      1.625061000000000E-01     -2.020117000000000E+01
4580000000.000000      6.516724000000000E-01     -7.009766000000000E+01      1.621323000000000E-01     -5.057422000000000E+01
4600000000.000000      6.539917000000000E-01     -7.117578000000000E+01      1.586914000000000E-01     -8.070704000000000E+01
4620000000.000000      6.558838000000000E-01     -7.227344000000000E+01      1.579895000000000E-01     -1.125547000000000E+02
4640000000.000000      6.548157000000000E-01     -7.322266000000000E+01      1.531525000000000E-01     -1.442422000000000E+02
4660000000.000000      6.557312000000000E-01     -7.439062000000000E+01      1.543808000000000E-01     -1.738281000000000E+02
4680000000.000000      6.557007000000000E-01     -7.501953000000000E+01      1.602020000000000E-01      1.552734000000000E+02
4700000000.000000      6.577454000000000E-01     -7.622265000000000E+01      1.636200000000000E-01      1.250508000000000E+02
4720000000.000000      6.531982000000000E-01     -7.698437000000000E+01      1.693573000000000E-01      9.591406000000000E+01
4740000000.000000      6.564026000000000E-01     -7.851171000000000E+01      1.731873000000000E-01      6.697656000000000E+01
4760000000.000000      6.586304000000000E-01     -7.994141000000000E+01      1.734924000000000E-01      3.948242000000000E+01
4780000000.000000      6.599426000000000E-01     -8.154297000000000E+01      1.714554000000000E-01      1.168506000000000E+01
4800000000.000000      6.609802000000000E-01     -8.339453000000000E+01      1.652985000000000E-01     -1.523828000000000E+01
4820000000.000000      6.579590000000000E-01     -8.519922000000000E+01      1.553574000000000E-01     -4.203321000000000E+01
4840000000.000000      6.491394000000000E-01     -8.696875000000000E+01      1.447296000000000E-01     -6.807812000000000E+01
4860000000.000000      6.424255000000000E-01     -8.871094000000000E+01      1.362610000000000E-01     -9.588282000000000E+01
4880000000.000000      6.275635000000000E-01     -8.975000000000000E+01      1.222458000000000E-01     -1.247969000000000E+02
4900000000.000000      6.163635000000000E-01     -9.045702000000000E+01      1.098747000000000E-01     -1.495312000000000E+02
4920000000.000000      6.056519000000000E-01     -9.077343000000000E+01      1.123390000000000E-01     -1.744453000000000E+02
4940000000.000000      6.032715000000000E-01     -9.067577000000000E+01      1.232338000000000E-01      1.545859000000000E+02
4960000000.000000      6.128845000000000E-01     -9.033203000000000E+01      1.307373000000000E-01      1.214883000000000E+02
4980000000.000000      6.253662000000000E-01     -9.119532000000000E+01      1.403885000000000E-01      9.010546000000000E+01
5000000000.000000      6.356812000000000E-01     -9.258593000000000E+01      1.513748000000000E-01      5.878906000000000E+01
5020000000.000000      6.436462000000000E-01     -9.436718000000000E+01      1.578445000000000E-01      2.879883000000000E+01
5040000000.000000      6.422119000000000E-01     -9.620703000000000E+01      1.598434000000000E-01      2.344116000000000E+00
5060000000.000000      6.377563000000000E-01     -9.782421000000000E+01      1.661530000000000E-01     -2.219824000000000E+01
5080000000.000000      6.300964000000000E-01     -9.920311000000000E+01      1.730499000000000E-01     -4.851171000000000E+01
5100000000.000000      6.279907000000000E-01     -1.000391000000000E+02      1.720963000000000E-01     -7.487109000000000E+01
5120000000.000000      6.235352000000000E-01     -1.010508000000000E+02      1.713562000000000E-01     -1.009609000000000E+02
5140000000.000000      6.235046000000000E-01     -1.017500000000000E+02      1.669388000000000E-01     -1.289531000000000E+02
5160000000.000000      6.253967000000000E-01     -1.027422000000000E+02      1.601105000000000E-01     -1.569687000000000E+02
5180000000.000000      6.308289000000000E-01     -1.035781000000000E+02      1.544342000000000E-01      1.728594000000000E+02
5200000000.000000      6.359558000000000E-01     -1.046094000000000E+02      1.485062000000000E-01      1.416406000000000E+02
5220000000.000000      6.400452000000000E-01     -1.061055000000000E+02      1.481323000000000E-01      1.100625000000000E+02
5240000000.000000      6.432800000000000E-01     -1.071641000000000E+02      1.501617000000000E-01      7.745312000000000E+01
5260000000.000000      6.447144000000000E-01     -1.087500000000000E+02      1.547699000000000E-01      4.552539000000000E+01
5280000000.000000      6.412964000000000E-01     -1.101250000000000E+02      1.594009000000000E-01      1.519922000000000E+01
5300000000.000000      6.390381000000000E-01     -1.115625000000000E+02      1.648560000000000E-01     -1.203027000000000E+01
5320000000.000000      6.365967000000000E-01     -1.128164000000000E+02      1.754913000000000E-01     -3.839453000000000E+01
5340000000.000000      6.358948000000000E-01     -1.139961000000000E+02      1.812363000000000E-01     -6.546484000000000E+01
5360000000.000000      6.343079000000000E-01     -1.151953000000000E+02      1.834717000000000E-01     -9.105078000000000E+01
5380000000.000000      6.345825000000000E-01     -1.162187000000000E+02      1.822891000000000E-01     -1.172227000000000E+02
5400000000.000000      6.358643000000000E-01     -1.172305000000000E+02      1.760101000000000E-01     -1.428828000000000E+02
5420000000.000000      6.369629000000000E-01     -1.181641000000000E+02      1.713333000000000E-01     -1.687266000000000E+02
5440000000.000000      6.407471000000000E-01     -1.189336000000000E+02      1.636047000000000E-01      1.621797000000000E+02
5460000000.000000      6.440430000000000E-01     -1.200508000000000E+02      1.529236000000000E-01      1.328047000000000E+02
5480000000.000000      6.491394000000000E-01     -1.212266000000000E+02      1.463852000000000E-01      1.015078000000000E+02
5500000000.000000      6.559448000000000E-01     -1.229180000000000E+02      1.423798000000000E-01      6.848046000000000E+01
5520000000.000000      6.534424000000000E-01     -1.248516000000000E+02      1.417923000000000E-01      3.445313000000000E+01
5540000000.000000      6.532288000000000E-01     -1.266602000000000E+02      1.433029000000000E-01      2.263184000000000E+00
5560000000.000000      6.486511000000000E-01     -1.285781000000000E+02      1.492081000000000E-01     -2.660645000000000E+01
5580000000.000000      6.407166000000000E-01     -1.301719000000000E+02      1.614304000000000E-01     -5.496875000000000E+01
5600000000.000000      6.360779000000000E-01     -1.312969000000000E+02      1.688843000000000E-01     -8.226171000000000E+01
5620000000.000000      6.314392000000000E-01     -1.325859000000000E+02      1.763840000000000E-01     -1.076445000000000E+02
5640000000.000000      6.276855000000000E-01     -1.338125000000000E+02      1.797638000000000E-01     -1.330312000000000E+02
5660000000.000000      6.237488000000000E-01     -1.343125000000000E+02      1.776962000000000E-01     -1.573203000000000E+02
5680000000.000000      6.223145000000000E-01     -1.351016000000000E+02      1.741180000000000E-01      1.777422000000000E+02
5700000000.000000      6.234131000000000E-01     -1.358125000000000E+02      1.656570000000000E-01      1.522187000000000E+02
5720000000.000000      6.296997000000000E-01     -1.367031000000000E+02      1.563034000000000E-01      1.257422000000000E+02
5740000000.000000      6.347351000000000E-01     -1.383516000000000E+02      1.443405000000000E-01      9.587891000000000E+01
5760000000.000000      6.342163000000000E-01     -1.403672000000000E+02      1.303177000000000E-01      6.322851000000000E+01
5780000000.000000      6.291504000000000E-01     -1.425781000000000E+02      1.178436000000000E-01      2.909375000000000E+01
5800000000.000000      6.180725000000000E-01     -1.442422000000000E+02      1.121902000000000E-01     -4.775146000000000E+00
5820000000.000000      6.053162000000000E-01     -1.453750000000000E+02      1.186752000000000E-01     -3.803906000000000E+01
5840000000.000000      5.985413000000000E-01     -1.462891000000000E+02      1.312408000000000E-01     -7.156250000000000E+01
5860000000.000000      5.975037000000000E-01     -1.467734000000000E+02      1.431885000000000E-01     -1.015547000000000E+02
5880000000.000000      6.015930000000000E-01     -1.477813000000000E+02      1.551132000000000E-01     -1.298281000000000E+02
5900000000.000000      6.046753000000000E-01     -1.487578000000000E+02      1.636353000000000E-01     -1.558906000000000E+02
5920000000.000000      6.054688000000000E-01     -1.503281000000000E+02      1.691437000000000E-01      1.792109000000000E+02
5940000000.000000      6.032104000000000E-01     -1.517578000000000E+02      1.676636000000000E-01      1.540859000000000E+02
5960000000.000000      6.011658000000000E-01     -1.532500000000000E+02      1.618423000000000E-01      1.313203000000000E+02
5980000000.000000      5.946960000000000E-01     -1.547812000000000E+02      1.555634000000000E-01      1.069258000000000E+02
6000000000.000000      5.902100000000000E-01     -1.563984000000000E+02      1.438828000000000E-01      8.106640000000000E+01
6020000000.000000      5.755920000000000E-01     -1.580469000000000E+02      1.287613000000000E-01      5.374023000000000E+01
6040000000.000000      5.648193000000000E-01     -1.593437000000000E+02      1.095428000000000E-01      2.509472000000000E+01
6060000000.000000      5.578003000000000E-01     -1.603828000000000E+02      9.761429000000000E-02     -4.064941000000000E+00
6080000000.000000      5.482788000000000E-01     -1.605234000000000E+02      9.698486000000000E-02     -3.828711000000000E+01
