! Network Analyzer HP8722D
! Hewlett-Packard
! Data name: Linha com CNT
! Saver's name: Rodrigo Anjos
! Comments: Teste de deteccao de acetona 0-100ppm a partir de cilindro
! Time and date: 10/9/2025 17:05
!              Frequency                     S11                                                   S21                                                   S12                                                   S22
# HZ  S  MA R 50
3000000000.000000      2.141418000000000E-01      2.922363000000000E+01      3.126373000000000E-01      2.921875000000000E+01
3020000000.000000      2.312164000000000E-01      2.841015000000000E+01      3.167572000000000E-01     -2.238464000000000E-01
3040000000.000000      2.427979000000000E-01      2.484766000000000E+01      3.164368000000000E-01     -2.926660000000000E+01
3060000000.000000      2.432556000000000E-01      2.017578000000000E+01      3.156433000000000E-01     -5.825781000000000E+01
3080000000.000000      2.343140000000000E-01      1.645801000000000E+01      3.122253000000000E-01     -8.703905000000000E+01
3100000000.000000      2.246857000000000E-01      1.475146000000000E+01      3.102264000000000E-01     -1.152305000000000E+02
3120000000.000000      2.190399000000000E-01      1.473779000000000E+01      3.095703000000000E-01     -1.437734000000000E+02
3140000000.000000      2.178650000000000E-01      1.410645000000000E+01      3.056030000000000E-01     -1.724297000000000E+02
3160000000.000000      2.139816000000000E-01      1.226074000000000E+01      3.020782000000000E-01      1.590078000000000E+02
3180000000.000000      2.003021000000000E-01      1.107520000000000E+01      2.964783000000000E-01      1.307422000000000E+02
3200000000.000000      1.796341000000000E-01      1.351416000000000E+01      2.917328000000000E-01      1.018281000000000E+02
3220000000.000000      1.653214000000000E-01      2.199023000000000E+01      2.799530000000000E-01      7.300781000000000E+01
3240000000.000000      1.749802000000000E-01      3.260351000000000E+01      2.720337000000000E-01      4.710351000000000E+01
3260000000.000000      2.061234000000000E-01      3.841015000000000E+01      2.807312000000000E-01      2.068652000000000E+01
3280000000.000000      2.456131000000000E-01      3.749023000000000E+01      2.886810000000000E-01     -8.746582000000000E+00
3300000000.000000      2.805481000000000E-01      3.225586000000000E+01      2.896881000000000E-01     -3.735937000000000E+01
3320000000.000000      3.028107000000000E-01      2.539551000000000E+01      2.965851000000000E-01     -6.575000000000000E+01
3340000000.000000      3.105774000000000E-01      1.875684000000000E+01      3.019257000000000E-01     -9.525000000000000E+01
3360000000.000000      3.060913000000000E-01      1.324121000000000E+01      3.037262000000000E-01     -1.245547000000000E+02
3380000000.000000      2.960510000000000E-01      9.986328000000000E+00      3.050385000000000E-01     -1.533750000000000E+02
3400000000.000000      2.847900000000000E-01      7.719238000000000E+00      3.050995000000000E-01      1.778672000000000E+02
3420000000.000000      2.759094000000000E-01      6.297852000000000E+00      3.041077000000000E-01      1.487266000000000E+02
3440000000.000000      2.669067000000000E-01      5.119629000000000E+00      3.003082000000000E-01      1.201953000000000E+02
3460000000.000000      2.592316000000000E-01      4.215820000000000E+00      2.990417000000000E-01      9.197266000000000E+01
3480000000.000000      2.534485000000000E-01      3.481201000000000E+00      2.977753000000000E-01      6.293554000000000E+01
3500000000.000000      2.501068000000000E-01      3.234009000000000E+00      2.947540000000000E-01      3.450781000000000E+01
3520000000.000000      2.473068000000000E-01      2.758911000000000E+00      2.933807000000000E-01      6.009521000000000E+00
3540000000.000000      2.454987000000000E-01      2.628418000000000E+00      2.913818000000000E-01     -2.262793000000000E+01
3560000000.000000      2.425766000000000E-01      3.150269000000000E+00      2.925568000000000E-01     -5.109570000000000E+01
3580000000.000000      2.411804000000000E-01      4.147217000000000E+00      2.916260000000000E-01     -7.978516000000000E+01
3600000000.000000      2.442780000000000E-01      5.333740000000000E+00      2.918396000000000E-01     -1.075039000000000E+02
3620000000.000000      2.523804000000000E-01      5.398193000000000E+00      2.950897000000000E-01     -1.358125000000000E+02
3640000000.000000      2.594757000000000E-01      3.665283000000000E+00      2.961121000000000E-01     -1.642656000000000E+02
3660000000.000000      2.621918000000000E-01      6.729126000000000E-01      2.973938000000000E-01      1.676016000000000E+02
3680000000.000000      2.577209000000000E-01     -1.878662000000000E+00      2.969971000000000E-01      1.393281000000000E+02
3700000000.000000      2.479248000000000E-01     -3.084473000000000E+00      2.957916000000000E-01      1.115195000000000E+02
3720000000.000000      2.408600000000000E-01     -1.906128000000000E+00      2.965088000000000E-01      8.308594000000000E+01
3740000000.000000      2.436676000000000E-01      1.235962000000000E-01      2.907257000000000E-01      5.483398000000000E+01
3760000000.000000      2.551727000000000E-01      7.910156000000000E-01      2.891998000000000E-01      2.734961000000000E+01
3780000000.000000      2.663116000000000E-01     -1.007996000000000E+00      2.906189000000000E-01     -8.940125000000000E-01
3800000000.000000      2.698822000000000E-01     -4.504395000000000E+00      2.904053000000000E-01     -2.989941000000000E+01
3820000000.000000      2.614136000000000E-01     -7.647949000000000E+00      2.884521000000000E-01     -5.853125000000000E+01
3840000000.000000      2.491455000000000E-01     -8.647949000000000E+00      2.874756000000000E-01     -8.734375000000000E+01
3860000000.000000      2.429886000000000E-01     -7.451660000000000E+00      2.881470000000000E-01     -1.162656000000000E+02
3880000000.000000      2.475204000000000E-01     -5.755615000000000E+00      2.849579000000000E-01     -1.452109000000000E+02
3900000000.000000      2.594757000000000E-01     -6.431152000000000E+00      2.823029000000000E-01     -1.730391000000000E+02
3920000000.000000      2.664490000000000E-01     -9.345703000000000E+00      2.845306000000000E-01      1.589141000000000E+02
3940000000.000000      2.606812000000000E-01     -1.256836000000000E+01      2.859497000000000E-01      1.302578000000000E+02
3960000000.000000      2.458191000000000E-01     -1.356982000000000E+01      2.856293000000000E-01      1.016289000000000E+02
3980000000.000000      2.334747000000000E-01     -1.126123000000000E+01      2.787933000000000E-01      7.306641000000000E+01
4000000000.000000      2.369232000000000E-01     -7.304688000000000E+00      2.743073000000000E-01      4.681641000000000E+01
4020000000.000000      2.583466000000000E-01     -5.932617000000000E+00      2.832642000000000E-01      1.912988000000000E+01
4040000000.000000      2.842407000000000E-01     -8.884277000000000E+00      2.835388000000000E-01     -1.118555000000000E+01
4060000000.000000      2.994232000000000E-01     -1.489746000000000E+01      2.762451000000000E-01     -3.990234000000000E+01
4080000000.000000      2.942810000000000E-01     -2.193359000000000E+01      2.769165000000000E-01     -6.811328000000000E+01
4100000000.000000      2.727509000000000E-01     -2.738574000000000E+01      2.794800000000000E-01     -9.719530000000000E+01
4120000000.000000      2.432022000000000E-01     -2.901269000000000E+01      2.771606000000000E-01     -1.274453000000000E+02
4140000000.000000      2.245255000000000E-01     -2.616308000000000E+01      2.688293000000000E-01     -1.559297000000000E+02
4160000000.000000      2.205276000000000E-01     -2.274805000000000E+01      2.702179000000000E-01      1.769922000000000E+02
4180000000.000000      2.261505000000000E-01     -2.143847000000000E+01      2.759857000000000E-01      1.480625000000000E+02
4200000000.000000      2.287827000000000E-01     -2.236328000000000E+01      2.737885000000000E-01      1.188555000000000E+02
4220000000.000000      2.258682000000000E-01     -2.310742000000000E+01      2.734985000000000E-01      9.035547000000000E+01
4240000000.000000      2.192535000000000E-01     -2.179199000000000E+01      2.685242000000000E-01      6.146679000000000E+01
4260000000.000000      2.217178000000000E-01     -1.886816000000000E+01      2.630463000000000E-01      3.402148000000000E+01
4280000000.000000      2.336502000000000E-01     -1.669824000000000E+01      2.643433000000000E-01      6.362305000000000E+00
4300000000.000000      2.505341000000000E-01     -1.752539000000000E+01      2.634735000000000E-01     -2.241797000000000E+01
4320000000.000000      2.626953000000000E-01     -2.050195000000000E+01      2.626038000000000E-01     -5.114062000000000E+01
4340000000.000000      2.636261000000000E-01     -2.437207000000000E+01      2.628174000000000E-01     -8.052734000000000E+01
4360000000.000000      2.572479000000000E-01     -2.680664000000000E+01      2.623444000000000E-01     -1.101953000000000E+02
4380000000.000000      2.515564000000000E-01     -2.706347000000000E+01      2.604980000000000E-01     -1.400000000000000E+02
4400000000.000000      2.540131000000000E-01     -2.672168000000000E+01      2.578888000000000E-01     -1.686875000000000E+02
4420000000.000000      2.634583000000000E-01     -2.748730000000000E+01      2.617645000000000E-01      1.624687000000000E+02
4440000000.000000      2.689056000000000E-01     -3.024609000000000E+01      2.628937000000000E-01      1.326016000000000E+02
4460000000.000000      2.650604000000000E-01     -3.342773000000000E+01      2.597504000000000E-01      1.031953000000000E+02
4480000000.000000      2.522583000000000E-01     -3.532422000000000E+01      2.580261000000000E-01      7.455859000000000E+01
4500000000.000000      2.391663000000000E-01     -3.392578000000000E+01      2.549438000000000E-01      4.600195000000000E+01
4520000000.000000      2.391968000000000E-01     -3.074609000000000E+01      2.513733000000000E-01      1.738281000000000E+01
4540000000.000000      2.533875000000000E-01     -2.894531000000000E+01      2.448120000000000E-01     -1.140674000000000E+01
4560000000.000000      2.730713000000000E-01     -3.012109000000000E+01      2.431335000000000E-01     -3.914844000000000E+01
4580000000.000000      2.892151000000000E-01     -3.357617000000000E+01      2.450333000000000E-01     -6.887109000000000E+01
4600000000.000000      2.957153000000000E-01     -3.746289000000000E+01      2.427063000000000E-01     -9.919922000000000E+01
4620000000.000000      2.954254000000000E-01     -4.069336000000000E+01      2.418365000000000E-01     -1.295469000000000E+02
4640000000.000000      2.949524000000000E-01     -4.257226000000000E+01      2.394943000000000E-01     -1.600156000000000E+02
4660000000.000000      2.975769000000000E-01     -4.445703000000000E+01      2.388992000000000E-01      1.710703000000000E+02
4680000000.000000      3.030090000000000E-01     -4.687890000000000E+01      2.447815000000000E-01      1.412422000000000E+02
4700000000.000000      3.057709000000000E-01     -5.045116000000000E+01      2.452240000000000E-01      1.115312000000000E+02
4720000000.000000      3.022614000000000E-01     -5.457226000000000E+01      2.469406000000000E-01      8.336329000000000E+01
4740000000.000000      2.955170000000000E-01     -5.862890000000000E+01      2.500916000000000E-01      5.485352000000000E+01
4760000000.000000      2.841797000000000E-01     -6.240820000000000E+01      2.496033000000000E-01      2.647949000000000E+01
4780000000.000000      2.709808000000000E-01     -6.585546000000000E+01      2.453537000000000E-01     -1.888306000000000E+00
4800000000.000000      2.529907000000000E-01     -6.953515000000000E+01      2.395248000000000E-01     -3.008886000000000E+01
4820000000.000000      2.256927000000000E-01     -7.254296000000000E+01      2.285080000000000E-01     -5.871094000000000E+01
4840000000.000000      1.895294000000000E-01     -7.188671000000000E+01      2.188187000000000E-01     -8.671484000000000E+01
4860000000.000000      1.595612000000000E-01     -6.384766000000000E+01      2.116547000000000E-01     -1.164492000000000E+02
4880000000.000000      1.546402000000000E-01     -4.792969000000000E+01      1.958313000000000E-01     -1.468125000000000E+02
4900000000.000000      1.855621000000000E-01     -3.694531000000000E+01      1.795502000000000E-01     -1.730469000000000E+02
4920000000.000000      2.338562000000000E-01     -3.527929000000000E+01      1.838455000000000E-01      1.622109000000000E+02
4940000000.000000      2.798462000000000E-01     -3.991992000000000E+01      1.985550000000000E-01      1.328672000000000E+02
4960000000.000000      3.135223000000000E-01     -4.769336000000000E+01      2.060089000000000E-01      1.021875000000000E+02
4980000000.000000      3.256073000000000E-01     -5.653515000000000E+01      2.145691000000000E-01      7.359765000000000E+01
5000000000.000000      3.157043000000000E-01     -6.433594000000000E+01      2.266083000000000E-01      4.471680000000000E+01
5020000000.000000      2.916870000000000E-01     -6.933594000000000E+01      2.337418000000000E-01      1.579541000000000E+01
5040000000.000000      2.662201000000000E-01     -7.051171000000000E+01      2.359085000000000E-01     -1.141797000000000E+01
5060000000.000000      2.531738000000000E-01     -6.858203000000000E+01      2.420044000000000E-01     -3.763672000000000E+01
5080000000.000000      2.526093000000000E-01     -6.684375000000000E+01      2.467270000000000E-01     -6.524219000000000E+01
5100000000.000000      2.601013000000000E-01     -6.660156000000000E+01      2.434540000000000E-01     -9.302343000000000E+01
5120000000.000000      2.663727000000000E-01     -6.792187000000000E+01      2.414169000000000E-01     -1.201758000000000E+02
5140000000.000000      2.709961000000000E-01     -6.935937000000000E+01      2.375031000000000E-01     -1.488594000000000E+02
5160000000.000000      2.747650000000000E-01     -7.100780000000000E+01      2.330017000000000E-01     -1.779922000000000E+02
5180000000.000000      2.810059000000000E-01     -7.262500000000000E+01      2.285919000000000E-01      1.520781000000000E+02
5200000000.000000      2.863617000000000E-01     -7.492578000000000E+01      2.265472000000000E-01      1.217266000000000E+02
5220000000.000000      2.884827000000000E-01     -7.757813000000000E+01      2.277985000000000E-01      9.164063000000000E+01
5240000000.000000      2.857666000000000E-01     -7.989062000000000E+01      2.314911000000000E-01      6.117773000000000E+01
5260000000.000000      2.808838000000000E-01     -8.151953000000000E+01      2.359009000000000E-01      3.119922000000000E+01
5280000000.000000      2.757721000000000E-01     -8.218750000000000E+01      2.402954000000000E-01      1.723450000000000E+00
5300000000.000000      2.764282000000000E-01     -8.279688000000000E+01      2.433548000000000E-01     -2.590918000000000E+01
5320000000.000000      2.788239000000000E-01     -8.391405000000000E+01      2.503662000000000E-01     -5.266796000000000E+01
5340000000.000000      2.805634000000000E-01     -8.586329000000000E+01      2.534637000000000E-01     -8.047266000000000E+01
5360000000.000000      2.793579000000000E-01     -8.803514000000000E+01      2.512665000000000E-01     -1.073047000000000E+02
5380000000.000000      2.767792000000000E-01     -8.952343000000000E+01      2.483826000000000E-01     -1.339219000000000E+02
5400000000.000000      2.758331000000000E-01     -9.026953000000000E+01      2.429199000000000E-01     -1.611016000000000E+02
5420000000.000000      2.810364000000000E-01     -9.037109000000000E+01      2.372055000000000E-01      1.711875000000000E+02
5440000000.000000      2.901001000000000E-01     -9.122656000000000E+01      2.313080000000000E-01      1.419609000000000E+02
5460000000.000000      2.993164000000000E-01     -9.365625000000000E+01      2.221756000000000E-01      1.123359000000000E+02
5480000000.000000      3.038483000000000E-01     -9.718359000000000E+01      2.190628000000000E-01      8.236328000000000E+01
5500000000.000000      2.983551000000000E-01     -1.010117000000000E+02      2.194061000000000E-01      5.149023000000000E+01
5520000000.000000      2.860870000000000E-01     -1.041992000000000E+02      2.213211000000000E-01      2.034375000000000E+01
5540000000.000000      2.730408000000000E-01     -1.060273000000000E+02      2.225876000000000E-01     -1.009277000000000E+01
5560000000.000000      2.613831000000000E-01     -1.072852000000000E+02      2.272797000000000E-01     -3.865625000000000E+01
5580000000.000000      2.526703000000000E-01     -1.075156000000000E+02      2.358246000000000E-01     -6.706249000000000E+01
5600000000.000000      2.461853000000000E-01     -1.075391000000000E+02      2.400589000000000E-01     -9.470703000000000E+01
5620000000.000000      2.407990000000000E-01     -1.065469000000000E+02      2.427902000000000E-01     -1.216094000000000E+02
5640000000.000000      2.401581000000000E-01     -1.044727000000000E+02      2.423782000000000E-01     -1.484688000000000E+02
5660000000.000000      2.477722000000000E-01     -1.023242000000000E+02      2.370682000000000E-01     -1.747656000000000E+02
5680000000.000000      2.652740000000000E-01     -1.015351000000000E+02      2.314377000000000E-01      1.581875000000000E+02
5700000000.000000      2.868500000000000E-01     -1.038398000000000E+02      2.224884000000000E-01      1.307422000000000E+02
5720000000.000000      3.020782000000000E-01     -1.083086000000000E+02      2.135620000000000E-01      1.028633000000000E+02
5740000000.000000      3.043060000000000E-01     -1.142812000000000E+02      2.086945000000000E-01      7.315234000000000E+01
5760000000.000000      2.930756000000000E-01     -1.197187000000000E+02      2.024689000000000E-01      4.123828000000000E+01
5780000000.000000      2.738495000000000E-01     -1.227266000000000E+02      1.968536000000000E-01      9.534668000000000E+00
5800000000.000000      2.572784000000000E-01     -1.229688000000000E+02      1.952438000000000E-01     -2.142773000000000E+01
5820000000.000000      2.531281000000000E-01     -1.216914000000000E+02      2.020035000000000E-01     -5.165820000000000E+01
5840000000.000000      2.586975000000000E-01     -1.222734000000000E+02      2.115707000000000E-01     -8.271484000000000E+01
5860000000.000000      2.659912000000000E-01     -1.245273000000000E+02      2.162704000000000E-01     -1.115000000000000E+02
5880000000.000000      2.672119000000000E-01     -1.286641000000000E+02      2.211075000000000E-01     -1.393906000000000E+02
5900000000.000000      2.598419000000000E-01     -1.321797000000000E+02      2.264252000000000E-01     -1.662031000000000E+02
5920000000.000000      2.480621000000000E-01     -1.340156000000000E+02      2.284546000000000E-01      1.664766000000000E+02
5940000000.000000      2.393570000000000E-01     -1.343359000000000E+02      2.225723000000000E-01      1.390000000000000E+02
5960000000.000000      2.355728000000000E-01     -1.349922000000000E+02      2.118149000000000E-01      1.128867000000000E+02
5980000000.000000      2.296829000000000E-01     -1.366562000000000E+02      2.052078000000000E-01      8.593359000000000E+01
6000000000.000000      2.162247000000000E-01     -1.390391000000000E+02      1.965561000000000E-01      5.653125000000000E+01
6020000000.000000      1.956787000000000E-01     -1.395625000000000E+02      1.840134000000000E-01      2.580957000000000E+01
6040000000.000000      1.766129000000000E-01     -1.364766000000000E+02      1.710052000000000E-01     -4.904053000000000E+00
6060000000.000000      1.704483000000000E-01     -1.307656000000000E+02      1.644745000000000E-01     -3.474804000000000E+01
6080000000.000000      1.823502000000000E-01     -1.253242000000000E+02      1.708832000000000E-01     -6.576172000000000E+01
