! Network Analyzer HP8722D
! Hewlett-Packard
! Data name: Linha com CNT
! Saver's name: Rodrigo Anjos
! Comments: Teste de deteccao de acetona 0-100ppm a partir de cilindro
! Time and date: 10/9/2025 17:12
!              Frequency                     S11                                                   S21                                                   S12                                                   S22
# HZ  S  MA R 50
3000000000.000000      4.746094000000000E-01      1.500977000000000E+01      2.323761000000000E-01      3.551367000000000E+01
3020000000.000000      4.835968000000000E-01      1.451416000000000E+01      2.364044000000000E-01      5.990234000000000E+00
3040000000.000000      4.900513000000000E-01      1.322852000000000E+01      2.363129000000000E-01     -2.310645000000000E+01
3060000000.000000      4.929962000000000E-01      1.169629000000000E+01      2.363739000000000E-01     -5.250195000000000E+01
3080000000.000000      4.931335000000000E-01      1.003857000000000E+01      2.325058000000000E-01     -8.138281000000000E+01
3100000000.000000      4.900818000000000E-01      8.635254000000000E+00      2.309113000000000E-01     -1.092344000000000E+02
3120000000.000000      4.880219000000000E-01      7.690430000000000E+00      2.304306000000000E-01     -1.377812000000000E+02
3140000000.000000      4.890442000000000E-01      6.782471000000000E+00      2.274399000000000E-01     -1.663281000000000E+02
3160000000.000000      4.899139000000000E-01      5.639893000000000E+00      2.231979000000000E-01      1.650234000000000E+02
3180000000.000000      4.856873000000000E-01      4.426025000000000E+00      2.177582000000000E-01      1.371094000000000E+02
3200000000.000000      4.761963000000000E-01      3.699585000000000E+00      2.138977000000000E-01      1.086133000000000E+02
3220000000.000000      4.653473000000000E-01      3.511475000000000E+00      2.045670000000000E-01      8.006639000000000E+01
3240000000.000000      4.601440000000000E-01      3.941284000000000E+00      1.984406000000000E-01      5.492188000000000E+01
3260000000.000000      4.592896000000000E-01      4.924561000000000E+00      2.070160000000000E-01      2.905468000000000E+01
3280000000.000000      4.689484000000000E-01      5.534180000000000E+00      2.152786000000000E-01     -2.760315000000000E-01
3300000000.000000      4.852295000000000E-01      5.199219000000000E+00      2.180939000000000E-01     -2.902246000000000E+01
3320000000.000000      5.021362000000000E-01      3.930298000000000E+00      2.259216000000000E-01     -5.787499000000000E+01
3340000000.000000      5.138855000000000E-01      2.092896000000000E+00      2.307358000000000E-01     -8.782030000000000E+01
3360000000.000000      5.188293000000000E-01      4.119873000000000E-03      2.325058000000000E-01     -1.174766000000000E+02
3380000000.000000      5.184937000000000E-01     -1.645203000000000E+00      2.323303000000000E-01     -1.469687000000000E+02
3400000000.000000      5.137634000000000E-01     -3.059692000000000E+00      2.316360000000000E-01     -1.756953000000000E+02
3420000000.000000      5.125122000000000E-01     -4.008789000000000E+00      2.301941000000000E-01      1.550547000000000E+02
3440000000.000000      5.071411000000000E-01     -5.597656000000000E+00      2.259750000000000E-01      1.270117000000000E+02
3460000000.000000      5.035095000000000E-01     -6.664795000000000E+00      2.262344000000000E-01      9.878124000000000E+01
3480000000.000000      5.010376000000000E-01     -7.494141000000000E+00      2.238235000000000E-01      6.964453000000000E+01
3500000000.000000      5.004883000000000E-01     -8.480469000000000E+00      2.215424000000000E-01      4.164258000000000E+01
3520000000.000000      5.009460000000000E-01     -9.398926000000000E+00      2.211227000000000E-01      1.264648000000000E+01
3540000000.000000      4.997253000000000E-01     -1.024902000000000E+01      2.175369000000000E-01     -1.575439000000000E+01
3560000000.000000      4.994049000000000E-01     -1.088086000000000E+01      2.186966000000000E-01     -4.388085000000000E+01
3580000000.000000      4.962311000000000E-01     -1.164844000000000E+01      2.182083000000000E-01     -7.259375000000000E+01
3600000000.000000      4.940338000000000E-01     -1.233252000000000E+01      2.183990000000000E-01     -9.992577000000000E+01
3620000000.000000      4.969788000000000E-01     -1.275146000000000E+01      2.226944000000000E-01     -1.283906000000000E+02
3640000000.000000      4.981079000000000E-01     -1.362305000000000E+01      2.242508000000000E-01     -1.568672000000000E+02
3660000000.000000      5.001526000000000E-01     -1.502539000000000E+01      2.248230000000000E-01      1.747266000000000E+02
3680000000.000000      5.017395000000000E-01     -1.632519000000000E+01      2.237625000000000E-01      1.462500000000000E+02
3700000000.000000      4.973755000000000E-01     -1.754395000000000E+01      2.216110000000000E-01      1.190039000000000E+02
3720000000.000000      4.929810000000000E-01     -1.865625000000000E+01      2.235031000000000E-01      9.083202000000000E+01
3740000000.000000      4.932251000000000E-01     -1.886719000000000E+01      2.188721000000000E-01      6.237499000000000E+01
3760000000.000000      4.930267000000000E-01     -1.907812000000000E+01      2.183914000000000E-01      3.532031000000000E+01
3780000000.000000      4.978333000000000E-01     -1.961621000000000E+01      2.205734000000000E-01      6.752441000000000E+00
3800000000.000000      5.034790000000000E-01     -2.104785000000000E+01      2.194443000000000E-01     -2.235254000000000E+01
3820000000.000000      5.026855000000000E-01     -2.286328000000000E+01      2.176056000000000E-01     -5.106640000000000E+01
3840000000.000000      4.984589000000000E-01     -2.425097000000000E+01      2.166519000000000E-01     -7.958593000000000E+01
3860000000.000000      4.945679000000000E-01     -2.506836000000000E+01      2.171173000000000E-01     -1.087187000000000E+02
3880000000.000000      4.931488000000000E-01     -2.560156000000000E+01      2.148438000000000E-01     -1.375469000000000E+02
3900000000.000000      4.957733000000000E-01     -2.617578000000000E+01      2.139740000000000E-01     -1.650625000000000E+02
3920000000.000000      5.016174000000000E-01     -2.725488000000000E+01      2.164993000000000E-01      1.663828000000000E+02
3940000000.000000      5.030518000000000E-01     -2.891797000000000E+01      2.160416000000000E-01      1.378984000000000E+02
3960000000.000000      4.962006000000000E-01     -3.008789000000000E+01      2.165985000000000E-01      1.096172000000000E+02
3980000000.000000      4.887695000000000E-01     -3.098145000000000E+01      2.103271000000000E-01      8.102343000000000E+01
4000000000.000000      4.833069000000000E-01     -3.120605000000000E+01      2.071991000000000E-01      5.550586000000000E+01
4020000000.000000      4.854279000000000E-01     -3.108789000000000E+01      2.156982000000000E-01      2.766602000000000E+01
4040000000.000000      4.980927000000000E-01     -3.153711000000000E+01      2.165298000000000E-01     -2.708130000000000E+00
4060000000.000000      5.112915000000000E-01     -3.314258000000000E+01      2.122040000000000E-01     -3.149316000000000E+01
4080000000.000000      5.212097000000000E-01     -3.566211000000000E+01      2.123032000000000E-01     -6.038671000000000E+01
4100000000.000000      5.145569000000000E-01     -3.831055000000000E+01      2.120361000000000E-01     -8.982813000000000E+01
4120000000.000000      5.015564000000000E-01     -4.025195000000000E+01      2.092819000000000E-01     -1.202305000000000E+02
4140000000.000000      4.913025000000000E-01     -4.103711000000000E+01      2.018127000000000E-01     -1.484609000000000E+02
4160000000.000000      4.859619000000000E-01     -4.158593000000000E+01      2.036285000000000E-01     -1.749687000000000E+02
4180000000.000000      4.852295000000000E-01     -4.205078000000000E+01      2.086411000000000E-01      1.559297000000000E+02
4200000000.000000      4.853516000000000E-01     -4.319726000000000E+01      2.061920000000000E-01      1.273047000000000E+02
4220000000.000000      4.838715000000000E-01     -4.426171000000000E+01      2.074738000000000E-01      9.923828000000000E+01
4240000000.000000      4.786377000000000E-01     -4.486524000000000E+01      2.037277000000000E-01      7.016015000000000E+01
4260000000.000000      4.764557000000000E-01     -4.544141000000000E+01      1.988754000000000E-01      4.318555000000000E+01
4280000000.000000      4.762878000000000E-01     -4.551953000000000E+01      2.005768000000000E-01      1.569922000000000E+01
4300000000.000000      4.794464000000000E-01     -4.603125000000000E+01      2.001724000000000E-01     -1.291309000000000E+01
4320000000.000000      4.842834000000000E-01     -4.703125000000000E+01      2.003326000000000E-01     -4.174414000000000E+01
4340000000.000000      4.890594000000000E-01     -4.872851000000000E+01      1.998520000000000E-01     -7.124609000000000E+01
4360000000.000000      4.891052000000000E-01     -5.023632000000000E+01      2.002640000000000E-01     -1.010781000000000E+02
4380000000.000000      4.850006000000000E-01     -5.137109000000000E+01      1.979980000000000E-01     -1.311875000000000E+02
4400000000.000000      4.842529000000000E-01     -5.214648000000000E+01      1.963654000000000E-01     -1.598359000000000E+02
4420000000.000000      4.861908000000000E-01     -5.275781000000000E+01      2.005310000000000E-01      1.711875000000000E+02
4440000000.000000      4.911957000000000E-01     -5.395702000000000E+01      2.019806000000000E-01      1.412578000000000E+02
4460000000.000000      4.921112000000000E-01     -5.551758000000000E+01      2.010651000000000E-01      1.121641000000000E+02
4480000000.000000      4.884033000000000E-01     -5.732616000000000E+01      1.998062000000000E-01      8.324610000000000E+01
4500000000.000000      4.822388000000000E-01     -5.826953000000000E+01      1.962585000000000E-01      5.538867000000000E+01
4520000000.000000      4.753876000000000E-01     -5.920898000000000E+01      1.937790000000000E-01      2.707129000000000E+01
4540000000.000000      4.731598000000000E-01     -5.936523000000000E+01      1.883926000000000E-01     -9.928894000000000E-01
4560000000.000000      4.798584000000000E-01     -5.976563000000000E+01      1.884232000000000E-01     -2.851367000000000E+01
4580000000.000000      4.882050000000000E-01     -6.060547000000000E+01      1.895676000000000E-01     -5.849218000000000E+01
4600000000.000000      4.940643000000000E-01     -6.216406000000000E+01      1.873474000000000E-01     -8.906641000000000E+01
4620000000.000000      4.962769000000000E-01     -6.346289000000000E+01      1.870880000000000E-01     -1.200000000000000E+02
4640000000.000000      4.988708000000000E-01     -6.473437000000000E+01      1.836700000000000E-01     -1.511641000000000E+02
4660000000.000000      5.010376000000000E-01     -6.575390000000000E+01      1.842651000000000E-01      1.796406000000000E+02
4680000000.000000      5.030823000000000E-01     -6.688281000000000E+01      1.899109000000000E-01      1.495391000000000E+02
4700000000.000000      5.085449000000000E-01     -6.848827000000000E+01      1.916046000000000E-01      1.196289000000000E+02
4720000000.000000      5.113831000000000E-01     -7.023828000000000E+01      1.948547000000000E-01      9.120703000000000E+01
4740000000.000000      5.142517000000000E-01     -7.220312000000000E+01      1.981354000000000E-01      6.229882000000000E+01
4760000000.000000      5.117188000000000E-01     -7.445313000000000E+01      1.967392000000000E-01      3.418359000000000E+01
4780000000.000000      5.117493000000000E-01     -7.632421000000000E+01      1.933212000000000E-01      6.102783000000000E+00
4800000000.000000      5.076904000000000E-01     -7.867969000000000E+01      1.868286000000000E-01     -2.150781000000000E+01
4820000000.000000      4.987335000000000E-01     -8.087109000000000E+01      1.773071000000000E-01     -4.948828000000000E+01
4840000000.000000      4.812622000000000E-01     -8.271093000000000E+01      1.667938000000000E-01     -7.671484000000000E+01
4860000000.000000      4.638062000000000E-01     -8.367968000000000E+01      1.596375000000000E-01     -1.052851000000000E+02
4880000000.000000      4.455261000000000E-01     -8.338282000000000E+01      1.453705000000000E-01     -1.351563000000000E+02
4900000000.000000      4.362946000000000E-01     -8.219921000000000E+01      1.321030000000000E-01     -1.605625000000000E+02
4920000000.000000      4.367065000000000E-01     -8.055079000000000E+01      1.366425000000000E-01      1.748359000000000E+02
4940000000.000000      4.497223000000000E-01     -7.932031000000000E+01      1.493301000000000E-01      1.446250000000000E+02
4960000000.000000      4.726257000000000E-01     -7.945313000000000E+01      1.578903000000000E-01      1.127734000000000E+02
4980000000.000000      4.943390000000000E-01     -8.144140000000000E+01      1.671982000000000E-01      8.291016000000000E+01
5000000000.000000      5.047607000000000E-01     -8.441797000000000E+01      1.781235000000000E-01      5.290039000000000E+01
5020000000.000000      5.023193000000000E-01     -8.730860000000000E+01      1.840820000000000E-01      2.331933000000000E+01
5040000000.000000      4.941406000000000E-01     -8.944921000000000E+01      1.856766000000000E-01     -3.434692000000000E+00
5060000000.000000      4.850159000000000E-01     -9.066797000000000E+01      1.914673000000000E-01     -2.870898000000000E+01
5080000000.000000      4.772644000000000E-01     -9.139843000000000E+01      1.962814000000000E-01     -5.583202000000000E+01
5100000000.000000      4.765015000000000E-01     -9.200390000000000E+01      1.940460000000000E-01     -8.283203000000000E+01
5120000000.000000      4.774780000000000E-01     -9.271875000000000E+01      1.930237000000000E-01     -1.097187000000000E+02
5140000000.000000      4.805908000000000E-01     -9.353907000000000E+01      1.889267000000000E-01     -1.379219000000000E+02
5160000000.000000      4.835205000000000E-01     -9.451952000000000E+01      1.836395000000000E-01     -1.669609000000000E+02
5180000000.000000      4.889374000000000E-01     -9.556641000000000E+01      1.791077000000000E-01      1.629922000000000E+02
5200000000.000000      4.950409000000000E-01     -9.672655000000000E+01      1.754761000000000E-01      1.324609000000000E+02
5220000000.000000      4.984589000000000E-01     -9.831640000000000E+01      1.755219000000000E-01      1.017226000000000E+02
5240000000.000000      5.004578000000000E-01     -9.985155000000000E+01      1.789551000000000E-01      7.030078000000000E+01
5260000000.000000      4.990997000000000E-01     -1.014726000000000E+02      1.828384000000000E-01      3.959765000000000E+01
5280000000.000000      4.962769000000000E-01     -1.027695000000000E+02      1.869736000000000E-01      9.818848000000000E+00
5300000000.000000      4.944763000000000E-01     -1.039414000000000E+02      1.914520000000000E-01     -1.764355000000000E+01
5320000000.000000      4.924927000000000E-01     -1.050859000000000E+02      1.994400000000000E-01     -4.422265000000000E+01
5340000000.000000      4.934692000000000E-01     -1.062031000000000E+02      2.038193000000000E-01     -7.161718000000000E+01
5360000000.000000      4.935913000000000E-01     -1.076133000000000E+02      2.038345000000000E-01     -9.760546000000000E+01
5380000000.000000      4.940186000000000E-01     -1.087656000000000E+02      2.022934000000000E-01     -1.242930000000000E+02
5400000000.000000      4.955444000000000E-01     -1.099062000000000E+02      1.960144000000000E-01     -1.506406000000000E+02
5420000000.000000      4.977264000000000E-01     -1.105391000000000E+02      1.904602000000000E-01     -1.775859000000000E+02
5440000000.000000      5.020142000000000E-01     -1.112109000000000E+02      1.844101000000000E-01      1.532344000000000E+02
5460000000.000000      5.095215000000000E-01     -1.124961000000000E+02      1.749878000000000E-01      1.237422000000000E+02
5480000000.000000      5.148621000000000E-01     -1.140391000000000E+02      1.705322000000000E-01      9.302343000000000E+01
5500000000.000000      5.175476000000000E-01     -1.162109000000000E+02      1.690292000000000E-01      6.118945000000000E+01
5520000000.000000      5.132446000000000E-01     -1.183828000000000E+02      1.695328000000000E-01      2.882031000000000E+01
5540000000.000000      5.091248000000000E-01     -1.202461000000000E+02      1.705780000000000E-01     -2.540649000000000E+00
5560000000.000000      5.025940000000000E-01     -1.220976000000000E+02      1.760635000000000E-01     -3.098926000000000E+01
5580000000.000000      4.949951000000000E-01     -1.235508000000000E+02      1.853027000000000E-01     -5.957617000000000E+01
5600000000.000000      4.906158000000000E-01     -1.245117000000000E+02      1.913147000000000E-01     -8.685156000000000E+01
5620000000.000000      4.846344000000000E-01     -1.253906000000000E+02      1.958160000000000E-01     -1.128906000000000E+02
5640000000.000000      4.805603000000000E-01     -1.258750000000000E+02      1.969147000000000E-01     -1.392969000000000E+02
5660000000.000000      4.802856000000000E-01     -1.261758000000000E+02      1.936493000000000E-01     -1.644531000000000E+02
5680000000.000000      4.845123000000000E-01     -1.262500000000000E+02      1.892776000000000E-01      1.692109000000000E+02
5700000000.000000      4.927979000000000E-01     -1.269687000000000E+02      1.816483000000000E-01      1.425781000000000E+02
5720000000.000000      5.031738000000000E-01     -1.284062000000000E+02      1.737061000000000E-01      1.152891000000000E+02
5740000000.000000      5.110168000000000E-01     -1.307578000000000E+02      1.657181000000000E-01      8.505859000000000E+01
5760000000.000000      5.113525000000000E-01     -1.335000000000000E+02      1.568069000000000E-01      5.252930000000000E+01
5780000000.000000      5.030823000000000E-01     -1.359062000000000E+02      1.482468000000000E-01      1.940039000000000E+01
5800000000.000000      4.916382000000000E-01     -1.374375000000000E+02      1.450653000000000E-01     -1.220605000000000E+01
5820000000.000000      4.844666000000000E-01     -1.382187000000000E+02      1.515579000000000E-01     -4.355273000000000E+01
5840000000.000000      4.831390000000000E-01     -1.389297000000000E+02      1.621170000000000E-01     -7.557812000000000E+01
5860000000.000000      4.876251000000000E-01     -1.399062000000000E+02      1.696091000000000E-01     -1.047109000000000E+02
5880000000.000000      4.920197000000000E-01     -1.414922000000000E+02      1.781235000000000E-01     -1.328281000000000E+02
5900000000.000000      4.947510000000000E-01     -1.432891000000000E+02      1.837997000000000E-01     -1.594219000000000E+02
5920000000.000000      4.918213000000000E-01     -1.451406000000000E+02      1.862030000000000E-01      1.745547000000000E+02
5940000000.000000      4.883881000000000E-01     -1.465078000000000E+02      1.821060000000000E-01      1.479453000000000E+02
5960000000.000000      4.857025000000000E-01     -1.479297000000000E+02      1.740417000000000E-01      1.233125000000000E+02
5980000000.000000      4.807892000000000E-01     -1.493203000000000E+02      1.680908000000000E-01      9.709373000000000E+01
6000000000.000000      4.739075000000000E-01     -1.511719000000000E+02      1.572571000000000E-01      6.902344000000000E+01
6020000000.000000      4.604034000000000E-01     -1.527734000000000E+02      1.434097000000000E-01      3.910547000000000E+01
6040000000.000000      4.459991000000000E-01     -1.538984000000000E+02      1.281509000000000E-01      8.673340000000000E+00
6060000000.000000      4.364166000000000E-01     -1.545859000000000E+02      1.204872000000000E-01     -2.136523000000000E+01
6080000000.000000      4.306030000000000E-01     -1.542656000000000E+02      1.248055000000000E-01     -5.365039000000000E+01
