! Network Analyzer HP8722D
! Hewlett-Packard
! Data name: Linha com CNT
! Saver's name: Rodrigo Anjos
! Comments: Teste de deteccao de acetona 0-100ppm a partir de cilindro
! Time and date: 10/9/2025 17:23
!              Frequency                     S11                                                   S21                                                   S12                                                   S22
# HZ  S  MA R 50
3000000000.000000      4.190063000000000E-01      1.665723000000000E+01      2.587280000000000E-01      3.294336000000000E+01
3020000000.000000      4.283142000000000E-01      1.623828000000000E+01      2.628021000000000E-01      3.598022000000000E+00
3040000000.000000      4.369507000000000E-01      1.496191000000000E+01      2.630920000000000E-01     -2.556055000000000E+01
3060000000.000000      4.401245000000000E-01      1.295264000000000E+01      2.627106000000000E-01     -5.483984000000000E+01
3080000000.000000      4.383240000000000E-01      1.100537000000000E+01      2.589569000000000E-01     -8.367579000000000E+01
3100000000.000000      4.335632000000000E-01      9.505859000000000E+00      2.570496000000000E-01     -1.116211000000000E+02
3120000000.000000      4.305115000000000E-01      8.664063000000000E+00      2.564697000000000E-01     -1.402188000000000E+02
3140000000.000000      4.314575000000000E-01      7.973145000000000E+00      2.529144000000000E-01     -1.687813000000000E+02
3160000000.000000      4.325867000000000E-01      6.832031000000000E+00      2.491455000000000E-01      1.626875000000000E+02
3180000000.000000      4.267578000000000E-01      5.467041000000000E+00      2.435989000000000E-01      1.345781000000000E+02
3200000000.000000      4.144287000000000E-01      4.880615000000000E+00      2.396622000000000E-01      1.058828000000000E+02
3220000000.000000      4.029388000000000E-01      5.406494000000000E+00      2.288971000000000E-01      7.732812000000000E+01
3240000000.000000      3.975220000000000E-01      6.518799000000000E+00      2.223282000000000E-01      5.188671000000000E+01
3260000000.000000      3.994904000000000E-01      8.354980000000000E+00      2.316284000000000E-01      2.580761000000000E+01
3280000000.000000      4.147034000000000E-01      9.396973000000000E+00      2.396393000000000E-01     -3.561035000000000E+00
3300000000.000000      4.357605000000000E-01      8.854980000000000E+00      2.419434000000000E-01     -3.227539000000000E+01
3320000000.000000      4.555511000000000E-01      7.087402000000000E+00      2.496872000000000E-01     -6.106640000000000E+01
3340000000.000000      4.674835000000000E-01      4.575684000000000E+00      2.551422000000000E-01     -9.074219000000000E+01
3360000000.000000      4.714813000000000E-01      2.039307000000000E+00      2.569733000000000E-01     -1.204023000000000E+02
3380000000.000000      4.698792000000000E-01      2.087402000000000E-01      2.569122000000000E-01     -1.496250000000000E+02
3400000000.000000      4.646606000000000E-01     -1.418640000000000E+00      2.561798000000000E-01     -1.784062000000000E+02
3420000000.000000      4.609528000000000E-01     -2.596924000000000E+00      2.544708000000000E-01      1.524922000000000E+02
3440000000.000000      4.558258000000000E-01     -3.900146000000000E+00      2.507629000000000E-01      1.241953000000000E+02
3460000000.000000      4.501801000000000E-01     -4.886230000000000E+00      2.504883000000000E-01      9.605858000000000E+01
3480000000.000000      4.491882000000000E-01     -5.857178000000000E+00      2.483902000000000E-01      6.690234000000000E+01
3500000000.000000      4.463501000000000E-01     -6.762207000000000E+00      2.459106000000000E-01      3.867773000000000E+01
3520000000.000000      4.459991000000000E-01     -7.564209000000000E+00      2.455597000000000E-01      9.636230000000000E+00
3540000000.000000      4.463043000000000E-01     -8.433594000000000E+00      2.415619000000000E-01     -1.847558000000000E+01
3560000000.000000      4.440460000000000E-01     -9.117676000000000E+00      2.428513000000000E-01     -4.677343000000000E+01
3580000000.000000      4.413147000000000E-01     -9.521484000000000E+00      2.422333000000000E-01     -7.540234000000000E+01
3600000000.000000      4.399414000000000E-01     -9.993652000000000E+00      2.422562000000000E-01     -1.030469000000000E+02
3620000000.000000      4.424133000000000E-01     -1.041650000000000E+01      2.464981000000000E-01     -1.313828000000000E+02
3640000000.000000      4.460602000000000E-01     -1.125586000000000E+01      2.473984000000000E-01     -1.598359000000000E+02
3660000000.000000      4.478149000000000E-01     -1.272510000000000E+01      2.489548000000000E-01      1.719141000000000E+02
3680000000.000000      4.494781000000000E-01     -1.435254000000000E+01      2.475510000000000E-01      1.434453000000000E+02
3700000000.000000      4.443054000000000E-01     -1.582861000000000E+01      2.461395000000000E-01      1.159961000000000E+02
3720000000.000000      4.383850000000000E-01     -1.633398000000000E+01      2.472000000000000E-01      8.755077000000000E+01
3740000000.000000      4.382935000000000E-01     -1.638672000000000E+01      2.421036000000000E-01      5.939062000000000E+01
3760000000.000000      4.410248000000000E-01     -1.634082000000000E+01      2.416687000000000E-01      3.209375000000000E+01
3780000000.000000      4.470215000000000E-01     -1.708691000000000E+01      2.438812000000000E-01      3.571899000000000E+00
3800000000.000000      4.532166000000000E-01     -1.865820000000000E+01      2.427216000000000E-01     -2.544238000000000E+01
3820000000.000000      4.508209000000000E-01     -2.071972000000000E+01      2.403107000000000E-01     -5.410742000000000E+01
3840000000.000000      4.451447000000000E-01     -2.209277000000000E+01      2.397156000000000E-01     -8.268358000000000E+01
3860000000.000000      4.396515000000000E-01     -2.273926000000000E+01      2.399979000000000E-01     -1.118398000000000E+02
3880000000.000000      4.396820000000000E-01     -2.294824000000000E+01      2.374802000000000E-01     -1.406250000000000E+02
3900000000.000000      4.443665000000000E-01     -2.355273000000000E+01      2.357864000000000E-01     -1.682734000000000E+02
3920000000.000000      4.496155000000000E-01     -2.467578000000000E+01      2.390289000000000E-01      1.634609000000000E+02
3940000000.000000      4.499664000000000E-01     -2.651855000000000E+01      2.393112000000000E-01      1.348516000000000E+02
3960000000.000000      4.424591000000000E-01     -2.796093000000000E+01      2.384949000000000E-01      1.064609000000000E+02
3980000000.000000      4.329834000000000E-01     -2.848242000000000E+01      2.324066000000000E-01      7.781640000000000E+01
4000000000.000000      4.285736000000000E-01     -2.824609000000000E+01      2.295761000000000E-01      5.212109000000000E+01
4020000000.000000      4.333344000000000E-01     -2.773535000000000E+01      2.377777000000000E-01      2.439648000000000E+01
4040000000.000000      4.491577000000000E-01     -2.830664000000000E+01      2.381363000000000E-01     -6.041260000000000E+00
4060000000.000000      4.637299000000000E-01     -3.038281000000000E+01      2.338867000000000E-01     -3.487890000000000E+01
4080000000.000000      4.705658000000000E-01     -3.349609000000000E+01      2.333832000000000E-01     -6.352539000000000E+01
4100000000.000000      4.625702000000000E-01     -3.647070000000000E+01      2.339554000000000E-01     -9.289063000000000E+01
4120000000.000000      4.480743000000000E-01     -3.852148000000000E+01      2.313614000000000E-01     -1.232070000000000E+02
4140000000.000000      4.362793000000000E-01     -3.905468000000000E+01      2.234497000000000E-01     -1.514609000000000E+02
4160000000.000000      4.288025000000000E-01     -3.926367000000000E+01      2.256317000000000E-01     -1.781250000000000E+02
4180000000.000000      4.293060000000000E-01     -3.945898000000000E+01      2.302628000000000E-01      1.527187000000000E+02
4200000000.000000      4.301910000000000E-01     -4.060742000000000E+01      2.276001000000000E-01      1.239844000000000E+02
4220000000.000000      4.278259000000000E-01     -4.165039000000000E+01      2.286530000000000E-01      9.564062000000000E+01
4240000000.000000      4.221954000000000E-01     -4.224999000000000E+01      2.241058000000000E-01      6.676952000000000E+01
4260000000.000000      4.200592000000000E-01     -4.237109000000000E+01      2.195969000000000E-01      3.956836000000000E+01
4280000000.000000      4.205170000000000E-01     -4.217187000000000E+01      2.210770000000000E-01      1.199707000000000E+01
4300000000.000000      4.261169000000000E-01     -4.240820000000000E+01      2.202301000000000E-01     -1.659765000000000E+01
4320000000.000000      4.332581000000000E-01     -4.356054000000000E+01      2.203369000000000E-01     -4.540429000000000E+01
4340000000.000000      4.372864000000000E-01     -4.541406000000000E+01      2.201920000000000E-01     -7.480078000000000E+01
4360000000.000000      4.369202000000000E-01     -4.716992000000000E+01      2.202530000000000E-01     -1.047500000000000E+02
4380000000.000000      4.327393000000000E-01     -4.820507000000000E+01      2.183838000000000E-01     -1.346484000000000E+02
4400000000.000000      4.321136000000000E-01     -4.888085000000000E+01      2.159882000000000E-01     -1.634453000000000E+02
4420000000.000000      4.348297000000000E-01     -4.938281000000000E+01      2.204895000000000E-01      1.676250000000000E+02
4440000000.000000      4.398804000000000E-01     -5.062500000000000E+01      2.216644000000000E-01      1.379297000000000E+02
4460000000.000000      4.414673000000000E-01     -5.248437000000000E+01      2.199097000000000E-01      1.085390000000000E+02
4480000000.000000      4.369812000000000E-01     -5.408008000000000E+01      2.178421000000000E-01      7.981640000000000E+01
4500000000.000000      4.276733000000000E-01     -5.541992000000000E+01      2.151718000000000E-01      5.172070000000000E+01
4520000000.000000      4.218445000000000E-01     -5.540429000000000E+01      2.121582000000000E-01      2.315625000000000E+01
4540000000.000000      4.224091000000000E-01     -5.551171000000000E+01      2.064896000000000E-01     -5.019531000000000E+00
4560000000.000000      4.289551000000000E-01     -5.571094000000000E+01      2.060852000000000E-01     -3.265039000000000E+01
4580000000.000000      4.402924000000000E-01     -5.678711000000000E+01      2.072754000000000E-01     -6.275976000000000E+01
4600000000.000000      4.467163000000000E-01     -5.845508000000000E+01      2.054367000000000E-01     -9.300781000000000E+01
4620000000.000000      4.496765000000000E-01     -6.004883000000000E+01      2.044830000000000E-01     -1.238125000000000E+02
4640000000.000000      4.509735000000000E-01     -6.135742000000000E+01      2.016754000000000E-01     -1.546875000000000E+02
4660000000.000000      4.522858000000000E-01     -6.252148000000000E+01      2.024841000000000E-01      1.761719000000000E+02
4680000000.000000      4.583740000000000E-01     -6.379492000000000E+01      2.080231000000000E-01      1.461406000000000E+02
4700000000.000000      4.616852000000000E-01     -6.562109000000000E+01      2.091827000000000E-01      1.164180000000000E+02
4720000000.000000      4.644165000000000E-01     -6.766015000000000E+01      2.116241000000000E-01      8.792969000000000E+01
4740000000.000000      4.662781000000000E-01     -7.001171000000000E+01      2.153015000000000E-01      5.928320000000000E+01
4760000000.000000      4.642639000000000E-01     -7.234375000000000E+01      2.130661000000000E-01      3.119141000000000E+01
4780000000.000000      4.598541000000000E-01     -7.459374000000000E+01      2.100677000000000E-01      3.043213000000000E+00
4800000000.000000      4.534760000000000E-01     -7.712109000000000E+01      2.034760000000000E-01     -2.503711000000000E+01
4820000000.000000      4.420319000000000E-01     -7.936718000000000E+01      1.926956000000000E-01     -5.331836000000000E+01
4840000000.000000      4.216156000000000E-01     -8.106640000000000E+01      1.832275000000000E-01     -8.063671000000000E+01
4860000000.000000      4.005585000000000E-01     -8.164843000000000E+01      1.753998000000000E-01     -1.097930000000000E+02
4880000000.000000      3.815308000000000E-01     -8.018358000000000E+01      1.611023000000000E-01     -1.397266000000000E+02
4900000000.000000      3.746948000000000E-01     -7.779297000000000E+01      1.473236000000000E-01     -1.656563000000000E+02
4920000000.000000      3.816071000000000E-01     -7.528125000000000E+01      1.518707000000000E-01      1.698437000000000E+02
4940000000.000000      4.017029000000000E-01     -7.373047000000000E+01      1.647034000000000E-01      1.399531000000000E+02
4960000000.000000      4.299164000000000E-01     -7.455078000000000E+01      1.733398000000000E-01      1.085273000000000E+02
4980000000.000000      4.518738000000000E-01     -7.744141000000000E+01      1.825638000000000E-01      7.920312000000000E+01
5000000000.000000      4.610748000000000E-01     -8.116796000000000E+01      1.941986000000000E-01      4.948632000000000E+01
5020000000.000000      4.566193000000000E-01     -8.443359000000000E+01      2.001114000000000E-01      2.026660000000000E+01
5040000000.000000      4.439697000000000E-01     -8.675390000000000E+01      2.018585000000000E-01     -6.613770000000000E+00
5060000000.000000      4.328918000000000E-01     -8.761719000000000E+01      2.070923000000000E-01     -3.217773000000000E+01
5080000000.000000      4.268646000000000E-01     -8.803905000000000E+01      2.128372000000000E-01     -5.961132000000000E+01
5100000000.000000      4.267273000000000E-01     -8.846094000000000E+01      2.098236000000000E-01     -8.683985000000000E+01
5120000000.000000      4.283295000000000E-01     -8.917969000000000E+01      2.081375000000000E-01     -1.137266000000000E+02
5140000000.000000      4.330444000000000E-01     -9.003906000000000E+01      2.042770000000000E-01     -1.422422000000000E+02
5160000000.000000      4.359436000000000E-01     -9.111719000000000E+01      1.986618000000000E-01     -1.711875000000000E+02
5180000000.000000      4.416962000000000E-01     -9.212891000000000E+01      1.956329000000000E-01      1.587969000000000E+02
5200000000.000000      4.480133000000000E-01     -9.346094000000000E+01      1.917801000000000E-01      1.281484000000000E+02
5220000000.000000      4.517975000000000E-01     -9.519531000000000E+01      1.925430000000000E-01      9.766796000000000E+01
5240000000.000000      4.525146000000000E-01     -9.681250000000000E+01      1.955185000000000E-01      6.660546000000000E+01
5260000000.000000      4.507294000000000E-01     -9.846092000000000E+01      2.002182000000000E-01      3.609961000000000E+01
5280000000.000000      4.469757000000000E-01     -9.973436000000000E+01      2.047043000000000E-01      6.642578000000000E+00
5300000000.000000      4.454803000000000E-01     -1.007891000000000E+02      2.083740000000000E-01     -2.090723000000000E+01
5320000000.000000      4.450226000000000E-01     -1.017773000000000E+02      2.154694000000000E-01     -4.757226000000000E+01
5340000000.000000      4.455566000000000E-01     -1.030391000000000E+02      2.194366000000000E-01     -7.509375000000000E+01
5360000000.000000      4.456329000000000E-01     -1.045898000000000E+02      2.187653000000000E-01     -1.014101000000000E+02
5380000000.000000      4.467773000000000E-01     -1.057813000000000E+02      2.168961000000000E-01     -1.280234000000000E+02
5400000000.000000      4.468384000000000E-01     -1.069297000000000E+02      2.107620000000000E-01     -1.548750000000000E+02
5420000000.000000      4.500580000000000E-01     -1.073750000000000E+02      2.048798000000000E-01      1.779922000000000E+02
5440000000.000000      4.557953000000000E-01     -1.080742000000000E+02      1.989212000000000E-01      1.488750000000000E+02
5460000000.000000      4.631348000000000E-01     -1.094062000000000E+02      1.893997000000000E-01      1.193320000000000E+02
5480000000.000000      4.693146000000000E-01     -1.112226000000000E+02      1.860275000000000E-01      8.873438000000000E+01
5500000000.000000      4.696808000000000E-01     -1.136719000000000E+02      1.849365000000000E-01      5.727734000000000E+01
5520000000.000000      4.648438000000000E-01     -1.159961000000000E+02      1.856842000000000E-01      2.540136000000000E+01
5540000000.000000      4.583130000000000E-01     -1.179258000000000E+02      1.876068000000000E-01     -5.616943000000000E+00
5560000000.000000      4.509125000000000E-01     -1.197148000000000E+02      1.926346000000000E-01     -3.413867000000000E+01
5580000000.000000      4.432831000000000E-01     -1.210234000000000E+02      2.016068000000000E-01     -6.254101000000000E+01
5600000000.000000      4.386597000000000E-01     -1.219102000000000E+02      2.064896000000000E-01     -8.997656000000000E+01
5620000000.000000      4.327850000000000E-01     -1.227031000000000E+02      2.102127000000000E-01     -1.162226000000000E+02
5640000000.000000      4.293213000000000E-01     -1.228945000000000E+02      2.106781000000000E-01     -1.428672000000000E+02
5660000000.000000      4.290771000000000E-01     -1.225937000000000E+02      2.073898000000000E-01     -1.685078000000000E+02
5680000000.000000      4.346924000000000E-01     -1.226484000000000E+02      2.023315000000000E-01      1.650703000000000E+02
5700000000.000000      4.462738000000000E-01     -1.235273000000000E+02      1.942291000000000E-01      1.381562000000000E+02
5720000000.000000      4.588623000000000E-01     -1.252422000000000E+02      1.862488000000000E-01      1.105117000000000E+02
5740000000.000000      4.661102000000000E-01     -1.280078000000000E+02      1.785278000000000E-01      8.058594000000000E+01
5760000000.000000      4.645081000000000E-01     -1.311484000000000E+02      1.709366000000000E-01      4.800586000000000E+01
5780000000.000000      4.548950000000000E-01     -1.336875000000000E+02      1.635818000000000E-01      1.543848000000000E+01
5800000000.000000      4.417572000000000E-01     -1.351797000000000E+02      1.613770000000000E-01     -1.598145000000000E+01
5820000000.000000      4.347839000000000E-01     -1.356172000000000E+02      1.681137000000000E-01     -4.690039000000000E+01
5840000000.000000      4.349213000000000E-01     -1.362813000000000E+02      1.778412000000000E-01     -7.839844000000000E+01
5860000000.000000      4.402466000000000E-01     -1.373828000000000E+02      1.846237000000000E-01     -1.075547000000000E+02
5880000000.000000      4.446716000000000E-01     -1.392578000000000E+02      1.911163000000000E-01     -1.352734000000000E+02
5900000000.000000      4.457092000000000E-01     -1.412344000000000E+02      1.968384000000000E-01     -1.621484000000000E+02
5920000000.000000      4.420013000000000E-01     -1.432031000000000E+02      1.995239000000000E-01      1.713828000000000E+02
5940000000.000000      4.378662000000000E-01     -1.444375000000000E+02      1.947556000000000E-01      1.445703000000000E+02
5960000000.000000      4.332581000000000E-01     -1.459141000000000E+02      1.859818000000000E-01      1.194414000000000E+02
5980000000.000000      4.282684000000000E-01     -1.472578000000000E+02      1.792831000000000E-01      9.294531000000000E+01
6000000000.000000      4.196625000000000E-01     -1.491406000000000E+02      1.686630000000000E-01      6.422656000000000E+01
6020000000.000000      4.063110000000000E-01     -1.507813000000000E+02      1.555481000000000E-01      3.380664000000000E+01
6040000000.000000      3.911285000000000E-01     -1.516641000000000E+02      1.407852000000000E-01      3.298584000000000E+00
6060000000.000000      3.807831000000000E-01     -1.517031000000000E+02      1.339798000000000E-01     -2.679101000000000E+01
6080000000.000000      3.770905000000000E-01     -1.509063000000000E+02      1.385040000000000E-01     -5.864258000000000E+01
