! Network Analyzer HP8722D
! Hewlett-Packard
! Data name: Linha com CNT
! Saver's name: Rodrigo Anjos
! Comments: Teste de deteccao de acetona 0-100ppm a partir de cilindro
! Time and date: 10/9/2025 16:37
!              Frequency                     S11                                                   S21                                                   S12                                                   S22
# HZ  S  MA R 50
3000000000.000000      4.201508000000000E-01      1.657129000000000E+01      2.580719000000000E-01      3.295703000000000E+01
3020000000.000000      4.292908000000000E-01      1.607617000000000E+01      2.618561000000000E-01      3.397461000000000E+00
3040000000.000000      4.370422000000000E-01      1.475586000000000E+01      2.617798000000000E-01     -2.574121000000000E+01
3060000000.000000      4.411163000000000E-01      1.282910000000000E+01      2.615204000000000E-01     -5.509375000000000E+01
3080000000.000000      4.386292000000000E-01      1.089941000000000E+01      2.574921000000000E-01     -8.396484000000000E+01
3100000000.000000      4.346313000000000E-01      9.520996000000000E+00      2.561951000000000E-01     -1.117031000000000E+02
3120000000.000000      4.317322000000000E-01      8.624023000000000E+00      2.553101000000000E-01     -1.403984000000000E+02
3140000000.000000      4.321594000000000E-01      7.779541000000000E+00      2.519684000000000E-01     -1.689922000000000E+02
3160000000.000000      4.329834000000000E-01      6.561523000000000E+00      2.477264000000000E-01      1.623203000000000E+02
3180000000.000000      4.270935000000000E-01      5.340576000000000E+00      2.422104000000000E-01      1.343516000000000E+02
3200000000.000000      4.154816000000000E-01      4.784424000000000E+00      2.373886000000000E-01      1.058164000000000E+02
3220000000.000000      4.036713000000000E-01      5.174561000000000E+00      2.284622000000000E-01      7.711719000000000E+01
3240000000.000000      3.981628000000000E-01      6.452881000000000E+00      2.213058000000000E-01      5.175586000000000E+01
3260000000.000000      4.012604000000000E-01      8.236816000000000E+00      2.299728000000000E-01      2.568945000000000E+01
3280000000.000000      4.150085000000000E-01      9.185547000000000E+00      2.383423000000000E-01     -3.688721000000000E+00
3300000000.000000      4.361420000000000E-01      8.708984000000000E+00      2.412720000000000E-01     -3.242773000000000E+01
3320000000.000000      4.554901000000000E-01      6.950195000000000E+00      2.481079000000000E-01     -6.109961000000000E+01
3340000000.000000      4.679108000000000E-01      4.478271000000000E+00      2.538910000000000E-01     -9.100389000000000E+01
3360000000.000000      4.724731000000000E-01      1.933594000000000E+00      2.557220000000000E-01     -1.204766000000000E+02
3380000000.000000      4.702759000000000E-01      1.194763000000000E-01      2.550659000000000E-01     -1.497187000000000E+02
3400000000.000000      4.656525000000000E-01     -1.554565000000000E+00      2.551270000000000E-01     -1.785781000000000E+02
3420000000.000000      4.613495000000000E-01     -2.760376000000000E+00      2.534180000000000E-01      1.522031000000000E+02
3440000000.000000      4.560699000000000E-01     -4.011475000000000E+00      2.491531000000000E-01      1.241406000000000E+02
3460000000.000000      4.515839000000000E-01     -5.053711000000000E+00      2.498474000000000E-01      9.583984000000000E+01
3480000000.000000      4.496613000000000E-01     -6.020508000000000E+00      2.468109000000000E-01      6.671875000000000E+01
3500000000.000000      4.478607000000000E-01     -6.840576000000000E+00      2.446365000000000E-01      3.857422000000000E+01
3520000000.000000      4.469604000000000E-01     -7.772949000000000E+00      2.440872000000000E-01      9.759766000000000E+00
3540000000.000000      4.461517000000000E-01     -8.587402000000000E+00      2.400894000000000E-01     -1.866992000000000E+01
3560000000.000000      4.449310000000000E-01     -9.161621000000000E+00      2.414780000000000E-01     -4.687304000000000E+01
3580000000.000000      4.420624000000000E-01     -9.682129000000000E+00      2.411423000000000E-01     -7.570313000000000E+01
3600000000.000000      4.405518000000000E-01     -1.011328000000000E+01      2.413330000000000E-01     -1.031641000000000E+02
3620000000.000000      4.432983000000000E-01     -1.055518000000000E+01      2.453766000000000E-01     -1.314375000000000E+02
3640000000.000000      4.466095000000000E-01     -1.143994000000000E+01      2.467880000000000E-01     -1.599766000000000E+02
3660000000.000000      4.492188000000000E-01     -1.289697000000000E+01      2.477417000000000E-01      1.716640000000000E+02
3680000000.000000      4.496918000000000E-01     -1.449512000000000E+01      2.463074000000000E-01      1.432812000000000E+02
3700000000.000000      4.442902000000000E-01     -1.582471000000000E+01      2.444534000000000E-01      1.158281000000000E+02
3720000000.000000      4.395752000000000E-01     -1.655859000000000E+01      2.462006000000000E-01      8.752733000000000E+01
3740000000.000000      4.382629000000000E-01     -1.648535000000000E+01      2.412109000000000E-01      5.915820000000000E+01
3760000000.000000      4.419708000000000E-01     -1.655859000000000E+01      2.404022000000000E-01      3.205469000000000E+01
3780000000.000000      4.477081000000000E-01     -1.732422000000000E+01      2.428436000000000E-01      3.536133000000000E+00
3800000000.000000      4.534760000000000E-01     -1.883105000000000E+01      2.413788000000000E-01     -2.570313000000000E+01
3820000000.000000      4.507446000000000E-01     -2.083887000000000E+01      2.399445000000000E-01     -5.432617000000000E+01
3840000000.000000      4.460144000000000E-01     -2.214355000000000E+01      2.388306000000000E-01     -8.278515000000000E+01
3860000000.000000      4.402924000000000E-01     -2.293555000000000E+01      2.393036000000000E-01     -1.118984000000000E+02
3880000000.000000      4.400024000000000E-01     -2.311718000000000E+01      2.362900000000000E-01     -1.408672000000000E+02
3900000000.000000      4.449921000000000E-01     -2.371875000000000E+01      2.356415000000000E-01     -1.684609000000000E+02
3920000000.000000      4.502411000000000E-01     -2.494726000000000E+01      2.378845000000000E-01      1.632109000000000E+02
3940000000.000000      4.499512000000000E-01     -2.667480000000000E+01      2.380676000000000E-01      1.346641000000000E+02
3960000000.000000      4.434509000000000E-01     -2.809082000000000E+01      2.376480000000000E-01      1.063672000000000E+02
3980000000.000000      4.341278000000000E-01     -2.861425000000000E+01      2.313614000000000E-01      7.769921000000000E+01
4000000000.000000      4.292603000000000E-01     -2.838672000000000E+01      2.284470000000000E-01      5.189062000000000E+01
4020000000.000000      4.344940000000000E-01     -2.794043000000000E+01      2.367096000000000E-01      2.414453000000000E+01
4040000000.000000      4.492035000000000E-01     -2.848926000000000E+01      2.372513000000000E-01     -6.267822000000000E+00
4060000000.000000      4.633789000000000E-01     -3.046679000000000E+01      2.326508000000000E-01     -3.500000000000000E+01
4080000000.000000      4.698486000000000E-01     -3.380078000000000E+01      2.327118000000000E-01     -6.371679000000000E+01
4100000000.000000      4.635315000000000E-01     -3.665625000000000E+01      2.331467000000000E-01     -9.302343000000000E+01
4120000000.000000      4.489899000000000E-01     -3.856836000000000E+01      2.301331000000000E-01     -1.232187000000000E+02
4140000000.000000      4.361115000000000E-01     -3.920898000000000E+01      2.220917000000000E-01     -1.516953000000000E+02
4160000000.000000      4.298248000000000E-01     -3.934570000000000E+01      2.246246000000000E-01     -1.782656000000000E+02
4180000000.000000      4.295959000000000E-01     -3.961133000000000E+01      2.295837000000000E-01      1.524922000000000E+02
4200000000.000000      4.300385000000000E-01     -4.068945000000000E+01      2.267456000000000E-01      1.236445000000000E+02
4220000000.000000      4.286499000000000E-01     -4.172461000000000E+01      2.276764000000000E-01      9.553125000000000E+01
4240000000.000000      4.231873000000000E-01     -4.245117000000000E+01      2.234650000000000E-01      6.655859000000000E+01
4260000000.000000      4.201660000000000E-01     -4.264257000000000E+01      2.183914000000000E-01      3.946289000000000E+01
4280000000.000000      4.196472000000000E-01     -4.240430000000000E+01      2.201004000000000E-01      1.180029000000000E+01
4300000000.000000      4.265137000000000E-01     -4.247070000000000E+01      2.195511000000000E-01     -1.679590000000000E+01
4320000000.000000      4.340057000000000E-01     -4.375196000000000E+01      2.194977000000000E-01     -4.567187000000000E+01
4340000000.000000      4.381104000000000E-01     -4.543750000000000E+01      2.192917000000000E-01     -7.493359000000000E+01
4360000000.000000      4.375305000000000E-01     -4.723828000000000E+01      2.194824000000000E-01     -1.048789000000000E+02
4380000000.000000      4.331055000000000E-01     -4.838672000000000E+01      2.174683000000000E-01     -1.349766000000000E+02
4400000000.000000      4.318390000000000E-01     -4.896679000000000E+01      2.151566000000000E-01     -1.636172000000000E+02
4420000000.000000      4.355621000000000E-01     -4.956640000000000E+01      2.194214000000000E-01      1.675078000000000E+02
4440000000.000000      4.398804000000000E-01     -5.093163000000000E+01      2.207336000000000E-01      1.376094000000000E+02
4460000000.000000      4.413147000000000E-01     -5.261328000000000E+01      2.192764000000000E-01      1.084844000000000E+02
4480000000.000000      4.367523000000000E-01     -5.452148000000000E+01      2.174759000000000E-01      7.971874000000000E+01
4500000000.000000      4.285736000000000E-01     -5.543945000000000E+01      2.141342000000000E-01      5.146679000000000E+01
4520000000.000000      4.224243000000000E-01     -5.560351000000000E+01      2.108917000000000E-01      2.294336000000000E+01
4540000000.000000      4.228821000000000E-01     -5.558788000000000E+01      2.054291000000000E-01     -5.237793000000000E+00
4560000000.000000      4.295044000000000E-01     -5.591406000000000E+01      2.051010000000000E-01     -3.283789000000000E+01
4580000000.000000      4.405060000000000E-01     -5.695507000000000E+01      2.065201000000000E-01     -6.289063000000000E+01
4600000000.000000      4.473267000000000E-01     -5.859765000000000E+01      2.042694000000000E-01     -9.319139000000000E+01
4620000000.000000      4.494781000000000E-01     -6.023242000000000E+01      2.040024000000000E-01     -1.239805000000000E+02
4640000000.000000      4.510498000000000E-01     -6.163086000000000E+01      2.009048000000000E-01     -1.549141000000000E+02
4660000000.000000      4.536743000000000E-01     -6.284570000000000E+01      2.012482000000000E-01      1.761250000000000E+02
4680000000.000000      4.569397000000000E-01     -6.372070000000000E+01      2.071457000000000E-01      1.460156000000000E+02
4700000000.000000      4.631195000000000E-01     -6.578515000000000E+01      2.085342000000000E-01      1.161914000000000E+02
4720000000.000000      4.655762000000000E-01     -6.775000000000000E+01      2.110977000000000E-01      8.774609000000000E+01
4740000000.000000      4.665985000000000E-01     -7.019921000000000E+01      2.140198000000000E-01      5.910351000000000E+01
4760000000.000000      4.645844000000000E-01     -7.250390000000000E+01      2.130280000000000E-01      3.102539000000000E+01
4780000000.000000      4.603119000000000E-01     -7.474218000000000E+01      2.095718000000000E-01      2.808350000000000E+00
4800000000.000000      4.543762000000000E-01     -7.720703000000000E+01      2.028275000000000E-01     -2.528320000000000E+01
4820000000.000000      4.420776000000000E-01     -7.953906000000000E+01      1.923218000000000E-01     -5.324023000000000E+01
4840000000.000000      4.216919000000000E-01     -8.118359000000000E+01      1.825409000000000E-01     -8.091797000000000E+01
4860000000.000000      4.004059000000000E-01     -8.169140000000000E+01      1.746826000000000E-01     -1.098203000000000E+02
4880000000.000000      3.822479000000000E-01     -8.044531000000000E+01      1.604004000000000E-01     -1.399531000000000E+02
4900000000.000000      3.755035000000000E-01     -7.792969000000000E+01      1.464462000000000E-01     -1.655000000000000E+02
4920000000.000000      3.821411000000000E-01     -7.542578000000000E+01      1.512222000000000E-01      1.696640000000000E+02
4940000000.000000      4.030151000000000E-01     -7.397655000000000E+01      1.643524000000000E-01      1.396172000000000E+02
4960000000.000000      4.312286000000000E-01     -7.465625000000000E+01      1.724091000000000E-01      1.082969000000000E+02
4980000000.000000      4.529572000000000E-01     -7.760937000000000E+01      1.821060000000000E-01      7.896093000000000E+01
5000000000.000000      4.615784000000000E-01     -8.132421000000000E+01      1.932678000000000E-01      4.941601000000000E+01
5020000000.000000      4.564514000000000E-01     -8.457422000000000E+01      1.995087000000000E-01      1.998535000000000E+01
5040000000.000000      4.441223000000000E-01     -8.682032000000000E+01      2.010040000000000E-01     -6.866455000000000E+00
5060000000.000000      4.331360000000000E-01     -8.775391000000000E+01      2.061386000000000E-01     -3.243555000000000E+01
5080000000.000000      4.262238000000000E-01     -8.816015000000000E+01      2.117615000000000E-01     -5.963476000000000E+01
5100000000.000000      4.272919000000000E-01     -8.855078000000000E+01      2.093582000000000E-01     -8.710546000000000E+01
5120000000.000000      4.294586000000000E-01     -8.930859000000000E+01      2.075195000000000E-01     -1.140430000000000E+02
5140000000.000000      4.324036000000000E-01     -9.017578000000000E+01      2.034988000000000E-01     -1.424453000000000E+02
5160000000.000000      4.361267000000000E-01     -9.128515000000000E+01      1.981354000000000E-01     -1.712734000000000E+02
5180000000.000000      4.420166000000000E-01     -9.224609000000000E+01      1.946716000000000E-01      1.583203000000000E+02
5200000000.000000      4.483948000000000E-01     -9.362108000000000E+01      1.909866000000000E-01      1.278750000000000E+02
5220000000.000000      4.519653000000000E-01     -9.526953000000000E+01      1.917953000000000E-01      9.742968000000000E+01
5240000000.000000      4.530029000000000E-01     -9.692577000000000E+01      1.950302000000000E-01      6.641406000000000E+01
5260000000.000000      4.509888000000000E-01     -9.857422000000000E+01      1.991425000000000E-01      3.591992000000000E+01
5280000000.000000      4.472351000000000E-01     -9.983984000000000E+01      2.039337000000000E-01      6.231934000000000E+00
5300000000.000000      4.460907000000000E-01     -1.009883000000000E+02      2.073364000000000E-01     -2.115332000000000E+01
5320000000.000000      4.452667000000000E-01     -1.019648000000000E+02      2.151566000000000E-01     -4.778320000000000E+01
5340000000.000000      4.457550000000000E-01     -1.032187000000000E+02      2.188492000000000E-01     -7.523828000000000E+01
5360000000.000000      4.466400000000000E-01     -1.046523000000000E+02      2.179413000000000E-01     -1.016758000000000E+02
5380000000.000000      4.470673000000000E-01     -1.058945000000000E+02      2.158127000000000E-01     -1.282578000000000E+02
5400000000.000000      4.471741000000000E-01     -1.070000000000000E+02      2.098389000000000E-01     -1.551172000000000E+02
5420000000.000000      4.501953000000000E-01     -1.075859000000000E+02      2.041550000000000E-01      1.778281000000000E+02
5440000000.000000      4.562378000000000E-01     -1.082148000000000E+02      1.975327000000000E-01      1.486484000000000E+02
5460000000.000000      4.634552000000000E-01     -1.095430000000000E+02      1.888046000000000E-01      1.191133000000000E+02
5480000000.000000      4.685516000000000E-01     -1.113750000000000E+02      1.848221000000000E-01      8.851563000000000E+01
5500000000.000000      4.705200000000000E-01     -1.138008000000000E+02      1.844101000000000E-01      5.699219000000000E+01
5520000000.000000      4.655762000000000E-01     -1.161719000000000E+02      1.848526000000000E-01      2.518164000000000E+01
5540000000.000000      4.588623000000000E-01     -1.180976000000000E+02      1.867752000000000E-01     -5.921631000000000E+00
5560000000.000000      4.511871000000000E-01     -1.198398000000000E+02      1.916580000000000E-01     -3.443359000000000E+01
5580000000.000000      4.429932000000000E-01     -1.211758000000000E+02      2.006378000000000E-01     -6.271484000000000E+01
5600000000.000000      4.381866000000000E-01     -1.220273000000000E+02      2.060699000000000E-01     -9.021875000000000E+01
5620000000.000000      4.332428000000000E-01     -1.227266000000000E+02      2.094040000000000E-01     -1.164609000000000E+02
5640000000.000000      4.301300000000000E-01     -1.230078000000000E+02      2.105637000000000E-01     -1.431719000000000E+02
5660000000.000000      4.299622000000000E-01     -1.230039000000000E+02      2.067871000000000E-01     -1.688672000000000E+02
5680000000.000000      4.353027000000000E-01     -1.229180000000000E+02      2.011948000000000E-01      1.648906000000000E+02
5700000000.000000      4.463196000000000E-01     -1.236367000000000E+02      1.932068000000000E-01      1.377031000000000E+02
5720000000.000000      4.591827000000000E-01     -1.252695000000000E+02      1.851196000000000E-01      1.102617000000000E+02
5740000000.000000      4.667206000000000E-01     -1.281953000000000E+02      1.780548000000000E-01      8.021875000000000E+01
5760000000.000000      4.642181000000000E-01     -1.313047000000000E+02      1.698685000000000E-01      4.770898000000000E+01
5780000000.000000      4.544525000000000E-01     -1.338672000000000E+02      1.625748000000000E-01      1.502344000000000E+01
5800000000.000000      4.420166000000000E-01     -1.352656000000000E+02      1.601563000000000E-01     -1.649902000000000E+01
5820000000.000000      4.348907000000000E-01     -1.357578000000000E+02      1.667328000000000E-01     -4.718554000000000E+01
5840000000.000000      4.351807000000000E-01     -1.364297000000000E+02      1.771469000000000E-01     -7.865234000000000E+01
5860000000.000000      4.412994000000000E-01     -1.373984000000000E+02      1.841888000000000E-01     -1.080117000000000E+02
5880000000.000000      4.456329000000000E-01     -1.394297000000000E+02      1.914597000000000E-01     -1.356172000000000E+02
5900000000.000000      4.464569000000000E-01     -1.414687000000000E+02      1.965179000000000E-01     -1.623672000000000E+02
5920000000.000000      4.423218000000000E-01     -1.432969000000000E+02      1.990509000000000E-01      1.710625000000000E+02
5940000000.000000      4.374237000000000E-01     -1.445391000000000E+02      1.941071000000000E-01      1.443516000000000E+02
5960000000.000000      4.337311000000000E-01     -1.459375000000000E+02      1.854019000000000E-01      1.191367000000000E+02
5980000000.000000      4.288940000000000E-01     -1.474688000000000E+02      1.782303000000000E-01      9.266405000000000E+01
6000000000.000000      4.199524000000000E-01     -1.492969000000000E+02      1.682358000000000E-01      6.394140000000000E+01
6020000000.000000      4.057465000000000E-01     -1.509219000000000E+02      1.547394000000000E-01      3.375000000000000E+01
6040000000.000000      3.919678000000000E-01     -1.518359000000000E+02      1.404800000000000E-01      3.072021000000000E+00
6060000000.000000      3.809052000000000E-01     -1.517891000000000E+02      1.332092000000000E-01     -2.718652000000000E+01
6080000000.000000      3.777466000000000E-01     -1.510000000000000E+02      1.381912000000000E-01     -5.872656000000000E+01
