! Network Analyzer HP8722D
! Hewlett-Packard
! Data name: Linha com CNT
! Saver's name: Rodrigo Anjos
! Comments: Teste de deteccao de acetona 0-100ppm a partir de cilindro
! Time and date: 10/9/2025 15:46
!              Frequency                     S11                                                   S21                                                   S12                                                   S22
# HZ  S  MA R 50
3000000000.000000      4.412231000000000E-01      1.514160000000000E+01      2.482147000000000E-01      3.333984000000000E+01
3020000000.000000      4.482880000000000E-01      1.451416000000000E+01      2.521820000000000E-01      3.919312000000000E+00
3040000000.000000      4.564667000000000E-01      1.353516000000000E+01      2.522430000000000E-01     -2.529394000000000E+01
3060000000.000000      4.611816000000000E-01      1.158057000000000E+01      2.520599000000000E-01     -5.451366000000000E+01
3080000000.000000      4.583740000000000E-01      9.869629000000000E+00      2.479630000000000E-01     -8.332031000000000E+01
3100000000.000000      4.551849000000000E-01      8.453613000000000E+00      2.465363000000000E-01     -1.111367000000000E+02
3120000000.000000      4.537659000000000E-01      7.541992000000000E+00      2.461472000000000E-01     -1.398594000000000E+02
3140000000.000000      4.537811000000000E-01      6.579346000000000E+00      2.421112000000000E-01     -1.684687000000000E+02
3160000000.000000      4.549713000000000E-01      5.399658000000000E+00      2.384262000000000E-01      1.629375000000000E+02
3180000000.000000      4.494629000000000E-01      4.215820000000000E+00      2.324448000000000E-01      1.348516000000000E+02
3200000000.000000      4.402008000000000E-01      3.505981000000000E+00      2.285385000000000E-01      1.064570000000000E+02
3220000000.000000      4.279022000000000E-01      3.593872000000000E+00      2.190933000000000E-01      7.771874000000000E+01
3240000000.000000      4.220886000000000E-01      4.531738000000000E+00      2.121201000000000E-01      5.255077000000000E+01
3260000000.000000      4.240417000000000E-01      5.887207000000000E+00      2.217484000000000E-01      2.653320000000000E+01
3280000000.000000      4.352112000000000E-01      6.667236000000000E+00      2.295151000000000E-01     -2.892212000000000E+00
3300000000.000000      4.536896000000000E-01      6.414551000000000E+00      2.323914000000000E-01     -3.173340000000000E+01
3320000000.000000      4.726868000000000E-01      4.843506000000000E+00      2.402496000000000E-01     -6.043554000000000E+01
3340000000.000000      4.845123000000000E-01      2.655884000000000E+00      2.449036000000000E-01     -9.028124000000000E+01
3360000000.000000      4.894257000000000E-01      2.348328000000000E-01      2.465134000000000E-01     -1.198828000000000E+02
3380000000.000000      4.875793000000000E-01     -1.498291000000000E+00      2.464752000000000E-01     -1.493203000000000E+02
3400000000.000000      4.835205000000000E-01     -3.013062000000000E+00      2.462540000000000E-01     -1.779922000000000E+02
3420000000.000000      4.799042000000000E-01     -4.166748000000000E+00      2.447662000000000E-01      1.528203000000000E+02
3440000000.000000      4.748383000000000E-01     -5.453369000000000E+00      2.395706000000000E-01      1.245586000000000E+02
3460000000.000000      4.709473000000000E-01     -6.538330000000000E+00      2.408981000000000E-01      9.636328000000000E+01
3480000000.000000      4.688721000000000E-01     -7.463867000000000E+00      2.376404000000000E-01      6.731640000000000E+01
3500000000.000000      4.676208000000000E-01     -8.156250000000000E+00      2.354507000000000E-01      3.929883000000000E+01
3520000000.000000      4.666443000000000E-01     -9.302734000000000E+00      2.348785000000000E-01      1.030225000000000E+01
3540000000.000000      4.666290000000000E-01     -1.006787000000000E+01      2.312698000000000E-01     -1.824609000000000E+01
3560000000.000000      4.654694000000000E-01     -1.071045000000000E+01      2.326813000000000E-01     -4.629687000000000E+01
3580000000.000000      4.628143000000000E-01     -1.128711000000000E+01      2.322388000000000E-01     -7.510156000000000E+01
3600000000.000000      4.609222000000000E-01     -1.172119000000000E+01      2.322769000000000E-01     -1.024609000000000E+02
3620000000.000000      4.634705000000000E-01     -1.227344000000000E+01      2.364120000000000E-01     -1.308750000000000E+02
3640000000.000000      4.659576000000000E-01     -1.310693000000000E+01      2.377472000000000E-01     -1.594219000000000E+02
3660000000.000000      4.686584000000000E-01     -1.460645000000000E+01      2.388687000000000E-01      1.723047000000000E+02
3680000000.000000      4.684601000000000E-01     -1.604785000000000E+01      2.372665000000000E-01      1.439609000000000E+02
3700000000.000000      4.641113000000000E-01     -1.735644000000000E+01      2.354202000000000E-01      1.165508000000000E+02
3720000000.000000      4.602203000000000E-01     -1.816504000000000E+01      2.370605000000000E-01      8.821484000000000E+01
3740000000.000000      4.596710000000000E-01     -1.822949000000000E+01      2.322693000000000E-01      5.996288000000000E+01
3760000000.000000      4.620667000000000E-01     -1.830078000000000E+01      2.316742000000000E-01      3.278711000000000E+01
3780000000.000000      4.673157000000000E-01     -1.907519000000000E+01      2.343063000000000E-01      4.280518000000000E+00
3800000000.000000      4.721527000000000E-01     -2.042090000000000E+01      2.327499000000000E-01     -2.493164000000000E+01
3820000000.000000      4.709320000000000E-01     -2.225293000000000E+01      2.305527000000000E-01     -5.365039000000000E+01
3840000000.000000      4.671936000000000E-01     -2.361035000000000E+01      2.300110000000000E-01     -8.212109000000000E+01
3860000000.000000      4.622955000000000E-01     -2.446680000000000E+01      2.309189000000000E-01     -1.112812000000000E+02
3880000000.000000      4.608917000000000E-01     -2.484375000000000E+01      2.276154000000000E-01     -1.401328000000000E+02
3900000000.000000      4.658356000000000E-01     -2.534472000000000E+01      2.270737000000000E-01     -1.677344000000000E+02
3920000000.000000      4.706421000000000E-01     -2.659863000000000E+01      2.298203000000000E-01      1.640391000000000E+02
3940000000.000000      4.711609000000000E-01     -2.820410000000000E+01      2.296906000000000E-01      1.353828000000000E+02
3960000000.000000      4.650879000000000E-01     -2.948535000000000E+01      2.297134000000000E-01      1.070078000000000E+02
3980000000.000000      4.568024000000000E-01     -3.021289000000000E+01      2.230148000000000E-01      7.850780000000000E+01
4000000000.000000      4.523315000000000E-01     -3.011425000000000E+01      2.201691000000000E-01      5.309375000000000E+01
4020000000.000000      4.558716000000000E-01     -2.989160000000000E+01      2.286072000000000E-01      2.508398000000000E+01
4040000000.000000      4.695129000000000E-01     -3.049707000000000E+01      2.283325000000000E-01     -5.268066000000000E+00
4060000000.000000      4.839172000000000E-01     -3.229883000000000E+01      2.244415000000000E-01     -3.423242000000000E+01
4080000000.000000      4.918671000000000E-01     -3.515429000000000E+01      2.238922000000000E-01     -6.306054000000000E+01
4100000000.000000      4.855804000000000E-01     -3.781445000000000E+01      2.245941000000000E-01     -9.250391000000000E+01
4120000000.000000      4.732056000000000E-01     -3.983007000000000E+01      2.220459000000000E-01     -1.226758000000000E+02
4140000000.000000      4.610291000000000E-01     -4.048047000000000E+01      2.139206000000000E-01     -1.511406000000000E+02
4160000000.000000      4.557953000000000E-01     -4.081836000000000E+01      2.168655000000000E-01     -1.776484000000000E+02
4180000000.000000      4.541931000000000E-01     -4.125000000000000E+01      2.215576000000000E-01      1.530313000000000E+02
4200000000.000000      4.539032000000000E-01     -4.219531000000000E+01      2.190094000000000E-01      1.245625000000000E+02
4220000000.000000      4.539337000000000E-01     -4.327148000000000E+01      2.203064000000000E-01      9.651953000000000E+01
4240000000.000000      4.484100000000000E-01     -4.417382000000000E+01      2.161865000000000E-01      6.731250000000000E+01
4260000000.000000      4.470062000000000E-01     -4.444336000000000E+01      2.112808000000000E-01      4.027734000000000E+01
4280000000.000000      4.455719000000000E-01     -4.450195000000000E+01      2.126007000000000E-01      1.287598000000000E+01
4300000000.000000      4.501038000000000E-01     -4.474218000000000E+01      2.117310000000000E-01     -1.590967000000000E+01
4320000000.000000      4.578857000000000E-01     -4.569140000000000E+01      2.113800000000000E-01     -4.467187000000000E+01
4340000000.000000      4.615021000000000E-01     -4.736718000000000E+01      2.116241000000000E-01     -7.415625000000000E+01
4360000000.000000      4.618835000000000E-01     -4.910742000000000E+01      2.115097000000000E-01     -1.040898000000000E+02
4380000000.000000      4.568787000000000E-01     -5.024023000000000E+01      2.094803000000000E-01     -1.343750000000000E+02
4400000000.000000      4.559937000000000E-01     -5.098827000000000E+01      2.078476000000000E-01     -1.629688000000000E+02
4420000000.000000      4.586487000000000E-01     -5.156836000000000E+01      2.124863000000000E-01      1.681484000000000E+02
4440000000.000000      4.622955000000000E-01     -5.282421000000000E+01      2.138519000000000E-01      1.383281000000000E+02
4460000000.000000      4.647064000000000E-01     -5.416601000000000E+01      2.128754000000000E-01      1.091484000000000E+02
4480000000.000000      4.606323000000000E-01     -5.614648000000000E+01      2.111588000000000E-01      8.042578000000000E+01
4500000000.000000      4.537048000000000E-01     -5.730663000000000E+01      2.076645000000000E-01      5.246288000000000E+01
4520000000.000000      4.472656000000000E-01     -5.762500000000000E+01      2.048492000000000E-01      2.415430000000000E+01
4540000000.000000      4.464111000000000E-01     -5.774609000000000E+01      1.989059000000000E-01     -4.117188000000000E+00
4560000000.000000      4.537659000000000E-01     -5.808203000000000E+01      1.982803000000000E-01     -3.162598000000000E+01
4580000000.000000      4.636230000000000E-01     -5.928320000000000E+01      1.991272000000000E-01     -6.191211000000000E+01
4600000000.000000      4.688263000000000E-01     -6.063281000000000E+01      1.967773000000000E-01     -9.217968000000000E+01
4620000000.000000      4.721222000000000E-01     -6.226367000000000E+01      1.964951000000000E-01     -1.231719000000000E+02
4640000000.000000      4.724579000000000E-01     -6.358203000000000E+01      1.929016000000000E-01     -1.545547000000000E+02
4660000000.000000      4.757233000000000E-01     -6.450781000000000E+01      1.935043000000000E-01      1.764297000000000E+02
4680000000.000000      4.801178000000000E-01     -6.573828000000000E+01      1.999588000000000E-01      1.462656000000000E+02
4700000000.000000      4.852142000000000E-01     -6.744531000000000E+01      2.020035000000000E-01      1.164805000000000E+02
4720000000.000000      4.874420000000000E-01     -6.922656000000000E+01      2.055130000000000E-01      8.808985000000000E+01
4740000000.000000      4.896698000000000E-01     -7.151562000000000E+01      2.077637000000000E-01      5.954296000000000E+01
4760000000.000000      4.886169000000000E-01     -7.374609000000000E+01      2.075653000000000E-01      3.157031000000000E+01
4780000000.000000      4.848328000000000E-01     -7.602734000000000E+01      2.046127000000000E-01      3.360352000000000E+00
4800000000.000000      4.791718000000000E-01     -7.820313000000000E+01      1.974258000000000E-01     -2.431152000000000E+01
4820000000.000000      4.684906000000000E-01     -8.053125000000000E+01      1.867599000000000E-01     -5.225976000000000E+01
4840000000.000000      4.498596000000000E-01     -8.229687000000000E+01      1.759872000000000E-01     -7.929688000000000E+01
4860000000.000000      4.304962000000000E-01     -8.291796000000000E+01      1.681213000000000E-01     -1.081172000000000E+02
4880000000.000000      4.110870000000000E-01     -8.209764000000000E+01      1.530991000000000E-01     -1.382578000000000E+02
4900000000.000000      4.024353000000000E-01     -8.025000000000000E+01      1.391068000000000E-01     -1.640469000000000E+02
4920000000.000000      4.063110000000000E-01     -7.809765000000000E+01      1.436005000000000E-01      1.710781000000000E+02
4940000000.000000      4.235229000000000E-01     -7.669140000000000E+01      1.567307000000000E-01      1.408984000000000E+02
4960000000.000000      4.500275000000000E-01     -7.710938000000000E+01      1.651917000000000E-01      1.091211000000000E+02
4980000000.000000      4.719238000000000E-01     -7.959374000000000E+01      1.756287000000000E-01      7.940624000000000E+01
5000000000.000000      4.821777000000000E-01     -8.287889000000000E+01      1.871872000000000E-01      4.954492000000000E+01
5020000000.000000      4.787292000000000E-01     -8.604687000000000E+01      1.937027000000000E-01      2.024219000000000E+01
5040000000.000000      4.672699000000000E-01     -8.818359000000000E+01      1.959000000000000E-01     -6.564453000000000E+00
5060000000.000000      4.561462000000000E-01     -8.925781000000000E+01      2.014694000000000E-01     -3.185254000000000E+01
5080000000.000000      4.493713000000000E-01     -8.977343000000000E+01      2.070999000000000E-01     -5.891796000000000E+01
5100000000.000000      4.490967000000000E-01     -9.021093000000000E+01      2.041016000000000E-01     -8.591015000000000E+01
5120000000.000000      4.505005000000000E-01     -9.097265000000000E+01      2.028046000000000E-01     -1.126094000000000E+02
5140000000.000000      4.538422000000000E-01     -9.178514000000000E+01      1.980743000000000E-01     -1.409297000000000E+02
5160000000.000000      4.573822000000000E-01     -9.279688000000000E+01      1.916809000000000E-01     -1.698906000000000E+02
5180000000.000000      4.635925000000000E-01     -9.373827000000000E+01      1.874008000000000E-01      1.598203000000000E+02
5200000000.000000      4.693146000000000E-01     -9.502344000000000E+01      1.830063000000000E-01      1.290625000000000E+02
5220000000.000000      4.735870000000000E-01     -9.666796000000000E+01      1.837921000000000E-01      9.829296000000000E+01
5240000000.000000      4.752045000000000E-01     -9.832420000000000E+01      1.871567000000000E-01      6.684765000000000E+01
5260000000.000000      4.734192000000000E-01     -9.994921000000000E+01      1.926041000000000E-01      3.609961000000000E+01
5280000000.000000      4.691772000000000E-01     -1.013437000000000E+02      1.971283000000000E-01      6.403564000000000E+00
5300000000.000000      4.675140000000000E-01     -1.024062000000000E+02      2.017670000000000E-01     -2.091601000000000E+01
5320000000.000000      4.672852000000000E-01     -1.034531000000000E+02      2.100677000000000E-01     -4.745703000000000E+01
5340000000.000000      4.674377000000000E-01     -1.046367000000000E+02      2.144852000000000E-01     -7.484765000000000E+01
5360000000.000000      4.670868000000000E-01     -1.059297000000000E+02      2.141113000000000E-01     -1.007070000000000E+02
5380000000.000000      4.681549000000000E-01     -1.070273000000000E+02      2.116165000000000E-01     -1.272227000000000E+02
5400000000.000000      4.677429000000000E-01     -1.082422000000000E+02      2.048416000000000E-01     -1.536953000000000E+02
5420000000.000000      4.709167000000000E-01     -1.087461000000000E+02      1.988068000000000E-01      1.794141000000000E+02
5440000000.000000      4.763489000000000E-01     -1.095000000000000E+02      1.920776000000000E-01      1.501719000000000E+02
5460000000.000000      4.840240000000000E-01     -1.107930000000000E+02      1.818161000000000E-01      1.204648000000000E+02
5480000000.000000      4.900513000000000E-01     -1.125430000000000E+02      1.773911000000000E-01      8.956640000000000E+01
5500000000.000000      4.915314000000000E-01     -1.150156000000000E+02      1.761856000000000E-01      5.765429000000000E+01
5520000000.000000      4.872742000000000E-01     -1.172656000000000E+02      1.771393000000000E-01      2.523340000000000E+01
5540000000.000000      4.799957000000000E-01     -1.192734000000000E+02      1.793213000000000E-01     -6.104492000000000E+00
5560000000.000000      4.727173000000000E-01     -1.209922000000000E+02      1.851730000000000E-01     -3.461133000000000E+01
5580000000.000000      4.643860000000000E-01     -1.222773000000000E+02      1.960831000000000E-01     -6.285156000000000E+01
5600000000.000000      4.585419000000000E-01     -1.232930000000000E+02      2.013245000000000E-01     -9.010546000000000E+01
5620000000.000000      4.539948000000000E-01     -1.240234000000000E+02      2.060089000000000E-01     -1.159687000000000E+02
5640000000.000000      4.509125000000000E-01     -1.244062000000000E+02      2.072754000000000E-01     -1.423281000000000E+02
5660000000.000000      4.507599000000000E-01     -1.244805000000000E+02      2.035217000000000E-01     -1.676406000000000E+02
5680000000.000000      4.564819000000000E-01     -1.244414000000000E+02      1.977692000000000E-01      1.663984000000000E+02
5700000000.000000      4.662018000000000E-01     -1.251523000000000E+02      1.887741000000000E-01      1.397344000000000E+02
5720000000.000000      4.776764000000000E-01     -1.268672000000000E+02      1.791534000000000E-01      1.122656000000000E+02
5740000000.000000      4.839172000000000E-01     -1.295469000000000E+02      1.701508000000000E-01      8.200781000000000E+01
5760000000.000000      4.823761000000000E-01     -1.325781000000000E+02      1.604004000000000E-01      4.914257000000000E+01
5780000000.000000      4.715576000000000E-01     -1.351797000000000E+02      1.519318000000000E-01      1.555371000000000E+01
5800000000.000000      4.577637000000000E-01     -1.366562000000000E+02      1.491470000000000E-01     -1.651172000000000E+01
5820000000.000000      4.496460000000000E-01     -1.371484000000000E+02      1.575089000000000E-01     -4.803711000000000E+01
5840000000.000000      4.483337000000000E-01     -1.377109000000000E+02      1.688614000000000E-01     -7.981640000000000E+01
5860000000.000000      4.544067000000000E-01     -1.385156000000000E+02      1.781845000000000E-01     -1.088086000000000E+02
5880000000.000000      4.590454000000000E-01     -1.402266000000000E+02      1.865921000000000E-01     -1.364844000000000E+02
5900000000.000000      4.605255000000000E-01     -1.421250000000000E+02      1.935196000000000E-01     -1.626016000000000E+02
5920000000.000000      4.565735000000000E-01     -1.439297000000000E+02      1.965714000000000E-01      1.713906000000000E+02
5940000000.000000      4.535065000000000E-01     -1.453047000000000E+02      1.925125000000000E-01      1.451328000000000E+02
5960000000.000000      4.487000000000000E-01     -1.468516000000000E+02      1.834259000000000E-01      1.208242000000000E+02
5980000000.000000      4.431763000000000E-01     -1.484219000000000E+02      1.761551000000000E-01      9.482813000000000E+01
6000000000.000000      4.335785000000000E-01     -1.501641000000000E+02      1.637802000000000E-01      6.690624000000000E+01
6020000000.000000      4.189148000000000E-01     -1.516875000000000E+02      1.481781000000000E-01      3.732812000000000E+01
6040000000.000000      4.045105000000000E-01     -1.524765000000000E+02      1.318817000000000E-01      6.674072000000000E+00
6060000000.000000      3.940887000000000E-01     -1.524297000000000E+02      1.230469000000000E-01     -2.377930000000000E+01
6080000000.000000      3.908081000000000E-01     -1.516875000000000E+02      1.268768000000000E-01     -5.663280000000000E+01
