! Network Analyzer HP8722D
! Hewlett-Packard
! Data name: Linha com CNT
! Saver's name: Rodrigo Anjos
! Comments: Teste de deteccao de acetona 0-100ppm a partir de cilindro
! Time and date: 10/9/2025 17:07
!              Frequency                     S11                                                   S21                                                   S12                                                   S22
# HZ  S  MA R 50
3000000000.000000      4.904327000000000E-01      1.425293000000000E+01      2.254181000000000E-01      3.631836000000000E+01
3020000000.000000      4.974213000000000E-01      1.394824000000000E+01      2.299194000000000E-01      6.687744000000000E+00
3040000000.000000      5.041504000000000E-01      1.304443000000000E+01      2.302856000000000E-01     -2.230273000000000E+01
3060000000.000000      5.082703000000000E-01      1.131592000000000E+01      2.300262000000000E-01     -5.178124000000000E+01
3080000000.000000      5.061340000000000E-01      9.714355000000000E+00      2.259216000000000E-01     -8.066406000000000E+01
3100000000.000000      5.046082000000000E-01      8.354980000000000E+00      2.246628000000000E-01     -1.083164000000000E+02
3120000000.000000      5.027771000000000E-01      7.392334000000000E+00      2.241745000000000E-01     -1.370703000000000E+02
3140000000.000000      5.042114000000000E-01      6.448975000000000E+00      2.210388000000000E-01     -1.655391000000000E+02
3160000000.000000      5.045471000000000E-01      5.320068000000000E+00      2.172470000000000E-01      1.657812000000000E+02
3180000000.000000      5.010986000000000E-01      4.232422000000000E+00      2.109222000000000E-01      1.378438000000000E+02
3200000000.000000      4.927979000000000E-01      3.386475000000000E+00      2.079773000000000E-01      1.095430000000000E+02
3220000000.000000      4.827576000000000E-01      3.100830000000000E+00      1.986389000000000E-01      8.091406000000000E+01
3240000000.000000      4.761963000000000E-01      3.467529000000000E+00      1.924210000000000E-01      5.587891000000000E+01
3260000000.000000      4.755859000000000E-01      4.182861000000000E+00      2.012939000000000E-01      3.009082000000000E+01
3280000000.000000      4.830475000000000E-01      4.641602000000000E+00      2.096100000000000E-01      5.342102000000000E-01
3300000000.000000      4.983978000000000E-01      4.424561000000000E+00      2.125320000000000E-01     -2.801270000000000E+01
3320000000.000000      5.145569000000000E-01      3.262939000000000E+00      2.202072000000000E-01     -5.701172000000000E+01
3340000000.000000      5.260010000000000E-01      1.511963000000000E+00      2.246170000000000E-01     -8.698046000000000E+01
3360000000.000000      5.322876000000000E-01     -5.548096000000000E-01      2.272568000000000E-01     -1.168203000000000E+02
3380000000.000000      5.314026000000000E-01     -2.198730000000000E+00      2.264023000000000E-01     -1.461953000000000E+02
3400000000.000000      5.284424000000000E-01     -3.635132000000000E+00      2.259750000000000E-01     -1.749453000000000E+02
3420000000.000000      5.249939000000000E-01     -4.654297000000000E+00      2.240372000000000E-01      1.557422000000000E+02
3440000000.000000      5.216064000000000E-01     -6.048096000000000E+00      2.196503000000000E-01      1.277305000000000E+02
3460000000.000000      5.165100000000000E-01     -6.958496000000000E+00      2.205505000000000E-01      9.948828000000000E+01
3480000000.000000      5.139160000000000E-01     -8.107910000000000E+00      2.180099000000000E-01      7.044922000000000E+01
3500000000.000000      5.153809000000000E-01     -8.719238000000000E+00      2.154007000000000E-01      4.257421000000000E+01
3520000000.000000      5.134583000000000E-01     -9.886719000000000E+00      2.155457000000000E-01      1.339600000000000E+01
3540000000.000000      5.160522000000000E-01     -1.069678000000000E+01      2.115936000000000E-01     -1.499512000000000E+01
3560000000.000000      5.125732000000000E-01     -1.144678000000000E+01      2.125702000000000E-01     -4.293359000000000E+01
3580000000.000000      5.102539000000000E-01     -1.203027000000000E+01      2.122040000000000E-01     -7.175390000000000E+01
3600000000.000000      5.097656000000000E-01     -1.272363000000000E+01      2.123947000000000E-01     -9.904686000000000E+01
3620000000.000000      5.107117000000000E-01     -1.339648000000000E+01      2.169418000000000E-01     -1.274336000000000E+02
3640000000.000000      5.126953000000000E-01     -1.447314000000000E+01      2.181625000000000E-01     -1.560234000000000E+02
3660000000.000000      5.138855000000000E-01     -1.555566000000000E+01      2.195358000000000E-01      1.755469000000000E+02
3680000000.000000      5.153503000000000E-01     -1.687402000000000E+01      2.172928000000000E-01      1.469063000000000E+02
3700000000.000000      5.119934000000000E-01     -1.805469000000000E+01      2.150726000000000E-01      1.197852000000000E+02
3720000000.000000      5.064087000000000E-01     -1.900976000000000E+01      2.179871000000000E-01      9.160156000000000E+01
3740000000.000000      5.073853000000000E-01     -1.951074000000000E+01      2.128372000000000E-01      6.333008000000000E+01
3760000000.000000      5.089417000000000E-01     -1.973145000000000E+01      2.130356000000000E-01      3.613086000000000E+01
3780000000.000000      5.115967000000000E-01     -2.050683000000000E+01      2.154388000000000E-01      7.658691000000000E+00
3800000000.000000      5.169983000000000E-01     -2.170020000000000E+01      2.136383000000000E-01     -2.151953000000000E+01
3820000000.000000      5.165710000000000E-01     -2.341895000000000E+01      2.112656000000000E-01     -5.025781000000000E+01
3840000000.000000      5.127258000000000E-01     -2.468945000000000E+01      2.115173000000000E-01     -7.861718000000000E+01
3860000000.000000      5.090332000000000E-01     -2.566699000000000E+01      2.119217000000000E-01     -1.078008000000000E+02
3880000000.000000      5.069885000000000E-01     -2.621387000000000E+01      2.093430000000000E-01     -1.366172000000000E+02
3900000000.000000      5.111694000000000E-01     -2.688379000000000E+01      2.091599000000000E-01     -1.642500000000000E+02
3920000000.000000      5.153198000000000E-01     -2.788476000000000E+01      2.113419000000000E-01      1.672969000000000E+02
3940000000.000000      5.156250000000000E-01     -2.932324000000000E+01      2.106781000000000E-01      1.388359000000000E+02
3960000000.000000      5.108032000000000E-01     -3.076367000000000E+01      2.106323000000000E-01      1.106016000000000E+02
3980000000.000000      5.042725000000000E-01     -3.157812000000000E+01      2.052078000000000E-01      8.197657000000000E+01
4000000000.000000      4.983215000000000E-01     -3.189258000000000E+01      2.026672000000000E-01      5.653125000000000E+01
4020000000.000000      4.992981000000000E-01     -3.192383000000000E+01      2.108688000000000E-01      2.869141000000000E+01
4040000000.000000      5.105286000000000E-01     -3.235937000000000E+01      2.106857000000000E-01     -1.796265000000000E+00
4060000000.000000      5.243225000000000E-01     -3.378711000000000E+01      2.073059000000000E-01     -3.061914000000000E+01
4080000000.000000      5.320129000000000E-01     -3.624609000000000E+01      2.072144000000000E-01     -5.950976000000000E+01
4100000000.000000      5.259094000000000E-01     -3.870508000000000E+01      2.067490000000000E-01     -8.896484000000000E+01
4120000000.000000      5.163269000000000E-01     -4.065234000000000E+01      2.043762000000000E-01     -1.192266000000000E+02
4140000000.000000      5.069580000000000E-01     -4.152929000000000E+01      1.964569000000000E-01     -1.475391000000000E+02
4160000000.000000      5.013733000000000E-01     -4.225586000000000E+01      1.991577000000000E-01     -1.740391000000000E+02
4180000000.000000      4.997559000000000E-01     -4.270117000000000E+01      2.033081000000000E-01      1.567578000000000E+02
4200000000.000000      4.999084000000000E-01     -4.371484000000000E+01      2.007294000000000E-01      1.282266000000000E+02
4220000000.000000      4.997253000000000E-01     -4.475976000000000E+01      2.024078000000000E-01      1.003594000000000E+02
4240000000.000000      4.929657000000000E-01     -4.586523000000000E+01      1.986542000000000E-01      7.109375000000000E+01
4260000000.000000      4.927063000000000E-01     -4.633398000000000E+01      1.938705000000000E-01      4.402344000000000E+01
4280000000.000000      4.897766000000000E-01     -4.653906000000000E+01      1.955109000000000E-01      1.678711000000000E+01
4300000000.000000      4.925079000000000E-01     -4.682813000000000E+01      1.948776000000000E-01     -1.183252000000000E+01
4320000000.000000      4.992828000000000E-01     -4.778710000000000E+01      1.956711000000000E-01     -4.072656000000000E+01
4340000000.000000      5.024414000000000E-01     -4.939453000000000E+01      1.950989000000000E-01     -7.023438000000000E+01
4360000000.000000      5.036926000000000E-01     -5.089844000000000E+01      1.954269000000000E-01     -1.001172000000000E+02
4380000000.000000      4.989166000000000E-01     -5.226953000000000E+01      1.931381000000000E-01     -1.301719000000000E+02
4400000000.000000      4.990387000000000E-01     -5.285742000000000E+01      1.913376000000000E-01     -1.589531000000000E+02
4420000000.000000      5.008240000000000E-01     -5.370507000000000E+01      1.960602000000000E-01      1.721484000000000E+02
4440000000.000000      5.032959000000000E-01     -5.485352000000000E+01      1.972046000000000E-01      1.422969000000000E+02
4460000000.000000      5.072937000000000E-01     -5.623828000000000E+01      1.964951000000000E-01      1.131758000000000E+02
4480000000.000000      5.020142000000000E-01     -5.796288000000000E+01      1.950836000000000E-01      8.442968000000000E+01
4500000000.000000      4.961090000000000E-01     -5.926171000000000E+01      1.917725000000000E-01      5.633203000000000E+01
4520000000.000000      4.902496000000000E-01     -5.985742000000000E+01      1.893158000000000E-01      2.808789000000000E+01
4540000000.000000      4.883118000000000E-01     -6.019921000000000E+01      1.842728000000000E-01      3.707886000000000E-02
4560000000.000000      4.916840000000000E-01     -6.062304000000000E+01      1.841888000000000E-01     -2.726563000000000E+01
4580000000.000000      5.012817000000000E-01     -6.164844000000000E+01      1.851349000000000E-01     -5.748241000000000E+01
4600000000.000000      5.056458000000000E-01     -6.288086000000000E+01      1.829681000000000E-01     -8.783983000000000E+01
4620000000.000000      5.100098000000000E-01     -6.440624000000000E+01      1.828766000000000E-01     -1.188789000000000E+02
4640000000.000000      5.102844000000000E-01     -6.548437000000000E+01      1.791534000000000E-01     -1.501797000000000E+02
4660000000.000000      5.124817000000000E-01     -6.650781000000000E+01      1.794052000000000E-01     -1.792891000000000E+02
4680000000.000000      5.150757000000000E-01     -6.767578000000000E+01      1.853714000000000E-01      1.503906000000000E+02
4700000000.000000      5.200806000000000E-01     -6.907421000000000E+01      1.872177000000000E-01      1.205508000000000E+02
4720000000.000000      5.234985000000000E-01     -7.088672000000000E+01      1.906967000000000E-01      9.189453000000000E+01
4740000000.000000      5.267029000000000E-01     -7.273438000000000E+01      1.936722000000000E-01      6.321484000000000E+01
4760000000.000000      5.268250000000000E-01     -7.506640000000000E+01      1.925278000000000E-01      3.526758000000000E+01
4780000000.000000      5.251465000000000E-01     -7.677343000000000E+01      1.898422000000000E-01      7.002197000000000E+00
4800000000.000000      5.195618000000000E-01     -7.894531000000000E+01      1.831894000000000E-01     -2.057617000000000E+01
4820000000.000000      5.122681000000000E-01     -8.125000000000000E+01      1.728745000000000E-01     -4.853710000000000E+01
4840000000.000000      4.956207000000000E-01     -8.292187000000000E+01      1.622772000000000E-01     -7.551952000000000E+01
4860000000.000000      4.792023000000000E-01     -8.420702000000000E+01      1.558151000000000E-01     -1.040586000000000E+02
4880000000.000000      4.626617000000000E-01     -8.415234000000000E+01      1.420059000000000E-01     -1.337734000000000E+02
4900000000.000000      4.519043000000000E-01     -8.319530000000000E+01      1.288071000000000E-01     -1.592031000000000E+02
4920000000.000000      4.515839000000000E-01     -8.176561000000000E+01      1.333160000000000E-01      1.762344000000000E+02
4940000000.000000      4.624786000000000E-01     -8.057421000000000E+01      1.455688000000000E-01      1.457813000000000E+02
4960000000.000000      4.845886000000000E-01     -8.060547000000000E+01      1.537476000000000E-01      1.139219000000000E+02
4980000000.000000      5.050049000000000E-01     -8.246485000000000E+01      1.636734000000000E-01      8.400391000000000E+01
5000000000.000000      5.165100000000000E-01     -8.528515000000000E+01      1.742401000000000E-01      5.387695000000000E+01
5020000000.000000      5.154114000000000E-01     -8.796093000000000E+01      1.798935000000000E-01      2.417187000000000E+01
5040000000.000000      5.070496000000000E-01     -9.021484000000000E+01      1.817245000000000E-01     -2.476074000000000E+00
5060000000.000000      4.981995000000000E-01     -9.145311000000000E+01      1.864624000000000E-01     -2.780176000000000E+01
5080000000.000000      4.911041000000000E-01     -9.217968000000000E+01      1.928406000000000E-01     -5.493164000000000E+01
5100000000.000000      4.907074000000000E-01     -9.275782000000000E+01      1.903152000000000E-01     -8.187109000000000E+01
5120000000.000000      4.915924000000000E-01     -9.353907000000000E+01      1.895905000000000E-01     -1.085156000000000E+02
5140000000.000000      4.933929000000000E-01     -9.449999000000000E+01      1.853104000000000E-01     -1.369219000000000E+02
5160000000.000000      4.964294000000000E-01     -9.550781000000000E+01      1.799164000000000E-01     -1.655000000000000E+02
5180000000.000000      5.017395000000000E-01     -9.642578000000000E+01      1.754532000000000E-01      1.644297000000000E+02
5200000000.000000      5.071716000000000E-01     -9.753906000000000E+01      1.716156000000000E-01      1.336094000000000E+02
5220000000.000000      5.112915000000000E-01     -9.912498000000000E+01      1.717300000000000E-01      1.028008000000000E+02
5240000000.000000      5.132751000000000E-01     -1.006016000000000E+02      1.744308000000000E-01      7.154297000000000E+01
5260000000.000000      5.128784000000000E-01     -1.021875000000000E+02      1.787567000000000E-01      4.068359000000000E+01
5280000000.000000      5.088196000000000E-01     -1.035430000000000E+02      1.834641000000000E-01      1.066455000000000E+01
5300000000.000000      5.066223000000000E-01     -1.046797000000000E+02      1.873093000000000E-01     -1.675293000000000E+01
5320000000.000000      5.055542000000000E-01     -1.058125000000000E+02      1.956406000000000E-01     -4.317187000000000E+01
5340000000.000000      5.058594000000000E-01     -1.069062000000000E+02      1.994858000000000E-01     -7.071094000000000E+01
5360000000.000000      5.068054000000000E-01     -1.083203000000000E+02      2.003403000000000E-01     -9.682421000000000E+01
5380000000.000000      5.083008000000000E-01     -1.094844000000000E+02      1.984253000000000E-01     -1.231250000000000E+02
5400000000.000000      5.077820000000000E-01     -1.106953000000000E+02      1.923523000000000E-01     -1.496562000000000E+02
5420000000.000000      5.104065000000000E-01     -1.112578000000000E+02      1.874695000000000E-01     -1.764844000000000E+02
5440000000.000000      5.158691000000000E-01     -1.119883000000000E+02      1.808853000000000E-01      1.544844000000000E+02
5460000000.000000      5.212402000000000E-01     -1.130742000000000E+02      1.709442000000000E-01      1.251250000000000E+02
5480000000.000000      5.278320000000000E-01     -1.146797000000000E+02      1.670227000000000E-01      9.421093000000000E+01
5500000000.000000      5.299377000000000E-01     -1.168516000000000E+02      1.653137000000000E-01      6.212109000000000E+01
5520000000.000000      5.267639000000000E-01     -1.189570000000000E+02      1.660767000000000E-01      2.998242000000000E+01
5540000000.000000      5.218811000000000E-01     -1.209101000000000E+02      1.668243000000000E-01     -1.524353000000000E+00
5560000000.000000      5.152588000000000E-01     -1.226289000000000E+02      1.715851000000000E-01     -3.002344000000000E+01
5580000000.000000      5.089417000000000E-01     -1.241328000000000E+02      1.812820000000000E-01     -5.866796000000000E+01
5600000000.000000      5.038147000000000E-01     -1.251680000000000E+02      1.867065000000000E-01     -8.584375000000000E+01
5620000000.000000      4.992981000000000E-01     -1.261172000000000E+02      1.918640000000000E-01     -1.119414000000000E+02
5640000000.000000      4.960175000000000E-01     -1.266875000000000E+02      1.935349000000000E-01     -1.381875000000000E+02
5660000000.000000      4.948578000000000E-01     -1.270156000000000E+02      1.908264000000000E-01     -1.635000000000000E+02
5680000000.000000      4.972076000000000E-01     -1.273516000000000E+02      1.864853000000000E-01      1.702969000000000E+02
5700000000.000000      5.053406000000000E-01     -1.278789000000000E+02      1.785660000000000E-01      1.437187000000000E+02
5720000000.000000      5.145874000000000E-01     -1.291875000000000E+02      1.709366000000000E-01      1.164531000000000E+02
5740000000.000000      5.223083000000000E-01     -1.314141000000000E+02      1.627731000000000E-01      8.646484000000000E+01
5760000000.000000      5.231323000000000E-01     -1.341172000000000E+02      1.532669000000000E-01      5.381054000000000E+01
5780000000.000000      5.164185000000000E-01     -1.366094000000000E+02      1.447906000000000E-01      2.051660000000000E+01
5800000000.000000      5.043640000000000E-01     -1.381094000000000E+02      1.412964000000000E-01     -1.120508000000000E+01
5820000000.000000      4.969025000000000E-01     -1.388594000000000E+02      1.479187000000000E-01     -4.262109000000000E+01
5840000000.000000      4.954071000000000E-01     -1.396406000000000E+02      1.576996000000000E-01     -7.446875000000000E+01
5860000000.000000      4.999695000000000E-01     -1.404687000000000E+02      1.660843000000000E-01     -1.037969000000000E+02
5880000000.000000      5.049438000000000E-01     -1.421250000000000E+02      1.745834000000000E-01     -1.319609000000000E+02
5900000000.000000      5.072021000000000E-01     -1.438203000000000E+02      1.800995000000000E-01     -1.586719000000000E+02
5920000000.000000      5.048828000000000E-01     -1.456016000000000E+02      1.832504000000000E-01      1.752266000000000E+02
5940000000.000000      5.015564000000000E-01     -1.469922000000000E+02      1.793900000000000E-01      1.489063000000000E+02
5960000000.000000      4.973145000000000E-01     -1.483047000000000E+02      1.713333000000000E-01      1.243476000000000E+02
5980000000.000000      4.939880000000000E-01     -1.498125000000000E+02      1.653442000000000E-01      9.843359000000000E+01
6000000000.000000      4.858398000000000E-01     -1.515703000000000E+02      1.545105000000000E-01      7.018359000000000E+01
6020000000.000000      4.747620000000000E-01     -1.533828000000000E+02      1.407089000000000E-01      4.048828000000000E+01
6040000000.000000      4.607391000000000E-01     -1.545938000000000E+02      1.255951000000000E-01      1.013721000000000E+01
6060000000.000000      4.509583000000000E-01     -1.551484000000000E+02      1.174889000000000E-01     -1.986328000000000E+01
6080000000.000000      4.457855000000000E-01     -1.549141000000000E+02      1.211319000000000E-01     -5.208593000000000E+01
