! Network Analyzer HP8722D
! Hewlett-Packard
! Data name: Linha com CNT
! Saver's name: Rodrigo Anjos
! Comments: Teste de deteccao de acetona 0-100ppm a partir de cilindro
! Time and date: 10/9/2025 17:18
!              Frequency                     S11                                                   S21                                                   S12                                                   S22
# HZ  S  MA R 50
3000000000.000000      4.650269000000000E-01      1.540137000000000E+01      2.363129000000000E-01      3.498828000000000E+01
3020000000.000000      4.725952000000000E-01      1.473389000000000E+01      2.404327000000000E-01      5.633057000000000E+00
3040000000.000000      4.793243000000000E-01      1.372852000000000E+01      2.411270000000000E-01     -2.347266000000000E+01
3060000000.000000      4.832916000000000E-01      1.206689000000000E+01      2.409744000000000E-01     -5.281250000000000E+01
3080000000.000000      4.816742000000000E-01      1.022119000000000E+01      2.371521000000000E-01     -8.176952000000000E+01
3100000000.000000      4.790344000000000E-01      8.765625000000000E+00      2.349014000000000E-01     -1.095195000000000E+02
3120000000.000000      4.773712000000000E-01      7.892090000000000E+00      2.348862000000000E-01     -1.382031000000000E+02
3140000000.000000      4.785309000000000E-01      6.973389000000000E+00      2.315063000000000E-01     -1.667656000000000E+02
3160000000.000000      4.792175000000000E-01      5.836426000000000E+00      2.276230000000000E-01      1.647031000000000E+02
3180000000.000000      4.746094000000000E-01      4.662109000000000E+00      2.223358000000000E-01      1.365625000000000E+02
3200000000.000000      4.645691000000000E-01      3.895996000000000E+00      2.184753000000000E-01      1.080469000000000E+02
3220000000.000000      4.542236000000000E-01      3.841064000000000E+00      2.085342000000000E-01      7.962109000000000E+01
3240000000.000000      4.486542000000000E-01      4.375244000000000E+00      2.025757000000000E-01      5.444530000000000E+01
3260000000.000000      4.483185000000000E-01      5.520508000000000E+00      2.113190000000000E-01      2.843066000000000E+01
3280000000.000000      4.585114000000000E-01      6.197510000000000E+00      2.186890000000000E-01     -8.335876000000000E-01
3300000000.000000      4.757996000000000E-01      5.859619000000000E+00      2.225113000000000E-01     -2.954590000000000E+01
3320000000.000000      4.934845000000000E-01      4.540039000000000E+00      2.299881000000000E-01     -5.843750000000000E+01
3340000000.000000      5.045776000000000E-01      2.506226000000000E+00      2.350922000000000E-01     -8.833984000000000E+01
3360000000.000000      5.090332000000000E-01      4.229736000000000E-01      2.368240000000000E-01     -1.182148000000000E+02
3380000000.000000      5.095825000000000E-01     -1.296387000000000E+00      2.360535000000000E-01     -1.473047000000000E+02
3400000000.000000      5.049744000000000E-01     -2.919678000000000E+00      2.361221000000000E-01     -1.761953000000000E+02
3420000000.000000      5.034790000000000E-01     -3.905640000000000E+00      2.340775000000000E-01      1.546719000000000E+02
3440000000.000000      4.981995000000000E-01     -5.365479000000000E+00      2.298965000000000E-01      1.265078000000000E+02
3460000000.000000      4.933319000000000E-01     -6.317139000000000E+00      2.303772000000000E-01      9.822266000000000E+01
3480000000.000000      4.920807000000000E-01     -7.198975000000000E+00      2.282181000000000E-01      6.923437000000000E+01
3500000000.000000      4.907074000000000E-01     -8.027344000000000E+00      2.257233000000000E-01      4.112695000000000E+01
3520000000.000000      4.895935000000000E-01     -9.101074000000000E+00      2.252579000000000E-01      1.220020000000000E+01
3540000000.000000      4.905701000000000E-01     -9.728516000000000E+00      2.214050000000000E-01     -1.630176000000000E+01
3560000000.000000      4.886475000000000E-01     -1.082178000000000E+01      2.228928000000000E-01     -4.439453000000000E+01
3580000000.000000      4.869843000000000E-01     -1.119824000000000E+01      2.221146000000000E-01     -7.308984000000000E+01
3600000000.000000      4.831085000000000E-01     -1.182959000000000E+01      2.225189000000000E-01     -1.005039000000000E+02
3620000000.000000      4.849548000000000E-01     -1.247266000000000E+01      2.264404000000000E-01     -1.288516000000000E+02
3640000000.000000      4.885101000000000E-01     -1.319336000000000E+01      2.278824000000000E-01     -1.573828000000000E+02
3660000000.000000      4.906158000000000E-01     -1.459961000000000E+01      2.290878000000000E-01      1.742969000000000E+02
3680000000.000000      4.920044000000000E-01     -1.599512000000000E+01      2.273026000000000E-01      1.458125000000000E+02
3700000000.000000      4.881287000000000E-01     -1.736426000000000E+01      2.260056000000000E-01      1.183945000000000E+02
3720000000.000000      4.826965000000000E-01     -1.825391000000000E+01      2.271881000000000E-01      9.004686000000000E+01
3740000000.000000      4.822235000000000E-01     -1.835449000000000E+01      2.225418000000000E-01      6.188477000000000E+01
3760000000.000000      4.844360000000000E-01     -1.849707000000000E+01      2.222214000000000E-01      3.468554000000000E+01
3780000000.000000      4.881897000000000E-01     -1.925586000000000E+01      2.243195000000000E-01      6.208496000000000E+00
3800000000.000000      4.939880000000000E-01     -2.066895000000000E+01      2.230148000000000E-01     -2.297656000000000E+01
3820000000.000000      4.933929000000000E-01     -2.251660000000000E+01      2.213135000000000E-01     -5.164844000000000E+01
3840000000.000000      4.884491000000000E-01     -2.381836000000000E+01      2.206879000000000E-01     -8.017578000000000E+01
3860000000.000000      4.842529000000000E-01     -2.466797000000000E+01      2.210007000000000E-01     -1.092266000000000E+02
3880000000.000000      4.833527000000000E-01     -2.511914000000000E+01      2.184753000000000E-01     -1.380938000000000E+02
3900000000.000000      4.866791000000000E-01     -2.566211000000000E+01      2.173843000000000E-01     -1.656953000000000E+02
3920000000.000000      4.909515000000000E-01     -2.681641000000000E+01      2.201920000000000E-01      1.660078000000000E+02
3940000000.000000      4.925232000000000E-01     -2.844238000000000E+01      2.202835000000000E-01      1.373359000000000E+02
3960000000.000000      4.866333000000000E-01     -2.980664000000000E+01      2.199020000000000E-01      1.090586000000000E+02
3980000000.000000      4.780731000000000E-01     -3.054394000000000E+01      2.137604000000000E-01      8.051172000000000E+01
4000000000.000000      4.731903000000000E-01     -3.061230000000000E+01      2.110596000000000E-01      5.495898000000000E+01
4020000000.000000      4.754486000000000E-01     -3.050683000000000E+01      2.194595000000000E-01      2.718359000000000E+01
4040000000.000000      4.887238000000000E-01     -3.102148000000000E+01      2.201080000000000E-01     -3.143555000000000E+00
4060000000.000000      5.020752000000000E-01     -3.264648000000000E+01      2.162476000000000E-01     -3.211914000000000E+01
4080000000.000000      5.102844000000000E-01     -3.540430000000000E+01      2.156448000000000E-01     -6.100586000000000E+01
4100000000.000000      5.031433000000000E-01     -3.788671000000000E+01      2.159119000000000E-01     -9.036718000000000E+01
4120000000.000000      4.927368000000000E-01     -3.980664000000000E+01      2.124557000000000E-01     -1.206055000000000E+02
4140000000.000000      4.829712000000000E-01     -4.074804000000000E+01      2.052841000000000E-01     -1.489453000000000E+02
4160000000.000000      4.758606000000000E-01     -4.113867000000000E+01      2.071991000000000E-01     -1.754688000000000E+02
4180000000.000000      4.741974000000000E-01     -4.165625000000000E+01      2.122955000000000E-01      1.553984000000000E+02
4200000000.000000      4.748840000000000E-01     -4.270508000000000E+01      2.097397000000000E-01      1.267226000000000E+02
4220000000.000000      4.739380000000000E-01     -4.374609000000000E+01      2.111588000000000E-01      9.859375000000000E+01
4240000000.000000      4.685822000000000E-01     -4.453906000000000E+01      2.066574000000000E-01      6.962109000000000E+01
4260000000.000000      4.642334000000000E-01     -4.480078000000000E+01      2.018661000000000E-01      4.263476000000000E+01
4280000000.000000      4.644623000000000E-01     -4.509375000000000E+01      2.039261000000000E-01      1.515381000000000E+01
4300000000.000000      4.693451000000000E-01     -4.517578000000000E+01      2.032700000000000E-01     -1.361914000000000E+01
4320000000.000000      4.759216000000000E-01     -4.653320000000000E+01      2.037582000000000E-01     -4.236133000000000E+01
4340000000.000000      4.797211000000000E-01     -4.805859000000000E+01      2.036667000000000E-01     -7.170312000000000E+01
4360000000.000000      4.795227000000000E-01     -4.971874000000000E+01      2.032928000000000E-01     -1.017148000000000E+02
4380000000.000000      4.757538000000000E-01     -5.086328000000000E+01      2.013168000000000E-01     -1.318516000000000E+02
4400000000.000000      4.743805000000000E-01     -5.156250000000000E+01      1.997986000000000E-01     -1.604375000000000E+02
4420000000.000000      4.759827000000000E-01     -5.219921000000000E+01      2.036819000000000E-01      1.707422000000000E+02
4440000000.000000      4.805145000000000E-01     -5.345312000000000E+01      2.055206000000000E-01      1.408594000000000E+02
4460000000.000000      4.823151000000000E-01     -5.489648000000000E+01      2.046204000000000E-01      1.114766000000000E+02
4480000000.000000      4.788208000000000E-01     -5.664453000000000E+01      2.025681000000000E-01      8.267969000000000E+01
4500000000.000000      4.718170000000000E-01     -5.790039000000000E+01      1.994553000000000E-01      5.477344000000000E+01
4520000000.000000      4.655457000000000E-01     -5.845117000000000E+01      1.968536000000000E-01      2.633691000000000E+01
4540000000.000000      4.648895000000000E-01     -5.859570000000000E+01      1.913757000000000E-01     -1.663086000000000E+00
4560000000.000000      4.692993000000000E-01     -5.922070000000000E+01      1.911926000000000E-01     -2.930078000000000E+01
4580000000.000000      4.779968000000000E-01     -6.008984000000000E+01      1.926117000000000E-01     -5.936328000000000E+01
4600000000.000000      4.850464000000000E-01     -6.139062000000000E+01      1.905746000000000E-01     -8.967968000000000E+01
4620000000.000000      4.860382000000000E-01     -6.286523000000000E+01      1.896591000000000E-01     -1.206523000000000E+02
4640000000.000000      4.896851000000000E-01     -6.403515000000000E+01      1.866837000000000E-01     -1.518047000000000E+02
4660000000.000000      4.908752000000000E-01     -6.523828000000000E+01      1.873627000000000E-01      1.791641000000000E+02
4680000000.000000      4.952393000000000E-01     -6.655859000000000E+01      1.931229000000000E-01      1.489687000000000E+02
4700000000.000000      5.001526000000000E-01     -6.783984000000000E+01      1.949158000000000E-01      1.190351000000000E+02
4720000000.000000      5.027161000000000E-01     -6.983593000000000E+01      1.975021000000000E-01      9.053125000000000E+01
4740000000.000000      5.036011000000000E-01     -7.181250000000000E+01      2.003708000000000E-01      6.191015000000000E+01
4760000000.000000      5.043945000000000E-01     -7.401953000000000E+01      1.997910000000000E-01      3.370703000000000E+01
4780000000.000000      5.007935000000000E-01     -7.599999000000000E+01      1.967697000000000E-01      5.575439000000000E+00
4800000000.000000      4.973907000000000E-01     -7.830859000000000E+01      1.899872000000000E-01     -2.219238000000000E+01
4820000000.000000      4.880066000000000E-01     -8.057812000000000E+01      1.801529000000000E-01     -5.000195000000000E+01
4840000000.000000      4.699554000000000E-01     -8.235937000000000E+01      1.696091000000000E-01     -7.725780000000000E+01
4860000000.000000      4.523010000000000E-01     -8.332422000000000E+01      1.616669000000000E-01     -1.060430000000000E+02
4880000000.000000      4.338379000000000E-01     -8.286327000000000E+01      1.475677000000000E-01     -1.357344000000000E+02
4900000000.000000      4.246979000000000E-01     -8.146093000000000E+01      1.348572000000000E-01     -1.613359000000000E+02
4920000000.000000      4.260712000000000E-01     -7.969531000000000E+01      1.395187000000000E-01      1.739375000000000E+02
4940000000.000000      4.401245000000000E-01     -7.833593000000000E+01      1.519928000000000E-01      1.438047000000000E+02
4960000000.000000      4.646301000000000E-01     -7.862890000000000E+01      1.604538000000000E-01      1.120625000000000E+02
4980000000.000000      4.860992000000000E-01     -8.078125000000000E+01      1.698608000000000E-01      8.204687000000000E+01
5000000000.000000      4.959717000000000E-01     -8.380859000000000E+01      1.803818000000000E-01      5.224804000000000E+01
5020000000.000000      4.945831000000000E-01     -8.678514000000000E+01      1.868896000000000E-01      2.295410000000000E+01
5040000000.000000      4.845123000000000E-01     -8.890625000000000E+01      1.883087000000000E-01     -4.007324000000000E+00
5060000000.000000      4.742737000000000E-01     -9.014843000000000E+01      1.939087000000000E-01     -2.930469000000000E+01
5080000000.000000      4.686584000000000E-01     -9.075781000000000E+01      1.988373000000000E-01     -5.662695000000000E+01
5100000000.000000      4.667664000000000E-01     -9.139063000000000E+01      1.972504000000000E-01     -8.363672000000000E+01
5120000000.000000      4.684448000000000E-01     -9.211329000000000E+01      1.952972000000000E-01     -1.102891000000000E+02
5140000000.000000      4.719238000000000E-01     -9.294922000000000E+01      1.918716000000000E-01     -1.388359000000000E+02
5160000000.000000      4.739075000000000E-01     -9.403124000000000E+01      1.863861000000000E-01     -1.674922000000000E+02
5180000000.000000      4.798126000000000E-01     -9.495703000000000E+01      1.822052000000000E-01      1.622969000000000E+02
5200000000.000000      4.857788000000000E-01     -9.624218000000000E+01      1.787033000000000E-01      1.317188000000000E+02
5220000000.000000      4.894104000000000E-01     -9.776562000000000E+01      1.785431000000000E-01      1.011055000000000E+02
5240000000.000000      4.914093000000000E-01     -9.932812000000000E+01      1.817017000000000E-01      6.966406000000000E+01
5260000000.000000      4.900208000000000E-01     -1.008672000000000E+02      1.857224000000000E-01      3.904492000000000E+01
5280000000.000000      4.871368000000000E-01     -1.021367000000000E+02      1.902237000000000E-01      9.295410000000000E+00
5300000000.000000      4.852142000000000E-01     -1.033750000000000E+02      1.944046000000000E-01     -1.824902000000000E+01
5320000000.000000      4.841003000000000E-01     -1.044180000000000E+02      2.020950000000000E-01     -4.491211000000000E+01
5340000000.000000      4.840546000000000E-01     -1.056250000000000E+02      2.061539000000000E-01     -7.232812000000000E+01
5360000000.000000      4.847717000000000E-01     -1.070664000000000E+02      2.058563000000000E-01     -9.841406000000000E+01
5380000000.000000      4.855499000000000E-01     -1.082344000000000E+02      2.043991000000000E-01     -1.247773000000000E+02
5400000000.000000      4.867096000000000E-01     -1.094492000000000E+02      1.986618000000000E-01     -1.514375000000000E+02
5420000000.000000      4.888306000000000E-01     -1.099922000000000E+02      1.935425000000000E-01     -1.782969000000000E+02
5440000000.000000      4.937134000000000E-01     -1.106016000000000E+02      1.864243000000000E-01      1.524062000000000E+02
5460000000.000000      5.008545000000000E-01     -1.119023000000000E+02      1.773453000000000E-01      1.229258000000000E+02
5480000000.000000      5.065613000000000E-01     -1.135156000000000E+02      1.731033000000000E-01      9.228516000000000E+01
5500000000.000000      5.079956000000000E-01     -1.157500000000000E+02      1.713028000000000E-01      6.050390000000000E+01
5520000000.000000      5.043640000000000E-01     -1.178945000000000E+02      1.722641000000000E-01      2.829297000000000E+01
5540000000.000000      4.984741000000000E-01     -1.198672000000000E+02      1.744308000000000E-01     -2.864746000000000E+00
5560000000.000000      4.924164000000000E-01     -1.216445000000000E+02      1.790771000000000E-01     -3.154785000000000E+01
5580000000.000000      4.851685000000000E-01     -1.230391000000000E+02      1.881866000000000E-01     -5.997070000000000E+01
5600000000.000000      4.803162000000000E-01     -1.239766000000000E+02      1.933365000000000E-01     -8.753124000000000E+01
5620000000.000000      4.757233000000000E-01     -1.248789000000000E+02      1.980362000000000E-01     -1.135469000000000E+02
5640000000.000000      4.724274000000000E-01     -1.252812000000000E+02      1.992340000000000E-01     -1.399765000000000E+02
5660000000.000000      4.702606000000000E-01     -1.255351000000000E+02      1.959991000000000E-01     -1.652187000000000E+02
5680000000.000000      4.740295000000000E-01     -1.255898000000000E+02      1.918869000000000E-01      1.685078000000000E+02
5700000000.000000      4.837646000000000E-01     -1.264531000000000E+02      1.837158000000000E-01      1.417031000000000E+02
5720000000.000000      4.945374000000000E-01     -1.278633000000000E+02      1.754608000000000E-01      1.143476000000000E+02
5740000000.000000      5.018616000000000E-01     -1.302578000000000E+02      1.681213000000000E-01      8.429688000000000E+01
5760000000.000000      5.022278000000000E-01     -1.331172000000000E+02      1.587830000000000E-01      5.173046000000000E+01
5780000000.000000      4.940643000000000E-01     -1.354687000000000E+02      1.508026000000000E-01      1.883789000000000E+01
5800000000.000000      4.825897000000000E-01     -1.371094000000000E+02      1.480331000000000E-01     -1.290381000000000E+01
5820000000.000000      4.746399000000000E-01     -1.377344000000000E+02      1.547241000000000E-01     -4.420507000000000E+01
5840000000.000000      4.740753000000000E-01     -1.384531000000000E+02      1.650238000000000E-01     -7.580859000000000E+01
5860000000.000000      4.785004000000000E-01     -1.394063000000000E+02      1.721878000000000E-01     -1.053047000000000E+02
5880000000.000000      4.828796000000000E-01     -1.410547000000000E+02      1.795578000000000E-01     -1.331016000000000E+02
5900000000.000000      4.850922000000000E-01     -1.429219000000000E+02      1.857681000000000E-01     -1.598047000000000E+02
5920000000.000000      4.824066000000000E-01     -1.447578000000000E+02      1.887512000000000E-01      1.739375000000000E+02
5940000000.000000      4.793854000000000E-01     -1.461016000000000E+02      1.847229000000000E-01      1.473359000000000E+02
5960000000.000000      4.751587000000000E-01     -1.474453000000000E+02      1.758652000000000E-01      1.227148000000000E+02
5980000000.000000      4.707489000000000E-01     -1.490703000000000E+02      1.696930000000000E-01      9.651953000000000E+01
6000000000.000000      4.637146000000000E-01     -1.507578000000000E+02      1.591110000000000E-01      6.818749000000000E+01
6020000000.000000      4.498749000000000E-01     -1.523281000000000E+02      1.448975000000000E-01      3.812109000000000E+01
6040000000.000000      4.373016000000000E-01     -1.534453000000000E+02      1.305695000000000E-01      7.952637000000000E+00
6060000000.000000      4.265137000000000E-01     -1.540078000000000E+02      1.231651000000000E-01     -2.218164000000000E+01
6080000000.000000      4.212189000000000E-01     -1.535938000000000E+02      1.268997000000000E-01     -5.442577000000000E+01
