! Network Analyzer HP8722D
! Hewlett-Packard
! Data name: Linha com CNT
! Saver's name: Rodrigo Anjos
! Comments: Teste de deteccao de acetona 0-100ppm a partir de cilindro
! Time and date: 10/9/2025 15:44
!              Frequency                     S11                                                   S21                                                   S12                                                   S22
# HZ  S  MA R 50
3000000000.000000      3.193817000000000E-01      1.964746000000000E+01      3.941803000000000E-01      2.581445000000000E+01
3020000000.000000      3.321228000000000E-01      1.924609000000000E+01      4.008636000000000E-01     -3.501953000000000E+00
3040000000.000000      3.423157000000000E-01      1.737695000000000E+01      4.022522000000000E-01     -3.266797000000000E+01
3060000000.000000      3.450317000000000E-01      1.454688000000000E+01      4.032288000000000E-01     -6.130664000000000E+01
3080000000.000000      3.397980000000000E-01      1.201758000000000E+01      3.994751000000000E-01     -9.009766000000000E+01
3100000000.000000      3.329010000000000E-01      1.050000000000000E+01      3.980255000000000E-01     -1.181484000000000E+02
3120000000.000000      3.288422000000000E-01      9.952148000000000E+00      3.913574000000000E-01     -1.465937000000000E+02
3140000000.000000      3.285522000000000E-01      9.103516000000000E+00      3.927765000000000E-01     -1.755391000000000E+02
3160000000.000000      3.265228000000000E-01      7.668457000000000E+00      3.537292000000000E-01      1.568438000000000E+02
3180000000.000000      3.173981000000000E-01      6.341797000000000E+00      3.744354000000000E-01      1.276094000000000E+02
3200000000.000000      3.010254000000000E-01      6.606689000000000E+00      4.281769000000000E-01      9.734764000000000E+01
3220000000.000000      2.859955000000000E-01      8.899902000000000E+00      3.608551000000000E-01      6.921093000000000E+01
3240000000.000000      2.842102000000000E-01      1.305176000000000E+01      3.154449000000000E-01      4.402344000000000E+01
3260000000.000000      2.969818000000000E-01      1.695410000000000E+01      3.184052000000000E-01      1.780469000000000E+01
3280000000.000000      3.225861000000000E-01      1.839746000000000E+01      3.393555000000000E-01     -1.270605000000000E+01
3300000000.000000      3.524933000000000E-01      1.682519000000000E+01      3.507080000000000E-01     -4.205859000000000E+01
3320000000.000000      3.755188000000000E-01      1.328076000000000E+01      3.675995000000000E-01     -7.060937000000000E+01
3340000000.000000      3.869019000000000E-01      9.330078000000000E+00      3.825836000000000E-01     -1.001172000000000E+02
3360000000.000000      3.886414000000000E-01      5.517822000000000E+00      3.948059000000000E-01     -1.289453000000000E+02
3380000000.000000      3.824005000000000E-01      3.037720000000000E+00      4.080811000000000E-01     -1.577031000000000E+02
3400000000.000000      3.746338000000000E-01      1.241455000000000E+00      4.166565000000000E-01      1.734609000000000E+02
3420000000.000000      3.686218000000000E-01      3.570557000000000E-02      4.230042000000000E-01      1.445000000000000E+02
3440000000.000000      3.629150000000000E-01     -1.366455000000000E+00      4.172974000000000E-01      1.158984000000000E+02
3460000000.000000      3.566284000000000E-01     -2.351074000000000E+00      4.176178000000000E-01      8.785547000000000E+01
3480000000.000000      3.527222000000000E-01     -3.218994000000000E+00      4.179382000000000E-01      5.871484000000000E+01
3500000000.000000      3.508301000000000E-01     -3.817749000000000E+00      4.128723000000000E-01      2.992871000000000E+01
3520000000.000000      3.501587000000000E-01     -4.678955000000000E+00      4.140167000000000E-01      1.564148000000000E+00
3540000000.000000      3.499756000000000E-01     -5.321533000000000E+00      4.140930000000000E-01     -2.734277000000000E+01
3560000000.000000      3.478241000000000E-01     -5.641602000000000E+00      4.136047000000000E-01     -5.603906000000000E+01
3580000000.000000      3.452606000000000E-01     -5.670410000000000E+00      4.145966000000000E-01     -8.475389000000000E+01
3600000000.000000      3.462524000000000E-01     -5.551025000000000E+00      4.130859000000000E-01     -1.126211000000000E+02
3620000000.000000      3.508911000000000E-01     -5.723877000000000E+00      4.138794000000000E-01     -1.409765000000000E+02
3640000000.000000      3.562469000000000E-01     -6.810303000000000E+00      4.111481000000000E-01     -1.693281000000000E+02
3660000000.000000      3.592529000000000E-01     -8.664551000000000E+00      4.101868000000000E-01      1.629844000000000E+02
3680000000.000000      3.589935000000000E-01     -1.072168000000000E+01      4.091797000000000E-01      1.345781000000000E+02
3700000000.000000      3.528290000000000E-01     -1.207422000000000E+01      4.045563000000000E-01      1.067344000000000E+02
3720000000.000000      3.464966000000000E-01     -1.224609000000000E+01      4.067841000000000E-01      7.833984000000000E+01
3740000000.000000      3.482361000000000E-01     -1.162500000000000E+01      3.982391000000000E-01      4.966210000000000E+01
3760000000.000000      3.556519000000000E-01     -1.138184000000000E+01      3.915253000000000E-01      2.234961000000000E+01
3780000000.000000      3.657227000000000E-01     -1.236377000000000E+01      3.942261000000000E-01     -5.962891000000000E+00
3800000000.000000      3.724670000000000E-01     -1.461621000000000E+01      3.905945000000000E-01     -3.453906000000000E+01
3820000000.000000      3.684845000000000E-01     -1.704883000000000E+01      3.872833000000000E-01     -6.327343000000000E+01
3840000000.000000      3.621979000000000E-01     -1.842090000000000E+01      3.817291000000000E-01     -9.173437000000000E+01
3860000000.000000      3.580627000000000E-01     -1.882519000000000E+01      3.782959000000000E-01     -1.208203000000000E+02
3880000000.000000      3.592987000000000E-01     -1.853808000000000E+01      3.682098000000000E-01     -1.496172000000000E+02
3900000000.000000      3.680725000000000E-01     -1.907715000000000E+01      3.533630000000000E-01     -1.775859000000000E+02
3920000000.000000      3.760071000000000E-01     -2.070313000000000E+01      3.486938000000000E-01      1.552422000000000E+02
3940000000.000000      3.752289000000000E-01     -2.297949000000000E+01      3.451538000000000E-01      1.269961000000000E+02
3960000000.000000      3.655701000000000E-01     -2.442676000000000E+01      3.363495000000000E-01      9.843750000000000E+01
3980000000.000000      3.552704000000000E-01     -2.433887000000000E+01      3.192444000000000E-01      7.007030000000000E+01
4000000000.000000      3.524475000000000E-01     -2.313086000000000E+01      3.047943000000000E-01      4.428320000000000E+01
4020000000.000000      3.629303000000000E-01     -2.217383000000000E+01      3.048401000000000E-01      1.701562000000000E+01
4040000000.000000      3.829803000000000E-01     -2.313477000000000E+01      3.013916000000000E-01     -1.259473000000000E+01
4060000000.000000      3.982697000000000E-01     -2.630078000000000E+01      2.920685000000000E-01     -4.163867000000000E+01
4080000000.000000      4.036102000000000E-01     -3.052148000000000E+01      2.887878000000000E-01     -6.931641000000000E+01
4100000000.000000      3.912506000000000E-01     -3.429883000000000E+01      2.918701000000000E-01     -9.860155000000000E+01
4120000000.000000      3.711090000000000E-01     -3.607422000000000E+01      2.869720000000000E-01     -1.286328000000000E+02
4140000000.000000      3.564911000000000E-01     -3.604101000000000E+01      2.758026000000000E-01     -1.568359000000000E+02
4160000000.000000      3.504639000000000E-01     -3.542187000000000E+01      2.768555000000000E-01      1.760937000000000E+02
4180000000.000000      3.517456000000000E-01     -3.527539000000000E+01      2.805328000000000E-01      1.472344000000000E+02
4200000000.000000      3.530426000000000E-01     -3.627148000000000E+01      2.795410000000000E-01      1.180430000000000E+02
4220000000.000000      3.512726000000000E-01     -3.740820000000000E+01      2.829437000000000E-01      8.924608000000000E+01
4240000000.000000      3.444214000000000E-01     -3.773438000000000E+01      2.863312000000000E-01      5.978710000000000E+01
4260000000.000000      3.426056000000000E-01     -3.728320000000000E+01      2.877655000000000E-01      3.180176000000000E+01
4280000000.000000      3.459778000000000E-01     -3.643945000000000E+01      2.982635000000000E-01      3.125610000000000E+00
4300000000.000000      3.557587000000000E-01     -3.648438000000000E+01      3.082581000000000E-01     -2.653125000000000E+01
4320000000.000000      3.657379000000000E-01     -3.787695000000000E+01      3.039703000000000E-01     -5.502539000000000E+01
4340000000.000000      3.689728000000000E-01     -4.027734000000000E+01      2.992554000000000E-01     -8.390234000000000E+01
4360000000.000000      3.662415000000000E-01     -4.228516000000000E+01      2.941284000000000E-01     -1.130976000000000E+02
4380000000.000000      3.609924000000000E-01     -4.322851000000000E+01      2.867737000000000E-01     -1.425781000000000E+02
4400000000.000000      3.610535000000000E-01     -4.353711000000000E+01      2.800903000000000E-01     -1.711250000000000E+02
4420000000.000000      3.655701000000000E-01     -4.389844000000000E+01      2.810822000000000E-01      1.601953000000000E+02
4440000000.000000      3.717804000000000E-01     -4.558789000000000E+01      2.803345000000000E-01      1.305078000000000E+02
4460000000.000000      3.725891000000000E-01     -4.790235000000000E+01      2.760315000000000E-01      1.012930000000000E+02
4480000000.000000      3.641968000000000E-01     -4.965820000000000E+01      2.730713000000000E-01      7.264453000000000E+01
4500000000.000000      3.551025000000000E-01     -5.038476000000000E+01      2.702637000000000E-01      4.426562000000000E+01
4520000000.000000      3.485718000000000E-01     -4.969140000000000E+01      2.668152000000000E-01      1.538086000000000E+01
4540000000.000000      3.524323000000000E-01     -4.896484000000000E+01      2.595367000000000E-01     -1.337598000000000E+01
4560000000.000000      3.637238000000000E-01     -4.918359000000000E+01      2.586365000000000E-01     -4.135156000000000E+01
4580000000.000000      3.775787000000000E-01     -5.076562000000000E+01      2.583466000000000E-01     -7.084765000000000E+01
4600000000.000000      3.847198000000000E-01     -5.299609000000000E+01      2.541199000000000E-01     -1.009609000000000E+02
4620000000.000000      3.866730000000000E-01     -5.500000000000000E+01      2.577972000000000E-01     -1.317891000000000E+02
4640000000.000000      3.877411000000000E-01     -5.644140000000000E+01      2.501221000000000E-01     -1.616406000000000E+02
4660000000.000000      3.904572000000000E-01     -5.765038000000000E+01      2.460098000000000E-01      1.697656000000000E+02
4680000000.000000      3.962402000000000E-01     -5.911523000000000E+01      2.429581000000000E-01      1.409297000000000E+02
4700000000.000000      4.003754000000000E-01     -6.129883000000000E+01      2.413712000000000E-01      1.112812000000000E+02
4720000000.000000      4.046173000000000E-01     -6.407031000000000E+01      2.152786000000000E-01      8.668360000000000E+01
4740000000.000000      4.040070000000000E-01     -6.704296000000000E+01      2.186508000000000E-01      5.804882000000000E+01
4760000000.000000      3.998260000000000E-01     -6.985546000000000E+01      2.175446000000000E-01      2.989843000000000E+01
4780000000.000000      3.928375000000000E-01     -7.251562000000000E+01      2.139053000000000E-01      1.766052000000000E+00
4800000000.000000      3.831787000000000E-01     -7.532031000000000E+01      2.067719000000000E-01     -2.598828000000000E+01
4820000000.000000      3.661804000000000E-01     -7.789844000000000E+01      1.964188000000000E-01     -5.367382000000000E+01
4840000000.000000      3.412170000000000E-01     -7.922656000000000E+01      1.845169000000000E-01     -8.105078000000000E+01
4860000000.000000      3.163757000000000E-01     -7.856640000000000E+01      1.757355000000000E-01     -1.098047000000000E+02
4880000000.000000      2.968750000000000E-01     -7.473827000000000E+01      1.602402000000000E-01     -1.394844000000000E+02
4900000000.000000      2.965088000000000E-01     -6.976171000000000E+01      1.464310000000000E-01     -1.652344000000000E+02
4920000000.000000      3.156281000000000E-01     -6.599999000000000E+01      1.506882000000000E-01      1.699297000000000E+02
4940000000.000000      3.453064000000000E-01     -6.460155000000000E+01      1.638641000000000E-01      1.397969000000000E+02
4960000000.000000      3.773651000000000E-01     -6.659765000000000E+01      1.722107000000000E-01      1.082265000000000E+02
4980000000.000000      3.969421000000000E-01     -7.096484000000000E+01      1.814270000000000E-01      7.868359000000000E+01
5000000000.000000      3.983154000000000E-01     -7.590625000000000E+01      1.918945000000000E-01      4.911327000000000E+01
5020000000.000000      3.848114000000000E-01     -7.966406000000000E+01      1.977310000000000E-01      1.993555000000000E+01
5040000000.000000      3.646545000000000E-01     -8.154688000000000E+01      1.989365000000000E-01     -6.762207000000000E+00
5060000000.000000      3.491364000000000E-01     -8.153124000000000E+01      2.040634000000000E-01     -3.222070000000000E+01
5080000000.000000      3.419342000000000E-01     -8.098436000000000E+01      2.096329000000000E-01     -5.939258000000000E+01
5100000000.000000      3.423462000000000E-01     -8.067577000000000E+01      2.085266000000000E-01     -8.709375000000000E+01
5120000000.000000      3.451843000000000E-01     -8.117188000000000E+01      2.074203000000000E-01     -1.137969000000000E+02
5140000000.000000      3.482819000000000E-01     -8.208984000000000E+01      2.039032000000000E-01     -1.423359000000000E+02
5160000000.000000      3.505096000000000E-01     -8.287889000000000E+01      1.982956000000000E-01     -1.712656000000000E+02
5180000000.000000      3.549194000000000E-01     -8.407421000000000E+01      1.935196000000000E-01      1.586406000000000E+02
5200000000.000000      3.603516000000000E-01     -8.567968000000000E+01      1.906586000000000E-01      1.279648000000000E+02
5220000000.000000      3.623199000000000E-01     -8.765234000000000E+01      1.909714000000000E-01      9.735155000000000E+01
5240000000.000000      3.608093000000000E-01     -8.957422000000000E+01      1.936417000000000E-01      6.622656000000000E+01
5260000000.000000      3.554077000000000E-01     -9.116796000000000E+01      1.981964000000000E-01      3.559570000000000E+01
5280000000.000000      3.484497000000000E-01     -9.206249000000000E+01      2.032471000000000E-01      5.970947000000000E+00
5300000000.000000      3.463440000000000E-01     -9.275000000000000E+01      2.075043000000000E-01     -2.142969000000000E+01
5320000000.000000      3.459473000000000E-01     -9.351171000000000E+01      2.149429000000000E-01     -4.812109000000000E+01
5340000000.000000      3.466949000000000E-01     -9.485546000000000E+01      2.192078000000000E-01     -7.562109000000000E+01
5360000000.000000      3.454437000000000E-01     -9.632030000000000E+01      2.181931000000000E-01     -1.019492000000000E+02
5380000000.000000      3.423615000000000E-01     -9.762499000000000E+01      2.160568000000000E-01     -1.282891000000000E+02
5400000000.000000      3.406219000000000E-01     -9.833202000000000E+01      2.105560000000000E-01     -1.548828000000000E+02
5420000000.000000      3.444824000000000E-01     -9.853516000000000E+01      2.044144000000000E-01      1.780156000000000E+02
5440000000.000000      3.513031000000000E-01     -9.923437000000000E+01      1.978455000000000E-01      1.487031000000000E+02
5460000000.000000      3.593597000000000E-01     -1.009375000000000E+02      1.881027000000000E-01      1.191680000000000E+02
5480000000.000000      3.643646000000000E-01     -1.036172000000000E+02      1.833954000000000E-01      8.840624000000000E+01
5500000000.000000      3.609467000000000E-01     -1.068984000000000E+02      1.813431000000000E-01      5.677148000000000E+01
5520000000.000000      3.500824000000000E-01     -1.097344000000000E+02      1.826019000000000E-01      2.484766000000000E+01
5540000000.000000      3.385010000000000E-01     -1.118437000000000E+02      1.838608000000000E-01     -6.214355000000000E+00
5560000000.000000      3.268585000000000E-01     -1.130781000000000E+02      1.895752000000000E-01     -3.495508000000000E+01
5580000000.000000      3.174744000000000E-01     -1.138477000000000E+02      1.989899000000000E-01     -6.325585000000000E+01
5600000000.000000      3.090515000000000E-01     -1.141680000000000E+02      2.066956000000000E-01     -9.083984000000000E+01
5620000000.000000      3.030396000000000E-01     -1.139609000000000E+02      2.125092000000000E-01     -1.175625000000000E+02
5640000000.000000      3.008728000000000E-01     -1.129102000000000E+02      2.145157000000000E-01     -1.440781000000000E+02
5660000000.000000      3.039703000000000E-01     -1.113750000000000E+02      2.120132000000000E-01     -1.700312000000000E+02
5680000000.000000      3.166504000000000E-01     -1.108125000000000E+02      2.093964000000000E-01      1.629453000000000E+02
5700000000.000000      3.345947000000000E-01     -1.119609000000000E+02      2.078934000000000E-01      1.339219000000000E+02
5720000000.000000      3.486176000000000E-01     -1.151211000000000E+02      2.092972000000000E-01      1.036758000000000E+02
5740000000.000000      3.526764000000000E-01     -1.197266000000000E+02      2.167206000000000E-01      7.148046000000000E+01
5760000000.000000      3.429871000000000E-01     -1.243320000000000E+02      2.183838000000000E-01      3.854297000000000E+01
5780000000.000000      3.233337000000000E-01     -1.273008000000000E+02      2.166519000000000E-01      6.435059000000000E+00
5800000000.000000      3.027191000000000E-01     -1.276445000000000E+02      2.151947000000000E-01     -2.413183000000000E+01
5820000000.000000      2.947235000000000E-01     -1.267031000000000E+02      2.283859000000000E-01     -5.495117000000000E+01
5840000000.000000      2.956696000000000E-01     -1.265937000000000E+02      2.450333000000000E-01     -8.591797000000000E+01
5860000000.000000      2.998962000000000E-01     -1.280391000000000E+02      2.508850000000000E-01     -1.150664000000000E+02
5880000000.000000      2.998047000000000E-01     -1.310625000000000E+02      2.574158000000000E-01     -1.425625000000000E+02
5900000000.000000      2.891083000000000E-01     -1.338047000000000E+02      2.675171000000000E-01     -1.697500000000000E+02
5920000000.000000      2.743530000000000E-01     -1.355469000000000E+02      2.714081000000000E-01      1.626172000000000E+02
5940000000.000000      2.626495000000000E-01     -1.361406000000000E+02      2.653809000000000E-01      1.347656000000000E+02
5960000000.000000      2.526855000000000E-01     -1.365469000000000E+02      2.540283000000000E-01      1.078828000000000E+02
5980000000.000000      2.425995000000000E-01     -1.382187000000000E+02      2.469711000000000E-01      8.074219000000000E+01
6000000000.000000      2.211075000000000E-01     -1.402969000000000E+02      2.424698000000000E-01      5.104882000000000E+01
6020000000.000000      1.908951000000000E-01     -1.400469000000000E+02      2.321854000000000E-01      2.009668000000000E+01
6040000000.000000      1.548157000000000E-01     -1.343359000000000E+02      2.199173000000000E-01     -1.052246000000000E+01
6060000000.000000      1.357956000000000E-01     -1.215625000000000E+02      2.159348000000000E-01     -4.046288000000000E+01
6080000000.000000      1.437531000000000E-01     -1.098750000000000E+02      2.207489000000000E-01     -7.097656000000000E+01
