! Network Analyzer HP8722D
! Hewlett-Packard
! Data name: Linha com CNT
! Saver's name: Rodrigo Anjos
! Comments: Teste de deteccao de acetona 0-100ppm a partir de cilindro
! Time and date: 10/9/2025 15:49
!              Frequency                     S11                                                   S21                                                   S12                                                   S22
# HZ  S  MA R 50
3000000000.000000      4.264526000000000E-01      1.545459000000000E+01      2.523651000000000E-01      3.289063000000000E+01
3020000000.000000      4.348297000000000E-01      1.497021000000000E+01      2.565613000000000E-01      3.614502000000000E+00
3040000000.000000      4.424896000000000E-01      1.378467000000000E+01      2.565308000000000E-01     -2.563281000000000E+01
3060000000.000000      4.470520000000000E-01      1.180029000000000E+01      2.566833000000000E-01     -5.490624000000000E+01
3080000000.000000      4.444427000000000E-01      1.005518000000000E+01      2.521973000000000E-01     -8.366796000000000E+01
3100000000.000000      4.410248000000000E-01      8.586914000000000E+00      2.507935000000000E-01     -1.115586000000000E+02
3120000000.000000      4.384003000000000E-01      7.759033000000000E+00      2.503662000000000E-01     -1.401953000000000E+02
3140000000.000000      4.384613000000000E-01      6.789551000000000E+00      2.465515000000000E-01     -1.687266000000000E+02
3160000000.000000      4.394379000000000E-01      5.641357000000000E+00      2.429352000000000E-01      1.626094000000000E+02
3180000000.000000      4.334717000000000E-01      4.445313000000000E+00      2.367249000000000E-01      1.345781000000000E+02
3200000000.000000      4.233398000000000E-01      3.729858000000000E+00      2.331009000000000E-01      1.059961000000000E+02
3220000000.000000      4.104767000000000E-01      4.007080000000000E+00      2.232208000000000E-01      7.734765000000000E+01
3240000000.000000      4.051971000000000E-01      5.228027000000000E+00      2.165451000000000E-01      5.201562000000000E+01
3260000000.000000      4.078979000000000E-01      6.801758000000000E+00      2.258301000000000E-01      2.604492000000000E+01
3280000000.000000      4.206848000000000E-01      7.734375000000000E+00      2.334595000000000E-01     -3.464844000000000E+00
3300000000.000000      4.406281000000000E-01      7.338867000000000E+00      2.363510000000000E-01     -3.220117000000000E+01
3320000000.000000      4.598083000000000E-01      5.656494000000000E+00      2.438889000000000E-01     -6.105663000000000E+01
3340000000.000000      4.723053000000000E-01      3.293091000000000E+00      2.486496000000000E-01     -9.083202000000000E+01
3360000000.000000      4.763184000000000E-01      8.171082000000000E-01      2.511292000000000E-01     -1.204609000000000E+02
3380000000.000000      4.750061000000000E-01     -9.997559000000000E-01      2.511292000000000E-01     -1.497344000000000E+02
3400000000.000000      4.702301000000000E-01     -2.651855000000000E+00      2.502441000000000E-01     -1.784531000000000E+02
3420000000.000000      4.663239000000000E-01     -3.893311000000000E+00      2.486496000000000E-01      1.523281000000000E+02
3440000000.000000      4.616394000000000E-01     -5.005859000000000E+00      2.438354000000000E-01      1.241640000000000E+02
3460000000.000000      4.565887000000000E-01     -6.032959000000000E+00      2.442703000000000E-01      9.598436000000000E+01
3480000000.000000      4.543915000000000E-01     -6.984619000000000E+00      2.415466000000000E-01      6.691796000000000E+01
3500000000.000000      4.529114000000000E-01     -7.830566000000000E+00      2.390976000000000E-01      3.873437000000000E+01
3520000000.000000      4.522247000000000E-01     -8.871582000000000E+00      2.391205000000000E-01      9.837891000000000E+00
3540000000.000000      4.516144000000000E-01     -9.621582000000000E+00      2.350769000000000E-01     -1.861426000000000E+01
3560000000.000000      4.500885000000000E-01     -1.022705000000000E+01      2.366409000000000E-01     -4.675781000000000E+01
3580000000.000000      4.469910000000000E-01     -1.072168000000000E+01      2.362061000000000E-01     -7.546484000000000E+01
3600000000.000000      4.465637000000000E-01     -1.120068000000000E+01      2.359467000000000E-01     -1.029688000000000E+02
3620000000.000000      4.484558000000000E-01     -1.160059000000000E+01      2.407684000000000E-01     -1.312734000000000E+02
3640000000.000000      4.514465000000000E-01     -1.248486000000000E+01      2.418671000000000E-01     -1.597891000000000E+02
3660000000.000000      4.536896000000000E-01     -1.393799000000000E+01      2.432785000000000E-01      1.718984000000000E+02
3680000000.000000      4.540863000000000E-01     -1.547461000000000E+01      2.414093000000000E-01      1.435547000000000E+02
3700000000.000000      4.489746000000000E-01     -1.677832000000000E+01      2.393875000000000E-01      1.160234000000000E+02
3720000000.000000      4.437714000000000E-01     -1.752344000000000E+01      2.408829000000000E-01      8.769531000000000E+01
3740000000.000000      4.436798000000000E-01     -1.756055000000000E+01      2.360992000000000E-01      5.934570000000000E+01
3760000000.000000      4.472656000000000E-01     -1.749902000000000E+01      2.356186000000000E-01      3.231054000000000E+01
3780000000.000000      4.525146000000000E-01     -1.834082000000000E+01      2.377548000000000E-01      3.674927000000000E+00
3800000000.000000      4.580688000000000E-01     -1.976758000000000E+01      2.361984000000000E-01     -2.543359000000000E+01
3820000000.000000      4.561920000000000E-01     -2.166699000000000E+01      2.345810000000000E-01     -5.408984000000000E+01
3840000000.000000      4.516296000000000E-01     -2.302246000000000E+01      2.339020000000000E-01     -8.267187000000000E+01
3860000000.000000      4.474792000000000E-01     -2.389746000000000E+01      2.345657000000000E-01     -1.117734000000000E+02
3880000000.000000      4.453583000000000E-01     -2.409863000000000E+01      2.319489000000000E-01     -1.405156000000000E+02
3900000000.000000      4.507294000000000E-01     -2.463183000000000E+01      2.308578000000000E-01     -1.681797000000000E+02
3920000000.000000      4.562683000000000E-01     -2.586621000000000E+01      2.338486000000000E-01      1.633984000000000E+02
3940000000.000000      4.559021000000000E-01     -2.752832000000000E+01      2.331619000000000E-01      1.349297000000000E+02
3960000000.000000      4.497528000000000E-01     -2.884668000000000E+01      2.334061000000000E-01      1.066133000000000E+02
3980000000.000000      4.405365000000000E-01     -2.946875000000000E+01      2.272415000000000E-01      7.791797000000000E+01
4000000000.000000      4.361420000000000E-01     -2.925293000000000E+01      2.236481000000000E-01      5.241992000000000E+01
4020000000.000000      4.408875000000000E-01     -2.892480000000000E+01      2.325897000000000E-01      2.444043000000000E+01
4040000000.000000      4.550781000000000E-01     -2.948047000000000E+01      2.323380000000000E-01     -5.902588000000000E+00
4060000000.000000      4.708252000000000E-01     -3.134277000000000E+01      2.278671000000000E-01     -3.466992000000000E+01
4080000000.000000      4.771423000000000E-01     -3.442578000000000E+01      2.279053000000000E-01     -6.352539000000000E+01
4100000000.000000      4.707336000000000E-01     -3.747461000000000E+01      2.282333000000000E-01     -9.290625000000000E+01
4120000000.000000      4.574585000000000E-01     -3.933008000000000E+01      2.257462000000000E-01     -1.232344000000000E+02
4140000000.000000      4.455109000000000E-01     -3.996289000000000E+01      2.179565000000000E-01     -1.515469000000000E+02
4160000000.000000      4.387207000000000E-01     -4.016602000000000E+01      2.202530000000000E-01     -1.781875000000000E+02
4180000000.000000      4.380341000000000E-01     -4.047461000000000E+01      2.256012000000000E-01      1.527578000000000E+02
4200000000.000000      4.376984000000000E-01     -4.145703000000000E+01      2.223206000000000E-01      1.240273000000000E+02
4220000000.000000      4.373932000000000E-01     -4.250586000000000E+01      2.236786000000000E-01      9.600389000000000E+01
4240000000.000000      4.320221000000000E-01     -4.335156000000000E+01      2.194824000000000E-01      6.687890000000000E+01
4260000000.000000      4.292603000000000E-01     -4.355273000000000E+01      2.143173000000000E-01      3.984179000000000E+01
4280000000.000000      4.294281000000000E-01     -4.336523000000000E+01      2.158279000000000E-01      1.221924000000000E+01
4300000000.000000      4.361725000000000E-01     -4.348046000000000E+01      2.147141000000000E-01     -1.635742000000000E+01
4320000000.000000      4.435730000000000E-01     -4.458984000000000E+01      2.149429000000000E-01     -4.524804000000000E+01
4340000000.000000      4.465485000000000E-01     -4.645312000000000E+01      2.151794000000000E-01     -7.467187000000000E+01
4360000000.000000      4.468536000000000E-01     -4.820507000000000E+01      2.150192000000000E-01     -1.047266000000000E+02
4380000000.000000      4.418793000000000E-01     -4.938671000000000E+01      2.130890000000000E-01     -1.349141000000000E+02
4400000000.000000      4.399719000000000E-01     -4.998241000000000E+01      2.117157000000000E-01     -1.634766000000000E+02
4420000000.000000      4.439392000000000E-01     -5.062109000000000E+01      2.155457000000000E-01      1.676406000000000E+02
4440000000.000000      4.499359000000000E-01     -5.168554000000000E+01      2.169952000000000E-01      1.379062000000000E+02
4460000000.000000      4.508514000000000E-01     -5.346289000000000E+01      2.164078000000000E-01      1.087734000000000E+02
4480000000.000000      4.461823000000000E-01     -5.530468000000000E+01      2.143326000000000E-01      8.004297000000000E+01
4500000000.000000      4.388733000000000E-01     -5.652929000000000E+01      2.107239000000000E-01      5.188671000000000E+01
4520000000.000000      4.315338000000000E-01     -5.675195000000000E+01      2.076035000000000E-01      2.349219000000000E+01
4540000000.000000      4.319000000000000E-01     -5.667187000000000E+01      2.022705000000000E-01     -4.729736000000000E+00
4560000000.000000      4.381561000000000E-01     -5.696875000000000E+01      2.014923000000000E-01     -3.213672000000000E+01
4580000000.000000      4.490814000000000E-01     -5.803711000000000E+01      2.023087000000000E-01     -6.235742000000000E+01
4600000000.000000      4.559631000000000E-01     -5.959570000000000E+01      1.997375000000000E-01     -9.282030000000000E+01
4620000000.000000      4.582214000000000E-01     -6.144531000000000E+01      1.995697000000000E-01     -1.238398000000000E+02
4640000000.000000      4.596863000000000E-01     -6.260742000000000E+01      1.962051000000000E-01     -1.550078000000000E+02
4660000000.000000      4.612122000000000E-01     -6.362499000000000E+01      1.972961000000000E-01      1.760078000000000E+02
4680000000.000000      4.660797000000000E-01     -6.482422000000000E+01      2.027283000000000E-01      1.458437000000000E+02
4700000000.000000      4.712219000000000E-01     -6.647655000000000E+01      2.050781000000000E-01      1.159922000000000E+02
4720000000.000000      4.739990000000000E-01     -6.853906000000000E+01      2.079544000000000E-01      8.767187000000000E+01
4740000000.000000      4.748688000000000E-01     -7.085155000000000E+01      2.115173000000000E-01      5.921484000000000E+01
4760000000.000000      4.724274000000000E-01     -7.308594000000000E+01      2.105255000000000E-01      3.124609000000000E+01
4780000000.000000      4.690704000000000E-01     -7.532031000000000E+01      2.070618000000000E-01      2.985474000000000E+00
4800000000.000000      4.646301000000000E-01     -7.785156000000000E+01      2.003403000000000E-01     -2.464160000000000E+01
4820000000.000000      4.519196000000000E-01     -8.020702000000000E+01      1.895294000000000E-01     -5.266015000000000E+01
4840000000.000000      4.319763000000000E-01     -8.187500000000000E+01      1.788101000000000E-01     -7.983203000000000E+01
4860000000.000000      4.120636000000000E-01     -8.243750000000000E+01      1.699066000000000E-01     -1.088789000000000E+02
4880000000.000000      3.925018000000000E-01     -8.125000000000000E+01      1.555176000000000E-01     -1.389531000000000E+02
4900000000.000000      3.844910000000000E-01     -7.889453000000000E+01      1.416779000000000E-01     -1.646875000000000E+02
4920000000.000000      3.904724000000000E-01     -7.650391000000000E+01      1.459122000000000E-01      1.701328000000000E+02
4940000000.000000      4.097595000000000E-01     -7.511328000000000E+01      1.593475000000000E-01      1.400469000000000E+02
4960000000.000000      4.376068000000000E-01     -7.574609000000000E+01      1.681671000000000E-01      1.082500000000000E+02
4980000000.000000      4.601898000000000E-01     -7.849609000000000E+01      1.781998000000000E-01      7.869531000000000E+01
5000000000.000000      4.688568000000000E-01     -8.206249000000000E+01      1.903839000000000E-01      4.907227000000000E+01
5020000000.000000      4.642487000000000E-01     -8.530859000000000E+01      1.968079000000000E-01      1.978418000000000E+01
5040000000.000000      4.527588000000000E-01     -8.751562000000000E+01      1.984940000000000E-01     -6.964111000000000E+00
5060000000.000000      4.408569000000000E-01     -8.833593000000000E+01      2.042618000000000E-01     -3.238086000000000E+01
5080000000.000000      4.343262000000000E-01     -8.885546000000000E+01      2.097321000000000E-01     -5.942577000000000E+01
5100000000.000000      4.346924000000000E-01     -8.928125000000000E+01      2.069016000000000E-01     -8.637499000000000E+01
5120000000.000000      4.369049000000000E-01     -8.998827000000000E+01      2.049332000000000E-01     -1.132969000000000E+02
5140000000.000000      4.404144000000000E-01     -9.083984000000000E+01      2.006226000000000E-01     -1.417031000000000E+02
5160000000.000000      4.435425000000000E-01     -9.180859000000000E+01      1.945419000000000E-01     -1.706016000000000E+02
5180000000.000000      4.491882000000000E-01     -9.278124000000000E+01      1.895523000000000E-01      1.592344000000000E+02
5200000000.000000      4.562225000000000E-01     -9.407812000000000E+01      1.861420000000000E-01      1.285547000000000E+02
5220000000.000000      4.601288000000000E-01     -9.575781000000000E+01      1.869812000000000E-01      9.762108000000000E+01
5240000000.000000      4.615021000000000E-01     -9.748827000000000E+01      1.900940000000000E-01      6.643359000000000E+01
5260000000.000000      4.593964000000000E-01     -9.915625000000000E+01      1.949387000000000E-01      3.566015000000000E+01
5280000000.000000      4.557343000000000E-01     -1.004570000000000E+02      2.006226000000000E-01      5.976563000000000E+00
5300000000.000000      4.538422000000000E-01     -1.015859000000000E+02      2.052536000000000E-01     -2.141016000000000E+01
5320000000.000000      4.532776000000000E-01     -1.025937000000000E+02      2.130585000000000E-01     -4.789258000000000E+01
5340000000.000000      4.533539000000000E-01     -1.038203000000000E+02      2.169724000000000E-01     -7.520312000000000E+01
5360000000.000000      4.533234000000000E-01     -1.051328000000000E+02      2.165680000000000E-01     -1.010898000000000E+02
5380000000.000000      4.543304000000000E-01     -1.063633000000000E+02      2.142334000000000E-01     -1.276601000000000E+02
5400000000.000000      4.541321000000000E-01     -1.074453000000000E+02      2.075195000000000E-01     -1.542969000000000E+02
5420000000.000000      4.568939000000000E-01     -1.078867000000000E+02      2.015533000000000E-01      1.787188000000000E+02
5440000000.000000      4.635468000000000E-01     -1.086601000000000E+02      1.943207000000000E-01      1.495391000000000E+02
5460000000.000000      4.709015000000000E-01     -1.100039000000000E+02      1.840668000000000E-01      1.198867000000000E+02
5480000000.000000      4.768524000000000E-01     -1.118047000000000E+02      1.803055000000000E-01      8.889063000000000E+01
5500000000.000000      4.788513000000000E-01     -1.143203000000000E+02      1.786957000000000E-01      5.705859000000000E+01
5520000000.000000      4.736176000000000E-01     -1.166367000000000E+02      1.800003000000000E-01      2.462305000000000E+01
5540000000.000000      4.664917000000000E-01     -1.186953000000000E+02      1.821899000000000E-01     -6.489014000000000E+00
5560000000.000000      4.577484000000000E-01     -1.203672000000000E+02      1.883621000000000E-01     -3.512500000000000E+01
5580000000.000000      4.499359000000000E-01     -1.217031000000000E+02      1.985931000000000E-01     -6.325781000000000E+01
5600000000.000000      4.444275000000000E-01     -1.226641000000000E+02      2.036285000000000E-01     -9.066406000000000E+01
5620000000.000000      4.387665000000000E-01     -1.233359000000000E+02      2.090530000000000E-01     -1.165820000000000E+02
5640000000.000000      4.364929000000000E-01     -1.236484000000000E+02      2.096863000000000E-01     -1.427969000000000E+02
5660000000.000000      4.367676000000000E-01     -1.236641000000000E+02      2.060394000000000E-01     -1.681875000000000E+02
5680000000.000000      4.418945000000000E-01     -1.235352000000000E+02      2.002563000000000E-01      1.657734000000000E+02
5700000000.000000      4.534454000000000E-01     -1.243672000000000E+02      1.907654000000000E-01      1.391250000000000E+02
5720000000.000000      4.649353000000000E-01     -1.260156000000000E+02      1.813126000000000E-01      1.115742000000000E+02
5740000000.000000      4.720612000000000E-01     -1.288359000000000E+02      1.722260000000000E-01      8.129686000000000E+01
5760000000.000000      4.694366000000000E-01     -1.319687000000000E+02      1.626663000000000E-01      4.829883000000000E+01
5780000000.000000      4.584198000000000E-01     -1.346719000000000E+02      1.546783000000000E-01      1.506738000000000E+01
5800000000.000000      4.440002000000000E-01     -1.360391000000000E+02      1.522903000000000E-01     -1.721582000000000E+01
5820000000.000000      4.353333000000000E-01     -1.365469000000000E+02      1.603622000000000E-01     -4.855859000000000E+01
5840000000.000000      4.353790000000000E-01     -1.370859000000000E+02      1.714554000000000E-01     -8.002733000000000E+01
5860000000.000000      4.407806000000000E-01     -1.378125000000000E+02      1.811829000000000E-01     -1.092891000000000E+02
5880000000.000000      4.464417000000000E-01     -1.396875000000000E+02      1.900253000000000E-01     -1.369531000000000E+02
5900000000.000000      4.469910000000000E-01     -1.416641000000000E+02      1.964874000000000E-01     -1.632187000000000E+02
5920000000.000000      4.432373000000000E-01     -1.434844000000000E+02      1.993332000000000E-01      1.709141000000000E+02
5940000000.000000      4.387665000000000E-01     -1.449453000000000E+02      1.947861000000000E-01      1.448047000000000E+02
5960000000.000000      4.340057000000000E-01     -1.463125000000000E+02      1.856155000000000E-01      1.201914000000000E+02
5980000000.000000      4.284363000000000E-01     -1.478672000000000E+02      1.782608000000000E-01      9.461329000000000E+01
6000000000.000000      4.194183000000000E-01     -1.498203000000000E+02      1.655273000000000E-01      6.621484000000000E+01
6020000000.000000      4.051208000000000E-01     -1.513750000000000E+02      1.504517000000000E-01      3.647070000000000E+01
6040000000.000000      3.883667000000000E-01     -1.519844000000000E+02      1.335526000000000E-01      5.881592000000000E+00
6060000000.000000      3.781586000000000E-01     -1.518359000000000E+02      1.252136000000000E-01     -2.467676000000000E+01
6080000000.000000      3.755188000000000E-01     -1.506953000000000E+02      1.289291000000000E-01     -5.756640000000000E+01
