! Network Analyzer HP8722D
! Hewlett-Packard
! Data name: Linha com CNT
! Saver's name: Rodrigo Anjos
! Comments: Teste de deteccao de acetona 0-100ppm a partir de cilindro
! Time and date: 10/9/2025 17:48
!              Frequency                     S11                                                   S21                                                   S12                                                   S22
# HZ  S  MA R 50
3000000000.000000      1.159592000000000E-01      5.203906000000000E+01      4.190826000000000E-01      2.545605000000000E+01
3020000000.000000      1.366882000000000E-01      4.751172000000000E+01      4.208984000000000E-01     -3.666748000000000E+00
3040000000.000000      1.460571000000000E-01      3.881836000000000E+01      4.207001000000000E-01     -3.250586000000000E+01
3060000000.000000      1.413040000000000E-01      2.980566000000000E+01      4.183502000000000E-01     -6.125977000000000E+01
3080000000.000000      1.267548000000000E-01      2.332226000000000E+01      4.192047000000000E-01     -8.996094000000000E+01
3100000000.000000      1.119499000000000E-01      2.188965000000000E+01      4.154358000000000E-01     -1.180859000000000E+02
3120000000.000000      1.048965000000000E-01      2.422949000000000E+01      4.130859000000000E-01     -1.467969000000000E+02
3140000000.000000      1.038017000000000E-01      2.455371000000000E+01      4.097137000000000E-01     -1.753438000000000E+02
3160000000.000000      9.711075000000000E-02      2.201172000000000E+01      4.055634000000000E-01      1.562187000000000E+02
3180000000.000000      7.821655000000000E-02      2.230567000000000E+01      4.022675000000000E-01      1.276328000000000E+02
3200000000.000000      5.657196000000000E-02      4.273828000000000E+01      3.981934000000000E-01      9.820702000000000E+01
3220000000.000000      7.182312000000000E-02      7.866015000000000E+01      3.864136000000000E-01      6.894921000000000E+01
3240000000.000000      1.191139000000000E-01      8.601171000000000E+01      3.745117000000000E-01      4.211914000000000E+01
3260000000.000000      1.700745000000000E-01      7.924999000000000E+01      3.792725000000000E-01      1.486279000000000E+01
3280000000.000000      2.104568000000000E-01      6.777344000000000E+01      3.868256000000000E-01     -1.441162000000000E+01
3300000000.000000      2.370758000000000E-01      5.482812000000000E+01      3.830719000000000E-01     -4.307617000000000E+01
3320000000.000000      2.464523000000000E-01      4.274219000000000E+01      3.862152000000000E-01     -7.107812000000000E+01
3340000000.000000      2.424850000000000E-01      3.234961000000000E+01      3.917236000000000E-01     -9.977734000000000E+01
3360000000.000000      2.283020000000000E-01      2.452539000000000E+01      3.927612000000000E-01     -1.284765000000000E+02
3380000000.000000      2.104568000000000E-01      2.002344000000000E+01      3.981628000000000E-01     -1.568125000000000E+02
3400000000.000000      1.947021000000000E-01      1.745117000000000E+01      3.994141000000000E-01      1.745625000000000E+02
3420000000.000000      1.822433000000000E-01      1.632813000000000E+01      3.996124000000000E-01      1.456328000000000E+02
3440000000.000000      1.708908000000000E-01      1.532568000000000E+01      3.973083000000000E-01      1.168047000000000E+02
3460000000.000000      1.612854000000000E-01      1.529297000000000E+01      3.953705000000000E-01      8.864843000000000E+01
3480000000.000000      1.541290000000000E-01      1.561133000000000E+01      3.957520000000000E-01      5.984179000000000E+01
3500000000.000000      1.501389000000000E-01      1.666406000000000E+01      3.917999000000000E-01      3.082617000000000E+01
3520000000.000000      1.475754000000000E-01      1.727051000000000E+01      3.896027000000000E-01      2.551514000000000E+00
3540000000.000000      1.454391000000000E-01      1.851465000000000E+01      3.900757000000000E-01     -2.608984000000000E+01
3560000000.000000      1.430740000000000E-01      2.112500000000000E+01      3.920288000000000E-01     -5.495703000000000E+01
3580000000.000000      1.455841000000000E-01      2.460742000000000E+01      3.909302000000000E-01     -8.366014000000000E+01
3600000000.000000      1.546173000000000E-01      2.704883000000000E+01      3.886108000000000E-01     -1.118437000000000E+02
3620000000.000000      1.669693000000000E-01      2.646191000000000E+01      3.924866000000000E-01     -1.401250000000000E+02
3640000000.000000      1.748657000000000E-01      2.277442000000000E+01      3.929291000000000E-01     -1.682812000000000E+02
3660000000.000000      1.742172000000000E-01      1.763574000000000E+01      3.907623000000000E-01      1.636562000000000E+02
3680000000.000000      1.650085000000000E-01      1.421338000000000E+01      3.950806000000000E-01      1.358125000000000E+02
3700000000.000000      1.523743000000000E-01      1.441943000000000E+01      3.953094000000000E-01      1.072852000000000E+02
3720000000.000000      1.477203000000000E-01      1.900976000000000E+01      3.941803000000000E-01      7.884375000000000E+01
3740000000.000000      1.585236000000000E-01      2.316016000000000E+01      3.886566000000000E-01      5.036914000000000E+01
3760000000.000000      1.752701000000000E-01      2.284180000000000E+01      3.839417000000000E-01      2.291992000000000E+01
3780000000.000000      1.861572000000000E-01      1.823730000000000E+01      3.837280000000000E-01     -5.057861000000000E+00
3800000000.000000      1.846237000000000E-01      1.247070000000000E+01      3.859711000000000E-01     -3.363281000000000E+01
3820000000.000000      1.699371000000000E-01      8.708984000000000E+00      3.839874000000000E-01     -6.238281000000000E+01
3840000000.000000      1.549301000000000E-01      9.774902000000000E+00      3.828125000000000E-01     -9.119532000000000E+01
3860000000.000000      1.521378000000000E-01      1.469385000000000E+01      3.831635000000000E-01     -1.204883000000000E+02
3880000000.000000      1.646347000000000E-01      1.742383000000000E+01      3.791656000000000E-01     -1.496719000000000E+02
3900000000.000000      1.804352000000000E-01      1.489453000000000E+01      3.732300000000000E-01     -1.778437000000000E+02
3920000000.000000      1.837006000000000E-01      9.368164000000000E+00      3.755341000000000E-01      1.548672000000000E+02
3940000000.000000      1.713791000000000E-01      5.085205000000000E+00      3.811340000000000E-01      1.262305000000000E+02
3960000000.000000      1.523514000000000E-01      6.533936000000000E+00      3.807983000000000E-01      9.721874000000000E+01
3980000000.000000      1.458664000000000E-01      1.450977000000000E+01      3.736725000000000E-01      6.848827000000000E+01
4000000000.000000      1.650848000000000E-01      2.110840000000000E+01      3.662567000000000E-01      4.178906000000000E+01
4020000000.000000      1.957474000000000E-01      1.929394000000000E+01      3.737030000000000E-01      1.408154000000000E+01
4040000000.000000      2.214890000000000E-01      1.112207000000000E+01      3.730621000000000E-01     -1.600781000000000E+01
4060000000.000000      2.272644000000000E-01      5.712891000000000E-01      3.621063000000000E-01     -4.474414000000000E+01
4080000000.000000      2.103958000000000E-01     -1.026563000000000E+01      3.628845000000000E-01     -7.200000000000000E+01
4100000000.000000      1.745682000000000E-01     -1.740430000000000E+01      3.692780000000000E-01     -1.008945000000000E+02
4120000000.000000      1.368790000000000E-01     -1.588232000000000E+01      3.670349000000000E-01     -1.309531000000000E+02
4140000000.000000      1.195107000000000E-01     -4.262695000000000E+00      3.604736000000000E-01     -1.597344000000000E+02
4160000000.000000      1.271744000000000E-01      5.310303000000000E+00      3.625183000000000E-01      1.726797000000000E+02
4180000000.000000      1.397934000000000E-01      6.856689000000000E+00      3.688965000000000E-01      1.438203000000000E+02
4200000000.000000      1.433258000000000E-01      5.163574000000000E+00      3.689728000000000E-01      1.141797000000000E+02
4220000000.000000      1.402664000000000E-01      5.642822000000000E+00      3.635712000000000E-01      8.510937000000000E+01
4240000000.000000      1.400757000000000E-01      1.076904000000000E+01      3.585358000000000E-01      5.666601000000000E+01
4260000000.000000      1.548080000000000E-01      1.560986000000000E+01      3.549957000000000E-01      2.871679000000000E+01
4280000000.000000      1.786652000000000E-01      1.557031000000000E+01      3.537903000000000E-01      4.847717000000000E-01
4300000000.000000      1.980896000000000E-01      1.099414000000000E+01      3.516693000000000E-01     -2.822266000000000E+01
4320000000.000000      2.047424000000000E-01      4.667725000000000E+00      3.494873000000000E-01     -5.723633000000000E+01
4340000000.000000      1.978989000000000E-01     -9.036255000000000E-01      3.490143000000000E-01     -8.585938000000000E+01
4360000000.000000      1.874084000000000E-01     -2.748047000000000E+00      3.481293000000000E-01     -1.154375000000000E+02
4380000000.000000      1.837997000000000E-01     -1.400757000000000E+00      3.443451000000000E-01     -1.449609000000000E+02
4400000000.000000      1.912613000000000E-01     -9.571838000000000E-01      3.424835000000000E-01     -1.740781000000000E+02
4420000000.000000      2.023087000000000E-01     -3.317871000000000E+00      3.435211000000000E-01      1.572500000000000E+02
4440000000.000000      2.040863000000000E-01     -8.119141000000000E+00      3.460236000000000E-01      1.274062000000000E+02
4460000000.000000      1.929016000000000E-01     -1.178467000000000E+01      3.397522000000000E-01      9.796484000000000E+01
4480000000.000000      1.752625000000000E-01     -1.158691000000000E+01      3.365479000000000E-01      6.951562000000000E+01
4500000000.000000      1.682358000000000E-01     -5.956055000000000E+00      3.358612000000000E-01      4.048828000000000E+01
4520000000.000000      1.808701000000000E-01     -1.936340000000000E-01      3.334961000000000E-01      1.119629000000000E+01
4540000000.000000      2.069931000000000E-01     -5.575562000000000E-01      3.240662000000000E-01     -1.787109000000000E+01
4560000000.000000      2.298584000000000E-01     -5.279053000000000E+00      3.201141000000000E-01     -4.600976000000000E+01
4580000000.000000      2.421722000000000E-01     -1.200830000000000E+01      3.211975000000000E-01     -7.524219000000000E+01
4600000000.000000      2.421188000000000E-01     -1.808496000000000E+01      3.190155000000000E-01     -1.057539000000000E+02
4620000000.000000      2.360916000000000E-01     -2.226269000000000E+01      3.143768000000000E-01     -1.353203000000000E+02
4640000000.000000      2.331238000000000E-01     -2.472070000000000E+01      3.136749000000000E-01     -1.650859000000000E+02
4660000000.000000      2.341843000000000E-01     -2.726171000000000E+01      3.123016000000000E-01      1.661641000000000E+02
4680000000.000000      2.371521000000000E-01     -3.121973000000000E+01      3.170013000000000E-01      1.367344000000000E+02
4700000000.000000      2.346573000000000E-01     -3.651172000000000E+01      3.177795000000000E-01      1.069687000000000E+02
4720000000.000000      2.245560000000000E-01     -4.242383000000000E+01      3.147278000000000E-01      7.924218000000000E+01
4740000000.000000      2.102737000000000E-01     -4.771093000000000E+01      3.203735000000000E-01      5.115039000000000E+01
4760000000.000000      1.921463000000000E-01     -5.248632000000000E+01      3.208160000000000E-01      2.252930000000000E+01
4780000000.000000      1.721420000000000E-01     -5.694921000000000E+01      3.172913000000000E-01     -5.936768000000000E+00
4800000000.000000      1.465302000000000E-01     -6.173437000000000E+01      3.121796000000000E-01     -3.460742000000000E+01
4820000000.000000      1.089745000000000E-01     -6.410937000000000E+01      3.046875000000000E-01     -6.338672000000000E+01
4840000000.000000      6.580734000000000E-02     -5.085742000000000E+01      2.971802000000000E-01     -9.226563000000000E+01
4860000000.000000      6.446075000000000E-02     -4.682922000000000E-01      2.902527000000000E-01     -1.226875000000000E+02
4880000000.000000      1.206245000000000E-01      1.587109000000000E+01      2.716980000000000E-01     -1.536250000000000E+02
4900000000.000000      1.850891000000000E-01      9.728027000000000E+00      2.503815000000000E-01      1.791719000000000E+02
4920000000.000000      2.392883000000000E-01     -1.808655000000000E+00      2.522736000000000E-01      1.541563000000000E+02
4940000000.000000      2.755280000000000E-01     -1.440723000000000E+01      2.658081000000000E-01      1.254766000000000E+02
4960000000.000000      2.907410000000000E-01     -2.770117000000000E+01      2.705841000000000E-01      9.535156000000000E+01
4980000000.000000      2.827454000000000E-01     -3.996289000000000E+01      2.766266000000000E-01      6.791406000000000E+01
5000000000.000000      2.546997000000000E-01     -4.974218000000000E+01      2.905273000000000E-01      3.996094000000000E+01
5020000000.000000      2.161713000000000E-01     -5.431445000000000E+01      2.995300000000000E-01      1.159863000000000E+01
5040000000.000000      1.864777000000000E-01     -5.236914000000000E+01      3.051453000000000E-01     -1.567773000000000E+01
5060000000.000000      1.776352000000000E-01     -4.628906000000000E+01      3.127594000000000E-01     -4.284570000000000E+01
5080000000.000000      1.864014000000000E-01     -4.269727000000000E+01      3.180847000000000E-01     -7.110156000000000E+01
5100000000.000000      1.981812000000000E-01     -4.333984000000000E+01      3.128662000000000E-01     -9.947266000000000E+01
5120000000.000000      2.050858000000000E-01     -4.588476000000000E+01      3.089142000000000E-01     -1.269297000000000E+02
5140000000.000000      2.091751000000000E-01     -4.839257000000000E+01      3.068542000000000E-01     -1.553828000000000E+02
5160000000.000000      2.119751000000000E-01     -5.094921000000000E+01      3.043671000000000E-01      1.753828000000000E+02
5180000000.000000      2.160568000000000E-01     -5.346484000000000E+01      3.005981000000000E-01      1.457109000000000E+02
5200000000.000000      2.201233000000000E-01     -5.687109000000000E+01      2.989655000000000E-01      1.156914000000000E+02
5220000000.000000      2.178726000000000E-01     -6.025781000000000E+01      2.993622000000000E-01      8.601563000000000E+01
5240000000.000000      2.124023000000000E-01     -6.292773000000000E+01      3.028564000000000E-01      5.644921000000000E+01
5260000000.000000      2.052536000000000E-01     -6.392968000000000E+01      3.074799000000000E-01      2.665820000000000E+01
5280000000.000000      2.019882000000000E-01     -6.367969000000000E+01      3.115234000000000E-01     -2.458252000000000E+00
5300000000.000000      2.043915000000000E-01     -6.398828000000000E+01      3.139648000000000E-01     -3.052051000000000E+01
5320000000.000000      2.080688000000000E-01     -6.580468000000000E+01      3.188629000000000E-01     -5.766992000000000E+01
5340000000.000000      2.081451000000000E-01     -6.858593000000000E+01      3.224792000000000E-01     -8.558985000000000E+01
5360000000.000000      2.041931000000000E-01     -7.159765000000000E+01      3.185272000000000E-01     -1.128984000000000E+02
5380000000.000000      1.993637000000000E-01     -7.299218000000000E+01      3.145752000000000E-01     -1.395000000000000E+02
5400000000.000000      1.976929000000000E-01     -7.322656000000000E+01      3.129883000000000E-01     -1.670938000000000E+02
5420000000.000000      2.047501000000000E-01     -7.294922000000000E+01      3.066254000000000E-01      1.647109000000000E+02
5440000000.000000      2.160034000000000E-01     -7.472656000000000E+01      3.021393000000000E-01      1.356250000000000E+02
5460000000.000000      2.244263000000000E-01     -7.874609000000000E+01      2.923889000000000E-01      1.061211000000000E+02
5480000000.000000      2.241821000000000E-01     -8.385546000000000E+01      2.877502000000000E-01      7.658593000000000E+01
5500000000.000000      2.138519000000000E-01     -8.886719000000000E+01      2.892609000000000E-01      4.689649000000000E+01
5520000000.000000      1.959915000000000E-01     -9.246485000000000E+01      2.905579000000000E-01      1.654101000000000E+01
5540000000.000000      1.788940000000000E-01     -9.362890000000000E+01      2.941742000000000E-01     -1.301758000000000E+01
5560000000.000000      1.662140000000000E-01     -9.331249000000000E+01      2.987061000000000E-01     -4.213672000000000E+01
5580000000.000000      1.577377000000000E-01     -9.185156000000000E+01      3.048248000000000E-01     -7.061328000000000E+01
5600000000.000000      1.516647000000000E-01     -8.981640000000000E+01      3.086243000000000E-01     -9.866796000000000E+01
5620000000.000000      1.494598000000000E-01     -8.579687000000000E+01      3.102112000000000E-01     -1.264101000000000E+02
5640000000.000000      1.544952000000000E-01     -8.055079000000000E+01      3.092346000000000E-01     -1.539844000000000E+02
5660000000.000000      1.725159000000000E-01     -7.747265000000000E+01      3.038177000000000E-01      1.788281000000000E+02
5680000000.000000      1.973572000000000E-01     -7.881640000000000E+01      2.972870000000000E-01      1.511484000000000E+02
5700000000.000000      2.198334000000000E-01     -8.444921000000000E+01      2.867889000000000E-01      1.230859000000000E+02
5720000000.000000      2.307739000000000E-01     -9.271093000000000E+01      2.767944000000000E-01      9.525000000000000E+01
5740000000.000000      2.252579000000000E-01     -1.017344000000000E+02      2.731476000000000E-01      6.657031000000000E+01
5760000000.000000      2.058258000000000E-01     -1.090312000000000E+02      2.690125000000000E-01      3.566211000000000E+01
5780000000.000000      1.807556000000000E-01     -1.120937000000000E+02      2.650604000000000E-01      5.065918000000000E+00
5800000000.000000      1.630249000000000E-01     -1.098242000000000E+02      2.649078000000000E-01     -2.508398000000000E+01
5820000000.000000      1.624527000000000E-01     -1.064101000000000E+02      2.707977000000000E-01     -5.483788000000000E+01
5840000000.000000      1.711121000000000E-01     -1.071758000000000E+02      2.785034000000000E-01     -8.541016000000000E+01
5860000000.000000      1.771927000000000E-01     -1.117969000000000E+02      2.803497000000000E-01     -1.145859000000000E+02
5880000000.000000      1.729507000000000E-01     -1.186094000000000E+02      2.813263000000000E-01     -1.420000000000000E+02
5900000000.000000      1.594925000000000E-01     -1.237930000000000E+02      2.880096000000000E-01     -1.692266000000000E+02
5920000000.000000      1.423416000000000E-01     -1.251328000000000E+02      2.911530000000000E-01      1.625547000000000E+02
5940000000.000000      1.325989000000000E-01     -1.226250000000000E+02      2.857208000000000E-01      1.339688000000000E+02
5960000000.000000      1.290970000000000E-01     -1.216562000000000E+02      2.732697000000000E-01      1.064922000000000E+02
5980000000.000000      1.231003000000000E-01     -1.231641000000000E+02      2.658539000000000E-01      7.909374000000000E+01
6000000000.000000      1.067238000000000E-01     -1.246758000000000E+02      2.613831000000000E-01      4.949023000000000E+01
6020000000.000000      8.366013000000000E-02     -1.194141000000000E+02      2.511749000000000E-01      1.861816000000000E+01
6040000000.000000      7.225800000000000E-02     -1.010976000000000E+02      2.391663000000000E-01     -1.156885000000000E+01
6060000000.000000      8.642578000000000E-02     -8.388672000000000E+01      2.352219000000000E-01     -4.143945000000000E+01
6080000000.000000      1.156769000000000E-01     -8.171875000000000E+01      2.416000000000000E-01     -7.165234000000000E+01
