! Network Analyzer HP8722D
! Hewlett-Packard
! Data name: Linha com CNT
! Saver's name: Rodrigo Anjos
! Comments: Teste de deteccao de acetona 0-100ppm a partir de cilindro
! Time and date: 10/9/2025 17:36
!              Frequency                     S11                                                   S21                                                   S12                                                   S22
# HZ  S  MA R 50
3000000000.000000      4.869232000000000E-01      1.458008000000000E+01      2.251434000000000E-01      3.658984000000000E+01
3020000000.000000      4.940643000000000E-01      1.407031000000000E+01      2.299957000000000E-01      7.029785000000000E+00
3040000000.000000      4.995575000000000E-01      1.317383000000000E+01      2.298355000000000E-01     -2.212012000000000E+01
3060000000.000000      5.041199000000000E-01      1.146240000000000E+01      2.296829000000000E-01     -5.160546000000000E+01
3080000000.000000      5.027771000000000E-01      9.938477000000000E+00      2.256699000000000E-01     -8.047266000000000E+01
3100000000.000000      5.003052000000000E-01      8.478516000000000E+00      2.240753000000000E-01     -1.081328000000000E+02
3120000000.000000      4.985046000000000E-01      7.488525000000000E+00      2.241364000000000E-01     -1.368047000000000E+02
3140000000.000000      4.995422000000000E-01      6.562744000000000E+00      2.210007000000000E-01     -1.654766000000000E+02
3160000000.000000      5.003357000000000E-01      5.512207000000000E+00      2.169876000000000E-01      1.659375000000000E+02
3180000000.000000      4.967804000000000E-01      4.350586000000000E+00      2.111740000000000E-01      1.379141000000000E+02
3200000000.000000      4.877777000000000E-01      3.551270000000000E+00      2.080536000000000E-01      1.096445000000000E+02
3220000000.000000      4.772034000000000E-01      3.265625000000000E+00      1.986618000000000E-01      8.110155000000000E+01
3240000000.000000      4.715271000000000E-01      3.603516000000000E+00      1.923599000000000E-01      5.605859000000000E+01
3260000000.000000      4.710083000000000E-01      4.402588000000000E+00      2.016983000000000E-01      3.027246000000000E+01
3280000000.000000      4.791870000000000E-01      4.942383000000000E+00      2.092819000000000E-01      8.020020000000000E-01
3300000000.000000      4.944916000000000E-01      4.654053000000000E+00      2.125473000000000E-01     -2.794140000000000E+01
3320000000.000000      5.112915000000000E-01      3.455200000000000E+00      2.198334000000000E-01     -5.687695000000000E+01
3340000000.000000      5.222778000000000E-01      1.700134000000000E+00      2.245255000000000E-01     -8.674999000000000E+01
3360000000.000000      5.277405000000000E-01     -3.776550000000000E-01      2.272034000000000E-01     -1.166484000000000E+02
3380000000.000000      5.286255000000000E-01     -1.925354000000000E+00      2.267761000000000E-01     -1.460469000000000E+02
3400000000.000000      5.239563000000000E-01     -3.552734000000000E+00      2.260437000000000E-01     -1.747109000000000E+02
3420000000.000000      5.214233000000000E-01     -4.545654000000000E+00      2.241211000000000E-01      1.559766000000000E+02
3440000000.000000      5.171509000000000E-01     -5.740479000000000E+00      2.201157000000000E-01      1.277070000000000E+02
3460000000.000000      5.121155000000000E-01     -6.692139000000000E+00      2.205734000000000E-01      9.967186000000000E+01
3480000000.000000      5.119629000000000E-01     -7.745361000000000E+00      2.177811000000000E-01      7.066796000000000E+01
3500000000.000000      5.102234000000000E-01     -8.686523000000000E+00      2.154694000000000E-01      4.267383000000000E+01
3520000000.000000      5.108032000000000E-01     -9.489746000000000E+00      2.154541000000000E-01      1.379443000000000E+01
3540000000.000000      5.097656000000000E-01     -1.059375000000000E+01      2.114868000000000E-01     -1.488281000000000E+01
3560000000.000000      5.091858000000000E-01     -1.125586000000000E+01      2.124557000000000E-01     -4.285156000000000E+01
3580000000.000000      5.071411000000000E-01     -1.200537000000000E+01      2.121964000000000E-01     -7.152344000000000E+01
3600000000.000000      5.069275000000000E-01     -1.243799000000000E+01      2.120285000000000E-01     -9.890234000000000E+01
3620000000.000000      5.071106000000000E-01     -1.322510000000000E+01      2.169876000000000E-01     -1.272617000000000E+02
3640000000.000000      5.085144000000000E-01     -1.403809000000000E+01      2.178345000000000E-01     -1.558828000000000E+02
3660000000.000000      5.099487000000000E-01     -1.538232000000000E+01      2.195053000000000E-01      1.758437000000000E+02
3680000000.000000      5.124512000000000E-01     -1.670508000000000E+01      2.177124000000000E-01      1.473359000000000E+02
3700000000.000000      5.091553000000000E-01     -1.802344000000000E+01      2.152786000000000E-01      1.200664000000000E+02
3720000000.000000      5.029297000000000E-01     -1.888281000000000E+01      2.177582000000000E-01      9.176172000000000E+01
3740000000.000000      5.035095000000000E-01     -1.912598000000000E+01      2.129593000000000E-01      6.342382000000000E+01
3760000000.000000      5.045776000000000E-01     -1.950293000000000E+01      2.127380000000000E-01      3.640429000000000E+01
3780000000.000000      5.079041000000000E-01     -2.009277000000000E+01      2.149963000000000E-01      7.743896000000000E+00
3800000000.000000      5.130920000000000E-01     -2.147559000000000E+01      2.133102000000000E-01     -2.151074000000000E+01
3820000000.000000      5.126648000000000E-01     -2.320801000000000E+01      2.116165000000000E-01     -5.005859000000000E+01
3840000000.000000      5.089722000000000E-01     -2.455175000000000E+01      2.111816000000000E-01     -7.851171000000000E+01
3860000000.000000      5.049744000000000E-01     -2.543652000000000E+01      2.118607000000000E-01     -1.076133000000000E+02
3880000000.000000      5.028076000000000E-01     -2.594629000000000E+01      2.093353000000000E-01     -1.365313000000000E+02
3900000000.000000      5.061340000000000E-01     -2.673730000000000E+01      2.087708000000000E-01     -1.638828000000000E+02
3920000000.000000      5.112915000000000E-01     -2.765722000000000E+01      2.112274000000000E-01      1.674687000000000E+02
3940000000.000000      5.121155000000000E-01     -2.912500000000000E+01      2.107239000000000E-01      1.389844000000000E+02
3960000000.000000      5.065308000000000E-01     -3.051367000000000E+01      2.107773000000000E-01      1.105976000000000E+02
3980000000.000000      4.988861000000000E-01     -3.136230000000000E+01      2.051315000000000E-01      8.208202000000000E+01
4000000000.000000      4.938354000000000E-01     -3.155762000000000E+01      2.025299000000000E-01      5.683594000000000E+01
4020000000.000000      4.958801000000000E-01     -3.160547000000000E+01      2.104645000000000E-01      2.891113000000000E+01
4040000000.000000      5.071106000000000E-01     -3.204102000000000E+01      2.108383000000000E-01     -1.533997000000000E+00
4060000000.000000      5.190735000000000E-01     -3.343164000000000E+01      2.070694000000000E-01     -3.030664000000000E+01
4080000000.000000      5.266113000000000E-01     -3.585156000000000E+01      2.069016000000000E-01     -5.935547000000000E+01
4100000000.000000      5.238342000000000E-01     -3.860352000000000E+01      2.070923000000000E-01     -8.868750000000000E+01
4120000000.000000      5.127869000000000E-01     -4.034375000000000E+01      2.038879000000000E-01     -1.190000000000000E+02
4140000000.000000      5.018921000000000E-01     -4.132617000000000E+01      1.960373000000000E-01     -1.473281000000000E+02
4160000000.000000      4.999237000000000E-01     -4.191406000000000E+01      1.985016000000000E-01     -1.738594000000000E+02
4180000000.000000      4.959869000000000E-01     -4.245703000000000E+01      2.034607000000000E-01      1.570313000000000E+02
4200000000.000000      4.957733000000000E-01     -4.352344000000000E+01      2.005692000000000E-01      1.285156000000000E+02
4220000000.000000      4.957123000000000E-01     -4.454297000000000E+01      2.024918000000000E-01      1.004336000000000E+02
4240000000.000000      4.897766000000000E-01     -4.552148000000000E+01      1.988983000000000E-01      7.132813000000000E+01
4260000000.000000      4.873810000000000E-01     -4.603711000000000E+01      1.936264000000000E-01      4.435547000000000E+01
4280000000.000000      4.858093000000000E-01     -4.611328000000000E+01      1.953888000000000E-01      1.706543000000000E+01
4300000000.000000      4.884796000000000E-01     -4.651757000000000E+01      1.944275000000000E-01     -1.158105000000000E+01
4320000000.000000      4.944458000000000E-01     -4.748828000000000E+01      1.951599000000000E-01     -4.047656000000000E+01
4340000000.000000      4.990387000000000E-01     -4.923633000000000E+01      1.951294000000000E-01     -6.984765000000000E+01
4360000000.000000      4.991913000000000E-01     -5.071875000000000E+01      1.952972000000000E-01     -9.992968000000000E+01
4380000000.000000      4.959564000000000E-01     -5.191015000000000E+01      1.927338000000000E-01     -1.300469000000000E+02
4400000000.000000      4.942780000000000E-01     -5.270117000000000E+01      1.916580000000000E-01     -1.587188000000000E+02
4420000000.000000      4.959717000000000E-01     -5.330859000000000E+01      1.957321000000000E-01      1.723672000000000E+02
4440000000.000000      5.003967000000000E-01     -5.432422000000000E+01      1.970291000000000E-01      1.425234000000000E+02
4460000000.000000      5.030212000000000E-01     -5.593554000000000E+01      1.964264000000000E-01      1.133437000000000E+02
4480000000.000000      4.995270000000000E-01     -5.762500000000000E+01      1.950302000000000E-01      8.446093000000000E+01
4500000000.000000      4.920197000000000E-01     -5.905859000000000E+01      1.918335000000000E-01      5.654882000000000E+01
4520000000.000000      4.853058000000000E-01     -5.958202000000000E+01      1.892929000000000E-01      2.824902000000000E+01
4540000000.000000      4.841461000000000E-01     -6.001953000000000E+01      1.843872000000000E-01      2.568054000000000E-01
4560000000.000000      4.878693000000000E-01     -6.049218000000000E+01      1.842880000000000E-01     -2.712011000000000E+01
4580000000.000000      4.980774000000000E-01     -6.133203000000000E+01      1.851883000000000E-01     -5.723242000000000E+01
4600000000.000000      5.034790000000000E-01     -6.255077000000000E+01      1.829453000000000E-01     -8.751171000000000E+01
4620000000.000000      5.046997000000000E-01     -6.400391000000000E+01      1.827927000000000E-01     -1.186406000000000E+02
4640000000.000000      5.060730000000000E-01     -6.521093000000000E+01      1.794357000000000E-01     -1.499531000000000E+02
4660000000.000000      5.066528000000000E-01     -6.636719000000000E+01      1.797638000000000E-01     -1.790859000000000E+02
4680000000.000000      5.106201000000000E-01     -6.743750000000000E+01      1.853104000000000E-01      1.505938000000000E+02
4700000000.000000      5.178223000000000E-01     -6.886719000000000E+01      1.870728000000000E-01      1.207383000000000E+02
4720000000.000000      5.173035000000000E-01     -7.063671000000000E+01      1.903152000000000E-01      9.203516000000000E+01
4740000000.000000      5.216064000000000E-01     -7.256249000000000E+01      1.942978000000000E-01      6.357422000000000E+01
4760000000.000000      5.231018000000000E-01     -7.471874000000000E+01      1.929169000000000E-01      3.545312000000000E+01
4780000000.000000      5.198059000000000E-01     -7.674609000000000E+01      1.898575000000000E-01      7.294922000000000E+00
4800000000.000000      5.158691000000000E-01     -7.905859000000000E+01      1.832275000000000E-01     -2.043652000000000E+01
4820000000.000000      5.091248000000000E-01     -8.085546000000000E+01      1.735840000000000E-01     -4.811328000000000E+01
4840000000.000000      4.923706000000000E-01     -8.287500000000000E+01      1.636734000000000E-01     -7.527344000000000E+01
4860000000.000000      4.762268000000000E-01     -8.394922000000000E+01      1.555023000000000E-01     -1.038437000000000E+02
4880000000.000000      4.575958000000000E-01     -8.384375000000000E+01      1.419525000000000E-01     -1.333672000000000E+02
4900000000.000000      4.472504000000000E-01     -8.282812000000000E+01      1.287689000000000E-01     -1.589375000000000E+02
4920000000.000000      4.472046000000000E-01     -8.140234000000000E+01      1.332932000000000E-01      1.766094000000000E+02
4940000000.000000      4.588928000000000E-01     -8.020311000000000E+01      1.457901000000000E-01      1.461562000000000E+02
4960000000.000000      4.809570000000000E-01     -8.017187000000000E+01      1.537323000000000E-01      1.141523000000000E+02
4980000000.000000      5.017395000000000E-01     -8.208593000000000E+01      1.634903000000000E-01      8.416016000000000E+01
5000000000.000000      5.124512000000000E-01     -8.491405000000000E+01      1.738510000000000E-01      5.415820000000000E+01
5020000000.000000      5.120850000000000E-01     -8.764452000000000E+01      1.801147000000000E-01      2.434765000000000E+01
5040000000.000000      5.037231000000000E-01     -8.989843000000000E+01      1.815491000000000E-01     -2.320923000000000E+00
5060000000.000000      4.941864000000000E-01     -9.126562000000000E+01      1.872787000000000E-01     -2.754980000000000E+01
5080000000.000000      4.875488000000000E-01     -9.187109000000000E+01      1.927872000000000E-01     -5.465038000000000E+01
5100000000.000000      4.863739000000000E-01     -9.255859000000000E+01      1.908875000000000E-01     -8.149218000000000E+01
5120000000.000000      4.874268000000000E-01     -9.328905000000000E+01      1.897049000000000E-01     -1.081836000000000E+02
5140000000.000000      4.895935000000000E-01     -9.410547000000000E+01      1.856232000000000E-01     -1.365937000000000E+02
5160000000.000000      4.920349000000000E-01     -9.514452000000000E+01      1.799164000000000E-01     -1.653359000000000E+02
5180000000.000000      4.976501000000000E-01     -9.613281000000000E+01      1.756592000000000E-01      1.645859000000000E+02
5200000000.000000      5.034485000000000E-01     -9.732811000000000E+01      1.717987000000000E-01      1.338984000000000E+02
5220000000.000000      5.076599000000000E-01     -9.880468000000000E+01      1.720734000000000E-01      1.030976000000000E+02
5240000000.000000      5.102539000000000E-01     -1.003516000000000E+02      1.747665000000000E-01      7.167578000000000E+01
5260000000.000000      5.092163000000000E-01     -1.019609000000000E+02      1.785660000000000E-01      4.090234000000000E+01
5280000000.000000      5.057678000000000E-01     -1.031953000000000E+02      1.836090000000000E-01      1.089258000000000E+01
5300000000.000000      5.028992000000000E-01     -1.043281000000000E+02      1.873169000000000E-01     -1.642383000000000E+01
5320000000.000000      5.020447000000000E-01     -1.054140000000000E+02      1.956253000000000E-01     -4.310937000000000E+01
5340000000.000000      5.025330000000000E-01     -1.066640000000000E+02      1.999359000000000E-01     -7.041406000000000E+01
5360000000.000000      5.024719000000000E-01     -1.080664000000000E+02      1.999130000000000E-01     -9.649218000000000E+01
5380000000.000000      5.043030000000000E-01     -1.092578000000000E+02      1.987152000000000E-01     -1.229531000000000E+02
5400000000.000000      5.049438000000000E-01     -1.104336000000000E+02      1.922913000000000E-01     -1.494531000000000E+02
5420000000.000000      5.063171000000000E-01     -1.110390000000000E+02      1.871414000000000E-01     -1.762812000000000E+02
5440000000.000000      5.111084000000000E-01     -1.117148000000000E+02      1.811218000000000E-01      1.547969000000000E+02
5460000000.000000      5.178833000000000E-01     -1.127930000000000E+02      1.712494000000000E-01      1.255391000000000E+02
5480000000.000000      5.235901000000000E-01     -1.144336000000000E+02      1.668777000000000E-01      9.458984000000000E+01
5500000000.000000      5.261841000000000E-01     -1.165820000000000E+02      1.656952000000000E-01      6.248241000000000E+01
5520000000.000000      5.227356000000000E-01     -1.186914000000000E+02      1.657410000000000E-01      3.017578000000000E+01
5540000000.000000      5.183716000000000E-01     -1.206914000000000E+02      1.671906000000000E-01     -1.370544000000000E+00
5560000000.000000      5.120239000000000E-01     -1.224883000000000E+02      1.716537000000000E-01     -2.986035000000000E+01
5580000000.000000      5.042419000000000E-01     -1.239414000000000E+02      1.812286000000000E-01     -5.842578000000000E+01
5600000000.000000      5.007935000000000E-01     -1.249570000000000E+02      1.870270000000000E-01     -8.576952000000000E+01
5620000000.000000      4.949799000000000E-01     -1.258984000000000E+02      1.920471000000000E-01     -1.116953000000000E+02
5640000000.000000      4.918213000000000E-01     -1.263515000000000E+02      1.935883000000000E-01     -1.379531000000000E+02
5660000000.000000      4.900665000000000E-01     -1.264922000000000E+02      1.904602000000000E-01     -1.633906000000000E+02
5680000000.000000      4.934998000000000E-01     -1.269844000000000E+02      1.866074000000000E-01      1.705234000000000E+02
5700000000.000000      5.014038000000000E-01     -1.276094000000000E+02      1.790924000000000E-01      1.441562000000000E+02
5720000000.000000      5.113220000000000E-01     -1.289063000000000E+02      1.709824000000000E-01      1.167851000000000E+02
5740000000.000000      5.201416000000000E-01     -1.311953000000000E+02      1.629486000000000E-01      8.671875000000000E+01
5760000000.000000      5.206299000000000E-01     -1.338672000000000E+02      1.535492000000000E-01      5.414844000000000E+01
5780000000.000000      5.135498000000000E-01     -1.362500000000000E+02      1.448135000000000E-01      2.095996000000000E+01
5800000000.000000      5.011597000000000E-01     -1.378438000000000E+02      1.412964000000000E-01     -1.083008000000000E+01
5820000000.000000      4.931793000000000E-01     -1.385391000000000E+02      1.478119000000000E-01     -4.226171000000000E+01
5840000000.000000      4.920807000000000E-01     -1.393906000000000E+02      1.581955000000000E-01     -7.441015000000000E+01
5860000000.000000      4.960632000000000E-01     -1.401484000000000E+02      1.662903000000000E-01     -1.036875000000000E+02
5880000000.000000      5.010376000000000E-01     -1.418281000000000E+02      1.744690000000000E-01     -1.317578000000000E+02
5900000000.000000      5.031433000000000E-01     -1.436016000000000E+02      1.801071000000000E-01     -1.585781000000000E+02
5920000000.000000      5.013123000000000E-01     -1.453906000000000E+02      1.837616000000000E-01      1.753828000000000E+02
5940000000.000000      4.983673000000000E-01     -1.468359000000000E+02      1.797180000000000E-01      1.491172000000000E+02
5960000000.000000      4.947815000000000E-01     -1.481562000000000E+02      1.713562000000000E-01      1.246133000000000E+02
5980000000.000000      4.903107000000000E-01     -1.496875000000000E+02      1.651154000000000E-01      9.866014000000000E+01
6000000000.000000      4.834595000000000E-01     -1.514766000000000E+02      1.544037000000000E-01      7.038280000000000E+01
6020000000.000000      4.699554000000000E-01     -1.530703000000000E+02      1.410370000000000E-01      4.080859000000000E+01
6040000000.000000      4.570313000000000E-01     -1.542187000000000E+02      1.256943000000000E-01      1.057959000000000E+01
6060000000.000000      4.469147000000000E-01     -1.549609000000000E+02      1.175461000000000E-01     -1.950000000000000E+01
6080000000.000000      4.407654000000000E-01     -1.547422000000000E+02      1.212349000000000E-01     -5.176367000000000E+01
