! Network Analyzer HP8722D
! Hewlett-Packard
! Data name: Linha com CNT
! Saver's name: Rodrigo Anjos
! Comments: Teste de deteccao de acetona 0-100ppm a partir de cilindro
! Time and date: 10/9/2025 16:36
!              Frequency                     S11                                                   S21                                                   S12                                                   S22
# HZ  S  MA R 50
3000000000.000000      4.652863000000000E-01      1.515820000000000E+01      2.360535000000000E-01      3.503320000000000E+01
3020000000.000000      4.715271000000000E-01      1.464990000000000E+01      2.402420000000000E-01      5.480713000000000E+00
3040000000.000000      4.795532000000000E-01      1.368457000000000E+01      2.406464000000000E-01     -2.360156000000000E+01
3060000000.000000      4.841919000000000E-01      1.187061000000000E+01      2.401962000000000E-01     -5.302148000000000E+01
3080000000.000000      4.826813000000000E-01      1.007813000000000E+01      2.360458000000000E-01     -8.212109000000000E+01
3100000000.000000      4.797821000000000E-01      8.740723000000000E+00      2.343445000000000E-01     -1.096172000000000E+02
3120000000.000000      4.777527000000000E-01      7.793213000000000E+00      2.345123000000000E-01     -1.383125000000000E+02
3140000000.000000      4.783478000000000E-01      6.851318000000000E+00      2.310944000000000E-01     -1.670156000000000E+02
3160000000.000000      4.792175000000000E-01      5.803467000000000E+00      2.272491000000000E-01      1.643047000000000E+02
3180000000.000000      4.741516000000000E-01      4.618164000000000E+00      2.212067000000000E-01      1.364609000000000E+02
3200000000.000000      4.647064000000000E-01      3.861694000000000E+00      2.177429000000000E-01      1.080625000000000E+02
3220000000.000000      4.544830000000000E-01      3.699585000000000E+00      2.083054000000000E-01      7.947266000000000E+01
3240000000.000000      4.482880000000000E-01      4.317627000000000E+00      2.016602000000000E-01      5.421288000000000E+01
3260000000.000000      4.486389000000000E-01      5.394287000000000E+00      2.110062000000000E-01      2.855273000000000E+01
3280000000.000000      4.578705000000000E-01      6.060303000000000E+00      2.188416000000000E-01     -1.083557000000000E+00
3300000000.000000      4.754791000000000E-01      5.807617000000000E+00      2.221222000000000E-01     -2.993652000000000E+01
3320000000.000000      4.926910000000000E-01      4.461670000000000E+00      2.296524000000000E-01     -5.868359000000000E+01
3340000000.000000      5.047607000000000E-01      2.473267000000000E+00      2.339706000000000E-01     -8.844530000000000E+01
3360000000.000000      5.095825000000000E-01      2.705383000000000E-01      2.363815000000000E-01     -1.183398000000000E+02
3380000000.000000      5.092773000000000E-01     -1.343079000000000E+00      2.360382000000000E-01     -1.476719000000000E+02
3400000000.000000      5.052795000000000E-01     -2.993774000000000E+00      2.356644000000000E-01     -1.764219000000000E+02
3420000000.000000      5.019836000000000E-01     -4.064941000000000E+00      2.337723000000000E-01      1.542891000000000E+02
3440000000.000000      4.971619000000000E-01     -5.277588000000000E+00      2.291946000000000E-01      1.261641000000000E+02
3460000000.000000      4.935608000000000E-01     -6.375000000000000E+00      2.302322000000000E-01      9.808594000000000E+01
3480000000.000000      4.918060000000000E-01     -7.408936000000000E+00      2.272797000000000E-01      6.891406000000000E+01
3500000000.000000      4.906006000000000E-01     -8.159180000000000E+00      2.246475000000000E-01      4.097265000000000E+01
3520000000.000000      4.901123000000000E-01     -9.202637000000000E+00      2.251663000000000E-01      1.185547000000000E+01
3540000000.000000      4.892883000000000E-01     -1.006250000000000E+01      2.209854000000000E-01     -1.640137000000000E+01
3560000000.000000      4.885101000000000E-01     -1.073242000000000E+01      2.218704000000000E-01     -4.453321000000000E+01
3580000000.000000      4.858093000000000E-01     -1.136719000000000E+01      2.215805000000000E-01     -7.327343000000000E+01
3600000000.000000      4.843597000000000E-01     -1.199463000000000E+01      2.218323000000000E-01     -1.006484000000000E+02
3620000000.000000      4.861603000000000E-01     -1.250391000000000E+01      2.261276000000000E-01     -1.290156000000000E+02
3640000000.000000      4.886627000000000E-01     -1.329932000000000E+01      2.273407000000000E-01     -1.577031000000000E+02
3660000000.000000      4.906769000000000E-01     -1.475195000000000E+01      2.288666000000000E-01      1.740937000000000E+02
3680000000.000000      4.913483000000000E-01     -1.612597000000000E+01      2.270126000000000E-01      1.454609000000000E+02
3700000000.000000      4.876862000000000E-01     -1.742383000000000E+01      2.253036000000000E-01      1.183594000000000E+02
3720000000.000000      4.827728000000000E-01     -1.831445000000000E+01      2.270813000000000E-01      8.989452000000000E+01
3740000000.000000      4.820099000000000E-01     -1.858203000000000E+01      2.221298000000000E-01      6.167969000000000E+01
3760000000.000000      4.841614000000000E-01     -1.868945000000000E+01      2.219391000000000E-01      3.467187000000000E+01
3780000000.000000      4.880981000000000E-01     -1.941699000000000E+01      2.240219000000000E-01      5.946289000000000E+00
3800000000.000000      4.941406000000000E-01     -2.073340000000000E+01      2.228241000000000E-01     -2.309961000000000E+01
3820000000.000000      4.923096000000000E-01     -2.254199000000000E+01      2.206039000000000E-01     -5.182031000000000E+01
3840000000.000000      4.883270000000000E-01     -2.390234000000000E+01      2.198868000000000E-01     -8.033594000000000E+01
3860000000.000000      4.845886000000000E-01     -2.480859000000000E+01      2.208023000000000E-01     -1.094023000000000E+02
3880000000.000000      4.830017000000000E-01     -2.523242000000000E+01      2.181625000000000E-01     -1.384063000000000E+02
3900000000.000000      4.868622000000000E-01     -2.585449000000000E+01      2.173767000000000E-01     -1.658359000000000E+02
3920000000.000000      4.916534000000000E-01     -2.699804000000000E+01      2.203903000000000E-01      1.656641000000000E+02
3940000000.000000      4.922180000000000E-01     -2.852636000000000E+01      2.190781000000000E-01      1.371484000000000E+02
3960000000.000000      4.863281000000000E-01     -2.989453000000000E+01      2.191925000000000E-01      1.088633000000000E+02
3980000000.000000      4.782715000000000E-01     -3.066211000000000E+01      2.135696000000000E-01      8.035547000000000E+01
4000000000.000000      4.732819000000000E-01     -3.074609000000000E+01      2.105865000000000E-01      5.483788000000000E+01
4020000000.000000      4.753723000000000E-01     -3.074121000000000E+01      2.192154000000000E-01      2.692578000000000E+01
4040000000.000000      4.878082000000000E-01     -3.113672000000000E+01      2.192993000000000E-01     -3.681885000000000E+00
4060000000.000000      5.022278000000000E-01     -3.270898000000000E+01      2.154083000000000E-01     -3.235937000000000E+01
4080000000.000000      5.101624000000000E-01     -3.530859000000000E+01      2.151337000000000E-01     -6.113281000000000E+01
4100000000.000000      5.055542000000000E-01     -3.816406000000000E+01      2.152863000000000E-01     -9.060938000000000E+01
4120000000.000000      4.924469000000000E-01     -3.987500000000000E+01      2.127380000000000E-01     -1.210273000000000E+02
4140000000.000000      4.809875000000000E-01     -4.073632000000000E+01      2.045364000000000E-01     -1.492188000000000E+02
4160000000.000000      4.758911000000000E-01     -4.128320000000000E+01      2.068329000000000E-01     -1.756094000000000E+02
4180000000.000000      4.745331000000000E-01     -4.175195000000000E+01      2.115173000000000E-01      1.550703000000000E+02
4200000000.000000      4.744415000000000E-01     -4.278516000000000E+01      2.089767000000000E-01      1.264258000000000E+02
4220000000.000000      4.741821000000000E-01     -4.380664000000000E+01      2.106628000000000E-01      9.852343000000000E+01
4240000000.000000      4.687347000000000E-01     -4.475586000000000E+01      2.068405000000000E-01      6.936328000000000E+01
4260000000.000000      4.665833000000000E-01     -4.530859000000000E+01      2.014008000000000E-01      4.238477000000000E+01
4280000000.000000      4.663086000000000E-01     -4.519531000000000E+01      2.037506000000000E-01      1.496436000000000E+01
4300000000.000000      4.691467000000000E-01     -4.550195000000000E+01      2.026825000000000E-01     -1.374023000000000E+01
4320000000.000000      4.751434000000000E-01     -4.639844000000000E+01      2.027283000000000E-01     -4.261328000000000E+01
4340000000.000000      4.790649000000000E-01     -4.820898000000000E+01      2.030334000000000E-01     -7.204296000000000E+01
4360000000.000000      4.795074000000000E-01     -4.978906000000000E+01      2.029953000000000E-01     -1.019844000000000E+02
4380000000.000000      4.755707000000000E-01     -5.093750000000000E+01      2.011185000000000E-01     -1.321328000000000E+02
4400000000.000000      4.738312000000000E-01     -5.164648000000000E+01      1.993408000000000E-01     -1.608594000000000E+02
4420000000.000000      4.759979000000000E-01     -5.236133000000000E+01      2.033539000000000E-01      1.702578000000000E+02
4440000000.000000      4.800873000000000E-01     -5.350780000000000E+01      2.045059000000000E-01      1.405703000000000E+02
4460000000.000000      4.843292000000000E-01     -5.497656000000000E+01      2.038269000000000E-01      1.112734000000000E+02
4480000000.000000      4.803009000000000E-01     -5.670507000000000E+01      2.023544000000000E-01      8.230860000000000E+01
4500000000.000000      4.703369000000000E-01     -5.786523000000000E+01      1.994781000000000E-01      5.447656000000000E+01
4520000000.000000      4.660187000000000E-01     -5.863476000000000E+01      1.962662000000000E-01      2.623340000000000E+01
4540000000.000000      4.640808000000000E-01     -5.888281000000000E+01      1.912842000000000E-01     -1.937744000000000E+00
4560000000.000000      4.688721000000000E-01     -5.917578000000000E+01      1.907654000000000E-01     -2.950293000000000E+01
4580000000.000000      4.793549000000000E-01     -6.022655000000000E+01      1.920700000000000E-01     -5.965820000000000E+01
4600000000.000000      4.845123000000000E-01     -6.150000000000000E+01      1.894684000000000E-01     -8.971483000000000E+01
4620000000.000000      4.877930000000000E-01     -6.299609000000000E+01      1.899185000000000E-01     -1.209219000000000E+02
4640000000.000000      4.890137000000000E-01     -6.423437000000000E+01      1.863937000000000E-01     -1.519375000000000E+02
4660000000.000000      4.912109000000000E-01     -6.515234000000000E+01      1.865692000000000E-01      1.788750000000000E+02
4680000000.000000      4.937744000000000E-01     -6.658203000000000E+01      1.924210000000000E-01      1.486406000000000E+02
4700000000.000000      4.994659000000000E-01     -6.805078000000000E+01      1.938858000000000E-01      1.188281000000000E+02
4720000000.000000      5.032043000000000E-01     -6.982422000000000E+01      1.971664000000000E-01      9.031250000000000E+01
4740000000.000000      5.052185000000000E-01     -7.209374000000000E+01      2.001877000000000E-01      6.158203000000000E+01
4760000000.000000      5.031128000000000E-01     -7.407812000000000E+01      1.996994000000000E-01      3.348828000000000E+01
4780000000.000000      5.013733000000000E-01     -7.611328000000000E+01      1.961975000000000E-01      5.304932000000000E+00
4800000000.000000      4.957581000000000E-01     -7.853125000000000E+01      1.891098000000000E-01     -2.249512000000000E+01
4820000000.000000      4.875336000000000E-01     -8.065624000000000E+01      1.793594000000000E-01     -5.012109000000000E+01
4840000000.000000      4.701691000000000E-01     -8.250000000000000E+01      1.694870000000000E-01     -7.738281000000000E+01
4860000000.000000      4.522705000000000E-01     -8.341015000000000E+01      1.616821000000000E-01     -1.064453000000000E+02
4880000000.000000      4.335327000000000E-01     -8.289843000000000E+01      1.478806000000000E-01     -1.360469000000000E+02
4900000000.000000      4.243317000000000E-01     -8.149609000000000E+01      1.346893000000000E-01     -1.615234000000000E+02
4920000000.000000      4.261322000000000E-01     -7.971874000000000E+01      1.389236000000000E-01      1.736797000000000E+02
4940000000.000000      4.406433000000000E-01     -7.840234000000000E+01      1.519165000000000E-01      1.435000000000000E+02
4960000000.000000      4.646454000000000E-01     -7.866405000000000E+01      1.597519000000000E-01      1.118476000000000E+02
4980000000.000000      4.857635000000000E-01     -8.078125000000000E+01      1.693954000000000E-01      8.196875000000000E+01
5000000000.000000      4.963226000000000E-01     -8.387499000000000E+01      1.804123000000000E-01      5.199413000000000E+01
5020000000.000000      4.947968000000000E-01     -8.691015000000000E+01      1.860962000000000E-01      2.255566000000000E+01
5040000000.000000      4.840698000000000E-01     -8.901562000000000E+01      1.876984000000000E-01     -4.249023000000000E+00
5060000000.000000      4.740906000000000E-01     -9.022264000000000E+01      1.931152000000000E-01     -2.951953000000000E+01
5080000000.000000      4.677734000000000E-01     -9.089453000000000E+01      1.986389000000000E-01     -5.665039000000000E+01
5100000000.000000      4.675293000000000E-01     -9.131250000000000E+01      1.962509000000000E-01     -8.392187000000000E+01
5120000000.000000      4.689026000000000E-01     -9.231640000000000E+01      1.952515000000000E-01     -1.106094000000000E+02
5140000000.000000      4.716187000000000E-01     -9.306641000000000E+01      1.911926000000000E-01     -1.390547000000000E+02
5160000000.000000      4.744263000000000E-01     -9.412889000000000E+01      1.860123000000000E-01     -1.677578000000000E+02
5180000000.000000      4.802094000000000E-01     -9.498827000000000E+01      1.817093000000000E-01      1.620312000000000E+02
5200000000.000000      4.854126000000000E-01     -9.631248000000000E+01      1.778641000000000E-01      1.313047000000000E+02
5220000000.000000      4.893799000000000E-01     -9.785156000000000E+01      1.782761000000000E-01      1.007617000000000E+02
5240000000.000000      4.916077000000000E-01     -9.941795000000000E+01      1.811981000000000E-01      6.932812000000000E+01
5260000000.000000      4.905548000000000E-01     -1.010234000000000E+02      1.855621000000000E-01      3.873632000000000E+01
5280000000.000000      4.871368000000000E-01     -1.024375000000000E+02      1.901703000000000E-01      8.871094000000000E+00
5300000000.000000      4.846649000000000E-01     -1.034570000000000E+02      1.936493000000000E-01     -1.844141000000000E+01
5320000000.000000      4.841766000000000E-01     -1.045976000000000E+02      2.021484000000000E-01     -4.506249000000000E+01
5340000000.000000      4.834595000000000E-01     -1.057227000000000E+02      2.057648000000000E-01     -7.252734000000000E+01
5360000000.000000      4.855957000000000E-01     -1.071133000000000E+02      2.057114000000000E-01     -9.866014000000000E+01
5380000000.000000      4.865417000000000E-01     -1.083711000000000E+02      2.041092000000000E-01     -1.252148000000000E+02
5400000000.000000      4.845581000000000E-01     -1.094336000000000E+02      1.977158000000000E-01     -1.518750000000000E+02
5420000000.000000      4.878693000000000E-01     -1.100820000000000E+02      1.927719000000000E-01     -1.787188000000000E+02
5440000000.000000      4.928131000000000E-01     -1.107539000000000E+02      1.861877000000000E-01      1.522031000000000E+02
5460000000.000000      4.996796000000000E-01     -1.119570000000000E+02      1.766434000000000E-01      1.225898000000000E+02
5480000000.000000      5.054932000000000E-01     -1.135586000000000E+02      1.728134000000000E-01      9.199999000000000E+01
5500000000.000000      5.078430000000000E-01     -1.159219000000000E+02      1.710663000000000E-01      6.008203000000000E+01
5520000000.000000      5.042419000000000E-01     -1.180664000000000E+02      1.718216000000000E-01      2.793262000000000E+01
5540000000.000000      4.989929000000000E-01     -1.199726000000000E+02      1.734772000000000E-01     -3.335815000000000E+00
5560000000.000000      4.920959000000000E-01     -1.217109000000000E+02      1.783295000000000E-01     -3.185156000000000E+01
5580000000.000000      4.849548000000000E-01     -1.230898000000000E+02      1.878510000000000E-01     -6.030078000000000E+01
5600000000.000000      4.801178000000000E-01     -1.240469000000000E+02      1.931915000000000E-01     -8.779688000000000E+01
5620000000.000000      4.752045000000000E-01     -1.248867000000000E+02      1.977539000000000E-01     -1.137461000000000E+02
5640000000.000000      4.718628000000000E-01     -1.254883000000000E+02      1.985168000000000E-01     -1.401797000000000E+02
5660000000.000000      4.702911000000000E-01     -1.255430000000000E+02      1.955948000000000E-01     -1.656406000000000E+02
5680000000.000000      4.741974000000000E-01     -1.257578000000000E+02      1.912994000000000E-01      1.682344000000000E+02
5700000000.000000      4.837036000000000E-01     -1.265078000000000E+02      1.830139000000000E-01      1.417266000000000E+02
5720000000.000000      4.943085000000000E-01     -1.278984000000000E+02      1.753693000000000E-01      1.141758000000000E+02
5740000000.000000      5.018311000000000E-01     -1.303984000000000E+02      1.678314000000000E-01      8.397655000000000E+01
5760000000.000000      5.018616000000000E-01     -1.332031000000000E+02      1.584244000000000E-01      5.149414000000000E+01
5780000000.000000      4.938660000000000E-01     -1.356250000000000E+02      1.510239000000000E-01      1.837012000000000E+01
5800000000.000000      4.817200000000000E-01     -1.371641000000000E+02      1.472397000000000E-01     -1.340332000000000E+01
5820000000.000000      4.741821000000000E-01     -1.378359000000000E+02      1.542969000000000E-01     -4.437500000000000E+01
5840000000.000000      4.738922000000000E-01     -1.386016000000000E+02      1.641617000000000E-01     -7.619922000000000E+01
5860000000.000000      4.785156000000000E-01     -1.394609000000000E+02      1.718597000000000E-01     -1.055508000000000E+02
5880000000.000000      4.838257000000000E-01     -1.411719000000000E+02      1.799469000000000E-01     -1.336875000000000E+02
5900000000.000000      4.849854000000000E-01     -1.430391000000000E+02      1.851959000000000E-01     -1.602578000000000E+02
5920000000.000000      4.820709000000000E-01     -1.448672000000000E+02      1.876602000000000E-01      1.737109000000000E+02
5940000000.000000      4.786530000000000E-01     -1.461797000000000E+02      1.842194000000000E-01      1.469141000000000E+02
5960000000.000000      4.750671000000000E-01     -1.475781000000000E+02      1.759567000000000E-01      1.223203000000000E+02
5980000000.000000      4.705963000000000E-01     -1.490078000000000E+02      1.695251000000000E-01      9.635546000000000E+01
6000000000.000000      4.618988000000000E-01     -1.509297000000000E+02      1.587601000000000E-01      6.758594000000000E+01
6020000000.000000      4.494476000000000E-01     -1.525156000000000E+02      1.456223000000000E-01      3.790039000000000E+01
6040000000.000000      4.355011000000000E-01     -1.536797000000000E+02      1.299362000000000E-01      7.488525000000000E+00
6060000000.000000      4.252625000000000E-01     -1.540781000000000E+02      1.221313000000000E-01     -2.258105000000000E+01
6080000000.000000      4.208527000000000E-01     -1.536797000000000E+02      1.268768000000000E-01     -5.477148000000000E+01
