! Network Analyzer HP8722D
! Hewlett-Packard
! Data name: Linha com CNT
! Saver's name: Rodrigo Anjos
! Comments: Teste de deteccao de acetona 0-100ppm a partir de cilindro
! Time and date: 10/9/2025 17:38
!              Frequency                     S11                                                   S21                                                   S12                                                   S22
# HZ  S  MA R 50
3000000000.000000      4.987488000000000E-01      1.436865000000000E+01      2.194443000000000E-01      3.736719000000000E+01
3020000000.000000      5.067139000000000E-01      1.379736000000000E+01      2.235413000000000E-01      7.794678000000000E+00
3040000000.000000      5.108643000000000E-01      1.283057000000000E+01      2.238007000000000E-01     -2.146387000000000E+01
3060000000.000000      5.165710000000000E-01      1.140625000000000E+01      2.240219000000000E-01     -5.077343000000000E+01
3080000000.000000      5.136719000000000E-01      9.706055000000000E+00      2.191772000000000E-01     -7.974999000000000E+01
3100000000.000000      5.129700000000000E-01      8.084473000000000E+00      2.180405000000000E-01     -1.073516000000000E+02
3120000000.000000      5.122375000000000E-01      7.275635000000000E+00      2.179337000000000E-01     -1.361094000000000E+02
3140000000.000000      5.123596000000000E-01      6.394043000000000E+00      2.152100000000000E-01     -1.646406000000000E+02
3160000000.000000      5.123901000000000E-01      5.317383000000000E+00      2.116318000000000E-01      1.666875000000000E+02
3180000000.000000      5.105591000000000E-01      4.154053000000000E+00      2.051926000000000E-01      1.387656000000000E+02
3200000000.000000      5.019836000000000E-01      3.341187000000000E+00      2.018509000000000E-01      1.105547000000000E+02
3220000000.000000      4.916687000000000E-01      2.945679000000000E+00      1.929703000000000E-01      8.199610000000000E+01
3240000000.000000      4.858398000000000E-01      3.103638000000000E+00      1.871109000000000E-01      5.699804000000000E+01
3260000000.000000      4.849243000000000E-01      3.831421000000000E+00      1.960526000000000E-01      3.130468000000000E+01
3280000000.000000      4.916534000000000E-01      4.274902000000000E+00      2.036285000000000E-01      1.623230000000000E+00
3300000000.000000      5.064697000000000E-01      3.968750000000000E+00      2.069244000000000E-01     -2.682519000000000E+01
3320000000.000000      5.219116000000000E-01      2.908569000000000E+00      2.145386000000000E-01     -5.590625000000000E+01
3340000000.000000      5.341797000000000E-01      1.218079000000000E+00      2.189331000000000E-01     -8.585546000000000E+01
3360000000.000000      5.388489000000000E-01     -7.498169000000000E-01      2.215500000000000E-01     -1.158125000000000E+02
3380000000.000000      5.379333000000000E-01     -2.301636000000000E+00      2.209778000000000E-01     -1.453047000000000E+02
3400000000.000000      5.372925000000000E-01     -3.832886000000000E+00      2.204056000000000E-01     -1.739609000000000E+02
3420000000.000000      5.326538000000000E-01     -4.801025000000000E+00      2.187195000000000E-01      1.567656000000000E+02
3440000000.000000      5.292358000000000E-01     -6.256836000000000E+00      2.139511000000000E-01      1.287109000000000E+02
3460000000.000000      5.251770000000000E-01     -7.079346000000000E+00      2.149734000000000E-01      1.004453000000000E+02
3480000000.000000      5.240784000000000E-01     -8.122070000000000E+00      2.118912000000000E-01      7.160156000000000E+01
3500000000.000000      5.222778000000000E-01     -8.918457000000000E+00      2.101288000000000E-01      4.355469000000000E+01
3520000000.000000      5.228882000000000E-01     -1.017236000000000E+01      2.102966000000000E-01      1.455518000000000E+01
3540000000.000000      5.224915000000000E-01     -1.069678000000000E+01      2.059097000000000E-01     -1.396924000000000E+01
3560000000.000000      5.203857000000000E-01     -1.160742000000000E+01      2.072220000000000E-01     -4.185937000000000E+01
3580000000.000000      5.186768000000000E-01     -1.242871000000000E+01      2.068481000000000E-01     -7.080468000000000E+01
3600000000.000000      5.173035000000000E-01     -1.298047000000000E+01      2.066345000000000E-01     -9.808594000000000E+01
3620000000.000000      5.179138000000000E-01     -1.368115000000000E+01      2.115784000000000E-01     -1.262539000000000E+02
3640000000.000000      5.205078000000000E-01     -1.445703000000000E+01      2.126236000000000E-01     -1.548359000000000E+02
3660000000.000000      5.221252000000000E-01     -1.587842000000000E+01      2.142105000000000E-01      1.766875000000000E+02
3680000000.000000      5.234985000000000E-01     -1.705371000000000E+01      2.120895000000000E-01      1.481328000000000E+02
3700000000.000000      5.209656000000000E-01     -1.845215000000000E+01      2.098846000000000E-01      1.210430000000000E+02
3720000000.000000      5.153503000000000E-01     -1.935547000000000E+01      2.121658000000000E-01      9.261719000000000E+01
3740000000.000000      5.148315000000000E-01     -1.962305000000000E+01      2.078400000000000E-01      6.447656000000000E+01
3760000000.000000      5.153503000000000E-01     -1.999121000000000E+01      2.077332000000000E-01      3.750000000000000E+01
3780000000.000000      5.190430000000000E-01     -2.073730000000000E+01      2.100449000000000E-01      8.795898000000000E+00
3800000000.000000      5.245667000000000E-01     -2.190430000000000E+01      2.085342000000000E-01     -2.044434000000000E+01
3820000000.000000      5.234985000000000E-01     -2.360644000000000E+01      2.062912000000000E-01     -4.906640000000000E+01
3840000000.000000      5.212402000000000E-01     -2.495605000000000E+01      2.060242000000000E-01     -7.756640000000000E+01
3860000000.000000      5.172424000000000E-01     -2.589258000000000E+01      2.062912000000000E-01     -1.065781000000000E+02
3880000000.000000      5.153809000000000E-01     -2.644726000000000E+01      2.038116000000000E-01     -1.355313000000000E+02
3900000000.000000      5.193176000000000E-01     -2.713964000000000E+01      2.034683000000000E-01     -1.631797000000000E+02
3920000000.000000      5.229797000000000E-01     -2.805859000000000E+01      2.065735000000000E-01      1.683906000000000E+02
3940000000.000000      5.240479000000000E-01     -2.965429000000000E+01      2.049942000000000E-01      1.398906000000000E+02
3960000000.000000      5.178528000000000E-01     -3.093262000000000E+01      2.055283000000000E-01      1.116875000000000E+02
3980000000.000000      5.103455000000000E-01     -3.190625000000000E+01      1.997986000000000E-01      8.306250000000000E+01
4000000000.000000      5.060120000000000E-01     -3.214844000000000E+01      1.974716000000000E-01      5.771484000000000E+01
4020000000.000000      5.078735000000000E-01     -3.227539000000000E+01      2.058182000000000E-01      2.987988000000000E+01
4040000000.000000      5.191345000000000E-01     -3.272851000000000E+01      2.062454000000000E-01     -5.891418000000000E-01
4060000000.000000      5.294495000000000E-01     -3.395703000000000E+01      2.023087000000000E-01     -2.938574000000000E+01
4080000000.000000      5.382385000000000E-01     -3.627930000000000E+01      2.020798000000000E-01     -5.836914000000000E+01
4100000000.000000      5.346069000000000E-01     -3.879101000000000E+01      2.017746000000000E-01     -8.771484000000000E+01
4120000000.000000      5.246582000000000E-01     -4.085742000000000E+01      1.992950000000000E-01     -1.180898000000000E+02
4140000000.000000      5.152283000000000E-01     -4.179688000000000E+01      1.911774000000000E-01     -1.465078000000000E+02
4160000000.000000      5.085449000000000E-01     -4.219336000000000E+01      1.935959000000000E-01     -1.726797000000000E+02
4180000000.000000      5.082703000000000E-01     -4.300977000000000E+01      1.981964000000000E-01      1.578594000000000E+02
4200000000.000000      5.085144000000000E-01     -4.405273000000000E+01      1.955109000000000E-01      1.294375000000000E+02
4220000000.000000      5.082397000000000E-01     -4.507617000000000E+01      1.979218000000000E-01      1.015859000000000E+02
4240000000.000000      5.035400000000000E-01     -4.605078000000000E+01      1.940384000000000E-01      7.237499000000000E+01
4260000000.000000      5.020752000000000E-01     -4.664844000000000E+01      1.890869000000000E-01      4.544726000000000E+01
4280000000.000000      4.979248000000000E-01     -4.691406000000000E+01      1.910019000000000E-01      1.816308000000000E+01
4300000000.000000      5.020142000000000E-01     -4.736133000000000E+01      1.901703000000000E-01     -1.039063000000000E+01
4320000000.000000      5.067139000000000E-01     -4.816406000000000E+01      1.906967000000000E-01     -3.928515000000000E+01
4340000000.000000      5.113831000000000E-01     -4.970117000000000E+01      1.906281000000000E-01     -6.882421000000000E+01
4360000000.000000      5.105896000000000E-01     -5.128515000000000E+01      1.905899000000000E-01     -9.878515000000000E+01
4380000000.000000      5.074768000000000E-01     -5.250390000000000E+01      1.885681000000000E-01     -1.290156000000000E+02
4400000000.000000      5.062256000000000E-01     -5.348046000000000E+01      1.871262000000000E-01     -1.575859000000000E+02
4420000000.000000      5.073242000000000E-01     -5.391602000000000E+01      1.916809000000000E-01      1.734766000000000E+02
4440000000.000000      5.119324000000000E-01     -5.500000000000000E+01      1.926346000000000E-01      1.434766000000000E+02
4460000000.000000      5.133972000000000E-01     -5.658398000000000E+01      1.922379000000000E-01      1.143945000000000E+02
4480000000.000000      5.104675000000000E-01     -5.838672000000000E+01      1.908798000000000E-01      8.559374000000000E+01
4500000000.000000      5.049438000000000E-01     -5.944921000000000E+01      1.878738000000000E-01      5.768555000000000E+01
4520000000.000000      4.970093000000000E-01     -6.041601000000000E+01      1.853104000000000E-01      2.948535000000000E+01
4540000000.000000      4.965057000000000E-01     -6.071484000000000E+01      1.803436000000000E-01      1.376038000000000E+00
4560000000.000000      5.010986000000000E-01     -6.118750000000000E+01      1.805267000000000E-01     -2.601171000000000E+01
4580000000.000000      5.085144000000000E-01     -6.200000000000000E+01      1.813812000000000E-01     -5.612109000000000E+01
4600000000.000000      5.133057000000000E-01     -6.338476000000000E+01      1.790848000000000E-01     -8.635157000000000E+01
4620000000.000000      5.169373000000000E-01     -6.467968000000000E+01      1.788406000000000E-01     -1.175625000000000E+02
4640000000.000000      5.174866000000000E-01     -6.586719000000000E+01      1.752243000000000E-01     -1.487813000000000E+02
4660000000.000000      5.188599000000000E-01     -6.689453000000000E+01      1.758118000000000E-01     -1.780313000000000E+02
4680000000.000000      5.220947000000000E-01     -6.798046000000000E+01      1.813965000000000E-01      1.516719000000000E+02
4700000000.000000      5.278625000000000E-01     -6.944921000000000E+01      1.833725000000000E-01      1.217969000000000E+02
4720000000.000000      5.306702000000000E-01     -7.112499000000000E+01      1.861954000000000E-01      9.321093000000000E+01
4740000000.000000      5.341797000000000E-01     -7.309375000000000E+01      1.902008000000000E-01      6.423437000000000E+01
4760000000.000000      5.326843000000000E-01     -7.510937000000000E+01      1.891098000000000E-01      3.638086000000000E+01
4780000000.000000      5.328064000000000E-01     -7.708202000000000E+01      1.862717000000000E-01      8.321777000000000E+00
4800000000.000000      5.295715000000000E-01     -7.923828000000000E+01      1.793289000000000E-01     -1.946582000000000E+01
4820000000.000000      5.213928000000000E-01     -8.140625000000000E+01      1.699524000000000E-01     -4.689649000000000E+01
4840000000.000000      5.063782000000000E-01     -8.334764000000000E+01      1.598206000000000E-01     -7.398046000000000E+01
4860000000.000000      4.890289000000000E-01     -8.450781000000000E+01      1.524277000000000E-01     -1.024258000000000E+02
4880000000.000000      4.726105000000000E-01     -8.448437000000000E+01      1.383972000000000E-01     -1.321016000000000E+02
4900000000.000000      4.616394000000000E-01     -8.370703000000000E+01      1.256790000000000E-01     -1.574531000000000E+02
4920000000.000000      4.599915000000000E-01     -8.237890000000000E+01      1.301346000000000E-01      1.779844000000000E+02
4940000000.000000      4.707794000000000E-01     -8.123047000000000E+01      1.422958000000000E-01      1.474844000000000E+02
4960000000.000000      4.915161000000000E-01     -8.123047000000000E+01      1.506195000000000E-01      1.155430000000000E+02
4980000000.000000      5.111694000000000E-01     -8.296484000000000E+01      1.600952000000000E-01      8.524218000000000E+01
5000000000.000000      5.227966000000000E-01     -8.560156000000000E+01      1.706467000000000E-01      5.509570000000000E+01
5020000000.000000      5.225525000000000E-01     -8.836718000000000E+01      1.760330000000000E-01      2.538086000000000E+01
5040000000.000000      5.148010000000000E-01     -9.053905000000000E+01      1.781998000000000E-01     -1.469421000000000E+00
5060000000.000000      5.057068000000000E-01     -9.174219000000000E+01      1.835556000000000E-01     -2.654882000000000E+01
5080000000.000000      4.991760000000000E-01     -9.256250000000000E+01      1.895523000000000E-01     -5.355859000000000E+01
5100000000.000000      4.982452000000000E-01     -9.328516000000000E+01      1.870956000000000E-01     -8.050390000000000E+01
5120000000.000000      4.983673000000000E-01     -9.400782000000000E+01      1.865158000000000E-01     -1.069531000000000E+02
5140000000.000000      5.017090000000000E-01     -9.483984000000000E+01      1.820679000000000E-01     -1.354297000000000E+02
5160000000.000000      5.034485000000000E-01     -9.597656000000000E+01      1.771011000000000E-01     -1.639766000000000E+02
5180000000.000000      5.082703000000000E-01     -9.687109000000000E+01      1.721725000000000E-01      1.658516000000000E+02
5200000000.000000      5.144958000000000E-01     -9.799608000000000E+01      1.681213000000000E-01      1.352031000000000E+02
5220000000.000000      5.186157000000000E-01     -9.949219000000000E+01      1.683044000000000E-01      1.043711000000000E+02
5240000000.000000      5.205994000000000E-01     -1.009687000000000E+02      1.708984000000000E-01      7.274219000000000E+01
5260000000.000000      5.205078000000000E-01     -1.025117000000000E+02      1.749496000000000E-01      4.179296000000000E+01
5280000000.000000      5.171814000000000E-01     -1.038633000000000E+02      1.799469000000000E-01      1.191602000000000E+01
5300000000.000000      5.150146000000000E-01     -1.050469000000000E+02      1.838837000000000E-01     -1.548535000000000E+01
5320000000.000000      5.132446000000000E-01     -1.061875000000000E+02      1.917419000000000E-01     -4.195508000000000E+01
5340000000.000000      5.131226000000000E-01     -1.073438000000000E+02      1.963272000000000E-01     -6.939062000000000E+01
5360000000.000000      5.138550000000000E-01     -1.086562000000000E+02      1.969452000000000E-01     -9.554688000000000E+01
5380000000.000000      5.155029000000000E-01     -1.098242000000000E+02      1.951294000000000E-01     -1.219258000000000E+02
5400000000.000000      5.157471000000000E-01     -1.111328000000000E+02      1.893005000000000E-01     -1.482891000000000E+02
5420000000.000000      5.177917000000000E-01     -1.115937000000000E+02      1.842880000000000E-01     -1.749922000000000E+02
5440000000.000000      5.225830000000000E-01     -1.123242000000000E+02      1.777191000000000E-01      1.557969000000000E+02
5460000000.000000      5.286865000000000E-01     -1.134766000000000E+02      1.680984000000000E-01      1.265273000000000E+02
5480000000.000000      5.343628000000000E-01     -1.149687000000000E+02      1.640167000000000E-01      9.581640000000000E+01
5500000000.000000      5.369263000000000E-01     -1.170820000000000E+02      1.614914000000000E-01      6.374413000000000E+01
5520000000.000000      5.334778000000000E-01     -1.191992000000000E+02      1.621399000000000E-01      3.119922000000000E+01
5540000000.000000      5.293884000000000E-01     -1.211562000000000E+02      1.629181000000000E-01     -2.677917000000000E-01
5560000000.000000      5.234070000000000E-01     -1.229297000000000E+02      1.680832000000000E-01     -2.905273000000000E+01
5580000000.000000      5.163269000000000E-01     -1.243711000000000E+02      1.778259000000000E-01     -5.747265000000000E+01
5600000000.000000      5.123901000000000E-01     -1.254766000000000E+02      1.839905000000000E-01     -8.483202000000000E+01
5620000000.000000      5.072327000000000E-01     -1.263437000000000E+02      1.885529000000000E-01     -1.108320000000000E+02
5640000000.000000      5.041809000000000E-01     -1.269961000000000E+02      1.907425000000000E-01     -1.369922000000000E+02
5660000000.000000      5.010681000000000E-01     -1.273555000000000E+02      1.880417000000000E-01     -1.622969000000000E+02
5680000000.000000      5.036926000000000E-01     -1.276601000000000E+02      1.841049000000000E-01      1.718594000000000E+02
5700000000.000000      5.113525000000000E-01     -1.282266000000000E+02      1.762695000000000E-01      1.453750000000000E+02
5720000000.000000      5.217285000000000E-01     -1.295000000000000E+02      1.683884000000000E-01      1.181523000000000E+02
5740000000.000000      5.299377000000000E-01     -1.317344000000000E+02      1.601486000000000E-01      8.812500000000000E+01
5760000000.000000      5.306396000000000E-01     -1.343984000000000E+02      1.506348000000000E-01      5.537695000000000E+01
5780000000.000000      5.237732000000000E-01     -1.367891000000000E+02      1.416245000000000E-01      2.211914000000000E+01
5800000000.000000      5.126648000000000E-01     -1.384140000000000E+02      1.378937000000000E-01     -9.679199000000000E+00
5820000000.000000      5.043945000000000E-01     -1.391797000000000E+02      1.440125000000000E-01     -4.117969000000000E+01
5840000000.000000      5.022583000000000E-01     -1.398672000000000E+02      1.546173000000000E-01     -7.328906000000000E+01
5860000000.000000      5.079651000000000E-01     -1.409922000000000E+02      1.629181000000000E-01     -1.028164000000000E+02
5880000000.000000      5.123596000000000E-01     -1.424219000000000E+02      1.718826000000000E-01     -1.310391000000000E+02
5900000000.000000      5.143433000000000E-01     -1.440938000000000E+02      1.773682000000000E-01     -1.575234000000000E+02
5920000000.000000      5.126648000000000E-01     -1.458281000000000E+02      1.806030000000000E-01      1.764688000000000E+02
5940000000.000000      5.096130000000000E-01     -1.473281000000000E+02      1.767883000000000E-01      1.499844000000000E+02
5960000000.000000      5.065002000000000E-01     -1.486328000000000E+02      1.694794000000000E-01      1.257422000000000E+02
5980000000.000000      5.026550000000000E-01     -1.501172000000000E+02      1.632996000000000E-01      9.980469000000000E+01
6000000000.000000      4.934845000000000E-01     -1.519453000000000E+02      1.525116000000000E-01      7.178124000000000E+01
6020000000.000000      4.805908000000000E-01     -1.535156000000000E+02      1.388245000000000E-01      4.231445000000000E+01
6040000000.000000      4.696045000000000E-01     -1.548516000000000E+02      1.231575000000000E-01      1.182373000000000E+01
6060000000.000000      4.588928000000000E-01     -1.555156000000000E+02      1.148338000000000E-01     -1.811426000000000E+01
6080000000.000000      4.541931000000000E-01     -1.553359000000000E+02      1.182289000000000E-01     -5.023242000000000E+01
