! Network Analyzer HP8722D
! Hewlett-Packard
! Data name: Linha com CNT
! Saver's name: Rodrigo Anjos
! Comments: Teste de deteccao de acetona 0-100ppm a partir de cilindro
! Time and date: 10/9/2025 18:13
!              Frequency                     S11                                                   S21                                                   S12                                                   S22
# HZ  S  MA R 50
3000000000.000000      8.255768000000000E-02      8.854687000000000E+01      4.448395000000000E-01      2.486719000000000E+01
3020000000.000000      9.768677000000000E-02      7.422656000000000E+01      4.468842000000000E-01     -3.876831000000000E+00
3040000000.000000      9.834290000000000E-02      5.882813000000000E+01      4.475098000000000E-01     -3.291601000000000E+01
3060000000.000000      8.483505000000000E-02      4.476758000000000E+01      4.445343000000000E-01     -6.128320000000000E+01
3080000000.000000      6.474304000000000E-02      3.613476000000000E+01      4.449921000000000E-01     -8.996874000000000E+01
3100000000.000000      4.781723000000000E-02      3.916992000000000E+01      4.432373000000000E-01     -1.184844000000000E+02
3120000000.000000      4.274750000000000E-02      5.074219000000000E+01      4.403839000000000E-01     -1.469687000000000E+02
3140000000.000000      4.192734000000000E-02      5.476367000000000E+01      4.369202000000000E-01     -1.756250000000000E+02
3160000000.000000      3.349113000000000E-02      5.531054000000000E+01      4.334717000000000E-01      1.561875000000000E+02
3180000000.000000      2.175808000000000E-02      9.820702000000000E+01      4.314423000000000E-01      1.273203000000000E+02
3200000000.000000      5.133629000000000E-02      1.394766000000000E+02      4.260254000000000E-01      9.785545000000000E+01
3220000000.000000      1.022606000000000E-01      1.342422000000000E+02      4.145355000000000E-01      6.873437000000000E+01
3240000000.000000      1.531143000000000E-01      1.200273000000000E+02      4.030609000000000E-01      4.131445000000000E+01
3260000000.000000      1.956863000000000E-01      1.038437000000000E+02      4.068146000000000E-01      1.417236000000000E+01
3280000000.000000      2.227097000000000E-01      8.708593000000000E+01      4.116669000000000E-01     -1.522168000000000E+01
3300000000.000000      2.328033000000000E-01      7.083984000000000E+01      4.066620000000000E-01     -4.398046000000000E+01
3320000000.000000      2.274933000000000E-01      5.608007000000000E+01      4.103088000000000E-01     -7.179296000000000E+01
3340000000.000000      2.111282000000000E-01      4.378711000000000E+01      4.140930000000000E-01     -1.003672000000000E+02
3360000000.000000      1.880646000000000E-01      3.483593000000000E+01      4.166412000000000E-01     -1.289453000000000E+02
3380000000.000000      1.652374000000000E-01      3.008301000000000E+01      4.206848000000000E-01     -1.570547000000000E+02
3400000000.000000      1.457748000000000E-01      2.801172000000000E+01      4.226227000000000E-01      1.740391000000000E+02
3420000000.000000      1.314697000000000E-01      2.785937000000000E+01      4.236298000000000E-01      1.453516000000000E+02
3440000000.000000      1.191025000000000E-01      2.807812000000000E+01      4.221802000000000E-01      1.166640000000000E+02
3460000000.000000      1.079636000000000E-01      2.958593000000000E+01      4.201508000000000E-01      8.841797000000000E+01
3480000000.000000      1.013451000000000E-01      3.242969000000000E+01      4.203949000000000E-01      5.946875000000000E+01
3500000000.000000      9.838104000000000E-02      3.556250000000000E+01      4.165649000000000E-01      3.041113000000000E+01
3520000000.000000      9.716415000000000E-02      3.815820000000000E+01      4.138947000000000E-01      2.319458000000000E+00
3540000000.000000      9.675980000000000E-02      4.141015000000000E+01      4.157867000000000E-01     -2.632813000000000E+01
3560000000.000000      9.949875000000000E-02      4.672852000000000E+01      4.177856000000000E-01     -5.533593000000000E+01
3580000000.000000      1.077538000000000E-01      5.185741000000000E+01      4.154358000000000E-01     -8.421875000000000E+01
3600000000.000000      1.219559000000000E-01      5.262304000000000E+01      4.148865000000000E-01     -1.122461000000000E+02
3620000000.000000      1.351776000000000E-01      4.931250000000000E+01      4.162445000000000E-01     -1.404297000000000E+02
3640000000.000000      1.404800000000000E-01      4.311132000000000E+01      4.176025000000000E-01     -1.687344000000000E+02
3660000000.000000      1.347961000000000E-01      3.666016000000000E+01      4.157257000000000E-01      1.633594000000000E+02
3680000000.000000      1.217918000000000E-01      3.364062000000000E+01      4.201813000000000E-01      1.354766000000000E+02
3700000000.000000      1.093063000000000E-01      3.706640000000000E+01      4.215393000000000E-01      1.070625000000000E+02
3720000000.000000      1.112785000000000E-01      4.542382000000000E+01      4.195404000000000E-01      7.857812000000000E+01
3740000000.000000      1.295471000000000E-01      4.844921000000000E+01      4.135284000000000E-01      4.999023000000000E+01
3760000000.000000      1.479950000000000E-01      4.496289000000000E+01      4.072723000000000E-01      2.228027000000000E+01
3780000000.000000      1.547318000000000E-01      3.746094000000000E+01      4.073486000000000E-01     -5.579834000000000E+00
3800000000.000000      1.466827000000000E-01      3.030957000000000E+01      4.078674000000000E-01     -3.398242000000000E+01
3820000000.000000      1.276245000000000E-01      2.786914000000000E+01      4.091339000000000E-01     -6.268945000000000E+01
3840000000.000000      1.139526000000000E-01      3.313086000000000E+01      4.071350000000000E-01     -9.171875000000000E+01
3860000000.000000      1.191864000000000E-01      4.111914000000000E+01      4.069977000000000E-01     -1.206992000000000E+02
3880000000.000000      1.380463000000000E-01      4.193749000000000E+01      4.036407000000000E-01     -1.500234000000000E+02
3900000000.000000      1.520462000000000E-01      3.609961000000000E+01      3.967285000000000E-01     -1.781250000000000E+02
3920000000.000000      1.495132000000000E-01      2.832812000000000E+01      3.980865000000000E-01      1.545312000000000E+02
3940000000.000000      1.317368000000000E-01      2.506640000000000E+01      4.049835000000000E-01      1.258047000000000E+02
3960000000.000000      1.139221000000000E-01      3.112890000000000E+01      4.054260000000000E-01      9.666796000000000E+01
3980000000.000000      1.207848000000000E-01      4.382813000000000E+01      3.970795000000000E-01      6.816015000000000E+01
4000000000.000000      1.512527000000000E-01      4.731835000000000E+01      3.908234000000000E-01      4.122460000000000E+01
4020000000.000000      1.836166000000000E-01      4.005468000000000E+01      3.967438000000000E-01      1.360352000000000E+01
4040000000.000000      2.013016000000000E-01      2.769629000000000E+01      3.988190000000000E-01     -1.668555000000000E+01
4060000000.000000      1.947098000000000E-01      1.411719000000000E+01      3.841705000000000E-01     -4.528710000000000E+01
4080000000.000000      1.651764000000000E-01      1.399353000000000E+00      3.833618000000000E-01     -7.200781000000000E+01
4100000000.000000      1.203423000000000E-01     -5.438232000000000E+00      3.917084000000000E-01     -1.011133000000000E+02
4120000000.000000      8.050537000000000E-02      6.069824000000000E+00      3.924255000000000E-01     -1.312031000000000E+02
4140000000.000000      7.991409000000000E-02      3.267383000000000E+01      3.856201000000000E-01     -1.598281000000000E+02
4160000000.000000      1.029205000000000E-01      4.123437000000000E+01      3.863831000000000E-01      1.720391000000000E+02
4180000000.000000      1.199989000000000E-01      3.855469000000000E+01      3.940735000000000E-01      1.434766000000000E+02
4200000000.000000      1.222191000000000E-01      3.557812000000000E+01      3.946533000000000E-01      1.135234000000000E+02
4220000000.000000      1.212845000000000E-01      3.764843000000000E+01      3.862152000000000E-01      8.454296000000000E+01
4240000000.000000      1.306763000000000E-01      4.321875000000000E+01      3.818665000000000E-01      5.591991000000000E+01
4260000000.000000      1.549072000000000E-01      4.454687000000000E+01      3.792267000000000E-01      2.815625000000000E+01
4280000000.000000      1.804581000000000E-01      4.015625000000000E+01      3.776855000000000E-01     -1.606750000000000E-01
4300000000.000000      1.957245000000000E-01      3.228516000000000E+01      3.751984000000000E-01     -2.887109000000000E+01
4320000000.000000      1.950836000000000E-01      2.454883000000000E+01      3.723755000000000E-01     -5.798828000000000E+01
4340000000.000000      1.816864000000000E-01      1.917090000000000E+01      3.717346000000000E-01     -8.659765000000000E+01
4360000000.000000      1.694489000000000E-01      1.847852000000000E+01      3.691559000000000E-01     -1.158750000000000E+02
4380000000.000000      1.686783000000000E-01      2.076465000000000E+01      3.681793000000000E-01     -1.453906000000000E+02
4400000000.000000      1.793671000000000E-01      2.035547000000000E+01      3.643188000000000E-01     -1.743984000000000E+02
4420000000.000000      1.883469000000000E-01      1.613672000000000E+01      3.645172000000000E-01      1.567891000000000E+02
4440000000.000000      1.854553000000000E-01      1.055225000000000E+01      3.670197000000000E-01      1.268398000000000E+02
4460000000.000000      1.692657000000000E-01      7.671143000000000E+00      3.611603000000000E-01      9.717577000000000E+01
4480000000.000000      1.516724000000000E-01      1.113721000000000E+01      3.581390000000000E-01      6.880859000000000E+01
4500000000.000000      1.542892000000000E-01      1.951367000000000E+01      3.579559000000000E-01      3.994922000000000E+01
4520000000.000000      1.791153000000000E-01      2.351855000000000E+01      3.540344000000000E-01      1.065234000000000E+01
4540000000.000000      2.087631000000000E-01      1.969531000000000E+01      3.453064000000000E-01     -1.880469000000000E+01
4560000000.000000      2.276993000000000E-01      1.195410000000000E+01      3.394318000000000E-01     -4.699219000000000E+01
4580000000.000000      2.332916000000000E-01      3.354858000000000E+00      3.417053000000000E-01     -7.643749000000000E+01
4600000000.000000      2.261353000000000E-01     -3.547241000000000E+00      3.382263000000000E-01     -1.064922000000000E+02
4620000000.000000      2.155151000000000E-01     -7.800293000000000E+00      3.327179000000000E-01     -1.358672000000000E+02
4640000000.000000      2.101746000000000E-01     -1.041260000000000E+01      3.328552000000000E-01     -1.654375000000000E+02
4660000000.000000      2.096024000000000E-01     -1.353955000000000E+01      3.303528000000000E-01      1.655547000000000E+02
4680000000.000000      2.085724000000000E-01     -1.836523000000000E+01      3.354645000000000E-01      1.365000000000000E+02
4700000000.000000      2.012863000000000E-01     -2.478027000000000E+01      3.347473000000000E-01      1.067031000000000E+02
4720000000.000000      1.849747000000000E-01     -3.147265000000000E+01      3.319855000000000E-01      7.882813000000000E+01
4740000000.000000      1.650467000000000E-01     -3.713086000000000E+01      3.384705000000000E-01      5.101757000000000E+01
4760000000.000000      1.415024000000000E-01     -4.208789000000000E+01      3.385162000000000E-01      2.224316000000000E+01
4780000000.000000      1.167793000000000E-01     -4.642774000000000E+01      3.356934000000000E-01     -6.221191000000000E+00
4800000000.000000      8.443832000000000E-02     -5.034570000000000E+01      3.318024000000000E-01     -3.475976000000000E+01
4820000000.000000      4.238129000000000E-02     -4.365039000000000E+01      3.237762000000000E-01     -6.376758000000000E+01
4840000000.000000      3.764153000000000E-02      4.439258000000000E+01      3.181763000000000E-01     -9.283203000000000E+01
4860000000.000000      1.026039000000000E-01      5.661718000000000E+01      3.114777000000000E-01     -1.233633000000000E+02
4880000000.000000      1.729736000000000E-01      4.568945000000000E+01      2.923889000000000E-01     -1.543281000000000E+02
4900000000.000000      2.331238000000000E-01      3.079394000000000E+01      2.693176000000000E-01      1.781953000000000E+02
4920000000.000000      2.752838000000000E-01      1.483936000000000E+01      2.699432000000000E-01      1.529687000000000E+02
4940000000.000000      2.965088000000000E-01     -5.191040000000000E-01      2.835846000000000E-01      1.243242000000000E+02
4960000000.000000      2.945557000000000E-01     -1.531250000000000E+01      2.866974000000000E-01      9.460938000000000E+01
4980000000.000000      2.690735000000000E-01     -2.846484000000000E+01      2.917786000000000E-01      6.727734000000000E+01
5000000000.000000      2.272949000000000E-01     -3.833008000000000E+01      3.057709000000000E-01      3.967968000000000E+01
5020000000.000000      1.812134000000000E-01     -4.098437000000000E+01      3.153381000000000E-01      1.131152000000000E+01
5040000000.000000      1.517487000000000E-01     -3.443945000000000E+01      3.229218000000000E-01     -1.604492000000000E+01
5060000000.000000      1.526794000000000E-01     -2.503808000000000E+01      3.312836000000000E-01     -4.339648000000000E+01
5080000000.000000      1.680145000000000E-01     -2.207031000000000E+01      3.370361000000000E-01     -7.183594000000000E+01
5100000000.000000      1.819153000000000E-01     -2.429101000000000E+01      3.314056000000000E-01     -1.003047000000000E+02
5120000000.000000      1.875153000000000E-01     -2.817676000000000E+01      3.262939000000000E-01     -1.278203000000000E+02
5140000000.000000      1.889572000000000E-01     -3.139843000000000E+01      3.252258000000000E-01     -1.561484000000000E+02
5160000000.000000      1.894608000000000E-01     -3.426172000000000E+01      3.227386000000000E-01      1.745391000000000E+02
5180000000.000000      1.923904000000000E-01     -3.760351000000000E+01      3.192291000000000E-01      1.449219000000000E+02
5200000000.000000      1.929855000000000E-01     -4.146289000000000E+01      3.178711000000000E-01      1.149766000000000E+02
5220000000.000000      1.884689000000000E-01     -4.536718000000000E+01      3.175812000000000E-01      8.546875000000000E+01
5240000000.000000      1.799698000000000E-01     -4.768945000000000E+01      3.213654000000000E-01      5.584179000000000E+01
5260000000.000000      1.735992000000000E-01     -4.792578000000000E+01      3.257599000000000E-01      2.618652000000000E+01
5280000000.000000      1.714020000000000E-01     -4.702148000000000E+01      3.298798000000000E-01     -2.672485000000000E+00
5300000000.000000      1.757431000000000E-01     -4.749609000000000E+01      3.323669000000000E-01     -3.103516000000000E+01
5320000000.000000      1.791763000000000E-01     -4.990234000000000E+01      3.361053000000000E-01     -5.815820000000000E+01
5340000000.000000      1.769943000000000E-01     -5.350780000000000E+01      3.402863000000000E-01     -8.607031000000000E+01
5360000000.000000      1.704254000000000E-01     -5.660546000000000E+01      3.352509000000000E-01     -1.135078000000000E+02
5380000000.000000      1.638718000000000E-01     -5.767187000000000E+01      3.318176000000000E-01     -1.400469000000000E+02
5400000000.000000      1.630859000000000E-01     -5.722461000000000E+01      3.312683000000000E-01     -1.676797000000000E+02
5420000000.000000      1.715469000000000E-01     -5.714844000000000E+01      3.253937000000000E-01      1.640469000000000E+02
5440000000.000000      1.826248000000000E-01     -6.014062000000000E+01      3.202209000000000E-01      1.350937000000000E+02
5460000000.000000      1.883163000000000E-01     -6.570313000000000E+01      3.101654000000000E-01      1.056211000000000E+02
5480000000.000000      1.845703000000000E-01     -7.191796000000000E+01      3.052521000000000E-01      7.619922000000000E+01
5500000000.000000      1.686554000000000E-01     -7.752734000000000E+01      3.076477000000000E-01      4.657227000000000E+01
5520000000.000000      1.470413000000000E-01     -8.055079000000000E+01      3.088531000000000E-01      1.643066000000000E+01
5540000000.000000      1.294479000000000E-01     -7.979687000000000E+01      3.123016000000000E-01     -1.307959000000000E+01
5560000000.000000      1.170349000000000E-01     -7.671093000000000E+01      3.169708000000000E-01     -4.208398000000000E+01
5580000000.000000      1.108437000000000E-01     -7.252734000000000E+01      3.228302000000000E-01     -7.085546000000000E+01
5600000000.000000      1.079750000000000E-01     -6.749609000000000E+01      3.263550000000000E-01     -9.883984000000000E+01
5620000000.000000      1.109467000000000E-01     -6.063086000000000E+01      3.283844000000000E-01     -1.267500000000000E+02
5640000000.000000      1.253128000000000E-01     -5.525195000000000E+01      3.268127000000000E-01     -1.544922000000000E+02
5660000000.000000      1.493149000000000E-01     -5.416016000000000E+01      3.219147000000000E-01      1.782656000000000E+02
5680000000.000000      1.755600000000000E-01     -5.905859000000000E+01      3.156128000000000E-01      1.502344000000000E+02
5700000000.000000      1.943588000000000E-01     -6.832812000000000E+01      3.048096000000000E-01      1.221133000000000E+02
5720000000.000000      1.976929000000000E-01     -7.958593000000000E+01      2.935028000000000E-01      9.447266000000000E+01
5740000000.000000      1.841965000000000E-01     -9.055859000000000E+01      2.897949000000000E-01      6.591797000000000E+01
5760000000.000000      1.580582000000000E-01     -9.897264000000000E+01      2.869720000000000E-01      3.532812000000000E+01
5780000000.000000      1.288147000000000E-01     -1.005078000000000E+02      2.827911000000000E-01      5.005615000000000E+00
5800000000.000000      1.132507000000000E-01     -9.403906000000000E+01      2.832794000000000E-01     -2.490918000000000E+01
5820000000.000000      1.173477000000000E-01     -8.864061000000000E+01      2.885590000000000E-01     -5.487695000000000E+01
5840000000.000000      1.272964000000000E-01     -9.066797000000000E+01      2.953033000000000E-01     -8.528515000000000E+01
5860000000.000000      1.302338000000000E-01     -9.840233000000000E+01      2.958221000000000E-01     -1.145469000000000E+02
5880000000.000000      1.202164000000000E-01     -1.080742000000000E+02      2.959290000000000E-01     -1.418125000000000E+02
5900000000.000000      1.009941000000000E-01     -1.139375000000000E+02      3.043823000000000E-01     -1.690391000000000E+02
5920000000.000000      8.133698000000000E-02     -1.123672000000000E+02      3.081970000000000E-01      1.625391000000000E+02
5940000000.000000      7.314301000000000E-02     -1.038164000000000E+02      3.024445000000000E-01      1.336719000000000E+02
5960000000.000000      7.260513000000000E-02     -9.900391000000000E+01      2.909393000000000E-01      1.060742000000000E+02
5980000000.000000      6.686401000000000E-02     -9.784374000000000E+01      2.831573000000000E-01      7.842968000000000E+01
6000000000.000000      5.069351000000000E-02     -9.205078000000000E+01      2.789001000000000E-01      4.891015000000000E+01
6020000000.000000      4.090691000000000E-02     -5.956249000000000E+01      2.696686000000000E-01      1.795703000000000E+01
6040000000.000000      6.311035000000000E-02     -3.339453000000000E+01      2.575226000000000E-01     -1.211816000000000E+01
6060000000.000000      9.636688000000000E-02     -3.399805000000000E+01      2.539673000000000E-01     -4.176758000000000E+01
6080000000.000000      1.259537000000000E-01     -4.477344000000000E+01      2.601471000000000E-01     -7.209374000000000E+01
