! Network Analyzer HP8722D
! Hewlett-Packard
! Data name: Linha com CNT
! Saver's name: Rodrigo Anjos
! Comments: Teste de deteccao de acetona 0-100ppm a partir de cilindro
! Time and date: 10/9/2025 18:10
!              Frequency                     S11                                                   S21                                                   S12                                                   S22
# HZ  S  MA R 50
3000000000.000000      8.977509000000000E-02      7.275781000000000E+01      4.398041000000000E-01      2.494824000000000E+01
3020000000.000000      1.088448000000000E-01      6.268359000000000E+01      4.414978000000000E-01     -3.815063000000000E+00
3040000000.000000      1.132164000000000E-01      5.002930000000000E+01      4.424133000000000E-01     -3.291406000000000E+01
3060000000.000000      1.038971000000000E-01      3.790625000000000E+01      4.404297000000000E-01     -6.128320000000000E+01
3080000000.000000      8.576202000000000E-02      2.964746000000000E+01      4.390259000000000E-01     -8.998438000000000E+01
3100000000.000000      6.983185000000000E-02      2.969922000000000E+01      4.389343000000000E-01     -1.183945000000000E+02
3120000000.000000      6.323624000000000E-02      3.560351000000000E+01      4.355621000000000E-01     -1.467578000000000E+02
3140000000.000000      6.159401000000000E-02      3.764453000000000E+01      4.323730000000000E-01     -1.754453000000000E+02
3160000000.000000      5.377197000000000E-02      3.499218000000000E+01      4.279785000000000E-01      1.562656000000000E+02
3180000000.000000      3.405571000000000E-02      4.691211000000000E+01      4.258118000000000E-01      1.274219000000000E+02
3200000000.000000      3.706169000000000E-02      1.062852000000000E+02      4.210205000000000E-01      9.802734000000000E+01
3220000000.000000      8.293533000000000E-02      1.195313000000000E+02      4.075775000000000E-01      6.878906000000000E+01
3240000000.000000      1.361847000000000E-01      1.100937000000000E+02      3.967285000000000E-01      4.154882000000000E+01
3260000000.000000      1.828918000000000E-01      9.594141000000000E+01      4.018860000000000E-01      1.408838000000000E+01
3280000000.000000      2.151566000000000E-01      8.060938000000000E+01      4.066010000000000E-01     -1.523145000000000E+01
3300000000.000000      2.316284000000000E-01      6.536718000000000E+01      4.029694000000000E-01     -4.364062000000000E+01
3320000000.000000      2.325363000000000E-01      5.120703000000000E+01      4.056549000000000E-01     -7.141015000000000E+01
3340000000.000000      2.212524000000000E-01      3.949023000000000E+01      4.108124000000000E-01     -1.003789000000000E+02
3360000000.000000      2.016449000000000E-01      3.068945000000000E+01      4.126587000000000E-01     -1.287344000000000E+02
3380000000.000000      1.803131000000000E-01      2.589941000000000E+01      4.158173000000000E-01     -1.571563000000000E+02
3400000000.000000      1.623459000000000E-01      2.363965000000000E+01      4.185333000000000E-01      1.743047000000000E+02
3420000000.000000      1.488953000000000E-01      2.287012000000000E+01      4.197998000000000E-01      1.455703000000000E+02
3440000000.000000      1.368027000000000E-01      2.255762000000000E+01      4.179077000000000E-01      1.166328000000000E+02
3460000000.000000      1.261292000000000E-01      2.336914000000000E+01      4.158325000000000E-01      8.834764000000000E+01
3480000000.000000      1.187096000000000E-01      2.471875000000000E+01      4.169159000000000E-01      5.946484000000000E+01
3500000000.000000      1.153450000000000E-01      2.704883000000000E+01      4.116516000000000E-01      3.039844000000000E+01
3520000000.000000      1.127167000000000E-01      2.870019000000000E+01      4.096527000000000E-01      2.366089000000000E+00
3540000000.000000      1.119957000000000E-01      3.119629000000000E+01      4.116821000000000E-01     -2.607422000000000E+01
3560000000.000000      1.117706000000000E-01      3.535156000000000E+01      4.129639000000000E-01     -5.523242000000000E+01
3580000000.000000      1.177444000000000E-01      4.048047000000000E+01      4.113770000000000E-01     -8.407812000000000E+01
3600000000.000000      1.303482000000000E-01      4.225390000000000E+01      4.113770000000000E-01     -1.121367000000000E+02
3620000000.000000      1.438065000000000E-01      4.025586000000000E+01      4.120026000000000E-01     -1.404375000000000E+02
3640000000.000000      1.507568000000000E-01      3.514648000000000E+01      4.138336000000000E-01     -1.686094000000000E+02
3660000000.000000      1.467896000000000E-01      2.892383000000000E+01      4.125671000000000E-01      1.634297000000000E+02
3680000000.000000      1.354141000000000E-01      2.543262000000000E+01      4.144287000000000E-01      1.357812000000000E+02
3700000000.000000      1.219521000000000E-01      2.745019000000000E+01      4.157867000000000E-01      1.071484000000000E+02
3720000000.000000      1.212692000000000E-01      3.447070000000000E+01      4.157104000000000E-01      7.849218000000000E+01
3740000000.000000      1.365814000000000E-01      3.861133000000000E+01      4.088593000000000E-01      5.003711000000000E+01
3760000000.000000      1.550751000000000E-01      3.638672000000000E+01      4.025879000000000E-01      2.229492000000000E+01
3780000000.000000      1.638718000000000E-01      2.992383000000000E+01      4.037628000000000E-01     -5.273438000000000E+00
3800000000.000000      1.583328000000000E-01      2.315332000000000E+01      4.042816000000000E-01     -3.401758000000000E+01
3820000000.000000      1.405411000000000E-01      1.978613000000000E+01      4.038391000000000E-01     -6.285156000000000E+01
3840000000.000000      1.255875000000000E-01      2.329785000000000E+01      4.022217000000000E-01     -9.143358000000000E+01
3860000000.000000      1.277924000000000E-01      3.027637000000000E+01      4.016113000000000E-01     -1.204531000000000E+02
3880000000.000000      1.443787000000000E-01      3.233789000000000E+01      4.004974000000000E-01     -1.497344000000000E+02
3900000000.000000      1.597748000000000E-01      2.779882000000000E+01      3.928986000000000E-01     -1.780625000000000E+02
3920000000.000000      1.596375000000000E-01      2.089942000000000E+01      3.930511000000000E-01      1.546484000000000E+02
3940000000.000000      1.437225000000000E-01      1.674512000000000E+01      4.007416000000000E-01      1.258398000000000E+02
3960000000.000000      1.248856000000000E-01      2.085156000000000E+01      4.007416000000000E-01      9.671875000000000E+01
3980000000.000000      1.259613000000000E-01      3.228516000000000E+01      3.927155000000000E-01      6.830468000000000E+01
4000000000.000000      1.524963000000000E-01      3.746289000000000E+01      3.866577000000000E-01      4.131836000000000E+01
4020000000.000000      1.851120000000000E-01      3.257421000000000E+01      3.921356000000000E-01      1.347168000000000E+01
4040000000.000000      2.066803000000000E-01      2.156543000000000E+01      3.923950000000000E-01     -1.643750000000000E+01
4060000000.000000      2.047653000000000E-01      8.897461000000000E+00      3.800507000000000E-01     -4.517187000000000E+01
4080000000.000000      1.806107000000000E-01     -3.298706000000000E+00      3.792725000000000E-01     -7.212109000000000E+01
4100000000.000000      1.392059000000000E-01     -1.057861000000000E+01      3.885193000000000E-01     -1.010312000000000E+02
4120000000.000000      9.891510000000000E-02     -4.409668000000000E+00      3.875732000000000E-01     -1.308750000000000E+02
4140000000.000000      8.945465000000000E-02      1.614941000000000E+01      3.828735000000000E-01     -1.597812000000000E+02
4160000000.000000      1.064682000000000E-01      2.662890000000000E+01      3.821564000000000E-01      1.723594000000000E+02
4180000000.000000      1.227646000000000E-01      2.622070000000000E+01      3.891449000000000E-01      1.435781000000000E+02
4200000000.000000      1.257553000000000E-01      2.374804000000000E+01      3.895111000000000E-01      1.139219000000000E+02
4220000000.000000      1.233673000000000E-01      2.520801000000000E+01      3.823700000000000E-01      8.464453000000000E+01
4240000000.000000      1.294098000000000E-01      3.122168000000000E+01      3.767395000000000E-01      5.622070000000000E+01
4260000000.000000      1.504745000000000E-01      3.454492000000000E+01      3.717346000000000E-01      2.838964000000000E+01
4280000000.000000      1.759567000000000E-01      3.161133000000000E+01      3.735352000000000E-01     -2.471924000000000E-02
4300000000.000000      1.939011000000000E-01      2.477636000000000E+01      3.705597000000000E-01     -2.891113000000000E+01
4320000000.000000      1.958694000000000E-01      1.737305000000000E+01      3.676147000000000E-01     -5.744141000000000E+01
4340000000.000000      1.854248000000000E-01      1.174268000000000E+01      3.665771000000000E-01     -8.653124000000000E+01
4360000000.000000      1.726837000000000E-01      1.058496000000000E+01      3.662262000000000E-01     -1.156680000000000E+02
4380000000.000000      1.709518000000000E-01      1.257227000000000E+01      3.631897000000000E-01     -1.452578000000000E+02
4400000000.000000      1.808624000000000E-01      1.264209000000000E+01      3.601074000000000E-01     -1.745703000000000E+02
4420000000.000000      1.906891000000000E-01      9.048340000000000E+00      3.609009000000000E-01      1.566328000000000E+02
4440000000.000000      1.900330000000000E-01      3.636475000000000E+00      3.645477000000000E-01      1.270234000000000E+02
4460000000.000000      1.753235000000000E-01      1.799011000000000E-01      3.572845000000000E-01      9.729296000000000E+01
4480000000.000000      1.576233000000000E-01      2.562500000000000E+00      3.549042000000000E-01      6.918359000000000E+01
4500000000.000000      1.552200000000000E-01      1.001221000000000E+01      3.540344000000000E-01      4.027539000000000E+01
4520000000.000000      1.763306000000000E-01      1.509619000000000E+01      3.507385000000000E-01      1.077051000000000E+01
4540000000.000000      2.055511000000000E-01      1.266553000000000E+01      3.414612000000000E-01     -1.851367000000000E+01
4560000000.000000      2.263794000000000E-01      5.859619000000000E+00      3.360596000000000E-01     -4.671288000000000E+01
4580000000.000000      2.345963000000000E-01     -2.135498000000000E+00      3.369293000000000E-01     -7.607812000000000E+01
4600000000.000000      2.301483000000000E-01     -8.771484000000000E+00      3.344421000000000E-01     -1.062578000000000E+02
4620000000.000000      2.209396000000000E-01     -1.313867000000000E+01      3.291473000000000E-01     -1.357734000000000E+02
4640000000.000000      2.166290000000000E-01     -1.577783000000000E+01      3.291931000000000E-01     -1.651484000000000E+02
4660000000.000000      2.168198000000000E-01     -1.849609000000000E+01      3.278961000000000E-01      1.657031000000000E+02
4680000000.000000      2.175140000000000E-01     -2.312988000000000E+01      3.323212000000000E-01      1.364141000000000E+02
4700000000.000000      2.122040000000000E-01     -2.925195000000000E+01      3.311462000000000E-01      1.068086000000000E+02
4720000000.000000      1.987534000000000E-01     -3.562891000000000E+01      3.285980000000000E-01      7.899219000000000E+01
4740000000.000000      1.802216000000000E-01     -4.131640000000000E+01      3.347626000000000E-01      5.088867000000000E+01
4760000000.000000      1.590424000000000E-01     -4.630078000000000E+01      3.356934000000000E-01      2.237207000000000E+01
4780000000.000000      1.361237000000000E-01     -5.091210000000000E+01      3.319092000000000E-01     -6.133301000000000E+00
4800000000.000000      1.058769000000000E-01     -5.576562000000000E+01      3.284760000000000E-01     -3.474023000000000E+01
4820000000.000000      6.491089000000000E-02     -5.511328000000000E+01      3.208008000000000E-01     -6.376953000000000E+01
4840000000.000000      3.223228000000000E-02     -1.149475000000000E+00      3.144379000000000E-01     -9.266796000000000E+01
4860000000.000000      8.102417000000000E-02      4.271874000000000E+01      3.075409000000000E-01     -1.231641000000000E+02
4880000000.000000      1.504440000000000E-01      3.742383000000000E+01      2.885590000000000E-01     -1.542422000000000E+02
4900000000.000000      2.130661000000000E-01      2.452246000000000E+01      2.664642000000000E-01      1.783516000000000E+02
4920000000.000000      2.595215000000000E-01      9.737793000000000E+00      2.668915000000000E-01      1.531406000000000E+02
4940000000.000000      2.874756000000000E-01     -5.103271000000000E+00      2.801971000000000E-01      1.246016000000000E+02
4960000000.000000      2.922974000000000E-01     -1.960840000000000E+01      2.838135000000000E-01      9.471094000000000E+01
4980000000.000000      2.732391000000000E-01     -3.260937000000000E+01      2.893829000000000E-01      6.744922000000000E+01
5000000000.000000      2.359238000000000E-01     -4.251172000000000E+01      3.029938000000000E-01      3.960546000000000E+01
5020000000.000000      1.925812000000000E-01     -4.616601000000000E+01      3.126526000000000E-01      1.146240000000000E+01
5040000000.000000      1.620026000000000E-01     -4.153710000000000E+01      3.198242000000000E-01     -1.594141000000000E+01
5060000000.000000      1.588364000000000E-01     -3.316406000000000E+01      3.276062000000000E-01     -4.330274000000000E+01
5080000000.000000      1.720734000000000E-01     -2.972656000000000E+01      3.329773000000000E-01     -7.169140000000000E+01
5100000000.000000      1.856079000000000E-01     -3.126172000000000E+01      3.278198000000000E-01     -1.001758000000000E+02
5120000000.000000      1.916351000000000E-01     -3.461133000000000E+01      3.231659000000000E-01     -1.276172000000000E+02
5140000000.000000      1.940460000000000E-01     -3.758398000000000E+01      3.224030000000000E-01     -1.560156000000000E+02
5160000000.000000      1.960678000000000E-01     -4.042188000000000E+01      3.199615000000000E-01      1.747266000000000E+02
5180000000.000000      1.989746000000000E-01     -4.340039000000000E+01      3.158569000000000E-01      1.450938000000000E+02
5200000000.000000      2.016373000000000E-01     -4.721093000000000E+01      3.141327000000000E-01      1.152656000000000E+02
5220000000.000000      1.974716000000000E-01     -5.094531000000000E+01      3.144073000000000E-01      8.566797000000000E+01
5240000000.000000      1.903610000000000E-01     -5.355859000000000E+01      3.181610000000000E-01      5.602734000000000E+01
5260000000.000000      1.833801000000000E-01     -5.410937000000000E+01      3.224335000000000E-01      2.644726000000000E+01
5280000000.000000      1.803818000000000E-01     -5.336328000000000E+01      3.266144000000000E-01     -2.650513000000000E+00
5300000000.000000      1.842117000000000E-01     -5.379101000000000E+01      3.291626000000000E-01     -3.089258000000000E+01
5320000000.000000      1.879425000000000E-01     -5.593163000000000E+01      3.328094000000000E-01     -5.798828000000000E+01
5340000000.000000      1.864014000000000E-01     -5.926952000000000E+01      3.368378000000000E-01     -8.594921000000000E+01
5360000000.000000      1.809616000000000E-01     -6.237890000000000E+01      3.325043000000000E-01     -1.134062000000000E+02
5380000000.000000      1.746368000000000E-01     -6.366992000000000E+01      3.284912000000000E-01     -1.399531000000000E+02
5400000000.000000      1.739120000000000E-01     -6.356835000000000E+01      3.278198000000000E-01     -1.675937000000000E+02
5420000000.000000      1.821060000000000E-01     -6.331445000000000E+01      3.218231000000000E-01      1.640703000000000E+02
5440000000.000000      1.927109000000000E-01     -6.564453000000000E+01      3.168488000000000E-01      1.351719000000000E+02
5460000000.000000      1.999817000000000E-01     -7.064062000000000E+01      3.072510000000000E-01      1.056328000000000E+02
5480000000.000000      1.974182000000000E-01     -7.666016000000000E+01      3.026123000000000E-01      7.629687000000000E+01
5500000000.000000      1.832123000000000E-01     -8.217968000000000E+01      3.038940000000000E-01      4.664648000000000E+01
5520000000.000000      1.634979000000000E-01     -8.543749000000000E+01      3.047943000000000E-01      1.644629000000000E+01
5540000000.000000      1.456757000000000E-01     -8.571484000000000E+01      3.085785000000000E-01     -1.302979000000000E+01
5560000000.000000      1.332245000000000E-01     -8.386719000000000E+01      3.137360000000000E-01     -4.208398000000000E+01
5580000000.000000      1.256943000000000E-01     -8.075781000000000E+01      3.196106000000000E-01     -7.081249000000000E+01
5600000000.000000      1.211929000000000E-01     -7.705078000000000E+01      3.237762000000000E-01     -9.879686000000000E+01
5620000000.000000      1.217384000000000E-01     -7.135547000000000E+01      3.252563000000000E-01     -1.266719000000000E+02
5640000000.000000      1.322784000000000E-01     -6.518359000000000E+01      3.236389000000000E-01     -1.543281000000000E+02
5660000000.000000      1.550064000000000E-01     -6.294531000000000E+01      3.186493000000000E-01      1.785312000000000E+02
5680000000.000000      1.811066000000000E-01     -6.647655000000000E+01      3.119965000000000E-01      1.504219000000000E+02
5700000000.000000      2.017517000000000E-01     -7.435547000000000E+01      3.007507000000000E-01      1.222617000000000E+02
5720000000.000000      2.082214000000000E-01     -8.450781000000000E+01      2.905121000000000E-01      9.462500000000000E+01
5740000000.000000      1.981964000000000E-01     -9.488672000000000E+01      2.867584000000000E-01      6.606640000000000E+01
5760000000.000000      1.743622000000000E-01     -1.029805000000000E+02      2.834778000000000E-01      3.524414000000000E+01
5780000000.000000      1.467667000000000E-01     -1.053281000000000E+02      2.799225000000000E-01      5.027588000000000E+00
5800000000.000000      1.299667000000000E-01     -1.007773000000000E+02      2.799530000000000E-01     -2.485156000000000E+01
5820000000.000000      1.322784000000000E-01     -9.586718000000000E+01      2.850800000000000E-01     -5.488671000000000E+01
5840000000.000000      1.413116000000000E-01     -9.760155000000000E+01      2.925110000000000E-01     -8.514843000000000E+01
5860000000.000000      1.461105000000000E-01     -1.039453000000000E+02      2.926788000000000E-01     -1.145313000000000E+02
5880000000.000000      1.388397000000000E-01     -1.124180000000000E+02      2.934418000000000E-01     -1.418984000000000E+02
5900000000.000000      1.211319000000000E-01     -1.183086000000000E+02      3.019867000000000E-01     -1.691562000000000E+02
5920000000.000000      1.024551000000000E-01     -1.184023000000000E+02      3.050690000000000E-01      1.624766000000000E+02
5940000000.000000      9.333801000000000E-02     -1.127187000000000E+02      2.996063000000000E-01      1.340234000000000E+02
5960000000.000000      9.102631000000000E-02     -1.095313000000000E+02      2.872772000000000E-01      1.060976000000000E+02
5980000000.000000      8.452225000000000E-02     -1.102695000000000E+02      2.795410000000000E-01      7.858984000000000E+01
6000000000.000000      6.779099000000000E-02     -1.093789000000000E+02      2.758789000000000E-01      4.914844000000000E+01
6020000000.000000      4.888916000000000E-02     -9.151171000000000E+01      2.658844000000000E-01      1.816699000000000E+01
6040000000.000000      5.607033000000000E-02     -5.788476000000000E+01      2.542267000000000E-01     -1.202734000000000E+01
6060000000.000000      8.576965000000000E-02     -5.009766000000000E+01      2.506714000000000E-01     -4.169726000000000E+01
6080000000.000000      1.168900000000000E-01     -5.699413000000000E+01      2.565002000000000E-01     -7.201562000000000E+01
