! Network Analyzer HP8722D
! Hewlett-Packard
! Data name: Linha com CNT
! Saver's name: Rodrigo Anjos
! Comments: Teste de deteccao de acetona 0-100ppm a partir de cilindro
! Time and date: 10/9/2025 17:37
!              Frequency                     S11                                                   S21                                                   S12                                                   S22
# HZ  S  MA R 50
3000000000.000000      4.931946000000000E-01      1.449365000000000E+01      2.225266000000000E-01      3.686132000000000E+01
3020000000.000000      4.997101000000000E-01      1.409229000000000E+01      2.267914000000000E-01      7.362061000000000E+00
3040000000.000000      5.072632000000000E-01      1.297607000000000E+01      2.268448000000000E-01     -2.180274000000000E+01
3060000000.000000      5.091248000000000E-01      1.146826000000000E+01      2.271118000000000E-01     -5.123047000000000E+01
3080000000.000000      5.087891000000000E-01      9.788574000000000E+00      2.230682000000000E-01     -8.013672000000000E+01
3100000000.000000      5.065613000000000E-01      8.309570000000000E+00      2.214661000000000E-01     -1.077070000000000E+02
3120000000.000000      5.050964000000000E-01      7.414307000000000E+00      2.211990000000000E-01     -1.365313000000000E+02
3140000000.000000      5.061340000000000E-01      6.469482000000000E+00      2.181396000000000E-01     -1.650312000000000E+02
3160000000.000000      5.071411000000000E-01      5.337891000000000E+00      2.141953000000000E-01      1.663437000000000E+02
3180000000.000000      5.037537000000000E-01      4.283203000000000E+00      2.080612000000000E-01      1.383047000000000E+02
3200000000.000000      4.946136000000000E-01      3.396118000000000E+00      2.048187000000000E-01      1.099531000000000E+02
3220000000.000000      4.844360000000000E-01      3.047241000000000E+00      1.961899000000000E-01      8.150782000000000E+01
3240000000.000000      4.782257000000000E-01      3.368652000000000E+00      1.901093000000000E-01      5.641992000000000E+01
3260000000.000000      4.776306000000000E-01      4.125244000000000E+00      1.984711000000000E-01      3.070996000000000E+01
3280000000.000000      4.854584000000000E-01      4.640137000000000E+00      2.066040000000000E-01      1.203003000000000E+00
3300000000.000000      5.003662000000000E-01      4.291504000000000E+00      2.097626000000000E-01     -2.744336000000000E+01
3320000000.000000      5.169067000000000E-01      3.208008000000000E+00      2.174835000000000E-01     -5.643945000000000E+01
3340000000.000000      5.279846000000000E-01      1.433716000000000E+00      2.219849000000000E-01     -8.631639000000000E+01
3360000000.000000      5.334473000000000E-01     -5.039978000000000E-01      2.246552000000000E-01     -1.161641000000000E+02
3380000000.000000      5.333557000000000E-01     -2.006470000000000E+00      2.239151000000000E-01     -1.456563000000000E+02
3400000000.000000      5.297852000000000E-01     -3.572021000000000E+00      2.232361000000000E-01     -1.744453000000000E+02
3420000000.000000      5.270691000000000E-01     -4.702148000000000E+00      2.216110000000000E-01      1.562969000000000E+02
3440000000.000000      5.227356000000000E-01     -6.098877000000000E+00      2.172623000000000E-01      1.283047000000000E+02
3460000000.000000      5.190735000000000E-01     -6.789551000000000E+00      2.179260000000000E-01      1.001172000000000E+02
3480000000.000000      5.174561000000000E-01     -7.955566000000000E+00      2.150421000000000E-01      7.100780000000000E+01
3500000000.000000      5.167236000000000E-01     -8.764648000000000E+00      2.129364000000000E-01      4.316992000000000E+01
3520000000.000000      5.161438000000000E-01     -9.765625000000000E+00      2.134628000000000E-01      1.410352000000000E+01
3540000000.000000      5.162964000000000E-01     -1.085352000000000E+01      2.088928000000000E-01     -1.452295000000000E+01
3560000000.000000      5.156250000000000E-01     -1.150146000000000E+01      2.100067000000000E-01     -4.237305000000000E+01
3580000000.000000      5.126648000000000E-01     -1.220605000000000E+01      2.095108000000000E-01     -7.112109000000000E+01
3600000000.000000      5.129089000000000E-01     -1.275537000000000E+01      2.097321000000000E-01     -9.856249000000000E+01
3620000000.000000      5.127258000000000E-01     -1.338721000000000E+01      2.137909000000000E-01     -1.269180000000000E+02
3640000000.000000      5.132446000000000E-01     -1.443604000000000E+01      2.154694000000000E-01     -1.553125000000000E+02
3660000000.000000      5.166931000000000E-01     -1.551416000000000E+01      2.167816000000000E-01      1.762031000000000E+02
3680000000.000000      5.185242000000000E-01     -1.687304000000000E+01      2.149963000000000E-01      1.476406000000000E+02
3700000000.000000      5.146179000000000E-01     -1.815527000000000E+01      2.126236000000000E-01      1.204609000000000E+02
3720000000.000000      5.090637000000000E-01     -1.910254000000000E+01      2.149887000000000E-01      9.210155000000000E+01
3740000000.000000      5.089722000000000E-01     -1.961133000000000E+01      2.099380000000000E-01      6.394140000000000E+01
3760000000.000000      5.087585000000000E-01     -1.968750000000000E+01      2.101440000000000E-01      3.692383000000000E+01
3780000000.000000      5.139771000000000E-01     -2.046679000000000E+01      2.126236000000000E-01      8.276367000000000E+00
3800000000.000000      5.191956000000000E-01     -2.176562000000000E+01      2.110672000000000E-01     -2.110840000000000E+01
3820000000.000000      5.177917000000000E-01     -2.337402000000000E+01      2.087631000000000E-01     -4.961719000000000E+01
3840000000.000000      5.156250000000000E-01     -2.475293000000000E+01      2.083282000000000E-01     -7.801952000000000E+01
3860000000.000000      5.112610000000000E-01     -2.570996000000000E+01      2.095947000000000E-01     -1.071250000000000E+02
3880000000.000000      5.091248000000000E-01     -2.621679000000000E+01      2.065048000000000E-01     -1.361250000000000E+02
3900000000.000000      5.133057000000000E-01     -2.679296000000000E+01      2.058640000000000E-01     -1.636484000000000E+02
3920000000.000000      5.163269000000000E-01     -2.791016000000000E+01      2.088013000000000E-01      1.679062000000000E+02
3940000000.000000      5.180054000000000E-01     -2.933789000000000E+01      2.078934000000000E-01      1.393828000000000E+02
3960000000.000000      5.123901000000000E-01     -3.066699000000000E+01      2.083206000000000E-01      1.111953000000000E+02
3980000000.000000      5.046387000000000E-01     -3.153711000000000E+01      2.025299000000000E-01      8.259375000000000E+01
4000000000.000000      4.998322000000000E-01     -3.191015000000000E+01      1.995621000000000E-01      5.732422000000000E+01
4020000000.000000      5.019226000000000E-01     -3.194726000000000E+01      2.081299000000000E-01      2.938477000000000E+01
4040000000.000000      5.124817000000000E-01     -3.240234000000000E+01      2.083740000000000E-01     -9.873962000000000E-01
4060000000.000000      5.260010000000000E-01     -3.378515000000000E+01      2.048874000000000E-01     -2.984375000000000E+01
4080000000.000000      5.328064000000000E-01     -3.619726000000000E+01      2.046432000000000E-01     -5.890038000000000E+01
4100000000.000000      5.291138000000000E-01     -3.866796000000000E+01      2.045441000000000E-01     -8.822266000000000E+01
4120000000.000000      5.188599000000000E-01     -4.059375000000000E+01      2.016525000000000E-01     -1.186211000000000E+02
4140000000.000000      5.093689000000000E-01     -4.169726000000000E+01      1.941452000000000E-01     -1.470703000000000E+02
4160000000.000000      5.025024000000000E-01     -4.221289000000000E+01      1.963425000000000E-01     -1.733281000000000E+02
4180000000.000000      5.021362000000000E-01     -4.275000000000000E+01      2.007294000000000E-01      1.575469000000000E+02
4200000000.000000      5.021362000000000E-01     -4.378125000000000E+01      1.981735000000000E-01      1.289687000000000E+02
4220000000.000000      5.019226000000000E-01     -4.482617000000000E+01      2.000732000000000E-01      1.009805000000000E+02
4240000000.000000      4.966431000000000E-01     -4.567578000000000E+01      1.962357000000000E-01      7.185547000000000E+01
4260000000.000000      4.933472000000000E-01     -4.622266000000000E+01      1.914291000000000E-01      4.482422000000000E+01
4280000000.000000      4.918518000000000E-01     -4.646874000000000E+01      1.935120000000000E-01      1.750488000000000E+01
4300000000.000000      4.948578000000000E-01     -4.688477000000000E+01      1.927872000000000E-01     -1.118555000000000E+01
4320000000.000000      5.014954000000000E-01     -4.787890000000000E+01      1.930923000000000E-01     -3.989258000000000E+01
4340000000.000000      5.049438000000000E-01     -4.953125000000000E+01      1.931152000000000E-01     -6.934765000000000E+01
4360000000.000000      5.046692000000000E-01     -5.095312000000000E+01      1.933060000000000E-01     -9.942186000000000E+01
4380000000.000000      5.021973000000000E-01     -5.227734000000000E+01      1.910248000000000E-01     -1.296172000000000E+02
4400000000.000000      4.997253000000000E-01     -5.299218000000000E+01      1.893539000000000E-01     -1.581719000000000E+02
4420000000.000000      5.016785000000000E-01     -5.359570000000000E+01      1.935959000000000E-01      1.729531000000000E+02
4440000000.000000      5.058289000000000E-01     -5.463672000000000E+01      1.950684000000000E-01      1.430000000000000E+02
4460000000.000000      5.096741000000000E-01     -5.621875000000000E+01      1.942596000000000E-01      1.138281000000000E+02
4480000000.000000      5.053406000000000E-01     -5.788867000000000E+01      1.933365000000000E-01      8.492579000000000E+01
4500000000.000000      4.990845000000000E-01     -5.907421000000000E+01      1.899185000000000E-01      5.706055000000000E+01
4520000000.000000      4.934540000000000E-01     -6.007030000000000E+01      1.872482000000000E-01      2.879883000000000E+01
4540000000.000000      4.891357000000000E-01     -6.028320000000000E+01      1.823578000000000E-01      8.390808000000000E-01
4560000000.000000      4.957123000000000E-01     -6.075585000000000E+01      1.823044000000000E-01     -2.657617000000000E+01
4580000000.000000      5.014648000000000E-01     -6.159765000000000E+01      1.834641000000000E-01     -5.667382000000000E+01
4600000000.000000      5.072327000000000E-01     -6.291210000000000E+01      1.809616000000000E-01     -8.698046000000000E+01
4620000000.000000      5.100098000000000E-01     -6.439843000000000E+01      1.810074000000000E-01     -1.180312000000000E+02
4640000000.000000      5.120239000000000E-01     -6.553124000000000E+01      1.776962000000000E-01     -1.495625000000000E+02
4660000000.000000      5.139465000000000E-01     -6.665625000000000E+01      1.778946000000000E-01     -1.786016000000000E+02
4680000000.000000      5.170593000000000E-01     -6.771484000000000E+01      1.836395000000000E-01      1.511562000000000E+02
4700000000.000000      5.213318000000000E-01     -6.902734000000000E+01      1.854095000000000E-01      1.212148000000000E+02
4720000000.000000      5.251160000000000E-01     -7.093750000000000E+01      1.886749000000000E-01      9.262890000000000E+01
4740000000.000000      5.268555000000000E-01     -7.289453000000000E+01      1.916733000000000E-01      6.376562000000000E+01
4760000000.000000      5.278931000000000E-01     -7.485546000000000E+01      1.911011000000000E-01      3.587695000000000E+01
4780000000.000000      5.284424000000000E-01     -7.679688000000000E+01      1.881561000000000E-01      7.745361000000000E+00
4800000000.000000      5.216370000000000E-01     -7.916406000000000E+01      1.811905000000000E-01     -1.987207000000000E+01
4820000000.000000      5.141296000000000E-01     -8.151562000000000E+01      1.713715000000000E-01     -4.760742000000000E+01
4840000000.000000      4.985657000000000E-01     -8.310938000000000E+01      1.614151000000000E-01     -7.467578000000000E+01
4860000000.000000      4.826965000000000E-01     -8.423437000000000E+01      1.540298000000000E-01     -1.030469000000000E+02
4880000000.000000      4.645538000000000E-01     -8.418360000000000E+01      1.401978000000000E-01     -1.329531000000000E+02
4900000000.000000      4.544220000000000E-01     -8.322657000000000E+01      1.275635000000000E-01     -1.581328000000000E+02
4920000000.000000      4.534607000000000E-01     -8.190624000000000E+01      1.320419000000000E-01      1.770937000000000E+02
4940000000.000000      4.646606000000000E-01     -8.070313000000000E+01      1.442947000000000E-01      1.468047000000000E+02
4960000000.000000      4.855347000000000E-01     -8.073828000000000E+01      1.519852000000000E-01      1.148594000000000E+02
4980000000.000000      5.065308000000000E-01     -8.258593000000000E+01      1.617737000000000E-01      8.459764000000000E+01
5000000000.000000      5.173340000000000E-01     -8.524609000000000E+01      1.722260000000000E-01      5.446875000000000E+01
5020000000.000000      5.180359000000000E-01     -8.806641000000000E+01      1.785736000000000E-01      2.494433000000000E+01
5040000000.000000      5.083008000000000E-01     -9.026171000000000E+01      1.797333000000000E-01     -1.886902000000000E+00
5060000000.000000      4.994049000000000E-01     -9.149218000000000E+01      1.855545000000000E-01     -2.712891000000000E+01
5080000000.000000      4.926453000000000E-01     -9.221483000000000E+01      1.913300000000000E-01     -5.404491000000000E+01
5100000000.000000      4.914703000000000E-01     -9.282421000000000E+01      1.889801000000000E-01     -8.110937000000000E+01
5120000000.000000      4.931641000000000E-01     -9.366796000000000E+01      1.878204000000000E-01     -1.076797000000000E+02
5140000000.000000      4.958191000000000E-01     -9.446484000000000E+01      1.839600000000000E-01     -1.359609000000000E+02
5160000000.000000      4.978027000000000E-01     -9.558594000000000E+01      1.784363000000000E-01     -1.647031000000000E+02
5180000000.000000      5.033569000000000E-01     -9.650391000000000E+01      1.739655000000000E-01      1.650234000000000E+02
5200000000.000000      5.091858000000000E-01     -9.763281000000000E+01      1.700287000000000E-01      1.344297000000000E+02
5220000000.000000      5.130005000000000E-01     -9.915625000000000E+01      1.701050000000000E-01      1.036328000000000E+02
5240000000.000000      5.153503000000000E-01     -1.006953000000000E+02      1.727600000000000E-01      7.223046000000000E+01
5260000000.000000      5.145874000000000E-01     -1.022266000000000E+02      1.774902000000000E-01      4.134179000000000E+01
5280000000.000000      5.111389000000000E-01     -1.036016000000000E+02      1.813431000000000E-01      1.146240000000000E+01
5300000000.000000      5.089417000000000E-01     -1.047461000000000E+02      1.857681000000000E-01     -1.604199000000000E+01
5320000000.000000      5.077820000000000E-01     -1.059062000000000E+02      1.940613000000000E-01     -4.262695000000000E+01
5340000000.000000      5.070190000000000E-01     -1.070508000000000E+02      1.981812000000000E-01     -6.992578000000000E+01
5360000000.000000      5.084229000000000E-01     -1.083828000000000E+02      1.986389000000000E-01     -9.582422000000000E+01
5380000000.000000      5.101013000000000E-01     -1.095469000000000E+02      1.972275000000000E-01     -1.224219000000000E+02
5400000000.000000      5.099182000000000E-01     -1.107539000000000E+02      1.909790000000000E-01     -1.488984000000000E+02
5420000000.000000      5.124512000000000E-01     -1.113711000000000E+02      1.857910000000000E-01     -1.755703000000000E+02
5440000000.000000      5.163269000000000E-01     -1.120586000000000E+02      1.798172000000000E-01      1.554688000000000E+02
5460000000.000000      5.228882000000000E-01     -1.131211000000000E+02      1.698532000000000E-01      1.260195000000000E+02
5480000000.000000      5.297241000000000E-01     -1.147734000000000E+02      1.657639000000000E-01      9.511328000000000E+01
5500000000.000000      5.316162000000000E-01     -1.168555000000000E+02      1.636734000000000E-01      6.316601000000000E+01
5520000000.000000      5.282898000000000E-01     -1.190039000000000E+02      1.643524000000000E-01      3.049316000000000E+01
5540000000.000000      5.237122000000000E-01     -1.209258000000000E+02      1.651001000000000E-01     -8.583069000000000E-01
5560000000.000000      5.175476000000000E-01     -1.226680000000000E+02      1.698227000000000E-01     -2.955957000000000E+01
5580000000.000000      5.103455000000000E-01     -1.241016000000000E+02      1.798477000000000E-01     -5.778515000000000E+01
5600000000.000000      5.065002000000000E-01     -1.251563000000000E+02      1.853561000000000E-01     -8.530468000000000E+01
5620000000.000000      5.014648000000000E-01     -1.259609000000000E+02      1.901093000000000E-01     -1.112344000000000E+02
5640000000.000000      4.981842000000000E-01     -1.266562000000000E+02      1.919174000000000E-01     -1.375625000000000E+02
5660000000.000000      4.967041000000000E-01     -1.269687000000000E+02      1.894608000000000E-01     -1.630000000000000E+02
5680000000.000000      4.991455000000000E-01     -1.272969000000000E+02      1.852646000000000E-01      1.711406000000000E+02
5700000000.000000      5.055542000000000E-01     -1.278867000000000E+02      1.777573000000000E-01      1.446406000000000E+02
5720000000.000000      5.170593000000000E-01     -1.292344000000000E+02      1.698074000000000E-01      1.172734000000000E+02
5740000000.000000      5.242615000000000E-01     -1.314922000000000E+02      1.619186000000000E-01      8.739843000000000E+01
5760000000.000000      5.256653000000000E-01     -1.341172000000000E+02      1.521301000000000E-01      5.474609000000000E+01
5780000000.000000      5.181274000000000E-01     -1.365234000000000E+02      1.434631000000000E-01      2.168945000000000E+01
5800000000.000000      5.066223000000000E-01     -1.381562000000000E+02      1.391678000000000E-01     -1.030664000000000E+01
5820000000.000000      4.990692000000000E-01     -1.388047000000000E+02      1.464005000000000E-01     -4.184766000000000E+01
5840000000.000000      4.974823000000000E-01     -1.396406000000000E+02      1.562042000000000E-01     -7.394140000000000E+01
5860000000.000000      5.014954000000000E-01     -1.404141000000000E+02      1.650314000000000E-01     -1.031992000000000E+02
5880000000.000000      5.066833000000000E-01     -1.420547000000000E+02      1.732941000000000E-01     -1.314453000000000E+02
5900000000.000000      5.091858000000000E-01     -1.438750000000000E+02      1.784744000000000E-01     -1.579922000000000E+02
5920000000.000000      5.069580000000000E-01     -1.456875000000000E+02      1.820984000000000E-01      1.757891000000000E+02
5940000000.000000      5.034485000000000E-01     -1.470391000000000E+02      1.779556000000000E-01      1.496094000000000E+02
5960000000.000000      5.004578000000000E-01     -1.483906000000000E+02      1.704788000000000E-01      1.250664000000000E+02
5980000000.000000      4.969788000000000E-01     -1.499063000000000E+02      1.641083000000000E-01      9.914843000000000E+01
6000000000.000000      4.882813000000000E-01     -1.516562000000000E+02      1.536942000000000E-01      7.103125000000000E+01
6020000000.000000      4.767456000000000E-01     -1.533125000000000E+02      1.402740000000000E-01      4.151563000000000E+01
6040000000.000000      4.630585000000000E-01     -1.544922000000000E+02      1.245956000000000E-01      1.139941000000000E+01
6060000000.000000      4.532013000000000E-01     -1.551719000000000E+02      1.162453000000000E-01     -1.881738000000000E+01
6080000000.000000      4.469299000000000E-01     -1.550703000000000E+02      1.195068000000000E-01     -5.092187000000000E+01
