! Network Analyzer HP8722D
! Hewlett-Packard
! Data name: Linha com CNT
! Saver's name: Rodrigo Anjos
! Comments: Teste de deteccao de acetona 0-100ppm a partir de cilindro
! Time and date: 10/9/2025 15:53
!              Frequency                     S11                                                   S21                                                   S12                                                   S22
# HZ  S  MA R 50
3000000000.000000      4.222870000000000E-01      1.559912000000000E+01      2.550812000000000E-01      3.275586000000000E+01
3020000000.000000      4.311981000000000E-01      1.517188000000000E+01      2.597046000000000E-01      3.313721000000000E+00
3040000000.000000      4.396362000000000E-01      1.395801000000000E+01      2.592926000000000E-01     -2.586914000000000E+01
3060000000.000000      4.432983000000000E-01      1.191309000000000E+01      2.597809000000000E-01     -5.504883000000000E+01
3080000000.000000      4.399261000000000E-01      1.010303000000000E+01      2.556915000000000E-01     -8.400000000000000E+01
3100000000.000000      4.367218000000000E-01      8.732422000000000E+00      2.536774000000000E-01     -1.117656000000000E+02
3120000000.000000      4.349670000000000E-01      7.796143000000000E+00      2.534180000000000E-01     -1.405156000000000E+02
3140000000.000000      4.351501000000000E-01      6.878662000000000E+00      2.496948000000000E-01     -1.689922000000000E+02
3160000000.000000      4.340820000000000E-01      5.681152000000000E+00      2.458038000000000E-01      1.622578000000000E+02
3180000000.000000      4.290924000000000E-01      4.475342000000000E+00      2.396622000000000E-01      1.344063000000000E+02
3200000000.000000      4.187317000000000E-01      3.889160000000000E+00      2.355347000000000E-01      1.057422000000000E+02
3220000000.000000      4.063416000000000E-01      4.094971000000000E+00      2.260742000000000E-01      7.719531000000000E+01
3240000000.000000      4.008331000000000E-01      5.423096000000000E+00      2.190323000000000E-01      5.172461000000000E+01
3260000000.000000      4.038696000000000E-01      7.075195000000000E+00      2.285233000000000E-01      2.575976000000000E+01
3280000000.000000      4.171143000000000E-01      8.058105000000000E+00      2.364960000000000E-01     -3.824707000000000E+00
3300000000.000000      4.375305000000000E-01      7.632568000000000E+00      2.389069000000000E-01     -3.244141000000000E+01
3320000000.000000      4.569397000000000E-01      5.899658000000000E+00      2.464981000000000E-01     -6.124804000000000E+01
3340000000.000000      4.686890000000000E-01      3.559570000000000E+00      2.515259000000000E-01     -9.104296000000000E+01
3360000000.000000      4.738464000000000E-01      9.764099000000000E-01      2.535706000000000E-01     -1.205430000000000E+02
3380000000.000000      4.718018000000000E-01     -9.187317000000000E-01      2.533417000000000E-01     -1.497656000000000E+02
3400000000.000000      4.670258000000000E-01     -2.507690000000000E+00      2.527161000000000E-01     -1.787188000000000E+02
3420000000.000000      4.628601000000000E-01     -3.665405000000000E+00      2.509766000000000E-01      1.521719000000000E+02
3440000000.000000      4.577637000000000E-01     -4.883545000000000E+00      2.468033000000000E-01      1.239336000000000E+02
3460000000.000000      4.523773000000000E-01     -5.907959000000000E+00      2.472076000000000E-01      9.580858000000000E+01
3480000000.000000      4.498749000000000E-01     -6.946289000000000E+00      2.448883000000000E-01      6.671484000000000E+01
3500000000.000000      4.485779000000000E-01     -7.654785000000000E+00      2.421188000000000E-01      3.857226000000000E+01
3520000000.000000      4.481964000000000E-01     -8.653320000000000E+00      2.425003000000000E-01      9.710449000000000E+00
3540000000.000000      4.472198000000000E-01     -9.466309000000000E+00      2.381592000000000E-01     -1.889844000000000E+01
3560000000.000000      4.457550000000000E-01     -1.004590000000000E+01      2.393494000000000E-01     -4.700391000000000E+01
3580000000.000000      4.429932000000000E-01     -1.054834000000000E+01      2.390060000000000E-01     -7.580468000000000E+01
3600000000.000000      4.425354000000000E-01     -1.094971000000000E+01      2.387085000000000E-01     -1.031562000000000E+02
3620000000.000000      4.449463000000000E-01     -1.146875000000000E+01      2.431870000000000E-01     -1.314375000000000E+02
3640000000.000000      4.475555000000000E-01     -1.225684000000000E+01      2.448273000000000E-01     -1.600391000000000E+02
3660000000.000000      4.498291000000000E-01     -1.379346000000000E+01      2.458267000000000E-01      1.716953000000000E+02
3680000000.000000      4.496002000000000E-01     -1.528223000000000E+01      2.437668000000000E-01      1.432734000000000E+02
3700000000.000000      4.447632000000000E-01     -1.661328000000000E+01      2.422791000000000E-01      1.158476000000000E+02
3720000000.000000      4.403992000000000E-01     -1.725879000000000E+01      2.436371000000000E-01      8.749609000000000E+01
3740000000.000000      4.405060000000000E-01     -1.730664000000000E+01      2.387009000000000E-01      5.914453000000000E+01
3760000000.000000      4.429016000000000E-01     -1.733105000000000E+01      2.382355000000000E-01      3.201367000000000E+01
3780000000.000000      4.489746000000000E-01     -1.806152000000000E+01      2.403488000000000E-01      3.471680000000000E+00
3800000000.000000      4.538574000000000E-01     -1.953320000000000E+01      2.394867000000000E-01     -2.572656000000000E+01
3820000000.000000      4.522400000000000E-01     -2.137695000000000E+01      2.366714000000000E-01     -5.448828000000000E+01
3840000000.000000      4.472961000000000E-01     -2.284668000000000E+01      2.364883000000000E-01     -8.290625000000000E+01
3860000000.000000      4.422150000000000E-01     -2.362695000000000E+01      2.372742000000000E-01     -1.119336000000000E+02
3880000000.000000      4.409180000000000E-01     -2.387793000000000E+01      2.344742000000000E-01     -1.408750000000000E+02
3900000000.000000      4.466400000000000E-01     -2.431445000000000E+01      2.333221000000000E-01     -1.684687000000000E+02
3920000000.000000      4.519348000000000E-01     -2.560547000000000E+01      2.364349000000000E-01      1.631016000000000E+02
3940000000.000000      4.519958000000000E-01     -2.729297000000000E+01      2.354431000000000E-01      1.346719000000000E+02
3960000000.000000      4.457092000000000E-01     -2.866894000000000E+01      2.353439000000000E-01      1.064101000000000E+02
3980000000.000000      4.363556000000000E-01     -2.919824000000000E+01      2.295074000000000E-01      7.771093000000000E+01
4000000000.000000      4.319916000000000E-01     -2.896484000000000E+01      2.262802000000000E-01      5.203125000000000E+01
4020000000.000000      4.362793000000000E-01     -2.858105000000000E+01      2.348862000000000E-01      2.421777000000000E+01
4040000000.000000      4.511566000000000E-01     -2.915527000000000E+01      2.349777000000000E-01     -6.156494000000000E+00
4060000000.000000      4.660797000000000E-01     -3.120019000000000E+01      2.298279000000000E-01     -3.506836000000000E+01
4080000000.000000      4.737854000000000E-01     -3.433594000000000E+01      2.297287000000000E-01     -6.387890000000000E+01
4100000000.000000      4.666138000000000E-01     -3.720703000000000E+01      2.305603000000000E-01     -9.312891000000000E+01
4120000000.000000      4.531097000000000E-01     -3.919140000000000E+01      2.281113000000000E-01     -1.234492000000000E+02
4140000000.000000      4.407349000000000E-01     -3.964453000000000E+01      2.204285000000000E-01     -1.517187000000000E+02
4160000000.000000      4.338837000000000E-01     -3.990039000000000E+01      2.229385000000000E-01     -1.782656000000000E+02
4180000000.000000      4.332581000000000E-01     -4.021874000000000E+01      2.276917000000000E-01      1.525625000000000E+02
4200000000.000000      4.336090000000000E-01     -4.118554000000000E+01      2.250061000000000E-01      1.238281000000000E+02
4220000000.000000      4.331207000000000E-01     -4.221093000000000E+01      2.262650000000000E-01      9.563280000000000E+01
4240000000.000000      4.272766000000000E-01     -4.306836000000000E+01      2.218781000000000E-01      6.662499000000000E+01
4260000000.000000      4.246368000000000E-01     -4.318945000000000E+01      2.165680000000000E-01      3.949219000000000E+01
4280000000.000000      4.248962000000000E-01     -4.287695000000000E+01      2.183762000000000E-01      1.194336000000000E+01
4300000000.000000      4.306030000000000E-01     -4.337304000000000E+01      2.173920000000000E-01     -1.674512000000000E+01
4320000000.000000      4.394989000000000E-01     -4.430273000000000E+01      2.171860000000000E-01     -4.558984000000000E+01
4340000000.000000      4.427032000000000E-01     -4.606835000000000E+01      2.174606000000000E-01     -7.505077000000000E+01
4360000000.000000      4.418640000000000E-01     -4.787890000000000E+01      2.172089000000000E-01     -1.049883000000000E+02
4380000000.000000      4.380188000000000E-01     -4.908008000000000E+01      2.153702000000000E-01     -1.350937000000000E+02
4400000000.000000      4.362793000000000E-01     -4.966797000000000E+01      2.136307000000000E-01     -1.637344000000000E+02
4420000000.000000      4.399719000000000E-01     -5.024219000000000E+01      2.177582000000000E-01      1.672734000000000E+02
4440000000.000000      4.472809000000000E-01     -5.154687000000000E+01      2.192154000000000E-01      1.375313000000000E+02
4460000000.000000      4.459229000000000E-01     -5.316211000000000E+01      2.181320000000000E-01      1.084141000000000E+02
4480000000.000000      4.415436000000000E-01     -5.508984000000000E+01      2.164001000000000E-01      7.966406000000000E+01
4500000000.000000      4.329224000000000E-01     -5.608398000000000E+01      2.128830000000000E-01      5.165234000000000E+01
4520000000.000000      4.269867000000000E-01     -5.638672000000000E+01      2.100143000000000E-01      2.316308000000000E+01
4540000000.000000      4.275665000000000E-01     -5.627734000000000E+01      2.040710000000000E-01     -5.070313000000000E+00
4560000000.000000      4.343567000000000E-01     -5.658398000000000E+01      2.034149000000000E-01     -3.266992000000000E+01
4580000000.000000      4.450836000000000E-01     -5.765429000000000E+01      2.043228000000000E-01     -6.278906000000000E+01
4600000000.000000      4.517975000000000E-01     -5.929688000000000E+01      2.020264000000000E-01     -9.319530000000000E+01
4620000000.000000      4.558716000000000E-01     -6.099804000000000E+01      2.015076000000000E-01     -1.242109000000000E+02
4640000000.000000      4.562988000000000E-01     -6.223046000000000E+01      1.982956000000000E-01     -1.553359000000000E+02
4660000000.000000      4.578247000000000E-01     -6.325000000000000E+01      1.988831000000000E-01      1.756641000000000E+02
4680000000.000000      4.623566000000000E-01     -6.449219000000000E+01      2.053986000000000E-01      1.455547000000000E+02
4700000000.000000      4.681854000000000E-01     -6.626562000000000E+01      2.070694000000000E-01      1.158242000000000E+02
4720000000.000000      4.707184000000000E-01     -6.826562000000000E+01      2.103958000000000E-01      8.746485000000000E+01
4740000000.000000      4.714661000000000E-01     -7.063281000000000E+01      2.139893000000000E-01      5.880859000000000E+01
4760000000.000000      4.705658000000000E-01     -7.302343000000000E+01      2.129059000000000E-01      3.094433000000000E+01
4780000000.000000      4.650726000000000E-01     -7.511328000000000E+01      2.092209000000000E-01      2.830322000000000E+00
4800000000.000000      4.593353000000000E-01     -7.770312000000000E+01      2.015686000000000E-01     -2.491308000000000E+01
4820000000.000000      4.473572000000000E-01     -8.001953000000000E+01      1.917267000000000E-01     -5.295116000000000E+01
4840000000.000000      4.274445000000000E-01     -8.177734000000000E+01      1.805573000000000E-01     -8.017969000000000E+01
4860000000.000000      4.062805000000000E-01     -8.223047000000000E+01      1.721115000000000E-01     -1.092344000000000E+02
4880000000.000000      3.873596000000000E-01     -8.096874000000000E+01      1.572571000000000E-01     -1.393828000000000E+02
4900000000.000000      3.795013000000000E-01     -7.851563000000000E+01      1.431122000000000E-01     -1.651797000000000E+02
4920000000.000000      3.863373000000000E-01     -7.606250000000000E+01      1.482697000000000E-01      1.698359000000000E+02
4940000000.000000      4.056854000000000E-01     -7.460155000000000E+01      1.612244000000000E-01      1.394766000000000E+02
4960000000.000000      4.338989000000000E-01     -7.532812000000000E+01      1.697540000000000E-01      1.078242000000000E+02
4980000000.000000      4.561615000000000E-01     -7.807031000000000E+01      1.801758000000000E-01      7.834374000000000E+01
5000000000.000000      4.657898000000000E-01     -8.179296000000000E+01      1.921005000000000E-01      4.897265000000000E+01
5020000000.000000      4.612885000000000E-01     -8.505077000000000E+01      1.988983000000000E-01      1.950684000000000E+01
5040000000.000000      4.478302000000000E-01     -8.722265000000000E+01      2.003708000000000E-01     -7.252441000000000E+00
5060000000.000000      4.373016000000000E-01     -8.813671000000000E+01      2.061386000000000E-01     -3.242383000000000E+01
5080000000.000000      4.314117000000000E-01     -8.850000000000000E+01      2.119675000000000E-01     -5.960351000000000E+01
5100000000.000000      4.307404000000000E-01     -8.905077000000000E+01      2.089005000000000E-01     -8.682032000000000E+01
5120000000.000000      4.337006000000000E-01     -8.970312000000000E+01      2.067566000000000E-01     -1.136641000000000E+02
5140000000.000000      4.365692000000000E-01     -9.059374000000000E+01      2.020416000000000E-01     -1.419141000000000E+02
5160000000.000000      4.403992000000000E-01     -9.151953000000000E+01      1.959534000000000E-01     -1.708750000000000E+02
5180000000.000000      4.457397000000000E-01     -9.246094000000000E+01      1.913528000000000E-01      1.588828000000000E+02
5200000000.000000      4.514923000000000E-01     -9.375780000000000E+01      1.874619000000000E-01      1.280781000000000E+02
5220000000.000000      4.563293000000000E-01     -9.544140000000000E+01      1.882248000000000E-01      9.735937000000000E+01
5240000000.000000      4.571533000000000E-01     -9.720312000000000E+01      1.921310000000000E-01      6.607812000000000E+01
5260000000.000000      4.562225000000000E-01     -9.884375000000000E+01      1.977081000000000E-01      3.535937000000000E+01
5280000000.000000      4.517212000000000E-01     -1.002500000000000E+02      2.025986000000000E-01      5.609863000000000E+00
5300000000.000000      4.495392000000000E-01     -1.013477000000000E+02      2.065811000000000E-01     -2.161621000000000E+01
5320000000.000000      4.487152000000000E-01     -1.023789000000000E+02      2.150269000000000E-01     -4.810937000000000E+01
5340000000.000000      4.490356000000000E-01     -1.035273000000000E+02      2.189484000000000E-01     -7.551952000000000E+01
5360000000.000000      4.501343000000000E-01     -1.048398000000000E+02      2.179489000000000E-01     -1.015273000000000E+02
5380000000.000000      4.505768000000000E-01     -1.059531000000000E+02      2.163773000000000E-01     -1.281016000000000E+02
5400000000.000000      4.504242000000000E-01     -1.071055000000000E+02      2.094116000000000E-01     -1.545625000000000E+02
5420000000.000000      4.532166000000000E-01     -1.076172000000000E+02      2.032700000000000E-01      1.784141000000000E+02
5440000000.000000      4.596252000000000E-01     -1.083594000000000E+02      1.965561000000000E-01      1.491094000000000E+02
5460000000.000000      4.673004000000000E-01     -1.097266000000000E+02      1.854935000000000E-01      1.195703000000000E+02
5480000000.000000      4.734650000000000E-01     -1.116055000000000E+02      1.814880000000000E-01      8.855078000000000E+01
5500000000.000000      4.750214000000000E-01     -1.141289000000000E+02      1.804276000000000E-01      5.667969000000000E+01
5520000000.000000      4.694061000000000E-01     -1.164570000000000E+02      1.815796000000000E-01      2.437793000000000E+01
5540000000.000000      4.623260000000000E-01     -1.184453000000000E+02      1.847382000000000E-01     -6.718262000000000E+00
5560000000.000000      4.537506000000000E-01     -1.201328000000000E+02      1.902924000000000E-01     -3.531641000000000E+01
5580000000.000000      4.455872000000000E-01     -1.213945000000000E+02      2.005997000000000E-01     -6.344921000000000E+01
5600000000.000000      4.407654000000000E-01     -1.223476000000000E+02      2.059021000000000E-01     -9.077343000000000E+01
5620000000.000000      4.353333000000000E-01     -1.229375000000000E+02      2.106705000000000E-01     -1.168398000000000E+02
5640000000.000000      4.327240000000000E-01     -1.233555000000000E+02      2.114563000000000E-01     -1.429844000000000E+02
5660000000.000000      4.325409000000000E-01     -1.231562000000000E+02      2.073975000000000E-01     -1.685390000000000E+02
5680000000.000000      4.377136000000000E-01     -1.233164000000000E+02      2.014999000000000E-01      1.655859000000000E+02
5700000000.000000      4.493103000000000E-01     -1.238398000000000E+02      1.921921000000000E-01      1.387734000000000E+02
5720000000.000000      4.611969000000000E-01     -1.256680000000000E+02      1.825562000000000E-01      1.111758000000000E+02
5740000000.000000      4.675598000000000E-01     -1.286172000000000E+02      1.741180000000000E-01      8.087109000000000E+01
5760000000.000000      4.654846000000000E-01     -1.318203000000000E+02      1.643372000000000E-01      4.801758000000000E+01
5780000000.000000      4.545135000000000E-01     -1.344375000000000E+02      1.563721000000000E-01      1.450977000000000E+01
5800000000.000000      4.402161000000000E-01     -1.359141000000000E+02      1.540909000000000E-01     -1.755762000000000E+01
5820000000.000000      4.323883000000000E-01     -1.362344000000000E+02      1.620483000000000E-01     -4.883594000000000E+01
5840000000.000000      4.317322000000000E-01     -1.367969000000000E+02      1.736679000000000E-01     -8.042969000000000E+01
5860000000.000000      4.368134000000000E-01     -1.375937000000000E+02      1.822281000000000E-01     -1.093750000000000E+02
5880000000.000000      4.424286000000000E-01     -1.394531000000000E+02      1.911926000000000E-01     -1.369375000000000E+02
5900000000.000000      4.426727000000000E-01     -1.414297000000000E+02      1.978455000000000E-01     -1.633594000000000E+02
5920000000.000000      4.385376000000000E-01     -1.433047000000000E+02      2.012100000000000E-01      1.707500000000000E+02
5940000000.000000      4.343414000000000E-01     -1.446328000000000E+02      1.963425000000000E-01      1.444687000000000E+02
5960000000.000000      4.309082000000000E-01     -1.460938000000000E+02      1.863174000000000E-01      1.198828000000000E+02
5980000000.000000      4.243622000000000E-01     -1.478047000000000E+02      1.793137000000000E-01      9.400000000000000E+01
6000000000.000000      4.143982000000000E-01     -1.495781000000000E+02      1.668472000000000E-01      6.586719000000000E+01
6020000000.000000      3.995361000000000E-01     -1.512266000000000E+02      1.516571000000000E-01      3.609961000000000E+01
6040000000.000000      3.854523000000000E-01     -1.518594000000000E+02      1.351242000000000E-01      5.287109000000000E+00
6060000000.000000      3.733673000000000E-01     -1.514609000000000E+02      1.259155000000000E-01     -2.518652000000000E+01
6080000000.000000      3.709869000000000E-01     -1.504375000000000E+02      1.305923000000000E-01     -5.789844000000000E+01
