! Network Analyzer HP8722D
! Hewlett-Packard
! Data name: Linha com CNT
! Saver's name: Rodrigo Anjos
! Comments: Teste de deteccao de acetona 0-100ppm a partir de cilindro
! Time and date: 10/9/2025 17:03
!              Frequency                     S11                                                   S21                                                   S12                                                   S22
# HZ  S  MA R 50
3000000000.000000      2.194366000000000E-01      2.855273000000000E+01      3.532867000000000E-01      2.723340000000000E+01
3020000000.000000      2.359619000000000E-01      2.786523000000000E+01      3.553619000000000E-01     -1.867676000000000E+00
3040000000.000000      2.481995000000000E-01      2.444531000000000E+01      3.558502000000000E-01     -3.091601000000000E+01
3060000000.000000      2.489548000000000E-01      1.975976000000000E+01      3.543549000000000E-01     -5.983788000000000E+01
3080000000.000000      2.398148000000000E-01      1.615332000000000E+01      3.509216000000000E-01     -8.869141000000000E+01
3100000000.000000      2.299957000000000E-01      1.454590000000000E+01      3.500366000000000E-01     -1.167695000000000E+02
3120000000.000000      2.243118000000000E-01      1.452393000000000E+01      3.488617000000000E-01     -1.455234000000000E+02
3140000000.000000      2.236404000000000E-01      1.382764000000000E+01      3.447876000000000E-01     -1.740234000000000E+02
3160000000.000000      2.200623000000000E-01      1.217529000000000E+01      3.409424000000000E-01      1.574062000000000E+02
3180000000.000000      2.064743000000000E-01      1.087646000000000E+01      3.346252000000000E-01      1.288047000000000E+02
3200000000.000000      1.857147000000000E-01      1.316553000000000E+01      3.314056000000000E-01      9.988670000000000E+01
3220000000.000000      1.711578000000000E-01      2.101465000000000E+01      3.194580000000000E-01      7.075390000000000E+01
3240000000.000000      1.798553000000000E-01      3.128125000000000E+01      3.109436000000000E-01      4.458789000000000E+01
3260000000.000000      2.096558000000000E-01      3.699414000000000E+01      3.181915000000000E-01      1.801562000000000E+01
3280000000.000000      2.486954000000000E-01      3.628906000000000E+01      3.254395000000000E-01     -1.141650000000000E+01
3300000000.000000      2.834473000000000E-01      3.134766000000000E+01      3.252716000000000E-01     -4.004296000000000E+01
3320000000.000000      3.057709000000000E-01      2.471777000000000E+01      3.313599000000000E-01     -6.829687000000000E+01
3340000000.000000      3.138580000000000E-01      1.830566000000000E+01      3.365784000000000E-01     -9.745312000000000E+01
3360000000.000000      3.100128000000000E-01      1.296631000000000E+01      3.388214000000000E-01     -1.264180000000000E+02
3380000000.000000      3.000488000000000E-01      9.597656000000000E+00      3.407440000000000E-01     -1.552891000000000E+02
3400000000.000000      2.890778000000000E-01      7.264648000000000E+00      3.413696000000000E-01      1.759531000000000E+02
3420000000.000000      2.799072000000000E-01      5.943604000000000E+00      3.410339000000000E-01      1.470156000000000E+02
3440000000.000000      2.714996000000000E-01      4.654053000000000E+00      3.371735000000000E-01      1.183945000000000E+02
3460000000.000000      2.636108000000000E-01      3.710571000000000E+00      3.362274000000000E-01      9.011719000000000E+01
3480000000.000000      2.581635000000000E-01      3.157104000000000E+00      3.349915000000000E-01      6.114258000000000E+01
3500000000.000000      2.549896000000000E-01      2.934692000000000E+00      3.311157000000000E-01      3.265429000000000E+01
3520000000.000000      2.522430000000000E-01      2.346924000000000E+00      3.302460000000000E-01      4.090820000000000E+00
3540000000.000000      2.503204000000000E-01      2.154663000000000E+00      3.286285000000000E-01     -2.445508000000000E+01
3560000000.000000      2.471771000000000E-01      2.617432000000000E+00      3.297424000000000E-01     -5.305469000000000E+01
3580000000.000000      2.454681000000000E-01      3.560913000000000E+00      3.293304000000000E-01     -8.191406000000000E+01
3600000000.000000      2.489548000000000E-01      4.612793000000000E+00      3.286896000000000E-01     -1.097070000000000E+02
3620000000.000000      2.563171000000000E-01      4.654053000000000E+00      3.318939000000000E-01     -1.379766000000000E+02
3640000000.000000      2.641907000000000E-01      3.142090000000000E+00      3.332672000000000E-01     -1.664297000000000E+02
3660000000.000000      2.665558000000000E-01      2.197266000000000E-01      3.332214000000000E-01      1.655625000000000E+02
3680000000.000000      2.624817000000000E-01     -2.415649000000000E+00      3.342590000000000E-01      1.373906000000000E+02
3700000000.000000      2.524719000000000E-01     -3.599487000000000E+00      3.333893000000000E-01      1.093789000000000E+02
3720000000.000000      2.450333000000000E-01     -2.628540000000000E+00      3.339386000000000E-01      8.094921000000000E+01
3740000000.000000      2.485657000000000E-01     -4.751587000000000E-01      3.277893000000000E-01      5.258398000000000E+01
3760000000.000000      2.594147000000000E-01      1.510620000000000E-01      3.244019000000000E-01      2.495898000000000E+01
3780000000.000000      2.697449000000000E-01     -1.587524000000000E+00      3.257294000000000E-01     -3.081665000000000E+00
3800000000.000000      2.736664000000000E-01     -4.991943000000000E+00      3.253326000000000E-01     -3.191895000000000E+01
3820000000.000000      2.651672000000000E-01     -8.104004000000000E+00      3.243866000000000E-01     -6.064453000000000E+01
3840000000.000000      2.534027000000000E-01     -9.153320000000000E+00      3.234863000000000E-01     -8.940624000000000E+01
3860000000.000000      2.470551000000000E-01     -8.044922000000000E+00      3.236237000000000E-01     -1.184180000000000E+02
3880000000.000000      2.516174000000000E-01     -6.413330000000000E+00      3.199005000000000E-01     -1.474062000000000E+02
3900000000.000000      2.635803000000000E-01     -7.045166000000000E+00      3.164368000000000E-01     -1.753750000000000E+02
3920000000.000000      2.705078000000000E-01     -9.955078000000000E+00      3.188782000000000E-01      1.567578000000000E+02
3940000000.000000      2.649384000000000E-01     -1.319629000000000E+01      3.222961000000000E-01      1.282031000000000E+02
3960000000.000000      2.497330000000000E-01     -1.418652000000000E+01      3.214874000000000E-01      9.922264000000000E+01
3980000000.000000      2.378998000000000E-01     -1.192334000000000E+01      3.139038000000000E-01      7.066796000000000E+01
4000000000.000000      2.417145000000000E-01     -8.182129000000000E+00      3.088074000000000E-01      4.427734000000000E+01
4020000000.000000      2.616577000000000E-01     -6.786865000000000E+00      3.173218000000000E-01      1.658594000000000E+01
4040000000.000000      2.876892000000000E-01     -9.623047000000000E+00      3.179321000000000E-01     -1.362305000000000E+01
4060000000.000000      3.021851000000000E-01     -1.542236000000000E+01      3.094025000000000E-01     -4.243750000000000E+01
4080000000.000000      2.990570000000000E-01     -2.238476000000000E+01      3.093109000000000E-01     -7.008984000000000E+01
4100000000.000000      2.770386000000000E-01     -2.774902000000000E+01      3.136749000000000E-01     -9.918358000000000E+01
4120000000.000000      2.483292000000000E-01     -2.925000000000000E+01      3.115387000000000E-01     -1.294219000000000E+02
4140000000.000000      2.288132000000000E-01     -2.657812000000000E+01      3.037720000000000E-01     -1.579297000000000E+02
4160000000.000000      2.256622000000000E-01     -2.339160000000000E+01      3.050690000000000E-01      1.746484000000000E+02
4180000000.000000      2.311401000000000E-01     -2.221191000000000E+01      3.111572000000000E-01      1.457578000000000E+02
4200000000.000000      2.327576000000000E-01     -2.315136000000000E+01      3.091583000000000E-01      1.164375000000000E+02
4220000000.000000      2.300034000000000E-01     -2.392578000000000E+01      3.074646000000000E-01      8.767578000000000E+01
4240000000.000000      2.235031000000000E-01     -2.264355000000000E+01      3.025818000000000E-01      5.903906000000000E+01
4260000000.000000      2.255249000000000E-01     -1.973437000000000E+01      2.966766000000000E-01      3.136719000000000E+01
4280000000.000000      2.374725000000000E-01     -1.768555000000000E+01      2.977295000000000E-01      3.407104000000000E+00
4300000000.000000      2.541504000000000E-01     -1.840137000000000E+01      2.968903000000000E-01     -2.551660000000000E+01
4320000000.000000      2.656708000000000E-01     -2.148828000000000E+01      2.955322000000000E-01     -5.415429000000000E+01
4340000000.000000      2.666931000000000E-01     -2.512988000000000E+01      2.952576000000000E-01     -8.318359000000000E+01
4360000000.000000      2.604523000000000E-01     -2.744433000000000E+01      2.945099000000000E-01     -1.128594000000000E+02
4380000000.000000      2.544098000000000E-01     -2.773535000000000E+01      2.920685000000000E-01     -1.425781000000000E+02
4400000000.000000      2.572479000000000E-01     -2.737597000000000E+01      2.892609000000000E-01     -1.714531000000000E+02
4420000000.000000      2.661133000000000E-01     -2.821289000000000E+01      2.923126000000000E-01      1.597578000000000E+02
4440000000.000000      2.721558000000000E-01     -3.095215000000000E+01      2.942200000000000E-01      1.299844000000000E+02
4460000000.000000      2.681885000000000E-01     -3.400586000000000E+01      2.900391000000000E-01      1.005039000000000E+02
4480000000.000000      2.550049000000000E-01     -3.581640000000000E+01      2.881470000000000E-01      7.193749000000000E+01
4500000000.000000      2.422409000000000E-01     -3.448242000000000E+01      2.852173000000000E-01      4.333398000000000E+01
4520000000.000000      2.410812000000000E-01     -3.146973000000000E+01      2.818298000000000E-01      1.422852000000000E+01
4540000000.000000      2.557678000000000E-01     -2.967773000000000E+01      2.746735000000000E-01     -1.463672000000000E+01
4560000000.000000      2.747040000000000E-01     -3.087597000000000E+01      2.725220000000000E-01     -4.251172000000000E+01
4580000000.000000      2.913208000000000E-01     -3.422656000000000E+01      2.737427000000000E-01     -7.210155000000000E+01
4600000000.000000      2.980499000000000E-01     -3.807617000000000E+01      2.716522000000000E-01     -1.024219000000000E+02
4620000000.000000      2.978210000000000E-01     -4.109961000000000E+01      2.692413000000000E-01     -1.324453000000000E+02
4640000000.000000      2.975311000000000E-01     -4.316406000000000E+01      2.677155000000000E-01     -1.625937000000000E+02
4660000000.000000      3.001862000000000E-01     -4.488477000000000E+01      2.673492000000000E-01      1.684766000000000E+02
4680000000.000000      3.054962000000000E-01     -4.734571000000000E+01      2.722321000000000E-01      1.389297000000000E+02
4700000000.000000      3.082123000000000E-01     -5.088867000000000E+01      2.730713000000000E-01      1.091640000000000E+02
4720000000.000000      3.054657000000000E-01     -5.496484000000000E+01      2.722778000000000E-01      8.110155000000000E+01
4740000000.000000      2.984619000000000E-01     -5.887890000000000E+01      2.769318000000000E-01      5.285742000000000E+01
4760000000.000000      2.874908000000000E-01     -6.258007000000000E+01      2.758179000000000E-01      2.430664000000000E+01
4780000000.000000      2.743073000000000E-01     -6.611718000000000E+01      2.720795000000000E-01     -4.091064000000000E+00
4800000000.000000      2.566681000000000E-01     -6.983593000000000E+01      2.665558000000000E-01     -3.255078000000000E+01
4820000000.000000      2.306213000000000E-01     -7.284374000000000E+01      2.567139000000000E-01     -6.125000000000000E+01
4840000000.000000      1.938171000000000E-01     -7.222265000000000E+01      2.478638000000000E-01     -8.958593000000000E+01
4860000000.000000      1.640320000000000E-01     -6.459374000000000E+01      2.403870000000000E-01     -1.197773000000000E+02
4880000000.000000      1.583328000000000E-01     -4.940430000000000E+01      2.230682000000000E-01     -1.502656000000000E+02
4900000000.000000      1.881027000000000E-01     -3.836328000000000E+01      2.054672000000000E-01     -1.769063000000000E+02
4920000000.000000      2.350616000000000E-01     -3.654687000000000E+01      2.093582000000000E-01      1.582422000000000E+02
4940000000.000000      2.807770000000000E-01     -4.077538000000000E+01      2.237244000000000E-01      1.292109000000000E+02
4960000000.000000      3.147583000000000E-01     -4.830664000000000E+01      2.302322000000000E-01      9.882030000000000E+01
4980000000.000000      3.274384000000000E-01     -5.706445000000000E+01      2.381287000000000E-01      7.079296000000000E+01
5000000000.000000      3.181915000000000E-01     -6.481250000000000E+01      2.509918000000000E-01      4.217773000000000E+01
5020000000.000000      2.943420000000000E-01     -6.967968000000000E+01      2.588043000000000E-01      1.338232000000000E+01
5040000000.000000      2.693024000000000E-01     -7.084374000000000E+01      2.617950000000000E-01     -1.376318000000000E+01
5060000000.000000      2.557526000000000E-01     -6.917187000000000E+01      2.682037000000000E-01     -4.033399000000000E+01
5080000000.000000      2.554169000000000E-01     -6.744922000000000E+01      2.738037000000000E-01     -6.814843000000000E+01
5100000000.000000      2.625275000000000E-01     -6.712500000000000E+01      2.694244000000000E-01     -9.632030000000000E+01
5120000000.000000      2.689514000000000E-01     -6.832421000000000E+01      2.662811000000000E-01     -1.235078000000000E+02
5140000000.000000      2.740631000000000E-01     -6.994531000000000E+01      2.635956000000000E-01     -1.521094000000000E+02
5160000000.000000      2.774353000000000E-01     -7.154687000000000E+01      2.593689000000000E-01      1.785156000000000E+02
5180000000.000000      2.834473000000000E-01     -7.308984000000000E+01      2.559967000000000E-01      1.488047000000000E+02
5200000000.000000      2.892151000000000E-01     -7.534374000000000E+01      2.539825000000000E-01      1.185586000000000E+02
5220000000.000000      2.906494000000000E-01     -7.805469000000000E+01      2.545166000000000E-01      8.870703000000000E+01
5240000000.000000      2.891388000000000E-01     -8.039843000000000E+01      2.583160000000000E-01      5.852929000000000E+01
5260000000.000000      2.836151000000000E-01     -8.193750000000000E+01      2.632904000000000E-01      2.858593000000000E+01
5280000000.000000      2.791443000000000E-01     -8.265234000000000E+01      2.672577000000000E-01     -6.481934000000000E-01
5300000000.000000      2.787781000000000E-01     -8.324219000000000E+01      2.698212000000000E-01     -2.849902000000000E+01
5320000000.000000      2.818909000000000E-01     -8.448437000000000E+01      2.763062000000000E-01     -5.527929000000000E+01
5340000000.000000      2.831879000000000E-01     -8.632030000000000E+01      2.793579000000000E-01     -8.301172000000000E+01
5360000000.000000      2.824097000000000E-01     -8.843750000000000E+01      2.762604000000000E-01     -1.101328000000000E+02
5380000000.000000      2.801819000000000E-01     -9.005077000000000E+01      2.734985000000000E-01     -1.368438000000000E+02
5400000000.000000      2.790527000000000E-01     -9.080858000000000E+01      2.688751000000000E-01     -1.642812000000000E+02
5420000000.000000      2.839508000000000E-01     -9.076563000000000E+01      2.627869000000000E-01      1.678906000000000E+02
5440000000.000000      2.930298000000000E-01     -9.166016000000000E+01      2.571411000000000E-01      1.386953000000000E+02
5460000000.000000      3.029785000000000E-01     -9.409765000000000E+01      2.481689000000000E-01      1.091094000000000E+02
5480000000.000000      3.063354000000000E-01     -9.756248000000000E+01      2.446976000000000E-01      7.926171000000000E+01
5500000000.000000      3.018188000000000E-01     -1.014180000000000E+02      2.460251000000000E-01      4.879687000000000E+01
5520000000.000000      2.894897000000000E-01     -1.045351000000000E+02      2.469330000000000E-01      1.810059000000000E+01
5540000000.000000      2.762909000000000E-01     -1.065117000000000E+02      2.496643000000000E-01     -1.200684000000000E+01
5560000000.000000      2.649384000000000E-01     -1.076484000000000E+02      2.543945000000000E-01     -4.069921000000000E+01
5580000000.000000      2.562561000000000E-01     -1.079805000000000E+02      2.613983000000000E-01     -6.923046000000000E+01
5600000000.000000      2.494278000000000E-01     -1.079883000000000E+02      2.660065000000000E-01     -9.689453000000000E+01
5620000000.000000      2.439194000000000E-01     -1.069922000000000E+02      2.678680000000000E-01     -1.241133000000000E+02
5640000000.000000      2.436600000000000E-01     -1.051094000000000E+02      2.668762000000000E-01     -1.514609000000000E+02
5660000000.000000      2.516327000000000E-01     -1.029531000000000E+02      2.618713000000000E-01     -1.780156000000000E+02
5680000000.000000      2.682648000000000E-01     -1.020820000000000E+02      2.562256000000000E-01      1.545781000000000E+02
5700000000.000000      2.886963000000000E-01     -1.043281000000000E+02      2.462082000000000E-01      1.267383000000000E+02
5720000000.000000      3.043976000000000E-01     -1.088633000000000E+02      2.370682000000000E-01      9.912889000000000E+01
5740000000.000000      3.072815000000000E-01     -1.145781000000000E+02      2.324829000000000E-01      6.966015000000000E+01
5760000000.000000      2.958984000000000E-01     -1.199844000000000E+02      2.275085000000000E-01      3.822461000000000E+01
5780000000.000000      2.769165000000000E-01     -1.231328000000000E+02      2.222595000000000E-01      6.745605000000000E+00
5800000000.000000      2.605438000000000E-01     -1.233633000000000E+02      2.215118000000000E-01     -2.367480000000000E+01
5820000000.000000      2.563934000000000E-01     -1.221094000000000E+02      2.281265000000000E-01     -5.372460000000000E+01
5840000000.000000      2.619934000000000E-01     -1.225156000000000E+02      2.368927000000000E-01     -8.443359000000000E+01
5860000000.000000      2.691650000000000E-01     -1.250352000000000E+02      2.405396000000000E-01     -1.135625000000000E+02
5880000000.000000      2.706604000000000E-01     -1.288672000000000E+02      2.440948000000000E-01     -1.410000000000000E+02
5900000000.000000      2.631073000000000E-01     -1.323984000000000E+02      2.496033000000000E-01     -1.681484000000000E+02
5920000000.000000      2.519073000000000E-01     -1.342422000000000E+02      2.517853000000000E-01      1.643281000000000E+02
5940000000.000000      2.435989000000000E-01     -1.345391000000000E+02      2.459030000000000E-01      1.363359000000000E+02
5960000000.000000      2.394714000000000E-01     -1.353125000000000E+02      2.347412000000000E-01      1.096172000000000E+02
5980000000.000000      2.336731000000000E-01     -1.369609000000000E+02      2.276154000000000E-01      8.238281000000000E+01
6000000000.000000      2.203674000000000E-01     -1.393359000000000E+02      2.199554000000000E-01      5.276562000000000E+01
6020000000.000000      2.000656000000000E-01     -1.400625000000000E+02      2.081604000000000E-01      2.192969000000000E+01
6040000000.000000      1.807251000000000E-01     -1.371172000000000E+02      1.949539000000000E-01     -8.561523000000000E+00
6060000000.000000      1.745071000000000E-01     -1.315781000000000E+02      1.899719000000000E-01     -3.837305000000000E+01
6080000000.000000      1.853714000000000E-01     -1.262930000000000E+02      1.968307000000000E-01     -6.897655000000000E+01
