! Network Analyzer HP8722D
! Hewlett-Packard
! Data name: Linha com CNT
! Saver's name: Rodrigo Anjos
! Comments: Teste de deteccao de acetona 0-100ppm a partir de cilindro
! Time and date: 10/9/2025 15:24
!              Frequency                     S11                                                   S21                                                   S12                                                   S22
# HZ  S  MA R 50
3000000000.000000      5.205994000000000E-01      1.292529000000000E+01      2.129517000000000E-01      3.720898000000000E+01
3020000000.000000      5.255737000000000E-01      1.216016000000000E+01      2.171936000000000E-01      7.737061000000000E+00
3040000000.000000      5.311890000000000E-01      1.145166000000000E+01      2.174454000000000E-01     -2.154785000000000E+01
3060000000.000000      5.360107000000000E-01      9.817383000000000E+00      2.175140000000000E-01     -5.084570000000000E+01
3080000000.000000      5.361023000000000E-01      8.339844000000000E+00      2.132492000000000E-01     -7.983984000000000E+01
3100000000.000000      5.338440000000000E-01      6.867676000000000E+00      2.118912000000000E-01     -1.074219000000000E+02
3120000000.000000      5.318909000000000E-01      5.828125000000000E+00      2.116547000000000E-01     -1.360781000000000E+02
3140000000.000000      5.317078000000000E-01      4.965820000000000E+00      2.080078000000000E-01     -1.646094000000000E+02
3160000000.000000      5.342407000000000E-01      3.890503000000000E+00      2.044449000000000E-01      1.668203000000000E+02
3180000000.000000      5.315857000000000E-01      2.694336000000000E+00      1.985855000000000E-01      1.387891000000000E+02
3200000000.000000      5.246887000000000E-01      1.742676000000000E+00      1.955109000000000E-01      1.106758000000000E+02
3220000000.000000      5.130920000000000E-01      1.398010000000000E+00      1.865005000000000E-01      8.207811000000000E+01
3240000000.000000      5.074768000000000E-01      1.418579000000000E+00      1.804352000000000E-01      5.734765000000000E+01
3260000000.000000      5.071411000000000E-01      1.755066000000000E+00      1.898422000000000E-01      3.153711000000000E+01
3280000000.000000      5.112915000000000E-01      2.281006000000000E+00      1.975937000000000E-01      1.785278000000000E+00
3300000000.000000      5.252380000000000E-01      2.087402000000000E+00      2.008209000000000E-01     -2.672363000000000E+01
3320000000.000000      5.380859000000000E-01      9.297180000000000E-01      2.089233000000000E-01     -5.587891000000000E+01
3340000000.000000      5.507507000000000E-01     -7.182312000000000E-01      2.131653000000000E-01     -8.591797000000000E+01
3360000000.000000      5.547485000000000E-01     -2.701294000000000E+00      2.157211000000000E-01     -1.158242000000000E+02
3380000000.000000      5.538940000000000E-01     -4.173584000000000E+00      2.142639000000000E-01     -1.452812000000000E+02
3400000000.000000      5.518494000000000E-01     -5.355957000000000E+00      2.137833000000000E-01     -1.739844000000000E+02
3420000000.000000      5.498047000000000E-01     -6.573975000000000E+00      2.119370000000000E-01      1.568203000000000E+02
3440000000.000000      5.459900000000000E-01     -7.870361000000000E+00      2.073669000000000E-01      1.287031000000000E+02
3460000000.000000      5.433960000000000E-01     -8.724609000000000E+00      2.083740000000000E-01      1.006719000000000E+02
3480000000.000000      5.397949000000000E-01     -9.915527000000000E+00      2.055817000000000E-01      7.160546000000000E+01
3500000000.000000      5.375977000000000E-01     -1.060889000000000E+01      2.035446000000000E-01      4.382813000000000E+01
3520000000.000000      5.376587000000000E-01     -1.161133000000000E+01      2.040329000000000E-01      1.461865000000000E+01
3540000000.000000      5.380554000000000E-01     -1.241895000000000E+01      1.993866000000000E-01     -1.403516000000000E+01
3560000000.000000      5.359497000000000E-01     -1.322510000000000E+01      2.003326000000000E-01     -4.192383000000000E+01
3580000000.000000      5.339661000000000E-01     -1.386084000000000E+01      2.005844000000000E-01     -7.057422000000000E+01
3600000000.000000      5.310059000000000E-01     -1.473291000000000E+01      2.008438000000000E-01     -9.792578000000000E+01
3620000000.000000      5.335083000000000E-01     -1.535645000000000E+01      2.050400000000000E-01     -1.262734000000000E+02
3640000000.000000      5.356750000000000E-01     -1.630371000000000E+01      2.062912000000000E-01     -1.549062000000000E+02
3660000000.000000      5.367432000000000E-01     -1.739844000000000E+01      2.075119000000000E-01      1.768828000000000E+02
3680000000.000000      5.361938000000000E-01     -1.871191000000000E+01      2.055283000000000E-01      1.483359000000000E+02
3700000000.000000      5.340271000000000E-01     -1.994629000000000E+01      2.035675000000000E-01      1.211992000000000E+02
3720000000.000000      5.292053000000000E-01     -2.067773000000000E+01      2.051620000000000E-01      9.283983000000000E+01
3740000000.000000      5.277710000000000E-01     -2.108301000000000E+01      2.009048000000000E-01      6.462109000000000E+01
3760000000.000000      5.301208000000000E-01     -2.139062000000000E+01      2.009430000000000E-01      3.754687000000000E+01
3780000000.000000      5.329895000000000E-01     -2.201562000000000E+01      2.032623000000000E-01      8.899902000000000E+00
3800000000.000000      5.372314000000000E-01     -2.326367000000000E+01      2.016754000000000E-01     -2.046973000000000E+01
3820000000.000000      5.374451000000000E-01     -2.482226000000000E+01      1.997833000000000E-01     -4.907617000000000E+01
3840000000.000000      5.347900000000000E-01     -2.607519000000000E+01      1.995773000000000E-01     -7.753515000000000E+01
3860000000.000000      5.301208000000000E-01     -2.714941000000000E+01      2.006454000000000E-01     -1.066875000000000E+02
3880000000.000000      5.296021000000000E-01     -2.784765000000000E+01      1.979218000000000E-01     -1.355000000000000E+02
3900000000.000000      5.316772000000000E-01     -2.838183000000000E+01      1.982880000000000E-01     -1.627969000000000E+02
3920000000.000000      5.371704000000000E-01     -2.949023000000000E+01      2.011414000000000E-01      1.685781000000000E+02
3940000000.000000      5.371399000000000E-01     -3.075098000000000E+01      1.994858000000000E-01      1.402422000000000E+02
3960000000.000000      5.347595000000000E-01     -3.214258000000000E+01      1.998291000000000E-01      1.120234000000000E+02
3980000000.000000      5.274353000000000E-01     -3.299023000000000E+01      1.942749000000000E-01      8.338671000000000E+01
4000000000.000000      5.213318000000000E-01     -3.342187000000000E+01      1.915131000000000E-01      5.823242000000000E+01
4020000000.000000      5.218201000000000E-01     -3.356445000000000E+01      1.997223000000000E-01      3.042089000000000E+01
4040000000.000000      5.314331000000000E-01     -3.400391000000000E+01      1.992722000000000E-01     -1.867676000000000E-01
4060000000.000000      5.434265000000000E-01     -3.525195000000000E+01      1.959915000000000E-01     -2.904785000000000E+01
4080000000.000000      5.516968000000000E-01     -3.751562000000000E+01      1.958923000000000E-01     -5.839648000000000E+01
4100000000.000000      5.503540000000000E-01     -4.015821000000000E+01      1.953659000000000E-01     -8.765625000000000E+01
4120000000.000000      5.426025000000000E-01     -4.167578000000000E+01      1.933441000000000E-01     -1.182227000000000E+02
4140000000.000000      5.328979000000000E-01     -4.279492000000000E+01      1.856003000000000E-01     -1.464688000000000E+02
4160000000.000000      5.269470000000000E-01     -4.349609000000000E+01      1.882935000000000E-01     -1.726719000000000E+02
4180000000.000000      5.253906000000000E-01     -4.405663000000000E+01      1.936188000000000E-01      1.580156000000000E+02
4200000000.000000      5.245667000000000E-01     -4.507226000000000E+01      1.907196000000000E-01      1.298047000000000E+02
4220000000.000000      5.252380000000000E-01     -4.619726000000000E+01      1.925583000000000E-01      1.018281000000000E+02
4240000000.000000      5.208130000000000E-01     -4.728906000000000E+01      1.888046000000000E-01      7.261719000000000E+01
4260000000.000000      5.174561000000000E-01     -4.800390000000000E+01      1.835632000000000E-01      4.602344000000000E+01
4280000000.000000      5.161438000000000E-01     -4.823632000000000E+01      1.853256000000000E-01      1.859277000000000E+01
4300000000.000000      5.186157000000000E-01     -4.860937000000000E+01      1.843109000000000E-01     -1.002539000000000E+01
4320000000.000000      5.236206000000000E-01     -4.961914000000000E+01      1.847153000000000E-01     -3.886328000000000E+01
4340000000.000000      5.273132000000000E-01     -5.103320000000000E+01      1.842728000000000E-01     -6.862109000000000E+01
4360000000.000000      5.292969000000000E-01     -5.266015000000000E+01      1.849365000000000E-01     -9.880859000000000E+01
4380000000.000000      5.244141000000000E-01     -5.396679000000000E+01      1.825867000000000E-01     -1.291953000000000E+02
4400000000.000000      5.225220000000000E-01     -5.472851000000000E+01      1.816025000000000E-01     -1.577969000000000E+02
4420000000.000000      5.237427000000000E-01     -5.542773000000000E+01      1.868362000000000E-01      1.732109000000000E+02
4440000000.000000      5.278015000000000E-01     -5.660156000000000E+01      1.886826000000000E-01      1.435391000000000E+02
4460000000.000000      5.287476000000000E-01     -5.781250000000000E+01      1.882706000000000E-01      1.144531000000000E+02
4480000000.000000      5.289917000000000E-01     -5.958593000000000E+01      1.870575000000000E-01      8.576172000000000E+01
4500000000.000000      5.231018000000000E-01     -6.080664000000000E+01      1.837769000000000E-01      5.817968000000000E+01
4520000000.000000      5.157166000000000E-01     -6.166797000000000E+01      1.810989000000000E-01      3.006543000000000E+01
4540000000.000000      5.145569000000000E-01     -6.216991000000000E+01      1.756897000000000E-01      2.308472000000000E+00
4560000000.000000      5.166016000000000E-01     -6.279101000000000E+01      1.753922000000000E-01     -2.504492000000000E+01
4580000000.000000      5.257263000000000E-01     -6.361523000000000E+01      1.753845000000000E-01     -5.550390000000000E+01
4600000000.000000      5.290527000000000E-01     -6.489843000000000E+01      1.725769000000000E-01     -8.607422000000000E+01
4620000000.000000      5.328064000000000E-01     -6.635156000000000E+01      1.722031000000000E-01     -1.176797000000000E+02
4640000000.000000      5.325928000000000E-01     -6.737890000000000E+01      1.681442000000000E-01     -1.493984000000000E+02
4660000000.000000      5.343933000000000E-01     -6.855859000000000E+01      1.696014000000000E-01     -1.787188000000000E+02
4680000000.000000      5.367126000000000E-01     -6.966797000000000E+01      1.761703000000000E-01      1.509531000000000E+02
4700000000.000000      5.415649000000000E-01     -7.069921000000000E+01      1.794357000000000E-01      1.209219000000000E+02
4720000000.000000      5.437317000000000E-01     -7.254687000000000E+01      1.841736000000000E-01      9.230860000000000E+01
4740000000.000000      5.467529000000000E-01     -7.443749000000000E+01      1.879654000000000E-01      6.392383000000000E+01
4760000000.000000      5.485840000000000E-01     -7.632421000000000E+01      1.869507000000000E-01      3.627148000000000E+01
4780000000.000000      5.477600000000000E-01     -7.831640000000000E+01      1.837616000000000E-01      8.455078000000000E+00
4800000000.000000      5.442810000000000E-01     -8.047266000000000E+01      1.768265000000000E-01     -1.877246000000000E+01
4820000000.000000      5.349731000000000E-01     -8.260937000000000E+01      1.656036000000000E-01     -4.595899000000000E+01
4840000000.000000      5.223999000000000E-01     -8.438280000000000E+01      1.543121000000000E-01     -7.241015000000000E+01
4860000000.000000      5.071411000000000E-01     -8.555468000000000E+01      1.454849000000000E-01     -1.008516000000000E+02
4880000000.000000      4.895477000000000E-01     -8.583593000000000E+01      1.312256000000000E-01     -1.305625000000000E+02
4900000000.000000      4.779205000000000E-01     -8.519531000000000E+01      1.184464000000000E-01     -1.561016000000000E+02
4920000000.000000      4.746246000000000E-01     -8.412889000000000E+01      1.220245000000000E-01      1.787656000000000E+02
4940000000.000000      4.836578000000000E-01     -8.306250000000000E+01      1.344070000000000E-01      1.475078000000000E+02
4960000000.000000      5.038147000000000E-01     -8.303905000000000E+01      1.439056000000000E-01      1.147617000000000E+02
4980000000.000000      5.237427000000000E-01     -8.457811000000000E+01      1.545258000000000E-01      8.412109000000000E+01
5000000000.000000      5.351868000000000E-01     -8.710155000000000E+01      1.664047000000000E-01      5.396874000000000E+01
5020000000.000000      5.358276000000000E-01     -8.964844000000000E+01      1.734314000000000E-01      2.428515000000000E+01
5040000000.000000      5.282898000000000E-01     -9.175781000000000E+01      1.759109000000000E-01     -2.022949000000000E+00
5060000000.000000      5.188599000000000E-01     -9.300390000000000E+01      1.817245000000000E-01     -2.654590000000000E+01
5080000000.000000      5.120239000000000E-01     -9.392969000000000E+01      1.881485000000000E-01     -5.286133000000000E+01
5100000000.000000      5.100708000000000E-01     -9.463671000000000E+01      1.854782000000000E-01     -7.948437000000000E+01
5120000000.000000      5.101013000000000E-01     -9.546484000000000E+01      1.840363000000000E-01     -1.059180000000000E+02
5140000000.000000      5.125427000000000E-01     -9.622265000000000E+01      1.786880000000000E-01     -1.339922000000000E+02
5160000000.000000      5.146484000000000E-01     -9.706249000000000E+01      1.714935000000000E-01     -1.624297000000000E+02
5180000000.000000      5.208740000000000E-01     -9.791796000000000E+01      1.661072000000000E-01      1.672031000000000E+02
5200000000.000000      5.266724000000000E-01     -9.911718000000000E+01      1.615524000000000E-01      1.358047000000000E+02
5220000000.000000      5.316162000000000E-01     -1.005937000000000E+02      1.608276000000000E-01      1.042734000000000E+02
5240000000.000000      5.344849000000000E-01     -1.021250000000000E+02      1.644287000000000E-01      7.212109000000000E+01
5260000000.000000      5.339966000000000E-01     -1.037812000000000E+02      1.697617000000000E-01      4.086523000000000E+01
5280000000.000000      5.300293000000000E-01     -1.051875000000000E+02      1.754303000000000E-01      1.075830000000000E+01
5300000000.000000      5.281067000000000E-01     -1.064258000000000E+02      1.808243000000000E-01     -1.640723000000000E+01
5320000000.000000      5.267639000000000E-01     -1.075273000000000E+02      1.907883000000000E-01     -4.249804000000000E+01
5340000000.000000      5.259094000000000E-01     -1.086953000000000E+02      1.954575000000000E-01     -6.958202000000000E+01
5360000000.000000      5.261536000000000E-01     -1.099219000000000E+02      1.961670000000000E-01     -9.531250000000000E+01
5380000000.000000      5.280151000000000E-01     -1.110234000000000E+02      1.946259000000000E-01     -1.213008000000000E+02
5400000000.000000      5.278015000000000E-01     -1.121601000000000E+02      1.868820000000000E-01     -1.471406000000000E+02
5420000000.000000      5.297241000000000E-01     -1.126992000000000E+02      1.810226000000000E-01     -1.734219000000000E+02
5440000000.000000      5.339661000000000E-01     -1.135195000000000E+02      1.729965000000000E-01      1.574844000000000E+02
5460000000.000000      5.413208000000000E-01     -1.146484000000000E+02      1.620255000000000E-01      1.278203000000000E+02
5480000000.000000      5.479736000000000E-01     -1.163086000000000E+02      1.563416000000000E-01      9.610546000000000E+01
5500000000.000000      5.509949000000000E-01     -1.184727000000000E+02      1.534882000000000E-01      6.315234000000000E+01
5520000000.000000      5.480652000000000E-01     -1.206445000000000E+02      1.550293000000000E-01      2.976269000000000E+01
5540000000.000000      5.433044000000000E-01     -1.226015000000000E+02      1.571808000000000E-01     -2.297607000000000E+00
5560000000.000000      5.367126000000000E-01     -1.244102000000000E+02      1.643677000000000E-01     -3.072558000000000E+01
5580000000.000000      5.287170000000000E-01     -1.258242000000000E+02      1.758347000000000E-01     -5.885156000000000E+01
5600000000.000000      5.231018000000000E-01     -1.268789000000000E+02      1.831894000000000E-01     -8.572657000000000E+01
5620000000.000000      5.184937000000000E-01     -1.279414000000000E+02      1.898956000000000E-01     -1.110469000000000E+02
5640000000.000000      5.142822000000000E-01     -1.286016000000000E+02      1.916351000000000E-01     -1.365781000000000E+02
5660000000.000000      5.130310000000000E-01     -1.291250000000000E+02      1.881638000000000E-01     -1.611641000000000E+02
5680000000.000000      5.152283000000000E-01     -1.294141000000000E+02      1.831894000000000E-01      1.735625000000000E+02
5700000000.000000      5.223694000000000E-01     -1.299922000000000E+02      1.732101000000000E-01      1.474453000000000E+02
5720000000.000000      5.319824000000000E-01     -1.313437000000000E+02      1.623764000000000E-01      1.204805000000000E+02
5740000000.000000      5.397339000000000E-01     -1.336406000000000E+02      1.508560000000000E-01      8.979296000000000E+01
5760000000.000000      5.397034000000000E-01     -1.363594000000000E+02      1.380920000000000E-01      5.611328000000000E+01
5780000000.000000      5.306396000000000E-01     -1.388906000000000E+02      1.278000000000000E-01      2.131836000000000E+01
5800000000.000000      5.170898000000000E-01     -1.405313000000000E+02      1.250763000000000E-01     -1.221436000000000E+01
5820000000.000000      5.070496000000000E-01     -1.412812000000000E+02      1.341171000000000E-01     -4.512109000000000E+01
5840000000.000000      5.031128000000000E-01     -1.418359000000000E+02      1.482468000000000E-01     -7.747656000000000E+01
5860000000.000000      5.063171000000000E-01     -1.426641000000000E+02      1.607819000000000E-01     -1.064414000000000E+02
5880000000.000000      5.125427000000000E-01     -1.440391000000000E+02      1.722107000000000E-01     -1.335859000000000E+02
5900000000.000000      5.138245000000000E-01     -1.454687000000000E+02      1.796188000000000E-01     -1.591953000000000E+02
5920000000.000000      5.119019000000000E-01     -1.470781000000000E+02      1.850967000000000E-01      1.758906000000000E+02
5940000000.000000      5.093384000000000E-01     -1.485078000000000E+02      1.811142000000000E-01      1.508594000000000E+02
5960000000.000000      5.055847000000000E-01     -1.500000000000000E+02      1.722717000000000E-01      1.277773000000000E+02
5980000000.000000      4.991150000000000E-01     -1.517109000000000E+02      1.642456000000000E-01      1.029726000000000E+02
6000000000.000000      4.903259000000000E-01     -1.535156000000000E+02      1.495590000000000E-01      7.641015000000000E+01
6020000000.000000      4.767151000000000E-01     -1.550469000000000E+02      1.319656000000000E-01      4.819530000000000E+01
6040000000.000000      4.621429000000000E-01     -1.560078000000000E+02      1.124954000000000E-01      1.834082000000000E+01
6060000000.000000      4.517975000000000E-01     -1.563125000000000E+02      1.006355000000000E-01     -1.247119000000000E+01
6080000000.000000      4.470367000000000E-01     -1.557734000000000E+02      1.018333000000000E-01     -4.755273000000000E+01
