! Network Analyzer HP8722D
! Hewlett-Packard
! Data name: Linha com CNT
! Saver's name: Rodrigo Anjos
! Comments: Teste de deteccao de acetona 0-100ppm a partir de cilindro
! Time and date: 10/9/2025 15:10
!              Frequency                     S11                                                   S21                                                   S12                                                   S22
# HZ  S  MA R 50
3000000000.000000      6.322327000000000E-01      1.069238000000000E+01      1.610107000000000E-01      4.745507000000000E+01
3020000000.000000      6.353455000000000E-01      9.931641000000000E+00      1.652451000000000E-01      1.752637000000000E+01
3040000000.000000      6.401978000000000E-01      9.185547000000000E+00      1.661682000000000E-01     -1.171875000000000E+01
3060000000.000000      6.464844000000000E-01      7.908691000000000E+00      1.662750000000000E-01     -4.130859000000000E+01
3080000000.000000      6.450500000000000E-01      6.641113000000000E+00      1.623306000000000E-01     -7.030859000000000E+01
3100000000.000000      6.459045000000000E-01      5.501221000000000E+00      1.619644000000000E-01     -9.750780000000000E+01
3120000000.000000      6.453552000000000E-01      4.461670000000000E+00      1.620941000000000E-01     -1.262734000000000E+02
3140000000.000000      6.478271000000000E-01      3.334351000000000E+00      1.593399000000000E-01     -1.547891000000000E+02
3160000000.000000      6.488037000000000E-01      2.386719000000000E+00      1.560669000000000E-01      1.767187000000000E+02
3180000000.000000      6.494446000000000E-01      1.340332000000000E+00      1.509552000000000E-01      1.491328000000000E+02
3200000000.000000      6.444397000000000E-01      3.446960000000000E-01      1.483536000000000E-01      1.214023000000000E+02
3220000000.000000      6.387329000000000E-01     -7.717896000000000E-01      1.414337000000000E-01      9.299608000000000E+01
3240000000.000000      6.335754000000000E-01     -1.473572000000000E+00      1.367264000000000E-01      6.868359000000000E+01
3260000000.000000      6.291504000000000E-01     -1.987183000000000E+00      1.451874000000000E-01      4.321679000000000E+01
3280000000.000000      6.294556000000000E-01     -2.135498000000000E+00      1.522369000000000E-01      1.352100000000000E+01
3300000000.000000      6.353760000000000E-01     -2.480225000000000E+00      1.557770000000000E-01     -1.515039000000000E+01
3320000000.000000      6.436157000000000E-01     -3.206665000000000E+00      1.628571000000000E-01     -4.476758000000000E+01
3340000000.000000      6.510010000000000E-01     -4.244873000000000E+00      1.670151000000000E-01     -7.523828000000000E+01
3360000000.000000      6.573181000000000E-01     -5.621094000000000E+00      1.693344000000000E-01     -1.054023000000000E+02
3380000000.000000      6.574707000000000E-01     -6.737549000000000E+00      1.675186000000000E-01     -1.353359000000000E+02
3400000000.000000      6.571350000000000E-01     -8.034180000000000E+00      1.672211000000000E-01     -1.638906000000000E+02
3420000000.000000      6.553040000000000E-01     -9.077637000000000E+00      1.651993000000000E-01      1.669375000000000E+02
3440000000.000000      6.534424000000000E-01     -1.031787000000000E+01      1.615067000000000E-01      1.391406000000000E+02
3460000000.000000      6.504822000000000E-01     -1.130664000000000E+01      1.623917000000000E-01      1.111367000000000E+02
3480000000.000000      6.504517000000000E-01     -1.226807000000000E+01      1.600113000000000E-01      8.214062000000000E+01
3500000000.000000      6.483154000000000E-01     -1.308643000000000E+01      1.589890000000000E-01      5.467578000000000E+01
3520000000.000000      6.495667000000000E-01     -1.411768000000000E+01      1.598129000000000E-01      2.519433000000000E+01
3540000000.000000      6.498108000000000E-01     -1.518213000000000E+01      1.547012000000000E-01     -3.415405000000000E+00
3560000000.000000      6.502380000000000E-01     -1.596045000000000E+01      1.560898000000000E-01     -3.114258000000000E+01
3580000000.000000      6.483459000000000E-01     -1.684766000000000E+01      1.561737000000000E-01     -5.988867000000000E+01
3600000000.000000      6.455383000000000E-01     -1.776367000000000E+01      1.563644000000000E-01     -8.691015000000000E+01
3620000000.000000      6.456909000000000E-01     -1.856641000000000E+01      1.605911000000000E-01     -1.154883000000000E+02
3640000000.000000      6.457520000000000E-01     -1.935449000000000E+01      1.621246000000000E-01     -1.440312000000000E+02
3660000000.000000      6.465149000000000E-01     -2.058203000000000E+01      1.636887000000000E-01     -1.725703000000000E+02
3680000000.000000      6.474304000000000E-01     -2.161426000000000E+01      1.607285000000000E-01      1.586641000000000E+02
3700000000.000000      6.483765000000000E-01     -2.271582000000000E+01      1.584625000000000E-01      1.323281000000000E+02
3720000000.000000      6.442261000000000E-01     -2.392285000000000E+01      1.614075000000000E-01      1.041640000000000E+02
3740000000.000000      6.417542000000000E-01     -2.437109000000000E+01      1.580276000000000E-01      7.593359000000000E+01
3760000000.000000      6.426697000000000E-01     -2.501074000000000E+01      1.589508000000000E-01      4.905273000000000E+01
3780000000.000000      6.419067000000000E-01     -2.590332000000000E+01      1.612854000000000E-01      2.001074000000000E+01
3800000000.000000      6.479797000000000E-01     -2.683594000000000E+01      1.589203000000000E-01     -9.552734000000000E+00
3820000000.000000      6.472473000000000E-01     -2.821094000000000E+01      1.574249000000000E-01     -3.819726000000000E+01
3840000000.000000      6.475220000000000E-01     -2.921289000000000E+01      1.574860000000000E-01     -6.650000000000000E+01
3860000000.000000      6.459351000000000E-01     -3.050683000000000E+01      1.584396000000000E-01     -9.559765000000000E+01
3880000000.000000      6.432495000000000E-01     -3.140332000000000E+01      1.567078000000000E-01     -1.245742000000000E+02
3900000000.000000      6.466370000000000E-01     -3.222851000000000E+01      1.578445000000000E-01     -1.519063000000000E+02
3920000000.000000      6.463623000000000E-01     -3.317578000000000E+01      1.604996000000000E-01      1.792344000000000E+02
3940000000.000000      6.487732000000000E-01     -3.440234000000000E+01      1.585312000000000E-01      1.510469000000000E+02
3960000000.000000      6.466064000000000E-01     -3.554492000000000E+01      1.596756000000000E-01      1.234219000000000E+02
3980000000.000000      6.443787000000000E-01     -3.666211000000000E+01      1.549683000000000E-01      9.511328000000000E+01
4000000000.000000      6.378479000000000E-01     -3.744726000000000E+01      1.531448000000000E-01      7.029687000000000E+01
4020000000.000000      6.354675000000000E-01     -3.809961000000000E+01      1.606979000000000E-01      4.244141000000000E+01
4040000000.000000      6.419678000000000E-01     -3.858203000000000E+01      1.605682000000000E-01      1.169043000000000E+01
4060000000.000000      6.488037000000000E-01     -3.953711000000000E+01      1.584320000000000E-01     -1.733105000000000E+01
4080000000.000000      6.598206000000000E-01     -4.122851000000000E+01      1.574326000000000E-01     -4.727148000000000E+01
4100000000.000000      6.576233000000000E-01     -4.282422000000000E+01      1.556625000000000E-01     -7.693749000000000E+01
4120000000.000000      6.576233000000000E-01     -4.447461000000000E+01      1.534119000000000E-01     -1.075859000000000E+02
4140000000.000000      6.507874000000000E-01     -4.583789000000000E+01      1.470871000000000E-01     -1.356562000000000E+02
4160000000.000000      6.466064000000000E-01     -4.679101000000000E+01      1.502838000000000E-01     -1.616641000000000E+02
4180000000.000000      6.431274000000000E-01     -4.777148000000000E+01      1.544952000000000E-01      1.690391000000000E+02
4200000000.000000      6.423950000000000E-01     -4.889648000000000E+01      1.526031000000000E-01      1.412422000000000E+02
4220000000.000000      6.445923000000000E-01     -4.992188000000000E+01      1.560516000000000E-01      1.137578000000000E+02
4240000000.000000      6.398926000000000E-01     -5.125000000000000E+01      1.532364000000000E-01      8.440624000000000E+01
4260000000.000000      6.383667000000000E-01     -5.218945000000000E+01      1.491699000000000E-01      5.833593000000000E+01
4280000000.000000      6.373596000000000E-01     -5.283203000000000E+01      1.506729000000000E-01      3.112793000000000E+01
4300000000.000000      6.353455000000000E-01     -5.334179000000000E+01      1.500015000000000E-01      2.536377000000000E+00
4320000000.000000      6.387634000000000E-01     -5.435741000000000E+01      1.498871000000000E-01     -2.623535000000000E+01
4340000000.000000      6.405640000000000E-01     -5.572851000000000E+01      1.491623000000000E-01     -5.617773000000000E+01
4360000000.000000      6.422424000000000E-01     -5.708008000000000E+01      1.491241000000000E-01     -8.661718000000000E+01
4380000000.000000      6.397400000000000E-01     -5.838085000000000E+01      1.467209000000000E-01     -1.172969000000000E+02
4400000000.000000      6.369629000000000E-01     -5.931445000000000E+01      1.462021000000000E-01     -1.459375000000000E+02
4420000000.000000      6.383057000000000E-01     -6.022265000000000E+01      1.517029000000000E-01     -1.752500000000000E+02
4440000000.000000      6.390991000000000E-01     -6.116796000000000E+01      1.536865000000000E-01      1.546406000000000E+02
4460000000.000000      6.420288000000000E-01     -6.252734000000000E+01      1.557693000000000E-01      1.257773000000000E+02
4480000000.000000      6.429443000000000E-01     -6.395117000000000E+01      1.548843000000000E-01      9.703125000000000E+01
4500000000.000000      6.393433000000000E-01     -6.532421000000000E+01      1.529846000000000E-01      6.964062000000000E+01
4520000000.000000      6.335449000000000E-01     -6.648438000000000E+01      1.509933000000000E-01      4.228320000000000E+01
4540000000.000000      6.300354000000000E-01     -6.744531000000000E+01      1.469040000000000E-01      1.508691000000000E+01
4560000000.000000      6.316223000000000E-01     -6.821094000000000E+01      1.467819000000000E-01     -1.195752000000000E+01
4580000000.000000      6.341553000000000E-01     -6.911327000000000E+01      1.457443000000000E-01     -4.209180000000000E+01
4600000000.000000      6.365051000000000E-01     -7.028515000000000E+01      1.420059000000000E-01     -7.228516000000000E+01
4620000000.000000      6.385803000000000E-01     -7.153515000000000E+01      1.409073000000000E-01     -1.043555000000000E+02
4640000000.000000      6.379700000000000E-01     -7.259375000000000E+01      1.361008000000000E-01     -1.368594000000000E+02
4660000000.000000      6.383362000000000E-01     -7.348437000000000E+01      1.370544000000000E-01     -1.667422000000000E+02
4680000000.000000      6.392212000000000E-01     -7.448828000000000E+01      1.431046000000000E-01      1.618750000000000E+02
4700000000.000000      6.411133000000000E-01     -7.552734000000000E+01      1.470108000000000E-01      1.312109000000000E+02
4720000000.000000      6.448975000000000E-01     -7.651953000000000E+01      1.535873000000000E-01      1.021719000000000E+02
4740000000.000000      6.493225000000000E-01     -7.830468000000000E+01      1.571655000000000E-01      7.305469000000000E+01
4760000000.000000      6.529236000000000E-01     -7.983593000000000E+01      1.587982000000000E-01      4.569336000000000E+01
4780000000.000000      6.539001000000000E-01     -8.135937000000000E+01      1.568756000000000E-01      1.825586000000000E+01
4800000000.000000      6.563110000000000E-01     -8.304296000000000E+01      1.508179000000000E-01     -8.134277000000000E+00
4820000000.000000      6.537170000000000E-01     -8.515625000000000E+01      1.413269000000000E-01     -3.419336000000000E+01
4840000000.000000      6.457825000000000E-01     -8.671484000000000E+01      1.307831000000000E-01     -5.927734000000000E+01
4860000000.000000      6.356201000000000E-01     -8.830469000000000E+01      1.241150000000000E-01     -8.596874000000000E+01
4880000000.000000      6.224365000000000E-01     -8.961329000000000E+01      1.103477000000000E-01     -1.141875000000000E+02
4900000000.000000      6.085815000000000E-01     -9.010937000000000E+01      9.807968000000000E-02     -1.385937000000000E+02
4920000000.000000      6.004028000000000E-01     -9.046093000000000E+01      1.004829000000000E-01     -1.635625000000000E+02
4940000000.000000      5.982971000000000E-01     -9.019140000000000E+01      1.096954000000000E-01      1.639844000000000E+02
4960000000.000000      6.060181000000000E-01     -8.998438000000000E+01      1.166153000000000E-01      1.292969000000000E+02
4980000000.000000      6.204224000000000E-01     -9.065624000000000E+01      1.269226000000000E-01      9.657030000000000E+01
5000000000.000000      6.337585000000000E-01     -9.223047000000000E+01      1.373978000000000E-01      6.434375000000000E+01
5020000000.000000      6.390076000000000E-01     -9.417969000000000E+01      1.440582000000000E-01      3.368750000000000E+01
5040000000.000000      6.367493000000000E-01     -9.603125000000000E+01      1.470718000000000E-01      7.304443000000000E+00
5060000000.000000      6.320190000000000E-01     -9.769531000000000E+01      1.542130000000000E-01     -1.666308000000000E+01
5080000000.000000      6.251526000000000E-01     -9.883202000000000E+01      1.611481000000000E-01     -4.273046000000000E+01
5100000000.000000      6.213684000000000E-01     -9.962891000000000E+01      1.612320000000000E-01     -6.837500000000000E+01
5120000000.000000      6.204834000000000E-01     -1.006914000000000E+02      1.625443000000000E-01     -9.391405000000000E+01
5140000000.000000      6.203003000000000E-01     -1.014844000000000E+02      1.578827000000000E-01     -1.214687000000000E+02
5160000000.000000      6.223755000000000E-01     -1.023242000000000E+02      1.511841000000000E-01     -1.489687000000000E+02
5180000000.000000      6.260681000000000E-01     -1.031523000000000E+02      1.442719000000000E-01     -1.791563000000000E+02
5200000000.000000      6.318970000000000E-01     -1.042266000000000E+02      1.376343000000000E-01      1.498516000000000E+02
5220000000.000000      6.361084000000000E-01     -1.056094000000000E+02      1.350098000000000E-01      1.178750000000000E+02
5240000000.000000      6.399841000000000E-01     -1.067461000000000E+02      1.357193000000000E-01      8.462109000000000E+01
5260000000.000000      6.389771000000000E-01     -1.084297000000000E+02      1.392441000000000E-01      5.199413000000000E+01
5280000000.000000      6.369019000000000E-01     -1.100625000000000E+02      1.447220000000000E-01      2.082812000000000E+01
5300000000.000000      6.356812000000000E-01     -1.113437000000000E+02      1.511078000000000E-01     -6.412109000000000E+00
5320000000.000000      6.315308000000000E-01     -1.125937000000000E+02      1.622467000000000E-01     -3.290820000000000E+01
5340000000.000000      6.309814000000000E-01     -1.135938000000000E+02      1.684265000000000E-01     -5.984570000000000E+01
5360000000.000000      6.301880000000000E-01     -1.148438000000000E+02      1.726227000000000E-01     -8.471874000000000E+01
5380000000.000000      6.331177000000000E-01     -1.158398000000000E+02      1.734848000000000E-01     -1.106289000000000E+02
5400000000.000000      6.310425000000000E-01     -1.171953000000000E+02      1.668854000000000E-01     -1.356719000000000E+02
5420000000.000000      6.325684000000000E-01     -1.178789000000000E+02      1.625824000000000E-01     -1.611328000000000E+02
5440000000.000000      6.357422000000000E-01     -1.185234000000000E+02      1.547775000000000E-01      1.703750000000000E+02
5460000000.000000      6.417847000000000E-01     -1.196562000000000E+02      1.428680000000000E-01      1.417422000000000E+02
5480000000.000000      6.467590000000000E-01     -1.209375000000000E+02      1.347122000000000E-01      1.101289000000000E+02
5500000000.000000      6.510925000000000E-01     -1.228906000000000E+02      1.284027000000000E-01      7.636719000000000E+01
5520000000.000000      6.504211000000000E-01     -1.246719000000000E+02      1.262817000000000E-01      4.179492000000000E+01
5540000000.000000      6.482239000000000E-01     -1.265703000000000E+02      1.273575000000000E-01      8.231445000000000E+00
5560000000.000000      6.441345000000000E-01     -1.283516000000000E+02      1.341934000000000E-01     -2.120410000000000E+01
5580000000.000000      6.373291000000000E-01     -1.299453000000000E+02      1.473160000000000E-01     -5.005273000000000E+01
5600000000.000000      6.329956000000000E-01     -1.312344000000000E+02      1.565781000000000E-01     -7.721093000000000E+01
5620000000.000000      6.263428000000000E-01     -1.323984000000000E+02      1.660309000000000E-01     -1.020469000000000E+02
5640000000.000000      6.216125000000000E-01     -1.332344000000000E+02      1.714630000000000E-01     -1.273476000000000E+02
5660000000.000000      6.207886000000000E-01     -1.342109000000000E+02      1.711426000000000E-01     -1.510703000000000E+02
5680000000.000000      6.181030000000000E-01     -1.348828000000000E+02      1.688309000000000E-01     -1.756484000000000E+02
5700000000.000000      6.212158000000000E-01     -1.356484000000000E+02      1.606674000000000E-01      1.596094000000000E+02
5720000000.000000      6.271057000000000E-01     -1.366016000000000E+02      1.507339000000000E-01      1.336953000000000E+02
5740000000.000000      6.347656000000000E-01     -1.382344000000000E+02      1.368027000000000E-01      1.043516000000000E+02
5760000000.000000      6.354370000000000E-01     -1.405078000000000E+02      1.195488000000000E-01      7.232422000000000E+01
5780000000.000000      6.298523000000000E-01     -1.426719000000000E+02      1.047783000000000E-01      3.745508000000000E+01
5800000000.000000      6.172180000000000E-01     -1.443906000000000E+02      9.743500000000000E-02      2.815186000000000E+00
5820000000.000000      6.071777000000000E-01     -1.454297000000000E+02      1.035652000000000E-01     -3.285937000000000E+01
5840000000.000000      6.020508000000000E-01     -1.462734000000000E+02      1.167145000000000E-01     -6.802734000000000E+01
5860000000.000000      5.998230000000000E-01     -1.469531000000000E+02      1.310196000000000E-01     -9.852734000000000E+01
5880000000.000000      6.055298000000000E-01     -1.478047000000000E+02      1.457443000000000E-01     -1.272500000000000E+02
5900000000.000000      6.098633000000000E-01     -1.489687000000000E+02      1.566849000000000E-01     -1.531172000000000E+02
5920000000.000000      6.112061000000000E-01     -1.503515000000000E+02      1.644363000000000E-01     -1.776875000000000E+02
5940000000.000000      6.093750000000000E-01     -1.517578000000000E+02      1.637268000000000E-01      1.582109000000000E+02
5960000000.000000      6.070251000000000E-01     -1.532344000000000E+02      1.591263000000000E-01      1.364141000000000E+02
5980000000.000000      6.024170000000000E-01     -1.547031000000000E+02      1.544189000000000E-01      1.130469000000000E+02
6000000000.000000      5.937195000000000E-01     -1.563906000000000E+02      1.417618000000000E-01      8.834764000000000E+01
6020000000.000000      5.869751000000000E-01     -1.577891000000000E+02      1.252975000000000E-01      6.281640000000000E+01
6040000000.000000      5.756226000000000E-01     -1.592500000000000E+02      1.057816000000000E-01      3.586133000000000E+01
6060000000.000000      5.641174000000000E-01     -1.600391000000000E+02      9.140778000000000E-02      7.449951000000000E+00
6080000000.000000      5.572815000000000E-01     -1.604375000000000E+02      8.658218000000000E-02     -2.729004000000000E+01
