! Network Analyzer HP8722D
! Hewlett-Packard
! Data name: Linha com CNT
! Saver's name: Rodrigo Anjos
! Comments: Teste de deteccao de acetona 0-100ppm a partir de cilindro
! Time and date: 10/9/2025 17:28
!              Frequency                     S11                                                   S21                                                   S12                                                   S22
# HZ  S  MA R 50
3000000000.000000      4.225311000000000E-01      1.648047000000000E+01      2.579498000000000E-01      3.303125000000000E+01
3020000000.000000      4.323425000000000E-01      1.613281000000000E+01      2.615967000000000E-01      3.615845000000000E+00
3040000000.000000      4.411621000000000E-01      1.482861000000000E+01      2.622833000000000E-01     -2.554688000000000E+01
3060000000.000000      4.443359000000000E-01      1.290869000000000E+01      2.618408000000000E-01     -5.471484000000000E+01
3080000000.000000      4.418030000000000E-01      1.096143000000000E+01      2.577667000000000E-01     -8.365234000000000E+01
3100000000.000000      4.377289000000000E-01      9.474121000000000E+00      2.561340000000000E-01     -1.114844000000000E+02
3120000000.000000      4.353790000000000E-01      8.740723000000000E+00      2.553558000000000E-01     -1.403125000000000E+02
3140000000.000000      4.364014000000000E-01      7.797363000000000E+00      2.522888000000000E-01     -1.687656000000000E+02
3160000000.000000      4.362946000000000E-01      6.638428000000000E+00      2.482910000000000E-01      1.627578000000000E+02
3180000000.000000      4.314270000000000E-01      5.369385000000000E+00      2.424393000000000E-01      1.346953000000000E+02
3200000000.000000      4.191284000000000E-01      4.798096000000000E+00      2.384491000000000E-01      1.060430000000000E+02
3220000000.000000      4.072266000000000E-01      5.167480000000000E+00      2.283783000000000E-01      7.738671000000000E+01
3240000000.000000      4.020081000000000E-01      6.339111000000000E+00      2.215424000000000E-01      5.197851000000000E+01
3260000000.000000      4.040527000000000E-01      8.103516000000000E+00      2.303009000000000E-01      2.586914000000000E+01
3280000000.000000      4.184570000000000E-01      9.058105000000000E+00      2.381897000000000E-01     -3.425049000000000E+00
3300000000.000000      4.390259000000000E-01      8.530762000000000E+00      2.413559000000000E-01     -3.223242000000000E+01
3320000000.000000      4.583740000000000E-01      6.819580000000000E+00      2.488174000000000E-01     -6.099218000000000E+01
3340000000.000000      4.707794000000000E-01      4.371094000000000E+00      2.536774000000000E-01     -9.076952000000000E+01
3360000000.000000      4.745789000000000E-01      1.838806000000000E+00      2.557220000000000E-01     -1.203125000000000E+02
3380000000.000000      4.736023000000000E-01      7.278442000000000E-02      2.556763000000000E-01     -1.495234000000000E+02
3400000000.000000      4.684753000000000E-01     -1.485901000000000E+00      2.551880000000000E-01     -1.783047000000000E+02
3420000000.000000      4.646149000000000E-01     -2.734253000000000E+00      2.536926000000000E-01      1.524609000000000E+02
3440000000.000000      4.590912000000000E-01     -4.011475000000000E+00      2.494354000000000E-01      1.241640000000000E+02
3460000000.000000      4.546356000000000E-01     -5.015381000000000E+00      2.495804000000000E-01      9.600389000000000E+01
3480000000.000000      4.528656000000000E-01     -6.053467000000000E+00      2.471848000000000E-01      6.692187000000000E+01
3500000000.000000      4.508362000000000E-01     -6.810303000000000E+00      2.447433000000000E-01      3.882421000000000E+01
3520000000.000000      4.500427000000000E-01     -7.669922000000000E+00      2.445526000000000E-01      9.969727000000000E+00
3540000000.000000      4.502411000000000E-01     -8.582031000000000E+00      2.408142000000000E-01     -1.838769000000000E+01
3560000000.000000      4.479980000000000E-01     -9.248047000000000E+00      2.418442000000000E-01     -4.669726000000000E+01
3580000000.000000      4.450684000000000E-01     -9.720215000000000E+00      2.412338000000000E-01     -7.552343000000000E+01
3600000000.000000      4.439697000000000E-01     -1.020947000000000E+01      2.417526000000000E-01     -1.029492000000000E+02
3620000000.000000      4.462433000000000E-01     -1.057178000000000E+01      2.455750000000000E-01     -1.312266000000000E+02
3640000000.000000      4.500885000000000E-01     -1.148096000000000E+01      2.472610000000000E-01     -1.597578000000000E+02
3660000000.000000      4.521637000000000E-01     -1.287744000000000E+01      2.480469000000000E-01      1.718828000000000E+02
3680000000.000000      4.532013000000000E-01     -1.444434000000000E+01      2.470398000000000E-01      1.434922000000000E+02
3700000000.000000      4.485626000000000E-01     -1.592627000000000E+01      2.454453000000000E-01      1.159570000000000E+02
3720000000.000000      4.418335000000000E-01     -1.660352000000000E+01      2.463455000000000E-01      8.782812000000000E+01
3740000000.000000      4.424896000000000E-01     -1.656934000000000E+01      2.413788000000000E-01      5.942383000000000E+01
3760000000.000000      4.448395000000000E-01     -1.656054000000000E+01      2.407837000000000E-01      3.218554000000000E+01
3780000000.000000      4.501801000000000E-01     -1.728516000000000E+01      2.426605000000000E-01      3.839722000000000E+00
3800000000.000000      4.566193000000000E-01     -1.885840000000000E+01      2.420502000000000E-01     -2.530566000000000E+01
3820000000.000000      4.544373000000000E-01     -2.082910000000000E+01      2.395172000000000E-01     -5.404297000000000E+01
3840000000.000000      4.486542000000000E-01     -2.224219000000000E+01      2.391663000000000E-01     -8.266405000000000E+01
3860000000.000000      4.438782000000000E-01     -2.293750000000000E+01      2.395096000000000E-01     -1.117578000000000E+02
3880000000.000000      4.432983000000000E-01     -2.315430000000000E+01      2.364044000000000E-01     -1.405078000000000E+02
3900000000.000000      4.476318000000000E-01     -2.373340000000000E+01      2.353439000000000E-01     -1.682266000000000E+02
3920000000.000000      4.532318000000000E-01     -2.486914000000000E+01      2.380600000000000E-01      1.634609000000000E+02
3940000000.000000      4.537964000000000E-01     -2.662890000000000E+01      2.380829000000000E-01      1.349688000000000E+02
3960000000.000000      4.461060000000000E-01     -2.815527000000000E+01      2.379990000000000E-01      1.065000000000000E+02
3980000000.000000      4.370422000000000E-01     -2.864355000000000E+01      2.319565000000000E-01      7.786327000000000E+01
4000000000.000000      4.322510000000000E-01     -2.844141000000000E+01      2.283325000000000E-01      5.210546000000000E+01
4020000000.000000      4.372101000000000E-01     -2.801465000000000E+01      2.370682000000000E-01      2.446972000000000E+01
4040000000.000000      4.523468000000000E-01     -2.854980000000000E+01      2.374573000000000E-01     -5.912109000000000E+00
4060000000.000000      4.667053000000000E-01     -3.056836000000000E+01      2.327576000000000E-01     -3.462891000000000E+01
4080000000.000000      4.731598000000000E-01     -3.367383000000000E+01      2.326736000000000E-01     -6.355469000000000E+01
4100000000.000000      4.654541000000000E-01     -3.664258000000000E+01      2.335815000000000E-01     -9.278515000000000E+01
4120000000.000000      4.517670000000000E-01     -3.856250000000000E+01      2.304077000000000E-01     -1.231016000000000E+02
4140000000.000000      4.399109000000000E-01     -3.918164000000000E+01      2.224274000000000E-01     -1.514297000000000E+02
4160000000.000000      4.335022000000000E-01     -3.937304000000000E+01      2.249374000000000E-01     -1.780937000000000E+02
4180000000.000000      4.334259000000000E-01     -3.962109000000000E+01      2.299194000000000E-01      1.528516000000000E+02
4200000000.000000      4.340973000000000E-01     -4.075000000000000E+01      2.270889000000000E-01      1.240273000000000E+02
4220000000.000000      4.322510000000000E-01     -4.179101000000000E+01      2.279510000000000E-01      9.589453000000000E+01
4240000000.000000      4.266663000000000E-01     -4.246679000000000E+01      2.237244000000000E-01      6.677343000000000E+01
4260000000.000000      4.242859000000000E-01     -4.271484000000000E+01      2.186813000000000E-01      3.972070000000000E+01
4280000000.000000      4.251709000000000E-01     -4.251953000000000E+01      2.199326000000000E-01      1.216553000000000E+01
4300000000.000000      4.297485000000000E-01     -4.270117000000000E+01      2.196579000000000E-01     -1.652637000000000E+01
4320000000.000000      4.359741000000000E-01     -4.385742000000000E+01      2.192993000000000E-01     -4.529882000000000E+01
4340000000.000000      4.408875000000000E-01     -4.558789000000000E+01      2.194672000000000E-01     -7.467187000000000E+01
4360000000.000000      4.407654000000000E-01     -4.737305000000000E+01      2.196808000000000E-01     -1.047187000000000E+02
4380000000.000000      4.364777000000000E-01     -4.845898000000000E+01      2.175140000000000E-01     -1.346406000000000E+02
4400000000.000000      4.357147000000000E-01     -4.903515000000000E+01      2.156525000000000E-01     -1.632578000000000E+02
4420000000.000000      4.382477000000000E-01     -4.961914000000000E+01      2.197037000000000E-01      1.677734000000000E+02
4440000000.000000      4.431610000000000E-01     -5.074219000000000E+01      2.212830000000000E-01      1.379609000000000E+02
4460000000.000000      4.444122000000000E-01     -5.267968000000000E+01      2.196732000000000E-01      1.086172000000000E+02
4480000000.000000      4.394226000000000E-01     -5.431250000000000E+01      2.176285000000000E-01      7.999218000000000E+01
4500000000.000000      4.310608000000000E-01     -5.545116000000000E+01      2.143784000000000E-01      5.172852000000000E+01
4520000000.000000      4.252777000000000E-01     -5.606640000000000E+01      2.113495000000000E-01      2.323144000000000E+01
4540000000.000000      4.259644000000000E-01     -5.578125000000000E+01      2.060776000000000E-01     -4.969971000000000E+00
4560000000.000000      4.323730000000000E-01     -5.605469000000000E+01      2.054367000000000E-01     -3.250391000000000E+01
4580000000.000000      4.438019000000000E-01     -5.708398000000000E+01      2.068481000000000E-01     -6.260351000000000E+01
4600000000.000000      4.500275000000000E-01     -5.872265000000000E+01      2.045441000000000E-01     -9.295313000000000E+01
4620000000.000000      4.518585000000000E-01     -6.037890000000000E+01      2.040176000000000E-01     -1.236836000000000E+02
4640000000.000000      4.541321000000000E-01     -6.167187000000000E+01      2.012482000000000E-01     -1.545469000000000E+02
4660000000.000000      4.557953000000000E-01     -6.272265000000000E+01      2.016602000000000E-01      1.762734000000000E+02
4680000000.000000      4.605408000000000E-01     -6.394140000000000E+01      2.072601000000000E-01      1.462969000000000E+02
4700000000.000000      4.659271000000000E-01     -6.579687000000000E+01      2.086792000000000E-01      1.164687000000000E+02
4720000000.000000      4.686890000000000E-01     -6.778906000000000E+01      2.113800000000000E-01      8.809374000000000E+01
4740000000.000000      4.688873000000000E-01     -7.019921000000000E+01      2.148972000000000E-01      5.953320000000000E+01
4760000000.000000      4.680481000000000E-01     -7.245312000000000E+01      2.132263000000000E-01      3.128613000000000E+01
4780000000.000000      4.636230000000000E-01     -7.479297000000000E+01      2.096863000000000E-01      3.095337000000000E+00
4800000000.000000      4.579163000000000E-01     -7.706249000000000E+01      2.031784000000000E-01     -2.487890000000000E+01
4820000000.000000      4.451294000000000E-01     -7.947266000000000E+01      1.933212000000000E-01     -5.305469000000000E+01
4840000000.000000      4.262543000000000E-01     -8.132813000000000E+01      1.829605000000000E-01     -8.044531000000000E+01
4860000000.000000      4.046326000000000E-01     -8.173046000000000E+01      1.748886000000000E-01     -1.095469000000000E+02
4880000000.000000      3.862457000000000E-01     -8.049219000000000E+01      1.603699000000000E-01     -1.395859000000000E+02
4900000000.000000      3.792419000000000E-01     -7.817968000000000E+01      1.467590000000000E-01     -1.652344000000000E+02
4920000000.000000      3.855743000000000E-01     -7.569140000000000E+01      1.514587000000000E-01      1.699609000000000E+02
4940000000.000000      4.057465000000000E-01     -7.421093000000000E+01      1.647644000000000E-01      1.400234000000000E+02
4960000000.000000      4.330902000000000E-01     -7.490624000000000E+01      1.726685000000000E-01      1.086914000000000E+02
4980000000.000000      4.549866000000000E-01     -7.775391000000000E+01      1.825638000000000E-01      7.933984000000000E+01
5000000000.000000      4.636383000000000E-01     -8.135937000000000E+01      1.933212000000000E-01      4.974023000000000E+01
5020000000.000000      4.593964000000000E-01     -8.464453000000000E+01      1.993484000000000E-01      2.043262000000000E+01
5040000000.000000      4.477081000000000E-01     -8.694921000000000E+01      2.012787000000000E-01     -6.431152000000000E+00
5060000000.000000      4.361572000000000E-01     -8.776171000000000E+01      2.068863000000000E-01     -3.212109000000000E+01
5080000000.000000      4.301300000000000E-01     -8.826952000000000E+01      2.123642000000000E-01     -5.939843000000000E+01
5100000000.000000      4.309540000000000E-01     -8.868750000000000E+01      2.093735000000000E-01     -8.671093000000000E+01
5120000000.000000      4.319000000000000E-01     -8.942968000000000E+01      2.077026000000000E-01     -1.135898000000000E+02
5140000000.000000      4.354248000000000E-01     -9.032812000000000E+01      2.034760000000000E-01     -1.422109000000000E+02
5160000000.000000      4.401093000000000E-01     -9.133593000000000E+01      1.987381000000000E-01     -1.710781000000000E+02
5180000000.000000      4.445496000000000E-01     -9.242579000000000E+01      1.941223000000000E-01      1.587578000000000E+02
5200000000.000000      4.517059000000000E-01     -9.368359000000000E+01      1.911774000000000E-01      1.281953000000000E+02
5220000000.000000      4.549561000000000E-01     -9.542187000000000E+01      1.920853000000000E-01      9.791016000000000E+01
5240000000.000000      4.562683000000000E-01     -9.705467000000000E+01      1.947708000000000E-01      6.670312000000000E+01
5260000000.000000      4.544067000000000E-01     -9.862499000000000E+01      1.997604000000000E-01      3.628320000000000E+01
5280000000.000000      4.508514000000000E-01     -9.993359000000000E+01      2.040176000000000E-01      6.742676000000000E+00
5300000000.000000      4.489288000000000E-01     -1.009883000000000E+02      2.073364000000000E-01     -2.080761000000000E+01
5320000000.000000      4.485626000000000E-01     -1.020703000000000E+02      2.155838000000000E-01     -4.744726000000000E+01
5340000000.000000      4.494324000000000E-01     -1.032383000000000E+02      2.185287000000000E-01     -7.503515000000000E+01
5360000000.000000      4.495850000000000E-01     -1.047656000000000E+02      2.180557000000000E-01     -1.013008000000000E+02
5380000000.000000      4.509583000000000E-01     -1.059687000000000E+02      2.163925000000000E-01     -1.278516000000000E+02
5400000000.000000      4.508667000000000E-01     -1.071133000000000E+02      2.102051000000000E-01     -1.546094000000000E+02
5420000000.000000      4.524231000000000E-01     -1.076328000000000E+02      2.047348000000000E-01      1.780703000000000E+02
5440000000.000000      4.591217000000000E-01     -1.082422000000000E+02      1.987305000000000E-01      1.490156000000000E+02
5460000000.000000      4.662323000000000E-01     -1.096953000000000E+02      1.893005000000000E-01      1.193867000000000E+02
5480000000.000000      4.721832000000000E-01     -1.113320000000000E+02      1.852875000000000E-01      8.882421000000000E+01
5500000000.000000      4.735107000000000E-01     -1.138555000000000E+02      1.848221000000000E-01      5.731640000000000E+01
5520000000.000000      4.681244000000000E-01     -1.161289000000000E+02      1.852875000000000E-01      2.549902000000000E+01
5540000000.000000      4.618073000000000E-01     -1.181406000000000E+02      1.872940000000000E-01     -5.548096000000000E+00
5560000000.000000      4.549408000000000E-01     -1.198828000000000E+02      1.922455000000000E-01     -3.403125000000000E+01
5580000000.000000      4.470825000000000E-01     -1.211953000000000E+02      2.007523000000000E-01     -6.243359000000000E+01
5600000000.000000      4.420013000000000E-01     -1.221719000000000E+02      2.058640000000000E-01     -8.990625000000000E+01
5620000000.000000      4.365540000000000E-01     -1.228281000000000E+02      2.098236000000000E-01     -1.161758000000000E+02
5640000000.000000      4.330444000000000E-01     -1.231758000000000E+02      2.102585000000000E-01     -1.427500000000000E+02
5660000000.000000      4.324493000000000E-01     -1.228281000000000E+02      2.066269000000000E-01     -1.684844000000000E+02
5680000000.000000      4.386749000000000E-01     -1.229102000000000E+02      2.020035000000000E-01      1.650312000000000E+02
5700000000.000000      4.490662000000000E-01     -1.237656000000000E+02      1.936417000000000E-01      1.382656000000000E+02
5720000000.000000      4.617310000000000E-01     -1.254297000000000E+02      1.856995000000000E-01      1.105195000000000E+02
5740000000.000000      4.692383000000000E-01     -1.282344000000000E+02      1.786728000000000E-01      8.057032000000000E+01
5760000000.000000      4.676666000000000E-01     -1.313359000000000E+02      1.702576000000000E-01      4.809179000000000E+01
5780000000.000000      4.585419000000000E-01     -1.339062000000000E+02      1.633911000000000E-01      1.543164000000000E+01
5800000000.000000      4.457397000000000E-01     -1.352890000000000E+02      1.609497000000000E-01     -1.587549000000000E+01
5820000000.000000      4.383698000000000E-01     -1.357266000000000E+02      1.672363000000000E-01     -4.684570000000000E+01
5840000000.000000      4.380341000000000E-01     -1.364687000000000E+02      1.771851000000000E-01     -7.837891000000000E+01
5860000000.000000      4.440002000000000E-01     -1.375703000000000E+02      1.844711000000000E-01     -1.074844000000000E+02
5880000000.000000      4.483337000000000E-01     -1.394297000000000E+02      1.912155000000000E-01     -1.353437000000000E+02
5900000000.000000      4.495697000000000E-01     -1.414453000000000E+02      1.966553000000000E-01     -1.619219000000000E+02
5920000000.000000      4.452362000000000E-01     -1.433203000000000E+02      1.992416000000000E-01      1.714062000000000E+02
5940000000.000000      4.412994000000000E-01     -1.446250000000000E+02      1.944122000000000E-01      1.446016000000000E+02
5960000000.000000      4.379730000000000E-01     -1.460391000000000E+02      1.857376000000000E-01      1.193672000000000E+02
5980000000.000000      4.331512000000000E-01     -1.475937000000000E+02      1.785278000000000E-01      9.306641000000000E+01
6000000000.000000      4.235535000000000E-01     -1.491797000000000E+02      1.682892000000000E-01      6.428905000000000E+01
6020000000.000000      4.096832000000000E-01     -1.507656000000000E+02      1.550293000000000E-01      3.401758000000000E+01
6040000000.000000      3.948975000000000E-01     -1.517812000000000E+02      1.399918000000000E-01      3.354858000000000E+00
6060000000.000000      3.846741000000000E-01     -1.518359000000000E+02      1.333618000000000E-01     -2.662304000000000E+01
6080000000.000000      3.812561000000000E-01     -1.511016000000000E+02      1.380615000000000E-01     -5.830859000000000E+01
