! Network Analyzer HP8722D
! Hewlett-Packard
! Data name: Linha com CNT
! Saver's name: Rodrigo Anjos
! Comments: Teste de deteccao de acetona 0-100ppm a partir de cilindro
! Time and date: 10/9/2025 18:11
!              Frequency                     S11                                                   S21                                                   S12                                                   S22
# HZ  S  MA R 50
3000000000.000000      9.017563000000000E-02      7.263281000000000E+01      4.425201000000000E-01      2.500195000000000E+01
3020000000.000000      1.088676000000000E-01      6.267578000000000E+01      4.418335000000000E-01     -3.703857000000000E+00
3040000000.000000      1.134109000000000E-01      4.983398000000000E+01      4.428864000000000E-01     -3.282812000000000E+01
3060000000.000000      1.044350000000000E-01      3.766211000000000E+01      4.411316000000000E-01     -6.142773000000000E+01
3080000000.000000      8.672714000000000E-02      2.975293000000000E+01      4.385834000000000E-01     -9.006250000000000E+01
3100000000.000000      7.057953000000000E-02      2.970508000000000E+01      4.376221000000000E-01     -1.183789000000000E+02
3120000000.000000      6.351089000000000E-02      3.560937000000000E+01      4.362183000000000E-01     -1.468359000000000E+02
3140000000.000000      6.192780000000000E-02      3.687695000000000E+01      4.310150000000000E-01     -1.753594000000000E+02
3160000000.000000      5.385590000000000E-02      3.472656000000000E+01      4.279022000000000E-01      1.561094000000000E+02
3180000000.000000      3.431702000000000E-02      4.573828000000000E+01      4.258881000000000E-01      1.273320000000000E+02
3200000000.000000      3.652382000000000E-02      1.051015000000000E+02      4.211121000000000E-01      9.785156000000000E+01
3220000000.000000      8.288193000000000E-02      1.191602000000000E+02      4.098511000000000E-01      6.874609000000000E+01
3240000000.000000      1.358795000000000E-01      1.096641000000000E+02      3.978271000000000E-01      4.145508000000000E+01
3260000000.000000      1.823196000000000E-01      9.582811000000000E+01      4.009552000000000E-01      1.407324000000000E+01
3280000000.000000      2.151260000000000E-01      8.041016000000000E+01      4.072876000000000E-01     -1.512549000000000E+01
3300000000.000000      2.320709000000000E-01      6.520312000000000E+01      4.013824000000000E-01     -4.360937000000000E+01
3320000000.000000      2.325134000000000E-01      5.109570000000000E+01      4.056549000000000E-01     -7.162499000000000E+01
3340000000.000000      2.214584000000000E-01      3.943164000000000E+01      4.108887000000000E-01     -1.003008000000000E+02
3360000000.000000      2.021332000000000E-01      3.065234000000000E+01      4.117584000000000E-01     -1.287188000000000E+02
3380000000.000000      1.809235000000000E-01      2.581640000000000E+01      4.173431000000000E-01     -1.570781000000000E+02
3400000000.000000      1.627655000000000E-01      2.354199000000000E+01      4.187317000000000E-01      1.741562000000000E+02
3420000000.000000      1.492004000000000E-01      2.282324000000000E+01      4.187622000000000E-01      1.455234000000000E+02
3440000000.000000      1.369934000000000E-01      2.248828000000000E+01      4.187317000000000E-01      1.165703000000000E+02
3460000000.000000      1.263275000000000E-01      2.318359000000000E+01      4.165344000000000E-01      8.848436000000000E+01
3480000000.000000      1.189842000000000E-01      2.467871000000000E+01      4.169617000000000E-01      5.948632000000000E+01
3500000000.000000      1.155319000000000E-01      2.702051000000000E+01      4.110260000000000E-01      3.050879000000000E+01
3520000000.000000      1.134262000000000E-01      2.870019000000000E+01      4.080811000000000E-01      2.526855000000000E+00
3540000000.000000      1.124001000000000E-01      3.089550000000000E+01      4.106750000000000E-01     -2.609570000000000E+01
3560000000.000000      1.124306000000000E-01      3.543359000000000E+01      4.139404000000000E-01     -5.520702000000000E+01
3580000000.000000      1.177750000000000E-01      4.003711000000000E+01      4.112549000000000E-01     -8.412889000000000E+01
3600000000.000000      1.305237000000000E-01      4.210351000000000E+01      4.112854000000000E-01     -1.120937000000000E+02
3620000000.000000      1.444016000000000E-01      4.011719000000000E+01      4.146423000000000E-01     -1.402891000000000E+02
3640000000.000000      1.509094000000000E-01      3.489648000000000E+01      4.133301000000000E-01     -1.686328000000000E+02
3660000000.000000      1.471863000000000E-01      2.879492000000000E+01      4.120789000000000E-01      1.636406000000000E+02
3680000000.000000      1.356888000000000E-01      2.530273000000000E+01      4.160004000000000E-01      1.356172000000000E+02
3700000000.000000      1.225929000000000E-01      2.731934000000000E+01      4.159698000000000E-01      1.070703000000000E+02
3720000000.000000      1.214218000000000E-01      3.427148000000000E+01      4.140625000000000E-01      7.852734000000000E+01
3740000000.000000      1.370468000000000E-01      3.836133000000000E+01      4.093933000000000E-01      5.009570000000000E+01
3760000000.000000      1.553955000000000E-01      3.620508000000000E+01      4.031372000000000E-01      2.217578000000000E+01
3780000000.000000      1.639786000000000E-01      2.978516000000000E+01      4.028625000000000E-01     -5.461670000000000E+00
3800000000.000000      1.583786000000000E-01      2.308496000000000E+01      4.044189000000000E-01     -3.418945000000000E+01
3820000000.000000      1.408768000000000E-01      1.969434000000000E+01      4.033203000000000E-01     -6.272265000000000E+01
3840000000.000000      1.259842000000000E-01      2.326562000000000E+01      4.036407000000000E-01     -9.165625000000000E+01
3860000000.000000      1.278534000000000E-01      3.013672000000000E+01      4.022522000000000E-01     -1.205117000000000E+02
3880000000.000000      1.449585000000000E-01      3.209375000000000E+01      3.989716000000000E-01     -1.498906000000000E+02
3900000000.000000      1.596375000000000E-01      2.782227000000000E+01      3.913574000000000E-01     -1.782109000000000E+02
3920000000.000000      1.599426000000000E-01      2.074219000000000E+01      3.935242000000000E-01      1.546875000000000E+02
3940000000.000000      1.441116000000000E-01      1.663867000000000E+01      4.013367000000000E-01      1.257461000000000E+02
3960000000.000000      1.254272000000000E-01      2.056738000000000E+01      3.990021000000000E-01      9.690624000000000E+01
3980000000.000000      1.260452000000000E-01      3.222851000000000E+01      3.926849000000000E-01      6.832031000000000E+01
4000000000.000000      1.526947000000000E-01      3.750391000000000E+01      3.874817000000000E-01      4.118945000000000E+01
4020000000.000000      1.856461000000000E-01      3.226367000000000E+01      3.931122000000000E-01      1.375049000000000E+01
4040000000.000000      2.066269000000000E-01      2.146679000000000E+01      3.936157000000000E-01     -1.650293000000000E+01
4060000000.000000      2.050934000000000E-01      8.877930000000000E+00      3.803101000000000E-01     -4.512891000000000E+01
4080000000.000000      1.811295000000000E-01     -3.269897000000000E+00      3.802795000000000E-01     -7.214062000000000E+01
4100000000.000000      1.389465000000000E-01     -1.055420000000000E+01      3.882294000000000E-01     -1.009492000000000E+02
4120000000.000000      9.957123000000000E-02     -4.830078000000000E+00      3.869019000000000E-01     -1.309062000000000E+02
4140000000.000000      8.959579000000000E-02      1.589551000000000E+01      3.808441000000000E-01     -1.598672000000000E+02
4160000000.000000      1.066132000000000E-01      2.653418000000000E+01      3.829956000000000E-01      1.723359000000000E+02
4180000000.000000      1.231079000000000E-01      2.606348000000000E+01      3.898010000000000E-01      1.437656000000000E+02
4200000000.000000      1.256104000000000E-01      2.340332000000000E+01      3.885651000000000E-01      1.139375000000000E+02
4220000000.000000      1.234055000000000E-01      2.492871000000000E+01      3.829498000000000E-01      8.478125000000000E+01
4240000000.000000      1.289215000000000E-01      3.110840000000000E+01      3.777161000000000E-01      5.614062000000000E+01
4260000000.000000      1.504669000000000E-01      3.419336000000000E+01      3.723755000000000E-01      2.802832000000000E+01
4280000000.000000      1.761017000000000E-01      3.148633000000000E+01      3.740845000000000E-01     -1.263428000000000E-01
4300000000.000000      1.935043000000000E-01      2.458691000000000E+01      3.710632000000000E-01     -2.902050000000000E+01
4320000000.000000      1.959915000000000E-01      1.718750000000000E+01      3.675690000000000E-01     -5.767968000000000E+01
4340000000.000000      1.853561000000000E-01      1.158203000000000E+01      3.680267000000000E-01     -8.651953000000000E+01
4360000000.000000      1.728058000000000E-01      1.036133000000000E+01      3.652954000000000E-01     -1.161172000000000E+02
4380000000.000000      1.710358000000000E-01      1.243066000000000E+01      3.644104000000000E-01     -1.454375000000000E+02
4400000000.000000      1.806488000000000E-01      1.257373000000000E+01      3.588257000000000E-01     -1.743125000000000E+02
4420000000.000000      1.905518000000000E-01      9.096680000000000E+00      3.609772000000000E-01      1.567031000000000E+02
4440000000.000000      1.898880000000000E-01      3.376831000000000E+00      3.635559000000000E-01      1.269765000000000E+02
4460000000.000000      1.759491000000000E-01      2.485657000000000E-01      3.575897000000000E-01      9.724998000000000E+01
4480000000.000000      1.576385000000000E-01      2.307129000000000E+00      3.543243000000000E-01      6.883594000000000E+01
4500000000.000000      1.559906000000000E-01      9.901367000000000E+00      3.538361000000000E-01      4.005468000000000E+01
4520000000.000000      1.763687000000000E-01      1.489453000000000E+01      3.511810000000000E-01      1.083350000000000E+01
4540000000.000000      2.052765000000000E-01      1.246533000000000E+01      3.413849000000000E-01     -1.875684000000000E+01
4560000000.000000      2.267609000000000E-01      5.789795000000000E+00      3.355713000000000E-01     -4.673633000000000E+01
4580000000.000000      2.345581000000000E-01     -2.079224000000000E+00      3.388824000000000E-01     -7.613281000000000E+01
4600000000.000000      2.303467000000000E-01     -8.867676000000000E+00      3.340302000000000E-01     -1.063555000000000E+02
4620000000.000000      2.214661000000000E-01     -1.319482000000000E+01      3.302460000000000E-01     -1.358672000000000E+02
4640000000.000000      2.168732000000000E-01     -1.580273000000000E+01      3.289337000000000E-01     -1.653203000000000E+02
4660000000.000000      2.171631000000000E-01     -1.861426000000000E+01      3.270264000000000E-01      1.655000000000000E+02
4680000000.000000      2.177200000000000E-01     -2.323925000000000E+01      3.323059000000000E-01      1.365078000000000E+02
4700000000.000000      2.119293000000000E-01     -2.939062000000000E+01      3.322296000000000E-01      1.069102000000000E+02
4720000000.000000      1.985626000000000E-01     -3.553711000000000E+01      3.291473000000000E-01      7.895702000000000E+01
4740000000.000000      1.804810000000000E-01     -4.141992000000000E+01      3.353577000000000E-01      5.104882000000000E+01
4760000000.000000      1.594543000000000E-01     -4.646874000000000E+01      3.353577000000000E-01      2.230175000000000E+01
4780000000.000000      1.356964000000000E-01     -5.097070000000000E+01      3.322144000000000E-01     -6.233398000000000E+00
4800000000.000000      1.065331000000000E-01     -5.592578000000000E+01      3.283997000000000E-01     -3.475000000000000E+01
4820000000.000000      6.554031000000000E-02     -5.508203000000000E+01      3.200073000000000E-01     -6.367578000000000E+01
4840000000.000000      3.264809000000000E-02     -2.454102000000000E+00      3.147278000000000E-01     -9.253515000000000E+01
4860000000.000000      8.078766000000000E-02      4.252149000000000E+01      3.072815000000000E-01     -1.231914000000000E+02
4880000000.000000      1.498108000000000E-01      3.714453000000000E+01      2.886505000000000E-01     -1.543750000000000E+02
4900000000.000000      2.128372000000000E-01      2.428906000000000E+01      2.660217000000000E-01      1.784141000000000E+02
4920000000.000000      2.595215000000000E-01      9.662109000000000E+00      2.671051000000000E-01      1.532187000000000E+02
4940000000.000000      2.876740000000000E-01     -5.121094000000000E+00      2.804871000000000E-01      1.246016000000000E+02
4960000000.000000      2.921295000000000E-01     -1.961816000000000E+01      2.840118000000000E-01      9.471094000000000E+01
4980000000.000000      2.732391000000000E-01     -3.275195000000000E+01      2.897644000000000E-01      6.730469000000000E+01
5000000000.000000      2.366486000000000E-01     -4.261132000000000E+01      3.031769000000000E-01      3.969336000000000E+01
5020000000.000000      1.926041000000000E-01     -4.619336000000000E+01      3.128967000000000E-01      1.130176000000000E+01
5040000000.000000      1.625748000000000E-01     -4.158789000000000E+01      3.192444000000000E-01     -1.594824000000000E+01
5060000000.000000      1.589966000000000E-01     -3.331445000000000E+01      3.276825000000000E-01     -4.342578000000000E+01
5080000000.000000      1.722336000000000E-01     -2.980469000000000E+01      3.327484000000000E-01     -7.169140000000000E+01
5100000000.000000      1.853867000000000E-01     -3.140722000000000E+01      3.279419000000000E-01     -1.003008000000000E+02
5120000000.000000      1.918564000000000E-01     -3.472265000000000E+01      3.235168000000000E-01     -1.276523000000000E+02
5140000000.000000      1.944733000000000E-01     -3.775781000000000E+01      3.222046000000000E-01     -1.560547000000000E+02
5160000000.000000      1.956177000000000E-01     -4.053906000000000E+01      3.197174000000000E-01      1.745703000000000E+02
5180000000.000000      1.988907000000000E-01     -4.358984000000000E+01      3.159180000000000E-01      1.451094000000000E+02
5200000000.000000      2.009735000000000E-01     -4.733788000000000E+01      3.144684000000000E-01      1.151992000000000E+02
5220000000.000000      1.972885000000000E-01     -5.101563000000000E+01      3.144073000000000E-01      8.566406000000000E+01
5240000000.000000      1.904831000000000E-01     -5.369335000000000E+01      3.183441000000000E-01      5.594140000000000E+01
5260000000.000000      1.832047000000000E-01     -5.422461000000000E+01      3.223724000000000E-01      2.645996000000000E+01
5280000000.000000      1.804810000000000E-01     -5.345312000000000E+01      3.264008000000000E-01     -2.679321000000000E+00
5300000000.000000      1.841202000000000E-01     -5.378320000000000E+01      3.290253000000000E-01     -3.098730000000000E+01
5320000000.000000      1.877670000000000E-01     -5.597070000000000E+01      3.334045000000000E-01     -5.798633000000000E+01
5340000000.000000      1.869354000000000E-01     -5.931835000000000E+01      3.362885000000000E-01     -8.590235000000000E+01
5360000000.000000      1.809235000000000E-01     -6.243164000000000E+01      3.324890000000000E-01     -1.133984000000000E+02
5380000000.000000      1.752777000000000E-01     -6.378124000000000E+01      3.285217000000000E-01     -1.398594000000000E+02
5400000000.000000      1.743622000000000E-01     -6.356835000000000E+01      3.280792000000000E-01     -1.675937000000000E+02
5420000000.000000      1.818314000000000E-01     -6.354492000000000E+01      3.212280000000000E-01      1.641172000000000E+02
5440000000.000000      1.933670000000000E-01     -6.585155000000000E+01      3.171234000000000E-01      1.351953000000000E+02
5460000000.000000      2.001038000000000E-01     -7.069530000000000E+01      3.073730000000000E-01      1.055273000000000E+02
5480000000.000000      1.973724000000000E-01     -7.657812000000000E+01      3.019714000000000E-01      7.627734000000000E+01
5500000000.000000      1.840973000000000E-01     -8.222656000000000E+01      3.040466000000000E-01      4.665625000000000E+01
5520000000.000000      1.640472000000000E-01     -8.554688000000000E+01      3.055725000000000E-01      1.652051000000000E+01
5540000000.000000      1.460342000000000E-01     -8.589062000000000E+01      3.085022000000000E-01     -1.303125000000000E+01
5560000000.000000      1.335449000000000E-01     -8.397264000000000E+01      3.140259000000000E-01     -4.219727000000000E+01
5580000000.000000      1.258163000000000E-01     -8.096483000000000E+01      3.200684000000000E-01     -7.078515000000000E+01
5600000000.000000      1.217957000000000E-01     -7.710938000000000E+01      3.234253000000000E-01     -9.870312000000000E+01
5620000000.000000      1.223030000000000E-01     -7.141015000000000E+01      3.256073000000000E-01     -1.265430000000000E+02
5640000000.000000      1.328049000000000E-01     -6.528125000000000E+01      3.238983000000000E-01     -1.543359000000000E+02
5660000000.000000      1.545868000000000E-01     -6.321484000000000E+01      3.185577000000000E-01      1.785078000000000E+02
5680000000.000000      1.815186000000000E-01     -6.650781000000000E+01      3.119049000000000E-01      1.505547000000000E+02
5700000000.000000      2.018509000000000E-01     -7.451172000000000E+01      3.017883000000000E-01      1.222539000000000E+02
5720000000.000000      2.082748000000000E-01     -8.466797000000000E+01      2.904053000000000E-01      9.458593000000000E+01
5740000000.000000      1.979980000000000E-01     -9.499609000000000E+01      2.867279000000000E-01      6.600390000000000E+01
5760000000.000000      1.746368000000000E-01     -1.031328000000000E+02      2.831268000000000E-01      3.530273000000000E+01
5780000000.000000      1.471786000000000E-01     -1.053594000000000E+02      2.794342000000000E-01      4.912109000000000E+00
5800000000.000000      1.299820000000000E-01     -1.008555000000000E+02      2.797394000000000E-01     -2.490918000000000E+01
5820000000.000000      1.320190000000000E-01     -9.598436000000000E+01      2.853241000000000E-01     -5.472851000000000E+01
5840000000.000000      1.418076000000000E-01     -9.743359000000000E+01      2.929535000000000E-01     -8.539454000000000E+01
5860000000.000000      1.458435000000000E-01     -1.040742000000000E+02      2.922668000000000E-01     -1.143242000000000E+02
5880000000.000000      1.389923000000000E-01     -1.123594000000000E+02      2.940369000000000E-01     -1.417813000000000E+02
5900000000.000000      1.215286000000000E-01     -1.181992000000000E+02      3.017883000000000E-01     -1.691484000000000E+02
5920000000.000000      1.031265000000000E-01     -1.184883000000000E+02      3.052521000000000E-01      1.625313000000000E+02
5940000000.000000      9.350586000000000E-02     -1.130430000000000E+02      2.995300000000000E-01      1.337578000000000E+02
5960000000.000000      9.098816000000000E-02     -1.098359000000000E+02      2.874298000000000E-01      1.061133000000000E+02
5980000000.000000      8.481598000000000E-02     -1.107461000000000E+02      2.798462000000000E-01      7.861328000000000E+01
6000000000.000000      6.856537000000000E-02     -1.091172000000000E+02      2.761230000000000E-01      4.899414000000000E+01
6020000000.000000      4.910851000000000E-02     -9.180079000000000E+01      2.664948000000000E-01      1.821875000000000E+01
6040000000.000000      5.614662000000000E-02     -5.872070000000000E+01      2.543335000000000E-01     -1.200830000000000E+01
6060000000.000000      8.575439000000000E-02     -5.040429000000000E+01      2.509613000000000E-01     -4.158593000000000E+01
6080000000.000000      1.166534000000000E-01     -5.705664000000000E+01      2.566833000000000E-01     -7.187890000000000E+01
