! Network Analyzer HP8722D
! Hewlett-Packard
! Data name: Linha com CNT
! Saver's name: Rodrigo Anjos
! Comments: Teste de deteccao de acetona 0-100ppm a partir de cilindro
! Time and date: 10/9/2025 15:15
!              Frequency                     S11                                                   S21                                                   S12                                                   S22
# HZ  S  MA R 50
3000000000.000000      5.596924000000000E-01      1.198193000000000E+01      1.812210000000000E-01      4.236718000000000E+01
3020000000.000000      5.652161000000000E-01      1.130859000000000E+01      1.857147000000000E-01      1.269189000000000E+01
3040000000.000000      5.701294000000000E-01      1.028174000000000E+01      1.860580000000000E-01     -1.655566000000000E+01
3060000000.000000      5.734253000000000E-01      9.143066000000000E+00      1.864624000000000E-01     -4.610156000000000E+01
3080000000.000000      5.738831000000000E-01      7.647705000000000E+00      1.822968000000000E-01     -7.499609000000000E+01
3100000000.000000      5.723877000000000E-01      6.538086000000000E+00      1.811066000000000E-01     -1.024336000000000E+02
3120000000.000000      5.703125000000000E-01      5.461426000000000E+00      1.816406000000000E-01     -1.310391000000000E+02
3140000000.000000      5.720215000000000E-01      4.397217000000000E+00      1.785583000000000E-01     -1.597891000000000E+02
3160000000.000000      5.741272000000000E-01      3.470215000000000E+00      1.753693000000000E-01      1.718281000000000E+02
3180000000.000000      5.712891000000000E-01      2.224731000000000E+00      1.693497000000000E-01      1.441094000000000E+02
3200000000.000000      5.642395000000000E-01      1.354065000000000E+00      1.665802000000000E-01      1.159961000000000E+02
3220000000.000000      5.566711000000000E-01      6.344604000000000E-01      1.587067000000000E-01      8.759766000000000E+01
3240000000.000000      5.500793000000000E-01      3.749084000000000E-01      1.536865000000000E-01      6.308007000000000E+01
3260000000.000000      5.479431000000000E-01      4.339600000000000E-01      1.625443000000000E-01      3.757421000000000E+01
3280000000.000000      5.508423000000000E-01      4.861450000000000E-01      1.698380000000000E-01      7.851074000000000E+00
3300000000.000000      5.605469000000000E-01      1.689148000000000E-01      1.731262000000000E-01     -2.081152000000000E+01
3320000000.000000      5.741577000000000E-01     -5.300903000000000E-01      1.808853000000000E-01     -5.013476000000000E+01
3340000000.000000      5.846863000000000E-01     -1.848450000000000E+00      1.848984000000000E-01     -8.032421000000000E+01
3360000000.000000      5.889587000000000E-01     -3.611816000000000E+00      1.870575000000000E-01     -1.106367000000000E+02
3380000000.000000      5.895081000000000E-01     -5.111572000000000E+00      1.856537000000000E-01     -1.403281000000000E+02
3400000000.000000      5.880127000000000E-01     -6.282959000000000E+00      1.847992000000000E-01     -1.689531000000000E+02
3420000000.000000      5.856934000000000E-01     -7.492676000000000E+00      1.826324000000000E-01      1.618359000000000E+02
3440000000.000000      5.810242000000000E-01     -8.496582000000000E+00      1.793137000000000E-01      1.341250000000000E+02
3460000000.000000      5.784607000000000E-01     -9.513184000000000E+00      1.804428000000000E-01      1.059805000000000E+02
3480000000.000000      5.780334000000000E-01     -1.055664000000000E+01      1.772079000000000E-01      7.690234000000000E+01
3500000000.000000      5.754700000000000E-01     -1.144238000000000E+01      1.757355000000000E-01      4.923828000000000E+01
3520000000.000000      5.770264000000000E-01     -1.231885000000000E+01      1.764069000000000E-01      1.998535000000000E+01
3540000000.000000      5.768127000000000E-01     -1.335547000000000E+01      1.714706000000000E-01     -8.610840000000000E+00
3560000000.000000      5.748291000000000E-01     -1.427539000000000E+01      1.730042000000000E-01     -3.633203000000000E+01
3580000000.000000      5.743713000000000E-01     -1.495654000000000E+01      1.731873000000000E-01     -6.517968000000000E+01
3600000000.000000      5.718994000000000E-01     -1.555664000000000E+01      1.734467000000000E-01     -9.237890000000000E+01
3620000000.000000      5.724487000000000E-01     -1.643066000000000E+01      1.777878000000000E-01     -1.206992000000000E+02
3640000000.000000      5.736694000000000E-01     -1.718750000000000E+01      1.793365000000000E-01     -1.493047000000000E+02
3660000000.000000      5.737305000000000E-01     -1.844629000000000E+01      1.804047000000000E-01     -1.778359000000000E+02
3680000000.000000      5.751038000000000E-01     -1.955176000000000E+01      1.782227000000000E-01      1.535000000000000E+02
3700000000.000000      5.730896000000000E-01     -2.070410000000000E+01      1.761475000000000E-01      1.270703000000000E+02
3720000000.000000      5.680237000000000E-01     -2.162012000000000E+01      1.783142000000000E-01      9.876953000000000E+01
3740000000.000000      5.683594000000000E-01     -2.234668000000000E+01      1.743469000000000E-01      7.050781000000000E+01
3760000000.000000      5.673523000000000E-01     -2.274121000000000E+01      1.749878000000000E-01      4.352539000000000E+01
3780000000.000000      5.727539000000000E-01     -2.348926000000000E+01      1.772614000000000E-01      1.468164000000000E+01
3800000000.000000      5.763855000000000E-01     -2.455761000000000E+01      1.754227000000000E-01     -1.478760000000000E+01
3820000000.000000      5.762329000000000E-01     -2.585644000000000E+01      1.734467000000000E-01     -4.343554000000000E+01
3840000000.000000      5.746765000000000E-01     -2.730469000000000E+01      1.734161000000000E-01     -7.187890000000000E+01
3860000000.000000      5.724792000000000E-01     -2.832422000000000E+01      1.747131000000000E-01     -1.009297000000000E+02
3880000000.000000      5.712585000000000E-01     -2.909961000000000E+01      1.723633000000000E-01     -1.298906000000000E+02
3900000000.000000      5.728149000000000E-01     -2.989160000000000E+01      1.731339000000000E-01     -1.571406000000000E+02
3920000000.000000      5.764465000000000E-01     -3.071289000000000E+01      1.757736000000000E-01      1.741016000000000E+02
3940000000.000000      5.782776000000000E-01     -3.199219000000000E+01      1.743164000000000E-01      1.457734000000000E+02
3960000000.000000      5.741882000000000E-01     -3.324023000000000E+01      1.747513000000000E-01      1.180703000000000E+02
3980000000.000000      5.681152000000000E-01     -3.434179000000000E+01      1.698227000000000E-01      8.941797000000000E+01
4000000000.000000      5.638123000000000E-01     -3.473242000000000E+01      1.677475000000000E-01      6.454687000000000E+01
4020000000.000000      5.623169000000000E-01     -3.518945000000000E+01      1.754303000000000E-01      3.653125000000000E+01
4040000000.000000      5.704956000000000E-01     -3.566992000000000E+01      1.750488000000000E-01      5.870605000000000E+00
4060000000.000000      5.822754000000000E-01     -3.689453000000000E+01      1.726456000000000E-01     -2.314746000000000E+01
4080000000.000000      5.914612000000000E-01     -3.890039000000000E+01      1.720123000000000E-01     -5.276172000000000E+01
4100000000.000000      5.884705000000000E-01     -4.088867000000000E+01      1.710815000000000E-01     -8.214453000000000E+01
4120000000.000000      5.819397000000000E-01     -4.266797000000000E+01      1.686325000000000E-01     -1.128555000000000E+02
4140000000.000000      5.752869000000000E-01     -4.378711000000000E+01      1.615372000000000E-01     -1.407187000000000E+02
4160000000.000000      5.702209000000000E-01     -4.452734000000000E+01      1.646423000000000E-01     -1.670547000000000E+02
4180000000.000000      5.699768000000000E-01     -4.539844000000000E+01      1.689453000000000E-01      1.636562000000000E+02
4200000000.000000      5.666199000000000E-01     -4.650391000000000E+01      1.668320000000000E-01      1.357422000000000E+02
4220000000.000000      5.678101000000000E-01     -4.747851000000000E+01      1.698914000000000E-01      1.080312000000000E+02
4240000000.000000      5.634155000000000E-01     -4.872070000000000E+01      1.664200000000000E-01      7.887890000000000E+01
4260000000.000000      5.617676000000000E-01     -4.949609000000000E+01      1.617584000000000E-01      5.231054000000000E+01
4280000000.000000      5.587463000000000E-01     -4.995898000000000E+01      1.635208000000000E-01      2.528223000000000E+01
4300000000.000000      5.595703000000000E-01     -5.040039000000000E+01      1.625595000000000E-01     -3.448364000000000E+00
4320000000.000000      5.641479000000000E-01     -5.147461000000000E+01      1.629562000000000E-01     -3.233984000000000E+01
4340000000.000000      5.670776000000000E-01     -5.277734000000000E+01      1.623459000000000E-01     -6.208008000000000E+01
4360000000.000000      5.696716000000000E-01     -5.433594000000000E+01      1.622543000000000E-01     -9.248438000000000E+01
4380000000.000000      5.654602000000000E-01     -5.557031000000000E+01      1.603928000000000E-01     -1.231055000000000E+02
4400000000.000000      5.642090000000000E-01     -5.632030000000000E+01      1.595993000000000E-01     -1.517109000000000E+02
4420000000.000000      5.633850000000000E-01     -5.718359000000000E+01      1.646423000000000E-01      1.792031000000000E+02
4440000000.000000      5.658264000000000E-01     -5.811913000000000E+01      1.665192000000000E-01      1.494141000000000E+02
4460000000.000000      5.710449000000000E-01     -5.951172000000000E+01      1.677933000000000E-01      1.204062000000000E+02
4480000000.000000      5.698853000000000E-01     -6.116405000000000E+01      1.672287000000000E-01      9.176172000000000E+01
4500000000.000000      5.646973000000000E-01     -6.247656000000000E+01      1.641769000000000E-01      6.426952000000000E+01
4520000000.000000      5.581360000000000E-01     -6.344727000000000E+01      1.622849000000000E-01      3.648828000000000E+01
4540000000.000000      5.556335000000000E-01     -6.403515000000000E+01      1.573868000000000E-01      9.058105000000000E+00
4560000000.000000      5.572205000000000E-01     -6.480469000000000E+01      1.570587000000000E-01     -1.798926000000000E+01
4580000000.000000      5.629578000000000E-01     -6.575781000000000E+01      1.565094000000000E-01     -4.834570000000000E+01
4600000000.000000      5.667419000000000E-01     -6.678124000000000E+01      1.533508000000000E-01     -7.874609000000000E+01
4620000000.000000      5.697021000000000E-01     -6.826953000000000E+01      1.526566000000000E-01     -1.106758000000000E+02
4640000000.000000      5.701599000000000E-01     -6.939062000000000E+01      1.482086000000000E-01     -1.429375000000000E+02
4660000000.000000      5.715637000000000E-01     -7.033593000000000E+01      1.490479000000000E-01     -1.722812000000000E+02
4680000000.000000      5.722961000000000E-01     -7.124609000000000E+01      1.555939000000000E-01      1.566250000000000E+02
4700000000.000000      5.760498000000000E-01     -7.247656000000000E+01      1.591110000000000E-01      1.264141000000000E+02
4720000000.000000      5.812073000000000E-01     -7.395312000000000E+01      1.645355000000000E-01      9.755859000000000E+01
4740000000.000000      5.843811000000000E-01     -7.585546000000000E+01      1.687164000000000E-01      6.875781000000000E+01
4760000000.000000      5.850220000000000E-01     -7.761328000000000E+01      1.687927000000000E-01      4.103906000000000E+01
4780000000.000000      5.870972000000000E-01     -7.923437000000000E+01      1.665497000000000E-01      1.363916000000000E+01
4800000000.000000      5.852051000000000E-01     -8.127344000000000E+01      1.602478000000000E-01     -1.330176000000000E+01
4820000000.000000      5.795898000000000E-01     -8.332422000000000E+01      1.502380000000000E-01     -3.988672000000000E+01
4840000000.000000      5.679321000000000E-01     -8.509766000000000E+01      1.392593000000000E-01     -6.553124000000000E+01
4860000000.000000      5.547485000000000E-01     -8.657030000000000E+01      1.315308000000000E-01     -9.288671000000000E+01
4880000000.000000      5.381775000000000E-01     -8.718750000000000E+01      1.178360000000000E-01     -1.217539000000000E+02
4900000000.000000      5.261230000000000E-01     -8.703516000000000E+01      1.055603000000000E-01     -1.465312000000000E+02
4920000000.000000      5.208435000000000E-01     -8.651171000000000E+01      1.089745000000000E-01     -1.720391000000000E+02
4940000000.000000      5.256348000000000E-01     -8.577343000000000E+01      1.189957000000000E-01      1.562187000000000E+02
4960000000.000000      5.415649000000000E-01     -8.560938000000000E+01      1.270752000000000E-01      1.226875000000000E+02
4980000000.000000      5.595703000000000E-01     -8.678905000000000E+01      1.372681000000000E-01      9.103516000000000E+01
5000000000.000000      5.715637000000000E-01     -8.888281000000000E+01      1.481705000000000E-01      5.955664000000000E+01
5020000000.000000      5.740967000000000E-01     -9.118750000000000E+01      1.548157000000000E-01      2.932910000000000E+01
5040000000.000000      5.674744000000000E-01     -9.325781000000000E+01      1.572189000000000E-01      2.933350000000000E+00
5060000000.000000      5.601807000000000E-01     -9.464062000000000E+01      1.640244000000000E-01     -2.145508000000000E+01
5080000000.000000      5.533447000000000E-01     -9.564453000000000E+01      1.704483000000000E-01     -4.770703000000000E+01
5100000000.000000      5.501404000000000E-01     -9.649609000000000E+01      1.696625000000000E-01     -7.374609000000000E+01
5120000000.000000      5.503235000000000E-01     -9.732811000000000E+01      1.697006000000000E-01     -9.978125000000000E+01
5140000000.000000      5.530090000000000E-01     -9.803123000000000E+01      1.642151000000000E-01     -1.274609000000000E+02
5160000000.000000      5.538330000000000E-01     -9.896484000000000E+01      1.579514000000000E-01     -1.555781000000000E+02
5180000000.000000      5.599976000000000E-01     -9.989061000000000E+01      1.519547000000000E-01      1.743281000000000E+02
5200000000.000000      5.654297000000000E-01     -1.010039000000000E+02      1.459808000000000E-01      1.431719000000000E+02
5220000000.000000      5.698853000000000E-01     -1.024219000000000E+02      1.449051000000000E-01      1.114336000000000E+02
5240000000.000000      5.725098000000000E-01     -1.038477000000000E+02      1.464615000000000E-01      7.864843000000000E+01
5260000000.000000      5.727844000000000E-01     -1.054375000000000E+02      1.507797000000000E-01      4.673633000000000E+01
5280000000.000000      5.702515000000000E-01     -1.068750000000000E+02      1.565628000000000E-01      1.602539000000000E+01
5300000000.000000      5.664673000000000E-01     -1.081992000000000E+02      1.621323000000000E-01     -1.113916000000000E+01
5320000000.000000      5.654602000000000E-01     -1.093437000000000E+02      1.723022000000000E-01     -3.747461000000000E+01
5340000000.000000      5.636902000000000E-01     -1.104453000000000E+02      1.778641000000000E-01     -6.437500000000000E+01
5360000000.000000      5.644531000000000E-01     -1.117305000000000E+02      1.802521000000000E-01     -8.962891000000000E+01
5380000000.000000      5.654907000000000E-01     -1.127148000000000E+02      1.800537000000000E-01     -1.156680000000000E+02
5400000000.000000      5.657654000000000E-01     -1.138945000000000E+02      1.736755000000000E-01     -1.410469000000000E+02
5420000000.000000      5.667725000000000E-01     -1.145234000000000E+02      1.682968000000000E-01     -1.671172000000000E+02
5440000000.000000      5.712280000000000E-01     -1.153359000000000E+02      1.601334000000000E-01      1.645000000000000E+02
5460000000.000000      5.776367000000000E-01     -1.164492000000000E+02      1.486740000000000E-01      1.351172000000000E+02
5480000000.000000      5.843506000000000E-01     -1.179375000000000E+02      1.420975000000000E-01      1.036172000000000E+02
5500000000.000000      5.876465000000000E-01     -1.199570000000000E+02      1.378403000000000E-01      7.006249000000000E+01
5520000000.000000      5.856934000000000E-01     -1.219375000000000E+02      1.373062000000000E-01      3.590039000000000E+01
5540000000.000000      5.816650000000000E-01     -1.238984000000000E+02      1.389313000000000E-01      3.342529000000000E+00
5560000000.000000      5.752869000000000E-01     -1.256328000000000E+02      1.457062000000000E-01     -2.566211000000000E+01
5580000000.000000      5.682068000000000E-01     -1.272266000000000E+02      1.582031000000000E-01     -5.426171000000000E+01
5600000000.000000      5.630493000000000E-01     -1.282969000000000E+02      1.656189000000000E-01     -8.109375000000000E+01
5620000000.000000      5.579529000000000E-01     -1.293516000000000E+02      1.737289000000000E-01     -1.063437000000000E+02
5640000000.000000      5.544434000000000E-01     -1.301250000000000E+02      1.778336000000000E-01     -1.317656000000000E+02
5660000000.000000      5.506592000000000E-01     -1.306953000000000E+02      1.765594000000000E-01     -1.559609000000000E+02
5680000000.000000      5.537109000000000E-01     -1.310781000000000E+02      1.727524000000000E-01      1.792969000000000E+02
5700000000.000000      5.585022000000000E-01     -1.319375000000000E+02      1.640778000000000E-01      1.539141000000000E+02
5720000000.000000      5.679321000000000E-01     -1.330625000000000E+02      1.535263000000000E-01      1.273711000000000E+02
5740000000.000000      5.739441000000000E-01     -1.351406000000000E+02      1.409378000000000E-01      9.772655000000000E+01
5760000000.000000      5.744019000000000E-01     -1.376562000000000E+02      1.264648000000000E-01      6.454687000000000E+01
5780000000.000000      5.672607000000000E-01     -1.400547000000000E+02      1.134300000000000E-01      2.987500000000000E+01
5800000000.000000      5.545959000000000E-01     -1.416953000000000E+02      1.085625000000000E-01     -4.383545000000000E+00
5820000000.000000      5.463867000000000E-01     -1.425156000000000E+02      1.157570000000000E-01     -3.854297000000000E+01
5840000000.000000      5.379333000000000E-01     -1.433984000000000E+02      1.289368000000000E-01     -7.225780000000000E+01
5860000000.000000      5.421143000000000E-01     -1.439219000000000E+02      1.421356000000000E-01     -1.019023000000000E+02
5880000000.000000      5.478821000000000E-01     -1.452109000000000E+02      1.552200000000000E-01     -1.302813000000000E+02
5900000000.000000      5.507507000000000E-01     -1.464062000000000E+02      1.646805000000000E-01     -1.560390000000000E+02
5920000000.000000      5.501099000000000E-01     -1.480703000000000E+02      1.708527000000000E-01      1.792187000000000E+02
5940000000.000000      5.484314000000000E-01     -1.495469000000000E+02      1.691895000000000E-01      1.547188000000000E+02
5960000000.000000      5.450134000000000E-01     -1.510547000000000E+02      1.628113000000000E-01      1.320234000000000E+02
5980000000.000000      5.391541000000000E-01     -1.527031000000000E+02      1.564026000000000E-01      1.081602000000000E+02
6000000000.000000      5.312500000000000E-01     -1.542187000000000E+02      1.432419000000000E-01      8.235546000000000E+01
6020000000.000000      5.184937000000000E-01     -1.557578000000000E+02      1.266556000000000E-01      5.560547000000000E+01
6040000000.000000      5.046387000000000E-01     -1.569062000000000E+02      1.073227000000000E-01      2.716699000000000E+01
6060000000.000000      4.963226000000000E-01     -1.575938000000000E+02      9.436035000000000E-02     -2.304443000000000E+00
6080000000.000000      4.902344000000000E-01     -1.575312000000000E+02      9.272385000000000E-02     -3.723047000000000E+01
