! Network Analyzer HP8722D
! Hewlett-Packard
! Data name: Linha com CNT
! Saver's name: Rodrigo Anjos
! Comments: Teste de deteccao de acetona 0-100ppm a partir de cilindro
! Time and date: 10/9/2025 16:46
!              Frequency                     S11                                                   S21                                                   S12                                                   S22
# HZ  S  MA R 50
3000000000.000000      4.098358000000000E-01      1.692578000000000E+01      2.714081000000000E-01      3.171875000000000E+01
3020000000.000000      4.189301000000000E-01      1.642969000000000E+01      2.752228000000000E-01      2.182129000000000E+00
3040000000.000000      4.272156000000000E-01      1.522266000000000E+01      2.757111000000000E-01     -2.695117000000000E+01
3060000000.000000      4.304047000000000E-01      1.318066000000000E+01      2.749939000000000E-01     -5.617773000000000E+01
3080000000.000000      4.276428000000000E-01      1.109619000000000E+01      2.712860000000000E-01     -8.488281000000000E+01
3100000000.000000      4.235382000000000E-01      9.800781000000000E+00      2.696228000000000E-01     -1.127226000000000E+02
3120000000.000000      4.209747000000000E-01      8.905762000000000E+00      2.688141000000000E-01     -1.415625000000000E+02
3140000000.000000      4.217529000000000E-01      8.014160000000000E+00      2.652740000000000E-01     -1.701250000000000E+02
3160000000.000000      4.214630000000000E-01      6.771484000000000E+00      2.608490000000000E-01      1.611797000000000E+02
3180000000.000000      4.154510000000000E-01      5.609863000000000E+00      2.556610000000000E-01      1.331797000000000E+02
3200000000.000000      4.043274000000000E-01      5.060547000000000E+00      2.511902000000000E-01      1.044922000000000E+02
3220000000.000000      3.912964000000000E-01      5.644043000000000E+00      2.409973000000000E-01      7.585938000000000E+01
3240000000.000000      3.865662000000000E-01      7.095703000000000E+00      2.336578000000000E-01      5.037499000000000E+01
3260000000.000000      3.903351000000000E-01      9.029297000000000E+00      2.429581000000000E-01      2.431641000000000E+01
3280000000.000000      4.050446000000000E-01      1.004541000000000E+01      2.511139000000000E-01     -5.302490000000000E+00
3300000000.000000      4.271088000000000E-01      9.445313000000000E+00      2.533417000000000E-01     -3.394922000000000E+01
3320000000.000000      4.465332000000000E-01      7.543457000000000E+00      2.606812000000000E-01     -6.260742000000000E+01
3340000000.000000      4.595184000000000E-01      5.008301000000000E+00      2.659760000000000E-01     -9.230860000000000E+01
3360000000.000000      4.627380000000000E-01      2.403198000000000E+00      2.677002000000000E-01     -1.218047000000000E+02
3380000000.000000      4.610138000000000E-01      4.270935000000000E-01      2.677612000000000E-01     -1.509609000000000E+02
3400000000.000000      4.560089000000000E-01     -1.167297000000000E+00      2.679443000000000E-01     -1.797031000000000E+02
3420000000.000000      4.517975000000000E-01     -2.389526000000000E+00      2.660980000000000E-01      1.511016000000000E+02
3440000000.000000      4.467316000000000E-01     -3.648926000000000E+00      2.615051000000000E-01      1.228086000000000E+02
3460000000.000000      4.415436000000000E-01     -4.630859000000000E+00      2.619324000000000E-01      9.477343000000000E+01
3480000000.000000      4.396820000000000E-01     -5.704834000000000E+00      2.595367000000000E-01      6.556250000000000E+01
3500000000.000000      4.374237000000000E-01     -6.406494000000000E+00      2.570648000000000E-01      3.743750000000000E+01
3520000000.000000      4.364624000000000E-01     -7.430908000000000E+00      2.565613000000000E-01      8.485352000000000E+00
3540000000.000000      4.367523000000000E-01     -8.163086000000000E+00      2.528381000000000E-01     -1.995996000000000E+01
3560000000.000000      4.340973000000000E-01     -8.776855000000000E+00      2.541504000000000E-01     -4.822656000000000E+01
3580000000.000000      4.314728000000000E-01     -9.226074000000000E+00      2.537994000000000E-01     -7.700390000000000E+01
3600000000.000000      4.305878000000000E-01     -9.545898000000000E+00      2.533417000000000E-01     -1.044609000000000E+02
3620000000.000000      4.331818000000000E-01     -9.992188000000000E+00      2.578888000000000E-01     -1.328281000000000E+02
3640000000.000000      4.369965000000000E-01     -1.087402000000000E+01      2.590637000000000E-01     -1.613203000000000E+02
3660000000.000000      4.386902000000000E-01     -1.241895000000000E+01      2.602234000000000E-01      1.704297000000000E+02
3680000000.000000      4.399261000000000E-01     -1.400098000000000E+01      2.591400000000000E-01      1.420234000000000E+02
3700000000.000000      4.344330000000000E-01     -1.535205000000000E+01      2.574921000000000E-01      1.144648000000000E+02
3720000000.000000      4.290924000000000E-01     -1.605566000000000E+01      2.588348000000000E-01      8.614452000000000E+01
3740000000.000000      4.287109000000000E-01     -1.597705000000000E+01      2.538300000000000E-01      5.782227000000000E+01
3760000000.000000      4.315491000000000E-01     -1.590967000000000E+01      2.526855000000000E-01      3.057129000000000E+01
3780000000.000000      4.376678000000000E-01     -1.673828000000000E+01      2.545776000000000E-01      2.187622000000000E+00
3800000000.000000      4.437256000000000E-01     -1.840430000000000E+01      2.532959000000000E-01     -2.698437000000000E+01
3820000000.000000      4.411316000000000E-01     -2.033789000000000E+01      2.516327000000000E-01     -5.568359000000000E+01
3840000000.000000      4.350128000000000E-01     -2.170898000000000E+01      2.510986000000000E-01     -8.429296000000000E+01
3860000000.000000      4.302826000000000E-01     -2.239648000000000E+01      2.513733000000000E-01     -1.131367000000000E+02
3880000000.000000      4.297943000000000E-01     -2.256348000000000E+01      2.488098000000000E-01     -1.422344000000000E+02
3900000000.000000      4.350891000000000E-01     -2.301856000000000E+01      2.467651000000000E-01     -1.698906000000000E+02
3920000000.000000      4.401855000000000E-01     -2.436816000000000E+01      2.497864000000000E-01      1.618438000000000E+02
3940000000.000000      4.403229000000000E-01     -2.617285000000000E+01      2.499161000000000E-01      1.333047000000000E+02
3960000000.000000      4.328003000000000E-01     -2.759668000000000E+01      2.499924000000000E-01      1.048867000000000E+02
3980000000.000000      4.229431000000000E-01     -2.800488000000000E+01      2.433929000000000E-01      7.614452000000000E+01
4000000000.000000      4.188385000000000E-01     -2.771093000000000E+01      2.395706000000000E-01      5.045312000000000E+01
4020000000.000000      4.240875000000000E-01     -2.713086000000000E+01      2.483749000000000E-01      2.265039000000000E+01
4040000000.000000      4.402008000000000E-01     -2.780664000000000E+01      2.484283000000000E-01     -7.768799000000000E+00
4060000000.000000      4.548798000000000E-01     -2.992969000000000E+01      2.433319000000000E-01     -3.653515000000000E+01
4080000000.000000      4.621735000000000E-01     -3.337695000000000E+01      2.436600000000000E-01     -6.498828000000000E+01
4100000000.000000      4.532471000000000E-01     -3.634180000000000E+01      2.448120000000000E-01     -9.439844000000000E+01
4120000000.000000      4.380493000000000E-01     -3.828516000000000E+01      2.418213000000000E-01     -1.246914000000000E+02
4140000000.000000      4.258423000000000E-01     -3.877930000000000E+01      2.338333000000000E-01     -1.530625000000000E+02
4160000000.000000      4.191132000000000E-01     -3.877539000000000E+01      2.356491000000000E-01     -1.798672000000000E+02
4180000000.000000      4.188080000000000E-01     -3.909765000000000E+01      2.411270000000000E-01      1.509766000000000E+02
4200000000.000000      4.193420000000000E-01     -4.009766000000000E+01      2.383423000000000E-01      1.223047000000000E+02
4220000000.000000      4.176331000000000E-01     -4.113477000000000E+01      2.387238000000000E-01      9.397655000000000E+01
4240000000.000000      4.121857000000000E-01     -4.183594000000000E+01      2.342911000000000E-01      6.492969000000000E+01
4260000000.000000      4.098358000000000E-01     -4.189062000000000E+01      2.294388000000000E-01      3.767578000000000E+01
4280000000.000000      4.097595000000000E-01     -4.159570000000000E+01      2.308807000000000E-01      1.016211000000000E+01
4300000000.000000      4.168243000000000E-01     -4.175781000000000E+01      2.303009000000000E-01     -1.846972000000000E+01
4320000000.000000      4.250488000000000E-01     -4.289063000000000E+01      2.300568000000000E-01     -4.725586000000000E+01
4340000000.000000      4.282074000000000E-01     -4.484179000000000E+01      2.295837000000000E-01     -7.670703000000000E+01
4360000000.000000      4.276733000000000E-01     -4.661133000000000E+01      2.300186000000000E-01     -1.065937000000000E+02
4380000000.000000      4.233246000000000E-01     -4.768359000000000E+01      2.278442000000000E-01     -1.365313000000000E+02
4400000000.000000      4.220428000000000E-01     -4.824609000000000E+01      2.254105000000000E-01     -1.652578000000000E+02
4420000000.000000      4.254608000000000E-01     -4.876367000000000E+01      2.297745000000000E-01      1.660000000000000E+02
4440000000.000000      4.326630000000000E-01     -5.017187000000000E+01      2.312012000000000E-01      1.360781000000000E+02
4460000000.000000      4.320679000000000E-01     -5.179296000000000E+01      2.294464000000000E-01      1.067383000000000E+02
4480000000.000000      4.286346000000000E-01     -5.372265000000000E+01      2.270584000000000E-01      7.803905000000000E+01
4500000000.000000      4.181671000000000E-01     -5.476563000000000E+01      2.242661000000000E-01      4.989452000000000E+01
4520000000.000000      4.114990000000000E-01     -5.483203000000000E+01      2.212906000000000E-01      2.121387000000000E+01
4540000000.000000      4.125519000000000E-01     -5.474218000000000E+01      2.151489000000000E-01     -7.174072000000000E+00
4560000000.000000      4.199371000000000E-01     -5.498437000000000E+01      2.145767000000000E-01     -3.490429000000000E+01
4580000000.000000      4.316406000000000E-01     -5.610156000000000E+01      2.158508000000000E-01     -6.482031000000000E+01
4600000000.000000      4.385834000000000E-01     -5.778710000000000E+01      2.137833000000000E-01     -9.509766000000000E+01
4620000000.000000      4.412537000000000E-01     -5.959570000000000E+01      2.134933000000000E-01     -1.257031000000000E+02
4640000000.000000      4.428253000000000E-01     -6.084374000000000E+01      2.101364000000000E-01     -1.564453000000000E+02
4660000000.000000      4.462280000000000E-01     -6.207617000000000E+01      2.110519000000000E-01      1.744375000000000E+02
4680000000.000000      4.493103000000000E-01     -6.332617000000000E+01      2.158661000000000E-01      1.444766000000000E+02
4700000000.000000      4.535980000000000E-01     -6.499218000000000E+01      2.172470000000000E-01      1.147109000000000E+02
4720000000.000000      4.573517000000000E-01     -6.717578000000000E+01      2.202225000000000E-01      8.648046000000000E+01
4740000000.000000      4.575348000000000E-01     -6.960938000000000E+01      2.231750000000000E-01      5.778125000000000E+01
4760000000.000000      4.549866000000000E-01     -7.199609000000000E+01      2.220154000000000E-01      2.943359000000000E+01
4780000000.000000      4.501190000000000E-01     -7.422265000000000E+01      2.184982000000000E-01      1.323853000000000E+00
4800000000.000000      4.436340000000000E-01     -7.691015000000000E+01      2.120514000000000E-01     -2.685644000000000E+01
4820000000.000000      4.305115000000000E-01     -7.928515000000000E+01      2.012711000000000E-01     -5.497070000000000E+01
4840000000.000000      4.094543000000000E-01     -8.088282000000000E+01      1.910324000000000E-01     -8.271875000000000E+01
4860000000.000000      3.885651000000000E-01     -8.123827000000000E+01      1.838684000000000E-01     -1.117969000000000E+02
4880000000.000000      3.687897000000000E-01     -7.962500000000000E+01      1.685181000000000E-01     -1.421250000000000E+02
4900000000.000000      3.636017000000000E-01     -7.689843000000000E+01      1.543732000000000E-01     -1.678125000000000E+02
4920000000.000000      3.720856000000000E-01     -7.407812000000000E+01      1.593323000000000E-01      1.672812000000000E+02
4940000000.000000      3.939819000000000E-01     -7.269531000000000E+01      1.729279000000000E-01      1.375156000000000E+02
4960000000.000000      4.230652000000000E-01     -7.360546000000000E+01      1.807327000000000E-01      1.064258000000000E+02
4980000000.000000      4.453888000000000E-01     -7.676952000000000E+01      1.901169000000000E-01      7.716015000000000E+01
5000000000.000000      4.531250000000000E-01     -8.055859000000000E+01      2.018890000000000E-01      4.790820000000000E+01
5020000000.000000      4.482117000000000E-01     -8.410936000000000E+01      2.074051000000000E-01      1.871191000000000E+01
5040000000.000000      4.348907000000000E-01     -8.615625000000000E+01      2.099457000000000E-01     -8.357910000000000E+00
5060000000.000000      4.235840000000000E-01     -8.704687000000000E+01      2.148972000000000E-01     -3.402344000000000E+01
5080000000.000000      4.173584000000000E-01     -8.745703000000000E+01      2.207642000000000E-01     -6.144336000000000E+01
5100000000.000000      4.182892000000000E-01     -8.780468000000000E+01      2.176208000000000E-01     -8.899218000000000E+01
5120000000.000000      4.198761000000000E-01     -8.856640000000000E+01      2.153778000000000E-01     -1.158945000000000E+02
5140000000.000000      4.237823000000000E-01     -8.938280000000000E+01      2.116623000000000E-01     -1.444062000000000E+02
5160000000.000000      4.274597000000000E-01     -9.055859000000000E+01      2.062531000000000E-01     -1.735234000000000E+02
5180000000.000000      4.331360000000000E-01     -9.152344000000000E+01      2.026749000000000E-01      1.564609000000000E+02
5200000000.000000      4.393005000000000E-01     -9.287109000000000E+01      1.997910000000000E-01      1.258555000000000E+02
5220000000.000000      4.430389000000000E-01     -9.460546000000000E+01      2.002945000000000E-01      9.565233000000000E+01
5240000000.000000      4.438477000000000E-01     -9.626562000000000E+01      2.038345000000000E-01      6.470312000000000E+01
5260000000.000000      4.417572000000000E-01     -9.788671000000000E+01      2.085114000000000E-01      3.443164000000000E+01
5280000000.000000      4.374847000000000E-01     -9.918358000000000E+01      2.131119000000000E-01      4.879150000000000E+00
5300000000.000000      4.363861000000000E-01     -1.002851000000000E+02      2.161179000000000E-01     -2.252539000000000E+01
5320000000.000000      4.358978000000000E-01     -1.013203000000000E+02      2.233200000000000E-01     -4.930078000000000E+01
5340000000.000000      4.365845000000000E-01     -1.024922000000000E+02      2.273483000000000E-01     -7.693359000000000E+01
5360000000.000000      4.369965000000000E-01     -1.039414000000000E+02      2.260971000000000E-01     -1.033398000000000E+02
5380000000.000000      4.375916000000000E-01     -1.052226000000000E+02      2.235565000000000E-01     -1.300469000000000E+02
5400000000.000000      4.376984000000000E-01     -1.063633000000000E+02      2.176895000000000E-01     -1.567969000000000E+02
5420000000.000000      4.404602000000000E-01     -1.068047000000000E+02      2.117844000000000E-01      1.758359000000000E+02
5440000000.000000      4.465485000000000E-01     -1.076172000000000E+02      2.059021000000000E-01      1.466250000000000E+02
5460000000.000000      4.541626000000000E-01     -1.088320000000000E+02      1.966095000000000E-01      1.170547000000000E+02
5480000000.000000      4.602051000000000E-01     -1.107617000000000E+02      1.932068000000000E-01      8.667187000000000E+01
5500000000.000000      4.609680000000000E-01     -1.132773000000000E+02      1.925507000000000E-01      5.513866000000000E+01
5520000000.000000      4.558716000000000E-01     -1.156602000000000E+02      1.936874000000000E-01      2.353516000000000E+01
5540000000.000000      4.486542000000000E-01     -1.175898000000000E+02      1.958542000000000E-01     -7.280029000000000E+00
5560000000.000000      4.412384000000000E-01     -1.193359000000000E+02      2.004089000000000E-01     -3.573242000000000E+01
5580000000.000000      4.332123000000000E-01     -1.205430000000000E+02      2.091675000000000E-01     -6.410937000000000E+01
5600000000.000000      4.280853000000000E-01     -1.214297000000000E+02      2.141800000000000E-01     -9.160156000000000E+01
5620000000.000000      4.223938000000000E-01     -1.221445000000000E+02      2.183914000000000E-01     -1.182930000000000E+02
5640000000.000000      4.198456000000000E-01     -1.221758000000000E+02      2.181625000000000E-01     -1.447422000000000E+02
5660000000.000000      4.196625000000000E-01     -1.221445000000000E+02      2.136917000000000E-01     -1.706563000000000E+02
5680000000.000000      4.253998000000000E-01     -1.221719000000000E+02      2.089767000000000E-01      1.627422000000000E+02
5700000000.000000      4.381714000000000E-01     -1.228008000000000E+02      1.999588000000000E-01      1.357500000000000E+02
5720000000.000000      4.496765000000000E-01     -1.246289000000000E+02      1.917267000000000E-01      1.079570000000000E+02
5740000000.000000      4.574127000000000E-01     -1.274844000000000E+02      1.857452000000000E-01      7.793750000000000E+01
5760000000.000000      4.555359000000000E-01     -1.307656000000000E+02      1.778488000000000E-01      4.562890000000000E+01
5780000000.000000      4.447937000000000E-01     -1.333750000000000E+02      1.710968000000000E-01      1.328613000000000E+01
5800000000.000000      4.318237000000000E-01     -1.347031000000000E+02      1.685944000000000E-01     -1.804980000000000E+01
5820000000.000000      4.246216000000000E-01     -1.351875000000000E+02      1.755829000000000E-01     -4.861328000000000E+01
5840000000.000000      4.261169000000000E-01     -1.358125000000000E+02      1.853485000000000E-01     -8.007421000000000E+01
5860000000.000000      4.314270000000000E-01     -1.368984000000000E+02      1.919479000000000E-01     -1.090625000000000E+02
5880000000.000000      4.363861000000000E-01     -1.388203000000000E+02      1.985931000000000E-01     -1.368984000000000E+02
5900000000.000000      4.365997000000000E-01     -1.410000000000000E+02      2.036667000000000E-01     -1.636875000000000E+02
5920000000.000000      4.319305000000000E-01     -1.428750000000000E+02      2.058945000000000E-01      1.696406000000000E+02
5940000000.000000      4.271851000000000E-01     -1.441484000000000E+02      2.008057000000000E-01      1.426172000000000E+02
5960000000.000000      4.237213000000000E-01     -1.454453000000000E+02      1.914291000000000E-01      1.172383000000000E+02
5980000000.000000      4.188690000000000E-01     -1.470703000000000E+02      1.846771000000000E-01      9.048046000000000E+01
6000000000.000000      4.092255000000000E-01     -1.488203000000000E+02      1.749954000000000E-01      6.161914000000000E+01
6020000000.000000      3.966827000000000E-01     -1.504766000000000E+02      1.616669000000000E-01      3.116796000000000E+01
6040000000.000000      3.803101000000000E-01     -1.512109000000000E+02      1.468887000000000E-01      7.209778000000000E-01
6060000000.000000      3.700256000000000E-01     -1.511953000000000E+02      1.408005000000000E-01     -2.956738000000000E+01
6080000000.000000      3.669586000000000E-01     -1.501328000000000E+02      1.463928000000000E-01     -6.087500000000000E+01
