! Network Analyzer HP8722D
! Hewlett-Packard
! Data name: Linha com CNT
! Saver's name: Rodrigo Anjos
! Comments: Teste de deteccao de acetona 0-100ppm a partir de cilindro
! Time and date: 10/9/2025 17:50
!              Frequency                     S11                                                   S21                                                   S12                                                   S22
# HZ  S  MA R 50
3000000000.000000      1.161575000000000E-01      5.235937000000000E+01      4.181976000000000E-01      2.545801000000000E+01
3020000000.000000      1.367035000000000E-01      4.762695000000000E+01      4.218597000000000E-01     -3.583008000000000E+00
3040000000.000000      1.460724000000000E-01      3.880664000000000E+01      4.202423000000000E-01     -3.254101000000000E+01
3060000000.000000      1.411057000000000E-01      2.968554000000000E+01      4.186554000000000E-01     -6.123047000000000E+01
3080000000.000000      1.269302000000000E-01      2.317969000000000E+01      4.184113000000000E-01     -8.987108000000000E+01
3100000000.000000      1.119232000000000E-01      2.186523000000000E+01      4.160767000000000E-01     -1.181836000000000E+02
3120000000.000000      1.049271000000000E-01      2.423633000000000E+01      4.139862000000000E-01     -1.468516000000000E+02
3140000000.000000      1.036911000000000E-01      2.442383000000000E+01      4.099731000000000E-01     -1.753828000000000E+02
3160000000.000000      9.717560000000000E-02      2.191406000000000E+01      4.055939000000000E-01      1.562031000000000E+02
3180000000.000000      7.796097000000000E-02      2.257617000000000E+01      4.040375000000000E-01      1.277617000000000E+02
3200000000.000000      5.642891000000000E-02      4.259375000000000E+01      3.998413000000000E-01      9.827343000000000E+01
3220000000.000000      7.156372000000000E-02      7.874609000000000E+01      3.863220000000000E-01      6.929296000000000E+01
3240000000.000000      1.192322000000000E-01      8.596874000000000E+01      3.747559000000000E-01      4.216797000000000E+01
3260000000.000000      1.697845000000000E-01      7.925781000000000E+01      3.818207000000000E-01      1.492871000000000E+01
3280000000.000000      2.104874000000000E-01      6.787499000000000E+01      3.859558000000000E-01     -1.447070000000000E+01
3300000000.000000      2.367554000000000E-01      5.493945000000000E+01      3.827667000000000E-01     -4.291992000000000E+01
3320000000.000000      2.464905000000000E-01      4.275976000000000E+01      3.873291000000000E-01     -7.074219000000000E+01
3340000000.000000      2.421646000000000E-01      3.235352000000000E+01      3.932800000000000E-01     -9.983202000000000E+01
3360000000.000000      2.287216000000000E-01      2.454394000000000E+01      3.934631000000000E-01     -1.283281000000000E+02
3380000000.000000      2.108231000000000E-01      1.986035000000000E+01      3.982239000000000E-01     -1.566015000000000E+02
3400000000.000000      1.953201000000000E-01      1.757617000000000E+01      3.999481000000000E-01      1.743984000000000E+02
3420000000.000000      1.822739000000000E-01      1.628906000000000E+01      3.992310000000000E-01      1.456250000000000E+02
3440000000.000000      1.713562000000000E-01      1.543018000000000E+01      3.987122000000000E-01      1.169609000000000E+02
3460000000.000000      1.611404000000000E-01      1.537109000000000E+01      3.955078000000000E-01      8.855860000000000E+01
3480000000.000000      1.540909000000000E-01      1.568555000000000E+01      3.962555000000000E-01      5.981250000000000E+01
3500000000.000000      1.500168000000000E-01      1.665234000000000E+01      3.909607000000000E-01      3.053906000000000E+01
3520000000.000000      1.469345000000000E-01      1.731152000000000E+01      3.887024000000000E-01      2.618774000000000E+00
3540000000.000000      1.454773000000000E-01      1.853711000000000E+01      3.908081000000000E-01     -2.579199000000000E+01
3560000000.000000      1.434250000000000E-01      2.101074000000000E+01      3.909912000000000E-01     -5.480273000000000E+01
3580000000.000000      1.453476000000000E-01      2.471777000000000E+01      3.916168000000000E-01     -8.354296000000000E+01
3600000000.000000      1.545334000000000E-01      2.709082000000000E+01      3.903809000000000E-01     -1.117305000000000E+02
3620000000.000000      1.671829000000000E-01      2.659082000000000E+01      3.928070000000000E-01     -1.401094000000000E+02
3640000000.000000      1.749191000000000E-01      2.274024000000000E+01      3.941650000000000E-01     -1.685000000000000E+02
3660000000.000000      1.744995000000000E-01      1.763281000000000E+01      3.919220000000000E-01      1.636328000000000E+02
3680000000.000000      1.653061000000000E-01      1.434668000000000E+01      3.961792000000000E-01      1.359297000000000E+02
3700000000.000000      1.525955000000000E-01      1.449902000000000E+01      3.958893000000000E-01      1.074805000000000E+02
3720000000.000000      1.473465000000000E-01      1.877148000000000E+01      3.942108000000000E-01      7.888672000000000E+01
3740000000.000000      1.583176000000000E-01      2.315722000000000E+01      3.885956000000000E-01      5.055078000000000E+01
3760000000.000000      1.754150000000000E-01      2.278515000000000E+01      3.832397000000000E-01      2.276172000000000E+01
3780000000.000000      1.864243000000000E-01      1.831543000000000E+01      3.836670000000000E-01     -4.877930000000000E+00
3800000000.000000      1.845779000000000E-01      1.254199000000000E+01      3.841705000000000E-01     -3.355078000000000E+01
3820000000.000000      1.701965000000000E-01      8.618652000000000E+00      3.845673000000000E-01     -6.227929000000000E+01
3840000000.000000      1.548080000000000E-01      9.768066000000000E+00      3.845673000000000E-01     -9.148829000000000E+01
3860000000.000000      1.523209000000000E-01      1.472705000000000E+01      3.832397000000000E-01     -1.203320000000000E+02
3880000000.000000      1.648560000000000E-01      1.738770000000000E+01      3.792267000000000E-01     -1.494219000000000E+02
3900000000.000000      1.804962000000000E-01      1.491797000000000E+01      3.746033000000000E-01     -1.777344000000000E+02
3920000000.000000      1.838226000000000E-01      9.302246000000000E+00      3.755951000000000E-01      1.550781000000000E+02
3940000000.000000      1.709976000000000E-01      5.008301000000000E+00      3.809357000000000E-01      1.262461000000000E+02
3960000000.000000      1.521759000000000E-01      6.238770000000000E+00      3.807526000000000E-01      9.737108000000000E+01
3980000000.000000      1.457062000000000E-01      1.461035000000000E+01      3.729858000000000E-01      6.880077000000000E+01
4000000000.000000      1.643600000000000E-01      2.096875000000000E+01      3.663177000000000E-01      4.171094000000000E+01
4020000000.000000      1.959610000000000E-01      1.932812000000000E+01      3.747253000000000E-01      1.418701000000000E+01
4040000000.000000      2.218781000000000E-01      1.115771000000000E+01      3.751526000000000E-01     -1.589600000000000E+01
4060000000.000000      2.269440000000000E-01      5.328369000000000E-01      3.628693000000000E-01     -4.484375000000000E+01
4080000000.000000      2.104187000000000E-01     -1.006641000000000E+01      3.621674000000000E-01     -7.188671000000000E+01
4100000000.000000      1.746063000000000E-01     -1.741504000000000E+01      3.693695000000000E-01     -1.009141000000000E+02
4120000000.000000      1.368103000000000E-01     -1.597705000000000E+01      3.687592000000000E-01     -1.307188000000000E+02
4140000000.000000      1.196594000000000E-01     -4.227051000000000E+00      3.610535000000000E-01     -1.595547000000000E+02
4160000000.000000      1.270981000000000E-01      5.054932000000000E+00      3.624268000000000E-01      1.725859000000000E+02
4180000000.000000      1.403580000000000E-01      6.836182000000000E+00      3.700867000000000E-01      1.439766000000000E+02
4200000000.000000      1.431961000000000E-01      5.064697000000000E+00      3.690491000000000E-01      1.142969000000000E+02
4220000000.000000      1.400833000000000E-01      5.672852000000000E+00      3.632355000000000E-01      8.516016000000000E+01
4240000000.000000      1.402206000000000E-01      1.078418000000000E+01      3.584747000000000E-01      5.663671000000000E+01
4260000000.000000      1.544952000000000E-01      1.568945000000000E+01      3.536530000000000E-01      2.871387000000000E+01
4280000000.000000      1.779251000000000E-01      1.556738000000000E+01      3.532257000000000E-01      6.193542000000000E-01
4300000000.000000      1.974945000000000E-01      1.092578000000000E+01      3.520966000000000E-01     -2.816211000000000E+01
4320000000.000000      2.046204000000000E-01      4.713135000000000E+00      3.493500000000000E-01     -5.694726000000000E+01
4340000000.000000      1.987534000000000E-01     -8.074951000000000E-01      3.486176000000000E-01     -8.605469000000000E+01
4360000000.000000      1.876831000000000E-01     -2.763062000000000E+00      3.473053000000000E-01     -1.152070000000000E+02
4380000000.000000      1.835861000000000E-01     -1.472168000000000E+00      3.460236000000000E-01     -1.448828000000000E+02
4400000000.000000      1.911392000000000E-01     -8.047485000000000E-01      3.421783000000000E-01     -1.739063000000000E+02
4420000000.000000      2.021103000000000E-01     -3.383789000000000E+00      3.434296000000000E-01      1.571797000000000E+02
4440000000.000000      2.039642000000000E-01     -8.060059000000000E+00      3.462067000000000E-01      1.274180000000000E+02
4460000000.000000      1.929779000000000E-01     -1.189014000000000E+01      3.404083000000000E-01      9.785156000000000E+01
4480000000.000000      1.751785000000000E-01     -1.145898000000000E+01      3.375092000000000E-01      6.957031000000000E+01
4500000000.000000      1.681213000000000E-01     -5.932617000000000E+00      3.371887000000000E-01      4.051367000000000E+01
4520000000.000000      1.809845000000000E-01     -3.048706000000000E-01      3.326874000000000E-01      1.125000000000000E+01
4540000000.000000      2.069016000000000E-01     -3.858948000000000E-01      3.248444000000000E-01     -1.788086000000000E+01
4560000000.000000      2.298126000000000E-01     -5.284424000000000E+00      3.190308000000000E-01     -4.607226000000000E+01
4580000000.000000      2.422104000000000E-01     -1.202051000000000E+01      3.217926000000000E-01     -7.532421000000000E+01
4600000000.000000      2.420349000000000E-01     -1.807031000000000E+01      3.191071000000000E-01     -1.056758000000000E+02
4620000000.000000      2.363205000000000E-01     -2.222851000000000E+01      3.146820000000000E-01     -1.352969000000000E+02
4640000000.000000      2.329865000000000E-01     -2.476269000000000E+01      3.136749000000000E-01     -1.648438000000000E+02
4660000000.000000      2.345047000000000E-01     -2.717773000000000E+01      3.128052000000000E-01      1.658437000000000E+02
4680000000.000000      2.370758000000000E-01     -3.116308000000000E+01      3.164063000000000E-01      1.370938000000000E+02
4700000000.000000      2.350464000000000E-01     -3.651758000000000E+01      3.168945000000000E-01      1.071914000000000E+02
4720000000.000000      2.246170000000000E-01     -4.238671000000000E+01      3.158264000000000E-01      7.938281000000000E+01
4740000000.000000      2.103958000000000E-01     -4.774610000000000E+01      3.211670000000000E-01      5.124609000000000E+01
4760000000.000000      1.926193000000000E-01     -5.237305000000000E+01      3.210297000000000E-01      2.247070000000000E+01
4780000000.000000      1.723785000000000E-01     -5.676171000000000E+01      3.171082000000000E-01     -5.865479000000000E+00
4800000000.000000      1.465912000000000E-01     -6.175195000000000E+01      3.129272000000000E-01     -3.458789000000000E+01
4820000000.000000      1.088448000000000E-01     -6.415625000000000E+01      3.042755000000000E-01     -6.340625000000000E+01
4840000000.000000      6.599808000000000E-02     -5.108984000000000E+01      2.972565000000000E-01     -9.232422000000000E+01
4860000000.000000      6.446457000000000E-02     -5.328369000000000E-01      2.904663000000000E-01     -1.226914000000000E+02
4880000000.000000      1.209106000000000E-01      1.574316000000000E+01      2.712402000000000E-01     -1.536250000000000E+02
4900000000.000000      1.849365000000000E-01      9.784668000000000E+00      2.507477000000000E-01      1.792656000000000E+02
4920000000.000000      2.387466000000000E-01     -1.638367000000000E+00      2.529602000000000E-01      1.542109000000000E+02
4940000000.000000      2.753448000000000E-01     -1.433447000000000E+01      2.659760000000000E-01      1.254102000000000E+02
4960000000.000000      2.907562000000000E-01     -2.749609000000000E+01      2.709961000000000E-01      9.553905000000000E+01
4980000000.000000      2.828827000000000E-01     -3.989843000000000E+01      2.770691000000000E-01      6.794531000000000E+01
5000000000.000000      2.544708000000000E-01     -4.972851000000000E+01      2.905731000000000E-01      4.004492000000000E+01
5020000000.000000      2.163696000000000E-01     -5.428124000000000E+01      2.990417000000000E-01      1.157129000000000E+01
5040000000.000000      1.862793000000000E-01     -5.235937000000000E+01      3.054047000000000E-01     -1.566406000000000E+01
5060000000.000000      1.782608000000000E-01     -4.627930000000000E+01      3.131104000000000E-01     -4.283203000000000E+01
5080000000.000000      1.863098000000000E-01     -4.261328000000000E+01      3.177185000000000E-01     -7.106640000000000E+01
5100000000.000000      1.984024000000000E-01     -4.328906000000000E+01      3.135223000000000E-01     -9.952343000000000E+01
5120000000.000000      2.050781000000000E-01     -4.584180000000000E+01      3.095703000000000E-01     -1.270742000000000E+02
5140000000.000000      2.094498000000000E-01     -4.845508000000000E+01      3.072205000000000E-01     -1.552969000000000E+02
5160000000.000000      2.113113000000000E-01     -5.084961000000000E+01      3.045654000000000E-01      1.754219000000000E+02
5180000000.000000      2.157135000000000E-01     -5.361523000000000E+01      3.007202000000000E-01      1.456953000000000E+02
5200000000.000000      2.201614000000000E-01     -5.685937000000000E+01      2.996368000000000E-01      1.157305000000000E+02
5220000000.000000      2.177429000000000E-01     -6.021484000000000E+01      2.993774000000000E-01      8.620703000000000E+01
5240000000.000000      2.120361000000000E-01     -6.289453000000000E+01      3.033600000000000E-01      5.631836000000000E+01
5260000000.000000      2.055283000000000E-01     -6.395702000000000E+01      3.078308000000000E-01      2.674707000000000E+01
5280000000.000000      2.019882000000000E-01     -6.369922000000000E+01      3.121643000000000E-01     -2.470581000000000E+00
5300000000.000000      2.046280000000000E-01     -6.396874000000000E+01      3.142242000000000E-01     -3.050000000000000E+01
5320000000.000000      2.083359000000000E-01     -6.578125000000000E+01      3.189850000000000E-01     -5.763476000000000E+01
5340000000.000000      2.083282000000000E-01     -6.864843000000000E+01      3.230438000000000E-01     -8.535156000000000E+01
5360000000.000000      2.040024000000000E-01     -7.153515000000000E+01      3.182220000000000E-01     -1.128555000000000E+02
5380000000.000000      1.995010000000000E-01     -7.303515000000000E+01      3.152924000000000E-01     -1.394609000000000E+02
5400000000.000000      1.980896000000000E-01     -7.317577000000000E+01      3.131866000000000E-01     -1.670547000000000E+02
5420000000.000000      2.048645000000000E-01     -7.303905000000000E+01      3.069763000000000E-01      1.647891000000000E+02
5440000000.000000      2.164078000000000E-01     -7.477734000000000E+01      3.021240000000000E-01      1.357578000000000E+02
5460000000.000000      2.247925000000000E-01     -7.872656000000000E+01      2.929993000000000E-01      1.061289000000000E+02
5480000000.000000      2.240143000000000E-01     -8.385157000000000E+01      2.877350000000000E-01      7.675390000000000E+01
5500000000.000000      2.133560000000000E-01     -8.889843000000000E+01      2.900085000000000E-01      4.693749000000000E+01
5520000000.000000      1.957321000000000E-01     -9.250000000000000E+01      2.913361000000000E-01      1.668066000000000E+01
5540000000.000000      1.789551000000000E-01     -9.372656000000000E+01      2.941589000000000E-01     -1.312061000000000E+01
5560000000.000000      1.661148000000000E-01     -9.326952000000000E+01      2.990723000000000E-01     -4.194336000000000E+01
5580000000.000000      1.578979000000000E-01     -9.198046000000000E+01      3.052063000000000E-01     -7.064062000000000E+01
5600000000.000000      1.518478000000000E-01     -8.980078000000000E+01      3.092499000000000E-01     -9.855469000000000E+01
5620000000.000000      1.494446000000000E-01     -8.591015000000000E+01      3.108521000000000E-01     -1.263242000000000E+02
5640000000.000000      1.552124000000000E-01     -8.057032000000000E+01      3.096161000000000E-01     -1.538984000000000E+02
5660000000.000000      1.720352000000000E-01     -7.747265000000000E+01      3.041229000000000E-01      1.789219000000000E+02
5680000000.000000      1.974869000000000E-01     -7.887890000000000E+01      2.975159000000000E-01      1.511562000000000E+02
5700000000.000000      2.201004000000000E-01     -8.460155000000000E+01      2.877197000000000E-01      1.230195000000000E+02
5720000000.000000      2.302704000000000E-01     -9.278515000000000E+01      2.766113000000000E-01      9.543749000000000E+01
5740000000.000000      2.249985000000000E-01     -1.016133000000000E+02      2.730865000000000E-01      6.668359000000000E+01
5760000000.000000      2.059174000000000E-01     -1.091289000000000E+02      2.693939000000000E-01      3.577539000000000E+01
5780000000.000000      1.807785000000000E-01     -1.120976000000000E+02      2.652283000000000E-01      5.105713000000000E+00
5800000000.000000      1.634369000000000E-01     -1.096758000000000E+02      2.652893000000000E-01     -2.489941000000000E+01
5820000000.000000      1.623306000000000E-01     -1.062070000000000E+02      2.708893000000000E-01     -5.479882000000000E+01
5840000000.000000      1.714020000000000E-01     -1.072461000000000E+02      2.790985000000000E-01     -8.528515000000000E+01
5860000000.000000      1.771545000000000E-01     -1.119023000000000E+02      2.795868000000000E-01     -1.144844000000000E+02
5880000000.000000      1.730728000000000E-01     -1.186445000000000E+02      2.808838000000000E-01     -1.418281000000000E+02
5900000000.000000      1.594315000000000E-01     -1.236367000000000E+02      2.884216000000000E-01     -1.692188000000000E+02
5920000000.000000      1.425705000000000E-01     -1.251992000000000E+02      2.916870000000000E-01      1.627500000000000E+02
5940000000.000000      1.326981000000000E-01     -1.226055000000000E+02      2.855072000000000E-01      1.341016000000000E+02
5960000000.000000      1.292953000000000E-01     -1.216484000000000E+02      2.737427000000000E-01      1.067266000000000E+02
5980000000.000000      1.229019000000000E-01     -1.228594000000000E+02      2.661438000000000E-01      7.924218000000000E+01
6000000000.000000      1.065712000000000E-01     -1.243984000000000E+02      2.614136000000000E-01      4.958008000000000E+01
6020000000.000000      8.356094000000000E-02     -1.197734000000000E+02      2.510986000000000E-01      1.863965000000000E+01
6040000000.000000      7.177734000000000E-02     -1.012070000000000E+02      2.388992000000000E-01     -1.163623000000000E+01
6060000000.000000      8.665466000000000E-02     -8.385937000000000E+01      2.354202000000000E-01     -4.134570000000000E+01
6080000000.000000      1.151505000000000E-01     -8.151562000000000E+01      2.410126000000000E-01     -7.157812000000000E+01
