! Network Analyzer HP8722D
! Hewlett-Packard
! Data name: Linha com CNT
! Saver's name: Rodrigo Anjos
! Comments: Teste de deteccao de acetona 0-100ppm a partir de cilindro
! Time and date: 10/9/2025 16:05
!              Frequency                     S11                                                   S21                                                   S12                                                   S22
# HZ  S  MA R 50
3000000000.000000      1.504745000000000E-01      3.880273000000000E+01      4.160614000000000E-01      2.530468000000000E+01
3020000000.000000      1.713181000000000E-01      3.704883000000000E+01      4.192352000000000E-01     -3.964722000000000E+00
3040000000.000000      1.822586000000000E-01      3.095508000000000E+01      4.182281000000000E-01     -3.268164000000000E+01
3060000000.000000      1.816025000000000E-01      2.422558000000000E+01      4.172516000000000E-01     -6.148828000000000E+01
3080000000.000000      1.704178000000000E-01      1.893066000000000E+01      4.152679000000000E-01     -9.003515000000000E+01
3100000000.000000      1.566772000000000E-01      1.682226000000000E+01      4.129028000000000E-01     -1.183008000000000E+02
3120000000.000000      1.492462000000000E-01      1.804297000000000E+01      4.123230000000000E-01     -1.469687000000000E+02
3140000000.000000      1.476212000000000E-01      1.794726000000000E+01      4.080811000000000E-01     -1.755078000000000E+02
3160000000.000000      1.433258000000000E-01      1.557129000000000E+01      4.039764000000000E-01      1.559297000000000E+02
3180000000.000000      1.262894000000000E-01      1.443164000000000E+01      4.004822000000000E-01      1.273320000000000E+02
3200000000.000000      1.026611000000000E-01      2.132226000000000E+01      3.965607000000000E-01      9.800781000000000E+01
3220000000.000000      9.584045000000000E-02      4.266797000000000E+01      3.841858000000000E-01      6.893749000000000E+01
3240000000.000000      1.237144000000000E-01      5.836523000000000E+01      3.731384000000000E-01      4.175586000000000E+01
3260000000.000000      1.698990000000000E-01      6.043945000000000E+01      3.778534000000000E-01      1.461035000000000E+01
3280000000.000000      2.144089000000000E-01      5.395702000000000E+01      3.845825000000000E-01     -1.466016000000000E+01
3300000000.000000      2.465744000000000E-01      4.422265000000000E+01      3.814240000000000E-01     -4.334961000000000E+01
3320000000.000000      2.632904000000000E-01      3.419336000000000E+01      3.854828000000000E-01     -7.116015000000000E+01
3340000000.000000      2.651215000000000E-01      2.521679000000000E+01      3.908844000000000E-01     -1.000391000000000E+02
3360000000.000000      2.549286000000000E-01      1.844434000000000E+01      3.932037000000000E-01     -1.286562000000000E+02
3380000000.000000      2.417450000000000E-01      1.416406000000000E+01      3.962860000000000E-01     -1.570625000000000E+02
3400000000.000000      2.279663000000000E-01      1.169727000000000E+01      3.960419000000000E-01      1.741484000000000E+02
3420000000.000000      2.175598000000000E-01      1.062891000000000E+01      3.980408000000000E-01      1.453438000000000E+02
3440000000.000000      2.080307000000000E-01      9.124023000000000E+00      3.955994000000000E-01      1.166445000000000E+02
3460000000.000000      1.977310000000000E-01      8.725586000000000E+00      3.936005000000000E-01      8.845312000000000E+01
3480000000.000000      1.922379000000000E-01      8.186035000000000E+00      3.938599000000000E-01      5.924999000000000E+01
3500000000.000000      1.866074000000000E-01      8.448242000000000E+00      3.899841000000000E-01      3.042773000000000E+01
3520000000.000000      1.838150000000000E-01      8.946777000000000E+00      3.878174000000000E-01      2.282349000000000E+00
3540000000.000000      1.829224000000000E-01      9.143066000000000E+00      3.883514000000000E-01     -2.630957000000000E+01
3560000000.000000      1.799316000000000E-01      1.053857000000000E+01      3.902740000000000E-01     -5.523046000000000E+01
3580000000.000000      1.800385000000000E-01      1.277832000000000E+01      3.890381000000000E-01     -8.404297000000000E+01
3600000000.000000      1.854553000000000E-01      1.457568000000000E+01      3.887024000000000E-01     -1.120234000000000E+02
3620000000.000000      1.951752000000000E-01      1.495752000000000E+01      3.916016000000000E-01     -1.402422000000000E+02
3640000000.000000      2.032928000000000E-01      1.243652000000000E+01      3.922272000000000E-01     -1.686875000000000E+02
3660000000.000000      2.041245000000000E-01      8.545898000000000E+00      3.908539000000000E-01      1.633828000000000E+02
3680000000.000000      1.984634000000000E-01      5.211426000000000E+00      3.937683000000000E-01      1.357578000000000E+02
3700000000.000000      1.864166000000000E-01      4.140381000000000E+00      3.946533000000000E-01      1.073203000000000E+02
3720000000.000000      1.791458000000000E-01      7.058594000000000E+00      3.931885000000000E-01      7.869141000000000E+01
3740000000.000000      1.865997000000000E-01      1.049707000000000E+01      3.869019000000000E-01      5.017968000000000E+01
3760000000.000000      2.005768000000000E-01      1.116455000000000E+01      3.822327000000000E-01      2.243359000000000E+01
3780000000.000000      2.132339000000000E-01      8.184570000000000E+00      3.821716000000000E-01     -5.291504000000000E+00
3800000000.000000      2.158203000000000E-01      3.337036000000000E+00      3.826141000000000E-01     -3.406250000000000E+01
3820000000.000000      2.038956000000000E-01     -4.751587000000000E-01      3.826599000000000E-01     -6.275585000000000E+01
3840000000.000000      1.890259000000000E-01     -8.184814000000000E-01      3.811188000000000E-01     -9.173046000000000E+01
3860000000.000000      1.842270000000000E-01      2.308472000000000E+00      3.818207000000000E-01     -1.207578000000000E+02
3880000000.000000      1.928329000000000E-01      4.497314000000000E+00      3.775177000000000E-01     -1.496953000000000E+02
3900000000.000000      2.062378000000000E-01      3.238159000000000E+00      3.720703000000000E-01     -1.780313000000000E+02
3920000000.000000      2.134323000000000E-01     -6.413269000000000E-01      3.729706000000000E-01      1.546719000000000E+02
3940000000.000000      2.049026000000000E-01     -4.876709000000000E+00      3.793793000000000E-01      1.260938000000000E+02
3960000000.000000      1.869812000000000E-01     -5.202148000000000E+00      3.783722000000000E-01      9.676952000000000E+01
3980000000.000000      1.767502000000000E-01     -8.377075000000000E-02      3.718414000000000E-01      6.827734000000000E+01
4000000000.000000      1.870041000000000E-01      5.806152000000000E+00      3.661804000000000E-01      4.141797000000000E+01
4020000000.000000      2.147980000000000E-01      6.775635000000000E+00      3.729095000000000E-01      1.363086000000000E+01
4040000000.000000      2.426300000000000E-01      1.046448000000000E+00      3.718262000000000E-01     -1.638672000000000E+01
4060000000.000000      2.527618000000000E-01     -7.656250000000000E+00      3.615570000000000E-01     -4.524023000000000E+01
4080000000.000000      2.438660000000000E-01     -1.710644000000000E+01      3.589325000000000E-01     -7.218750000000000E+01
4100000000.000000      2.139206000000000E-01     -2.357812000000000E+01      3.668671000000000E-01     -1.011953000000000E+02
4120000000.000000      1.790009000000000E-01     -2.432129000000000E+01      3.658752000000000E-01     -1.313594000000000E+02
4140000000.000000      1.597824000000000E-01     -1.756640000000000E+01      3.594818000000000E-01     -1.601563000000000E+02
4160000000.000000      1.599045000000000E-01     -1.101807000000000E+01      3.614960000000000E-01      1.726406000000000E+02
4180000000.000000      1.706772000000000E-01     -8.695801000000000E+00      3.686981000000000E-01      1.436328000000000E+02
4200000000.000000      1.741714000000000E-01     -1.065576000000000E+01      3.672485000000000E-01      1.137930000000000E+02
4220000000.000000      1.683884000000000E-01     -1.088770000000000E+01      3.642120000000000E-01      8.496874000000000E+01
4240000000.000000      1.648102000000000E-01     -7.131592000000000E+00      3.568573000000000E-01      5.638866000000000E+01
4260000000.000000      1.734009000000000E-01     -2.834473000000000E+00      3.524628000000000E-01      2.841309000000000E+01
4280000000.000000      1.920166000000000E-01     -8.473206000000000E-01      3.531189000000000E-01      1.702881000000000E-01
4300000000.000000      2.126999000000000E-01     -3.510132000000000E+00      3.506622000000000E-01     -2.866015000000000E+01
4320000000.000000      2.233353000000000E-01     -8.315430000000000E+00      3.475189000000000E-01     -5.732031000000000E+01
4340000000.000000      2.206573000000000E-01     -1.329492000000000E+01      3.471069000000000E-01     -8.648829000000000E+01
4360000000.000000      2.114334000000000E-01     -1.571045000000000E+01      3.461456000000000E-01     -1.158164000000000E+02
4380000000.000000      2.066116000000000E-01     -1.521094000000000E+01      3.434143000000000E-01     -1.453750000000000E+02
4400000000.000000      2.113419000000000E-01     -1.446924000000000E+01      3.399658000000000E-01     -1.744141000000000E+02
4420000000.000000      2.221985000000000E-01     -1.575342000000000E+01      3.423157000000000E-01      1.569219000000000E+02
4440000000.000000      2.279434000000000E-01     -2.001074000000000E+01      3.439636000000000E-01      1.270781000000000E+02
4460000000.000000      2.198334000000000E-01     -2.362207000000000E+01      3.394165000000000E-01      9.750000000000000E+01
4480000000.000000      2.033310000000000E-01     -2.457031000000000E+01      3.362732000000000E-01      6.915625000000000E+01
4500000000.000000      1.922150000000000E-01     -2.118750000000000E+01      3.351288000000000E-01      4.041406000000000E+01
4520000000.000000      1.977997000000000E-01     -1.592480000000000E+01      3.299408000000000E-01      1.108643000000000E+01
4540000000.000000      2.199097000000000E-01     -1.486328000000000E+01      3.217773000000000E-01     -1.828320000000000E+01
4560000000.000000      2.423096000000000E-01     -1.746094000000000E+01      3.178253000000000E-01     -4.620313000000000E+01
4580000000.000000      2.576904000000000E-01     -2.288867000000000E+01      3.188782000000000E-01     -7.580859000000000E+01
4600000000.000000      2.599640000000000E-01     -2.819238000000000E+01      3.166504000000000E-01     -1.060078000000000E+02
4620000000.000000      2.564240000000000E-01     -3.170703000000000E+01      3.115387000000000E-01     -1.356719000000000E+02
4640000000.000000      2.556763000000000E-01     -3.395508000000000E+01      3.120117000000000E-01     -1.654219000000000E+02
4660000000.000000      2.573395000000000E-01     -3.596289000000000E+01      3.116760000000000E-01      1.655234000000000E+02
4680000000.000000      2.624054000000000E-01     -3.918554000000000E+01      3.150635000000000E-01      1.363359000000000E+02
4700000000.000000      2.634583000000000E-01     -4.386328000000000E+01      3.154297000000000E-01      1.064805000000000E+02
4720000000.000000      2.568665000000000E-01     -4.885351000000000E+01      3.141785000000000E-01      7.878124000000000E+01
4740000000.000000      2.468643000000000E-01     -5.375000000000000E+01      3.195953000000000E-01      5.079296000000000E+01
4760000000.000000      2.302017000000000E-01     -5.809375000000000E+01      3.203888000000000E-01      2.222754000000000E+01
4780000000.000000      2.139130000000000E-01     -6.203515000000000E+01      3.163605000000000E-01     -6.129150000000000E+00
4800000000.000000      1.917648000000000E-01     -6.664453000000000E+01      3.115234000000000E-01     -3.467968000000000E+01
4820000000.000000      1.598969000000000E-01     -6.959374000000000E+01      3.033752000000000E-01     -6.355859000000000E+01
4840000000.000000      1.176872000000000E-01     -6.626953000000000E+01      2.955780000000000E-01     -9.245312000000000E+01
4860000000.000000      9.094620000000000E-02     -4.352148000000000E+01      2.878418000000000E-01     -1.229219000000000E+02
4880000000.000000      1.151161000000000E-01     -1.581348000000000E+01      2.688141000000000E-01     -1.538594000000000E+02
4900000000.000000      1.705856000000000E-01     -1.049756000000000E+01      2.475967000000000E-01      1.789453000000000E+02
4920000000.000000      2.263336000000000E-01     -1.624512000000000E+01      2.489624000000000E-01      1.539531000000000E+02
4940000000.000000      2.708740000000000E-01     -2.568359000000000E+01      2.625732000000000E-01      1.251133000000000E+02
4960000000.000000      2.958527000000000E-01     -3.699804000000000E+01      2.684326000000000E-01      9.498047000000000E+01
4980000000.000000      2.978668000000000E-01     -4.811328000000000E+01      2.743225000000000E-01      6.734765000000000E+01
5000000000.000000      2.780151000000000E-01     -5.704102000000000E+01      2.887726000000000E-01      3.962891000000000E+01
5020000000.000000      2.461472000000000E-01     -6.189258000000000E+01      2.981262000000000E-01      1.112207000000000E+01
5040000000.000000      2.187424000000000E-01     -6.180469000000000E+01      3.039703000000000E-01     -1.611621000000000E+01
5060000000.000000      2.065735000000000E-01     -5.793359000000000E+01      3.118591000000000E-01     -4.325195000000000E+01
5080000000.000000      2.106247000000000E-01     -5.486914000000000E+01      3.170013000000000E-01     -7.130077000000000E+01
5100000000.000000      2.203217000000000E-01     -5.496094000000000E+01      3.120880000000000E-01     -9.960546000000000E+01
5120000000.000000      2.268524000000000E-01     -5.668554000000000E+01      3.078461000000000E-01     -1.270351000000000E+02
5140000000.000000      2.323914000000000E-01     -5.842578000000000E+01      3.052979000000000E-01     -1.554844000000000E+02
5160000000.000000      2.357788000000000E-01     -6.043750000000000E+01      3.016968000000000E-01      1.752891000000000E+02
5180000000.000000      2.414627000000000E-01     -6.255664000000000E+01      2.978363000000000E-01      1.456719000000000E+02
5200000000.000000      2.477798000000000E-01     -6.564843000000000E+01      2.968445000000000E-01      1.154180000000000E+02
5220000000.000000      2.470398000000000E-01     -6.880859000000000E+01      2.964935000000000E-01      8.574610000000000E+01
5240000000.000000      2.417526000000000E-01     -7.147655000000000E+01      3.004608000000000E-01      5.580859000000000E+01
5260000000.000000      2.353973000000000E-01     -7.291016000000000E+01      3.058319000000000E-01      2.612402000000000E+01
5280000000.000000      2.312241000000000E-01     -7.296875000000000E+01      3.103333000000000E-01     -3.054199000000000E+00
5300000000.000000      2.327881000000000E-01     -7.347656000000000E+01      3.125916000000000E-01     -3.094922000000000E+01
5320000000.000000      2.355118000000000E-01     -7.461719000000000E+01      3.179626000000000E-01     -5.793163000000000E+01
5340000000.000000      2.370453000000000E-01     -7.696484000000000E+01      3.214722000000000E-01     -8.577343000000000E+01
5360000000.000000      2.340088000000000E-01     -7.962109000000000E+01      3.176422000000000E-01     -1.130625000000000E+02
5380000000.000000      2.296371000000000E-01     -8.072266000000000E+01      3.139343000000000E-01     -1.395469000000000E+02
5400000000.000000      2.295914000000000E-01     -8.122265000000000E+01      3.111725000000000E-01     -1.670547000000000E+02
5420000000.000000      2.356949000000000E-01     -8.124609000000000E+01      3.053741000000000E-01      1.646406000000000E+02
5440000000.000000      2.470551000000000E-01     -8.250000000000000E+01      2.997437000000000E-01      1.356172000000000E+02
5460000000.000000      2.562561000000000E-01     -8.594141000000000E+01      2.890930000000000E-01      1.058945000000000E+02
5480000000.000000      2.587891000000000E-01     -9.054296000000000E+01      2.848206000000000E-01      7.630859000000000E+01
5500000000.000000      2.497864000000000E-01     -9.523438000000000E+01      2.865601000000000E-01      4.643555000000000E+01
5520000000.000000      2.338409000000000E-01     -9.867577000000000E+01      2.885742000000000E-01      1.599854000000000E+01
5540000000.000000      2.189102000000000E-01     -1.000234000000000E+02      2.913055000000000E-01     -1.392383000000000E+01
5560000000.000000      2.054214000000000E-01     -1.004766000000000E+02      2.966919000000000E-01     -4.267187000000000E+01
5580000000.000000      1.953583000000000E-01     -9.981249000000000E+01      3.041534000000000E-01     -7.117969000000000E+01
5600000000.000000      1.896057000000000E-01     -9.898827000000000E+01      3.081818000000000E-01     -9.894531000000000E+01
5620000000.000000      1.847916000000000E-01     -9.670702000000000E+01      3.106689000000000E-01     -1.266289000000000E+02
5640000000.000000      1.870804000000000E-01     -9.288671000000000E+01      3.086700000000000E-01     -1.540547000000000E+02
5660000000.000000      2.012177000000000E-01     -8.994921000000000E+01      3.027649000000000E-01      1.790000000000000E+02
5680000000.000000      2.235489000000000E-01     -9.000000000000000E+01      2.956543000000000E-01      1.511484000000000E+02
5700000000.000000      2.468338000000000E-01     -9.402344000000000E+01      2.840118000000000E-01      1.230547000000000E+02
5720000000.000000      2.598419000000000E-01     -1.003945000000000E+02      2.730103000000000E-01      9.531250000000000E+01
5740000000.000000      2.577820000000000E-01     -1.081484000000000E+02      2.679596000000000E-01      6.650781000000000E+01
5760000000.000000      2.405243000000000E-01     -1.146562000000000E+02      2.633972000000000E-01      3.550195000000000E+01
5780000000.000000      2.162170000000000E-01     -1.177109000000000E+02      2.591095000000000E-01      4.593506000000000E+00
5800000000.000000      1.985321000000000E-01     -1.164922000000000E+02      2.595367000000000E-01     -2.566895000000000E+01
5820000000.000000      1.960678000000000E-01     -1.139531000000000E+02      2.659454000000000E-01     -5.574609000000000E+01
5840000000.000000      2.042236000000000E-01     -1.143867000000000E+02      2.757568000000000E-01     -8.625780000000000E+01
5860000000.000000      2.110748000000000E-01     -1.179297000000000E+02      2.774506000000000E-01     -1.153750000000000E+02
5880000000.000000      2.100220000000000E-01     -1.230742000000000E+02      2.794952000000000E-01     -1.427344000000000E+02
5900000000.000000      1.999664000000000E-01     -1.271211000000000E+02      2.879028000000000E-01     -1.696094000000000E+02
5920000000.000000      1.852036000000000E-01     -1.287656000000000E+02      2.916565000000000E-01      1.623906000000000E+02
5940000000.000000      1.765213000000000E-01     -1.279375000000000E+02      2.853241000000000E-01      1.342109000000000E+02
5960000000.000000      1.715775000000000E-01     -1.282266000000000E+02      2.730560000000000E-01      1.069492000000000E+02
5980000000.000000      1.635437000000000E-01     -1.300703000000000E+02      2.639771000000000E-01      7.977344000000000E+01
6000000000.000000      1.477051000000000E-01     -1.323437000000000E+02      2.579193000000000E-01      5.030468000000000E+01
6020000000.000000      1.235962000000000E-01     -1.308672000000000E+02      2.462082000000000E-01      1.944824000000000E+01
6040000000.000000      1.077576000000000E-01     -1.207773000000000E+02      2.339020000000000E-01     -1.108252000000000E+01
6060000000.000000      1.117134000000000E-01     -1.079883000000000E+02      2.286224000000000E-01     -4.100390000000000E+01
6080000000.000000      1.345673000000000E-01     -1.019453000000000E+02      2.345505000000000E-01     -7.174999000000000E+01
