! Network Analyzer HP8722D
! Hewlett-Packard
! Data name: Linha com CNT
! Saver's name: Rodrigo Anjos
! Comments: Teste de deteccao de acetona 0-100ppm a partir de cilindro
! Time and date: 10/9/2025 15:40
!              Frequency                     S11                                                   S21                                                   S12                                                   S22
# HZ  S  MA R 50
3000000000.000000      5.309448000000000E-01      1.285400000000000E+01      2.055969000000000E-01      3.867773000000000E+01
3020000000.000000      5.386963000000000E-01      1.212451000000000E+01      2.098389000000000E-01      9.004395000000000E+00
3040000000.000000      5.440063000000000E-01      1.156836000000000E+01      2.101669000000000E-01     -2.020312000000000E+01
3060000000.000000      5.486450000000000E-01      9.967285000000000E+00      2.105713000000000E-01     -4.945117000000000E+01
3080000000.000000      5.458984000000000E-01      8.346680000000000E+00      2.060776000000000E-01     -7.856640000000000E+01
3100000000.000000      5.442200000000000E-01      7.039307000000000E+00      2.042618000000000E-01     -1.061289000000000E+02
3120000000.000000      5.455933000000000E-01      6.028564000000000E+00      2.045975000000000E-01     -1.346641000000000E+02
3140000000.000000      5.437927000000000E-01      5.093506000000000E+00      2.012558000000000E-01     -1.632813000000000E+02
3160000000.000000      5.459595000000000E-01      4.166504000000000E+00      1.978683000000000E-01      1.680547000000000E+02
3180000000.000000      5.435486000000000E-01      3.054199000000000E+00      1.924820000000000E-01      1.401719000000000E+02
3200000000.000000      5.366211000000000E-01      2.127197000000000E+00      1.890793000000000E-01      1.119180000000000E+02
3220000000.000000      5.255432000000000E-01      1.398010000000000E+00      1.801300000000000E-01      8.355860000000000E+01
3240000000.000000      5.212097000000000E-01      1.392517000000000E+00      1.743927000000000E-01      5.874218000000000E+01
3260000000.000000      5.195618000000000E-01      1.656189000000000E+00      1.830978000000000E-01      3.302929000000000E+01
3280000000.000000      5.235291000000000E-01      1.994019000000000E+00      1.908646000000000E-01      3.525146000000000E+00
3300000000.000000      5.357666000000000E-01      1.647949000000000E+00      1.941681000000000E-01     -2.525293000000000E+01
3320000000.000000      5.489197000000000E-01      8.802795000000000E-01      2.017670000000000E-01     -5.432812000000000E+01
3340000000.000000      5.602112000000000E-01     -7.814026000000000E-01      2.064056000000000E-01     -8.437891000000000E+01
3360000000.000000      5.661011000000000E-01     -2.437622000000000E+00      2.086334000000000E-01     -1.144219000000000E+02
3380000000.000000      5.655212000000000E-01     -4.030762000000000E+00      2.075729000000000E-01     -1.438516000000000E+02
3400000000.000000      5.641785000000000E-01     -5.176025000000000E+00      2.068176000000000E-01     -1.725078000000000E+02
3420000000.000000      5.621643000000000E-01     -6.489014000000000E+00      2.052689000000000E-01      1.582031000000000E+02
3440000000.000000      5.566711000000000E-01     -7.560059000000000E+00      2.005997000000000E-01      1.303906000000000E+02
3460000000.000000      5.529480000000000E-01     -8.509277000000000E+00      2.017441000000000E-01      1.020117000000000E+02
3480000000.000000      5.522156000000000E-01     -9.574707000000000E+00      1.989441000000000E-01      7.282812000000000E+01
3500000000.000000      5.507202000000000E-01     -1.037402000000000E+01      1.974564000000000E-01      4.521680000000000E+01
3520000000.000000      5.493469000000000E-01     -1.147119000000000E+01      1.975403000000000E-01      1.603125000000000E+01
3540000000.000000      5.501404000000000E-01     -1.235986000000000E+01      1.930542000000000E-01     -1.248340000000000E+01
3560000000.000000      5.494385000000000E-01     -1.319629000000000E+01      1.942978000000000E-01     -4.032617000000000E+01
3580000000.000000      5.464478000000000E-01     -1.390771000000000E+01      1.939926000000000E-01     -6.914063000000000E+01
3600000000.000000      5.454712000000000E-01     -1.457764000000000E+01      1.942902000000000E-01     -9.646484000000000E+01
3620000000.000000      5.450439000000000E-01     -1.526318000000000E+01      1.984406000000000E-01     -1.248438000000000E+02
3640000000.000000      5.468750000000000E-01     -1.609668000000000E+01      1.998062000000000E-01     -1.532187000000000E+02
3660000000.000000      5.477295000000000E-01     -1.734961000000000E+01      2.011871000000000E-01      1.782969000000000E+02
3680000000.000000      5.497131000000000E-01     -1.866992000000000E+01      1.992722000000000E-01      1.497187000000000E+02
3700000000.000000      5.475769000000000E-01     -1.974805000000000E+01      1.970749000000000E-01      1.226250000000000E+02
3720000000.000000      5.423279000000000E-01     -2.064551000000000E+01      1.991425000000000E-01      9.442968000000000E+01
3740000000.000000      5.426636000000000E-01     -2.124414000000000E+01      1.947250000000000E-01      6.622656000000000E+01
3760000000.000000      5.429382000000000E-01     -2.157617000000000E+01      1.947327000000000E-01      3.915625000000000E+01
3780000000.000000      5.462341000000000E-01     -2.220898000000000E+01      1.975098000000000E-01      1.047949000000000E+01
3800000000.000000      5.505371000000000E-01     -2.343457000000000E+01      1.957474000000000E-01     -1.889844000000000E+01
3820000000.000000      5.501099000000000E-01     -2.482715000000000E+01      1.939621000000000E-01     -4.755273000000000E+01
3840000000.000000      5.475769000000000E-01     -2.620800000000000E+01      1.932297000000000E-01     -7.596484000000000E+01
3860000000.000000      5.455017000000000E-01     -2.726563000000000E+01      1.941299000000000E-01     -1.051055000000000E+02
3880000000.000000      5.428162000000000E-01     -2.791699000000000E+01      1.922455000000000E-01     -1.339375000000000E+02
3900000000.000000      5.452881000000000E-01     -2.874218000000000E+01      1.919632000000000E-01     -1.611875000000000E+02
3920000000.000000      5.490417000000000E-01     -2.954590000000000E+01      1.948547000000000E-01      1.701094000000000E+02
3940000000.000000      5.505676000000000E-01     -3.100390000000000E+01      1.936188000000000E-01      1.415625000000000E+02
3960000000.000000      5.463257000000000E-01     -3.221484000000000E+01      1.940231000000000E-01      1.134844000000000E+02
3980000000.000000      5.397949000000000E-01     -3.309375000000000E+01      1.885605000000000E-01      8.501171000000000E+01
4000000000.000000      5.338135000000000E-01     -3.363281000000000E+01      1.855240000000000E-01      5.982226000000000E+01
4020000000.000000      5.351563000000000E-01     -3.389453000000000E+01      1.939011000000000E-01      3.204102000000000E+01
4040000000.000000      5.440674000000000E-01     -3.430859000000000E+01      1.939316000000000E-01      1.500977000000000E+00
4060000000.000000      5.554504000000000E-01     -3.567578000000000E+01      1.910553000000000E-01     -2.746484000000000E+01
4080000000.000000      5.642395000000000E-01     -3.770117000000000E+01      1.907883000000000E-01     -5.683788000000000E+01
4100000000.000000      5.632019000000000E-01     -4.010547000000000E+01      1.899414000000000E-01     -8.625780000000000E+01
4120000000.000000      5.541382000000000E-01     -4.182617000000000E+01      1.873779000000000E-01     -1.166875000000000E+02
4140000000.000000      5.446472000000000E-01     -4.283203000000000E+01      1.799927000000000E-01     -1.449297000000000E+02
4160000000.000000      5.392761000000000E-01     -4.349609000000000E+01      1.825943000000000E-01     -1.710312000000000E+02
4180000000.000000      5.371399000000000E-01     -4.434179000000000E+01      1.873627000000000E-01      1.595547000000000E+02
4200000000.000000      5.368347000000000E-01     -4.533399000000000E+01      1.849136000000000E-01      1.312500000000000E+02
4220000000.000000      5.390015000000000E-01     -4.643945000000000E+01      1.871719000000000E-01      1.035195000000000E+02
4240000000.000000      5.324707000000000E-01     -4.754883000000000E+01      1.831818000000000E-01      7.430078000000000E+01
4260000000.000000      5.314026000000000E-01     -4.813477000000000E+01      1.786957000000000E-01      4.775195000000000E+01
4280000000.000000      5.290833000000000E-01     -4.869726000000000E+01      1.799774000000000E-01      2.045898000000000E+01
4300000000.000000      5.303040000000000E-01     -4.907421000000000E+01      1.793213000000000E-01     -8.272949000000000E+00
4320000000.000000      5.357971000000000E-01     -4.992773000000000E+01      1.795654000000000E-01     -3.720117000000000E+01
4340000000.000000      5.384827000000000E-01     -5.129687000000000E+01      1.797867000000000E-01     -6.671875000000000E+01
4360000000.000000      5.389709000000000E-01     -5.295116000000000E+01      1.799393000000000E-01     -9.705078000000000E+01
4380000000.000000      5.372314000000000E-01     -5.431641000000000E+01      1.774979000000000E-01     -1.274297000000000E+02
4400000000.000000      5.330811000000000E-01     -5.505273000000000E+01      1.762466000000000E-01     -1.559062000000000E+02
4420000000.000000      5.340271000000000E-01     -5.588672000000000E+01      1.811981000000000E-01      1.752109000000000E+02
4440000000.000000      5.377502000000000E-01     -5.662499000000000E+01      1.828384000000000E-01      1.452031000000000E+02
4460000000.000000      5.410767000000000E-01     -5.822656000000000E+01      1.829681000000000E-01      1.161328000000000E+02
4480000000.000000      5.399780000000000E-01     -5.986914000000000E+01      1.819077000000000E-01      8.731640000000000E+01
4500000000.000000      5.328979000000000E-01     -6.111133000000000E+01      1.792450000000000E-01      5.968554000000000E+01
4520000000.000000      5.276794000000000E-01     -6.185741000000000E+01      1.767120000000000E-01      3.161230000000000E+01
4540000000.000000      5.245972000000000E-01     -6.265038000000000E+01      1.714630000000000E-01      3.917969000000000E+00
4560000000.000000      5.277710000000000E-01     -6.323828000000000E+01      1.712799000000000E-01     -2.334375000000000E+01
4580000000.000000      5.335083000000000E-01     -6.405468000000000E+01      1.716385000000000E-01     -5.367188000000000E+01
4600000000.000000      5.389099000000000E-01     -6.540625000000000E+01      1.689148000000000E-01     -8.400782000000000E+01
4620000000.000000      5.422668000000000E-01     -6.673437000000000E+01      1.685257000000000E-01     -1.155703000000000E+02
4640000000.000000      5.417480000000000E-01     -6.793750000000000E+01      1.643677000000000E-01     -1.470312000000000E+02
4660000000.000000      5.446167000000000E-01     -6.880077000000000E+01      1.652222000000000E-01     -1.764844000000000E+02
4680000000.000000      5.477600000000000E-01     -6.986718000000000E+01      1.716995000000000E-01      1.529453000000000E+02
4700000000.000000      5.496521000000000E-01     -7.116405000000000E+01      1.738815000000000E-01      1.229023000000000E+02
4720000000.000000      5.530396000000000E-01     -7.264062000000000E+01      1.781921000000000E-01      9.422266000000000E+01
4740000000.000000      5.568848000000000E-01     -7.452734000000000E+01      1.819382000000000E-01      6.538280000000000E+01
4760000000.000000      5.581665000000000E-01     -7.656250000000000E+01      1.817322000000000E-01      3.782422000000000E+01
4780000000.000000      5.561218000000000E-01     -7.831249000000000E+01      1.793137000000000E-01      9.836426000000000E+00
4800000000.000000      5.551453000000000E-01     -8.045702000000000E+01      1.720047000000000E-01     -1.745605000000000E+01
4820000000.000000      5.481567000000000E-01     -8.233984000000000E+01      1.619568000000000E-01     -4.449414000000000E+01
4840000000.000000      5.339355000000000E-01     -8.424219000000000E+01      1.517410000000000E-01     -7.122656000000000E+01
4860000000.000000      5.194092000000000E-01     -8.557032000000000E+01      1.436081000000000E-01     -9.925390000000000E+01
4880000000.000000      5.043030000000000E-01     -8.600000000000000E+01      1.291885000000000E-01     -1.286875000000000E+02
4900000000.000000      4.916077000000000E-01     -8.557032000000000E+01      1.167793000000000E-01     -1.539141000000000E+02
4920000000.000000      4.884949000000000E-01     -8.470312000000000E+01      1.204453000000000E-01     -1.788125000000000E+02
4940000000.000000      4.961090000000000E-01     -8.374609000000000E+01      1.320038000000000E-01      1.503672000000000E+02
4960000000.000000      5.138855000000000E-01     -8.361328000000000E+01      1.408615000000000E-01      1.175352000000000E+02
4980000000.000000      5.333557000000000E-01     -8.502733000000000E+01      1.505737000000000E-01      8.669922000000000E+01
5000000000.000000      5.449219000000000E-01     -8.741796000000000E+01      1.618500000000000E-01      5.623632000000000E+01
5020000000.000000      5.468445000000000E-01     -9.003906000000000E+01      1.686783000000000E-01      2.635937000000000E+01
5040000000.000000      5.396118000000000E-01     -9.205469000000000E+01      1.702652000000000E-01     -3.048706000000000E-01
5060000000.000000      5.314331000000000E-01     -9.335938000000000E+01      1.763382000000000E-01     -2.501269000000000E+01
5080000000.000000      5.247192000000000E-01     -9.436718000000000E+01      1.828537000000000E-01     -5.154687000000000E+01
5100000000.000000      5.222473000000000E-01     -9.498438000000000E+01      1.815796000000000E-01     -7.813671000000000E+01
5120000000.000000      5.227966000000000E-01     -9.583202000000000E+01      1.800766000000000E-01     -1.043828000000000E+02
5140000000.000000      5.248108000000000E-01     -9.681250000000000E+01      1.753387000000000E-01     -1.326562000000000E+02
5160000000.000000      5.266418000000000E-01     -9.765625000000000E+01      1.686859000000000E-01     -1.610703000000000E+02
5180000000.000000      5.321960000000000E-01     -9.855469000000000E+01      1.639481000000000E-01      1.687187000000000E+02
5200000000.000000      5.386047000000000E-01     -9.967577000000000E+01      1.591873000000000E-01      1.377969000000000E+02
5220000000.000000      5.424805000000000E-01     -1.011719000000000E+02      1.583710000000000E-01      1.065664000000000E+02
5240000000.000000      5.448914000000000E-01     -1.026289000000000E+02      1.606445000000000E-01      7.444921000000000E+01
5260000000.000000      5.451355000000000E-01     -1.042695000000000E+02      1.652451000000000E-01      4.289844000000000E+01
5280000000.000000      5.413818000000000E-01     -1.057383000000000E+02      1.702499000000000E-01      1.276172000000000E+01
5300000000.000000      5.391846000000000E-01     -1.068476000000000E+02      1.750870000000000E-01     -1.432617000000000E+01
5320000000.000000      5.379333000000000E-01     -1.080039000000000E+02      1.846542000000000E-01     -4.077734000000000E+01
5340000000.000000      5.379944000000000E-01     -1.091055000000000E+02      1.903000000000000E-01     -6.789844000000000E+01
5360000000.000000      5.378113000000000E-01     -1.103398000000000E+02      1.912308000000000E-01     -9.372656000000000E+01
5380000000.000000      5.395813000000000E-01     -1.115351000000000E+02      1.895752000000000E-01     -1.200117000000000E+02
5400000000.000000      5.391846000000000E-01     -1.127734000000000E+02      1.830139000000000E-01     -1.458594000000000E+02
5420000000.000000      5.409241000000000E-01     -1.134414000000000E+02      1.780472000000000E-01     -1.721328000000000E+02
5440000000.000000      5.458679000000000E-01     -1.141367000000000E+02      1.706238000000000E-01      1.590234000000000E+02
5460000000.000000      5.513000000000000E-01     -1.152930000000000E+02      1.600494000000000E-01      1.294219000000000E+02
5480000000.000000      5.582581000000000E-01     -1.168086000000000E+02      1.551895000000000E-01      9.824999000000000E+01
5500000000.000000      5.614929000000000E-01     -1.189570000000000E+02      1.516037000000000E-01      6.555859000000000E+01
5520000000.000000      5.581665000000000E-01     -1.209570000000000E+02      1.518707000000000E-01      3.248437000000000E+01
5540000000.000000      5.540466000000000E-01     -1.228555000000000E+02      1.533661000000000E-01      2.375793000000000E-01
5560000000.000000      5.478210000000000E-01     -1.246641000000000E+02      1.587067000000000E-01     -2.822949000000000E+01
5580000000.000000      5.408020000000000E-01     -1.260938000000000E+02      1.705093000000000E-01     -5.661133000000000E+01
5600000000.000000      5.364685000000000E-01     -1.272500000000000E+02      1.773605000000000E-01     -8.408594000000000E+01
5620000000.000000      5.315857000000000E-01     -1.282266000000000E+02      1.832809000000000E-01     -1.094727000000000E+02
5640000000.000000      5.288086000000000E-01     -1.289531000000000E+02      1.859283000000000E-01     -1.353750000000000E+02
5660000000.000000      5.252075000000000E-01     -1.295156000000000E+02      1.834030000000000E-01     -1.601484000000000E+02
5680000000.000000      5.277710000000000E-01     -1.297500000000000E+02      1.792145000000000E-01      1.743594000000000E+02
5700000000.000000      5.341187000000000E-01     -1.304297000000000E+02      1.713257000000000E-01      1.486250000000000E+02
5720000000.000000      5.433960000000000E-01     -1.316562000000000E+02      1.620178000000000E-01      1.216289000000000E+02
5740000000.000000      5.503845000000000E-01     -1.337422000000000E+02      1.513824000000000E-01      9.154688000000000E+01
5760000000.000000      5.513916000000000E-01     -1.363984000000000E+02      1.396561000000000E-01      5.857422000000000E+01
5780000000.000000      5.435791000000000E-01     -1.387734000000000E+02      1.290817000000000E-01      2.448535000000000E+01
5800000000.000000      5.314941000000000E-01     -1.404531000000000E+02      1.247215000000000E-01     -8.382813000000000E+00
5820000000.000000      5.228577000000000E-01     -1.411719000000000E+02      1.325150000000000E-01     -4.081250000000000E+01
5840000000.000000      5.207825000000000E-01     -1.420156000000000E+02      1.442719000000000E-01     -7.348437000000000E+01
5860000000.000000      5.230713000000000E-01     -1.425313000000000E+02      1.552887000000000E-01     -1.031484000000000E+02
5880000000.000000      5.281982000000000E-01     -1.440625000000000E+02      1.650543000000000E-01     -1.311797000000000E+02
5900000000.000000      5.319824000000000E-01     -1.456016000000000E+02      1.728516000000000E-01     -1.573672000000000E+02
5920000000.000000      5.301208000000000E-01     -1.473125000000000E+02      1.775284000000000E-01      1.772031000000000E+02
5940000000.000000      5.280151000000000E-01     -1.487109000000000E+02      1.745071000000000E-01      1.516719000000000E+02
5960000000.000000      5.248108000000000E-01     -1.502187000000000E+02      1.670609000000000E-01      1.281563000000000E+02
5980000000.000000      5.201416000000000E-01     -1.516797000000000E+02      1.603622000000000E-01      1.031641000000000E+02
6000000000.000000      5.115662000000000E-01     -1.535078000000000E+02      1.483688000000000E-01      7.624609000000000E+01
6020000000.000000      5.017395000000000E-01     -1.549375000000000E+02      1.328430000000000E-01      4.780273000000000E+01
6040000000.000000      4.863281000000000E-01     -1.564609000000000E+02      1.151237000000000E-01      1.790332000000000E+01
6060000000.000000      4.761810000000000E-01     -1.568828000000000E+02      1.043282000000000E-01     -1.199463000000000E+01
6080000000.000000      4.710083000000000E-01     -1.567266000000000E+02      1.057968000000000E-01     -4.562890000000000E+01
