! Network Analyzer HP8722D
! Hewlett-Packard
! Data name: Linha com CNT
! Saver's name: Rodrigo Anjos
! Comments: Teste de deteccao de acetona 0-100ppm a partir de cilindro
! Time and date: 10/9/2025 17:11
!              Frequency                     S11                                                   S21                                                   S12                                                   S22
# HZ  S  MA R 50
3000000000.000000      4.777832000000000E-01      1.467334000000000E+01      2.319489000000000E-01      3.563086000000000E+01
3020000000.000000      4.842072000000000E-01      1.427246000000000E+01      2.362366000000000E-01      6.196289000000000E+00
3040000000.000000      4.912872000000000E-01      1.337842000000000E+01      2.365570000000000E-01     -2.308789000000000E+01
3060000000.000000      4.944000000000000E-01      1.164795000000000E+01      2.367096000000000E-01     -5.234765000000000E+01
3080000000.000000      4.956970000000000E-01      9.910645000000000E+00      2.328110000000000E-01     -8.148046000000000E+01
3100000000.000000      4.911499000000000E-01      8.536133000000000E+00      2.308807000000000E-01     -1.091758000000000E+02
3120000000.000000      4.888306000000000E-01      7.634033000000000E+00      2.307434000000000E-01     -1.379141000000000E+02
3140000000.000000      4.901886000000000E-01      6.727539000000000E+00      2.275543000000000E-01     -1.663516000000000E+02
3160000000.000000      4.912567000000000E-01      5.703125000000000E+00      2.234573000000000E-01      1.651172000000000E+02
3180000000.000000      4.880066000000000E-01      4.346436000000000E+00      2.179871000000000E-01      1.370781000000000E+02
3200000000.000000      4.783783000000000E-01      3.656982000000000E+00      2.142334000000000E-01      1.086523000000000E+02
3220000000.000000      4.676056000000000E-01      3.441406000000000E+00      2.048492000000000E-01      8.010937000000000E+01
3240000000.000000      4.619293000000000E-01      3.883667000000000E+00      1.981125000000000E-01      5.497851000000000E+01
3260000000.000000      4.609528000000000E-01      4.857178000000000E+00      2.072830000000000E-01      2.913965000000000E+01
3280000000.000000      4.709015000000000E-01      5.458740000000000E+00      2.154083000000000E-01     -4.490662000000000E-01
3300000000.000000      4.867249000000000E-01      5.118164000000000E+00      2.186203000000000E-01     -2.901855000000000E+01
3320000000.000000      5.033569000000000E-01      3.879517000000000E+00      2.261353000000000E-01     -5.787499000000000E+01
3340000000.000000      5.152283000000000E-01      2.011841000000000E+00      2.308655000000000E-01     -8.780077000000000E+01
3360000000.000000      5.199280000000000E-01     -1.208496000000000E-01      2.332687000000000E-01     -1.176328000000000E+02
3380000000.000000      5.200195000000000E-01     -1.724854000000000E+00      2.324829000000000E-01     -1.470781000000000E+02
3400000000.000000      5.171204000000000E-01     -3.322021000000000E+00      2.322464000000000E-01     -1.757813000000000E+02
3420000000.000000      5.135193000000000E-01     -4.297119000000000E+00      2.300186000000000E-01      1.550625000000000E+02
3440000000.000000      5.081482000000000E-01     -5.513916000000000E+00      2.263947000000000E-01      1.269531000000000E+02
3460000000.000000      5.044556000000000E-01     -6.616699000000000E+00      2.268753000000000E-01      9.873827000000000E+01
3480000000.000000      5.032043000000000E-01     -7.604004000000000E+00      2.234344000000000E-01      6.969921000000000E+01
3500000000.000000      5.022583000000000E-01     -8.400879000000000E+00      2.217178000000000E-01      4.163476000000000E+01
3520000000.000000      5.008545000000000E-01     -9.357910000000000E+00      2.216263000000000E-01      1.272217000000000E+01
3540000000.000000      5.014954000000000E-01     -1.031934000000000E+01      2.174301000000000E-01     -1.588379000000000E+01
3560000000.000000      5.000610000000000E-01     -1.111963000000000E+01      2.191010000000000E-01     -4.390429000000000E+01
3580000000.000000      4.989471000000000E-01     -1.170215000000000E+01      2.184448000000000E-01     -7.257421000000000E+01
3600000000.000000      4.953461000000000E-01     -1.231055000000000E+01      2.183914000000000E-01     -9.996094000000000E+01
3620000000.000000      4.976044000000000E-01     -1.281836000000000E+01      2.226257000000000E-01     -1.284297000000000E+02
3640000000.000000      4.995880000000000E-01     -1.381006000000000E+01      2.239685000000000E-01     -1.568359000000000E+02
3660000000.000000      5.025024000000000E-01     -1.520801000000000E+01      2.252960000000000E-01      1.746719000000000E+02
3680000000.000000      5.041199000000000E-01     -1.650293000000000E+01      2.239838000000000E-01      1.462265000000000E+02
3700000000.000000      5.000305000000000E-01     -1.768945000000000E+01      2.216034000000000E-01      1.189766000000000E+02
3720000000.000000      4.936066000000000E-01     -1.876758000000000E+01      2.234573000000000E-01      9.055859000000000E+01
3740000000.000000      4.937592000000000E-01     -1.892676000000000E+01      2.187271000000000E-01      6.234179000000000E+01
3760000000.000000      4.948883000000000E-01     -1.904687000000000E+01      2.182999000000000E-01      3.523828000000000E+01
3780000000.000000      4.989624000000000E-01     -1.973730000000000E+01      2.208099000000000E-01      6.701660000000000E+00
3800000000.000000      5.057068000000000E-01     -2.091699000000000E+01      2.192917000000000E-01     -2.245215000000000E+01
3820000000.000000      5.043030000000000E-01     -2.293750000000000E+01      2.176666000000000E-01     -5.110156000000000E+01
3840000000.000000      5.000305000000000E-01     -2.429101000000000E+01      2.168579000000000E-01     -7.969140000000000E+01
3860000000.000000      4.959106000000000E-01     -2.518261000000000E+01      2.174377000000000E-01     -1.086406000000000E+02
3880000000.000000      4.945374000000000E-01     -2.563281000000000E+01      2.145386000000000E-01     -1.375625000000000E+02
3900000000.000000      4.986267000000000E-01     -2.618652000000000E+01      2.140045000000000E-01     -1.651250000000000E+02
3920000000.000000      5.037231000000000E-01     -2.737402000000000E+01      2.167130000000000E-01      1.664219000000000E+02
3940000000.000000      5.047607000000000E-01     -2.882813000000000E+01      2.161407000000000E-01      1.378750000000000E+02
3960000000.000000      4.979095000000000E-01     -3.024023000000000E+01      2.163467000000000E-01      1.095898000000000E+02
3980000000.000000      4.901886000000000E-01     -3.108105000000000E+01      2.106171000000000E-01      8.090624000000000E+01
4000000000.000000      4.847412000000000E-01     -3.128808000000000E+01      2.075195000000000E-01      5.562500000000000E+01
4020000000.000000      4.864349000000000E-01     -3.113281000000000E+01      2.157669000000000E-01      2.781250000000000E+01
4040000000.000000      4.997253000000000E-01     -3.169238000000000E+01      2.160797000000000E-01     -2.668335000000000E+00
4060000000.000000      5.127563000000000E-01     -3.322851000000000E+01      2.124405000000000E-01     -3.158886000000000E+01
4080000000.000000      5.192566000000000E-01     -3.583203000000000E+01      2.124786000000000E-01     -6.042578000000000E+01
4100000000.000000      5.149231000000000E-01     -3.829297000000000E+01      2.123184000000000E-01     -8.999218000000000E+01
4120000000.000000      5.040894000000000E-01     -4.024219000000000E+01      2.096634000000000E-01     -1.201015000000000E+02
4140000000.000000      4.936218000000000E-01     -4.129492000000000E+01      2.021027000000000E-01     -1.485547000000000E+02
4160000000.000000      4.879608000000000E-01     -4.169531000000000E+01      2.036285000000000E-01     -1.749141000000000E+02
4180000000.000000      4.868927000000000E-01     -4.218163000000000E+01      2.087021000000000E-01      1.558437000000000E+02
4200000000.000000      4.872742000000000E-01     -4.326562000000000E+01      2.062607000000000E-01      1.273047000000000E+02
4220000000.000000      4.864502000000000E-01     -4.433203000000000E+01      2.075500000000000E-01      9.918358000000000E+01
4240000000.000000      4.827423000000000E-01     -4.516797000000000E+01      2.038879000000000E-01      7.008594000000000E+01
4260000000.000000      4.782104000000000E-01     -4.571289000000000E+01      1.983109000000000E-01      4.317578000000000E+01
4280000000.000000      4.766235000000000E-01     -4.585546000000000E+01      2.001724000000000E-01      1.575439000000000E+01
4300000000.000000      4.799347000000000E-01     -4.608594000000000E+01      1.999741000000000E-01     -1.273877000000000E+01
4320000000.000000      4.865570000000000E-01     -4.703125000000000E+01      2.001724000000000E-01     -4.169141000000000E+01
4340000000.000000      4.904022000000000E-01     -4.887890000000000E+01      2.003250000000000E-01     -7.113671000000000E+01
4360000000.000000      4.909210000000000E-01     -5.033984000000000E+01      2.003555000000000E-01     -1.011719000000000E+02
4380000000.000000      4.871063000000000E-01     -5.154687000000000E+01      1.980057000000000E-01     -1.313750000000000E+02
4400000000.000000      4.861755000000000E-01     -5.233593000000000E+01      1.967010000000000E-01     -1.598906000000000E+02
4420000000.000000      4.870758000000000E-01     -5.295898000000000E+01      2.010651000000000E-01      1.711328000000000E+02
4440000000.000000      4.931946000000000E-01     -5.402148000000000E+01      2.021179000000000E-01      1.413594000000000E+02
4460000000.000000      4.941254000000000E-01     -5.546484000000000E+01      2.012787000000000E-01      1.120039000000000E+02
4480000000.000000      4.893188000000000E-01     -5.736914000000000E+01      1.995621000000000E-01      8.325781000000000E+01
4500000000.000000      4.831848000000000E-01     -5.857812000000000E+01      1.965027000000000E-01      5.525391000000000E+01
4520000000.000000      4.775085000000000E-01     -5.904882000000000E+01      1.938248000000000E-01      2.698339000000000E+01
4540000000.000000      4.763336000000000E-01     -5.959570000000000E+01      1.885834000000000E-01     -1.126099000000000E+00
4560000000.000000      4.804230000000000E-01     -5.998828000000000E+01      1.885529000000000E-01     -2.854589000000000E+01
4580000000.000000      4.885101000000000E-01     -6.078515000000000E+01      1.893387000000000E-01     -5.865429000000000E+01
4600000000.000000      4.950256000000000E-01     -6.225586000000000E+01      1.872253000000000E-01     -8.896875000000000E+01
4620000000.000000      4.987488000000000E-01     -6.358203000000000E+01      1.869736000000000E-01     -1.199648000000000E+02
4640000000.000000      4.991302000000000E-01     -6.480078000000000E+01      1.837082000000000E-01     -1.512344000000000E+02
4660000000.000000      5.006104000000000E-01     -6.589062000000000E+01      1.843109000000000E-01      1.797188000000000E+02
4680000000.000000      5.050659000000000E-01     -6.689062000000000E+01      1.899185000000000E-01      1.494219000000000E+02
4700000000.000000      5.089722000000000E-01     -6.856250000000000E+01      1.921616000000000E-01      1.196953000000000E+02
4720000000.000000      5.134277000000000E-01     -7.028515000000000E+01      1.942902000000000E-01      9.119141000000000E+01
4740000000.000000      5.158997000000000E-01     -7.243359000000000E+01      1.978912000000000E-01      6.242382000000000E+01
4760000000.000000      5.130310000000000E-01     -7.436328000000000E+01      1.969986000000000E-01      3.440625000000000E+01
4780000000.000000      5.140686000000000E-01     -7.633984000000000E+01      1.940384000000000E-01      6.179688000000000E+00
4800000000.000000      5.113220000000000E-01     -7.858984000000000E+01      1.873245000000000E-01     -2.156543000000000E+01
4820000000.000000      5.002747000000000E-01     -8.092577000000000E+01      1.777115000000000E-01     -4.948242000000000E+01
4840000000.000000      4.830322000000000E-01     -8.278515000000000E+01      1.671524000000000E-01     -7.654297000000000E+01
4860000000.000000      4.657440000000000E-01     -8.375780000000000E+01      1.591492000000000E-01     -1.053750000000000E+02
4880000000.000000      4.475861000000000E-01     -8.345312000000000E+01      1.453171000000000E-01     -1.350703000000000E+02
4900000000.000000      4.379120000000000E-01     -8.231640000000000E+01      1.328201000000000E-01     -1.604297000000000E+02
4920000000.000000      4.383545000000000E-01     -8.076563000000000E+01      1.371384000000000E-01      1.746094000000000E+02
4940000000.000000      4.509583000000000E-01     -7.941406000000000E+01      1.495667000000000E-01      1.446328000000000E+02
4960000000.000000      4.744568000000000E-01     -7.958984000000000E+01      1.580124000000000E-01      1.127305000000000E+02
4980000000.000000      4.948730000000000E-01     -8.157421000000000E+01      1.674881000000000E-01      8.282421000000000E+01
5000000000.000000      5.058289000000000E-01     -8.444530000000000E+01      1.778641000000000E-01      5.278320000000000E+01
5020000000.000000      5.047913000000000E-01     -8.741405000000000E+01      1.844635000000000E-01      2.327929000000000E+01
5040000000.000000      4.950409000000000E-01     -8.952343000000000E+01      1.856689000000000E-01     -3.339844000000000E+00
5060000000.000000      4.855804000000000E-01     -9.076563000000000E+01      1.910172000000000E-01     -2.879395000000000E+01
5080000000.000000      4.785461000000000E-01     -9.152344000000000E+01      1.962967000000000E-01     -5.588867000000000E+01
5100000000.000000      4.785004000000000E-01     -9.203905000000000E+01      1.945343000000000E-01     -8.306250000000000E+01
5120000000.000000      4.785461000000000E-01     -9.287109000000000E+01      1.936646000000000E-01     -1.097852000000000E+02
5140000000.000000      4.822540000000000E-01     -9.380468000000000E+01      1.892166000000000E-01     -1.380781000000000E+02
5160000000.000000      4.848633000000000E-01     -9.482813000000000E+01      1.838837000000000E-01     -1.668359000000000E+02
5180000000.000000      4.900513000000000E-01     -9.566406000000000E+01      1.792831000000000E-01      1.630469000000000E+02
5200000000.000000      4.962616000000000E-01     -9.689453000000000E+01      1.756058000000000E-01      1.322656000000000E+02
5220000000.000000      5.002136000000000E-01     -9.843359000000000E+01      1.756363000000000E-01      1.016133000000000E+02
5240000000.000000      5.021973000000000E-01     -9.996094000000000E+01      1.787872000000000E-01      7.033984000000000E+01
5260000000.000000      5.009155000000000E-01     -1.015117000000000E+02      1.832657000000000E-01      3.969727000000000E+01
5280000000.000000      4.983063000000000E-01     -1.029102000000000E+02      1.877747000000000E-01      9.763672000000000E+00
5300000000.000000      4.953918000000000E-01     -1.040625000000000E+02      1.917114000000000E-01     -1.760449000000000E+01
5320000000.000000      4.944305000000000E-01     -1.051055000000000E+02      1.995773000000000E-01     -4.408008000000000E+01
5340000000.000000      4.944458000000000E-01     -1.062891000000000E+02      2.037582000000000E-01     -7.156250000000000E+01
5360000000.000000      4.954681000000000E-01     -1.077617000000000E+02      2.036285000000000E-01     -9.763672000000000E+01
5380000000.000000      4.965973000000000E-01     -1.087539000000000E+02      2.024155000000000E-01     -1.243242000000000E+02
5400000000.000000      4.965973000000000E-01     -1.099961000000000E+02      1.959610000000000E-01     -1.509219000000000E+02
5420000000.000000      4.990997000000000E-01     -1.106602000000000E+02      1.906738000000000E-01     -1.776953000000000E+02
5440000000.000000      5.041504000000000E-01     -1.113125000000000E+02      1.846771000000000E-01      1.532109000000000E+02
5460000000.000000      5.102844000000000E-01     -1.124531000000000E+02      1.749115000000000E-01      1.239141000000000E+02
5480000000.000000      5.163574000000000E-01     -1.140937000000000E+02      1.706085000000000E-01      9.298046000000000E+01
5500000000.000000      5.192261000000000E-01     -1.163477000000000E+02      1.693878000000000E-01      6.104492000000000E+01
5520000000.000000      5.146484000000000E-01     -1.184570000000000E+02      1.693878000000000E-01      2.885644000000000E+01
5540000000.000000      5.102539000000000E-01     -1.203945000000000E+02      1.714096000000000E-01     -2.389526000000000E+00
5560000000.000000      5.036926000000000E-01     -1.221484000000000E+02      1.757278000000000E-01     -3.115332000000000E+01
5580000000.000000      4.962311000000000E-01     -1.235742000000000E+02      1.853180000000000E-01     -5.941992000000000E+01
5600000000.000000      4.920502000000000E-01     -1.245508000000000E+02      1.907578000000000E-01     -8.685156000000000E+01
5620000000.000000      4.877014000000000E-01     -1.254922000000000E+02      1.953583000000000E-01     -1.130117000000000E+02
5640000000.000000      4.827423000000000E-01     -1.259844000000000E+02      1.965714000000000E-01     -1.392656000000000E+02
5660000000.000000      4.824066000000000E-01     -1.261523000000000E+02      1.940765000000000E-01     -1.647109000000000E+02
5680000000.000000      4.856720000000000E-01     -1.264726000000000E+02      1.895905000000000E-01      1.692422000000000E+02
5700000000.000000      4.942169000000000E-01     -1.270039000000000E+02      1.819763000000000E-01      1.425078000000000E+02
5720000000.000000      5.045166000000000E-01     -1.285156000000000E+02      1.737061000000000E-01      1.151953000000000E+02
5740000000.000000      5.122681000000000E-01     -1.308047000000000E+02      1.659317000000000E-01      8.514843000000000E+01
5760000000.000000      5.126648000000000E-01     -1.335781000000000E+02      1.566544000000000E-01      5.247070000000000E+01
5780000000.000000      5.049133000000000E-01     -1.360547000000000E+02      1.483612000000000E-01      1.958496000000000E+01
5800000000.000000      4.930267000000000E-01     -1.375156000000000E+02      1.454849000000000E-01     -1.238184000000000E+01
5820000000.000000      4.855652000000000E-01     -1.382891000000000E+02      1.520233000000000E-01     -4.363671000000000E+01
5840000000.000000      4.842529000000000E-01     -1.390625000000000E+02      1.620102000000000E-01     -7.543750000000000E+01
5860000000.000000      4.893188000000000E-01     -1.399688000000000E+02      1.701584000000000E-01     -1.047031000000000E+02
5880000000.000000      4.935150000000000E-01     -1.415937000000000E+02      1.777344000000000E-01     -1.328672000000000E+02
5900000000.000000      4.961243000000000E-01     -1.433828000000000E+02      1.833267000000000E-01     -1.594219000000000E+02
5920000000.000000      4.935303000000000E-01     -1.451719000000000E+02      1.867218000000000E-01      1.743984000000000E+02
5940000000.000000      4.902344000000000E-01     -1.465703000000000E+02      1.823349000000000E-01      1.479844000000000E+02
5960000000.000000      4.867249000000000E-01     -1.480000000000000E+02      1.742325000000000E-01      1.232305000000000E+02
5980000000.000000      4.807129000000000E-01     -1.494531000000000E+02      1.682663000000000E-01      9.721483000000000E+01
6000000000.000000      4.745331000000000E-01     -1.512031000000000E+02      1.573105000000000E-01      6.888281000000000E+01
6020000000.000000      4.619751000000000E-01     -1.529609000000000E+02      1.433182000000000E-01      3.915820000000000E+01
6040000000.000000      4.477539000000000E-01     -1.540234000000000E+02      1.279831000000000E-01      8.477051000000000E+00
6060000000.000000      4.380493000000000E-01     -1.545000000000000E+02      1.210480000000000E-01     -2.143457000000000E+01
6080000000.000000      4.332886000000000E-01     -1.543281000000000E+02      1.247444000000000E-01     -5.356835000000000E+01
