! Network Analyzer HP8722D
! Hewlett-Packard
! Data name: Linha com CNT
! Saver's name: Rodrigo Anjos
! Comments: Teste de deteccao de acetona 0-100ppm a partir de cilindro
! Time and date: 10/9/2025 18:10
!              Frequency                     S11                                                   S21                                                   S12                                                   S22
# HZ  S  MA R 50
3000000000.000000      9.014893000000000E-02      7.236328000000000E+01      4.403229000000000E-01      2.490234000000000E+01
3020000000.000000      1.089783000000000E-01      6.247070000000000E+01      4.423218000000000E-01     -3.933105000000000E+00
3040000000.000000      1.141815000000000E-01      4.976757000000000E+01      4.409332000000000E-01     -3.280078000000000E+01
3060000000.000000      1.047630000000000E-01      3.799023000000000E+01      4.378815000000000E-01     -6.126758000000000E+01
3080000000.000000      8.673096000000000E-02      2.971484000000000E+01      4.385071000000000E-01     -8.983202000000000E+01
3100000000.000000      7.035828000000000E-02      2.935644000000000E+01      4.360809000000000E-01     -1.183359000000000E+02
3120000000.000000      6.372070000000000E-02      3.533398000000000E+01      4.350739000000000E-01     -1.470703000000000E+02
3140000000.000000      6.255341000000000E-02      3.717382000000000E+01      4.304199000000000E-01     -1.755781000000000E+02
3160000000.000000      5.414581000000000E-02      3.475390000000000E+01      4.281616000000000E-01      1.562266000000000E+02
3180000000.000000      3.489876000000000E-02      4.473633000000000E+01      4.258575000000000E-01      1.274180000000000E+02
3200000000.000000      3.661728000000000E-02      1.051601000000000E+02      4.201965000000000E-01      9.797264000000000E+01
3220000000.000000      8.248901000000000E-02      1.190078000000000E+02      4.080505000000000E-01      6.885547000000000E+01
3240000000.000000      1.355743000000000E-01      1.095039000000000E+02      3.970337000000000E-01      4.140429000000000E+01
3260000000.000000      1.822433000000000E-01      9.566797000000000E+01      4.018097000000000E-01      1.429150000000000E+01
3280000000.000000      2.149124000000000E-01      8.037109000000000E+01      4.056702000000000E-01     -1.513232000000000E+01
3300000000.000000      2.317047000000000E-01      6.512890000000000E+01      4.013519000000000E-01     -4.368750000000000E+01
3320000000.000000      2.325592000000000E-01      5.109375000000000E+01      4.053650000000000E-01     -7.139843000000000E+01
3340000000.000000      2.217636000000000E-01      3.929492000000000E+01      4.104462000000000E-01     -1.001875000000000E+02
3360000000.000000      2.020645000000000E-01      3.069921000000000E+01      4.105988000000000E-01     -1.287578000000000E+02
3380000000.000000      1.807480000000000E-01      2.579980000000000E+01      4.168243000000000E-01     -1.570937000000000E+02
3400000000.000000      1.628723000000000E-01      2.349609000000000E+01      4.188080000000000E-01      1.741562000000000E+02
3420000000.000000      1.489716000000000E-01      2.277832000000000E+01      4.192810000000000E-01      1.455391000000000E+02
3440000000.000000      1.374512000000000E-01      2.225684000000000E+01      4.181671000000000E-01      1.166172000000000E+02
3460000000.000000      1.264267000000000E-01      2.326465000000000E+01      4.151764000000000E-01      8.835155000000000E+01
3480000000.000000      1.194839000000000E-01      2.469531000000000E+01      4.155884000000000E-01      5.965820000000000E+01
3500000000.000000      1.157722000000000E-01      2.673925000000000E+01      4.122314000000000E-01      3.049902000000000E+01
3520000000.000000      1.133957000000000E-01      2.851074000000000E+01      4.088287000000000E-01      2.399048000000000E+00
3540000000.000000      1.127396000000000E-01      3.098633000000000E+01      4.121246000000000E-01     -2.612597000000000E+01
3560000000.000000      1.127968000000000E-01      3.517383000000000E+01      4.122009000000000E-01     -5.513085000000000E+01
3580000000.000000      1.181679000000000E-01      3.990625000000000E+01      4.121704000000000E-01     -8.396875000000000E+01
3600000000.000000      1.311264000000000E-01      4.195898000000000E+01      4.107666000000000E-01     -1.122305000000000E+02
3620000000.000000      1.441650000000000E-01      4.001758000000000E+01      4.120026000000000E-01     -1.402812000000000E+02
3640000000.000000      1.507492000000000E-01      3.481836000000000E+01      4.122009000000000E-01     -1.684844000000000E+02
3660000000.000000      1.473389000000000E-01      2.863379000000000E+01      4.121704000000000E-01      1.634297000000000E+02
3680000000.000000      1.358185000000000E-01      2.529785000000000E+01      4.140167000000000E-01      1.357812000000000E+02
3700000000.000000      1.227684000000000E-01      2.720898000000000E+01      4.155579000000000E-01      1.072266000000000E+02
3720000000.000000      1.217003000000000E-01      3.413086000000000E+01      4.142151000000000E-01      7.875390000000000E+01
3740000000.000000      1.369476000000000E-01      3.817187000000000E+01      4.077911000000000E-01      5.019726000000000E+01
3760000000.000000      1.552887000000000E-01      3.600781000000000E+01      4.028473000000000E-01      2.225781000000000E+01
3780000000.000000      1.641998000000000E-01      2.969922000000000E+01      4.019012000000000E-01     -5.318848000000000E+00
3800000000.000000      1.585922000000000E-01      2.312304000000000E+01      4.033203000000000E-01     -3.400586000000000E+01
3820000000.000000      1.411743000000000E-01      1.937988000000000E+01      4.033203000000000E-01     -6.272265000000000E+01
3840000000.000000      1.262360000000000E-01      2.303906000000000E+01      4.026031000000000E-01     -9.189062000000000E+01
3860000000.000000      1.280518000000000E-01      3.006348000000000E+01      4.021759000000000E-01     -1.207656000000000E+02
3880000000.000000      1.449280000000000E-01      3.208789000000000E+01      3.989563000000000E-01     -1.498594000000000E+02
3900000000.000000      1.597977000000000E-01      2.743652000000000E+01      3.917847000000000E-01     -1.781563000000000E+02
3920000000.000000      1.596985000000000E-01      2.076465000000000E+01      3.940125000000000E-01      1.546250000000000E+02
3940000000.000000      1.445084000000000E-01      1.664746000000000E+01      4.007874000000000E-01      1.260508000000000E+02
3960000000.000000      1.252594000000000E-01      2.045020000000000E+01      3.996582000000000E-01      9.683203000000000E+01
3980000000.000000      1.260071000000000E-01      3.203906000000000E+01      3.923645000000000E-01      6.834765000000000E+01
4000000000.000000      1.521759000000000E-01      3.714453000000000E+01      3.866882000000000E-01      4.116601000000000E+01
4020000000.000000      1.851578000000000E-01      3.212500000000000E+01      3.930054000000000E-01      1.357471000000000E+01
4040000000.000000      2.063065000000000E-01      2.133789000000000E+01      3.929443000000000E-01     -1.662012000000000E+01
4060000000.000000      2.052612000000000E-01      8.739258000000000E+00      3.797150000000000E-01     -4.512109000000000E+01
4080000000.000000      1.811066000000000E-01     -3.400269000000000E+00      3.792114000000000E-01     -7.221484000000000E+01
4100000000.000000      1.391373000000000E-01     -1.061035000000000E+01      3.888397000000000E-01     -1.010586000000000E+02
4120000000.000000      9.960938000000000E-02     -4.974121000000000E+00      3.870392000000000E-01     -1.310859000000000E+02
4140000000.000000      8.974457000000000E-02      1.546289000000000E+01      3.814087000000000E-01     -1.598984000000000E+02
4160000000.000000      1.063461000000000E-01      2.644043000000000E+01      3.814087000000000E-01      1.721250000000000E+02
4180000000.000000      1.229630000000000E-01      2.604785000000000E+01      3.901978000000000E-01      1.435469000000000E+02
4200000000.000000      1.260376000000000E-01      2.333496000000000E+01      3.892059000000000E-01      1.138008000000000E+02
4220000000.000000      1.236153000000000E-01      2.491894000000000E+01      3.820343000000000E-01      8.467188000000000E+01
4240000000.000000      1.291885000000000E-01      3.077343000000000E+01      3.771210000000000E-01      5.633203000000000E+01
4260000000.000000      1.508942000000000E-01      3.415430000000000E+01      3.730927000000000E-01      2.823437000000000E+01
4280000000.000000      1.761627000000000E-01      3.124707000000000E+01      3.727112000000000E-01      1.991272000000000E-01
4300000000.000000      1.935349000000000E-01      2.453906000000000E+01      3.708344000000000E-01     -2.879883000000000E+01
4320000000.000000      1.961441000000000E-01      1.718262000000000E+01      3.679962000000000E-01     -5.765625000000000E+01
4340000000.000000      1.854630000000000E-01      1.153955000000000E+01      3.668518000000000E-01     -8.655859000000000E+01
4360000000.000000      1.732864000000000E-01      1.036279000000000E+01      3.652649000000000E-01     -1.159336000000000E+02
4380000000.000000      1.707840000000000E-01      1.231006000000000E+01      3.625183000000000E-01     -1.453672000000000E+02
4400000000.000000      1.805344000000000E-01      1.233203000000000E+01      3.589478000000000E-01     -1.743359000000000E+02
4420000000.000000      1.908264000000000E-01      8.875488000000000E+00      3.605957000000000E-01      1.566328000000000E+02
4440000000.000000      1.902313000000000E-01      3.360352000000000E+00      3.639221000000000E-01      1.269883000000000E+02
4460000000.000000      1.760864000000000E-01      7.003784000000000E-02      3.566437000000000E-01      9.749609000000000E+01
4480000000.000000      1.575699000000000E-01      2.191772000000000E+00      3.533936000000000E-01      6.902734000000000E+01
4500000000.000000      1.558380000000000E-01      9.778809000000000E+00      3.538055000000000E-01      4.013281000000000E+01
4520000000.000000      1.767731000000000E-01      1.471191000000000E+01      3.490601000000000E-01      1.081055000000000E+01
4540000000.000000      2.049789000000000E-01      1.250928000000000E+01      3.412323000000000E-01     -1.862109000000000E+01
4560000000.000000      2.264175000000000E-01      5.767822000000000E+00      3.357239000000000E-01     -4.659765000000000E+01
4580000000.000000      2.347260000000000E-01     -2.208252000000000E+00      3.384552000000000E-01     -7.583202000000000E+01
4600000000.000000      2.302094000000000E-01     -8.945801000000000E+00      3.337250000000000E-01     -1.063164000000000E+02
4620000000.000000      2.215118000000000E-01     -1.331689000000000E+01      3.298798000000000E-01     -1.357422000000000E+02
4640000000.000000      2.170792000000000E-01     -1.584521000000000E+01      3.296967000000000E-01     -1.654609000000000E+02
4660000000.000000      2.170105000000000E-01     -1.873047000000000E+01      3.279266000000000E-01      1.656641000000000E+02
4680000000.000000      2.177429000000000E-01     -2.328711000000000E+01      3.318329000000000E-01      1.365781000000000E+02
4700000000.000000      2.124252000000000E-01     -2.943457000000000E+01      3.313293000000000E-01      1.069336000000000E+02
4720000000.000000      1.987762000000000E-01     -3.574219000000000E+01      3.290100000000000E-01      7.898438000000000E+01
4740000000.000000      1.812439000000000E-01     -4.148046000000000E+01      3.341064000000000E-01      5.103710000000000E+01
4760000000.000000      1.596146000000000E-01     -4.645898000000000E+01      3.352356000000000E-01      2.230957000000000E+01
4780000000.000000      1.362991000000000E-01     -5.101563000000000E+01      3.319550000000000E-01     -6.103027000000000E+00
4800000000.000000      1.069832000000000E-01     -5.581055000000000E+01      3.280945000000000E-01     -3.461328000000000E+01
4820000000.000000      6.558228000000000E-02     -5.564258000000000E+01      3.203278000000000E-01     -6.364843000000000E+01
4840000000.000000      3.221512000000000E-02     -3.153076000000000E+00      3.137817000000000E-01     -9.257421000000000E+01
4860000000.000000      8.016586000000000E-02      4.224218000000000E+01      3.074799000000000E-01     -1.232656000000000E+02
4880000000.000000      1.497498000000000E-01      3.717968000000000E+01      2.881317000000000E-01     -1.541328000000000E+02
4900000000.000000      2.113800000000000E-01      2.409375000000000E+01      2.661591000000000E-01      1.785469000000000E+02
4920000000.000000      2.596130000000000E-01      9.524902000000000E+00      2.668152000000000E-01      1.531563000000000E+02
4940000000.000000      2.872162000000000E-01     -5.258545000000000E+00      2.800598000000000E-01      1.246562000000000E+02
4960000000.000000      2.917480000000000E-01     -1.970605000000000E+01      2.837830000000000E-01      9.476563000000000E+01
4980000000.000000      2.735443000000000E-01     -3.274219000000000E+01      2.895355000000000E-01      6.746484000000000E+01
5000000000.000000      2.363586000000000E-01     -4.267383000000000E+01      3.030396000000000E-01      3.973828000000000E+01
5020000000.000000      1.933441000000000E-01     -4.629687000000000E+01      3.124084000000000E-01      1.138867000000000E+01
5040000000.000000      1.623535000000000E-01     -4.169335000000000E+01      3.194275000000000E-01     -1.600488000000000E+01
5060000000.000000      1.590042000000000E-01     -3.334179000000000E+01      3.273010000000000E-01     -4.331055000000000E+01
5080000000.000000      1.726532000000000E-01     -2.990625000000000E+01      3.330841000000000E-01     -7.163280000000000E+01
5100000000.000000      1.853638000000000E-01     -3.141699000000000E+01      3.279419000000000E-01     -1.001523000000000E+02
5120000000.000000      1.917572000000000E-01     -3.488867000000000E+01      3.233948000000000E-01     -1.275430000000000E+02
5140000000.000000      1.948547000000000E-01     -3.790039000000000E+01      3.221741000000000E-01     -1.560000000000000E+02
5160000000.000000      1.962051000000000E-01     -4.056250000000000E+01      3.193512000000000E-01      1.747890000000000E+02
5180000000.000000      1.989822000000000E-01     -4.359375000000000E+01      3.154602000000000E-01      1.451094000000000E+02
5200000000.000000      2.016449000000000E-01     -4.749023000000000E+01      3.144226000000000E-01      1.152695000000000E+02
5220000000.000000      1.976471000000000E-01     -5.123047000000000E+01      3.141174000000000E-01      8.570704000000000E+01
5240000000.000000      1.902390000000000E-01     -5.372460000000000E+01      3.182373000000000E-01      5.597656000000000E+01
5260000000.000000      1.834793000000000E-01     -5.421288000000000E+01      3.216858000000000E-01      2.652050000000000E+01
5280000000.000000      1.807556000000000E-01     -5.351171000000000E+01      3.264618000000000E-01     -2.581787000000000E+00
5300000000.000000      1.842575000000000E-01     -5.377148000000000E+01      3.291473000000000E-01     -3.083789000000000E+01
5320000000.000000      1.881943000000000E-01     -5.610742000000000E+01      3.328857000000000E-01     -5.800976000000000E+01
5340000000.000000      1.868439000000000E-01     -5.955468000000000E+01      3.364563000000000E-01     -8.592577000000000E+01
5360000000.000000      1.814575000000000E-01     -6.253711000000000E+01      3.321533000000000E-01     -1.133437000000000E+02
5380000000.000000      1.751633000000000E-01     -6.386523000000000E+01      3.281860000000000E-01     -1.398125000000000E+02
5400000000.000000      1.745834000000000E-01     -6.366992000000000E+01      3.276672000000000E-01     -1.675000000000000E+02
5420000000.000000      1.823502000000000E-01     -6.357616000000000E+01      3.216858000000000E-01      1.642344000000000E+02
5440000000.000000      1.931992000000000E-01     -6.583202000000000E+01      3.165436000000000E-01      1.352344000000000E+02
5460000000.000000      2.002640000000000E-01     -7.078125000000000E+01      3.063812000000000E-01      1.056836000000000E+02
5480000000.000000      1.975555000000000E-01     -7.674218000000000E+01      3.018494000000000E-01      7.625390000000000E+01
5500000000.000000      1.838379000000000E-01     -8.212891000000000E+01      3.038940000000000E-01      4.669141000000000E+01
5520000000.000000      1.641769000000000E-01     -8.564453000000000E+01      3.050385000000000E-01      1.649023000000000E+01
5540000000.000000      1.461868000000000E-01     -8.571875000000000E+01      3.084412000000000E-01     -1.301221000000000E+01
5560000000.000000      1.339493000000000E-01     -8.405468000000000E+01      3.136597000000000E-01     -4.209374000000000E+01
5580000000.000000      1.261292000000000E-01     -8.093359000000000E+01      3.187103000000000E-01     -7.067968000000000E+01
5600000000.000000      1.219635000000000E-01     -7.723827000000000E+01      3.230133000000000E-01     -9.866405000000000E+01
5620000000.000000      1.224823000000000E-01     -7.162499000000000E+01      3.248444000000000E-01     -1.265351000000000E+02
5640000000.000000      1.329498000000000E-01     -6.538671000000000E+01      3.234406000000000E-01     -1.542266000000000E+02
5660000000.000000      1.546249000000000E-01     -6.318554000000000E+01      3.181305000000000E-01      1.784844000000000E+02
5680000000.000000      1.809235000000000E-01     -6.668359000000000E+01      3.116302000000000E-01      1.505625000000000E+02
5700000000.000000      2.021408000000000E-01     -7.462500000000000E+01      3.011017000000000E-01      1.223008000000000E+02
5720000000.000000      2.083054000000000E-01     -8.473436000000000E+01      2.897339000000000E-01      9.471874000000000E+01
5740000000.000000      1.987839000000000E-01     -9.505468000000000E+01      2.863159000000000E-01      6.602734000000000E+01
5760000000.000000      1.750870000000000E-01     -1.032344000000000E+02      2.835083000000000E-01      3.541016000000000E+01
5780000000.000000      1.474152000000000E-01     -1.053398000000000E+02      2.792664000000000E-01      5.146973000000000E+00
5800000000.000000      1.302567000000000E-01     -1.008945000000000E+02      2.799683000000000E-01     -2.482910000000000E+01
5820000000.000000      1.321869000000000E-01     -9.622265000000000E+01      2.848816000000000E-01     -5.476171000000000E+01
5840000000.000000      1.420364000000000E-01     -9.774218000000000E+01      2.918854000000000E-01     -8.517578000000000E+01
5860000000.000000      1.464310000000000E-01     -1.042461000000000E+02      2.928925000000000E-01     -1.144062000000000E+02
5880000000.000000      1.397018000000000E-01     -1.126601000000000E+02      2.933960000000000E-01     -1.418125000000000E+02
5900000000.000000      1.223335000000000E-01     -1.182851000000000E+02      3.011475000000000E-01     -1.691172000000000E+02
5920000000.000000      1.032524000000000E-01     -1.185430000000000E+02      3.046722000000000E-01      1.625937000000000E+02
5940000000.000000      9.401703000000000E-02     -1.130039000000000E+02      2.993164000000000E-01      1.338750000000000E+02
5960000000.000000      9.156036000000000E-02     -1.100312000000000E+02      2.872925000000000E-01      1.061289000000000E+02
5980000000.000000      8.503342000000000E-02     -1.104922000000000E+02      2.796936000000000E-01      7.867578000000000E+01
6000000000.000000      6.850815000000000E-02     -1.093828000000000E+02      2.759705000000000E-01      4.907031000000000E+01
6020000000.000000      4.916191000000000E-02     -9.243359000000000E+01      2.656860000000000E-01      1.831543000000000E+01
6040000000.000000      5.557060000000000E-02     -5.902929000000000E+01      2.541504000000000E-01     -1.184619000000000E+01
6060000000.000000      8.582687000000000E-02     -5.055273000000000E+01      2.499237000000000E-01     -4.158593000000000E+01
6080000000.000000      1.166077000000000E-01     -5.732812000000000E+01      2.562103000000000E-01     -7.190234000000000E+01
