! Network Analyzer HP8722D
! Hewlett-Packard
! Data name: Linha com CNT
! Saver's name: Rodrigo Anjos
! Comments: Teste de deteccao de acetona 0-100ppm a partir de cilindro
! Time and date: 10/9/2025 18:57
!              Frequency                     S11                                                   S21                                                   S12                                                   S22
# HZ  S  MA R 50
3000000000.000000      8.250809000000000E-02      9.065624000000000E+01      4.547424000000000E-01      2.448633000000000E+01
3020000000.000000      9.655380000000000E-02      7.614062000000000E+01      4.554138000000000E-01     -4.276611000000000E+00
3040000000.000000      9.591293000000000E-02      6.034180000000000E+01      4.556885000000000E-01     -3.305078000000000E+01
3060000000.000000      8.229828000000000E-02      4.645117000000000E+01      4.530029000000000E-01     -6.170703000000000E+01
3080000000.000000      6.166649000000000E-02      3.768555000000000E+01      4.537506000000000E-01     -9.030077000000000E+01
3100000000.000000      4.443932000000000E-02      4.139062000000000E+01      4.516296000000000E-01     -1.186719000000000E+02
3120000000.000000      3.993416000000000E-02      5.471484000000000E+01      4.490967000000000E-01     -1.472500000000000E+02
3140000000.000000      3.977394000000000E-02      5.811132000000000E+01      4.452972000000000E-01     -1.757578000000000E+02
3160000000.000000      3.108025000000000E-02      6.026562000000000E+01      4.435883000000000E-01      1.558047000000000E+02
3180000000.000000      2.230930000000000E-02      1.087187000000000E+02      4.404449000000000E-01      1.269531000000000E+02
3200000000.000000      5.453682000000000E-02      1.425781000000000E+02      4.360352000000000E-01      9.771873000000000E+01
3220000000.000000      1.057663000000000E-01      1.361562000000000E+02      4.217834000000000E-01      6.843750000000000E+01
3240000000.000000      1.567612000000000E-01      1.214766000000000E+02      4.116821000000000E-01      4.085742000000000E+01
3260000000.000000      1.975708000000000E-01      1.049922000000000E+02      4.149170000000000E-01      1.361182000000000E+01
3280000000.000000      2.239227000000000E-01      8.804296000000000E+01      4.212341000000000E-01     -1.587549000000000E+01
3300000000.000000      2.331161000000000E-01      7.174609000000000E+01      4.148712000000000E-01     -4.433007000000000E+01
3320000000.000000      2.265930000000000E-01      5.685351000000000E+01      4.176025000000000E-01     -7.209374000000000E+01
3340000000.000000      2.098923000000000E-01      4.453711000000000E+01      4.224091000000000E-01     -1.007773000000000E+02
3360000000.000000      1.861572000000000E-01      3.550000000000000E+01      4.233856000000000E-01     -1.291641000000000E+02
3380000000.000000      1.625366000000000E-01      3.070898000000000E+01      4.292145000000000E-01     -1.574844000000000E+02
3400000000.000000      1.430435000000000E-01      2.893359000000000E+01      4.313202000000000E-01      1.738828000000000E+02
3420000000.000000      1.288528000000000E-01      2.886914000000000E+01      4.325867000000000E-01      1.452188000000000E+02
3440000000.000000      1.163368000000000E-01      2.923730000000000E+01      4.302673000000000E-01      1.163320000000000E+02
3460000000.000000      1.056519000000000E-01      3.104980000000000E+01      4.277649000000000E-01      8.802734000000000E+01
3480000000.000000      9.937668000000000E-02      3.366992000000000E+01      4.291992000000000E-01      5.929101000000000E+01
3500000000.000000      9.596252000000000E-02      3.715429000000000E+01      4.248047000000000E-01      3.005078000000000E+01
3520000000.000000      9.519196000000000E-02      4.014844000000000E+01      4.210052000000000E-01      1.864929000000000E+00
3540000000.000000      9.529877000000000E-02      4.311132000000000E+01      4.259033000000000E-01     -2.653515000000000E+01
3560000000.000000      9.766006000000000E-02      4.883789000000000E+01      4.261627000000000E-01     -5.558007000000000E+01
3580000000.000000      1.062622000000000E-01      5.353906000000000E+01      4.261017000000000E-01     -8.444921000000000E+01
3600000000.000000      1.211014000000000E-01      5.454296000000000E+01      4.246521000000000E-01     -1.125898000000000E+02
3620000000.000000      1.343765000000000E-01      5.094921000000000E+01      4.257965000000000E-01     -1.406406000000000E+02
3640000000.000000      1.395569000000000E-01      4.458789000000000E+01      4.263763000000000E-01     -1.691562000000000E+02
3660000000.000000      1.333694000000000E-01      3.797070000000000E+01      4.232330000000000E-01      1.631875000000000E+02
3680000000.000000      1.197777000000000E-01      3.505273000000000E+01      4.283905000000000E-01      1.352813000000000E+02
3700000000.000000      1.077309000000000E-01      3.899609000000000E+01      4.299164000000000E-01      1.066758000000000E+02
3720000000.000000      1.101646000000000E-01      4.744726000000000E+01      4.292145000000000E-01      7.816406000000000E+01
3740000000.000000      1.286469000000000E-01      5.042578000000000E+01      4.228363000000000E-01      4.970898000000000E+01
3760000000.000000      1.475601000000000E-01      4.649023000000000E+01      4.159851000000000E-01      2.173438000000000E+01
3780000000.000000      1.540680000000000E-01      3.886133000000000E+01      4.159698000000000E-01     -5.903809000000000E+00
3800000000.000000      1.451950000000000E-01      3.164453000000000E+01      4.166412000000000E-01     -3.437109000000000E+01
3820000000.000000      1.257629000000000E-01      2.927539000000000E+01      4.162140000000000E-01     -6.295116000000000E+01
3840000000.000000      1.122246000000000E-01      3.495508000000000E+01      4.160919000000000E-01     -9.225780000000000E+01
3860000000.000000      1.186447000000000E-01      4.289844000000000E+01      4.148712000000000E-01     -1.209570000000000E+02
3880000000.000000      1.379242000000000E-01      4.351367000000000E+01      4.127350000000000E-01     -1.501562000000000E+02
3900000000.000000      1.516571000000000E-01      3.732226000000000E+01      4.052734000000000E-01     -1.784844000000000E+02
3920000000.000000      1.482697000000000E-01      2.981640000000000E+01      4.060974000000000E-01      1.541641000000000E+02
3940000000.000000      1.298447000000000E-01      2.643164000000000E+01      4.142303000000000E-01      1.255586000000000E+02
3960000000.000000      1.127777000000000E-01      3.335546000000000E+01      4.137268000000000E-01      9.642578000000000E+01
3980000000.000000      1.206131000000000E-01      4.588672000000000E+01      4.057617000000000E-01      6.776953000000000E+01
4000000000.000000      1.521988000000000E-01      4.872656000000000E+01      3.991241000000000E-01      4.062109000000000E+01
4020000000.000000      1.841888000000000E-01      4.114648000000000E+01      4.065857000000000E-01      1.297852000000000E+01
4040000000.000000      2.013168000000000E-01      2.863086000000000E+01      4.051666000000000E-01     -1.685351000000000E+01
4060000000.000000      1.939774000000000E-01      1.484619000000000E+01      3.921814000000000E-01     -4.576367000000000E+01
4080000000.000000      1.634903000000000E-01      2.069458000000000E+00      3.909760000000000E-01     -7.249218000000000E+01
4100000000.000000      1.174660000000000E-01     -4.070557000000000E+00      4.010468000000000E-01     -1.013672000000000E+02
4120000000.000000      7.802582000000000E-02      8.032227000000000E+00      4.001007000000000E-01     -1.313437000000000E+02
4140000000.000000      7.922745000000000E-02      3.544531000000000E+01      3.949432000000000E-01     -1.602734000000000E+02
4160000000.000000      1.030960000000000E-01      4.331445000000000E+01      3.949738000000000E-01      1.717891000000000E+02
4180000000.000000      1.203537000000000E-01      4.021680000000000E+01      4.029388000000000E-01      1.431797000000000E+02
4200000000.000000      1.220627000000000E-01      3.718554000000000E+01      4.030762000000000E-01      1.133398000000000E+02
4220000000.000000      1.214828000000000E-01      3.938281000000000E+01      3.956146000000000E-01      8.424219000000000E+01
4240000000.000000      1.313858000000000E-01      4.505859000000000E+01      3.911896000000000E-01      5.563477000000000E+01
4260000000.000000      1.565323000000000E-01      4.614453000000000E+01      3.862610000000000E-01      2.766894000000000E+01
4280000000.000000      1.819153000000000E-01      4.140429000000000E+01      3.850250000000000E-01     -5.479431000000000E-01
4300000000.000000      1.968460000000000E-01      3.356836000000000E+01      3.827209000000000E-01     -2.957129000000000E+01
4320000000.000000      1.957550000000000E-01      2.564550000000000E+01      3.788757000000000E-01     -5.833398000000000E+01
4340000000.000000      1.818008000000000E-01      2.046679000000000E+01      3.782959000000000E-01     -8.722656000000000E+01
4360000000.000000      1.687241000000000E-01      1.979297000000000E+01      3.767395000000000E-01     -1.165664000000000E+02
4380000000.000000      1.684494000000000E-01      2.212012000000000E+01      3.753204000000000E-01     -1.458437000000000E+02
4400000000.000000      1.795959000000000E-01      2.169336000000000E+01      3.710022000000000E-01     -1.751797000000000E+02
4420000000.000000      1.888351000000000E-01      1.745410000000000E+01      3.717346000000000E-01      1.561563000000000E+02
4440000000.000000      1.852341000000000E-01      1.180176000000000E+01      3.751068000000000E-01      1.263320000000000E+02
4460000000.000000      1.690292000000000E-01      8.937012000000000E+00      3.685608000000000E-01      9.666016000000000E+01
4480000000.000000      1.514053000000000E-01      1.274951000000000E+01      3.644867000000000E-01      6.838672000000000E+01
4500000000.000000      1.542511000000000E-01      2.117578000000000E+01      3.643799000000000E-01      3.956836000000000E+01
4520000000.000000      1.799774000000000E-01      2.473633000000000E+01      3.612061000000000E-01      9.974121000000000E+00
4540000000.000000      2.090836000000000E-01      2.071387000000000E+01      3.521729000000000E-01     -1.932519000000000E+01
4560000000.000000      2.286758000000000E-01      1.288379000000000E+01      3.470459000000000E-01     -4.763085000000000E+01
4580000000.000000      2.332153000000000E-01      4.258545000000000E+00      3.481750000000000E-01     -7.681250000000000E+01
4600000000.000000      2.259216000000000E-01     -2.624390000000000E+00      3.440704000000000E-01     -1.070586000000000E+02
4620000000.000000      2.145157000000000E-01     -6.844482000000000E+00      3.386536000000000E-01     -1.364219000000000E+02
4640000000.000000      2.090378000000000E-01     -9.389648000000000E+00      3.386078000000000E-01     -1.658047000000000E+02
4660000000.000000      2.087097000000000E-01     -1.255762000000000E+01      3.385773000000000E-01      1.651016000000000E+02
4680000000.000000      2.074738000000000E-01     -1.744629000000000E+01      3.417358000000000E-01      1.360312000000000E+02
4700000000.000000      1.994934000000000E-01     -2.393945000000000E+01      3.416901000000000E-01      1.061523000000000E+02
4720000000.000000      1.829834000000000E-01     -3.057519000000000E+01      3.380432000000000E-01      7.861718000000000E+01
4740000000.000000      1.626511000000000E-01     -3.642773000000000E+01      3.437500000000000E-01      5.055078000000000E+01
4760000000.000000      1.390152000000000E-01     -4.118554000000000E+01      3.452759000000000E-01      2.172656000000000E+01
4780000000.000000      1.133881000000000E-01     -4.530273000000000E+01      3.415527000000000E-01     -6.633057000000000E+00
4800000000.000000      8.100510000000000E-02     -4.899219000000000E+01      3.381958000000000E-01     -3.533984000000000E+01
4820000000.000000      3.841209000000000E-02     -3.993164000000000E+01      3.315735000000000E-01     -6.421484000000000E+01
4840000000.000000      4.044724000000000E-02      5.125586000000000E+01      3.249664000000000E-01     -9.320313000000000E+01
4860000000.000000      1.068001000000000E-01      5.834374000000000E+01      3.188934000000000E-01     -1.239570000000000E+02
4880000000.000000      1.769333000000000E-01      4.670507000000000E+01      2.992554000000000E-01     -1.549297000000000E+02
4900000000.000000      2.370987000000000E-01      3.147851000000000E+01      2.769623000000000E-01      1.775938000000000E+02
4920000000.000000      2.784729000000000E-01      1.559766000000000E+01      2.766113000000000E-01      1.522734000000000E+02
4940000000.000000      2.988434000000000E-01      2.279663000000000E-01      2.891388000000000E-01      1.237187000000000E+02
4960000000.000000      2.957001000000000E-01     -1.477393000000000E+01      2.927704000000000E-01      9.393358000000000E+01
4980000000.000000      2.688446000000000E-01     -2.805859000000000E+01      2.981110000000000E-01      6.682812000000000E+01
5000000000.000000      2.258606000000000E-01     -3.774414000000000E+01      3.112030000000000E-01      3.910937000000000E+01
5020000000.000000      1.787796000000000E-01     -4.008789000000000E+01      3.215942000000000E-01      1.089941000000000E+01
5040000000.000000      1.500015000000000E-01     -3.313867000000000E+01      3.291168000000000E-01     -1.648926000000000E+01
5060000000.000000      1.517258000000000E-01     -2.360058000000000E+01      3.377533000000000E-01     -4.394336000000000E+01
5080000000.000000      1.681213000000000E-01     -2.073437000000000E+01      3.426514000000000E-01     -7.232031000000000E+01
5100000000.000000      1.815948000000000E-01     -2.319434000000000E+01      3.381500000000000E-01     -1.009336000000000E+02
5120000000.000000      1.865616000000000E-01     -2.693750000000000E+01      3.331757000000000E-01     -1.283906000000000E+02
5140000000.000000      1.880722000000000E-01     -3.012598000000000E+01      3.317413000000000E-01     -1.566797000000000E+02
5160000000.000000      1.896820000000000E-01     -3.315820000000000E+01      3.291168000000000E-01      1.738672000000000E+02
5180000000.000000      1.911240000000000E-01     -3.622656000000000E+01      3.256531000000000E-01      1.444062000000000E+02
5200000000.000000      1.912689000000000E-01     -4.043554000000000E+01      3.243103000000000E-01      1.144844000000000E+02
5220000000.000000      1.869659000000000E-01     -4.436523000000000E+01      3.240356000000000E-01      8.500780000000000E+01
5240000000.000000      1.786041000000000E-01     -4.646874000000000E+01      3.277740000000000E-01      5.540039000000000E+01
5260000000.000000      1.719742000000000E-01     -4.661523000000000E+01      3.324127000000000E-01      2.589258000000000E+01
5280000000.000000      1.704330000000000E-01     -4.552734000000000E+01      3.365021000000000E-01     -3.165527000000000E+00
5300000000.000000      1.749802000000000E-01     -4.605078000000000E+01      3.382874000000000E-01     -3.136816000000000E+01
5320000000.000000      1.783829000000000E-01     -4.881054000000000E+01      3.425903000000000E-01     -5.864648000000000E+01
5340000000.000000      1.756516000000000E-01     -5.240624000000000E+01      3.460999000000000E-01     -8.655859000000000E+01
5360000000.000000      1.692963000000000E-01     -5.546679000000000E+01      3.414307000000000E-01     -1.139492000000000E+02
5380000000.000000      1.622925000000000E-01     -5.653515000000000E+01      3.375244000000000E-01     -1.405781000000000E+02
5400000000.000000      1.619873000000000E-01     -5.614258000000000E+01      3.375244000000000E-01     -1.682578000000000E+02
5420000000.000000      1.708527000000000E-01     -5.612695000000000E+01      3.312531000000000E-01      1.633359000000000E+02
5440000000.000000      1.813507000000000E-01     -5.915039000000000E+01      3.267365000000000E-01      1.344687000000000E+02
5460000000.000000      1.873856000000000E-01     -6.473827000000000E+01      3.171692000000000E-01      1.049336000000000E+02
5480000000.000000      1.823578000000000E-01     -7.121094000000000E+01      3.115692000000000E-01      7.570313000000000E+01
5500000000.000000      1.659164000000000E-01     -7.678905000000000E+01      3.130798000000000E-01      4.623047000000000E+01
5520000000.000000      1.446304000000000E-01     -7.969531000000000E+01      3.146820000000000E-01      1.595215000000000E+01
5540000000.000000      1.263351000000000E-01     -7.847265000000000E+01      3.183899000000000E-01     -1.358740000000000E+01
5560000000.000000      1.147614000000000E-01     -7.531250000000000E+01      3.234711000000000E-01     -4.249413000000000E+01
5580000000.000000      1.087494000000000E-01     -7.107031000000000E+01      3.283386000000000E-01     -7.124609000000000E+01
5600000000.000000      1.061134000000000E-01     -6.582421000000000E+01      3.328094000000000E-01     -9.925781000000000E+01
5620000000.000000      1.100121000000000E-01     -5.898632000000000E+01      3.343658000000000E-01     -1.271836000000000E+02
5640000000.000000      1.247978000000000E-01     -5.291016000000000E+01      3.339081000000000E-01     -1.548750000000000E+02
5660000000.000000      1.491928000000000E-01     -5.250586000000000E+01      3.283234000000000E-01      1.776719000000000E+02
5680000000.000000      1.751938000000000E-01     -5.770898000000000E+01      3.209686000000000E-01      1.496406000000000E+02
5700000000.000000      1.934204000000000E-01     -6.736718000000000E+01      3.098450000000000E-01      1.214609000000000E+02
5720000000.000000      1.961212000000000E-01     -7.865624000000000E+01      2.991791000000000E-01      9.385546000000000E+01
5740000000.000000      1.820831000000000E-01     -8.976563000000000E+01      2.953796000000000E-01      6.528906000000000E+01
5760000000.000000      1.552963000000000E-01     -9.819139000000000E+01      2.919312000000000E-01      3.469727000000000E+01
5780000000.000000      1.262894000000000E-01     -9.961718000000000E+01      2.886353000000000E-01      4.633301000000000E+00
5800000000.000000      1.110458000000000E-01     -9.255077000000000E+01      2.892914000000000E-01     -2.531054000000000E+01
5820000000.000000      1.154251000000000E-01     -8.668749000000000E+01      2.945862000000000E-01     -5.530078000000000E+01
5840000000.000000      1.258621000000000E-01     -8.944530000000000E+01      3.015137000000000E-01     -8.564844000000000E+01
5860000000.000000      1.275787000000000E-01     -9.732422000000000E+01      3.015137000000000E-01     -1.148438000000000E+02
5880000000.000000      1.174431000000000E-01     -1.067461000000000E+02      3.021393000000000E-01     -1.421328000000000E+02
5900000000.000000      9.748840000000000E-02     -1.131172000000000E+02      3.105774000000000E-01     -1.695078000000000E+02
5920000000.000000      7.814026000000000E-02     -1.113515000000000E+02      3.134308000000000E-01      1.621328000000000E+02
5940000000.000000      7.066727000000000E-02     -1.019414000000000E+02      3.087769000000000E-01      1.332656000000000E+02
5960000000.000000      7.039642000000000E-02     -9.652733000000000E+01      2.966919000000000E-01      1.053320000000000E+02
5980000000.000000      6.427002000000000E-02     -9.585155000000000E+01      2.890472000000000E-01      7.796484000000000E+01
6000000000.000000      4.889107000000000E-02     -8.781641000000000E+01      2.850647000000000E-01      4.834179000000000E+01
6020000000.000000      4.115105000000000E-02     -5.306641000000000E+01      2.755432000000000E-01      1.742285000000000E+01
6040000000.000000      6.549835000000000E-02     -2.940722000000000E+01      2.640228000000000E-01     -1.258350000000000E+01
6060000000.000000      9.954453000000000E-02     -3.168066000000000E+01      2.606659000000000E-01     -4.242578000000000E+01
6080000000.000000      1.277161000000000E-01     -4.284570000000000E+01      2.674713000000000E-01     -7.262500000000000E+01
