! Network Analyzer HP8722D
! Hewlett-Packard
! Data name: Linha com CNT
! Saver's name: Rodrigo Anjos
! Comments: Teste de deteccao de acetona 0-100ppm a partir de cilindro
! Time and date: 10/9/2025 16:37
!              Frequency                     S11                                                   S21                                                   S12                                                   S22
# HZ  S  MA R 50
3000000000.000000      4.457245000000000E-01      1.573926000000000E+01      2.474442000000000E-01      3.389257000000000E+01
3020000000.000000      4.547729000000000E-01      1.511426000000000E+01      2.516632000000000E-01      4.230957000000000E+00
3040000000.000000      4.620667000000000E-01      1.410498000000000E+01      2.518311000000000E-01     -2.476758000000000E+01
3060000000.000000      4.657745000000000E-01      1.224805000000000E+01      2.515717000000000E-01     -5.404491000000000E+01
3080000000.000000      4.630432000000000E-01      1.041895000000000E+01      2.473526000000000E-01     -8.295313000000000E+01
3100000000.000000      4.603729000000000E-01      9.049805000000000E+00      2.462082000000000E-01     -1.108984000000000E+02
3120000000.000000      4.584045000000000E-01      8.162598000000000E+00      2.450638000000000E-01     -1.395781000000000E+02
3140000000.000000      4.579620000000000E-01      7.245361000000000E+00      2.420731000000000E-01     -1.681172000000000E+02
3160000000.000000      4.586182000000000E-01      6.076660000000000E+00      2.379532000000000E-01      1.632578000000000E+02
3180000000.000000      4.537506000000000E-01      4.934082000000000E+00      2.322769000000000E-01      1.351484000000000E+02
3200000000.000000      4.435272000000000E-01      4.215820000000000E+00      2.283096000000000E-01      1.067656000000000E+02
3220000000.000000      4.327240000000000E-01      4.237793000000000E+00      2.186737000000000E-01      7.826562000000000E+01
3240000000.000000      4.267731000000000E-01      5.168945000000000E+00      2.120209000000000E-01      5.280078000000000E+01
3260000000.000000      4.279480000000000E-01      6.533936000000000E+00      2.206726000000000E-01      2.692871000000000E+01
3280000000.000000      4.394989000000000E-01      7.327881000000000E+00      2.291336000000000E-01     -2.645020000000000E+00
3300000000.000000      4.584503000000000E-01      6.992676000000000E+00      2.320023000000000E-01     -3.125391000000000E+01
3320000000.000000      4.767761000000000E-01      5.479248000000000E+00      2.394485000000000E-01     -6.010937000000000E+01
3340000000.000000      4.889679000000000E-01      3.302734000000000E+00      2.446747000000000E-01     -8.984766000000000E+01
3360000000.000000      4.940186000000000E-01      9.173584000000000E-01      2.464066000000000E-01     -1.195937000000000E+02
3380000000.000000      4.923706000000000E-01     -8.280945000000000E-01      2.464828000000000E-01     -1.488281000000000E+02
3400000000.000000      4.886169000000000E-01     -2.377197000000000E+00      2.458572000000000E-01     -1.775625000000000E+02
3420000000.000000      4.851685000000000E-01     -3.526611000000000E+00      2.442322000000000E-01      1.532422000000000E+02
3440000000.000000      4.800568000000000E-01     -4.753174000000000E+00      2.398605000000000E-01      1.249961000000000E+02
3460000000.000000      4.756927000000000E-01     -5.803711000000000E+00      2.405014000000000E-01      9.681641000000000E+01
3480000000.000000      4.733124000000000E-01     -6.817139000000000E+00      2.375488000000000E-01      6.775781000000000E+01
3500000000.000000      4.721527000000000E-01     -7.577881000000000E+00      2.354050000000000E-01      3.959375000000000E+01
3520000000.000000      4.712219000000000E-01     -8.620605000000000E+00      2.361450000000000E-01      1.058936000000000E+01
3540000000.000000      4.714203000000000E-01     -9.460938000000000E+00      2.307281000000000E-01     -1.785449000000000E+01
3560000000.000000      4.698029000000000E-01     -1.006104000000000E+01      2.324677000000000E-01     -4.585156000000000E+01
3580000000.000000      4.670105000000000E-01     -1.069678000000000E+01      2.320709000000000E-01     -7.460938000000000E+01
3600000000.000000      4.659271000000000E-01     -1.121191000000000E+01      2.323685000000000E-01     -1.020156000000000E+02
3620000000.000000      4.680176000000000E-01     -1.167871000000000E+01      2.363129000000000E-01     -1.305078000000000E+02
3640000000.000000      4.703979000000000E-01     -1.254639000000000E+01      2.376709000000000E-01     -1.590078000000000E+02
3660000000.000000      4.725342000000000E-01     -1.404785000000000E+01      2.392426000000000E-01      1.727109000000000E+02
3680000000.000000      4.730377000000000E-01     -1.535205000000000E+01      2.373810000000000E-01      1.442969000000000E+02
3700000000.000000      4.693909000000000E-01     -1.681055000000000E+01      2.355118000000000E-01      1.169414000000000E+02
3720000000.000000      4.636993000000000E-01     -1.754297000000000E+01      2.374039000000000E-01      8.857031000000000E+01
3740000000.000000      4.640350000000000E-01     -1.765918000000000E+01      2.326202000000000E-01      6.027344000000000E+01
3760000000.000000      4.658203000000000E-01     -1.781934000000000E+01      2.318497000000000E-01      3.313086000000000E+01
3780000000.000000      4.709320000000000E-01     -1.859766000000000E+01      2.337952000000000E-01      4.498779000000000E+00
3800000000.000000      4.762726000000000E-01     -2.000391000000000E+01      2.326736000000000E-01     -2.456543000000000E+01
3820000000.000000      4.744720000000000E-01     -2.181347000000000E+01      2.305450000000000E-01     -5.326366000000000E+01
3840000000.000000      4.700928000000000E-01     -2.318554000000000E+01      2.303009000000000E-01     -8.172266000000000E+01
3860000000.000000      4.658203000000000E-01     -2.401953000000000E+01      2.305908000000000E-01     -1.108281000000000E+02
3880000000.000000      4.643860000000000E-01     -2.438574000000000E+01      2.275848000000000E-01     -1.397578000000000E+02
3900000000.000000      4.688568000000000E-01     -2.492578000000000E+01      2.268372000000000E-01     -1.672734000000000E+02
3920000000.000000      4.735565000000000E-01     -2.612207000000000E+01      2.295532000000000E-01      1.644063000000000E+02
3940000000.000000      4.742889000000000E-01     -2.776464000000000E+01      2.289505000000000E-01      1.357188000000000E+02
3960000000.000000      4.682922000000000E-01     -2.910840000000000E+01      2.297668000000000E-01      1.074687000000000E+02
3980000000.000000      4.592438000000000E-01     -2.981445000000000E+01      2.226563000000000E-01      7.879296000000000E+01
4000000000.000000      4.542542000000000E-01     -2.978613000000000E+01      2.201843000000000E-01      5.322070000000000E+01
4020000000.000000      4.575653000000000E-01     -2.952734000000000E+01      2.289734000000000E-01      2.528027000000000E+01
4040000000.000000      4.709778000000000E-01     -3.007129000000000E+01      2.285614000000000E-01     -4.971436000000000E+00
4060000000.000000      4.861755000000000E-01     -3.186230000000000E+01      2.245102000000000E-01     -3.375000000000000E+01
4080000000.000000      4.919891000000000E-01     -3.490039000000000E+01      2.244797000000000E-01     -6.262500000000000E+01
4100000000.000000      4.861145000000000E-01     -3.753515000000000E+01      2.248230000000000E-01     -9.186718000000000E+01
4120000000.000000      4.741364000000000E-01     -3.934179000000000E+01      2.220917000000000E-01     -1.221601000000000E+02
4140000000.000000      4.623871000000000E-01     -4.008789000000000E+01      2.143707000000000E-01     -1.506406000000000E+02
4160000000.000000      4.558716000000000E-01     -4.046094000000000E+01      2.158890000000000E-01     -1.771875000000000E+02
4180000000.000000      4.548035000000000E-01     -4.087500000000000E+01      2.207184000000000E-01      1.536094000000000E+02
4200000000.000000      4.553070000000000E-01     -4.189258000000000E+01      2.182083000000000E-01      1.249297000000000E+02
4220000000.000000      4.544067000000000E-01     -4.298828000000000E+01      2.194672000000000E-01      9.680859000000000E+01
4240000000.000000      4.493256000000000E-01     -4.382617000000000E+01      2.156143000000000E-01      6.776172000000000E+01
4260000000.000000      4.458466000000000E-01     -4.428320000000000E+01      2.109756000000000E-01      4.073438000000000E+01
4280000000.000000      4.465790000000000E-01     -4.394727000000000E+01      2.121201000000000E-01      1.317236000000000E+01
4300000000.000000      4.498749000000000E-01     -4.435351000000000E+01      2.112732000000000E-01     -1.551563000000000E+01
4320000000.000000      4.577484000000000E-01     -4.521289000000000E+01      2.116699000000000E-01     -4.431250000000000E+01
4340000000.000000      4.610291000000000E-01     -4.703125000000000E+01      2.116852000000000E-01     -7.362109000000000E+01
4360000000.000000      4.615784000000000E-01     -4.873437000000000E+01      2.118607000000000E-01     -1.036289000000000E+02
4380000000.000000      4.571686000000000E-01     -4.993164000000000E+01      2.097092000000000E-01     -1.337812000000000E+02
4400000000.000000      4.557800000000000E-01     -5.063086000000000E+01      2.075119000000000E-01     -1.623359000000000E+02
4420000000.000000      4.578094000000000E-01     -5.111328000000000E+01      2.118988000000000E-01      1.687578000000000E+02
4440000000.000000      4.626007000000000E-01     -5.236914000000000E+01      2.125702000000000E-01      1.388750000000000E+02
4460000000.000000      4.648285000000000E-01     -5.407617000000000E+01      2.120590000000000E-01      1.096914000000000E+02
4480000000.000000      4.627533000000000E-01     -5.592578000000000E+01      2.103653000000000E-01      8.093750000000000E+01
4500000000.000000      4.525604000000000E-01     -5.683594000000000E+01      2.069016000000000E-01      5.286523000000000E+01
4520000000.000000      4.456024000000000E-01     -5.754687000000000E+01      2.043610000000000E-01      2.434765000000000E+01
4540000000.000000      4.463348000000000E-01     -5.747265000000000E+01      1.987076000000000E-01     -3.879639000000000E+00
4560000000.000000      4.523926000000000E-01     -5.790039000000000E+01      1.985855000000000E-01     -3.132421000000000E+01
4580000000.000000      4.626617000000000E-01     -5.892187000000000E+01      1.995239000000000E-01     -6.137109000000000E+01
4600000000.000000      4.692230000000000E-01     -6.027148000000000E+01      1.975555000000000E-01     -9.173046000000000E+01
4620000000.000000      4.718018000000000E-01     -6.197070000000000E+01      1.974030000000000E-01     -1.226406000000000E+02
4640000000.000000      4.734955000000000E-01     -6.320703000000000E+01      1.939316000000000E-01     -1.537266000000000E+02
4660000000.000000      4.755402000000000E-01     -6.417969000000000E+01      1.945114000000000E-01      1.773281000000000E+02
4680000000.000000      4.787598000000000E-01     -6.543359000000000E+01      1.998672000000000E-01      1.472656000000000E+02
4700000000.000000      4.839783000000000E-01     -6.694140000000000E+01      2.016602000000000E-01      1.173086000000000E+02
4720000000.000000      4.871063000000000E-01     -6.897265000000000E+01      2.046661000000000E-01      8.880859000000000E+01
4740000000.000000      4.884033000000000E-01     -7.128124000000000E+01      2.073364000000000E-01      6.003320000000000E+01
4760000000.000000      4.867096000000000E-01     -7.344531000000000E+01      2.062454000000000E-01      3.219531000000000E+01
4780000000.000000      4.830627000000000E-01     -7.563281000000000E+01      2.031555000000000E-01      3.909668000000000E+00
4800000000.000000      4.788666000000000E-01     -7.798828000000000E+01      1.965561000000000E-01     -2.412402000000000E+01
4820000000.000000      4.676056000000000E-01     -8.027344000000000E+01      1.863785000000000E-01     -5.211132000000000E+01
4840000000.000000      4.494629000000000E-01     -8.197657000000000E+01      1.759872000000000E-01     -7.942577000000000E+01
4860000000.000000      4.302826000000000E-01     -8.273829000000000E+01      1.684723000000000E-01     -1.081016000000000E+02
4880000000.000000      4.116516000000000E-01     -8.188280000000000E+01      1.542282000000000E-01     -1.381172000000000E+02
4900000000.000000      4.029999000000000E-01     -8.011328000000000E+01      1.407013000000000E-01     -1.638047000000000E+02
4920000000.000000      4.072876000000000E-01     -7.798046000000000E+01      1.452103000000000E-01      1.713672000000000E+02
4940000000.000000      4.239349000000000E-01     -7.661327000000000E+01      1.587448000000000E-01      1.413828000000000E+02
4960000000.000000      4.502258000000000E-01     -7.706640000000000E+01      1.668167000000000E-01      1.100352000000000E+02
4980000000.000000      4.715881000000000E-01     -7.946875000000000E+01      1.763077000000000E-01      8.025391000000000E+01
5000000000.000000      4.816284000000000E-01     -8.287889000000000E+01      1.870346000000000E-01      5.039453000000000E+01
5020000000.000000      4.783020000000000E-01     -8.594921000000000E+01      1.933746000000000E-01      2.109863000000000E+01
5040000000.000000      4.673462000000000E-01     -8.816406000000000E+01      1.947556000000000E-01     -5.704834000000000E+00
5060000000.000000      4.566498000000000E-01     -8.912109000000000E+01      2.003860000000000E-01     -3.112793000000000E+01
5080000000.000000      4.505920000000000E-01     -8.968750000000000E+01      2.055969000000000E-01     -5.853710000000000E+01
5100000000.000000      4.495697000000000E-01     -9.023829000000000E+01      2.035675000000000E-01     -8.551952000000000E+01
5120000000.000000      4.507294000000000E-01     -9.095703000000000E+01      2.018967000000000E-01     -1.125078000000000E+02
5140000000.000000      4.545593000000000E-01     -9.183594000000000E+01      1.979523000000000E-01     -1.410156000000000E+02
5160000000.000000      4.576874000000000E-01     -9.292578000000000E+01      1.923294000000000E-01     -1.698516000000000E+02
5180000000.000000      4.637451000000000E-01     -9.383204000000000E+01      1.883163000000000E-01      1.599922000000000E+02
5200000000.000000      4.698639000000000E-01     -9.517187000000000E+01      1.844330000000000E-01      1.294453000000000E+02
5220000000.000000      4.733582000000000E-01     -9.680468000000000E+01      1.849289000000000E-01      9.896484000000000E+01
5240000000.000000      4.753571000000000E-01     -9.834373000000000E+01      1.884384000000000E-01      6.787890000000000E+01
5260000000.000000      4.734192000000000E-01     -1.000586000000000E+02      1.928177000000000E-01      3.724804000000000E+01
5280000000.000000      4.698639000000000E-01     -1.013047000000000E+02      1.967545000000000E-01      7.408691000000000E+00
5300000000.000000      4.675751000000000E-01     -1.023516000000000E+02      2.010574000000000E-01     -1.992383000000000E+01
5320000000.000000      4.675140000000000E-01     -1.035703000000000E+02      2.088013000000000E-01     -4.654492000000000E+01
5340000000.000000      4.683533000000000E-01     -1.047148000000000E+02      2.127762000000000E-01     -7.411327000000000E+01
5360000000.000000      4.684143000000000E-01     -1.061680000000000E+02      2.124405000000000E-01     -1.003164000000000E+02
5380000000.000000      4.693909000000000E-01     -1.072812000000000E+02      2.105484000000000E-01     -1.270313000000000E+02
5400000000.000000      4.690704000000000E-01     -1.085742000000000E+02      2.042923000000000E-01     -1.536484000000000E+02
5420000000.000000      4.714508000000000E-01     -1.089687000000000E+02      1.985855000000000E-01      1.793359000000000E+02
5440000000.000000      4.766235000000000E-01     -1.097070000000000E+02      1.922607000000000E-01      1.503515000000000E+02
5460000000.000000      4.849091000000000E-01     -1.109062000000000E+02      1.829605000000000E-01      1.206992000000000E+02
5480000000.000000      4.910278000000000E-01     -1.127070000000000E+02      1.794586000000000E-01      9.011719000000000E+01
5500000000.000000      4.919739000000000E-01     -1.149570000000000E+02      1.778793000000000E-01      5.839844000000000E+01
5520000000.000000      4.875336000000000E-01     -1.172578000000000E+02      1.791534000000000E-01      2.618359000000000E+01
5540000000.000000      4.814606000000000E-01     -1.192226000000000E+02      1.802979000000000E-01     -4.772217000000000E+00
5560000000.000000      4.743195000000000E-01     -1.209062000000000E+02      1.851578000000000E-01     -3.327539000000000E+01
5580000000.000000      4.670868000000000E-01     -1.223242000000000E+02      1.942749000000000E-01     -6.170898000000000E+01
5600000000.000000      4.619141000000000E-01     -1.232539000000000E+02      1.994781000000000E-01     -8.895311000000000E+01
5620000000.000000      4.569855000000000E-01     -1.240430000000000E+02      2.037582000000000E-01     -1.153203000000000E+02
5640000000.000000      4.540710000000000E-01     -1.244687000000000E+02      2.047424000000000E-01     -1.417031000000000E+02
5660000000.000000      4.533234000000000E-01     -1.244375000000000E+02      2.009583000000000E-01     -1.673594000000000E+02
5680000000.000000      4.581909000000000E-01     -1.245937000000000E+02      1.966400000000000E-01      1.663047000000000E+02
5700000000.000000      4.682312000000000E-01     -1.252773000000000E+02      1.880646000000000E-01      1.394609000000000E+02
5720000000.000000      4.791412000000000E-01     -1.268125000000000E+02      1.806793000000000E-01      1.119687000000000E+02
5740000000.000000      4.871216000000000E-01     -1.294141000000000E+02      1.727600000000000E-01      8.178514000000000E+01
5760000000.000000      4.859467000000000E-01     -1.323672000000000E+02      1.641541000000000E-01      4.936523000000000E+01
5780000000.000000      4.770966000000000E-01     -1.348516000000000E+02      1.566544000000000E-01      1.656738000000000E+01
5800000000.000000      4.648743000000000E-01     -1.363281000000000E+02      1.541595000000000E-01     -1.505029000000000E+01
5820000000.000000      4.577484000000000E-01     -1.369922000000000E+02      1.609116000000000E-01     -4.599023000000000E+01
5840000000.000000      4.572601000000000E-01     -1.376719000000000E+02      1.711655000000000E-01     -7.762890000000000E+01
5860000000.000000      4.626770000000000E-01     -1.385937000000000E+02      1.782303000000000E-01     -1.067969000000000E+02
5880000000.000000      4.671478000000000E-01     -1.404375000000000E+02      1.852188000000000E-01     -1.349453000000000E+02
5900000000.000000      4.683533000000000E-01     -1.423125000000000E+02      1.911850000000000E-01     -1.613359000000000E+02
5920000000.000000      4.651947000000000E-01     -1.442109000000000E+02      1.935196000000000E-01      1.721797000000000E+02
5940000000.000000      4.606171000000000E-01     -1.455391000000000E+02      1.891327000000000E-01      1.454922000000000E+02
5960000000.000000      4.568939000000000E-01     -1.469063000000000E+02      1.804733000000000E-01      1.205000000000000E+02
5980000000.000000      4.527893000000000E-01     -1.484609000000000E+02      1.740646000000000E-01      9.438280000000000E+01
6000000000.000000      4.444427000000000E-01     -1.502500000000000E+02      1.633377000000000E-01      6.572266000000000E+01
6020000000.000000      4.308929000000000E-01     -1.519219000000000E+02      1.503296000000000E-01      3.572656000000000E+01
6040000000.000000      4.167175000000000E-01     -1.528516000000000E+02      1.349945000000000E-01      5.122314000000000E+00
6060000000.000000      4.061279000000000E-01     -1.532031000000000E+02      1.276703000000000E-01     -2.513574000000000E+01
6080000000.000000      4.032593000000000E-01     -1.524688000000000E+02      1.325989000000000E-01     -5.689453000000000E+01
