! Network Analyzer HP8722D
! Hewlett-Packard
! Data name: Linha & Wilkinson
! Saver's name: Rodrigo Anjos
! Comments: Teste da utilização de aquisição
continua pelo VNA HP8722D
! Time and date: 21/5/2025 17:00
!              Frequency                     S11                                                   S21                                                   S12                                                   S22
# HZ  S  MA R 50
4800000000.000000      5.393982000000000E-01     -1.086758000000000E+02      1.170197000000000E-01     -1.528672000000000E+02
4801000000.000000      5.401917000000000E-01     -1.093828000000000E+02      1.154289000000000E-01     -1.508672000000000E+02
4802000000.000000      5.380859000000000E-01     -1.100547000000000E+02      1.143341000000000E-01     -1.491172000000000E+02
4803000000.000000      5.387573000000000E-01     -1.108672000000000E+02      1.131706000000000E-01     -1.474609000000000E+02
4804000000.000000      5.401306000000000E-01     -1.114531000000000E+02      1.125107000000000E-01     -1.454844000000000E+02
4805000000.000000      5.401306000000000E-01     -1.119922000000000E+02      1.116180000000000E-01     -1.435078000000000E+02
4806000000.000000      5.393677000000000E-01     -1.126758000000000E+02      1.115685000000000E-01     -1.415625000000000E+02
4807000000.000000      5.396729000000000E-01     -1.134727000000000E+02      1.117134000000000E-01     -1.397891000000000E+02
4808000000.000000      5.407715000000000E-01     -1.139805000000000E+02      1.115227000000000E-01     -1.377109000000000E+02
4809000000.000000      5.427246000000000E-01     -1.147500000000000E+02      1.118469000000000E-01     -1.358281000000000E+02
4810000000.000000      5.439148000000000E-01     -1.153984000000000E+02      1.125984000000000E-01     -1.340937000000000E+02
4811000000.000000      5.476379000000000E-01     -1.162031000000000E+02      1.132164000000000E-01     -1.323906000000000E+02
4812000000.000000      5.474854000000000E-01     -1.167773000000000E+02      1.144218000000000E-01     -1.305234000000000E+02
4813000000.000000      5.489197000000000E-01     -1.175195000000000E+02      1.158066000000000E-01     -1.287969000000000E+02
4814000000.000000      5.512390000000000E-01     -1.183555000000000E+02      1.173096000000000E-01     -1.272109000000000E+02
4815000000.000000      5.532837000000000E-01     -1.188086000000000E+02      1.187668000000000E-01     -1.256211000000000E+02
4816000000.000000      5.558167000000000E-01     -1.191992000000000E+02      1.208534000000000E-01     -1.240000000000000E+02
4817000000.000000      5.606995000000000E-01     -1.198672000000000E+02      1.226616000000000E-01     -1.227187000000000E+02
4818000000.000000      5.629883000000000E-01     -1.205430000000000E+02      1.248550000000000E-01     -1.213086000000000E+02
4819000000.000000      5.680542000000000E-01     -1.209336000000000E+02      1.270828000000000E-01     -1.202851000000000E+02
4820000000.000000      5.701599000000000E-01     -1.215273000000000E+02      1.295471000000000E-01     -1.190859000000000E+02
4821000000.000000      5.747375000000000E-01     -1.221875000000000E+02      1.319122000000000E-01     -1.178711000000000E+02
4822000000.000000      5.782471000000000E-01     -1.226680000000000E+02      1.345901000000000E-01     -1.168828000000000E+02
4823000000.000000      5.816040000000000E-01     -1.230937000000000E+02      1.377106000000000E-01     -1.159844000000000E+02
4824000000.000000      5.872498000000000E-01     -1.236797000000000E+02      1.398087000000000E-01     -1.151797000000000E+02
4825000000.000000      5.920410000000000E-01     -1.241328000000000E+02      1.429749000000000E-01     -1.145469000000000E+02
4826000000.000000      5.973206000000000E-01     -1.246406000000000E+02      1.457520000000000E-01     -1.136523000000000E+02
4827000000.000000      6.015320000000000E-01     -1.248320000000000E+02      1.491470000000000E-01     -1.129453000000000E+02
4828000000.000000      6.092529000000000E-01     -1.252617000000000E+02      1.523895000000000E-01     -1.123906000000000E+02
4829000000.000000      6.098328000000000E-01     -1.256172000000000E+02      1.552811000000000E-01     -1.118203000000000E+02
4830000000.000000      6.187134000000000E-01     -1.260312000000000E+02      1.580353000000000E-01     -1.115781000000000E+02
4831000000.000000      6.223450000000000E-01     -1.264219000000000E+02      1.613541000000000E-01     -1.111562000000000E+02
4832000000.000000      6.310425000000000E-01     -1.266875000000000E+02      1.647949000000000E-01     -1.106289000000000E+02
4833000000.000000      6.369324000000000E-01     -1.270195000000000E+02      1.680222000000000E-01     -1.101601000000000E+02
4834000000.000000      6.425171000000000E-01     -1.274219000000000E+02      1.709747000000000E-01     -1.100703000000000E+02
4835000000.000000      6.503906000000000E-01     -1.274609000000000E+02      1.742096000000000E-01     -1.099687000000000E+02
4836000000.000000      6.570129000000000E-01     -1.277031000000000E+02      1.772690000000000E-01     -1.094375000000000E+02
4837000000.000000      6.632080000000000E-01     -1.279883000000000E+02      1.805954000000000E-01     -1.096914000000000E+02
4838000000.000000      6.723328000000000E-01     -1.282578000000000E+02      1.837463000000000E-01     -1.092812000000000E+02
4839000000.000000      6.763916000000000E-01     -1.283594000000000E+02      1.867676000000000E-01     -1.093047000000000E+02
4840000000.000000      6.816101000000000E-01     -1.287656000000000E+02      1.896591000000000E-01     -1.092344000000000E+02
4841000000.000000      6.911926000000000E-01     -1.288047000000000E+02      1.934738000000000E-01     -1.091523000000000E+02
4842000000.000000      6.987305000000000E-01     -1.288125000000000E+02      1.964798000000000E-01     -1.090859000000000E+02
4843000000.000000      7.047729000000000E-01     -1.290859000000000E+02      1.991653000000000E-01     -1.091719000000000E+02
4844000000.000000      7.117920000000000E-01     -1.289453000000000E+02      2.026825000000000E-01     -1.092070000000000E+02
4845000000.000000      7.193298000000000E-01     -1.291328000000000E+02      2.049179000000000E-01     -1.091328000000000E+02
4846000000.000000      7.268372000000000E-01     -1.291563000000000E+02      2.083435000000000E-01     -1.092344000000000E+02
4847000000.000000      7.346191000000000E-01     -1.292109000000000E+02      2.114029000000000E-01     -1.093672000000000E+02
4848000000.000000      7.439880000000000E-01     -1.293594000000000E+02      2.145691000000000E-01     -1.093633000000000E+02
4849000000.000000      7.510681000000000E-01     -1.295703000000000E+02      2.178421000000000E-01     -1.098828000000000E+02
4850000000.000000      7.589417000000000E-01     -1.294219000000000E+02      2.202225000000000E-01     -1.095586000000000E+02
4851000000.000000      7.673035000000000E-01     -1.294219000000000E+02      2.238770000000000E-01     -1.099766000000000E+02
4852000000.000000      7.749329000000000E-01     -1.294688000000000E+02      2.265549000000000E-01     -1.101055000000000E+02
4853000000.000000      7.831116000000000E-01     -1.294141000000000E+02      2.281799000000000E-01     -1.101797000000000E+02
4854000000.000000      7.918701000000000E-01     -1.293984000000000E+02      2.318115000000000E-01     -1.106016000000000E+02
4855000000.000000      7.980652000000000E-01     -1.294141000000000E+02      2.343292000000000E-01     -1.106875000000000E+02
4856000000.000000      8.064270000000000E-01     -1.293516000000000E+02      2.371216000000000E-01     -1.107539000000000E+02
4857000000.000000      8.152771000000000E-01     -1.293906000000000E+02      2.401810000000000E-01     -1.110859000000000E+02
4858000000.000000      8.193359000000000E-01     -1.293281000000000E+02      2.426605000000000E-01     -1.112539000000000E+02
4859000000.000000      8.289490000000000E-01     -1.293203000000000E+02      2.452316000000000E-01     -1.116523000000000E+02
4860000000.000000      8.363037000000000E-01     -1.292891000000000E+02      2.483139000000000E-01     -1.118476000000000E+02
4861000000.000000      8.451233000000000E-01     -1.291328000000000E+02      2.502441000000000E-01     -1.120625000000000E+02
4862000000.000000      8.490295000000000E-01     -1.290781000000000E+02      2.533722000000000E-01     -1.122344000000000E+02
4863000000.000000      8.585510000000000E-01     -1.290625000000000E+02      2.548523000000000E-01     -1.126563000000000E+02
4864000000.000000      8.664856000000000E-01     -1.290234000000000E+02      2.576904000000000E-01     -1.128516000000000E+02
4865000000.000000      8.714905000000000E-01     -1.289609000000000E+02      2.601624000000000E-01     -1.130937000000000E+02
4866000000.000000      8.786621000000000E-01     -1.288437000000000E+02      2.614441000000000E-01     -1.133711000000000E+02
4867000000.000000      8.857117000000000E-01     -1.287344000000000E+02      2.639160000000000E-01     -1.136719000000000E+02
4868000000.000000      8.929443000000000E-01     -1.287578000000000E+02      2.664642000000000E-01     -1.139258000000000E+02
4869000000.000000      8.992310000000000E-01     -1.286016000000000E+02      2.680359000000000E-01     -1.143242000000000E+02
4870000000.000000      9.054565000000000E-01     -1.285391000000000E+02      2.704163000000000E-01     -1.142695000000000E+02
4871000000.000000      9.124146000000000E-01     -1.285156000000000E+02      2.724152000000000E-01     -1.148047000000000E+02
4872000000.000000      9.181824000000000E-01     -1.283906000000000E+02      2.735138000000000E-01     -1.149726000000000E+02
4873000000.000000      9.220886000000000E-01     -1.282500000000000E+02      2.755280000000000E-01     -1.153750000000000E+02
4874000000.000000      9.284668000000000E-01     -1.281172000000000E+02      2.778625000000000E-01     -1.155898000000000E+02
4875000000.000000      9.362183000000000E-01     -1.281797000000000E+02      2.792358000000000E-01     -1.158320000000000E+02
4876000000.000000      9.384460000000000E-01     -1.280469000000000E+02      2.812653000000000E-01     -1.162500000000000E+02
4877000000.000000      9.449768000000000E-01     -1.278789000000000E+02      2.830048000000000E-01     -1.165273000000000E+02
4878000000.000000      9.461365000000000E-01     -1.277305000000000E+02      2.854919000000000E-01     -1.167461000000000E+02
4879000000.000000      9.535522000000000E-01     -1.277305000000000E+02      2.858887000000000E-01     -1.169297000000000E+02
4880000000.000000      9.552002000000000E-01     -1.275625000000000E+02      2.877350000000000E-01     -1.173476000000000E+02
4881000000.000000      9.628906000000000E-01     -1.273242000000000E+02      2.897644000000000E-01     -1.174062000000000E+02
4882000000.000000      9.616089000000000E-01     -1.272773000000000E+02      2.911377000000000E-01     -1.178437000000000E+02
4883000000.000000      9.645996000000000E-01     -1.270313000000000E+02      2.922363000000000E-01     -1.179922000000000E+02
4884000000.000000      9.700317000000000E-01     -1.270508000000000E+02      2.939758000000000E-01     -1.182695000000000E+02
4885000000.000000      9.744568000000000E-01     -1.269375000000000E+02      2.957916000000000E-01     -1.184375000000000E+02
4886000000.000000      9.749756000000000E-01     -1.267070000000000E+02      2.967072000000000E-01     -1.186758000000000E+02
4887000000.000000      9.774780000000000E-01     -1.265469000000000E+02      2.988281000000000E-01     -1.189805000000000E+02
4888000000.000000      9.796143000000000E-01     -1.263555000000000E+02      3.006897000000000E-01     -1.190781000000000E+02
4889000000.000000      9.822083000000000E-01     -1.261953000000000E+02      3.015900000000000E-01     -1.192695000000000E+02
4890000000.000000      9.807129000000000E-01     -1.259219000000000E+02      3.019562000000000E-01     -1.195586000000000E+02
4891000000.000000      9.814148000000000E-01     -1.259375000000000E+02      3.029633000000000E-01     -1.199062000000000E+02
4892000000.000000      9.845886000000000E-01     -1.256680000000000E+02      3.052216000000000E-01     -1.198672000000000E+02
4893000000.000000      9.862976000000000E-01     -1.255937000000000E+02      3.063202000000000E-01     -1.202695000000000E+02
4894000000.000000      9.848938000000000E-01     -1.253203000000000E+02      3.075562000000000E-01     -1.205469000000000E+02
4895000000.000000      9.839783000000000E-01     -1.249414000000000E+02      3.091431000000000E-01     -1.205820000000000E+02
4896000000.000000      9.842529000000000E-01     -1.247773000000000E+02      3.105011000000000E-01     -1.207422000000000E+02
4897000000.000000      9.854736000000000E-01     -1.246172000000000E+02      3.125153000000000E-01     -1.210820000000000E+02
4898000000.000000      9.851074000000000E-01     -1.244297000000000E+02      3.134460000000000E-01     -1.211641000000000E+02
4899000000.000000      9.850769000000000E-01     -1.241914000000000E+02      3.152771000000000E-01     -1.215000000000000E+02
4900000000.000000      9.848633000000000E-01     -1.239844000000000E+02      3.166504000000000E-01     -1.215430000000000E+02
4901000000.000000      9.833374000000000E-01     -1.236406000000000E+02      3.186493000000000E-01     -1.216640000000000E+02
4902000000.000000      9.811707000000000E-01     -1.236172000000000E+02      3.203278000000000E-01     -1.219141000000000E+02
4903000000.000000      9.809265000000000E-01     -1.232109000000000E+02      3.213501000000000E-01     -1.220664000000000E+02
4904000000.000000      9.793396000000000E-01     -1.227773000000000E+02      3.227234000000000E-01     -1.222500000000000E+02
4905000000.000000      9.793396000000000E-01     -1.226172000000000E+02      3.249054000000000E-01     -1.225469000000000E+02
4906000000.000000      9.771423000000000E-01     -1.222422000000000E+02      3.265076000000000E-01     -1.223281000000000E+02
4907000000.000000      9.743652000000000E-01     -1.220898000000000E+02      3.282318000000000E-01     -1.228320000000000E+02
4908000000.000000      9.727478000000000E-01     -1.219023000000000E+02      3.301697000000000E-01     -1.231562000000000E+02
4909000000.000000      9.735107000000000E-01     -1.215000000000000E+02      3.317413000000000E-01     -1.232305000000000E+02
4910000000.000000      9.678955000000000E-01     -1.212656000000000E+02      3.334198000000000E-01     -1.235430000000000E+02
4911000000.000000      9.693298000000000E-01     -1.209570000000000E+02      3.355865000000000E-01     -1.236601000000000E+02
4912000000.000000      9.682312000000000E-01     -1.206211000000000E+02      3.375244000000000E-01     -1.239258000000000E+02
4913000000.000000      9.638977000000000E-01     -1.203086000000000E+02      3.394775000000000E-01     -1.239844000000000E+02
4914000000.000000      9.637756000000000E-01     -1.200469000000000E+02      3.405304000000000E-01     -1.242188000000000E+02
4915000000.000000      9.597168000000000E-01     -1.198242000000000E+02      3.423004000000000E-01     -1.246250000000000E+02
4916000000.000000      9.586487000000000E-01     -1.194102000000000E+02      3.448029000000000E-01     -1.250234000000000E+02
4917000000.000000      9.554138000000000E-01     -1.191172000000000E+02      3.465881000000000E-01     -1.249805000000000E+02
4918000000.000000      9.551086000000000E-01     -1.189023000000000E+02      3.479004000000000E-01     -1.253789000000000E+02
4919000000.000000      9.512024000000000E-01     -1.185234000000000E+02      3.508301000000000E-01     -1.254102000000000E+02
4920000000.000000      9.504700000000000E-01     -1.183906000000000E+02      3.517456000000000E-01     -1.259141000000000E+02
4921000000.000000      9.472046000000000E-01     -1.180781000000000E+02      3.552551000000000E-01     -1.261680000000000E+02
4922000000.000000      9.451294000000000E-01     -1.177812000000000E+02      3.562317000000000E-01     -1.262422000000000E+02
4923000000.000000      9.418335000000000E-01     -1.174531000000000E+02      3.576508000000000E-01     -1.266328000000000E+02
4924000000.000000      9.422607000000000E-01     -1.171914000000000E+02      3.601532000000000E-01     -1.268906000000000E+02
4925000000.000000      9.385986000000000E-01     -1.168594000000000E+02      3.624268000000000E-01     -1.270742000000000E+02
4926000000.000000      9.372559000000000E-01     -1.166719000000000E+02      3.645630000000000E-01     -1.276601000000000E+02
4927000000.000000      9.335327000000000E-01     -1.163789000000000E+02      3.654022000000000E-01     -1.277851000000000E+02
4928000000.000000      9.324951000000000E-01     -1.161211000000000E+02      3.683014000000000E-01     -1.281484000000000E+02
4929000000.000000      9.293518000000000E-01     -1.158945000000000E+02      3.694000000000000E-01     -1.283281000000000E+02
4930000000.000000      9.279480000000000E-01     -1.156445000000000E+02      3.724060000000000E-01     -1.287812000000000E+02
4931000000.000000      9.229126000000000E-01     -1.154844000000000E+02      3.743896000000000E-01     -1.290703000000000E+02
4932000000.000000      9.204407000000000E-01     -1.152695000000000E+02      3.761749000000000E-01     -1.294609000000000E+02
4933000000.000000      9.192200000000000E-01     -1.151601000000000E+02      3.773651000000000E-01     -1.296250000000000E+02
4934000000.000000      9.172363000000000E-01     -1.150312000000000E+02      3.794556000000000E-01     -1.302031000000000E+02
4935000000.000000      9.117737000000000E-01     -1.146562000000000E+02      3.821564000000000E-01     -1.302969000000000E+02
4936000000.000000      9.121094000000000E-01     -1.146953000000000E+02      3.839264000000000E-01     -1.308047000000000E+02
4937000000.000000      9.108887000000000E-01     -1.143789000000000E+02      3.850708000000000E-01     -1.311953000000000E+02
4938000000.000000      9.064941000000000E-01     -1.142578000000000E+02      3.874207000000000E-01     -1.315469000000000E+02
4939000000.000000      9.043274000000000E-01     -1.140859000000000E+02      3.907623000000000E-01     -1.318906000000000E+02
4940000000.000000      9.027710000000000E-01     -1.140430000000000E+02      3.917999000000000E-01     -1.322578000000000E+02
4941000000.000000      8.992004000000000E-01     -1.139648000000000E+02      3.941193000000000E-01     -1.327188000000000E+02
4942000000.000000      8.948975000000000E-01     -1.138828000000000E+02      3.968506000000000E-01     -1.331328000000000E+02
4943000000.000000      8.935852000000000E-01     -1.138477000000000E+02      3.981018000000000E-01     -1.335859000000000E+02
4944000000.000000      8.919373000000000E-01     -1.136914000000000E+02      4.011993000000000E-01     -1.339453000000000E+02
4945000000.000000      8.871765000000000E-01     -1.135117000000000E+02      4.019012000000000E-01     -1.344063000000000E+02
4946000000.000000      8.842773000000000E-01     -1.135390000000000E+02      4.036560000000000E-01     -1.346250000000000E+02
4947000000.000000      8.841858000000000E-01     -1.135039000000000E+02      4.052277000000000E-01     -1.351563000000000E+02
4948000000.000000      8.785095000000000E-01     -1.136445000000000E+02      4.077148000000000E-01     -1.356328000000000E+02
4949000000.000000      8.755188000000000E-01     -1.134922000000000E+02      4.100952000000000E-01     -1.357812000000000E+02
4950000000.000000      8.727722000000000E-01     -1.137031000000000E+02      4.112854000000000E-01     -1.365313000000000E+02
4951000000.000000      8.689880000000000E-01     -1.134922000000000E+02      4.131165000000000E-01     -1.369141000000000E+02
4952000000.000000      8.680725000000000E-01     -1.135664000000000E+02      4.151001000000000E-01     -1.373437000000000E+02
4953000000.000000      8.636169000000000E-01     -1.136172000000000E+02      4.173737000000000E-01     -1.376562000000000E+02
4954000000.000000      8.594971000000000E-01     -1.138047000000000E+02      4.188843000000000E-01     -1.383437000000000E+02
