! Network Analyzer HP8722D
! Hewlett-Packard
! Data name: Linha & Wilkinson
! Saver's name: Rodrigo Anjos
! Comments: Teste da utilização de aquisição
continua pelo VNA HP8722D
! Time and date: 21/5/2025 17:07
!              Frequency                     S11                                                   S21                                                   S12                                                   S22
# HZ  S  MA R 50
4800000000.000000      5.388184000000000E-01     -1.086016000000000E+02      1.175613000000000E-01     -1.528437000000000E+02
4801000000.000000      5.393982000000000E-01     -1.093203000000000E+02      1.156044000000000E-01     -1.508437000000000E+02
4802000000.000000      5.374146000000000E-01     -1.101289000000000E+02      1.143951000000000E-01     -1.492031000000000E+02
4803000000.000000      5.395508000000000E-01     -1.108906000000000E+02      1.133995000000000E-01     -1.476250000000000E+02
4804000000.000000      5.382690000000000E-01     -1.114687000000000E+02      1.122551000000000E-01     -1.455469000000000E+02
4805000000.000000      5.382385000000000E-01     -1.120703000000000E+02      1.119461000000000E-01     -1.436406000000000E+02
4806000000.000000      5.384827000000000E-01     -1.126133000000000E+02      1.115112000000000E-01     -1.416406000000000E+02
4807000000.000000      5.396729000000000E-01     -1.133789000000000E+02      1.110191000000000E-01     -1.397656000000000E+02
4808000000.000000      5.419006000000000E-01     -1.139414000000000E+02      1.118050000000000E-01     -1.379062000000000E+02
4809000000.000000      5.417480000000000E-01     -1.148008000000000E+02      1.118240000000000E-01     -1.360625000000000E+02
4810000000.000000      5.443115000000000E-01     -1.155234000000000E+02      1.126823000000000E-01     -1.337969000000000E+02
4811000000.000000      5.444336000000000E-01     -1.160781000000000E+02      1.139107000000000E-01     -1.323437000000000E+02
4812000000.000000      5.481873000000000E-01     -1.165937000000000E+02      1.146088000000000E-01     -1.305547000000000E+02
4813000000.000000      5.497742000000000E-01     -1.173828000000000E+02      1.162148000000000E-01     -1.287109000000000E+02
4814000000.000000      5.525208000000000E-01     -1.182344000000000E+02      1.174622000000000E-01     -1.271758000000000E+02
4815000000.000000      5.535889000000000E-01     -1.186250000000000E+02      1.187096000000000E-01     -1.257227000000000E+02
4816000000.000000      5.556641000000000E-01     -1.191914000000000E+02      1.209259000000000E-01     -1.239922000000000E+02
4817000000.000000      5.612183000000000E-01     -1.196953000000000E+02      1.227531000000000E-01     -1.227656000000000E+02
4818000000.000000      5.632935000000000E-01     -1.205000000000000E+02      1.249504000000000E-01     -1.214844000000000E+02
4819000000.000000      5.657959000000000E-01     -1.210234000000000E+02      1.272202000000000E-01     -1.200469000000000E+02
4820000000.000000      5.688477000000000E-01     -1.216680000000000E+02      1.299667000000000E-01     -1.188477000000000E+02
4821000000.000000      5.732117000000000E-01     -1.220430000000000E+02      1.324463000000000E-01     -1.180039000000000E+02
4822000000.000000      5.789185000000000E-01     -1.224687000000000E+02      1.350174000000000E-01     -1.167461000000000E+02
4823000000.000000      5.828552000000000E-01     -1.230156000000000E+02      1.371613000000000E-01     -1.159180000000000E+02
4824000000.000000      5.879822000000000E-01     -1.235547000000000E+02      1.402969000000000E-01     -1.151289000000000E+02
4825000000.000000      5.910034000000000E-01     -1.241406000000000E+02      1.429825000000000E-01     -1.143789000000000E+02
4826000000.000000      5.968323000000000E-01     -1.244648000000000E+02      1.460190000000000E-01     -1.135586000000000E+02
4827000000.000000      6.029663000000000E-01     -1.247344000000000E+02      1.488113000000000E-01     -1.128125000000000E+02
4828000000.000000      6.081848000000000E-01     -1.252500000000000E+02      1.524429000000000E-01     -1.123867000000000E+02
4829000000.000000      6.118469000000000E-01     -1.256523000000000E+02      1.547165000000000E-01     -1.120195000000000E+02
4830000000.000000      6.192017000000000E-01     -1.259492000000000E+02      1.581497000000000E-01     -1.115742000000000E+02
4831000000.000000      6.215210000000000E-01     -1.264336000000000E+02      1.609497000000000E-01     -1.112266000000000E+02
4832000000.000000      6.317444000000000E-01     -1.267383000000000E+02      1.642075000000000E-01     -1.107109000000000E+02
4833000000.000000      6.373291000000000E-01     -1.269805000000000E+02      1.675415000000000E-01     -1.102578000000000E+02
4834000000.000000      6.419678000000000E-01     -1.273633000000000E+02      1.706696000000000E-01     -1.100508000000000E+02
4835000000.000000      6.484985000000000E-01     -1.275859000000000E+02      1.738968000000000E-01     -1.098164000000000E+02
4836000000.000000      6.563110000000000E-01     -1.275898000000000E+02      1.776047000000000E-01     -1.093828000000000E+02
4837000000.000000      6.626587000000000E-01     -1.277851000000000E+02      1.802826000000000E-01     -1.098242000000000E+02
4838000000.000000      6.706543000000000E-01     -1.282578000000000E+02      1.837845000000000E-01     -1.092500000000000E+02
4839000000.000000      6.786499000000000E-01     -1.283359000000000E+02      1.859970000000000E-01     -1.092266000000000E+02
4840000000.000000      6.830444000000000E-01     -1.286328000000000E+02      1.897888000000000E-01     -1.091953000000000E+02
4841000000.000000      6.916809000000000E-01     -1.288828000000000E+02      1.933670000000000E-01     -1.092148000000000E+02
4842000000.000000      6.972961000000000E-01     -1.288125000000000E+02      1.961594000000000E-01     -1.091562000000000E+02
4843000000.000000      7.051086000000000E-01     -1.290078000000000E+02      1.994858000000000E-01     -1.092070000000000E+02
4844000000.000000      7.124634000000000E-01     -1.291094000000000E+02      2.022324000000000E-01     -1.093633000000000E+02
4845000000.000000      7.203064000000000E-01     -1.291484000000000E+02      2.048340000000000E-01     -1.092070000000000E+02
4846000000.000000      7.279663000000000E-01     -1.292031000000000E+02      2.083511000000000E-01     -1.092539000000000E+02
4847000000.000000      7.362976000000000E-01     -1.293125000000000E+02      2.113190000000000E-01     -1.093398000000000E+02
4848000000.000000      7.431335000000000E-01     -1.292422000000000E+02      2.139206000000000E-01     -1.092851000000000E+02
4849000000.000000      7.510681000000000E-01     -1.296250000000000E+02      2.175674000000000E-01     -1.095820000000000E+02
4850000000.000000      7.593079000000000E-01     -1.294297000000000E+02      2.200699000000000E-01     -1.096641000000000E+02
4851000000.000000      7.663879000000000E-01     -1.294766000000000E+02      2.236404000000000E-01     -1.098984000000000E+02
4852000000.000000      7.751465000000000E-01     -1.294609000000000E+02      2.263870000000000E-01     -1.100117000000000E+02
4853000000.000000      7.821350000000000E-01     -1.294766000000000E+02      2.286301000000000E-01     -1.102109000000000E+02
4854000000.000000      7.899170000000000E-01     -1.293672000000000E+02      2.315826000000000E-01     -1.105117000000000E+02
4855000000.000000      7.978210000000000E-01     -1.294062000000000E+02      2.342072000000000E-01     -1.105781000000000E+02
4856000000.000000      8.061523000000000E-01     -1.292266000000000E+02      2.368622000000000E-01     -1.107148000000000E+02
4857000000.000000      8.132019000000000E-01     -1.294062000000000E+02      2.402954000000000E-01     -1.111289000000000E+02
4858000000.000000      8.194885000000000E-01     -1.294141000000000E+02      2.424698000000000E-01     -1.113594000000000E+02
4859000000.000000      8.269653000000000E-01     -1.292187000000000E+02      2.446060000000000E-01     -1.116367000000000E+02
4860000000.000000      8.363342000000000E-01     -1.292500000000000E+02      2.478867000000000E-01     -1.116758000000000E+02
4861000000.000000      8.439026000000000E-01     -1.291563000000000E+02      2.503815000000000E-01     -1.120781000000000E+02
4862000000.000000      8.523865000000000E-01     -1.291016000000000E+02      2.529297000000000E-01     -1.122305000000000E+02
4863000000.000000      8.572693000000000E-01     -1.290625000000000E+02      2.548523000000000E-01     -1.126328000000000E+02
4864000000.000000      8.668213000000000E-01     -1.289687000000000E+02      2.575226000000000E-01     -1.127695000000000E+02
4865000000.000000      8.733521000000000E-01     -1.290469000000000E+02      2.594910000000000E-01     -1.130937000000000E+02
4866000000.000000      8.783569000000000E-01     -1.289531000000000E+02      2.613678000000000E-01     -1.133164000000000E+02
4867000000.000000      8.858032000000000E-01     -1.287891000000000E+02      2.643585000000000E-01     -1.136211000000000E+02
4868000000.000000      8.926392000000000E-01     -1.286641000000000E+02      2.660675000000000E-01     -1.140664000000000E+02
4869000000.000000      8.966675000000000E-01     -1.286250000000000E+02      2.677917000000000E-01     -1.143242000000000E+02
4870000000.000000      9.046631000000000E-01     -1.285078000000000E+02      2.701263000000000E-01     -1.144180000000000E+02
4871000000.000000      9.128723000000000E-01     -1.285703000000000E+02      2.723541000000000E-01     -1.146719000000000E+02
4872000000.000000      9.183350000000000E-01     -1.283828000000000E+02      2.735443000000000E-01     -1.149648000000000E+02
4873000000.000000      9.230652000000000E-01     -1.282656000000000E+02      2.756958000000000E-01     -1.152695000000000E+02
4874000000.000000      9.283142000000000E-01     -1.281641000000000E+02      2.772369000000000E-01     -1.155195000000000E+02
4875000000.000000      9.358826000000000E-01     -1.281406000000000E+02      2.792358000000000E-01     -1.158594000000000E+02
4876000000.000000      9.392700000000000E-01     -1.280313000000000E+02      2.814178000000000E-01     -1.162695000000000E+02
4877000000.000000      9.422913000000000E-01     -1.278867000000000E+02      2.826233000000000E-01     -1.163398000000000E+02
4878000000.000000      9.489746000000000E-01     -1.276601000000000E+02      2.848816000000000E-01     -1.167031000000000E+02
4879000000.000000      9.547729000000000E-01     -1.276914000000000E+02      2.860260000000000E-01     -1.169023000000000E+02
4880000000.000000      9.573364000000000E-01     -1.275898000000000E+02      2.880096000000000E-01     -1.173476000000000E+02
4881000000.000000      9.619446000000000E-01     -1.273750000000000E+02      2.898560000000000E-01     -1.174414000000000E+02
4882000000.000000      9.636841000000000E-01     -1.272578000000000E+02      2.910461000000000E-01     -1.178242000000000E+02
4883000000.000000      9.651794000000000E-01     -1.271797000000000E+02      2.921600000000000E-01     -1.179570000000000E+02
4884000000.000000      9.708862000000000E-01     -1.270586000000000E+02      2.938232000000000E-01     -1.183711000000000E+02
4885000000.000000      9.738464000000000E-01     -1.270195000000000E+02      2.956238000000000E-01     -1.184570000000000E+02
4886000000.000000      9.761047000000000E-01     -1.267031000000000E+02      2.967987000000000E-01     -1.185508000000000E+02
4887000000.000000      9.770813000000000E-01     -1.266250000000000E+02      2.987671000000000E-01     -1.189844000000000E+02
4888000000.000000      9.791260000000000E-01     -1.263398000000000E+02      2.998657000000000E-01     -1.190742000000000E+02
4889000000.000000      9.827881000000000E-01     -1.261875000000000E+02      3.011475000000000E-01     -1.193086000000000E+02
4890000000.000000      9.813232000000000E-01     -1.258086000000000E+02      3.021240000000000E-01     -1.196289000000000E+02
4891000000.000000      9.802856000000000E-01     -1.259453000000000E+02      3.031769000000000E-01     -1.199023000000000E+02
4892000000.000000      9.855957000000000E-01     -1.256445000000000E+02      3.049622000000000E-01     -1.198633000000000E+02
4893000000.000000      9.869995000000000E-01     -1.255039000000000E+02      3.068085000000000E-01     -1.202344000000000E+02
4894000000.000000      9.850464000000000E-01     -1.251992000000000E+02      3.075104000000000E-01     -1.204414000000000E+02
4895000000.000000      9.826050000000000E-01     -1.249492000000000E+02      3.098297000000000E-01     -1.205273000000000E+02
4896000000.000000      9.834595000000000E-01     -1.248672000000000E+02      3.107147000000000E-01     -1.207265000000000E+02
4897000000.000000      9.865417000000000E-01     -1.246094000000000E+02      3.123474000000000E-01     -1.210234000000000E+02
4898000000.000000      9.860840000000000E-01     -1.243164000000000E+02      3.139648000000000E-01     -1.210352000000000E+02
4899000000.000000      9.839172000000000E-01     -1.241953000000000E+02      3.150940000000000E-01     -1.216289000000000E+02
4900000000.000000      9.851074000000000E-01     -1.239414000000000E+02      3.164673000000000E-01     -1.215586000000000E+02
4901000000.000000      9.845581000000000E-01     -1.235547000000000E+02      3.180542000000000E-01     -1.216055000000000E+02
4902000000.000000      9.824219000000000E-01     -1.234336000000000E+02      3.201447000000000E-01     -1.218828000000000E+02
4903000000.000000      9.817505000000000E-01     -1.231602000000000E+02      3.209076000000000E-01     -1.220313000000000E+02
4904000000.000000      9.810791000000000E-01     -1.227187000000000E+02      3.223419000000000E-01     -1.221328000000000E+02
4905000000.000000      9.773254000000000E-01     -1.225742000000000E+02      3.244476000000000E-01     -1.224609000000000E+02
4906000000.000000      9.774170000000000E-01     -1.222500000000000E+02      3.266296000000000E-01     -1.222500000000000E+02
4907000000.000000      9.748535000000000E-01     -1.219648000000000E+02      3.284912000000000E-01     -1.228398000000000E+02
4908000000.000000      9.738159000000000E-01     -1.218711000000000E+02      3.306122000000000E-01     -1.231758000000000E+02
4909000000.000000      9.729309000000000E-01     -1.214883000000000E+02      3.320923000000000E-01     -1.232461000000000E+02
4910000000.000000      9.693298000000000E-01     -1.212930000000000E+02      3.333740000000000E-01     -1.234297000000000E+02
4911000000.000000      9.671936000000000E-01     -1.209258000000000E+02      3.354950000000000E-01     -1.236836000000000E+02
4912000000.000000      9.677429000000000E-01     -1.206641000000000E+02      3.370667000000000E-01     -1.239258000000000E+02
4913000000.000000      9.638977000000000E-01     -1.201680000000000E+02      3.392639000000000E-01     -1.240977000000000E+02
4914000000.000000      9.612122000000000E-01     -1.199922000000000E+02      3.407440000000000E-01     -1.241758000000000E+02
4915000000.000000      9.601440000000000E-01     -1.197305000000000E+02      3.425598000000000E-01     -1.245586000000000E+02
4916000000.000000      9.578857000000000E-01     -1.194180000000000E+02      3.444366000000000E-01     -1.249101000000000E+02
4917000000.000000      9.536133000000000E-01     -1.190664000000000E+02      3.466339000000000E-01     -1.249023000000000E+02
4918000000.000000      9.560242000000000E-01     -1.189180000000000E+02      3.479309000000000E-01     -1.253867000000000E+02
4919000000.000000      9.503479000000000E-01     -1.184766000000000E+02      3.508606000000000E-01     -1.254140000000000E+02
4920000000.000000      9.492188000000000E-01     -1.182461000000000E+02      3.518219000000000E-01     -1.259141000000000E+02
4921000000.000000      9.472961000000000E-01     -1.180195000000000E+02      3.547363000000000E-01     -1.260508000000000E+02
4922000000.000000      9.435425000000000E-01     -1.176523000000000E+02      3.558044000000000E-01     -1.262812000000000E+02
4923000000.000000      9.429016000000000E-01     -1.174531000000000E+02      3.578949000000000E-01     -1.265117000000000E+02
4924000000.000000      9.426270000000000E-01     -1.170313000000000E+02      3.601379000000000E-01     -1.269023000000000E+02
4925000000.000000      9.381104000000000E-01     -1.168906000000000E+02      3.626862000000000E-01     -1.271211000000000E+02
4926000000.000000      9.360352000000000E-01     -1.166758000000000E+02      3.643494000000000E-01     -1.274844000000000E+02
4927000000.000000      9.346313000000000E-01     -1.164531000000000E+02      3.658295000000000E-01     -1.277305000000000E+02
4928000000.000000      9.319458000000000E-01     -1.161094000000000E+02      3.678894000000000E-01     -1.280156000000000E+02
4929000000.000000      9.295044000000000E-01     -1.159141000000000E+02      3.693237000000000E-01     -1.282656000000000E+02
4930000000.000000      9.263611000000000E-01     -1.155781000000000E+02      3.717957000000000E-01     -1.287109000000000E+02
4931000000.000000      9.247131000000000E-01     -1.154805000000000E+02      3.752289000000000E-01     -1.289609000000000E+02
4932000000.000000      9.213562000000000E-01     -1.153359000000000E+02      3.768463000000000E-01     -1.294766000000000E+02
4933000000.000000      9.189148000000000E-01     -1.150781000000000E+02      3.774414000000000E-01     -1.296484000000000E+02
4934000000.000000      9.172668000000000E-01     -1.149336000000000E+02      3.800354000000000E-01     -1.302187000000000E+02
4935000000.000000      9.126892000000000E-01     -1.146328000000000E+02      3.826141000000000E-01     -1.302969000000000E+02
4936000000.000000      9.086914000000000E-01     -1.145820000000000E+02      3.840027000000000E-01     -1.308984000000000E+02
4937000000.000000      9.097900000000000E-01     -1.143476000000000E+02      3.858948000000000E-01     -1.311406000000000E+02
4938000000.000000      9.062195000000000E-01     -1.143437000000000E+02      3.881531000000000E-01     -1.314219000000000E+02
4939000000.000000      9.029846000000000E-01     -1.139961000000000E+02      3.906860000000000E-01     -1.319609000000000E+02
4940000000.000000      9.007568000000000E-01     -1.140312000000000E+02      3.918610000000000E-01     -1.323594000000000E+02
4941000000.000000      8.996887000000000E-01     -1.139258000000000E+02      3.940277000000000E-01     -1.326562000000000E+02
4942000000.000000      8.949280000000000E-01     -1.137852000000000E+02      3.963013000000000E-01     -1.330469000000000E+02
4943000000.000000      8.937683000000000E-01     -1.137226000000000E+02      3.983002000000000E-01     -1.334766000000000E+02
4944000000.000000      8.914185000000000E-01     -1.135625000000000E+02      4.002380000000000E-01     -1.337891000000000E+02
4945000000.000000      8.873901000000000E-01     -1.135352000000000E+02      4.012756000000000E-01     -1.341875000000000E+02
4946000000.000000      8.854980000000000E-01     -1.135898000000000E+02      4.037476000000000E-01     -1.347188000000000E+02
4947000000.000000      8.824463000000000E-01     -1.133906000000000E+02      4.051208000000000E-01     -1.350859000000000E+02
4948000000.000000      8.806458000000000E-01     -1.136289000000000E+02      4.078522000000000E-01     -1.356719000000000E+02
4949000000.000000      8.743286000000000E-01     -1.134414000000000E+02      4.100952000000000E-01     -1.357891000000000E+02
4950000000.000000      8.733215000000000E-01     -1.134883000000000E+02      4.111176000000000E-01     -1.364141000000000E+02
4951000000.000000      8.695068000000000E-01     -1.134492000000000E+02      4.133453000000000E-01     -1.368594000000000E+02
4952000000.000000      8.679504000000000E-01     -1.135938000000000E+02      4.150238000000000E-01     -1.373828000000000E+02
4953000000.000000      8.637695000000000E-01     -1.135898000000000E+02      4.173889000000000E-01     -1.375781000000000E+02
4954000000.000000      8.585205000000000E-01     -1.138398000000000E+02      4.188690000000000E-01     -1.384063000000000E+02
