! Network Analyzer HP8722D
! Hewlett-Packard
! Data name: Linha & Wilkinson
! Saver's name: Rodrigo Anjos
! Comments: Teste da utilização de aquisição
continua pelo VNA HP8722D
! Time and date: 21/5/2025 17:14
!              Frequency                     S11                                                   S21                                                   S12                                                   S22
# HZ  S  MA R 50
4800000000.000000      5.393982000000000E-01     -1.089101000000000E+02      1.171494000000000E-01     -1.529375000000000E+02
4801000000.000000      5.402832000000000E-01     -1.094062000000000E+02      1.157722000000000E-01     -1.509844000000000E+02
4802000000.000000      5.382080000000000E-01     -1.101133000000000E+02      1.139526000000000E-01     -1.493438000000000E+02
4803000000.000000      5.388794000000000E-01     -1.107891000000000E+02      1.135483000000000E-01     -1.474297000000000E+02
4804000000.000000      5.373230000000000E-01     -1.114219000000000E+02      1.124802000000000E-01     -1.456719000000000E+02
4805000000.000000      5.403442000000000E-01     -1.122187000000000E+02      1.119614000000000E-01     -1.436719000000000E+02
4806000000.000000      5.387268000000000E-01     -1.126680000000000E+02      1.111336000000000E-01     -1.417969000000000E+02
4807000000.000000      5.407410000000000E-01     -1.133516000000000E+02      1.112595000000000E-01     -1.400859000000000E+02
4808000000.000000      5.418396000000000E-01     -1.140039000000000E+02      1.115608000000000E-01     -1.378359000000000E+02
4809000000.000000      5.419006000000000E-01     -1.146719000000000E+02      1.119232000000000E-01     -1.362578000000000E+02
4810000000.000000      5.434570000000000E-01     -1.154726000000000E+02      1.126518000000000E-01     -1.340391000000000E+02
4811000000.000000      5.453796000000000E-01     -1.160586000000000E+02      1.134987000000000E-01     -1.323125000000000E+02
4812000000.000000      5.485535000000000E-01     -1.167344000000000E+02      1.146317000000000E-01     -1.306094000000000E+02
4813000000.000000      5.494080000000000E-01     -1.173476000000000E+02      1.157799000000000E-01     -1.288047000000000E+02
4814000000.000000      5.526733000000000E-01     -1.181719000000000E+02      1.170464000000000E-01     -1.272070000000000E+02
4815000000.000000      5.541992000000000E-01     -1.186523000000000E+02      1.188660000000000E-01     -1.256445000000000E+02
4816000000.000000      5.558472000000000E-01     -1.190469000000000E+02      1.207962000000000E-01     -1.240312000000000E+02
4817000000.000000      5.594482000000000E-01     -1.196758000000000E+02      1.227837000000000E-01     -1.227344000000000E+02
4818000000.000000      5.625916000000000E-01     -1.205586000000000E+02      1.245232000000000E-01     -1.214726000000000E+02
4819000000.000000      5.670166000000000E-01     -1.210312000000000E+02      1.270370000000000E-01     -1.202070000000000E+02
4820000000.000000      5.692139000000000E-01     -1.215039000000000E+02      1.293106000000000E-01     -1.189805000000000E+02
4821000000.000000      5.736694000000000E-01     -1.221133000000000E+02      1.318512000000000E-01     -1.179688000000000E+02
4822000000.000000      5.802612000000000E-01     -1.226875000000000E+02      1.347580000000000E-01     -1.168555000000000E+02
4823000000.000000      5.822144000000000E-01     -1.230469000000000E+02      1.369705000000000E-01     -1.158242000000000E+02
4824000000.000000      5.881653000000000E-01     -1.236992000000000E+02      1.399231000000000E-01     -1.151680000000000E+02
4825000000.000000      5.922241000000000E-01     -1.241523000000000E+02      1.428604000000000E-01     -1.141719000000000E+02
4826000000.000000      5.960388000000000E-01     -1.246250000000000E+02      1.457977000000000E-01     -1.138398000000000E+02
4827000000.000000      6.032104000000000E-01     -1.248594000000000E+02      1.488571000000000E-01     -1.127422000000000E+02
4828000000.000000      6.092834000000000E-01     -1.252695000000000E+02      1.524811000000000E-01     -1.125039000000000E+02
4829000000.000000      6.107788000000000E-01     -1.257891000000000E+02      1.547623000000000E-01     -1.119609000000000E+02
4830000000.000000      6.175232000000000E-01     -1.260820000000000E+02      1.579895000000000E-01     -1.115859000000000E+02
4831000000.000000      6.228027000000000E-01     -1.264336000000000E+02      1.611710000000000E-01     -1.111445000000000E+02
4832000000.000000      6.310730000000000E-01     -1.266367000000000E+02      1.648254000000000E-01     -1.105156000000000E+02
4833000000.000000      6.376343000000000E-01     -1.270508000000000E+02      1.673660000000000E-01     -1.102617000000000E+02
4834000000.000000      6.433105000000000E-01     -1.273594000000000E+02      1.711349000000000E-01     -1.099570000000000E+02
4835000000.000000      6.486511000000000E-01     -1.274492000000000E+02      1.738586000000000E-01     -1.099180000000000E+02
4836000000.000000      6.571960000000000E-01     -1.277422000000000E+02      1.769180000000000E-01     -1.095547000000000E+02
4837000000.000000      6.640930000000000E-01     -1.279102000000000E+02      1.800842000000000E-01     -1.096953000000000E+02
4838000000.000000      6.706238000000000E-01     -1.281719000000000E+02      1.838760000000000E-01     -1.093047000000000E+02
4839000000.000000      6.781616000000000E-01     -1.282891000000000E+02      1.868134000000000E-01     -1.091445000000000E+02
4840000000.000000      6.831665000000000E-01     -1.286641000000000E+02      1.895828000000000E-01     -1.090977000000000E+02
4841000000.000000      6.901855000000000E-01     -1.287109000000000E+02      1.931076000000000E-01     -1.092695000000000E+02
4842000000.000000      6.983643000000000E-01     -1.287344000000000E+02      1.958923000000000E-01     -1.090664000000000E+02
4843000000.000000      7.073364000000000E-01     -1.290156000000000E+02      1.994324000000000E-01     -1.091758000000000E+02
4844000000.000000      7.111816000000000E-01     -1.290234000000000E+02      2.021484000000000E-01     -1.091406000000000E+02
4845000000.000000      7.195435000000000E-01     -1.291875000000000E+02      2.052002000000000E-01     -1.090508000000000E+02
4846000000.000000      7.287598000000000E-01     -1.291797000000000E+02      2.081833000000000E-01     -1.091875000000000E+02
4847000000.000000      7.370605000000000E-01     -1.293672000000000E+02      2.109833000000000E-01     -1.093945000000000E+02
4848000000.000000      7.432861000000000E-01     -1.292734000000000E+02      2.142410000000000E-01     -1.092851000000000E+02
4849000000.000000      7.506714000000000E-01     -1.295469000000000E+02      2.173767000000000E-01     -1.096133000000000E+02
4850000000.000000      7.596436000000000E-01     -1.293437000000000E+02      2.204208000000000E-01     -1.095625000000000E+02
4851000000.000000      7.684021000000000E-01     -1.293437000000000E+02      2.231522000000000E-01     -1.100078000000000E+02
4852000000.000000      7.763367000000000E-01     -1.294141000000000E+02      2.263412000000000E-01     -1.099805000000000E+02
4853000000.000000      7.837219000000000E-01     -1.295000000000000E+02      2.281952000000000E-01     -1.101523000000000E+02
4854000000.000000      7.921143000000000E-01     -1.293594000000000E+02      2.319183000000000E-01     -1.106367000000000E+02
4855000000.000000      7.966614000000000E-01     -1.293672000000000E+02      2.339706000000000E-01     -1.105820000000000E+02
4856000000.000000      8.078613000000000E-01     -1.292969000000000E+02      2.369080000000000E-01     -1.107539000000000E+02
4857000000.000000      8.140259000000000E-01     -1.294219000000000E+02      2.400360000000000E-01     -1.110078000000000E+02
4858000000.000000      8.187561000000000E-01     -1.293984000000000E+02      2.423706000000000E-01     -1.112773000000000E+02
4859000000.000000      8.294678000000000E-01     -1.293281000000000E+02      2.453003000000000E-01     -1.114922000000000E+02
4860000000.000000      8.374634000000000E-01     -1.291953000000000E+02      2.475967000000000E-01     -1.116719000000000E+02
4861000000.000000      8.440247000000000E-01     -1.291875000000000E+02      2.499161000000000E-01     -1.121172000000000E+02
4862000000.000000      8.501892000000000E-01     -1.290625000000000E+02      2.528992000000000E-01     -1.121992000000000E+02
4863000000.000000      8.598328000000000E-01     -1.289531000000000E+02      2.541504000000000E-01     -1.126445000000000E+02
4864000000.000000      8.660889000000000E-01     -1.289687000000000E+02      2.571106000000000E-01     -1.127070000000000E+02
4865000000.000000      8.719177000000000E-01     -1.289609000000000E+02      2.594299000000000E-01     -1.130195000000000E+02
4866000000.000000      8.789673000000000E-01     -1.288047000000000E+02      2.611084000000000E-01     -1.132969000000000E+02
4867000000.000000      8.863831000000000E-01     -1.287500000000000E+02      2.638245000000000E-01     -1.136211000000000E+02
4868000000.000000      8.944702000000000E-01     -1.287734000000000E+02      2.662506000000000E-01     -1.139766000000000E+02
4869000000.000000      8.980408000000000E-01     -1.286719000000000E+02      2.678986000000000E-01     -1.142695000000000E+02
4870000000.000000      9.059448000000000E-01     -1.285156000000000E+02      2.702332000000000E-01     -1.143828000000000E+02
4871000000.000000      9.122925000000000E-01     -1.284609000000000E+02      2.723846000000000E-01     -1.148125000000000E+02
4872000000.000000      9.163513000000000E-01     -1.282109000000000E+02      2.740173000000000E-01     -1.148281000000000E+02
4873000000.000000      9.226379000000000E-01     -1.281172000000000E+02      2.756653000000000E-01     -1.153086000000000E+02
4874000000.000000      9.283142000000000E-01     -1.281563000000000E+02      2.772827000000000E-01     -1.156250000000000E+02
4875000000.000000      9.346924000000000E-01     -1.281563000000000E+02      2.792816000000000E-01     -1.158320000000000E+02
4876000000.000000      9.377136000000000E-01     -1.279531000000000E+02      2.811279000000000E-01     -1.162695000000000E+02
4877000000.000000      9.432678000000000E-01     -1.278398000000000E+02      2.825012000000000E-01     -1.164336000000000E+02
4878000000.000000      9.483032000000000E-01     -1.277148000000000E+02      2.850342000000000E-01     -1.165625000000000E+02
4879000000.000000      9.535217000000000E-01     -1.277266000000000E+02      2.854309000000000E-01     -1.168555000000000E+02
4880000000.000000      9.565735000000000E-01     -1.275977000000000E+02      2.880707000000000E-01     -1.173164000000000E+02
4881000000.000000      9.610291000000000E-01     -1.273047000000000E+02      2.896576000000000E-01     -1.172930000000000E+02
4882000000.000000      9.620972000000000E-01     -1.273047000000000E+02      2.910767000000000E-01     -1.177812000000000E+02
4883000000.000000      9.632568000000000E-01     -1.269844000000000E+02      2.921600000000000E-01     -1.180234000000000E+02
4884000000.000000      9.690247000000000E-01     -1.270547000000000E+02      2.939758000000000E-01     -1.183516000000000E+02
4885000000.000000      9.721985000000000E-01     -1.269375000000000E+02      2.955017000000000E-01     -1.183828000000000E+02
4886000000.000000      9.747009000000000E-01     -1.265703000000000E+02      2.967987000000000E-01     -1.185312000000000E+02
4887000000.000000      9.779053000000000E-01     -1.264844000000000E+02      2.990875000000000E-01     -1.188750000000000E+02
4888000000.000000      9.780884000000000E-01     -1.262656000000000E+02      3.000031000000000E-01     -1.190898000000000E+02
4889000000.000000      9.813843000000000E-01     -1.261484000000000E+02      3.015289000000000E-01     -1.192461000000000E+02
4890000000.000000      9.821167000000000E-01     -1.259219000000000E+02      3.021698000000000E-01     -1.196562000000000E+02
4891000000.000000      9.819031000000000E-01     -1.258828000000000E+02      3.026123000000000E-01     -1.198476000000000E+02
4892000000.000000      9.836731000000000E-01     -1.257148000000000E+02      3.055573000000000E-01     -1.197656000000000E+02
4893000000.000000      9.879456000000000E-01     -1.255664000000000E+02      3.063965000000000E-01     -1.202578000000000E+02
4894000000.000000      9.852905000000000E-01     -1.252148000000000E+02      3.077545000000000E-01     -1.204570000000000E+02
4895000000.000000      9.836121000000000E-01     -1.249766000000000E+02      3.094940000000000E-01     -1.204844000000000E+02
4896000000.000000      9.840393000000000E-01     -1.247578000000000E+02      3.107758000000000E-01     -1.207422000000000E+02
4897000000.000000      9.864197000000000E-01     -1.245391000000000E+02      3.119049000000000E-01     -1.209180000000000E+02
4898000000.000000      9.842834000000000E-01     -1.243203000000000E+02      3.134918000000000E-01     -1.210430000000000E+02
4899000000.000000      9.840393000000000E-01     -1.242109000000000E+02      3.154449000000000E-01     -1.214219000000000E+02
4900000000.000000      9.844055000000000E-01     -1.240469000000000E+02      3.164520000000000E-01     -1.214453000000000E+02
4901000000.000000      9.832764000000000E-01     -1.236367000000000E+02      3.182678000000000E-01     -1.216562000000000E+02
4902000000.000000      9.821472000000000E-01     -1.235117000000000E+02      3.204498000000000E-01     -1.219023000000000E+02
4903000000.000000      9.816589000000000E-01     -1.230781000000000E+02      3.212128000000000E-01     -1.219648000000000E+02
4904000000.000000      9.797363000000000E-01     -1.226953000000000E+02      3.224030000000000E-01     -1.221914000000000E+02
4905000000.000000      9.783630000000000E-01     -1.225820000000000E+02      3.250427000000000E-01     -1.224766000000000E+02
4906000000.000000      9.759521000000000E-01     -1.221133000000000E+02      3.264771000000000E-01     -1.222461000000000E+02
4907000000.000000      9.730835000000000E-01     -1.218984000000000E+02      3.282776000000000E-01     -1.227734000000000E+02
4908000000.000000      9.740906000000000E-01     -1.218789000000000E+02      3.298645000000000E-01     -1.231914000000000E+02
4909000000.000000      9.736633000000000E-01     -1.214531000000000E+02      3.318634000000000E-01     -1.231875000000000E+02
4910000000.000000      9.691467000000000E-01     -1.212109000000000E+02      3.330688000000000E-01     -1.233945000000000E+02
4911000000.000000      9.676208000000000E-01     -1.208359000000000E+02      3.354492000000000E-01     -1.235508000000000E+02
4912000000.000000      9.673462000000000E-01     -1.206328000000000E+02      3.373413000000000E-01     -1.240430000000000E+02
4913000000.000000      9.649963000000000E-01     -1.202656000000000E+02      3.393402000000000E-01     -1.239687000000000E+02
4914000000.000000      9.627991000000000E-01     -1.199961000000000E+02      3.408661000000000E-01     -1.241055000000000E+02
4915000000.000000      9.606934000000000E-01     -1.197422000000000E+02      3.426056000000000E-01     -1.246836000000000E+02
4916000000.000000      9.589539000000000E-01     -1.194180000000000E+02      3.444061000000000E-01     -1.249258000000000E+02
4917000000.000000      9.548645000000000E-01     -1.190937000000000E+02      3.462372000000000E-01     -1.248672000000000E+02
4918000000.000000      9.556885000000000E-01     -1.188945000000000E+02      3.487244000000000E-01     -1.253789000000000E+02
4919000000.000000      9.512024000000000E-01     -1.185117000000000E+02      3.514709000000000E-01     -1.253672000000000E+02
4920000000.000000      9.506836000000000E-01     -1.182500000000000E+02      3.518524000000000E-01     -1.258555000000000E+02
4921000000.000000      9.484863000000000E-01     -1.179805000000000E+02      3.544769000000000E-01     -1.261055000000000E+02
4922000000.000000      9.427795000000000E-01     -1.177539000000000E+02      3.563995000000000E-01     -1.262109000000000E+02
4923000000.000000      9.440918000000000E-01     -1.174062000000000E+02      3.573456000000000E-01     -1.264453000000000E+02
4924000000.000000      9.422302000000000E-01     -1.170351000000000E+02      3.597412000000000E-01     -1.269805000000000E+02
4925000000.000000      9.374390000000000E-01     -1.168047000000000E+02      3.623657000000000E-01     -1.271562000000000E+02
4926000000.000000      9.364929000000000E-01     -1.166406000000000E+02      3.644104000000000E-01     -1.274023000000000E+02
4927000000.000000      9.348145000000000E-01     -1.163242000000000E+02      3.656616000000000E-01     -1.278125000000000E+02
4928000000.000000      9.307861000000000E-01     -1.160742000000000E+02      3.675232000000000E-01     -1.281328000000000E+02
4929000000.000000      9.301758000000000E-01     -1.158945000000000E+02      3.694000000000000E-01     -1.283984000000000E+02
4930000000.000000      9.262390000000000E-01     -1.156875000000000E+02      3.724518000000000E-01     -1.286484000000000E+02
4931000000.000000      9.246521000000000E-01     -1.154922000000000E+02      3.751221000000000E-01     -1.290547000000000E+02
4932000000.000000      9.213867000000000E-01     -1.153672000000000E+02      3.759918000000000E-01     -1.293906000000000E+02
4933000000.000000      9.194336000000000E-01     -1.150820000000000E+02      3.770142000000000E-01     -1.296016000000000E+02
4934000000.000000      9.178467000000000E-01     -1.149414000000000E+02      3.800659000000000E-01     -1.302813000000000E+02
4935000000.000000      9.125366000000000E-01     -1.146562000000000E+02      3.820343000000000E-01     -1.303125000000000E+02
4936000000.000000      9.103088000000000E-01     -1.145547000000000E+02      3.840027000000000E-01     -1.307266000000000E+02
4937000000.000000      9.087524000000000E-01     -1.143320000000000E+02      3.858185000000000E-01     -1.312187000000000E+02
4938000000.000000      9.066772000000000E-01     -1.142578000000000E+02      3.890381000000000E-01     -1.314609000000000E+02
4939000000.000000      9.048157000000000E-01     -1.140859000000000E+02      3.901978000000000E-01     -1.317500000000000E+02
4940000000.000000      9.021912000000000E-01     -1.139219000000000E+02      3.920593000000000E-01     -1.323594000000000E+02
4941000000.000000      9.005432000000000E-01     -1.139531000000000E+02      3.942566000000000E-01     -1.325703000000000E+02
4942000000.000000      8.942871000000000E-01     -1.138242000000000E+02      3.964844000000000E-01     -1.330000000000000E+02
4943000000.000000      8.939514000000000E-01     -1.136992000000000E+02      3.985291000000000E-01     -1.334609000000000E+02
4944000000.000000      8.922424000000000E-01     -1.136641000000000E+02      4.002380000000000E-01     -1.338828000000000E+02
4945000000.000000      8.892212000000000E-01     -1.135195000000000E+02      4.015503000000000E-01     -1.343359000000000E+02
4946000000.000000      8.856506000000000E-01     -1.134922000000000E+02      4.049530000000000E-01     -1.346875000000000E+02
4947000000.000000      8.810425000000000E-01     -1.134101000000000E+02      4.052429000000000E-01     -1.350312000000000E+02
4948000000.000000      8.783875000000000E-01     -1.134648000000000E+02      4.077148000000000E-01     -1.356094000000000E+02
4949000000.000000      8.757019000000000E-01     -1.134492000000000E+02      4.096832000000000E-01     -1.357656000000000E+02
4950000000.000000      8.714905000000000E-01     -1.135273000000000E+02      4.103394000000000E-01     -1.363437000000000E+02
4951000000.000000      8.689270000000000E-01     -1.135156000000000E+02      4.130859000000000E-01     -1.368828000000000E+02
4952000000.000000      8.674011000000000E-01     -1.136172000000000E+02      4.148407000000000E-01     -1.372969000000000E+02
4953000000.000000      8.630066000000000E-01     -1.136250000000000E+02      4.171753000000000E-01     -1.377031000000000E+02
4954000000.000000      8.577881000000000E-01     -1.137578000000000E+02      4.180450000000000E-01     -1.382500000000000E+02
