! Network Analyzer HP8722D
! Hewlett-Packard
! Data name: Linha & Wilkinson
! Saver's name: Rodrigo Anjos
! Comments: Teste da utilização de aquisição
continua pelo VNA HP8722D
! Time and date: 21/5/2025 16:59
!              Frequency                     S11                                                   S21                                                   S12                                                   S22
# HZ  S  MA R 50
4800000000.000000      5.404663000000000E-01     -1.087773000000000E+02      1.171265000000000E-01     -1.529297000000000E+02
4801000000.000000      5.411682000000000E-01     -1.092891000000000E+02      1.156158000000000E-01     -1.511094000000000E+02
4802000000.000000      5.395813000000000E-01     -1.101211000000000E+02      1.141090000000000E-01     -1.492734000000000E+02
4803000000.000000      5.391541000000000E-01     -1.107656000000000E+02      1.136436000000000E-01     -1.472891000000000E+02
4804000000.000000      5.404663000000000E-01     -1.113086000000000E+02      1.127853000000000E-01     -1.454844000000000E+02
4805000000.000000      5.412292000000000E-01     -1.121055000000000E+02      1.116409000000000E-01     -1.434766000000000E+02
4806000000.000000      5.424500000000000E-01     -1.127812000000000E+02      1.113510000000000E-01     -1.417266000000000E+02
4807000000.000000      5.392761000000000E-01     -1.133594000000000E+02      1.113205000000000E-01     -1.395156000000000E+02
4808000000.000000      5.424194000000000E-01     -1.140508000000000E+02      1.115074000000000E-01     -1.375937000000000E+02
4809000000.000000      5.430603000000000E-01     -1.148789000000000E+02      1.122284000000000E-01     -1.360937000000000E+02
4810000000.000000      5.426025000000000E-01     -1.155039000000000E+02      1.127815000000000E-01     -1.338984000000000E+02
4811000000.000000      5.458374000000000E-01     -1.161562000000000E+02      1.135406000000000E-01     -1.322734000000000E+02
4812000000.000000      5.484924000000000E-01     -1.166445000000000E+02      1.145287000000000E-01     -1.303984000000000E+02
4813000000.000000      5.490417000000000E-01     -1.176094000000000E+02      1.157341000000000E-01     -1.286406000000000E+02
4814000000.000000      5.517273000000000E-01     -1.181250000000000E+02      1.172028000000000E-01     -1.270976000000000E+02
4815000000.000000      5.544128000000000E-01     -1.188164000000000E+02      1.187477000000000E-01     -1.256562000000000E+02
4816000000.000000      5.563965000000000E-01     -1.192070000000000E+02      1.210556000000000E-01     -1.241250000000000E+02
4817000000.000000      5.617371000000000E-01     -1.197734000000000E+02      1.231995000000000E-01     -1.228125000000000E+02
4818000000.000000      5.630798000000000E-01     -1.205664000000000E+02      1.246834000000000E-01     -1.213086000000000E+02
4819000000.000000      5.673523000000000E-01     -1.209336000000000E+02      1.270676000000000E-01     -1.200898000000000E+02
4820000000.000000      5.694275000000000E-01     -1.213984000000000E+02      1.296387000000000E-01     -1.187461000000000E+02
4821000000.000000      5.730286000000000E-01     -1.220859000000000E+02      1.322937000000000E-01     -1.179375000000000E+02
4822000000.000000      5.791931000000000E-01     -1.226406000000000E+02      1.347961000000000E-01     -1.168476000000000E+02
4823000000.000000      5.822144000000000E-01     -1.232148000000000E+02      1.374664000000000E-01     -1.159570000000000E+02
4824000000.000000      5.888367000000000E-01     -1.235508000000000E+02      1.402893000000000E-01     -1.153047000000000E+02
4825000000.000000      5.924683000000000E-01     -1.240351000000000E+02      1.430130000000000E-01     -1.144219000000000E+02
4826000000.000000      5.966797000000000E-01     -1.246328000000000E+02      1.463089000000000E-01     -1.138906000000000E+02
4827000000.000000      6.020813000000000E-01     -1.247656000000000E+02      1.491165000000000E-01     -1.128633000000000E+02
4828000000.000000      6.087341000000000E-01     -1.253320000000000E+02      1.525726000000000E-01     -1.123906000000000E+02
4829000000.000000      6.117249000000000E-01     -1.257930000000000E+02      1.553574000000000E-01     -1.118555000000000E+02
4830000000.000000      6.196594000000000E-01     -1.260586000000000E+02      1.580276000000000E-01     -1.114961000000000E+02
4831000000.000000      6.234741000000000E-01     -1.264687000000000E+02      1.612930000000000E-01     -1.111445000000000E+02
4832000000.000000      6.320190000000000E-01     -1.266133000000000E+02      1.648483000000000E-01     -1.105391000000000E+02
4833000000.000000      6.371765000000000E-01     -1.270859000000000E+02      1.680298000000000E-01     -1.103750000000000E+02
4834000000.000000      6.434326000000000E-01     -1.272227000000000E+02      1.707535000000000E-01     -1.101601000000000E+02
4835000000.000000      6.496277000000000E-01     -1.275312000000000E+02      1.738739000000000E-01     -1.097305000000000E+02
4836000000.000000      6.572876000000000E-01     -1.276563000000000E+02      1.777039000000000E-01     -1.094883000000000E+02
4837000000.000000      6.632996000000000E-01     -1.278984000000000E+02      1.803284000000000E-01     -1.096367000000000E+02
4838000000.000000      6.700134000000000E-01     -1.281875000000000E+02      1.839905000000000E-01     -1.093555000000000E+02
4839000000.000000      6.780090000000000E-01     -1.283359000000000E+02      1.868210000000000E-01     -1.092148000000000E+02
4840000000.000000      6.842346000000000E-01     -1.286328000000000E+02      1.897049000000000E-01     -1.091640000000000E+02
4841000000.000000      6.908875000000000E-01     -1.287344000000000E+02      1.929245000000000E-01     -1.092930000000000E+02
4842000000.000000      6.999207000000000E-01     -1.288984000000000E+02      1.968231000000000E-01     -1.091172000000000E+02
4843000000.000000      7.058105000000000E-01     -1.290469000000000E+02      1.995239000000000E-01     -1.092773000000000E+02
4844000000.000000      7.124329000000000E-01     -1.290859000000000E+02      2.026596000000000E-01     -1.092422000000000E+02
4845000000.000000      7.194824000000000E-01     -1.292344000000000E+02      2.055664000000000E-01     -1.091484000000000E+02
4846000000.000000      7.276306000000000E-01     -1.291250000000000E+02      2.083893000000000E-01     -1.092851000000000E+02
4847000000.000000      7.359009000000000E-01     -1.292344000000000E+02      2.116699000000000E-01     -1.093008000000000E+02
4848000000.000000      7.418823000000000E-01     -1.292969000000000E+02      2.142487000000000E-01     -1.093086000000000E+02
4849000000.000000      7.521057000000000E-01     -1.295781000000000E+02      2.176132000000000E-01     -1.097031000000000E+02
4850000000.000000      7.605286000000000E-01     -1.293203000000000E+02      2.204056000000000E-01     -1.097187000000000E+02
4851000000.000000      7.669373000000000E-01     -1.294453000000000E+02      2.238541000000000E-01     -1.100469000000000E+02
4852000000.000000      7.769165000000000E-01     -1.294453000000000E+02      2.263412000000000E-01     -1.100078000000000E+02
4853000000.000000      7.826233000000000E-01     -1.293984000000000E+02      2.282410000000000E-01     -1.101797000000000E+02
4854000000.000000      7.907104000000000E-01     -1.293281000000000E+02      2.316132000000000E-01     -1.106289000000000E+02
4855000000.000000      7.966003000000000E-01     -1.294375000000000E+02      2.343597000000000E-01     -1.107148000000000E+02
4856000000.000000      8.061829000000000E-01     -1.292813000000000E+02      2.372665000000000E-01     -1.107851000000000E+02
4857000000.000000      8.144226000000000E-01     -1.294453000000000E+02      2.407684000000000E-01     -1.111016000000000E+02
4858000000.000000      8.200378000000000E-01     -1.293750000000000E+02      2.426987000000000E-01     -1.112383000000000E+02
4859000000.000000      8.272400000000000E-01     -1.292734000000000E+02      2.452469000000000E-01     -1.114766000000000E+02
4860000000.000000      8.355103000000000E-01     -1.291953000000000E+02      2.475891000000000E-01     -1.118555000000000E+02
4861000000.000000      8.441467000000000E-01     -1.289922000000000E+02      2.504425000000000E-01     -1.120313000000000E+02
4862000000.000000      8.507385000000000E-01     -1.291016000000000E+02      2.527008000000000E-01     -1.122305000000000E+02
4863000000.000000      8.583069000000000E-01     -1.289922000000000E+02      2.553864000000000E-01     -1.126719000000000E+02
4864000000.000000      8.648682000000000E-01     -1.289766000000000E+02      2.578888000000000E-01     -1.127226000000000E+02
4865000000.000000      8.717346000000000E-01     -1.290703000000000E+02      2.599335000000000E-01     -1.131562000000000E+02
4866000000.000000      8.789063000000000E-01     -1.288672000000000E+02      2.613525000000000E-01     -1.133281000000000E+02
4867000000.000000      8.852844000000000E-01     -1.286484000000000E+02      2.645874000000000E-01     -1.137617000000000E+02
4868000000.000000      8.937988000000000E-01     -1.287500000000000E+02      2.662659000000000E-01     -1.139219000000000E+02
4869000000.000000      8.966370000000000E-01     -1.287109000000000E+02      2.676239000000000E-01     -1.143398000000000E+02
4870000000.000000      9.046021000000000E-01     -1.285625000000000E+02      2.705536000000000E-01     -1.144023000000000E+02
4871000000.000000      9.115906000000000E-01     -1.284922000000000E+02      2.721100000000000E-01     -1.148398000000000E+02
4872000000.000000      9.180603000000000E-01     -1.282734000000000E+02      2.735596000000000E-01     -1.149648000000000E+02
4873000000.000000      9.232788000000000E-01     -1.282031000000000E+02      2.756958000000000E-01     -1.153984000000000E+02
4874000000.000000      9.279175000000000E-01     -1.281563000000000E+02      2.776794000000000E-01     -1.156172000000000E+02
4875000000.000000      9.353638000000000E-01     -1.281328000000000E+02      2.793884000000000E-01     -1.158476000000000E+02
4876000000.000000      9.402161000000000E-01     -1.279726000000000E+02      2.812653000000000E-01     -1.162461000000000E+02
4877000000.000000      9.427795000000000E-01     -1.279297000000000E+02      2.828064000000000E-01     -1.164648000000000E+02
4878000000.000000      9.490356000000000E-01     -1.277266000000000E+02      2.848511000000000E-01     -1.167539000000000E+02
4879000000.000000      9.524231000000000E-01     -1.277266000000000E+02      2.859192000000000E-01     -1.169492000000000E+02
4880000000.000000      9.578857000000000E-01     -1.275703000000000E+02      2.878723000000000E-01     -1.173008000000000E+02
4881000000.000000      9.599304000000000E-01     -1.272890000000000E+02      2.898560000000000E-01     -1.173438000000000E+02
4882000000.000000      9.621887000000000E-01     -1.271914000000000E+02      2.909546000000000E-01     -1.178867000000000E+02
4883000000.000000      9.638672000000000E-01     -1.270859000000000E+02      2.922363000000000E-01     -1.180820000000000E+02
4884000000.000000      9.711304000000000E-01     -1.270117000000000E+02      2.937317000000000E-01     -1.183906000000000E+02
4885000000.000000      9.741211000000000E-01     -1.270273000000000E+02      2.951965000000000E-01     -1.184570000000000E+02
4886000000.000000      9.747314000000000E-01     -1.266367000000000E+02      2.968597000000000E-01     -1.186016000000000E+02
4887000000.000000      9.768066000000000E-01     -1.266289000000000E+02      2.988281000000000E-01     -1.189492000000000E+02
4888000000.000000      9.778748000000000E-01     -1.263789000000000E+02      3.002014000000000E-01     -1.191250000000000E+02
4889000000.000000      9.804688000000000E-01     -1.261289000000000E+02      3.015594000000000E-01     -1.193281000000000E+02
4890000000.000000      9.810181000000000E-01     -1.258398000000000E+02      3.016510000000000E-01     -1.196758000000000E+02
4891000000.000000      9.806213000000000E-01     -1.258945000000000E+02      3.031769000000000E-01     -1.199180000000000E+02
4892000000.000000      9.830933000000000E-01     -1.256680000000000E+02      3.054352000000000E-01     -1.198359000000000E+02
4893000000.000000      9.859009000000000E-01     -1.255664000000000E+02      3.068085000000000E-01     -1.203555000000000E+02
4894000000.000000      9.850769000000000E-01     -1.253477000000000E+02      3.076630000000000E-01     -1.204688000000000E+02
4895000000.000000      9.833984000000000E-01     -1.249609000000000E+02      3.096619000000000E-01     -1.206367000000000E+02
4896000000.000000      9.850159000000000E-01     -1.247890000000000E+02      3.105164000000000E-01     -1.207305000000000E+02
4897000000.000000      9.855652000000000E-01     -1.246953000000000E+02      3.120575000000000E-01     -1.210547000000000E+02
4898000000.000000      9.852905000000000E-01     -1.244141000000000E+02      3.137360000000000E-01     -1.211211000000000E+02
4899000000.000000      9.837341000000000E-01     -1.242930000000000E+02      3.153229000000000E-01     -1.215859000000000E+02
4900000000.000000      9.824219000000000E-01     -1.240273000000000E+02      3.164520000000000E-01     -1.216133000000000E+02
4901000000.000000      9.839478000000000E-01     -1.236680000000000E+02      3.184662000000000E-01     -1.216055000000000E+02
4902000000.000000      9.819031000000000E-01     -1.234375000000000E+02      3.200378000000000E-01     -1.218633000000000E+02
4903000000.000000      9.806824000000000E-01     -1.230781000000000E+02      3.212128000000000E-01     -1.220078000000000E+02
4904000000.000000      9.784241000000000E-01     -1.226992000000000E+02      3.226471000000000E-01     -1.222890000000000E+02
4905000000.000000      9.793091000000000E-01     -1.225430000000000E+02      3.246460000000000E-01     -1.224258000000000E+02
4906000000.000000      9.767761000000000E-01     -1.221758000000000E+02      3.261719000000000E-01     -1.223242000000000E+02
4907000000.000000      9.734192000000000E-01     -1.220664000000000E+02      3.282776000000000E-01     -1.228125000000000E+02
4908000000.000000      9.729919000000000E-01     -1.219180000000000E+02      3.310852000000000E-01     -1.231328000000000E+02
4909000000.000000      9.707031000000000E-01     -1.214726000000000E+02      3.315125000000000E-01     -1.232891000000000E+02
4910000000.000000      9.700012000000000E-01     -1.212383000000000E+02      3.332825000000000E-01     -1.234727000000000E+02
4911000000.000000      9.669800000000000E-01     -1.209336000000000E+02      3.359222000000000E-01     -1.237109000000000E+02
4912000000.000000      9.688110000000000E-01     -1.207227000000000E+02      3.375092000000000E-01     -1.239531000000000E+02
4913000000.000000      9.629822000000000E-01     -1.202226000000000E+02      3.392944000000000E-01     -1.239492000000000E+02
4914000000.000000      9.622498000000000E-01     -1.200078000000000E+02      3.407593000000000E-01     -1.241797000000000E+02
4915000000.000000      9.602966000000000E-01     -1.196875000000000E+02      3.425598000000000E-01     -1.246562000000000E+02
4916000000.000000      9.590149000000000E-01     -1.194258000000000E+02      3.447723000000000E-01     -1.250078000000000E+02
4917000000.000000      9.548645000000000E-01     -1.191172000000000E+02      3.462219000000000E-01     -1.250156000000000E+02
4918000000.000000      9.542847000000000E-01     -1.188867000000000E+02      3.482513000000000E-01     -1.253047000000000E+02
4919000000.000000      9.508667000000000E-01     -1.186211000000000E+02      3.506775000000000E-01     -1.255273000000000E+02
4920000000.000000      9.509888000000000E-01     -1.184023000000000E+02      3.520508000000000E-01     -1.259180000000000E+02
4921000000.000000      9.473877000000000E-01     -1.180664000000000E+02      3.543854000000000E-01     -1.260273000000000E+02
4922000000.000000      9.440002000000000E-01     -1.177500000000000E+02      3.559875000000000E-01     -1.262461000000000E+02
4923000000.000000      9.435730000000000E-01     -1.174023000000000E+02      3.578491000000000E-01     -1.264766000000000E+02
4924000000.000000      9.412537000000000E-01     -1.172031000000000E+02      3.598633000000000E-01     -1.270156000000000E+02
4925000000.000000      9.379272000000000E-01     -1.169062000000000E+02      3.618469000000000E-01     -1.270859000000000E+02
4926000000.000000      9.362488000000000E-01     -1.166445000000000E+02      3.644409000000000E-01     -1.274961000000000E+02
4927000000.000000      9.335022000000000E-01     -1.164336000000000E+02      3.660126000000000E-01     -1.279258000000000E+02
4928000000.000000      9.310608000000000E-01     -1.162187000000000E+02      3.676453000000000E-01     -1.280234000000000E+02
4929000000.000000      9.293823000000000E-01     -1.158789000000000E+02      3.697205000000000E-01     -1.282812000000000E+02
4930000000.000000      9.258118000000000E-01     -1.156953000000000E+02      3.727722000000000E-01     -1.287266000000000E+02
4931000000.000000      9.251099000000000E-01     -1.155586000000000E+02      3.753510000000000E-01     -1.291797000000000E+02
4932000000.000000      9.204102000000000E-01     -1.154140000000000E+02      3.764648000000000E-01     -1.294609000000000E+02
4933000000.000000      9.197693000000000E-01     -1.150664000000000E+02      3.768463000000000E-01     -1.297031000000000E+02
4934000000.000000      9.167480000000000E-01     -1.150000000000000E+02      3.791351000000000E-01     -1.302969000000000E+02
4935000000.000000      9.120483000000000E-01     -1.146016000000000E+02      3.826447000000000E-01     -1.303437000000000E+02
4936000000.000000      9.116516000000000E-01     -1.145547000000000E+02      3.840485000000000E-01     -1.308203000000000E+02
4937000000.000000      9.086304000000000E-01     -1.144570000000000E+02      3.859558000000000E-01     -1.312578000000000E+02
4938000000.000000      9.067993000000000E-01     -1.142812000000000E+02      3.892212000000000E-01     -1.315234000000000E+02
4939000000.000000      9.037781000000000E-01     -1.140273000000000E+02      3.904877000000000E-01     -1.318516000000000E+02
4940000000.000000      8.991089000000000E-01     -1.140156000000000E+02      3.918457000000000E-01     -1.324531000000000E+02
4941000000.000000      8.995972000000000E-01     -1.139531000000000E+02      3.942719000000000E-01     -1.326953000000000E+02
4942000000.000000      8.942871000000000E-01     -1.138125000000000E+02      3.960571000000000E-01     -1.331953000000000E+02
4943000000.000000      8.942566000000000E-01     -1.137266000000000E+02      3.983612000000000E-01     -1.335781000000000E+02
4944000000.000000      8.907776000000000E-01     -1.136211000000000E+02      4.005585000000000E-01     -1.338906000000000E+02
4945000000.000000      8.880310000000000E-01     -1.135078000000000E+02      4.017029000000000E-01     -1.342969000000000E+02
4946000000.000000      8.861694000000000E-01     -1.136094000000000E+02      4.027252000000000E-01     -1.348281000000000E+02
4947000000.000000      8.806763000000000E-01     -1.134687000000000E+02      4.042969000000000E-01     -1.351484000000000E+02
4948000000.000000      8.799133000000000E-01     -1.135703000000000E+02      4.082794000000000E-01     -1.356250000000000E+02
4949000000.000000      8.745117000000000E-01     -1.134766000000000E+02      4.097290000000000E-01     -1.358281000000000E+02
4950000000.000000      8.733215000000000E-01     -1.134883000000000E+02      4.106903000000000E-01     -1.365078000000000E+02
4951000000.000000      8.680420000000000E-01     -1.135273000000000E+02      4.134674000000000E-01     -1.369453000000000E+02
4952000000.000000      8.698425000000000E-01     -1.135000000000000E+02      4.155426000000000E-01     -1.374141000000000E+02
4953000000.000000      8.638611000000000E-01     -1.136797000000000E+02      4.172363000000000E-01     -1.376875000000000E+02
4954000000.000000      8.597107000000000E-01     -1.137891000000000E+02      4.185028000000000E-01     -1.383516000000000E+02
