! Network Analyzer HP8722D
! Hewlett-Packard
! Data name: Linha & Wilkinson
! Saver's name: Rodrigo Anjos
! Comments: Teste da utilização de aquisição
continua pelo VNA HP8722D
! Time and date: 21/5/2025 16:57
!              Frequency                     S11                                                   S21                                                   S12                                                   S22
# HZ  S  MA R 50
4800000000.000000      5.393677000000000E-01     -1.087812000000000E+02      1.170311000000000E-01     -1.527344000000000E+02
4801000000.000000      5.384521000000000E-01     -1.091836000000000E+02      1.159554000000000E-01     -1.510703000000000E+02
4802000000.000000      5.390015000000000E-01     -1.100625000000000E+02      1.142006000000000E-01     -1.494375000000000E+02
4803000000.000000      5.372925000000000E-01     -1.110312000000000E+02      1.136322000000000E-01     -1.473750000000000E+02
4804000000.000000      5.370483000000000E-01     -1.114883000000000E+02      1.127930000000000E-01     -1.454141000000000E+02
4805000000.000000      5.399475000000000E-01     -1.120742000000000E+02      1.117210000000000E-01     -1.434766000000000E+02
4806000000.000000      5.398560000000000E-01     -1.126758000000000E+02      1.112251000000000E-01     -1.417656000000000E+02
4807000000.000000      5.410461000000000E-01     -1.134609000000000E+02      1.112938000000000E-01     -1.398125000000000E+02
4808000000.000000      5.414124000000000E-01     -1.140234000000000E+02      1.116524000000000E-01     -1.375937000000000E+02
4809000000.000000      5.420837000000000E-01     -1.145508000000000E+02      1.115990000000000E-01     -1.360781000000000E+02
4810000000.000000      5.438843000000000E-01     -1.155195000000000E+02      1.129303000000000E-01     -1.339453000000000E+02
4811000000.000000      5.466003000000000E-01     -1.161836000000000E+02      1.135635000000000E-01     -1.321328000000000E+02
4812000000.000000      5.482788000000000E-01     -1.167930000000000E+02      1.149979000000000E-01     -1.304922000000000E+02
4813000000.000000      5.487366000000000E-01     -1.175039000000000E+02      1.158943000000000E-01     -1.286953000000000E+02
4814000000.000000      5.519409000000000E-01     -1.182422000000000E+02      1.175804000000000E-01     -1.271601000000000E+02
4815000000.000000      5.529480000000000E-01     -1.186758000000000E+02      1.191597000000000E-01     -1.256172000000000E+02
4816000000.000000      5.552673000000000E-01     -1.191758000000000E+02      1.212082000000000E-01     -1.239141000000000E+02
4817000000.000000      5.605469000000000E-01     -1.196680000000000E+02      1.228943000000000E-01     -1.227070000000000E+02
4818000000.000000      5.642395000000000E-01     -1.204844000000000E+02      1.248169000000000E-01     -1.215312000000000E+02
4819000000.000000      5.653381000000000E-01     -1.211484000000000E+02      1.273422000000000E-01     -1.200195000000000E+02
4820000000.000000      5.695496000000000E-01     -1.214492000000000E+02      1.295853000000000E-01     -1.190937000000000E+02
4821000000.000000      5.739136000000000E-01     -1.221055000000000E+02      1.322174000000000E-01     -1.177305000000000E+02
4822000000.000000      5.802917000000000E-01     -1.225937000000000E+02      1.349258000000000E-01     -1.168789000000000E+02
4823000000.000000      5.813599000000000E-01     -1.232891000000000E+02      1.373138000000000E-01     -1.160469000000000E+02
4824000000.000000      5.869446000000000E-01     -1.236016000000000E+02      1.408997000000000E-01     -1.153008000000000E+02
4825000000.000000      5.916748000000000E-01     -1.242305000000000E+02      1.432343000000000E-01     -1.145625000000000E+02
4826000000.000000      5.970154000000000E-01     -1.245547000000000E+02      1.460037000000000E-01     -1.137734000000000E+02
4827000000.000000      6.023254000000000E-01     -1.248711000000000E+02      1.493301000000000E-01     -1.128867000000000E+02
4828000000.000000      6.090088000000000E-01     -1.254414000000000E+02      1.525803000000000E-01     -1.123594000000000E+02
4829000000.000000      6.111450000000000E-01     -1.257578000000000E+02      1.551056000000000E-01     -1.120156000000000E+02
4830000000.000000      6.184387000000000E-01     -1.261680000000000E+02      1.581802000000000E-01     -1.115625000000000E+02
4831000000.000000      6.222839000000000E-01     -1.264063000000000E+02      1.614685000000000E-01     -1.112617000000000E+02
4832000000.000000      6.319885000000000E-01     -1.266640000000000E+02      1.646042000000000E-01     -1.106445000000000E+02
4833000000.000000      6.377563000000000E-01     -1.271094000000000E+02      1.680298000000000E-01     -1.102461000000000E+02
4834000000.000000      6.420288000000000E-01     -1.273008000000000E+02      1.709518000000000E-01     -1.101211000000000E+02
4835000000.000000      6.492004000000000E-01     -1.274648000000000E+02      1.743774000000000E-01     -1.099180000000000E+02
4836000000.000000      6.564026000000000E-01     -1.276601000000000E+02      1.772919000000000E-01     -1.096172000000000E+02
4837000000.000000      6.632996000000000E-01     -1.279219000000000E+02      1.804810000000000E-01     -1.098281000000000E+02
4838000000.000000      6.706238000000000E-01     -1.282422000000000E+02      1.839600000000000E-01     -1.092812000000000E+02
4839000000.000000      6.786499000000000E-01     -1.281250000000000E+02      1.868515000000000E-01     -1.092812000000000E+02
4840000000.000000      6.825256000000000E-01     -1.285078000000000E+02      1.894150000000000E-01     -1.092226000000000E+02
4841000000.000000      6.903076000000000E-01     -1.286875000000000E+02      1.933899000000000E-01     -1.092500000000000E+02
4842000000.000000      6.989746000000000E-01     -1.288984000000000E+02      1.961594000000000E-01     -1.092344000000000E+02
4843000000.000000      7.060852000000000E-01     -1.291641000000000E+02      1.990738000000000E-01     -1.092422000000000E+02
4844000000.000000      7.129517000000000E-01     -1.290390000000000E+02      2.025299000000000E-01     -1.092383000000000E+02
4845000000.000000      7.188721000000000E-01     -1.290469000000000E+02      2.056656000000000E-01     -1.092578000000000E+02
4846000000.000000      7.281189000000000E-01     -1.290859000000000E+02      2.084198000000000E-01     -1.092422000000000E+02
4847000000.000000      7.359924000000000E-01     -1.293281000000000E+02      2.121429000000000E-01     -1.093398000000000E+02
4848000000.000000      7.453308000000000E-01     -1.292578000000000E+02      2.139893000000000E-01     -1.093984000000000E+02
4849000000.000000      7.500610000000000E-01     -1.296250000000000E+02      2.174149000000000E-01     -1.097852000000000E+02
4850000000.000000      7.592163000000000E-01     -1.293047000000000E+02      2.206802000000000E-01     -1.096562000000000E+02
4851000000.000000      7.671509000000000E-01     -1.294844000000000E+02      2.239609000000000E-01     -1.099883000000000E+02
4852000000.000000      7.762756000000000E-01     -1.294766000000000E+02      2.266693000000000E-01     -1.100195000000000E+02
4853000000.000000      7.821045000000000E-01     -1.294609000000000E+02      2.283936000000000E-01     -1.101758000000000E+02
4854000000.000000      7.923279000000000E-01     -1.294844000000000E+02      2.316513000000000E-01     -1.105273000000000E+02
4855000000.000000      7.971497000000000E-01     -1.294062000000000E+02      2.343445000000000E-01     -1.106016000000000E+02
4856000000.000000      8.075562000000000E-01     -1.293594000000000E+02      2.372589000000000E-01     -1.108320000000000E+02
4857000000.000000      8.140869000000000E-01     -1.293750000000000E+02      2.400055000000000E-01     -1.110742000000000E+02
4858000000.000000      8.194275000000000E-01     -1.293516000000000E+02      2.429504000000000E-01     -1.113008000000000E+02
4859000000.000000      8.279419000000000E-01     -1.293281000000000E+02      2.455063000000000E-01     -1.115625000000000E+02
4860000000.000000      8.363647000000000E-01     -1.292109000000000E+02      2.480316000000000E-01     -1.116289000000000E+02
4861000000.000000      8.440552000000000E-01     -1.291094000000000E+02      2.504120000000000E-01     -1.121250000000000E+02
4862000000.000000      8.507080000000000E-01     -1.292344000000000E+02      2.536316000000000E-01     -1.122930000000000E+02
4863000000.000000      8.578186000000000E-01     -1.291016000000000E+02      2.545471000000000E-01     -1.126836000000000E+02
4864000000.000000      8.662415000000000E-01     -1.290078000000000E+02      2.577057000000000E-01     -1.128203000000000E+02
4865000000.000000      8.737488000000000E-01     -1.290313000000000E+02      2.597351000000000E-01     -1.130820000000000E+02
4866000000.000000      8.776855000000000E-01     -1.288437000000000E+02      2.616730000000000E-01     -1.133594000000000E+02
4867000000.000000      8.863220000000000E-01     -1.286641000000000E+02      2.643127000000000E-01     -1.138477000000000E+02
4868000000.000000      8.926086000000000E-01     -1.287266000000000E+02      2.660522000000000E-01     -1.140547000000000E+02
4869000000.000000      8.977051000000000E-01     -1.286250000000000E+02      2.679901000000000E-01     -1.143008000000000E+02
4870000000.000000      9.055786000000000E-01     -1.285469000000000E+02      2.705688000000000E-01     -1.144023000000000E+02
4871000000.000000      9.117126000000000E-01     -1.285156000000000E+02      2.721863000000000E-01     -1.147812000000000E+02
4872000000.000000      9.182129000000000E-01     -1.283828000000000E+02      2.742767000000000E-01     -1.150156000000000E+02
4873000000.000000      9.244995000000000E-01     -1.283437000000000E+02      2.758636000000000E-01     -1.154336000000000E+02
4874000000.000000      9.259033000000000E-01     -1.281406000000000E+02      2.777100000000000E-01     -1.157383000000000E+02
4875000000.000000      9.352112000000000E-01     -1.281406000000000E+02      2.797546000000000E-01     -1.158125000000000E+02
4876000000.000000      9.390564000000000E-01     -1.280937000000000E+02      2.817383000000000E-01     -1.162891000000000E+02
4877000000.000000      9.423828000000000E-01     -1.278672000000000E+02      2.827454000000000E-01     -1.165039000000000E+02
4878000000.000000      9.477539000000000E-01     -1.278164000000000E+02      2.849731000000000E-01     -1.167031000000000E+02
4879000000.000000      9.519348000000000E-01     -1.277656000000000E+02      2.859802000000000E-01     -1.169492000000000E+02
4880000000.000000      9.568176000000000E-01     -1.275391000000000E+02      2.876282000000000E-01     -1.173125000000000E+02
4881000000.000000      9.598999000000000E-01     -1.274726000000000E+02      2.897491000000000E-01     -1.173359000000000E+02
4882000000.000000      9.606323000000000E-01     -1.274023000000000E+02      2.910614000000000E-01     -1.177969000000000E+02
4883000000.000000      9.660950000000000E-01     -1.270781000000000E+02      2.922668000000000E-01     -1.180156000000000E+02
4884000000.000000      9.699402000000000E-01     -1.270781000000000E+02      2.939453000000000E-01     -1.183633000000000E+02
4885000000.000000      9.733276000000000E-01     -1.269961000000000E+02      2.956543000000000E-01     -1.184062000000000E+02
4886000000.000000      9.754944000000000E-01     -1.266562000000000E+02      2.968750000000000E-01     -1.185820000000000E+02
4887000000.000000      9.780273000000000E-01     -1.266328000000000E+02      2.989960000000000E-01     -1.190078000000000E+02
4888000000.000000      9.792175000000000E-01     -1.263828000000000E+02      3.001099000000000E-01     -1.191680000000000E+02
4889000000.000000      9.801941000000000E-01     -1.262461000000000E+02      3.013000000000000E-01     -1.192891000000000E+02
4890000000.000000      9.804382000000000E-01     -1.258789000000000E+02      3.027649000000000E-01     -1.196719000000000E+02
4891000000.000000      9.802856000000000E-01     -1.258242000000000E+02      3.032990000000000E-01     -1.199141000000000E+02
4892000000.000000      9.843445000000000E-01     -1.256719000000000E+02      3.051605000000000E-01     -1.198594000000000E+02
4893000000.000000      9.856262000000000E-01     -1.255117000000000E+02      3.070374000000000E-01     -1.203359000000000E+02
4894000000.000000      9.861755000000000E-01     -1.253633000000000E+02      3.077087000000000E-01     -1.205039000000000E+02
4895000000.000000      9.830627000000000E-01     -1.249570000000000E+02      3.092651000000000E-01     -1.206094000000000E+02
4896000000.000000      9.839478000000000E-01     -1.247812000000000E+02      3.106689000000000E-01     -1.208359000000000E+02
4897000000.000000      9.864807000000000E-01     -1.246016000000000E+02      3.125305000000000E-01     -1.208320000000000E+02
4898000000.000000      9.848938000000000E-01     -1.244102000000000E+02      3.139648000000000E-01     -1.211445000000000E+02
4899000000.000000      9.837341000000000E-01     -1.241719000000000E+02      3.152924000000000E-01     -1.215234000000000E+02
4900000000.000000      9.844360000000000E-01     -1.240234000000000E+02      3.163910000000000E-01     -1.215117000000000E+02
4901000000.000000      9.838257000000000E-01     -1.237617000000000E+02      3.182983000000000E-01     -1.216523000000000E+02
4902000000.000000      9.821472000000000E-01     -1.235352000000000E+02      3.198242000000000E-01     -1.218750000000000E+02
4903000000.000000      9.817505000000000E-01     -1.231328000000000E+02      3.210907000000000E-01     -1.220039000000000E+02
4904000000.000000      9.792786000000000E-01     -1.228633000000000E+02      3.227844000000000E-01     -1.222422000000000E+02
4905000000.000000      9.790649000000000E-01     -1.226680000000000E+02      3.250732000000000E-01     -1.224531000000000E+02
4906000000.000000      9.763489000000000E-01     -1.222148000000000E+02      3.270721000000000E-01     -1.223633000000000E+02
4907000000.000000      9.760437000000000E-01     -1.220820000000000E+02      3.279572000000000E-01     -1.228242000000000E+02
4908000000.000000      9.737854000000000E-01     -1.218750000000000E+02      3.305054000000000E-01     -1.231172000000000E+02
4909000000.000000      9.733276000000000E-01     -1.216250000000000E+02      3.318329000000000E-01     -1.233516000000000E+02
4910000000.000000      9.681091000000000E-01     -1.212578000000000E+02      3.335724000000000E-01     -1.234805000000000E+02
4911000000.000000      9.677124000000000E-01     -1.209375000000000E+02      3.357697000000000E-01     -1.236523000000000E+02
4912000000.000000      9.683533000000000E-01     -1.207109000000000E+02      3.379211000000000E-01     -1.240195000000000E+02
4913000000.000000      9.657593000000000E-01     -1.202344000000000E+02      3.389587000000000E-01     -1.240312000000000E+02
4914000000.000000      9.612732000000000E-01     -1.199648000000000E+02      3.411865000000000E-01     -1.242188000000000E+02
4915000000.000000      9.601440000000000E-01     -1.197344000000000E+02      3.423157000000000E-01     -1.247187000000000E+02
4916000000.000000      9.584961000000000E-01     -1.195351000000000E+02      3.446350000000000E-01     -1.248945000000000E+02
4917000000.000000      9.544373000000000E-01     -1.191836000000000E+02      3.467865000000000E-01     -1.250000000000000E+02
4918000000.000000      9.555969000000000E-01     -1.188477000000000E+02      3.479004000000000E-01     -1.254492000000000E+02
4919000000.000000      9.508667000000000E-01     -1.185508000000000E+02      3.507385000000000E-01     -1.254453000000000E+02
4920000000.000000      9.493408000000000E-01     -1.184062000000000E+02      3.518829000000000E-01     -1.258281000000000E+02
4921000000.000000      9.485779000000000E-01     -1.180000000000000E+02      3.546295000000000E-01     -1.261289000000000E+02
4922000000.000000      9.440002000000000E-01     -1.176797000000000E+02      3.558655000000000E-01     -1.261523000000000E+02
4923000000.000000      9.421997000000000E-01     -1.174297000000000E+02      3.580475000000000E-01     -1.265703000000000E+02
4924000000.000000      9.417114000000000E-01     -1.172187000000000E+02      3.601532000000000E-01     -1.269727000000000E+02
4925000000.000000      9.401245000000000E-01     -1.168633000000000E+02      3.624420000000000E-01     -1.271484000000000E+02
4926000000.000000      9.368896000000000E-01     -1.166367000000000E+02      3.647461000000000E-01     -1.275039000000000E+02
4927000000.000000      9.351196000000000E-01     -1.163867000000000E+02      3.661804000000000E-01     -1.279180000000000E+02
4928000000.000000      9.315491000000000E-01     -1.161289000000000E+02      3.683472000000000E-01     -1.281172000000000E+02
4929000000.000000      9.287720000000000E-01     -1.158555000000000E+02      3.697662000000000E-01     -1.283125000000000E+02
4930000000.000000      9.281921000000000E-01     -1.157305000000000E+02      3.724823000000000E-01     -1.287969000000000E+02
4931000000.000000      9.248352000000000E-01     -1.155586000000000E+02      3.748474000000000E-01     -1.291875000000000E+02
4932000000.000000      9.210510000000000E-01     -1.153437000000000E+02      3.761597000000000E-01     -1.294453000000000E+02
4933000000.000000      9.193115000000000E-01     -1.151211000000000E+02      3.777008000000000E-01     -1.296016000000000E+02
4934000000.000000      9.172668000000000E-01     -1.149453000000000E+02      3.796387000000000E-01     -1.302266000000000E+02
4935000000.000000      9.120483000000000E-01     -1.147383000000000E+02      3.820190000000000E-01     -1.303359000000000E+02
4936000000.000000      9.108276000000000E-01     -1.145742000000000E+02      3.842621000000000E-01     -1.307344000000000E+02
4937000000.000000      9.096069000000000E-01     -1.143945000000000E+02      3.865814000000000E-01     -1.311250000000000E+02
4938000000.000000      9.075012000000000E-01     -1.143047000000000E+02      3.898163000000000E-01     -1.316172000000000E+02
4939000000.000000      9.050598000000000E-01     -1.140078000000000E+02      3.906708000000000E-01     -1.320000000000000E+02
4940000000.000000      9.018555000000000E-01     -1.140195000000000E+02      3.917999000000000E-01     -1.324063000000000E+02
4941000000.000000      8.973083000000000E-01     -1.138945000000000E+02      3.947296000000000E-01     -1.326875000000000E+02
4942000000.000000      8.946838000000000E-01     -1.138633000000000E+02      3.954468000000000E-01     -1.331016000000000E+02
4943000000.000000      8.945923000000000E-01     -1.138203000000000E+02      3.980865000000000E-01     -1.335234000000000E+02
4944000000.000000      8.907776000000000E-01     -1.136523000000000E+02      4.002533000000000E-01     -1.338438000000000E+02
4945000000.000000      8.879700000000000E-01     -1.135508000000000E+02      4.020233000000000E-01     -1.343750000000000E+02
4946000000.000000      8.843079000000000E-01     -1.135898000000000E+02      4.032898000000000E-01     -1.347734000000000E+02
4947000000.000000      8.835754000000000E-01     -1.135039000000000E+02      4.053192000000000E-01     -1.351172000000000E+02
4948000000.000000      8.771973000000000E-01     -1.135938000000000E+02      4.076691000000000E-01     -1.356562000000000E+02
4949000000.000000      8.749084000000000E-01     -1.135000000000000E+02      4.095154000000000E-01     -1.357734000000000E+02
4950000000.000000      8.742676000000000E-01     -1.136797000000000E+02      4.115295000000000E-01     -1.365703000000000E+02
4951000000.000000      8.677063000000000E-01     -1.135039000000000E+02      4.129791000000000E-01     -1.369844000000000E+02
4952000000.000000      8.664856000000000E-01     -1.135742000000000E+02      4.156647000000000E-01     -1.373984000000000E+02
4953000000.000000      8.611450000000000E-01     -1.135195000000000E+02      4.175415000000000E-01     -1.377656000000000E+02
4954000000.000000      8.572693000000000E-01     -1.137422000000000E+02      4.179230000000000E-01     -1.382578000000000E+02
