! Network Analyzer HP8722D
! Hewlett-Packard
! Data name: Linha & Wilkinson
! Saver's name: Rodrigo Anjos
! Comments: Teste da utilização de aquisição
continua pelo VNA HP8722D
! Time and date: 21/5/2025 16:31
!              Frequency                     S11                                                   S21                                                   S12                                                   S22
# HZ  S  MA R 50
4800000000.000000      5.416565000000000E-01     -1.087852000000000E+02      1.172676000000000E-01     -1.528828000000000E+02
4801000000.000000      5.404968000000000E-01     -1.095898000000000E+02      1.154404000000000E-01     -1.508047000000000E+02
4802000000.000000      5.386658000000000E-01     -1.100977000000000E+02      1.144028000000000E-01     -1.490781000000000E+02
4803000000.000000      5.393372000000000E-01     -1.108125000000000E+02      1.135979000000000E-01     -1.471016000000000E+02
4804000000.000000      5.395813000000000E-01     -1.114648000000000E+02      1.121902000000000E-01     -1.452422000000000E+02
4805000000.000000      5.413818000000000E-01     -1.121016000000000E+02      1.117592000000000E-01     -1.436563000000000E+02
4806000000.000000      5.398865000000000E-01     -1.127930000000000E+02      1.116333000000000E-01     -1.415781000000000E+02
4807000000.000000      5.403748000000000E-01     -1.135352000000000E+02      1.112747000000000E-01     -1.395313000000000E+02
4808000000.000000      5.413513000000000E-01     -1.140547000000000E+02      1.116638000000000E-01     -1.374609000000000E+02
4809000000.000000      5.419617000000000E-01     -1.147734000000000E+02      1.123962000000000E-01     -1.358516000000000E+02
4810000000.000000      5.452881000000000E-01     -1.156562000000000E+02      1.131744000000000E-01     -1.340156000000000E+02
4811000000.000000      5.451965000000000E-01     -1.163320000000000E+02      1.142311000000000E-01     -1.322031000000000E+02
4812000000.000000      5.498657000000000E-01     -1.167578000000000E+02      1.149216000000000E-01     -1.301641000000000E+02
4813000000.000000      5.488586000000000E-01     -1.173047000000000E+02      1.163597000000000E-01     -1.287188000000000E+02
4814000000.000000      5.513000000000000E-01     -1.182617000000000E+02      1.175957000000000E-01     -1.268242000000000E+02
4815000000.000000      5.545654000000000E-01     -1.187070000000000E+02      1.193008000000000E-01     -1.254140000000000E+02
4816000000.000000      5.588684000000000E-01     -1.193437000000000E+02      1.212158000000000E-01     -1.239453000000000E+02
4817000000.000000      5.606079000000000E-01     -1.198555000000000E+02      1.233788000000000E-01     -1.226133000000000E+02
4818000000.000000      5.639954000000000E-01     -1.205000000000000E+02      1.253510000000000E-01     -1.212969000000000E+02
4819000000.000000      5.682068000000000E-01     -1.210430000000000E+02      1.279602000000000E-01     -1.201367000000000E+02
4820000000.000000      5.685120000000000E-01     -1.215664000000000E+02      1.299515000000000E-01     -1.189023000000000E+02
4821000000.000000      5.747986000000000E-01     -1.222344000000000E+02      1.326141000000000E-01     -1.178047000000000E+02
4822000000.000000      5.793152000000000E-01     -1.226328000000000E+02      1.352844000000000E-01     -1.167500000000000E+02
4823000000.000000      5.815430000000000E-01     -1.232773000000000E+02      1.379547000000000E-01     -1.159844000000000E+02
4824000000.000000      5.885620000000000E-01     -1.237226000000000E+02      1.407166000000000E-01     -1.151601000000000E+02
4825000000.000000      5.916443000000000E-01     -1.242266000000000E+02      1.436539000000000E-01     -1.142383000000000E+02
4826000000.000000      5.974426000000000E-01     -1.246562000000000E+02      1.467438000000000E-01     -1.137070000000000E+02
4827000000.000000      6.031494000000000E-01     -1.248789000000000E+02      1.493759000000000E-01     -1.129375000000000E+02
4828000000.000000      6.086426000000000E-01     -1.252812000000000E+02      1.522522000000000E-01     -1.123984000000000E+02
4829000000.000000      6.124268000000000E-01     -1.256992000000000E+02      1.552963000000000E-01     -1.119531000000000E+02
4830000000.000000      6.203308000000000E-01     -1.262187000000000E+02      1.589966000000000E-01     -1.114609000000000E+02
4831000000.000000      6.240234000000000E-01     -1.265742000000000E+02      1.619186000000000E-01     -1.110781000000000E+02
4832000000.000000      6.313477000000000E-01     -1.268203000000000E+02      1.651382000000000E-01     -1.105391000000000E+02
4833000000.000000      6.387634000000000E-01     -1.271211000000000E+02      1.678314000000000E-01     -1.103789000000000E+02
4834000000.000000      6.420593000000000E-01     -1.274062000000000E+02      1.714935000000000E-01     -1.099805000000000E+02
4835000000.000000      6.486816000000000E-01     -1.276172000000000E+02      1.748962000000000E-01     -1.099726000000000E+02
4836000000.000000      6.579285000000000E-01     -1.277461000000000E+02      1.777267000000000E-01     -1.096601000000000E+02
4837000000.000000      6.645508000000000E-01     -1.279844000000000E+02      1.806717000000000E-01     -1.096719000000000E+02
4838000000.000000      6.711426000000000E-01     -1.283281000000000E+02      1.846313000000000E-01     -1.094219000000000E+02
4839000000.000000      6.779785000000000E-01     -1.283906000000000E+02      1.872177000000000E-01     -1.091758000000000E+02
4840000000.000000      6.844788000000000E-01     -1.287734000000000E+02      1.903458000000000E-01     -1.094219000000000E+02
4841000000.000000      6.920776000000000E-01     -1.289922000000000E+02      1.937103000000000E-01     -1.091250000000000E+02
4842000000.000000      6.989136000000000E-01     -1.289922000000000E+02      1.970978000000000E-01     -1.091719000000000E+02
4843000000.000000      7.062073000000000E-01     -1.291484000000000E+02      2.001343000000000E-01     -1.093437000000000E+02
4844000000.000000      7.136841000000000E-01     -1.292109000000000E+02      2.027893000000000E-01     -1.092422000000000E+02
4845000000.000000      7.209473000000000E-01     -1.291563000000000E+02      2.056732000000000E-01     -1.092812000000000E+02
4846000000.000000      7.276306000000000E-01     -1.291875000000000E+02      2.087555000000000E-01     -1.091992000000000E+02
4847000000.000000      7.365417000000000E-01     -1.293594000000000E+02      2.121048000000000E-01     -1.093125000000000E+02
4848000000.000000      7.448425000000000E-01     -1.293047000000000E+02      2.147751000000000E-01     -1.094922000000000E+02
4849000000.000000      7.521973000000000E-01     -1.296797000000000E+02      2.180481000000000E-01     -1.097852000000000E+02
4850000000.000000      7.595215000000000E-01     -1.293828000000000E+02      2.212143000000000E-01     -1.096601000000000E+02
4851000000.000000      7.683105000000000E-01     -1.295391000000000E+02      2.242355000000000E-01     -1.100547000000000E+02
4852000000.000000      7.771301000000000E-01     -1.295000000000000E+02      2.269821000000000E-01     -1.101211000000000E+02
4853000000.000000      7.832947000000000E-01     -1.294688000000000E+02      2.290497000000000E-01     -1.103984000000000E+02
4854000000.000000      7.911377000000000E-01     -1.295000000000000E+02      2.324448000000000E-01     -1.106055000000000E+02
4855000000.000000      7.970886000000000E-01     -1.295859000000000E+02      2.346954000000000E-01     -1.108008000000000E+02
4856000000.000000      8.076172000000000E-01     -1.294609000000000E+02      2.374039000000000E-01     -1.109336000000000E+02
4857000000.000000      8.157959000000000E-01     -1.295156000000000E+02      2.408752000000000E-01     -1.111601000000000E+02
4858000000.000000      8.193665000000000E-01     -1.293750000000000E+02      2.430344000000000E-01     -1.113594000000000E+02
4859000000.000000      8.285828000000000E-01     -1.293828000000000E+02      2.456131000000000E-01     -1.117305000000000E+02
4860000000.000000      8.368225000000000E-01     -1.293281000000000E+02      2.481918000000000E-01     -1.118711000000000E+02
4861000000.000000      8.441467000000000E-01     -1.292344000000000E+02      2.502136000000000E-01     -1.121875000000000E+02
4862000000.000000      8.516846000000000E-01     -1.292500000000000E+02      2.533264000000000E-01     -1.125039000000000E+02
4863000000.000000      8.587341000000000E-01     -1.292344000000000E+02      2.552185000000000E-01     -1.128125000000000E+02
4864000000.000000      8.672180000000000E-01     -1.290469000000000E+02      2.577515000000000E-01     -1.128984000000000E+02
4865000000.000000      8.724060000000000E-01     -1.291484000000000E+02      2.601166000000000E-01     -1.131758000000000E+02
4866000000.000000      8.785095000000000E-01     -1.289453000000000E+02      2.618103000000000E-01     -1.133750000000000E+02
4867000000.000000      8.860168000000000E-01     -1.287812000000000E+02      2.649841000000000E-01     -1.137656000000000E+02
4868000000.000000      8.944092000000000E-01     -1.289531000000000E+02      2.666473000000000E-01     -1.140586000000000E+02
4869000000.000000      8.996582000000000E-01     -1.287734000000000E+02      2.682495000000000E-01     -1.144492000000000E+02
4870000000.000000      9.049072000000000E-01     -1.287109000000000E+02      2.705994000000000E-01     -1.144414000000000E+02
4871000000.000000      9.132080000000000E-01     -1.287266000000000E+02      2.721558000000000E-01     -1.148555000000000E+02
4872000000.000000      9.188232000000000E-01     -1.284141000000000E+02      2.741699000000000E-01     -1.150508000000000E+02
4873000000.000000      9.234924000000000E-01     -1.283203000000000E+02      2.759399000000000E-01     -1.154180000000000E+02
4874000000.000000      9.289551000000000E-01     -1.282969000000000E+02      2.780151000000000E-01     -1.157891000000000E+02
4875000000.000000      9.366455000000000E-01     -1.282109000000000E+02      2.797241000000000E-01     -1.159961000000000E+02
4876000000.000000      9.393921000000000E-01     -1.281328000000000E+02      2.814941000000000E-01     -1.163672000000000E+02
4877000000.000000      9.428406000000000E-01     -1.281094000000000E+02      2.827301000000000E-01     -1.165078000000000E+02
4878000000.000000      9.490662000000000E-01     -1.278984000000000E+02      2.850952000000000E-01     -1.168281000000000E+02
4879000000.000000      9.546814000000000E-01     -1.277851000000000E+02      2.861938000000000E-01     -1.170898000000000E+02
4880000000.000000      9.570007000000000E-01     -1.277383000000000E+02      2.883759000000000E-01     -1.173867000000000E+02
4881000000.000000      9.601746000000000E-01     -1.275469000000000E+02      2.901154000000000E-01     -1.174844000000000E+02
4882000000.000000      9.626770000000000E-01     -1.274766000000000E+02      2.911224000000000E-01     -1.179375000000000E+02
4883000000.000000      9.660950000000000E-01     -1.271601000000000E+02      2.921448000000000E-01     -1.180547000000000E+02
4884000000.000000      9.701233000000000E-01     -1.270937000000000E+02      2.942963000000000E-01     -1.185273000000000E+02
4885000000.000000      9.746094000000000E-01     -1.271562000000000E+02      2.957611000000000E-01     -1.185586000000000E+02
4886000000.000000      9.750977000000000E-01     -1.267383000000000E+02      2.968292000000000E-01     -1.186250000000000E+02
4887000000.000000      9.782715000000000E-01     -1.266211000000000E+02      2.990570000000000E-01     -1.191211000000000E+02
4888000000.000000      9.782410000000000E-01     -1.263711000000000E+02      3.004608000000000E-01     -1.192031000000000E+02
4889000000.000000      9.812012000000000E-01     -1.263203000000000E+02      3.017883000000000E-01     -1.193906000000000E+02
4890000000.000000      9.797058000000000E-01     -1.259531000000000E+02      3.022919000000000E-01     -1.197500000000000E+02
4891000000.000000      9.824524000000000E-01     -1.259492000000000E+02      3.034058000000000E-01     -1.201055000000000E+02
4892000000.000000      9.832153000000000E-01     -1.256914000000000E+02      3.052216000000000E-01     -1.200703000000000E+02
4893000000.000000      9.860840000000000E-01     -1.255195000000000E+02      3.069305000000000E-01     -1.204961000000000E+02
4894000000.000000      9.849548000000000E-01     -1.254883000000000E+02      3.076782000000000E-01     -1.206406000000000E+02
4895000000.000000      9.836426000000000E-01     -1.251250000000000E+02      3.092957000000000E-01     -1.205664000000000E+02
4896000000.000000      9.848022000000000E-01     -1.249023000000000E+02      3.108826000000000E-01     -1.208750000000000E+02
4897000000.000000      9.866028000000000E-01     -1.245742000000000E+02      3.130646000000000E-01     -1.211289000000000E+02
4898000000.000000      9.843445000000000E-01     -1.244453000000000E+02      3.138885000000000E-01     -1.212773000000000E+02
4899000000.000000      9.840088000000000E-01     -1.242500000000000E+02      3.153992000000000E-01     -1.217070000000000E+02
4900000000.000000      9.841309000000000E-01     -1.240820000000000E+02      3.168030000000000E-01     -1.216914000000000E+02
4901000000.000000      9.830933000000000E-01     -1.236797000000000E+02      3.185425000000000E-01     -1.216445000000000E+02
4902000000.000000      9.828491000000000E-01     -1.236641000000000E+02      3.203430000000000E-01     -1.220859000000000E+02
4903000000.000000      9.829712000000000E-01     -1.231406000000000E+02      3.214569000000000E-01     -1.221484000000000E+02
4904000000.000000      9.798889000000000E-01     -1.228594000000000E+02      3.228912000000000E-01     -1.222578000000000E+02
4905000000.000000      9.795837000000000E-01     -1.226836000000000E+02      3.249207000000000E-01     -1.225547000000000E+02
4906000000.000000      9.772949000000000E-01     -1.223164000000000E+02      3.272705000000000E-01     -1.223359000000000E+02
4907000000.000000      9.749146000000000E-01     -1.221367000000000E+02      3.283234000000000E-01     -1.229531000000000E+02
4908000000.000000      9.730530000000000E-01     -1.219922000000000E+02      3.307648000000000E-01     -1.232734000000000E+02
4909000000.000000      9.727173000000000E-01     -1.216094000000000E+02      3.321533000000000E-01     -1.234062000000000E+02
4910000000.000000      9.682617000000000E-01     -1.212617000000000E+02      3.333435000000000E-01     -1.235547000000000E+02
4911000000.000000      9.682007000000000E-01     -1.209844000000000E+02      3.354034000000000E-01     -1.237383000000000E+02
4912000000.000000      9.667053000000000E-01     -1.206836000000000E+02      3.376617000000000E-01     -1.240547000000000E+02
4913000000.000000      9.651489000000000E-01     -1.203555000000000E+02      3.392334000000000E-01     -1.242188000000000E+02
4914000000.000000      9.614868000000000E-01     -1.201015000000000E+02      3.411255000000000E-01     -1.243242000000000E+02
4915000000.000000      9.609070000000000E-01     -1.198789000000000E+02      3.426514000000000E-01     -1.247461000000000E+02
4916000000.000000      9.584656000000000E-01     -1.193906000000000E+02      3.444672000000000E-01     -1.250508000000000E+02
4917000000.000000      9.550476000000000E-01     -1.192188000000000E+02      3.465881000000000E-01     -1.250625000000000E+02
4918000000.000000      9.547729000000000E-01     -1.189726000000000E+02      3.483429000000000E-01     -1.255000000000000E+02
4919000000.000000      9.523010000000000E-01     -1.186094000000000E+02      3.513641000000000E-01     -1.255820000000000E+02
4920000000.000000      9.499817000000000E-01     -1.184922000000000E+02      3.521423000000000E-01     -1.259844000000000E+02
4921000000.000000      9.490356000000000E-01     -1.182305000000000E+02      3.547516000000000E-01     -1.262500000000000E+02
4922000000.000000      9.444275000000000E-01     -1.178086000000000E+02      3.556213000000000E-01     -1.264531000000000E+02
4923000000.000000      9.420166000000000E-01     -1.175156000000000E+02      3.575897000000000E-01     -1.267070000000000E+02
4924000000.000000      9.418030000000000E-01     -1.171836000000000E+02      3.600464000000000E-01     -1.270234000000000E+02
4925000000.000000      9.400940000000000E-01     -1.168867000000000E+02      3.626556000000000E-01     -1.273086000000000E+02
4926000000.000000      9.375610000000000E-01     -1.167930000000000E+02      3.651733000000000E-01     -1.276680000000000E+02
4927000000.000000      9.335327000000000E-01     -1.165039000000000E+02      3.658142000000000E-01     -1.278906000000000E+02
4928000000.000000      9.323425000000000E-01     -1.162617000000000E+02      3.681946000000000E-01     -1.282734000000000E+02
4929000000.000000      9.284973000000000E-01     -1.160000000000000E+02      3.697662000000000E-01     -1.283594000000000E+02
4930000000.000000      9.269104000000000E-01     -1.158242000000000E+02      3.725128000000000E-01     -1.288750000000000E+02
4931000000.000000      9.232483000000000E-01     -1.155664000000000E+02      3.751678000000000E-01     -1.292344000000000E+02
4932000000.000000      9.207153000000000E-01     -1.154297000000000E+02      3.767242000000000E-01     -1.295703000000000E+02
4933000000.000000      9.183350000000000E-01     -1.153125000000000E+02      3.770752000000000E-01     -1.297266000000000E+02
4934000000.000000      9.156189000000000E-01     -1.150937000000000E+02      3.797607000000000E-01     -1.304219000000000E+02
4935000000.000000      9.123535000000000E-01     -1.148008000000000E+02      3.825836000000000E-01     -1.302344000000000E+02
4936000000.000000      9.119263000000000E-01     -1.148438000000000E+02      3.842926000000000E-01     -1.309375000000000E+02
4937000000.000000      9.106750000000000E-01     -1.144023000000000E+02      3.858337000000000E-01     -1.313437000000000E+02
4938000000.000000      9.078064000000000E-01     -1.144492000000000E+02      3.889465000000000E-01     -1.316562000000000E+02
4939000000.000000      9.035034000000000E-01     -1.143516000000000E+02      3.910980000000000E-01     -1.318594000000000E+02
4940000000.000000      8.998718000000000E-01     -1.140977000000000E+02      3.922272000000000E-01     -1.325000000000000E+02
4941000000.000000      8.984985000000000E-01     -1.141406000000000E+02      3.943329000000000E-01     -1.327891000000000E+02
4942000000.000000      8.945007000000000E-01     -1.139414000000000E+02      3.962555000000000E-01     -1.331797000000000E+02
4943000000.000000      8.952026000000000E-01     -1.138594000000000E+02      3.980408000000000E-01     -1.338125000000000E+02
4944000000.000000      8.919983000000000E-01     -1.137031000000000E+02      4.005280000000000E-01     -1.340703000000000E+02
4945000000.000000      8.888855000000000E-01     -1.136641000000000E+02      4.021912000000000E-01     -1.344063000000000E+02
4946000000.000000      8.841858000000000E-01     -1.135156000000000E+02      4.036560000000000E-01     -1.349688000000000E+02
4947000000.000000      8.826294000000000E-01     -1.134609000000000E+02      4.053955000000000E-01     -1.351328000000000E+02
4948000000.000000      8.803711000000000E-01     -1.135703000000000E+02      4.079590000000000E-01     -1.357578000000000E+02
4949000000.000000      8.758850000000000E-01     -1.135938000000000E+02      4.091644000000000E-01     -1.359766000000000E+02
4950000000.000000      8.717041000000000E-01     -1.136289000000000E+02      4.122772000000000E-01     -1.365937000000000E+02
4951000000.000000      8.686218000000000E-01     -1.135742000000000E+02      4.126282000000000E-01     -1.372109000000000E+02
4952000000.000000      8.675537000000000E-01     -1.136875000000000E+02      4.156799000000000E-01     -1.374297000000000E+02
4953000000.000000      8.626709000000000E-01     -1.137422000000000E+02      4.179230000000000E-01     -1.378047000000000E+02
4954000000.000000      8.596191000000000E-01     -1.137617000000000E+02      4.192505000000000E-01     -1.383750000000000E+02
