! Network Analyzer HP8722D
! Hewlett-Packard
! Data name: Linha & Wilkinson
! Saver's name: Rodrigo Anjos
! Comments: Teste da utilização de aquisição
continua pelo VNA HP8722D
! Time and date: 21/5/2025 16:55
!              Frequency                     S11                                                   S21                                                   S12                                                   S22
# HZ  S  MA R 50
4800000000.000000      5.411072000000000E-01     -1.089023000000000E+02      1.172791000000000E-01     -1.528750000000000E+02
4801000000.000000      5.392761000000000E-01     -1.092969000000000E+02      1.159172000000000E-01     -1.511328000000000E+02
4802000000.000000      5.378113000000000E-01     -1.101289000000000E+02      1.144638000000000E-01     -1.492969000000000E+02
4803000000.000000      5.385437000000000E-01     -1.106914000000000E+02      1.134911000000000E-01     -1.473828000000000E+02
4804000000.000000      5.391846000000000E-01     -1.113711000000000E+02      1.124268000000000E-01     -1.455703000000000E+02
4805000000.000000      5.393982000000000E-01     -1.123086000000000E+02      1.121025000000000E-01     -1.436016000000000E+02
4806000000.000000      5.390320000000000E-01     -1.127734000000000E+02      1.111717000000000E-01     -1.417656000000000E+02
4807000000.000000      5.406494000000000E-01     -1.132383000000000E+02      1.112900000000000E-01     -1.397734000000000E+02
4808000000.000000      5.412903000000000E-01     -1.140820000000000E+02      1.114998000000000E-01     -1.376641000000000E+02
4809000000.000000      5.415039000000000E-01     -1.147422000000000E+02      1.122665000000000E-01     -1.360937000000000E+02
4810000000.000000      5.435486000000000E-01     -1.155820000000000E+02      1.126175000000000E-01     -1.341484000000000E+02
4811000000.000000      5.454712000000000E-01     -1.160234000000000E+02      1.135941000000000E-01     -1.324531000000000E+02
4812000000.000000      5.473328000000000E-01     -1.166640000000000E+02      1.144142000000000E-01     -1.305391000000000E+02
4813000000.000000      5.494690000000000E-01     -1.174687000000000E+02      1.154594000000000E-01     -1.287188000000000E+02
4814000000.000000      5.506897000000000E-01     -1.181836000000000E+02      1.173019000000000E-01     -1.270742000000000E+02
4815000000.000000      5.513000000000000E-01     -1.186641000000000E+02      1.191711000000000E-01     -1.255664000000000E+02
4816000000.000000      5.575256000000000E-01     -1.191250000000000E+02      1.206818000000000E-01     -1.240508000000000E+02
4817000000.000000      5.622253000000000E-01     -1.197734000000000E+02      1.233406000000000E-01     -1.228398000000000E+02
4818000000.000000      5.632324000000000E-01     -1.205117000000000E+02      1.252136000000000E-01     -1.213437000000000E+02
4819000000.000000      5.679626000000000E-01     -1.208945000000000E+02      1.274109000000000E-01     -1.202734000000000E+02
4820000000.000000      5.705872000000000E-01     -1.216172000000000E+02      1.297150000000000E-01     -1.189844000000000E+02
4821000000.000000      5.742188000000000E-01     -1.220586000000000E+02      1.324081000000000E-01     -1.178867000000000E+02
4822000000.000000      5.799866000000000E-01     -1.227539000000000E+02      1.352158000000000E-01     -1.167930000000000E+02
4823000000.000000      5.827026000000000E-01     -1.231172000000000E+02      1.375198000000000E-01     -1.158711000000000E+02
4824000000.000000      5.896301000000000E-01     -1.235664000000000E+02      1.407089000000000E-01     -1.151992000000000E+02
4825000000.000000      5.928955000000000E-01     -1.241758000000000E+02      1.429977000000000E-01     -1.143555000000000E+02
4826000000.000000      5.977173000000000E-01     -1.245000000000000E+02      1.457977000000000E-01     -1.137695000000000E+02
4827000000.000000      6.017151000000000E-01     -1.248242000000000E+02      1.490250000000000E-01     -1.130078000000000E+02
4828000000.000000      6.091614000000000E-01     -1.252617000000000E+02      1.519394000000000E-01     -1.123555000000000E+02
4829000000.000000      6.116333000000000E-01     -1.256758000000000E+02      1.551437000000000E-01     -1.119531000000000E+02
4830000000.000000      6.180115000000000E-01     -1.259336000000000E+02      1.584473000000000E-01     -1.115664000000000E+02
4831000000.000000      6.225281000000000E-01     -1.263047000000000E+02      1.614075000000000E-01     -1.110117000000000E+02
4832000000.000000      6.320190000000000E-01     -1.267617000000000E+02      1.649704000000000E-01     -1.106680000000000E+02
4833000000.000000      6.365967000000000E-01     -1.270273000000000E+02      1.680756000000000E-01     -1.102969000000000E+02
4834000000.000000      6.421204000000000E-01     -1.272578000000000E+02      1.708527000000000E-01     -1.099219000000000E+02
4835000000.000000      6.481628000000000E-01     -1.275898000000000E+02      1.739578000000000E-01     -1.098242000000000E+02
4836000000.000000      6.574097000000000E-01     -1.275742000000000E+02      1.775131000000000E-01     -1.095820000000000E+02
4837000000.000000      6.630554000000000E-01     -1.278281000000000E+02      1.802216000000000E-01     -1.096172000000000E+02
4838000000.000000      6.706238000000000E-01     -1.283203000000000E+02      1.839600000000000E-01     -1.093281000000000E+02
4839000000.000000      6.786499000000000E-01     -1.283125000000000E+02      1.868744000000000E-01     -1.091875000000000E+02
4840000000.000000      6.833496000000000E-01     -1.286641000000000E+02      1.900330000000000E-01     -1.091523000000000E+02
4841000000.000000      6.924438000000000E-01     -1.287344000000000E+02      1.935196000000000E-01     -1.093750000000000E+02
4842000000.000000      6.997986000000000E-01     -1.289375000000000E+02      1.964111000000000E-01     -1.090469000000000E+02
4843000000.000000      7.067566000000000E-01     -1.291172000000000E+02      1.993561000000000E-01     -1.092930000000000E+02
4844000000.000000      7.145081000000000E-01     -1.292109000000000E+02      2.024231000000000E-01     -1.091523000000000E+02
4845000000.000000      7.195129000000000E-01     -1.293281000000000E+02      2.051086000000000E-01     -1.093281000000000E+02
4846000000.000000      7.267761000000000E-01     -1.291719000000000E+02      2.085037000000000E-01     -1.091953000000000E+02
4847000000.000000      7.363892000000000E-01     -1.292969000000000E+02      2.117996000000000E-01     -1.093906000000000E+02
4848000000.000000      7.440796000000000E-01     -1.293750000000000E+02      2.141800000000000E-01     -1.093320000000000E+02
4849000000.000000      7.521667000000000E-01     -1.296641000000000E+02      2.178192000000000E-01     -1.096289000000000E+02
4850000000.000000      7.594910000000000E-01     -1.293281000000000E+02      2.204056000000000E-01     -1.097422000000000E+02
4851000000.000000      7.665100000000000E-01     -1.293437000000000E+02      2.240295000000000E-01     -1.100703000000000E+02
4852000000.000000      7.756958000000000E-01     -1.294766000000000E+02      2.267685000000000E-01     -1.100078000000000E+02
4853000000.000000      7.838135000000000E-01     -1.294609000000000E+02      2.283096000000000E-01     -1.103359000000000E+02
4854000000.000000      7.905273000000000E-01     -1.294609000000000E+02      2.318573000000000E-01     -1.105234000000000E+02
4855000000.000000      7.964172000000000E-01     -1.294453000000000E+02      2.338104000000000E-01     -1.106289000000000E+02
4856000000.000000      8.066406000000000E-01     -1.293984000000000E+02      2.372360000000000E-01     -1.108281000000000E+02
4857000000.000000      8.133850000000000E-01     -1.294062000000000E+02      2.404785000000000E-01     -1.111953000000000E+02
4858000000.000000      8.193054000000000E-01     -1.294531000000000E+02      2.422028000000000E-01     -1.112734000000000E+02
4859000000.000000      8.279419000000000E-01     -1.294141000000000E+02      2.455368000000000E-01     -1.116367000000000E+02
4860000000.000000      8.376160000000000E-01     -1.292969000000000E+02      2.478333000000000E-01     -1.117500000000000E+02
4861000000.000000      8.451843000000000E-01     -1.292500000000000E+02      2.503967000000000E-01     -1.121016000000000E+02
4862000000.000000      8.521729000000000E-01     -1.290781000000000E+02      2.533264000000000E-01     -1.122305000000000E+02
4863000000.000000      8.579712000000000E-01     -1.290547000000000E+02      2.546844000000000E-01     -1.127500000000000E+02
4864000000.000000      8.655396000000000E-01     -1.290234000000000E+02      2.578735000000000E-01     -1.128086000000000E+02
4865000000.000000      8.724976000000000E-01     -1.290859000000000E+02      2.594757000000000E-01     -1.131055000000000E+02
4866000000.000000      8.785706000000000E-01     -1.288984000000000E+02      2.614899000000000E-01     -1.133945000000000E+02
4867000000.000000      8.880310000000000E-01     -1.287656000000000E+02      2.642365000000000E-01     -1.136328000000000E+02
4868000000.000000      8.918152000000000E-01     -1.288672000000000E+02      2.664032000000000E-01     -1.138945000000000E+02
4869000000.000000      8.977356000000000E-01     -1.287891000000000E+02      2.677612000000000E-01     -1.144219000000000E+02
4870000000.000000      9.057617000000000E-01     -1.286094000000000E+02      2.704163000000000E-01     -1.144844000000000E+02
4871000000.000000      9.127502000000000E-01     -1.285234000000000E+02      2.722473000000000E-01     -1.148242000000000E+02
4872000000.000000      9.178467000000000E-01     -1.284297000000000E+02      2.739105000000000E-01     -1.149883000000000E+02
4873000000.000000      9.225769000000000E-01     -1.283281000000000E+02      2.757263000000000E-01     -1.153555000000000E+02
4874000000.000000      9.289551000000000E-01     -1.282109000000000E+02      2.777252000000000E-01     -1.157265000000000E+02
4875000000.000000      9.359131000000000E-01     -1.282344000000000E+02      2.795258000000000E-01     -1.158828000000000E+02
4876000000.000000      9.383240000000000E-01     -1.280937000000000E+02      2.814484000000000E-01     -1.162812000000000E+02
4877000000.000000      9.421387000000000E-01     -1.279531000000000E+02      2.831116000000000E-01     -1.164531000000000E+02
4878000000.000000      9.495239000000000E-01     -1.278594000000000E+02      2.852325000000000E-01     -1.166562000000000E+02
4879000000.000000      9.546814000000000E-01     -1.278164000000000E+02      2.858734000000000E-01     -1.169922000000000E+02
4880000000.000000      9.558411000000000E-01     -1.276172000000000E+02      2.878723000000000E-01     -1.172656000000000E+02
4881000000.000000      9.612427000000000E-01     -1.274648000000000E+02      2.902069000000000E-01     -1.173281000000000E+02
4882000000.000000      9.641113000000000E-01     -1.274023000000000E+02      2.909088000000000E-01     -1.177851000000000E+02
4883000000.000000      9.646301000000000E-01     -1.271328000000000E+02      2.922363000000000E-01     -1.179648000000000E+02
4884000000.000000      9.692688000000000E-01     -1.269141000000000E+02      2.939301000000000E-01     -1.184414000000000E+02
4885000000.000000      9.728394000000000E-01     -1.269883000000000E+02      2.954407000000000E-01     -1.184062000000000E+02
4886000000.000000      9.757080000000000E-01     -1.267305000000000E+02      2.969666000000000E-01     -1.186211000000000E+02
4887000000.000000      9.762878000000000E-01     -1.265781000000000E+02      2.986603000000000E-01     -1.188711000000000E+02
4888000000.000000      9.779358000000000E-01     -1.263867000000000E+02      3.005524000000000E-01     -1.191914000000000E+02
4889000000.000000      9.794617000000000E-01     -1.261719000000000E+02      3.012543000000000E-01     -1.193437000000000E+02
4890000000.000000      9.811401000000000E-01     -1.258125000000000E+02      3.022003000000000E-01     -1.196445000000000E+02
4891000000.000000      9.808655000000000E-01     -1.258984000000000E+02      3.033142000000000E-01     -1.200000000000000E+02
4892000000.000000      9.832764000000000E-01     -1.257031000000000E+02      3.052063000000000E-01     -1.199062000000000E+02
4893000000.000000      9.854126000000000E-01     -1.254961000000000E+02      3.066406000000000E-01     -1.202930000000000E+02
4894000000.000000      9.837952000000000E-01     -1.253203000000000E+02      3.072968000000000E-01     -1.204844000000000E+02
4895000000.000000      9.833069000000000E-01     -1.249297000000000E+02      3.091278000000000E-01     -1.205586000000000E+02
4896000000.000000      9.850464000000000E-01     -1.247656000000000E+02      3.105316000000000E-01     -1.206914000000000E+02
4897000000.000000      9.859619000000000E-01     -1.245898000000000E+02      3.121185000000000E-01     -1.210508000000000E+02
4898000000.000000      9.840698000000000E-01     -1.244375000000000E+02      3.140869000000000E-01     -1.211367000000000E+02
4899000000.000000      9.823914000000000E-01     -1.242851000000000E+02      3.149261000000000E-01     -1.216055000000000E+02
4900000000.000000      9.848022000000000E-01     -1.238789000000000E+02      3.166809000000000E-01     -1.215391000000000E+02
4901000000.000000      9.832458000000000E-01     -1.236289000000000E+02      3.184052000000000E-01     -1.216250000000000E+02
4902000000.000000      9.814148000000000E-01     -1.235938000000000E+02      3.203583000000000E-01     -1.219258000000000E+02
4903000000.000000      9.796143000000000E-01     -1.231055000000000E+02      3.218231000000000E-01     -1.220586000000000E+02
4904000000.000000      9.799805000000000E-01     -1.228164000000000E+02      3.226318000000000E-01     -1.222227000000000E+02
4905000000.000000      9.791565000000000E-01     -1.225742000000000E+02      3.251495000000000E-01     -1.225352000000000E+02
4906000000.000000      9.760742000000000E-01     -1.222852000000000E+02      3.266144000000000E-01     -1.223984000000000E+02
4907000000.000000      9.740906000000000E-01     -1.220273000000000E+02      3.283081000000000E-01     -1.228008000000000E+02
4908000000.000000      9.727783000000000E-01     -1.219648000000000E+02      3.302765000000000E-01     -1.231914000000000E+02
4909000000.000000      9.734802000000000E-01     -1.215664000000000E+02      3.312531000000000E-01     -1.233359000000000E+02
4910000000.000000      9.675598000000000E-01     -1.213008000000000E+02      3.333740000000000E-01     -1.234453000000000E+02
4911000000.000000      9.673767000000000E-01     -1.209336000000000E+02      3.353424000000000E-01     -1.236758000000000E+02
4912000000.000000      9.653625000000000E-01     -1.206680000000000E+02      3.374329000000000E-01     -1.240000000000000E+02
4913000000.000000      9.638062000000000E-01     -1.202891000000000E+02      3.394470000000000E-01     -1.240312000000000E+02
4914000000.000000      9.622192000000000E-01     -1.200625000000000E+02      3.409271000000000E-01     -1.242851000000000E+02
4915000000.000000      9.597778000000000E-01     -1.197148000000000E+02      3.421326000000000E-01     -1.248125000000000E+02
4916000000.000000      9.571533000000000E-01     -1.194648000000000E+02      3.444824000000000E-01     -1.249648000000000E+02
4917000000.000000      9.555969000000000E-01     -1.191445000000000E+02      3.467255000000000E-01     -1.249766000000000E+02
4918000000.000000      9.548340000000000E-01     -1.189336000000000E+02      3.481750000000000E-01     -1.254258000000000E+02
4919000000.000000      9.531555000000000E-01     -1.186016000000000E+02      3.509369000000000E-01     -1.254766000000000E+02
4920000000.000000      9.499207000000000E-01     -1.183594000000000E+02      3.517914000000000E-01     -1.259336000000000E+02
4921000000.000000      9.479980000000000E-01     -1.180820000000000E+02      3.547974000000000E-01     -1.261250000000000E+02
4922000000.000000      9.450073000000000E-01     -1.177422000000000E+02      3.554993000000000E-01     -1.262734000000000E+02
4923000000.000000      9.436646000000000E-01     -1.174336000000000E+02      3.577423000000000E-01     -1.264961000000000E+02
4924000000.000000      9.399414000000000E-01     -1.171601000000000E+02      3.598480000000000E-01     -1.269883000000000E+02
4925000000.000000      9.406433000000000E-01     -1.169414000000000E+02      3.623657000000000E-01     -1.271367000000000E+02
4926000000.000000      9.354248000000000E-01     -1.166992000000000E+02      3.646393000000000E-01     -1.275195000000000E+02
4927000000.000000      9.339600000000000E-01     -1.164101000000000E+02      3.658905000000000E-01     -1.277422000000000E+02
4928000000.000000      9.327087000000000E-01     -1.161016000000000E+02      3.675995000000000E-01     -1.280625000000000E+02
4929000000.000000      9.287415000000000E-01     -1.159453000000000E+02      3.699036000000000E-01     -1.283203000000000E+02
4930000000.000000      9.263916000000000E-01     -1.156445000000000E+02      3.720093000000000E-01     -1.288047000000000E+02
4931000000.000000      9.241638000000000E-01     -1.155078000000000E+02      3.752289000000000E-01     -1.291406000000000E+02
4932000000.000000      9.217224000000000E-01     -1.153125000000000E+02      3.761597000000000E-01     -1.295469000000000E+02
4933000000.000000      9.208984000000000E-01     -1.151445000000000E+02      3.773193000000000E-01     -1.296328000000000E+02
4934000000.000000      9.178162000000000E-01     -1.150078000000000E+02      3.794250000000000E-01     -1.302969000000000E+02
4935000000.000000      9.129028000000000E-01     -1.146445000000000E+02      3.821259000000000E-01     -1.303984000000000E+02
4936000000.000000      9.110413000000000E-01     -1.145000000000000E+02      3.841400000000000E-01     -1.308281000000000E+02
4937000000.000000      9.095459000000000E-01     -1.144336000000000E+02      3.865662000000000E-01     -1.312187000000000E+02
4938000000.000000      9.076538000000000E-01     -1.143203000000000E+02      3.886261000000000E-01     -1.315078000000000E+02
4939000000.000000      9.045410000000000E-01     -1.141719000000000E+02      3.908081000000000E-01     -1.318984000000000E+02
4940000000.000000      9.027405000000000E-01     -1.140195000000000E+02      3.924255000000000E-01     -1.324297000000000E+02
4941000000.000000      8.998718000000000E-01     -1.139453000000000E+02      3.945770000000000E-01     -1.327109000000000E+02
4942000000.000000      8.961487000000000E-01     -1.138633000000000E+02      3.964081000000000E-01     -1.331875000000000E+02
4943000000.000000      8.938904000000000E-01     -1.137578000000000E+02      3.987579000000000E-01     -1.335391000000000E+02
4944000000.000000      8.913574000000000E-01     -1.136094000000000E+02      4.005280000000000E-01     -1.339375000000000E+02
4945000000.000000      8.896179000000000E-01     -1.135273000000000E+02      4.015045000000000E-01     -1.342422000000000E+02
4946000000.000000      8.844910000000000E-01     -1.135586000000000E+02      4.049988000000000E-01     -1.347109000000000E+02
4947000000.000000      8.813477000000000E-01     -1.134570000000000E+02      4.048157000000000E-01     -1.351250000000000E+02
4948000000.000000      8.792114000000000E-01     -1.134453000000000E+02      4.076385000000000E-01     -1.355547000000000E+02
4949000000.000000      8.758545000000000E-01     -1.135430000000000E+02      4.101257000000000E-01     -1.358047000000000E+02
4950000000.000000      8.729248000000000E-01     -1.134844000000000E+02      4.115601000000000E-01     -1.364687000000000E+02
4951000000.000000      8.702087000000000E-01     -1.136055000000000E+02      4.134979000000000E-01     -1.369922000000000E+02
4952000000.000000      8.673401000000000E-01     -1.136250000000000E+02      4.156342000000000E-01     -1.374375000000000E+02
4953000000.000000      8.623352000000000E-01     -1.137031000000000E+02      4.172821000000000E-01     -1.377266000000000E+02
4954000000.000000      8.586121000000000E-01     -1.137656000000000E+02      4.179077000000000E-01     -1.382813000000000E+02
