! Network Analyzer HP8722D
! Hewlett-Packard
! Data name: Linha & Wilkinson
! Saver's name: Rodrigo Anjos
! Comments: Teste da utilização de aquisição
continua pelo VNA HP8722D
! Time and date: 21/5/2025 16:27
!              Frequency                     S11                                                   S21                                                   S12                                                   S22
# HZ  S  MA R 50
4800000000.000000      5.408936000000000E-01     -1.088750000000000E+02      1.172104000000000E-01     -1.527109000000000E+02
4801000000.000000      5.406799000000000E-01     -1.095273000000000E+02      1.155014000000000E-01     -1.506875000000000E+02
4802000000.000000      5.394287000000000E-01     -1.103320000000000E+02      1.143532000000000E-01     -1.488750000000000E+02
4803000000.000000      5.390015000000000E-01     -1.111523000000000E+02      1.132622000000000E-01     -1.470391000000000E+02
4804000000.000000      5.396118000000000E-01     -1.115937000000000E+02      1.124191000000000E-01     -1.452891000000000E+02
4805000000.000000      5.410156000000000E-01     -1.122539000000000E+02      1.118546000000000E-01     -1.433125000000000E+02
4806000000.000000      5.399475000000000E-01     -1.128750000000000E+02      1.116333000000000E-01     -1.415703000000000E+02
4807000000.000000      5.415344000000000E-01     -1.135547000000000E+02      1.114388000000000E-01     -1.393906000000000E+02
4808000000.000000      5.417480000000000E-01     -1.140859000000000E+02      1.116753000000000E-01     -1.372734000000000E+02
4809000000.000000      5.442200000000000E-01     -1.149336000000000E+02      1.120110000000000E-01     -1.356641000000000E+02
4810000000.000000      5.448608000000000E-01     -1.156094000000000E+02      1.129303000000000E-01     -1.338984000000000E+02
4811000000.000000      5.468140000000000E-01     -1.163672000000000E+02      1.136780000000000E-01     -1.320313000000000E+02
4812000000.000000      5.482788000000000E-01     -1.166367000000000E+02      1.148987000000000E-01     -1.303984000000000E+02
4813000000.000000      5.511475000000000E-01     -1.175078000000000E+02      1.163063000000000E-01     -1.286562000000000E+02
4814000000.000000      5.530090000000000E-01     -1.181992000000000E+02      1.179085000000000E-01     -1.270195000000000E+02
4815000000.000000      5.544128000000000E-01     -1.187812000000000E+02      1.191826000000000E-01     -1.254883000000000E+02
4816000000.000000      5.569763000000000E-01     -1.193125000000000E+02      1.209679000000000E-01     -1.240469000000000E+02
4817000000.000000      5.608215000000000E-01     -1.197305000000000E+02      1.231232000000000E-01     -1.226445000000000E+02
4818000000.000000      5.636902000000000E-01     -1.206602000000000E+02      1.254120000000000E-01     -1.212578000000000E+02
4819000000.000000      5.671997000000000E-01     -1.210742000000000E+02      1.278839000000000E-01     -1.202070000000000E+02
4820000000.000000      5.698547000000000E-01     -1.217031000000000E+02      1.300354000000000E-01     -1.188359000000000E+02
4821000000.000000      5.742188000000000E-01     -1.220937000000000E+02      1.323013000000000E-01     -1.178437000000000E+02
4822000000.000000      5.799255000000000E-01     -1.227695000000000E+02      1.353912000000000E-01     -1.168398000000000E+02
4823000000.000000      5.823669000000000E-01     -1.231875000000000E+02      1.380234000000000E-01     -1.159414000000000E+02
4824000000.000000      5.865784000000000E-01     -1.236758000000000E+02      1.412811000000000E-01     -1.152226000000000E+02
4825000000.000000      5.925903000000000E-01     -1.241680000000000E+02      1.436462000000000E-01     -1.143476000000000E+02
4826000000.000000      5.957031000000000E-01     -1.247031000000000E+02      1.465225000000000E-01     -1.138828000000000E+02
4827000000.000000      6.019592000000000E-01     -1.248711000000000E+02      1.498337000000000E-01     -1.131172000000000E+02
4828000000.000000      6.080933000000000E-01     -1.253672000000000E+02      1.524429000000000E-01     -1.123945000000000E+02
4829000000.000000      6.115112000000000E-01     -1.257891000000000E+02      1.553116000000000E-01     -1.119570000000000E+02
4830000000.000000      6.192322000000000E-01     -1.261562000000000E+02      1.586533000000000E-01     -1.115508000000000E+02
4831000000.000000      6.240234000000000E-01     -1.265742000000000E+02      1.617813000000000E-01     -1.111719000000000E+02
4832000000.000000      6.322021000000000E-01     -1.268047000000000E+02      1.651535000000000E-01     -1.105820000000000E+02
4833000000.000000      6.367798000000000E-01     -1.270508000000000E+02      1.684723000000000E-01     -1.104102000000000E+02
4834000000.000000      6.435242000000000E-01     -1.274570000000000E+02      1.715546000000000E-01     -1.099883000000000E+02
4835000000.000000      6.484985000000000E-01     -1.276211000000000E+02      1.748810000000000E-01     -1.099453000000000E+02
4836000000.000000      6.574097000000000E-01     -1.278437000000000E+02      1.777115000000000E-01     -1.097305000000000E+02
4837000000.000000      6.654663000000000E-01     -1.281563000000000E+02      1.810074000000000E-01     -1.097070000000000E+02
4838000000.000000      6.690063000000000E-01     -1.283125000000000E+02      1.844330000000000E-01     -1.093320000000000E+02
4839000000.000000      6.780701000000000E-01     -1.283828000000000E+02      1.871262000000000E-01     -1.092344000000000E+02
4840000000.000000      6.834717000000000E-01     -1.287656000000000E+02      1.900940000000000E-01     -1.092500000000000E+02
4841000000.000000      6.918335000000000E-01     -1.288828000000000E+02      1.939316000000000E-01     -1.093476000000000E+02
4842000000.000000      7.000427000000000E-01     -1.290000000000000E+02      1.965866000000000E-01     -1.092148000000000E+02
4843000000.000000      7.061768000000000E-01     -1.292734000000000E+02      1.998901000000000E-01     -1.093555000000000E+02
4844000000.000000      7.136230000000000E-01     -1.291484000000000E+02      2.027740000000000E-01     -1.092266000000000E+02
4845000000.000000      7.206726000000000E-01     -1.292578000000000E+02      2.057190000000000E-01     -1.093594000000000E+02
4846000000.000000      7.287292000000000E-01     -1.293047000000000E+02      2.091141000000000E-01     -1.093437000000000E+02
4847000000.000000      7.365723000000000E-01     -1.293828000000000E+02      2.123184000000000E-01     -1.094219000000000E+02
4848000000.000000      7.443237000000000E-01     -1.294062000000000E+02      2.146683000000000E-01     -1.094258000000000E+02
4849000000.000000      7.513733000000000E-01     -1.296719000000000E+02      2.183685000000000E-01     -1.097812000000000E+02
4850000000.000000      7.590332000000000E-01     -1.294219000000000E+02      2.207565000000000E-01     -1.097344000000000E+02
4851000000.000000      7.683411000000000E-01     -1.295547000000000E+02      2.241669000000000E-01     -1.100195000000000E+02
4852000000.000000      7.765503000000000E-01     -1.294844000000000E+02      2.265549000000000E-01     -1.101406000000000E+02
4853000000.000000      7.828979000000000E-01     -1.294453000000000E+02      2.291183000000000E-01     -1.103125000000000E+02
4854000000.000000      7.933960000000000E-01     -1.295938000000000E+02      2.325592000000000E-01     -1.107461000000000E+02
4855000000.000000      7.978210000000000E-01     -1.294922000000000E+02      2.340393000000000E-01     -1.107734000000000E+02
4856000000.000000      8.087769000000000E-01     -1.295000000000000E+02      2.375488000000000E-01     -1.108516000000000E+02
4857000000.000000      8.147278000000000E-01     -1.295781000000000E+02      2.408981000000000E-01     -1.111719000000000E+02
4858000000.000000      8.208618000000000E-01     -1.295156000000000E+02      2.425842000000000E-01     -1.114258000000000E+02
4859000000.000000      8.285522000000000E-01     -1.294141000000000E+02      2.457733000000000E-01     -1.117500000000000E+02
4860000000.000000      8.368835000000000E-01     -1.293437000000000E+02      2.482529000000000E-01     -1.118945000000000E+02
4861000000.000000      8.453064000000000E-01     -1.292187000000000E+02      2.506714000000000E-01     -1.122383000000000E+02
4862000000.000000      8.510742000000000E-01     -1.291641000000000E+02      2.531433000000000E-01     -1.123633000000000E+02
4863000000.000000      8.588867000000000E-01     -1.290313000000000E+02      2.554474000000000E-01     -1.128086000000000E+02
4864000000.000000      8.664856000000000E-01     -1.290625000000000E+02      2.579651000000000E-01     -1.129336000000000E+02
4865000000.000000      8.722534000000000E-01     -1.291094000000000E+02      2.597046000000000E-01     -1.131562000000000E+02
4866000000.000000      8.799744000000000E-01     -1.288594000000000E+02      2.616425000000000E-01     -1.134336000000000E+02
4867000000.000000      8.865967000000000E-01     -1.288125000000000E+02      2.648010000000000E-01     -1.138320000000000E+02
4868000000.000000      8.932495000000000E-01     -1.289219000000000E+02      2.668152000000000E-01     -1.141406000000000E+02
4869000000.000000      8.996277000000000E-01     -1.287734000000000E+02      2.679138000000000E-01     -1.143672000000000E+02
4870000000.000000      9.062195000000000E-01     -1.285547000000000E+02      2.706451000000000E-01     -1.145937000000000E+02
4871000000.000000      9.136047000000000E-01     -1.285781000000000E+02      2.727661000000000E-01     -1.148438000000000E+02
4872000000.000000      9.186096000000000E-01     -1.284688000000000E+02      2.742615000000000E-01     -1.150742000000000E+02
4873000000.000000      9.233093000000000E-01     -1.282812000000000E+02      2.763977000000000E-01     -1.155312000000000E+02
4874000000.000000      9.292908000000000E-01     -1.282031000000000E+02      2.780609000000000E-01     -1.158828000000000E+02
4875000000.000000      9.359741000000000E-01     -1.282578000000000E+02      2.794952000000000E-01     -1.160273000000000E+02
4876000000.000000      9.379272000000000E-01     -1.281016000000000E+02      2.819977000000000E-01     -1.164141000000000E+02
4877000000.000000      9.439087000000000E-01     -1.279102000000000E+02      2.829285000000000E-01     -1.165430000000000E+02
4878000000.000000      9.489441000000000E-01     -1.278672000000000E+02      2.856293000000000E-01     -1.168476000000000E+02
4879000000.000000      9.543457000000000E-01     -1.278437000000000E+02      2.862091000000000E-01     -1.171094000000000E+02
4880000000.000000      9.578552000000000E-01     -1.277266000000000E+02      2.885437000000000E-01     -1.174531000000000E+02
4881000000.000000      9.613342000000000E-01     -1.274570000000000E+02      2.901764000000000E-01     -1.174726000000000E+02
4882000000.000000      9.631348000000000E-01     -1.273906000000000E+02      2.916870000000000E-01     -1.179961000000000E+02
4883000000.000000      9.646912000000000E-01     -1.271758000000000E+02      2.925568000000000E-01     -1.181758000000000E+02
4884000000.000000      9.724731000000000E-01     -1.270742000000000E+02      2.942352000000000E-01     -1.185156000000000E+02
4885000000.000000      9.740906000000000E-01     -1.270508000000000E+02      2.957611000000000E-01     -1.185273000000000E+02
4886000000.000000      9.759216000000000E-01     -1.268476000000000E+02      2.967987000000000E-01     -1.187461000000000E+02
4887000000.000000      9.784241000000000E-01     -1.266640000000000E+02      2.991486000000000E-01     -1.190391000000000E+02
4888000000.000000      9.788208000000000E-01     -1.264336000000000E+02      3.007660000000000E-01     -1.193594000000000E+02
4889000000.000000      9.822998000000000E-01     -1.262734000000000E+02      3.015289000000000E-01     -1.193984000000000E+02
4890000000.000000      9.831238000000000E-01     -1.259492000000000E+02      3.022003000000000E-01     -1.197656000000000E+02
4891000000.000000      9.817505000000000E-01     -1.259883000000000E+02      3.035736000000000E-01     -1.200430000000000E+02
4892000000.000000      9.844055000000000E-01     -1.256797000000000E+02      3.053131000000000E-01     -1.199375000000000E+02
4893000000.000000      9.856567000000000E-01     -1.255703000000000E+02      3.073730000000000E-01     -1.205273000000000E+02
4894000000.000000      9.857483000000000E-01     -1.254258000000000E+02      3.082428000000000E-01     -1.205312000000000E+02
4895000000.000000      9.842224000000000E-01     -1.251797000000000E+02      3.095245000000000E-01     -1.207031000000000E+02
4896000000.000000      9.843140000000000E-01     -1.250039000000000E+02      3.107758000000000E-01     -1.209180000000000E+02
4897000000.000000      9.877319000000000E-01     -1.247187000000000E+02      3.125916000000000E-01     -1.211016000000000E+02
4898000000.000000      9.849243000000000E-01     -1.245078000000000E+02      3.138275000000000E-01     -1.213047000000000E+02
4899000000.000000      9.845276000000000E-01     -1.244180000000000E+02      3.156586000000000E-01     -1.216406000000000E+02
4900000000.000000      9.856873000000000E-01     -1.240430000000000E+02      3.171539000000000E-01     -1.216836000000000E+02
4901000000.000000      9.844971000000000E-01     -1.237500000000000E+02      3.187103000000000E-01     -1.218281000000000E+02
4902000000.000000      9.827271000000000E-01     -1.236719000000000E+02      3.206482000000000E-01     -1.220898000000000E+02
4903000000.000000      9.834900000000000E-01     -1.232422000000000E+02      3.214569000000000E-01     -1.221484000000000E+02
4904000000.000000      9.785767000000000E-01     -1.228398000000000E+02      3.226776000000000E-01     -1.222344000000000E+02
4905000000.000000      9.778748000000000E-01     -1.226563000000000E+02      3.255157000000000E-01     -1.227344000000000E+02
4906000000.000000      9.784851000000000E-01     -1.222930000000000E+02      3.268585000000000E-01     -1.225156000000000E+02
4907000000.000000      9.750977000000000E-01     -1.220742000000000E+02      3.285980000000000E-01     -1.229844000000000E+02
4908000000.000000      9.745483000000000E-01     -1.220430000000000E+02      3.308105000000000E-01     -1.233437000000000E+02
4909000000.000000      9.727173000000000E-01     -1.216172000000000E+02      3.321838000000000E-01     -1.232891000000000E+02
4910000000.000000      9.687500000000000E-01     -1.213750000000000E+02      3.334808000000000E-01     -1.235625000000000E+02
4911000000.000000      9.674377000000000E-01     -1.209844000000000E+02      3.360291000000000E-01     -1.237656000000000E+02
4912000000.000000      9.666443000000000E-01     -1.207109000000000E+02      3.376770000000000E-01     -1.240586000000000E+02
4913000000.000000      9.644775000000000E-01     -1.204219000000000E+02      3.392944000000000E-01     -1.241875000000000E+02
4914000000.000000      9.624939000000000E-01     -1.200898000000000E+02      3.412170000000000E-01     -1.243906000000000E+02
4915000000.000000      9.634094000000000E-01     -1.198398000000000E+02      3.428192000000000E-01     -1.247890000000000E+02
4916000000.000000      9.570007000000000E-01     -1.193750000000000E+02      3.447418000000000E-01     -1.250547000000000E+02
4917000000.000000      9.543457000000000E-01     -1.191836000000000E+02      3.464508000000000E-01     -1.250508000000000E+02
4918000000.000000      9.559326000000000E-01     -1.189609000000000E+02      3.485107000000000E-01     -1.255195000000000E+02
4919000000.000000      9.532471000000000E-01     -1.187969000000000E+02      3.514404000000000E-01     -1.254883000000000E+02
4920000000.000000      9.504395000000000E-01     -1.183867000000000E+02      3.520966000000000E-01     -1.260195000000000E+02
4921000000.000000      9.481812000000000E-01     -1.180859000000000E+02      3.552094000000000E-01     -1.262070000000000E+02
4922000000.000000      9.450073000000000E-01     -1.177891000000000E+02      3.555145000000000E-01     -1.263555000000000E+02
4923000000.000000      9.429626000000000E-01     -1.175586000000000E+02      3.582001000000000E-01     -1.266914000000000E+02
4924000000.000000      9.429321000000000E-01     -1.171836000000000E+02      3.606110000000000E-01     -1.271016000000000E+02
4925000000.000000      9.395142000000000E-01     -1.169727000000000E+02      3.626556000000000E-01     -1.271836000000000E+02
4926000000.000000      9.380798000000000E-01     -1.167851000000000E+02      3.647614000000000E-01     -1.276875000000000E+02
4927000000.000000      9.342346000000000E-01     -1.164609000000000E+02      3.666382000000000E-01     -1.278789000000000E+02
4928000000.000000      9.317932000000000E-01     -1.162852000000000E+02      3.675995000000000E-01     -1.282266000000000E+02
4929000000.000000      9.298096000000000E-01     -1.160273000000000E+02      3.706970000000000E-01     -1.284062000000000E+02
4930000000.000000      9.280090000000000E-01     -1.157813000000000E+02      3.728027000000000E-01     -1.288828000000000E+02
4931000000.000000      9.248962000000000E-01     -1.156562000000000E+02      3.748474000000000E-01     -1.292578000000000E+02
4932000000.000000      9.232788000000000E-01     -1.155234000000000E+02      3.772583000000000E-01     -1.296328000000000E+02
4933000000.000000      9.195251000000000E-01     -1.152656000000000E+02      3.775787000000000E-01     -1.296797000000000E+02
4934000000.000000      9.189453000000000E-01     -1.150430000000000E+02      3.799133000000000E-01     -1.304453000000000E+02
4935000000.000000      9.129639000000000E-01     -1.147305000000000E+02      3.817444000000000E-01     -1.305000000000000E+02
4936000000.000000      9.111328000000000E-01     -1.147695000000000E+02      3.841400000000000E-01     -1.309453000000000E+02
4937000000.000000      9.096680000000000E-01     -1.144844000000000E+02      3.860626000000000E-01     -1.312969000000000E+02
4938000000.000000      9.067993000000000E-01     -1.143984000000000E+02      3.887177000000000E-01     -1.316875000000000E+02
4939000000.000000      9.046326000000000E-01     -1.141758000000000E+02      3.910522000000000E-01     -1.319844000000000E+02
4940000000.000000      9.036255000000000E-01     -1.140312000000000E+02      3.929291000000000E-01     -1.324766000000000E+02
4941000000.000000      8.995667000000000E-01     -1.140430000000000E+02      3.940125000000000E-01     -1.328281000000000E+02
4942000000.000000      8.961487000000000E-01     -1.139570000000000E+02      3.958130000000000E-01     -1.333516000000000E+02
4943000000.000000      8.941040000000000E-01     -1.138750000000000E+02      3.993530000000000E-01     -1.338438000000000E+02
4944000000.000000      8.921814000000000E-01     -1.137266000000000E+02      4.005127000000000E-01     -1.338984000000000E+02
4945000000.000000      8.894653000000000E-01     -1.136133000000000E+02      4.017944000000000E-01     -1.344687000000000E+02
4946000000.000000      8.855896000000000E-01     -1.136836000000000E+02      4.038696000000000E-01     -1.349609000000000E+02
4947000000.000000      8.836975000000000E-01     -1.134922000000000E+02      4.051666000000000E-01     -1.352656000000000E+02
4948000000.000000      8.813477000000000E-01     -1.136250000000000E+02      4.078979000000000E-01     -1.356953000000000E+02
4949000000.000000      8.760986000000000E-01     -1.135078000000000E+02      4.097595000000000E-01     -1.359297000000000E+02
4950000000.000000      8.728943000000000E-01     -1.136601000000000E+02      4.107056000000000E-01     -1.367422000000000E+02
4951000000.000000      8.686829000000000E-01     -1.136172000000000E+02      4.131927000000000E-01     -1.371328000000000E+02
4952000000.000000      8.689575000000000E-01     -1.136601000000000E+02      4.161987000000000E-01     -1.374766000000000E+02
4953000000.000000      8.618774000000000E-01     -1.137031000000000E+02      4.170837000000000E-01     -1.378594000000000E+02
4954000000.000000      8.593140000000000E-01     -1.138398000000000E+02      4.189148000000000E-01     -1.384063000000000E+02
