! Network Analyzer HP8722D
! Hewlett-Packard
! Data name: Linha & Wilkinson
! Saver's name: Rodrigo Anjos
! Comments: Teste da utilização de aquisição
continua pelo VNA HP8722D
! Time and date: 21/5/2025 16:41
!              Frequency                     S11                                                   S21                                                   S12                                                   S22
# HZ  S  MA R 50
4800000000.000000      5.397034000000000E-01     -1.089453000000000E+02      1.170578000000000E-01     -1.528203000000000E+02
4801000000.000000      5.396118000000000E-01     -1.093906000000000E+02      1.155357000000000E-01     -1.509140000000000E+02
4802000000.000000      5.390015000000000E-01     -1.100977000000000E+02      1.138229000000000E-01     -1.489844000000000E+02
4803000000.000000      5.400085000000000E-01     -1.107969000000000E+02      1.132813000000000E-01     -1.469766000000000E+02
4804000000.000000      5.387878000000000E-01     -1.114453000000000E+02      1.124077000000000E-01     -1.455156000000000E+02
4805000000.000000      5.413513000000000E-01     -1.121445000000000E+02      1.117249000000000E-01     -1.435156000000000E+02
4806000000.000000      5.404053000000000E-01     -1.125117000000000E+02      1.115952000000000E-01     -1.414844000000000E+02
4807000000.000000      5.398560000000000E-01     -1.135820000000000E+02      1.113777000000000E-01     -1.397187000000000E+02
4808000000.000000      5.412903000000000E-01     -1.140156000000000E+02      1.118011000000000E-01     -1.375000000000000E+02
4809000000.000000      5.423889000000000E-01     -1.145820000000000E+02      1.122665000000000E-01     -1.358984000000000E+02
4810000000.000000      5.423889000000000E-01     -1.154531000000000E+02      1.127892000000000E-01     -1.339766000000000E+02
4811000000.000000      5.456848000000000E-01     -1.159531000000000E+02      1.138153000000000E-01     -1.321640000000000E+02
4812000000.000000      5.491333000000000E-01     -1.168086000000000E+02      1.146355000000000E-01     -1.304297000000000E+02
4813000000.000000      5.500488000000000E-01     -1.175312000000000E+02      1.160774000000000E-01     -1.286562000000000E+02
4814000000.000000      5.513306000000000E-01     -1.181953000000000E+02      1.174812000000000E-01     -1.273242000000000E+02
4815000000.000000      5.550232000000000E-01     -1.186445000000000E+02      1.192169000000000E-01     -1.255351000000000E+02
4816000000.000000      5.582581000000000E-01     -1.191875000000000E+02      1.207809000000000E-01     -1.241172000000000E+02
4817000000.000000      5.605164000000000E-01     -1.197734000000000E+02      1.232414000000000E-01     -1.229648000000000E+02
4818000000.000000      5.625916000000000E-01     -1.204844000000000E+02      1.251221000000000E-01     -1.213203000000000E+02
4819000000.000000      5.665894000000000E-01     -1.209453000000000E+02      1.273727000000000E-01     -1.200664000000000E+02
4820000000.000000      5.702820000000000E-01     -1.215977000000000E+02      1.302567000000000E-01     -1.189414000000000E+02
4821000000.000000      5.745239000000000E-01     -1.220234000000000E+02      1.326141000000000E-01     -1.177617000000000E+02
4822000000.000000      5.793762000000000E-01     -1.228281000000000E+02      1.349792000000000E-01     -1.166289000000000E+02
4823000000.000000      5.822144000000000E-01     -1.230430000000000E+02      1.374283000000000E-01     -1.159844000000000E+02
4824000000.000000      5.876465000000000E-01     -1.236094000000000E+02      1.405029000000000E-01     -1.151523000000000E+02
4825000000.000000      5.922546000000000E-01     -1.241406000000000E+02      1.432266000000000E-01     -1.143164000000000E+02
4826000000.000000      5.969849000000000E-01     -1.247070000000000E+02      1.459732000000000E-01     -1.137617000000000E+02
4827000000.000000      6.040649000000000E-01     -1.248516000000000E+02      1.491776000000000E-01     -1.128828000000000E+02
4828000000.000000      6.090698000000000E-01     -1.252695000000000E+02      1.526642000000000E-01     -1.124336000000000E+02
4829000000.000000      6.116333000000000E-01     -1.257148000000000E+02      1.552048000000000E-01     -1.119687000000000E+02
4830000000.000000      6.193848000000000E-01     -1.262891000000000E+02      1.583176000000000E-01     -1.114023000000000E+02
4831000000.000000      6.229248000000000E-01     -1.264648000000000E+02      1.615067000000000E-01     -1.111797000000000E+02
4832000000.000000      6.311951000000000E-01     -1.268086000000000E+02      1.651688000000000E-01     -1.106367000000000E+02
4833000000.000000      6.372986000000000E-01     -1.271367000000000E+02      1.681976000000000E-01     -1.103711000000000E+02
4834000000.000000      6.440125000000000E-01     -1.274101000000000E+02      1.711655000000000E-01     -1.101641000000000E+02
4835000000.000000      6.499634000000000E-01     -1.276523000000000E+02      1.744766000000000E-01     -1.098320000000000E+02
4836000000.000000      6.576843000000000E-01     -1.276250000000000E+02      1.775131000000000E-01     -1.096133000000000E+02
4837000000.000000      6.643982000000000E-01     -1.278984000000000E+02      1.805115000000000E-01     -1.096758000000000E+02
4838000000.000000      6.714172000000000E-01     -1.281328000000000E+02      1.840210000000000E-01     -1.092969000000000E+02
4839000000.000000      6.789246000000000E-01     -1.284375000000000E+02      1.870193000000000E-01     -1.091445000000000E+02
4840000000.000000      6.828308000000000E-01     -1.287031000000000E+02      1.897736000000000E-01     -1.090391000000000E+02
4841000000.000000      6.904297000000000E-01     -1.286953000000000E+02      1.937408000000000E-01     -1.092969000000000E+02
4842000000.000000      6.984558000000000E-01     -1.289141000000000E+02      1.968079000000000E-01     -1.092539000000000E+02
4843000000.000000      7.051697000000000E-01     -1.291484000000000E+02      1.995010000000000E-01     -1.092891000000000E+02
4844000000.000000      7.128906000000000E-01     -1.292109000000000E+02      2.023621000000000E-01     -1.091953000000000E+02
4845000000.000000      7.202454000000000E-01     -1.292578000000000E+02      2.057648000000000E-01     -1.093476000000000E+02
4846000000.000000      7.278137000000000E-01     -1.292891000000000E+02      2.087936000000000E-01     -1.091719000000000E+02
4847000000.000000      7.357178000000000E-01     -1.293359000000000E+02      2.116623000000000E-01     -1.094219000000000E+02
4848000000.000000      7.434998000000000E-01     -1.293437000000000E+02      2.143326000000000E-01     -1.095820000000000E+02
4849000000.000000      7.512512000000000E-01     -1.296328000000000E+02      2.180023000000000E-01     -1.097187000000000E+02
4850000000.000000      7.590942000000000E-01     -1.294688000000000E+02      2.210312000000000E-01     -1.097930000000000E+02
4851000000.000000      7.659912000000000E-01     -1.294375000000000E+02      2.240829000000000E-01     -1.099101000000000E+02
4852000000.000000      7.746887000000000E-01     -1.294531000000000E+02      2.269897000000000E-01     -1.101289000000000E+02
4853000000.000000      7.821045000000000E-01     -1.294844000000000E+02      2.282410000000000E-01     -1.103359000000000E+02
4854000000.000000      7.919922000000000E-01     -1.293828000000000E+02      2.318878000000000E-01     -1.106367000000000E+02
4855000000.000000      7.975464000000000E-01     -1.295469000000000E+02      2.344208000000000E-01     -1.106328000000000E+02
4856000000.000000      8.064270000000000E-01     -1.292734000000000E+02      2.367935000000000E-01     -1.107422000000000E+02
4857000000.000000      8.145447000000000E-01     -1.296406000000000E+02      2.402039000000000E-01     -1.111601000000000E+02
4858000000.000000      8.205261000000000E-01     -1.293750000000000E+02      2.424850000000000E-01     -1.113125000000000E+02
4859000000.000000      8.276978000000000E-01     -1.294219000000000E+02      2.452774000000000E-01     -1.116250000000000E+02
4860000000.000000      8.366394000000000E-01     -1.292500000000000E+02      2.479324000000000E-01     -1.117695000000000E+02
4861000000.000000      8.447876000000000E-01     -1.292266000000000E+02      2.501831000000000E-01     -1.120273000000000E+02
4862000000.000000      8.514404000000000E-01     -1.292109000000000E+02      2.529449000000000E-01     -1.123125000000000E+02
4863000000.000000      8.575745000000000E-01     -1.291016000000000E+02      2.547302000000000E-01     -1.127656000000000E+02
4864000000.000000      8.668823000000000E-01     -1.290547000000000E+02      2.579346000000000E-01     -1.128437000000000E+02
4865000000.000000      8.726196000000000E-01     -1.291250000000000E+02      2.599945000000000E-01     -1.132031000000000E+02
4866000000.000000      8.801880000000000E-01     -1.289766000000000E+02      2.619324000000000E-01     -1.134375000000000E+02
4867000000.000000      8.869324000000000E-01     -1.287656000000000E+02      2.643585000000000E-01     -1.137500000000000E+02
4868000000.000000      8.933105000000000E-01     -1.287891000000000E+02      2.662811000000000E-01     -1.140351000000000E+02
4869000000.000000      8.982544000000000E-01     -1.287344000000000E+02      2.683563000000000E-01     -1.144883000000000E+02
4870000000.000000      9.051208000000000E-01     -1.286016000000000E+02      2.704468000000000E-01     -1.144258000000000E+02
4871000000.000000      9.110413000000000E-01     -1.286484000000000E+02      2.726440000000000E-01     -1.148750000000000E+02
4872000000.000000      9.197998000000000E-01     -1.285234000000000E+02      2.736664000000000E-01     -1.149805000000000E+02
4873000000.000000      9.246216000000000E-01     -1.282812000000000E+02      2.761383000000000E-01     -1.154102000000000E+02
4874000000.000000      9.294128000000000E-01     -1.282109000000000E+02      2.781677000000000E-01     -1.157187000000000E+02
4875000000.000000      9.365234000000000E-01     -1.282578000000000E+02      2.795105000000000E-01     -1.159453000000000E+02
4876000000.000000      9.377747000000000E-01     -1.281563000000000E+02      2.811584000000000E-01     -1.163359000000000E+02
4877000000.000000      9.438171000000000E-01     -1.279766000000000E+02      2.830505000000000E-01     -1.164766000000000E+02
4878000000.000000      9.489441000000000E-01     -1.278086000000000E+02      2.847137000000000E-01     -1.167500000000000E+02
4879000000.000000      9.543152000000000E-01     -1.277617000000000E+02      2.864685000000000E-01     -1.170313000000000E+02
4880000000.000000      9.589539000000000E-01     -1.276250000000000E+02      2.878876000000000E-01     -1.174180000000000E+02
4881000000.000000      9.624023000000000E-01     -1.275312000000000E+02      2.902527000000000E-01     -1.174961000000000E+02
4882000000.000000      9.629211000000000E-01     -1.273125000000000E+02      2.910461000000000E-01     -1.178633000000000E+02
4883000000.000000      9.656067000000000E-01     -1.272227000000000E+02      2.922668000000000E-01     -1.180547000000000E+02
4884000000.000000      9.699707000000000E-01     -1.270391000000000E+02      2.942047000000000E-01     -1.184062000000000E+02
4885000000.000000      9.735107000000000E-01     -1.270273000000000E+02      2.955322000000000E-01     -1.185273000000000E+02
4886000000.000000      9.748230000000000E-01     -1.267539000000000E+02      2.971191000000000E-01     -1.187187000000000E+02
4887000000.000000      9.777222000000000E-01     -1.266055000000000E+02      2.989655000000000E-01     -1.190586000000000E+02
4888000000.000000      9.788818000000000E-01     -1.264063000000000E+02      3.004761000000000E-01     -1.191484000000000E+02
4889000000.000000      9.817505000000000E-01     -1.262461000000000E+02      3.012390000000000E-01     -1.194453000000000E+02
4890000000.000000      9.814148000000000E-01     -1.259141000000000E+02      3.025055000000000E-01     -1.196367000000000E+02
4891000000.000000      9.801941000000000E-01     -1.258828000000000E+02      3.033295000000000E-01     -1.200156000000000E+02
4892000000.000000      9.826965000000000E-01     -1.257070000000000E+02      3.055725000000000E-01     -1.199492000000000E+02
4893000000.000000      9.864197000000000E-01     -1.255078000000000E+02      3.070831000000000E-01     -1.203672000000000E+02
4894000000.000000      9.850464000000000E-01     -1.253789000000000E+02      3.074646000000000E-01     -1.205703000000000E+02
4895000000.000000      9.854736000000000E-01     -1.251094000000000E+02      3.095703000000000E-01     -1.206211000000000E+02
4896000000.000000      9.833374000000000E-01     -1.248047000000000E+02      3.106537000000000E-01     -1.208281000000000E+02
4897000000.000000      9.858093000000000E-01     -1.246601000000000E+02      3.123322000000000E-01     -1.210859000000000E+02
4898000000.000000      9.836121000000000E-01     -1.244609000000000E+02      3.139496000000000E-01     -1.211016000000000E+02
4899000000.000000      9.842529000000000E-01     -1.243125000000000E+02      3.151245000000000E-01     -1.215859000000000E+02
4900000000.000000      9.837341000000000E-01     -1.240156000000000E+02      3.167419000000000E-01     -1.216055000000000E+02
4901000000.000000      9.832458000000000E-01     -1.236719000000000E+02      3.186798000000000E-01     -1.217734000000000E+02
4902000000.000000      9.817810000000000E-01     -1.235234000000000E+02      3.207092000000000E-01     -1.219414000000000E+02
4903000000.000000      9.825745000000000E-01     -1.231094000000000E+02      3.208618000000000E-01     -1.220664000000000E+02
4904000000.000000      9.793396000000000E-01     -1.229062000000000E+02      3.232422000000000E-01     -1.222695000000000E+02
4905000000.000000      9.782104000000000E-01     -1.226250000000000E+02      3.250580000000000E-01     -1.224883000000000E+02
4906000000.000000      9.754333000000000E-01     -1.222461000000000E+02      3.270874000000000E-01     -1.223750000000000E+02
4907000000.000000      9.734802000000000E-01     -1.220313000000000E+02      3.283234000000000E-01     -1.229922000000000E+02
4908000000.000000      9.732666000000000E-01     -1.219258000000000E+02      3.304443000000000E-01     -1.231797000000000E+02
4909000000.000000      9.723206000000000E-01     -1.214453000000000E+02      3.317413000000000E-01     -1.233398000000000E+02
4910000000.000000      9.692078000000000E-01     -1.212109000000000E+02      3.331909000000000E-01     -1.235430000000000E+02
4911000000.000000      9.671326000000000E-01     -1.209922000000000E+02      3.359375000000000E-01     -1.236758000000000E+02
4912000000.000000      9.674988000000000E-01     -1.206484000000000E+02      3.377380000000000E-01     -1.240664000000000E+02
4913000000.000000      9.643555000000000E-01     -1.203242000000000E+02      3.395081000000000E-01     -1.240859000000000E+02
4914000000.000000      9.623413000000000E-01     -1.200156000000000E+02      3.405914000000000E-01     -1.243086000000000E+02
4915000000.000000      9.614258000000000E-01     -1.197578000000000E+02      3.426361000000000E-01     -1.248086000000000E+02
4916000000.000000      9.591980000000000E-01     -1.194883000000000E+02      3.445435000000000E-01     -1.250234000000000E+02
4917000000.000000      9.561462000000000E-01     -1.191484000000000E+02      3.464813000000000E-01     -1.250156000000000E+02
4918000000.000000      9.561768000000000E-01     -1.189297000000000E+02      3.480530000000000E-01     -1.254492000000000E+02
4919000000.000000      9.513550000000000E-01     -1.185820000000000E+02      3.511963000000000E-01     -1.254648000000000E+02
4920000000.000000      9.489746000000000E-01     -1.183945000000000E+02      3.526459000000000E-01     -1.259805000000000E+02
4921000000.000000      9.488220000000000E-01     -1.180820000000000E+02      3.550262000000000E-01     -1.261562000000000E+02
4922000000.000000      9.433594000000000E-01     -1.177812000000000E+02      3.561707000000000E-01     -1.262695000000000E+02
4923000000.000000      9.431458000000000E-01     -1.174648000000000E+02      3.582001000000000E-01     -1.266758000000000E+02
4924000000.000000      9.427185000000000E-01     -1.171484000000000E+02      3.603973000000000E-01     -1.270391000000000E+02
4925000000.000000      9.377441000000000E-01     -1.169727000000000E+02      3.627930000000000E-01     -1.272461000000000E+02
4926000000.000000      9.360657000000000E-01     -1.167851000000000E+02      3.647308000000000E-01     -1.276094000000000E+02
4927000000.000000      9.338074000000000E-01     -1.164531000000000E+02      3.661041000000000E-01     -1.279062000000000E+02
4928000000.000000      9.311218000000000E-01     -1.161953000000000E+02      3.683167000000000E-01     -1.281016000000000E+02
4929000000.000000      9.295654000000000E-01     -1.158711000000000E+02      3.698730000000000E-01     -1.283906000000000E+02
4930000000.000000      9.263916000000000E-01     -1.156562000000000E+02      3.726959000000000E-01     -1.289063000000000E+02
4931000000.000000      9.248047000000000E-01     -1.155273000000000E+02      3.753357000000000E-01     -1.292500000000000E+02
4932000000.000000      9.219360000000000E-01     -1.153516000000000E+02      3.762512000000000E-01     -1.295781000000000E+02
4933000000.000000      9.193420000000000E-01     -1.151953000000000E+02      3.769531000000000E-01     -1.297812000000000E+02
4934000000.000000      9.175415000000000E-01     -1.149805000000000E+02      3.798981000000000E-01     -1.303047000000000E+02
4935000000.000000      9.138489000000000E-01     -1.146914000000000E+02      3.823090000000000E-01     -1.304219000000000E+02
4936000000.000000      9.105225000000000E-01     -1.146680000000000E+02      3.839264000000000E-01     -1.308047000000000E+02
4937000000.000000      9.082031000000000E-01     -1.144336000000000E+02      3.859253000000000E-01     -1.312187000000000E+02
4938000000.000000      9.065552000000000E-01     -1.142422000000000E+02      3.890991000000000E-01     -1.316562000000000E+02
4939000000.000000      9.028625000000000E-01     -1.141250000000000E+02      3.904572000000000E-01     -1.318594000000000E+02
4940000000.000000      9.023438000000000E-01     -1.139375000000000E+02      3.917236000000000E-01     -1.323984000000000E+02
4941000000.000000      8.981018000000000E-01     -1.140820000000000E+02      3.945618000000000E-01     -1.327109000000000E+02
4942000000.000000      8.942261000000000E-01     -1.139023000000000E+02      3.960266000000000E-01     -1.332578000000000E+02
4943000000.000000      8.941956000000000E-01     -1.137344000000000E+02      3.982086000000000E-01     -1.337109000000000E+02
4944000000.000000      8.912659000000000E-01     -1.137773000000000E+02      4.003448000000000E-01     -1.339609000000000E+02
4945000000.000000      8.892212000000000E-01     -1.136055000000000E+02      4.008026000000000E-01     -1.344609000000000E+02
4946000000.000000      8.850708000000000E-01     -1.136094000000000E+02      4.030914000000000E-01     -1.347969000000000E+02
4947000000.000000      8.816528000000000E-01     -1.134453000000000E+02      4.049072000000000E-01     -1.350937000000000E+02
4948000000.000000      8.797302000000000E-01     -1.133945000000000E+02      4.083252000000000E-01     -1.356953000000000E+02
4949000000.000000      8.765869000000000E-01     -1.134922000000000E+02      4.098511000000000E-01     -1.357500000000000E+02
4950000000.000000      8.715820000000000E-01     -1.135938000000000E+02      4.109497000000000E-01     -1.364687000000000E+02
4951000000.000000      8.684692000000000E-01     -1.135547000000000E+02      4.128876000000000E-01     -1.371328000000000E+02
4952000000.000000      8.676453000000000E-01     -1.134766000000000E+02      4.150391000000000E-01     -1.374687000000000E+02
4953000000.000000      8.621216000000000E-01     -1.138086000000000E+02      4.169617000000000E-01     -1.378203000000000E+02
4954000000.000000      8.602905000000000E-01     -1.138672000000000E+02      4.186401000000000E-01     -1.383672000000000E+02
