! Network Analyzer HP8722D
! Hewlett-Packard
! Data name: Linha & Wilkinson
! Saver's name: Rodrigo Anjos
! Comments: Teste da utilização de aquisição
continua pelo VNA HP8722D
! Time and date: 21/5/2025 17:15
!              Frequency                     S11                                                   S21                                                   S12                                                   S22
# HZ  S  MA R 50
4800000000.000000      5.413818000000000E-01     -1.087773000000000E+02      1.172180000000000E-01     -1.528203000000000E+02
4801000000.000000      5.395813000000000E-01     -1.094336000000000E+02      1.156464000000000E-01     -1.511562000000000E+02
4802000000.000000      5.400085000000000E-01     -1.099609000000000E+02      1.144295000000000E-01     -1.491797000000000E+02
4803000000.000000      5.393982000000000E-01     -1.108320000000000E+02      1.135674000000000E-01     -1.475469000000000E+02
4804000000.000000      5.394592000000000E-01     -1.113086000000000E+02      1.123543000000000E-01     -1.454844000000000E+02
4805000000.000000      5.391846000000000E-01     -1.121758000000000E+02      1.117287000000000E-01     -1.438125000000000E+02
4806000000.000000      5.398560000000000E-01     -1.126758000000000E+02      1.115532000000000E-01     -1.418203000000000E+02
4807000000.000000      5.401917000000000E-01     -1.132500000000000E+02      1.114769000000000E-01     -1.398281000000000E+02
4808000000.000000      5.414429000000000E-01     -1.140234000000000E+02      1.114769000000000E-01     -1.377812000000000E+02
4809000000.000000      5.409546000000000E-01     -1.148476000000000E+02      1.120453000000000E-01     -1.360937000000000E+02
4810000000.000000      5.438538000000000E-01     -1.154140000000000E+02      1.125641000000000E-01     -1.340937000000000E+02
4811000000.000000      5.455017000000000E-01     -1.159648000000000E+02      1.136398000000000E-01     -1.324297000000000E+02
4812000000.000000      5.490723000000000E-01     -1.165351000000000E+02      1.147537000000000E-01     -1.307109000000000E+02
4813000000.000000      5.516968000000000E-01     -1.172461000000000E+02      1.157112000000000E-01     -1.289922000000000E+02
4814000000.000000      5.505676000000000E-01     -1.182422000000000E+02      1.171265000000000E-01     -1.271914000000000E+02
4815000000.000000      5.543213000000000E-01     -1.186836000000000E+02      1.187439000000000E-01     -1.256562000000000E+02
4816000000.000000      5.571899000000000E-01     -1.192695000000000E+02      1.208687000000000E-01     -1.238750000000000E+02
4817000000.000000      5.599670000000000E-01     -1.198125000000000E+02      1.222496000000000E-01     -1.226484000000000E+02
4818000000.000000      5.621338000000000E-01     -1.205273000000000E+02      1.247025000000000E-01     -1.213047000000000E+02
4819000000.000000      5.664368000000000E-01     -1.209570000000000E+02      1.272125000000000E-01     -1.200859000000000E+02
4820000000.000000      5.707397000000000E-01     -1.215508000000000E+02      1.296768000000000E-01     -1.190703000000000E+02
4821000000.000000      5.729370000000000E-01     -1.219687000000000E+02      1.323013000000000E-01     -1.177930000000000E+02
4822000000.000000      5.785522000000000E-01     -1.225664000000000E+02      1.344223000000000E-01     -1.168086000000000E+02
4823000000.000000      5.805054000000000E-01     -1.231016000000000E+02      1.375351000000000E-01     -1.159219000000000E+02
4824000000.000000      5.885315000000000E-01     -1.236641000000000E+02      1.401825000000000E-01     -1.152305000000000E+02
4825000000.000000      5.915833000000000E-01     -1.240430000000000E+02      1.428299000000000E-01     -1.143047000000000E+02
4826000000.000000      5.957336000000000E-01     -1.245976000000000E+02      1.454849000000000E-01     -1.137773000000000E+02
4827000000.000000      6.019897000000000E-01     -1.248945000000000E+02      1.489410000000000E-01     -1.128672000000000E+02
4828000000.000000      6.095276000000000E-01     -1.252812000000000E+02      1.521225000000000E-01     -1.123516000000000E+02
4829000000.000000      6.114197000000000E-01     -1.255391000000000E+02      1.548386000000000E-01     -1.120703000000000E+02
4830000000.000000      6.191101000000000E-01     -1.261094000000000E+02      1.576614000000000E-01     -1.115234000000000E+02
4831000000.000000      6.244202000000000E-01     -1.263711000000000E+02      1.610489000000000E-01     -1.111328000000000E+02
4832000000.000000      6.309509000000000E-01     -1.266094000000000E+02      1.644974000000000E-01     -1.106680000000000E+02
4833000000.000000      6.379395000000000E-01     -1.269531000000000E+02      1.673813000000000E-01     -1.103555000000000E+02
4834000000.000000      6.430054000000000E-01     -1.272461000000000E+02      1.708679000000000E-01     -1.100430000000000E+02
4835000000.000000      6.492615000000000E-01     -1.273750000000000E+02      1.737289000000000E-01     -1.098828000000000E+02
4836000000.000000      6.564941000000000E-01     -1.275664000000000E+02      1.769791000000000E-01     -1.095859000000000E+02
4837000000.000000      6.634216000000000E-01     -1.278945000000000E+02      1.801758000000000E-01     -1.095508000000000E+02
4838000000.000000      6.694336000000000E-01     -1.281641000000000E+02      1.838150000000000E-01     -1.092930000000000E+02
4839000000.000000      6.776733000000000E-01     -1.281484000000000E+02      1.866989000000000E-01     -1.091758000000000E+02
4840000000.000000      6.839600000000000E-01     -1.285312000000000E+02      1.893463000000000E-01     -1.089336000000000E+02
4841000000.000000      6.912842000000000E-01     -1.287344000000000E+02      1.929092000000000E-01     -1.091719000000000E+02
4842000000.000000      6.989441000000000E-01     -1.287734000000000E+02      1.958313000000000E-01     -1.091250000000000E+02
4843000000.000000      7.057190000000000E-01     -1.290781000000000E+02      1.994781000000000E-01     -1.092539000000000E+02
4844000000.000000      7.115784000000000E-01     -1.289766000000000E+02      2.019424000000000E-01     -1.091289000000000E+02
4845000000.000000      7.200623000000000E-01     -1.291563000000000E+02      2.053146000000000E-01     -1.090898000000000E+02
4846000000.000000      7.286682000000000E-01     -1.290937000000000E+02      2.083359000000000E-01     -1.091992000000000E+02
4847000000.000000      7.364807000000000E-01     -1.291875000000000E+02      2.115784000000000E-01     -1.094023000000000E+02
4848000000.000000      7.442322000000000E-01     -1.291719000000000E+02      2.142868000000000E-01     -1.093086000000000E+02
4849000000.000000      7.516479000000000E-01     -1.295703000000000E+02      2.174911000000000E-01     -1.095508000000000E+02
4850000000.000000      7.587280000000000E-01     -1.293516000000000E+02      2.204361000000000E-01     -1.096562000000000E+02
4851000000.000000      7.663879000000000E-01     -1.293906000000000E+02      2.240143000000000E-01     -1.098555000000000E+02
4852000000.000000      7.753601000000000E-01     -1.295312000000000E+02      2.262344000000000E-01     -1.100547000000000E+02
4853000000.000000      7.825317000000000E-01     -1.293984000000000E+02      2.280884000000000E-01     -1.102187000000000E+02
4854000000.000000      7.906494000000000E-01     -1.292422000000000E+02      2.317200000000000E-01     -1.104258000000000E+02
4855000000.000000      7.951355000000000E-01     -1.294688000000000E+02      2.344284000000000E-01     -1.105312000000000E+02
4856000000.000000      8.069763000000000E-01     -1.292969000000000E+02      2.368317000000000E-01     -1.107695000000000E+02
4857000000.000000      8.146973000000000E-01     -1.292891000000000E+02      2.404404000000000E-01     -1.110938000000000E+02
4858000000.000000      8.199463000000000E-01     -1.292500000000000E+02      2.425613000000000E-01     -1.111250000000000E+02
4859000000.000000      8.281250000000000E-01     -1.292578000000000E+02      2.450562000000000E-01     -1.115664000000000E+02
4860000000.000000      8.360596000000000E-01     -1.292109000000000E+02      2.473907000000000E-01     -1.117578000000000E+02
4861000000.000000      8.428955000000000E-01     -1.290703000000000E+02      2.499084000000000E-01     -1.119687000000000E+02
4862000000.000000      8.504944000000000E-01     -1.290625000000000E+02      2.528839000000000E-01     -1.122305000000000E+02
4863000000.000000      8.589172000000000E-01     -1.289844000000000E+02      2.542572000000000E-01     -1.126367000000000E+02
4864000000.000000      8.659668000000000E-01     -1.288906000000000E+02      2.573547000000000E-01     -1.126719000000000E+02
4865000000.000000      8.714294000000000E-01     -1.289844000000000E+02      2.594452000000000E-01     -1.129805000000000E+02
4866000000.000000      8.792419000000000E-01     -1.288125000000000E+02      2.611847000000000E-01     -1.132578000000000E+02
4867000000.000000      8.855591000000000E-01     -1.286484000000000E+02      2.643738000000000E-01     -1.136484000000000E+02
4868000000.000000      8.937073000000000E-01     -1.287109000000000E+02      2.663879000000000E-01     -1.139258000000000E+02
4869000000.000000      8.990784000000000E-01     -1.285469000000000E+02      2.680817000000000E-01     -1.141992000000000E+02
4870000000.000000      9.043274000000000E-01     -1.285625000000000E+02      2.703247000000000E-01     -1.143906000000000E+02
4871000000.000000      9.127808000000000E-01     -1.284375000000000E+02      2.724152000000000E-01     -1.146914000000000E+02
4872000000.000000      9.187622000000000E-01     -1.283906000000000E+02      2.738037000000000E-01     -1.149375000000000E+02
4873000000.000000      9.231262000000000E-01     -1.282656000000000E+02      2.754822000000000E-01     -1.153437000000000E+02
4874000000.000000      9.278870000000000E-01     -1.281484000000000E+02      2.774506000000000E-01     -1.155625000000000E+02
4875000000.000000      9.374390000000000E-01     -1.281094000000000E+02      2.793121000000000E-01     -1.158125000000000E+02
4876000000.000000      9.391785000000000E-01     -1.279766000000000E+02      2.812500000000000E-01     -1.162656000000000E+02
4877000000.000000      9.448242000000000E-01     -1.278477000000000E+02      2.829742000000000E-01     -1.163633000000000E+02
4878000000.000000      9.501648000000000E-01     -1.277773000000000E+02      2.850647000000000E-01     -1.166367000000000E+02
4879000000.000000      9.532776000000000E-01     -1.276953000000000E+02      2.857819000000000E-01     -1.169023000000000E+02
4880000000.000000      9.557800000000000E-01     -1.275586000000000E+02      2.880707000000000E-01     -1.171797000000000E+02
4881000000.000000      9.620361000000000E-01     -1.273594000000000E+02      2.898560000000000E-01     -1.173047000000000E+02
4882000000.000000      9.615784000000000E-01     -1.272305000000000E+02      2.911987000000000E-01     -1.177109000000000E+02
4883000000.000000      9.655762000000000E-01     -1.270234000000000E+02      2.919312000000000E-01     -1.180156000000000E+02
4884000000.000000      9.694214000000000E-01     -1.270508000000000E+02      2.938843000000000E-01     -1.183828000000000E+02
4885000000.000000      9.738159000000000E-01     -1.269336000000000E+02      2.959442000000000E-01     -1.184062000000000E+02
4886000000.000000      9.748230000000000E-01     -1.265664000000000E+02      2.967377000000000E-01     -1.184727000000000E+02
4887000000.000000      9.778442000000000E-01     -1.265273000000000E+02      2.989502000000000E-01     -1.188242000000000E+02
4888000000.000000      9.792786000000000E-01     -1.263047000000000E+02      3.003540000000000E-01     -1.191211000000000E+02
4889000000.000000      9.819031000000000E-01     -1.262070000000000E+02      3.011780000000000E-01     -1.192226000000000E+02
4890000000.000000      9.802246000000000E-01     -1.258164000000000E+02      3.024750000000000E-01     -1.196641000000000E+02
4891000000.000000      9.806519000000000E-01     -1.258281000000000E+02      3.030243000000000E-01     -1.198906000000000E+02
4892000000.000000      9.830627000000000E-01     -1.255547000000000E+02      3.052826000000000E-01     -1.197734000000000E+02
4893000000.000000      9.856567000000000E-01     -1.254844000000000E+02      3.070374000000000E-01     -1.203086000000000E+02
4894000000.000000      9.843445000000000E-01     -1.252305000000000E+02      3.079376000000000E-01     -1.204492000000000E+02
4895000000.000000      9.834290000000000E-01     -1.250391000000000E+02      3.097992000000000E-01     -1.204961000000000E+02
4896000000.000000      9.829712000000000E-01     -1.246836000000000E+02      3.107910000000000E-01     -1.206914000000000E+02
4897000000.000000      9.878540000000000E-01     -1.245234000000000E+02      3.120422000000000E-01     -1.209219000000000E+02
4898000000.000000      9.859009000000000E-01     -1.243281000000000E+02      3.135071000000000E-01     -1.210742000000000E+02
4899000000.000000      9.843445000000000E-01     -1.241875000000000E+02      3.147430000000000E-01     -1.214297000000000E+02
4900000000.000000      9.854736000000000E-01     -1.238477000000000E+02      3.165741000000000E-01     -1.214531000000000E+02
4901000000.000000      9.843445000000000E-01     -1.235625000000000E+02      3.183289000000000E-01     -1.216445000000000E+02
4902000000.000000      9.819336000000000E-01     -1.234570000000000E+02      3.202820000000000E-01     -1.217969000000000E+02
4903000000.000000      9.833069000000000E-01     -1.230898000000000E+02      3.213043000000000E-01     -1.219727000000000E+02
4904000000.000000      9.807129000000000E-01     -1.227461000000000E+02      3.223877000000000E-01     -1.221641000000000E+02
4905000000.000000      9.793701000000000E-01     -1.225156000000000E+02      3.254547000000000E-01     -1.224570000000000E+02
4906000000.000000      9.775391000000000E-01     -1.221953000000000E+02      3.267670000000000E-01     -1.222890000000000E+02
4907000000.000000      9.757385000000000E-01     -1.219180000000000E+02      3.284302000000000E-01     -1.228437000000000E+02
4908000000.000000      9.729004000000000E-01     -1.218476000000000E+02      3.302460000000000E-01     -1.231094000000000E+02
4909000000.000000      9.721375000000000E-01     -1.214453000000000E+02      3.315430000000000E-01     -1.232305000000000E+02
4910000000.000000      9.684753000000000E-01     -1.211797000000000E+02      3.331146000000000E-01     -1.234219000000000E+02
4911000000.000000      9.687195000000000E-01     -1.208867000000000E+02      3.355255000000000E-01     -1.236172000000000E+02
4912000000.000000      9.687500000000000E-01     -1.206445000000000E+02      3.374481000000000E-01     -1.239101000000000E+02
4913000000.000000      9.645081000000000E-01     -1.201797000000000E+02      3.392487000000000E-01     -1.239922000000000E+02
4914000000.000000      9.619141000000000E-01     -1.199648000000000E+02      3.408203000000000E-01     -1.241719000000000E+02
4915000000.000000      9.627991000000000E-01     -1.197578000000000E+02      3.420105000000000E-01     -1.246367000000000E+02
4916000000.000000      9.566956000000000E-01     -1.194258000000000E+02      3.448029000000000E-01     -1.248906000000000E+02
4917000000.000000      9.554749000000000E-01     -1.191250000000000E+02      3.467407000000000E-01     -1.249180000000000E+02
4918000000.000000      9.564819000000000E-01     -1.188086000000000E+02      3.473969000000000E-01     -1.253516000000000E+02
4919000000.000000      9.543152000000000E-01     -1.185195000000000E+02      3.509979000000000E-01     -1.253789000000000E+02
4920000000.000000      9.494324000000000E-01     -1.182773000000000E+02      3.520508000000000E-01     -1.258125000000000E+02
4921000000.000000      9.502869000000000E-01     -1.180195000000000E+02      3.549957000000000E-01     -1.259687000000000E+02
4922000000.000000      9.447937000000000E-01     -1.176992000000000E+02      3.558044000000000E-01     -1.262305000000000E+02
4923000000.000000      9.433899000000000E-01     -1.174414000000000E+02      3.583069000000000E-01     -1.265351000000000E+02
4924000000.000000      9.425659000000000E-01     -1.171484000000000E+02      3.598328000000000E-01     -1.268320000000000E+02
4925000000.000000      9.403687000000000E-01     -1.168242000000000E+02      3.627930000000000E-01     -1.270781000000000E+02
4926000000.000000      9.370422000000000E-01     -1.166484000000000E+02      3.645477000000000E-01     -1.273438000000000E+02
4927000000.000000      9.341736000000000E-01     -1.163789000000000E+02      3.660278000000000E-01     -1.277070000000000E+02
4928000000.000000      9.308167000000000E-01     -1.161289000000000E+02      3.684692000000000E-01     -1.281016000000000E+02
4929000000.000000      9.291992000000000E-01     -1.158828000000000E+02      3.694458000000000E-01     -1.283047000000000E+02
4930000000.000000      9.275818000000000E-01     -1.155351000000000E+02      3.725433000000000E-01     -1.288594000000000E+02
4931000000.000000      9.251709000000000E-01     -1.154531000000000E+02      3.751831000000000E-01     -1.291094000000000E+02
4932000000.000000      9.208679000000000E-01     -1.153437000000000E+02      3.765717000000000E-01     -1.295156000000000E+02
4933000000.000000      9.198914000000000E-01     -1.151250000000000E+02      3.769989000000000E-01     -1.295234000000000E+02
4934000000.000000      9.174500000000000E-01     -1.149258000000000E+02      3.793945000000000E-01     -1.302422000000000E+02
4935000000.000000      9.149780000000000E-01     -1.147227000000000E+02      3.820190000000000E-01     -1.302969000000000E+02
4936000000.000000      9.126892000000000E-01     -1.145898000000000E+02      3.846893000000000E-01     -1.307656000000000E+02
4937000000.000000      9.104309000000000E-01     -1.143398000000000E+02      3.855896000000000E-01     -1.310703000000000E+02
4938000000.000000      9.084473000000000E-01     -1.142226000000000E+02      3.887482000000000E-01     -1.314062000000000E+02
4939000000.000000      9.049377000000000E-01     -1.140664000000000E+02      3.903046000000000E-01     -1.318203000000000E+02
4940000000.000000      9.013062000000000E-01     -1.139961000000000E+02      3.916016000000000E-01     -1.323516000000000E+02
4941000000.000000      8.980408000000000E-01     -1.139297000000000E+02      3.943024000000000E-01     -1.326641000000000E+02
4942000000.000000      8.951416000000000E-01     -1.137734000000000E+02      3.954010000000000E-01     -1.331250000000000E+02
4943000000.000000      8.945618000000000E-01     -1.136992000000000E+02      3.984070000000000E-01     -1.335391000000000E+02
4944000000.000000      8.913269000000000E-01     -1.135938000000000E+02      4.008942000000000E-01     -1.337891000000000E+02
4945000000.000000      8.894653000000000E-01     -1.134844000000000E+02      4.019775000000000E-01     -1.342891000000000E+02
4946000000.000000      8.830261000000000E-01     -1.135586000000000E+02      4.039154000000000E-01     -1.347812000000000E+02
4947000000.000000      8.814087000000000E-01     -1.135000000000000E+02      4.049530000000000E-01     -1.351016000000000E+02
4948000000.000000      8.805847000000000E-01     -1.133711000000000E+02      4.075470000000000E-01     -1.356484000000000E+02
4949000000.000000      8.767090000000000E-01     -1.134414000000000E+02      4.094391000000000E-01     -1.357422000000000E+02
4950000000.000000      8.735657000000000E-01     -1.134101000000000E+02      4.107208000000000E-01     -1.363828000000000E+02
4951000000.000000      8.673096000000000E-01     -1.134609000000000E+02      4.130096000000000E-01     -1.369844000000000E+02
4952000000.000000      8.671570000000000E-01     -1.135664000000000E+02      4.149628000000000E-01     -1.373906000000000E+02
4953000000.000000      8.608093000000000E-01     -1.135976000000000E+02      4.175415000000000E-01     -1.375547000000000E+02
4954000000.000000      8.600159000000000E-01     -1.137656000000000E+02      4.188995000000000E-01     -1.382656000000000E+02
