! Network Analyzer HP8722D
! Hewlett-Packard
! Data name: Linha & Wilkinson
! Saver's name: Rodrigo Anjos
! Comments: Teste da utilização de aquisição
continua pelo VNA HP8722D
! Time and date: 21/5/2025 16:43
!              Frequency                     S11                                                   S21                                                   S12                                                   S22
# HZ  S  MA R 50
4800000000.000000      5.404968000000000E-01     -1.087695000000000E+02      1.169624000000000E-01     -1.528516000000000E+02
4801000000.000000      5.400085000000000E-01     -1.093906000000000E+02      1.152382000000000E-01     -1.509453000000000E+02
4802000000.000000      5.389099000000000E-01     -1.102109000000000E+02      1.142044000000000E-01     -1.490547000000000E+02
4803000000.000000      5.409546000000000E-01     -1.106484000000000E+02      1.135521000000000E-01     -1.472656000000000E+02
4804000000.000000      5.399780000000000E-01     -1.114609000000000E+02      1.120796000000000E-01     -1.452422000000000E+02
4805000000.000000      5.411377000000000E-01     -1.121445000000000E+02      1.114693000000000E-01     -1.436797000000000E+02
4806000000.000000      5.385437000000000E-01     -1.127266000000000E+02      1.114960000000000E-01     -1.416953000000000E+02
4807000000.000000      5.394287000000000E-01     -1.133711000000000E+02      1.114159000000000E-01     -1.395625000000000E+02
4808000000.000000      5.419617000000000E-01     -1.139883000000000E+02      1.114960000000000E-01     -1.374609000000000E+02
4809000000.000000      5.436707000000000E-01     -1.148867000000000E+02      1.122437000000000E-01     -1.359219000000000E+02
4810000000.000000      5.440369000000000E-01     -1.156133000000000E+02      1.125526000000000E-01     -1.337812000000000E+02
4811000000.000000      5.454712000000000E-01     -1.162266000000000E+02      1.137085000000000E-01     -1.322187000000000E+02
4812000000.000000      5.484619000000000E-01     -1.167305000000000E+02      1.144943000000000E-01     -1.304766000000000E+02
4813000000.000000      5.487061000000000E-01     -1.174062000000000E+02      1.155434000000000E-01     -1.287422000000000E+02
4814000000.000000      5.532837000000000E-01     -1.181172000000000E+02      1.173134000000000E-01     -1.270898000000000E+02
4815000000.000000      5.545959000000000E-01     -1.186133000000000E+02      1.194382000000000E-01     -1.254531000000000E+02
4816000000.000000      5.555725000000000E-01     -1.193320000000000E+02      1.209068000000000E-01     -1.240469000000000E+02
4817000000.000000      5.584106000000000E-01     -1.197930000000000E+02      1.230927000000000E-01     -1.226094000000000E+02
4818000000.000000      5.634155000000000E-01     -1.204219000000000E+02      1.250305000000000E-01     -1.211328000000000E+02
4819000000.000000      5.683594000000000E-01     -1.208945000000000E+02      1.270370000000000E-01     -1.199922000000000E+02
4820000000.000000      5.689392000000000E-01     -1.216055000000000E+02      1.298218000000000E-01     -1.189219000000000E+02
4821000000.000000      5.746765000000000E-01     -1.221562000000000E+02      1.325378000000000E-01     -1.179219000000000E+02
4822000000.000000      5.791016000000000E-01     -1.227070000000000E+02      1.349564000000000E-01     -1.168867000000000E+02
4823000000.000000      5.821228000000000E-01     -1.232148000000000E+02      1.376419000000000E-01     -1.160117000000000E+02
4824000000.000000      5.886841000000000E-01     -1.236992000000000E+02      1.406097000000000E-01     -1.152148000000000E+02
4825000000.000000      5.914307000000000E-01     -1.241055000000000E+02      1.430130000000000E-01     -1.143398000000000E+02
4826000000.000000      5.979919000000000E-01     -1.246094000000000E+02      1.464996000000000E-01     -1.136367000000000E+02
4827000000.000000      6.026306000000000E-01     -1.248906000000000E+02      1.491852000000000E-01     -1.129609000000000E+02
4828000000.000000      6.083069000000000E-01     -1.252344000000000E+02      1.523666000000000E-01     -1.123476000000000E+02
4829000000.000000      6.113281000000000E-01     -1.257031000000000E+02      1.552811000000000E-01     -1.119492000000000E+02
4830000000.000000      6.193237000000000E-01     -1.260898000000000E+02      1.584244000000000E-01     -1.113398000000000E+02
4831000000.000000      6.239929000000000E-01     -1.264219000000000E+02      1.612320000000000E-01     -1.112226000000000E+02
4832000000.000000      6.310425000000000E-01     -1.265508000000000E+02      1.649017000000000E-01     -1.106328000000000E+02
4833000000.000000      6.371765000000000E-01     -1.270781000000000E+02      1.680374000000000E-01     -1.102617000000000E+02
4834000000.000000      6.441650000000000E-01     -1.273789000000000E+02      1.710129000000000E-01     -1.100859000000000E+02
4835000000.000000      6.483765000000000E-01     -1.275273000000000E+02      1.745987000000000E-01     -1.099062000000000E+02
4836000000.000000      6.578674000000000E-01     -1.277383000000000E+02      1.779175000000000E-01     -1.096719000000000E+02
4837000000.000000      6.629639000000000E-01     -1.278008000000000E+02      1.802216000000000E-01     -1.096445000000000E+02
4838000000.000000      6.693115000000000E-01     -1.282187000000000E+02      1.842880000000000E-01     -1.093594000000000E+02
4839000000.000000      6.784363000000000E-01     -1.284765000000000E+02      1.868210000000000E-01     -1.091992000000000E+02
4840000000.000000      6.834717000000000E-01     -1.286719000000000E+02      1.898117000000000E-01     -1.092148000000000E+02
4841000000.000000      6.911926000000000E-01     -1.288281000000000E+02      1.935501000000000E-01     -1.092617000000000E+02
4842000000.000000      6.993103000000000E-01     -1.289375000000000E+02      1.961899000000000E-01     -1.092070000000000E+02
4843000000.000000      7.062683000000000E-01     -1.291641000000000E+02      1.991272000000000E-01     -1.093086000000000E+02
4844000000.000000      7.111206000000000E-01     -1.292031000000000E+02      2.021484000000000E-01     -1.091640000000000E+02
4845000000.000000      7.199707000000000E-01     -1.291406000000000E+02      2.053223000000000E-01     -1.092656000000000E+02
4846000000.000000      7.261658000000000E-01     -1.291328000000000E+02      2.089005000000000E-01     -1.093555000000000E+02
4847000000.000000      7.370605000000000E-01     -1.292578000000000E+02      2.119217000000000E-01     -1.093555000000000E+02
4848000000.000000      7.437134000000000E-01     -1.292344000000000E+02      2.144241000000000E-01     -1.093711000000000E+02
4849000000.000000      7.513733000000000E-01     -1.295625000000000E+02      2.182312000000000E-01     -1.096797000000000E+02
4850000000.000000      7.589417000000000E-01     -1.294453000000000E+02      2.206345000000000E-01     -1.097422000000000E+02
4851000000.000000      7.672424000000000E-01     -1.294688000000000E+02      2.238388000000000E-01     -1.099766000000000E+02
4852000000.000000      7.763367000000000E-01     -1.294141000000000E+02      2.266922000000000E-01     -1.101094000000000E+02
4853000000.000000      7.831116000000000E-01     -1.293516000000000E+02      2.284088000000000E-01     -1.102383000000000E+02
4854000000.000000      7.931213000000000E-01     -1.294766000000000E+02      2.322617000000000E-01     -1.105703000000000E+02
4855000000.000000      7.956238000000000E-01     -1.294844000000000E+02      2.344971000000000E-01     -1.107227000000000E+02
4856000000.000000      8.072815000000000E-01     -1.294531000000000E+02      2.377853000000000E-01     -1.109141000000000E+02
4857000000.000000      8.141174000000000E-01     -1.294844000000000E+02      2.405701000000000E-01     -1.111250000000000E+02
4858000000.000000      8.204956000000000E-01     -1.294062000000000E+02      2.425842000000000E-01     -1.113789000000000E+02
4859000000.000000      8.282471000000000E-01     -1.294453000000000E+02      2.457199000000000E-01     -1.116445000000000E+02
4860000000.000000      8.371887000000000E-01     -1.292813000000000E+02      2.480850000000000E-01     -1.117539000000000E+02
4861000000.000000      8.443909000000000E-01     -1.291484000000000E+02      2.507782000000000E-01     -1.121953000000000E+02
4862000000.000000      8.520813000000000E-01     -1.291406000000000E+02      2.530365000000000E-01     -1.123047000000000E+02
4863000000.000000      8.601379000000000E-01     -1.290859000000000E+02      2.549133000000000E-01     -1.127656000000000E+02
4864000000.000000      8.664856000000000E-01     -1.289531000000000E+02      2.572174000000000E-01     -1.128359000000000E+02
4865000000.000000      8.736267000000000E-01     -1.290156000000000E+02      2.599182000000000E-01     -1.130351000000000E+02
4866000000.000000      8.779297000000000E-01     -1.288594000000000E+02      2.614746000000000E-01     -1.134062000000000E+02
4867000000.000000      8.873901000000000E-01     -1.288437000000000E+02      2.640076000000000E-01     -1.138008000000000E+02
4868000000.000000      8.931274000000000E-01     -1.288437000000000E+02      2.665710000000000E-01     -1.140234000000000E+02
4869000000.000000      8.971252000000000E-01     -1.287500000000000E+02      2.682190000000000E-01     -1.143789000000000E+02
4870000000.000000      9.063721000000000E-01     -1.285781000000000E+02      2.703552000000000E-01     -1.144180000000000E+02
4871000000.000000      9.133911000000000E-01     -1.285625000000000E+02      2.722931000000000E-01     -1.148945000000000E+02
4872000000.000000      9.201660000000000E-01     -1.284688000000000E+02      2.736969000000000E-01     -1.150117000000000E+02
4873000000.000000      9.228516000000000E-01     -1.281797000000000E+02      2.761078000000000E-01     -1.153867000000000E+02
4874000000.000000      9.280396000000000E-01     -1.281094000000000E+02      2.775269000000000E-01     -1.157617000000000E+02
4875000000.000000      9.347839000000000E-01     -1.282500000000000E+02      2.794952000000000E-01     -1.158672000000000E+02
4876000000.000000      9.377747000000000E-01     -1.280391000000000E+02      2.814636000000000E-01     -1.163398000000000E+02
4877000000.000000      9.431152000000000E-01     -1.278320000000000E+02      2.826080000000000E-01     -1.164844000000000E+02
4878000000.000000      9.490662000000000E-01     -1.279180000000000E+02      2.850952000000000E-01     -1.166562000000000E+02
4879000000.000000      9.556885000000000E-01     -1.276250000000000E+02      2.855988000000000E-01     -1.170586000000000E+02
4880000000.000000      9.562683000000000E-01     -1.276211000000000E+02      2.882385000000000E-01     -1.173750000000000E+02
4881000000.000000      9.599915000000000E-01     -1.273594000000000E+02      2.904510000000000E-01     -1.174453000000000E+02
4882000000.000000      9.614258000000000E-01     -1.273359000000000E+02      2.912140000000000E-01     -1.179102000000000E+02
4883000000.000000      9.648743000000000E-01     -1.270273000000000E+02      2.922668000000000E-01     -1.180586000000000E+02
4884000000.000000      9.692078000000000E-01     -1.270195000000000E+02      2.940369000000000E-01     -1.184570000000000E+02
4885000000.000000      9.739380000000000E-01     -1.270273000000000E+02      2.954865000000000E-01     -1.184180000000000E+02
4886000000.000000      9.749451000000000E-01     -1.266719000000000E+02      2.973633000000000E-01     -1.186406000000000E+02
4887000000.000000      9.772339000000000E-01     -1.265625000000000E+02      2.987823000000000E-01     -1.189922000000000E+02
4888000000.000000      9.782715000000000E-01     -1.264063000000000E+02      3.004608000000000E-01     -1.191992000000000E+02
4889000000.000000      9.810791000000000E-01     -1.262617000000000E+02      3.013916000000000E-01     -1.193359000000000E+02
4890000000.000000      9.810486000000000E-01     -1.258437000000000E+02      3.022003000000000E-01     -1.197148000000000E+02
4891000000.000000      9.812622000000000E-01     -1.258828000000000E+02      3.033447000000000E-01     -1.200234000000000E+02
4892000000.000000      9.837952000000000E-01     -1.256562000000000E+02      3.054504000000000E-01     -1.198203000000000E+02
4893000000.000000      9.852905000000000E-01     -1.255664000000000E+02      3.069305000000000E-01     -1.204258000000000E+02
4894000000.000000      9.842834000000000E-01     -1.253203000000000E+02      3.078461000000000E-01     -1.205469000000000E+02
4895000000.000000      9.836731000000000E-01     -1.250898000000000E+02      3.091736000000000E-01     -1.205898000000000E+02
4896000000.000000      9.851379000000000E-01     -1.248594000000000E+02      3.104706000000000E-01     -1.208008000000000E+02
4897000000.000000      9.879456000000000E-01     -1.246953000000000E+02      3.124390000000000E-01     -1.209687000000000E+02
4898000000.000000      9.855347000000000E-01     -1.244023000000000E+02      3.141327000000000E-01     -1.212148000000000E+02
4899000000.000000      9.849243000000000E-01     -1.242812000000000E+02      3.155060000000000E-01     -1.215859000000000E+02
4900000000.000000      9.846191000000000E-01     -1.240742000000000E+02      3.167267000000000E-01     -1.215625000000000E+02
4901000000.000000      9.834900000000000E-01     -1.236211000000000E+02      3.184357000000000E-01     -1.217656000000000E+02
4902000000.000000      9.810486000000000E-01     -1.236211000000000E+02      3.201752000000000E-01     -1.219453000000000E+02
4903000000.000000      9.822388000000000E-01     -1.231055000000000E+02      3.214264000000000E-01     -1.220508000000000E+02
4904000000.000000      9.791260000000000E-01     -1.229414000000000E+02      3.227234000000000E-01     -1.223203000000000E+02
4905000000.000000      9.790039000000000E-01     -1.227344000000000E+02      3.247681000000000E-01     -1.225898000000000E+02
4906000000.000000      9.783936000000000E-01     -1.222305000000000E+02      3.267059000000000E-01     -1.224101000000000E+02
4907000000.000000      9.742737000000000E-01     -1.220703000000000E+02      3.286285000000000E-01     -1.228984000000000E+02
4908000000.000000      9.739380000000000E-01     -1.219258000000000E+02      3.302002000000000E-01     -1.232422000000000E+02
4909000000.000000      9.732971000000000E-01     -1.215547000000000E+02      3.320618000000000E-01     -1.234101000000000E+02
4910000000.000000      9.691772000000000E-01     -1.213047000000000E+02      3.331757000000000E-01     -1.235273000000000E+02
4911000000.000000      9.703674000000000E-01     -1.209844000000000E+02      3.360443000000000E-01     -1.237226000000000E+02
4912000000.000000      9.660339000000000E-01     -1.207070000000000E+02      3.375549000000000E-01     -1.240117000000000E+02
4913000000.000000      9.648438000000000E-01     -1.203164000000000E+02      3.390961000000000E-01     -1.241602000000000E+02
4914000000.000000      9.630127000000000E-01     -1.200977000000000E+02      3.410950000000000E-01     -1.242422000000000E+02
4915000000.000000      9.602966000000000E-01     -1.197461000000000E+02      3.428955000000000E-01     -1.247109000000000E+02
4916000000.000000      9.602051000000000E-01     -1.195234000000000E+02      3.444061000000000E-01     -1.250000000000000E+02
4917000000.000000      9.543152000000000E-01     -1.192617000000000E+02      3.466492000000000E-01     -1.250117000000000E+02
4918000000.000000      9.552002000000000E-01     -1.188672000000000E+02      3.480377000000000E-01     -1.254375000000000E+02
4919000000.000000      9.531555000000000E-01     -1.187422000000000E+02      3.512878000000000E-01     -1.253672000000000E+02
4920000000.000000      9.516907000000000E-01     -1.183945000000000E+02      3.515320000000000E-01     -1.259531000000000E+02
4921000000.000000      9.479980000000000E-01     -1.180898000000000E+02      3.550110000000000E-01     -1.261250000000000E+02
4922000000.000000      9.450073000000000E-01     -1.176523000000000E+02      3.561707000000000E-01     -1.262617000000000E+02
4923000000.000000      9.440613000000000E-01     -1.174453000000000E+02      3.578949000000000E-01     -1.265781000000000E+02
4924000000.000000      9.418640000000000E-01     -1.172109000000000E+02      3.600769000000000E-01     -1.270430000000000E+02
4925000000.000000      9.397888000000000E-01     -1.168555000000000E+02      3.623810000000000E-01     -1.272305000000000E+02
4926000000.000000      9.356995000000000E-01     -1.166914000000000E+02      3.647766000000000E-01     -1.276719000000000E+02
4927000000.000000      9.346313000000000E-01     -1.164844000000000E+02      3.657074000000000E-01     -1.277617000000000E+02
4928000000.000000      9.328308000000000E-01     -1.162109000000000E+02      3.687286000000000E-01     -1.281641000000000E+02
4929000000.000000      9.295044000000000E-01     -1.160352000000000E+02      3.706055000000000E-01     -1.283125000000000E+02
4930000000.000000      9.274597000000000E-01     -1.157656000000000E+02      3.723450000000000E-01     -1.288281000000000E+02
4931000000.000000      9.235535000000000E-01     -1.156211000000000E+02      3.752289000000000E-01     -1.291797000000000E+02
4932000000.000000      9.221497000000000E-01     -1.153828000000000E+02      3.762970000000000E-01     -1.295469000000000E+02
4933000000.000000      9.199524000000000E-01     -1.151250000000000E+02      3.771362000000000E-01     -1.296797000000000E+02
4934000000.000000      9.168396000000000E-01     -1.149414000000000E+02      3.793488000000000E-01     -1.302891000000000E+02
4935000000.000000      9.125671000000000E-01     -1.146875000000000E+02      3.817902000000000E-01     -1.304219000000000E+02
4936000000.000000      9.119263000000000E-01     -1.146836000000000E+02      3.847046000000000E-01     -1.308281000000000E+02
4937000000.000000      9.109497000000000E-01     -1.144297000000000E+02      3.861542000000000E-01     -1.312344000000000E+02
4938000000.000000      9.063110000000000E-01     -1.143555000000000E+02      3.892975000000000E-01     -1.316562000000000E+02
4939000000.000000      9.041748000000000E-01     -1.140351000000000E+02      3.903809000000000E-01     -1.319531000000000E+02
4940000000.000000      9.017334000000000E-01     -1.140547000000000E+02      3.918915000000000E-01     -1.325312000000000E+02
4941000000.000000      8.993530000000000E-01     -1.140312000000000E+02      3.946686000000000E-01     -1.327891000000000E+02
4942000000.000000      8.959961000000000E-01     -1.139063000000000E+02      3.958130000000000E-01     -1.332344000000000E+02
4943000000.000000      8.943481000000000E-01     -1.137852000000000E+02      3.982849000000000E-01     -1.336406000000000E+02
4944000000.000000      8.914490000000000E-01     -1.136641000000000E+02      4.000397000000000E-01     -1.338672000000000E+02
4945000000.000000      8.890991000000000E-01     -1.135781000000000E+02      4.015045000000000E-01     -1.343359000000000E+02
4946000000.000000      8.858032000000000E-01     -1.135938000000000E+02      4.041901000000000E-01     -1.348203000000000E+02
4947000000.000000      8.829346000000000E-01     -1.134727000000000E+02      4.045563000000000E-01     -1.351563000000000E+02
4948000000.000000      8.804321000000000E-01     -1.135625000000000E+02      4.072571000000000E-01     -1.357266000000000E+02
4949000000.000000      8.751526000000000E-01     -1.134375000000000E+02      4.102325000000000E-01     -1.358672000000000E+02
4950000000.000000      8.718567000000000E-01     -1.136133000000000E+02      4.106293000000000E-01     -1.364766000000000E+02
4951000000.000000      8.699036000000000E-01     -1.136172000000000E+02      4.128265000000000E-01     -1.370312000000000E+02
4952000000.000000      8.675537000000000E-01     -1.136758000000000E+02      4.150238000000000E-01     -1.374531000000000E+02
4953000000.000000      8.630981000000000E-01     -1.136875000000000E+02      4.175568000000000E-01     -1.377500000000000E+02
4954000000.000000      8.585815000000000E-01     -1.138203000000000E+02      4.180908000000000E-01     -1.382813000000000E+02
