! Network Analyzer HP8722D
! Hewlett-Packard
! Data name: Linha & Wilkinson
! Saver's name: Rodrigo Anjos
! Comments: Teste da utilização de aquisição
continua pelo VNA HP8722D
! Time and date: 21/5/2025 17:21
!              Frequency                     S11                                                   S21                                                   S12                                                   S22
# HZ  S  MA R 50
4800000000.000000      5.402222000000000E-01     -1.089023000000000E+02      1.172752000000000E-01     -1.530391000000000E+02
4801000000.000000      5.396423000000000E-01     -1.092500000000000E+02      1.159172000000000E-01     -1.511406000000000E+02
4802000000.000000      5.390930000000000E-01     -1.099961000000000E+02      1.142693000000000E-01     -1.493359000000000E+02
4803000000.000000      5.384827000000000E-01     -1.106680000000000E+02      1.134338000000000E-01     -1.476016000000000E+02
4804000000.000000      5.399170000000000E-01     -1.114570000000000E+02      1.122704000000000E-01     -1.455312000000000E+02
4805000000.000000      5.396423000000000E-01     -1.120703000000000E+02      1.119728000000000E-01     -1.436484000000000E+02
4806000000.000000      5.393066000000000E-01     -1.126445000000000E+02      1.108551000000000E-01     -1.417813000000000E+02
4807000000.000000      5.415649000000000E-01     -1.132851000000000E+02      1.112709000000000E-01     -1.398203000000000E+02
4808000000.000000      5.407715000000000E-01     -1.139258000000000E+02      1.114807000000000E-01     -1.378359000000000E+02
4809000000.000000      5.425415000000000E-01     -1.145703000000000E+02      1.124687000000000E-01     -1.361016000000000E+02
4810000000.000000      5.438538000000000E-01     -1.154414000000000E+02      1.124611000000000E-01     -1.342500000000000E+02
4811000000.000000      5.465393000000000E-01     -1.159687000000000E+02      1.133041000000000E-01     -1.324453000000000E+02
4812000000.000000      5.484009000000000E-01     -1.166328000000000E+02      1.144295000000000E-01     -1.306250000000000E+02
4813000000.000000      5.494995000000000E-01     -1.173711000000000E+02      1.157875000000000E-01     -1.288125000000000E+02
4814000000.000000      5.506592000000000E-01     -1.181094000000000E+02      1.176987000000000E-01     -1.272695000000000E+02
4815000000.000000      5.532837000000000E-01     -1.185703000000000E+02      1.188774000000000E-01     -1.256484000000000E+02
4816000000.000000      5.574951000000000E-01     -1.190937000000000E+02      1.208267000000000E-01     -1.241602000000000E+02
4817000000.000000      5.604553000000000E-01     -1.198359000000000E+02      1.227493000000000E-01     -1.227500000000000E+02
4818000000.000000      5.633545000000000E-01     -1.204180000000000E+02      1.243782000000000E-01     -1.214023000000000E+02
4819000000.000000      5.678101000000000E-01     -1.210039000000000E+02      1.271210000000000E-01     -1.201914000000000E+02
4820000000.000000      5.665283000000000E-01     -1.215312000000000E+02      1.296082000000000E-01     -1.191289000000000E+02
4821000000.000000      5.743408000000000E-01     -1.221445000000000E+02      1.318283000000000E-01     -1.180117000000000E+02
4822000000.000000      5.786438000000000E-01     -1.225156000000000E+02      1.349030000000000E-01     -1.170586000000000E+02
4823000000.000000      5.815735000000000E-01     -1.230273000000000E+02      1.372833000000000E-01     -1.161484000000000E+02
4824000000.000000      5.878906000000000E-01     -1.235976000000000E+02      1.402359000000000E-01     -1.151563000000000E+02
4825000000.000000      5.903931000000000E-01     -1.240859000000000E+02      1.427383000000000E-01     -1.143672000000000E+02
4826000000.000000      5.958862000000000E-01     -1.244805000000000E+02      1.460037000000000E-01     -1.136914000000000E+02
4827000000.000000      6.021729000000000E-01     -1.248164000000000E+02      1.491165000000000E-01     -1.129883000000000E+02
4828000000.000000      6.080322000000000E-01     -1.251289000000000E+02      1.520309000000000E-01     -1.126094000000000E+02
4829000000.000000      6.113586000000000E-01     -1.256484000000000E+02      1.549072000000000E-01     -1.119922000000000E+02
4830000000.000000      6.170349000000000E-01     -1.259922000000000E+02      1.578445000000000E-01     -1.115664000000000E+02
4831000000.000000      6.234436000000000E-01     -1.261992000000000E+02      1.612244000000000E-01     -1.112031000000000E+02
4832000000.000000      6.327209000000000E-01     -1.265664000000000E+02      1.642914000000000E-01     -1.107031000000000E+02
4833000000.000000      6.363525000000000E-01     -1.270469000000000E+02      1.676331000000000E-01     -1.102851000000000E+02
4834000000.000000      6.429138000000000E-01     -1.272227000000000E+02      1.706161000000000E-01     -1.100039000000000E+02
4835000000.000000      6.483154000000000E-01     -1.273711000000000E+02      1.737823000000000E-01     -1.098164000000000E+02
4836000000.000000      6.571655000000000E-01     -1.276445000000000E+02      1.766815000000000E-01     -1.094297000000000E+02
4837000000.000000      6.633301000000000E-01     -1.277734000000000E+02      1.803513000000000E-01     -1.096484000000000E+02
4838000000.000000      6.723938000000000E-01     -1.281406000000000E+02      1.835175000000000E-01     -1.093164000000000E+02
4839000000.000000      6.782227000000000E-01     -1.282578000000000E+02      1.869583000000000E-01     -1.091640000000000E+02
4840000000.000000      6.824036000000000E-01     -1.285391000000000E+02      1.897430000000000E-01     -1.090273000000000E+02
4841000000.000000      6.904602000000000E-01     -1.286094000000000E+02      1.931381000000000E-01     -1.090469000000000E+02
4842000000.000000      7.002563000000000E-01     -1.288359000000000E+02      1.964264000000000E-01     -1.092695000000000E+02
4843000000.000000      7.048340000000000E-01     -1.289922000000000E+02      1.997223000000000E-01     -1.090586000000000E+02
4844000000.000000      7.131042000000000E-01     -1.290547000000000E+02      2.023239000000000E-01     -1.091172000000000E+02
4845000000.000000      7.197266000000000E-01     -1.290937000000000E+02      2.051849000000000E-01     -1.091562000000000E+02
4846000000.000000      7.286377000000000E-01     -1.290313000000000E+02      2.079620000000000E-01     -1.091797000000000E+02
4847000000.000000      7.352600000000000E-01     -1.292187000000000E+02      2.116318000000000E-01     -1.092695000000000E+02
4848000000.000000      7.440491000000000E-01     -1.292969000000000E+02      2.142029000000000E-01     -1.092812000000000E+02
4849000000.000000      7.511902000000000E-01     -1.294844000000000E+02      2.174683000000000E-01     -1.096680000000000E+02
4850000000.000000      7.596436000000000E-01     -1.292031000000000E+02      2.203445000000000E-01     -1.096992000000000E+02
4851000000.000000      7.663879000000000E-01     -1.294062000000000E+02      2.239456000000000E-01     -1.100000000000000E+02
4852000000.000000      7.760620000000000E-01     -1.291641000000000E+02      2.260284000000000E-01     -1.100234000000000E+02
4853000000.000000      7.840576000000000E-01     -1.294062000000000E+02      2.282944000000000E-01     -1.101836000000000E+02
4854000000.000000      7.915039000000000E-01     -1.293437000000000E+02      2.314606000000000E-01     -1.104648000000000E+02
4855000000.000000      7.967529000000000E-01     -1.291641000000000E+02      2.339783000000000E-01     -1.106797000000000E+02
4856000000.000000      8.074646000000000E-01     -1.292344000000000E+02      2.366562000000000E-01     -1.106680000000000E+02
4857000000.000000      8.153381000000000E-01     -1.292813000000000E+02      2.400894000000000E-01     -1.110039000000000E+02
4858000000.000000      8.180237000000000E-01     -1.292734000000000E+02      2.424622000000000E-01     -1.113320000000000E+02
4859000000.000000      8.281250000000000E-01     -1.293437000000000E+02      2.452164000000000E-01     -1.115312000000000E+02
4860000000.000000      8.364563000000000E-01     -1.291094000000000E+02      2.478027000000000E-01     -1.116836000000000E+02
4861000000.000000      8.440857000000000E-01     -1.290234000000000E+02      2.500305000000000E-01     -1.120430000000000E+02
4862000000.000000      8.512878000000000E-01     -1.289922000000000E+02      2.528076000000000E-01     -1.122227000000000E+02
4863000000.000000      8.594971000000000E-01     -1.289141000000000E+02      2.543182000000000E-01     -1.126563000000000E+02
4864000000.000000      8.666992000000000E-01     -1.288984000000000E+02      2.576752000000000E-01     -1.126211000000000E+02
4865000000.000000      8.724976000000000E-01     -1.290234000000000E+02      2.596283000000000E-01     -1.129531000000000E+02
4866000000.000000      8.773804000000000E-01     -1.287031000000000E+02      2.613831000000000E-01     -1.132383000000000E+02
4867000000.000000      8.865662000000000E-01     -1.286953000000000E+02      2.646027000000000E-01     -1.135586000000000E+02
4868000000.000000      8.946838000000000E-01     -1.286875000000000E+02      2.659149000000000E-01     -1.139023000000000E+02
4869000000.000000      8.985901000000000E-01     -1.285625000000000E+02      2.673645000000000E-01     -1.142617000000000E+02
4870000000.000000      9.044800000000000E-01     -1.284609000000000E+02      2.704163000000000E-01     -1.143008000000000E+02
4871000000.000000      9.106750000000000E-01     -1.284219000000000E+02      2.721405000000000E-01     -1.147656000000000E+02
4872000000.000000      9.205627000000000E-01     -1.283828000000000E+02      2.738953000000000E-01     -1.149062000000000E+02
4873000000.000000      9.230042000000000E-01     -1.282578000000000E+02      2.756195000000000E-01     -1.153555000000000E+02
4874000000.000000      9.282837000000000E-01     -1.280078000000000E+02      2.778778000000000E-01     -1.157148000000000E+02
4875000000.000000      9.357300000000000E-01     -1.282031000000000E+02      2.794037000000000E-01     -1.158008000000000E+02
4876000000.000000      9.397888000000000E-01     -1.279844000000000E+02      2.812805000000000E-01     -1.162305000000000E+02
4877000000.000000      9.442444000000000E-01     -1.279219000000000E+02      2.825928000000000E-01     -1.163633000000000E+02
4878000000.000000      9.490967000000000E-01     -1.277500000000000E+02      2.845001000000000E-01     -1.166133000000000E+02
4879000000.000000      9.542847000000000E-01     -1.276328000000000E+02      2.857208000000000E-01     -1.168828000000000E+02
4880000000.000000      9.564514000000000E-01     -1.276680000000000E+02      2.877960000000000E-01     -1.172890000000000E+02
4881000000.000000      9.601746000000000E-01     -1.273711000000000E+02      2.900238000000000E-01     -1.173047000000000E+02
4882000000.000000      9.631348000000000E-01     -1.273008000000000E+02      2.910461000000000E-01     -1.178711000000000E+02
4883000000.000000      9.657593000000000E-01     -1.270430000000000E+02      2.917938000000000E-01     -1.180234000000000E+02
4884000000.000000      9.702454000000000E-01     -1.268945000000000E+02      2.943420000000000E-01     -1.182851000000000E+02
4885000000.000000      9.752197000000000E-01     -1.269375000000000E+02      2.957306000000000E-01     -1.184258000000000E+02
4886000000.000000      9.736633000000000E-01     -1.266016000000000E+02      2.969818000000000E-01     -1.185156000000000E+02
4887000000.000000      9.788818000000000E-01     -1.264922000000000E+02      2.988586000000000E-01     -1.187969000000000E+02
4888000000.000000      9.792786000000000E-01     -1.262656000000000E+02      3.004150000000000E-01     -1.191016000000000E+02
4889000000.000000      9.822998000000000E-01     -1.261250000000000E+02      3.016052000000000E-01     -1.192109000000000E+02
4890000000.000000      9.812317000000000E-01     -1.258437000000000E+02      3.022614000000000E-01     -1.196719000000000E+02
4891000000.000000      9.808044000000000E-01     -1.258359000000000E+02      3.032684000000000E-01     -1.198438000000000E+02
4892000000.000000      9.843750000000000E-01     -1.256211000000000E+02      3.054047000000000E-01     -1.197734000000000E+02
4893000000.000000      9.852600000000000E-01     -1.254844000000000E+02      3.066864000000000E-01     -1.202461000000000E+02
4894000000.000000      9.846802000000000E-01     -1.253203000000000E+02      3.075256000000000E-01     -1.204375000000000E+02
4895000000.000000      9.845886000000000E-01     -1.249219000000000E+02      3.092194000000000E-01     -1.204023000000000E+02
4896000000.000000      9.859619000000000E-01     -1.247148000000000E+02      3.108063000000000E-01     -1.206562000000000E+02
4897000000.000000      9.873047000000000E-01     -1.244844000000000E+02      3.123474000000000E-01     -1.208750000000000E+02
4898000000.000000      9.861755000000000E-01     -1.242695000000000E+02      3.133240000000000E-01     -1.209961000000000E+02
4899000000.000000      9.855042000000000E-01     -1.241406000000000E+02      3.152313000000000E-01     -1.214883000000000E+02
4900000000.000000      9.844360000000000E-01     -1.239063000000000E+02      3.167114000000000E-01     -1.215195000000000E+02
4901000000.000000      9.850464000000000E-01     -1.235547000000000E+02      3.186646000000000E-01     -1.215664000000000E+02
4902000000.000000      9.848022000000000E-01     -1.235312000000000E+02      3.201294000000000E-01     -1.218789000000000E+02
4903000000.000000      9.825439000000000E-01     -1.231523000000000E+02      3.211823000000000E-01     -1.218984000000000E+02
4904000000.000000      9.815979000000000E-01     -1.226601000000000E+02      3.229523000000000E-01     -1.222109000000000E+02
4905000000.000000      9.792786000000000E-01     -1.225078000000000E+02      3.249817000000000E-01     -1.224062000000000E+02
4906000000.000000      9.780579000000000E-01     -1.220664000000000E+02      3.267212000000000E-01     -1.222773000000000E+02
4907000000.000000      9.773254000000000E-01     -1.220586000000000E+02      3.285370000000000E-01     -1.228125000000000E+02
4908000000.000000      9.736938000000000E-01     -1.218633000000000E+02      3.304291000000000E-01     -1.230312000000000E+02
4909000000.000000      9.734802000000000E-01     -1.214336000000000E+02      3.314819000000000E-01     -1.231719000000000E+02
4910000000.000000      9.710083000000000E-01     -1.211797000000000E+02      3.330688000000000E-01     -1.234062000000000E+02
4911000000.000000      9.703979000000000E-01     -1.208164000000000E+02      3.362122000000000E-01     -1.235390000000000E+02
4912000000.000000      9.676819000000000E-01     -1.205742000000000E+02      3.376617000000000E-01     -1.239258000000000E+02
4913000000.000000      9.651489000000000E-01     -1.202578000000000E+02      3.394165000000000E-01     -1.241094000000000E+02
4914000000.000000      9.641418000000000E-01     -1.199180000000000E+02      3.408661000000000E-01     -1.241484000000000E+02
4915000000.000000      9.629517000000000E-01     -1.197148000000000E+02      3.426361000000000E-01     -1.245351000000000E+02
4916000000.000000      9.590454000000000E-01     -1.194375000000000E+02      3.443756000000000E-01     -1.248594000000000E+02
4917000000.000000      9.563904000000000E-01     -1.189805000000000E+02      3.465424000000000E-01     -1.248867000000000E+02
4918000000.000000      9.564209000000000E-01     -1.186875000000000E+02      3.481293000000000E-01     -1.252578000000000E+02
4919000000.000000      9.516296000000000E-01     -1.184492000000000E+02      3.509674000000000E-01     -1.254492000000000E+02
4920000000.000000      9.509888000000000E-01     -1.183320000000000E+02      3.517914000000000E-01     -1.258437000000000E+02
4921000000.000000      9.494019000000000E-01     -1.178984000000000E+02      3.553772000000000E-01     -1.260195000000000E+02
4922000000.000000      9.449463000000000E-01     -1.176601000000000E+02      3.558502000000000E-01     -1.261484000000000E+02
4923000000.000000      9.443359000000000E-01     -1.173398000000000E+02      3.579254000000000E-01     -1.266445000000000E+02
4924000000.000000      9.447327000000000E-01     -1.171289000000000E+02      3.598022000000000E-01     -1.269062000000000E+02
4925000000.000000      9.396667000000000E-01     -1.168594000000000E+02      3.624573000000000E-01     -1.270781000000000E+02
4926000000.000000      9.371948000000000E-01     -1.166640000000000E+02      3.644257000000000E-01     -1.274922000000000E+02
4927000000.000000      9.357300000000000E-01     -1.163437000000000E+02      3.661041000000000E-01     -1.276758000000000E+02
4928000000.000000      9.332275000000000E-01     -1.161289000000000E+02      3.686523000000000E-01     -1.280313000000000E+02
4929000000.000000      9.288940000000000E-01     -1.159219000000000E+02      3.701630000000000E-01     -1.282891000000000E+02
4930000000.000000      9.281616000000000E-01     -1.156016000000000E+02      3.722229000000000E-01     -1.286953000000000E+02
4931000000.000000      9.253235000000000E-01     -1.155195000000000E+02      3.746948000000000E-01     -1.290703000000000E+02
4932000000.000000      9.227905000000000E-01     -1.153203000000000E+02      3.768158000000000E-01     -1.294609000000000E+02
4933000000.000000      9.190674000000000E-01     -1.150859000000000E+02      3.774719000000000E-01     -1.295859000000000E+02
4934000000.000000      9.176331000000000E-01     -1.148867000000000E+02      3.802338000000000E-01     -1.301953000000000E+02
4935000000.000000      9.143372000000000E-01     -1.145820000000000E+02      3.816986000000000E-01     -1.303437000000000E+02
4936000000.000000      9.120483000000000E-01     -1.146562000000000E+02      3.842316000000000E-01     -1.307344000000000E+02
4937000000.000000      9.093018000000000E-01     -1.143359000000000E+02      3.859558000000000E-01     -1.310156000000000E+02
4938000000.000000      9.062500000000000E-01     -1.143203000000000E+02      3.891754000000000E-01     -1.314844000000000E+02
4939000000.000000      9.041443000000000E-01     -1.140273000000000E+02      3.912354000000000E-01     -1.318359000000000E+02
4940000000.000000      9.021606000000000E-01     -1.139531000000000E+02      3.922729000000000E-01     -1.323828000000000E+02
4941000000.000000      8.988037000000000E-01     -1.139726000000000E+02      3.949127000000000E-01     -1.326797000000000E+02
4942000000.000000      8.945313000000000E-01     -1.137734000000000E+02      3.961639000000000E-01     -1.330234000000000E+02
4943000000.000000      8.942261000000000E-01     -1.136484000000000E+02      3.990173000000000E-01     -1.335000000000000E+02
4944000000.000000      8.925171000000000E-01     -1.135430000000000E+02      4.004364000000000E-01     -1.337031000000000E+02
4945000000.000000      8.890076000000000E-01     -1.134258000000000E+02      4.028473000000000E-01     -1.342734000000000E+02
4946000000.000000      8.853760000000000E-01     -1.134727000000000E+02      4.044037000000000E-01     -1.347344000000000E+02
4947000000.000000      8.822632000000000E-01     -1.134141000000000E+02      4.049835000000000E-01     -1.350625000000000E+02
4948000000.000000      8.799744000000000E-01     -1.133594000000000E+02      4.080963000000000E-01     -1.355391000000000E+02
4949000000.000000      8.758240000000000E-01     -1.133281000000000E+02      4.100800000000000E-01     -1.355547000000000E+02
4950000000.000000      8.717346000000000E-01     -1.135039000000000E+02      4.112091000000000E-01     -1.364687000000000E+02
4951000000.000000      8.696289000000000E-01     -1.134258000000000E+02      4.133606000000000E-01     -1.369062000000000E+02
4952000000.000000      8.673096000000000E-01     -1.134883000000000E+02      4.160767000000000E-01     -1.372500000000000E+02
4953000000.000000      8.622742000000000E-01     -1.136016000000000E+02      4.172058000000000E-01     -1.375234000000000E+02
4954000000.000000      8.590698000000000E-01     -1.137617000000000E+02      4.186707000000000E-01     -1.383047000000000E+02
