! Network Analyzer HP8722D
! Hewlett-Packard
! Data name: Linha & Wilkinson
! Saver's name: Rodrigo Anjos
! Comments: Teste da utilização de aquisição
continua pelo VNA HP8722D
! Time and date: 21/5/2025 17:17
!              Frequency                     S11                                                   S21                                                   S12                                                   S22
# HZ  S  MA R 50
4800000000.000000      5.413208000000000E-01     -1.088672000000000E+02      1.172180000000000E-01     -1.530391000000000E+02
4801000000.000000      5.394897000000000E-01     -1.094062000000000E+02      1.157799000000000E-01     -1.510313000000000E+02
4802000000.000000      5.394897000000000E-01     -1.100625000000000E+02      1.141739000000000E-01     -1.493359000000000E+02
4803000000.000000      5.378723000000000E-01     -1.109687000000000E+02      1.136475000000000E-01     -1.474844000000000E+02
4804000000.000000      5.395813000000000E-01     -1.112852000000000E+02      1.124649000000000E-01     -1.456875000000000E+02
4805000000.000000      5.395203000000000E-01     -1.120625000000000E+02      1.118240000000000E-01     -1.435859000000000E+02
4806000000.000000      5.397034000000000E-01     -1.126601000000000E+02      1.113205000000000E-01     -1.416406000000000E+02
4807000000.000000      5.407410000000000E-01     -1.133203000000000E+02      1.107826000000000E-01     -1.396875000000000E+02
4808000000.000000      5.417786000000000E-01     -1.139414000000000E+02      1.117516000000000E-01     -1.378984000000000E+02
4809000000.000000      5.434265000000000E-01     -1.147109000000000E+02      1.118393000000000E-01     -1.360937000000000E+02
4810000000.000000      5.440979000000000E-01     -1.152539000000000E+02      1.126633000000000E-01     -1.341797000000000E+02
4811000000.000000      5.468445000000000E-01     -1.160312000000000E+02      1.133003000000000E-01     -1.324844000000000E+02
4812000000.000000      5.480957000000000E-01     -1.165820000000000E+02      1.143723000000000E-01     -1.305703000000000E+02
4813000000.000000      5.507202000000000E-01     -1.173867000000000E+02      1.157722000000000E-01     -1.288281000000000E+02
4814000000.000000      5.504150000000000E-01     -1.180039000000000E+02      1.172867000000000E-01     -1.272773000000000E+02
4815000000.000000      5.544434000000000E-01     -1.184922000000000E+02      1.186295000000000E-01     -1.255195000000000E+02
4816000000.000000      5.584412000000000E-01     -1.190391000000000E+02      1.206627000000000E-01     -1.241211000000000E+02
4817000000.000000      5.606384000000000E-01     -1.197773000000000E+02      1.226273000000000E-01     -1.228633000000000E+02
4818000000.000000      5.632324000000000E-01     -1.202500000000000E+02      1.251526000000000E-01     -1.214805000000000E+02
4819000000.000000      5.664368000000000E-01     -1.210234000000000E+02      1.270142000000000E-01     -1.203281000000000E+02
4820000000.000000      5.707397000000000E-01     -1.214414000000000E+02      1.299667000000000E-01     -1.190078000000000E+02
4821000000.000000      5.743408000000000E-01     -1.220469000000000E+02      1.319504000000000E-01     -1.178437000000000E+02
4822000000.000000      5.803528000000000E-01     -1.225937000000000E+02      1.345749000000000E-01     -1.167695000000000E+02
4823000000.000000      5.831299000000000E-01     -1.228906000000000E+02      1.372604000000000E-01     -1.160703000000000E+02
4824000000.000000      5.897217000000000E-01     -1.234023000000000E+02      1.406021000000000E-01     -1.152422000000000E+02
4825000000.000000      5.920105000000000E-01     -1.239375000000000E+02      1.427307000000000E-01     -1.143281000000000E+02
4826000000.000000      5.976257000000000E-01     -1.245391000000000E+02      1.458588000000000E-01     -1.136992000000000E+02
4827000000.000000      6.029663000000000E-01     -1.247773000000000E+02      1.489639000000000E-01     -1.127226000000000E+02
4828000000.000000      6.080017000000000E-01     -1.252539000000000E+02      1.521912000000000E-01     -1.121836000000000E+02
4829000000.000000      6.116028000000000E-01     -1.256133000000000E+02      1.550217000000000E-01     -1.120586000000000E+02
4830000000.000000      6.191101000000000E-01     -1.260820000000000E+02      1.579742000000000E-01     -1.115000000000000E+02
4831000000.000000      6.226196000000000E-01     -1.264101000000000E+02      1.609573000000000E-01     -1.111562000000000E+02
4832000000.000000      6.332397000000000E-01     -1.264766000000000E+02      1.646194000000000E-01     -1.106406000000000E+02
4833000000.000000      6.379395000000000E-01     -1.271055000000000E+02      1.677628000000000E-01     -1.101367000000000E+02
4834000000.000000      6.427002000000000E-01     -1.273281000000000E+02      1.707153000000000E-01     -1.101719000000000E+02
4835000000.000000      6.501465000000000E-01     -1.274414000000000E+02      1.739883000000000E-01     -1.099375000000000E+02
4836000000.000000      6.578369000000000E-01     -1.276601000000000E+02      1.765594000000000E-01     -1.093945000000000E+02
4837000000.000000      6.646729000000000E-01     -1.278594000000000E+02      1.805115000000000E-01     -1.095430000000000E+02
4838000000.000000      6.709290000000000E-01     -1.281875000000000E+02      1.833954000000000E-01     -1.091680000000000E+02
4839000000.000000      6.778870000000000E-01     -1.282187000000000E+02      1.860123000000000E-01     -1.091094000000000E+02
4840000000.000000      6.843567000000000E-01     -1.285938000000000E+02      1.896057000000000E-01     -1.091640000000000E+02
4841000000.000000      6.909485000000000E-01     -1.286406000000000E+02      1.930618000000000E-01     -1.091328000000000E+02
4842000000.000000      6.989136000000000E-01     -1.287656000000000E+02      1.960907000000000E-01     -1.091094000000000E+02
4843000000.000000      7.071228000000000E-01     -1.290000000000000E+02      1.989975000000000E-01     -1.092344000000000E+02
4844000000.000000      7.124634000000000E-01     -1.289766000000000E+02      2.021561000000000E-01     -1.090430000000000E+02
4845000000.000000      7.184753000000000E-01     -1.291172000000000E+02      2.048645000000000E-01     -1.090898000000000E+02
4846000000.000000      7.276001000000000E-01     -1.289766000000000E+02      2.083511000000000E-01     -1.091914000000000E+02
4847000000.000000      7.359314000000000E-01     -1.291641000000000E+02      2.115707000000000E-01     -1.093203000000000E+02
4848000000.000000      7.433472000000000E-01     -1.292422000000000E+02      2.142868000000000E-01     -1.092539000000000E+02
4849000000.000000      7.513733000000000E-01     -1.294375000000000E+02      2.174911000000000E-01     -1.096719000000000E+02
4850000000.000000      7.600403000000000E-01     -1.294453000000000E+02      2.200317000000000E-01     -1.095976000000000E+02
4851000000.000000      7.677002000000000E-01     -1.293750000000000E+02      2.237549000000000E-01     -1.100469000000000E+02
4852000000.000000      7.752380000000000E-01     -1.293984000000000E+02      2.261276000000000E-01     -1.100664000000000E+02
4853000000.000000      7.826843000000000E-01     -1.294141000000000E+02      2.281265000000000E-01     -1.101797000000000E+02
4854000000.000000      7.918091000000000E-01     -1.293203000000000E+02      2.320023000000000E-01     -1.105078000000000E+02
4855000000.000000      7.969666000000000E-01     -1.292891000000000E+02      2.341385000000000E-01     -1.104883000000000E+02
4856000000.000000      8.060913000000000E-01     -1.293437000000000E+02      2.365189000000000E-01     -1.107422000000000E+02
4857000000.000000      8.146362000000000E-01     -1.293437000000000E+02      2.400665000000000E-01     -1.110117000000000E+02
4858000000.000000      8.196411000000000E-01     -1.293281000000000E+02      2.427063000000000E-01     -1.112305000000000E+02
4859000000.000000      8.273926000000000E-01     -1.292344000000000E+02      2.449875000000000E-01     -1.115703000000000E+02
4860000000.000000      8.375854000000000E-01     -1.291953000000000E+02      2.481613000000000E-01     -1.117109000000000E+02
4861000000.000000      8.454590000000000E-01     -1.291172000000000E+02      2.501526000000000E-01     -1.119453000000000E+02
4862000000.000000      8.520508000000000E-01     -1.289609000000000E+02      2.529449000000000E-01     -1.123047000000000E+02
4863000000.000000      8.594666000000000E-01     -1.289609000000000E+02      2.542877000000000E-01     -1.126211000000000E+02
4864000000.000000      8.650513000000000E-01     -1.289609000000000E+02      2.572784000000000E-01     -1.126875000000000E+02
4865000000.000000      8.734436000000000E-01     -1.290078000000000E+02      2.595978000000000E-01     -1.131094000000000E+02
4866000000.000000      8.807068000000000E-01     -1.287969000000000E+02      2.612457000000000E-01     -1.132969000000000E+02
4867000000.000000      8.878784000000000E-01     -1.286172000000000E+02      2.641907000000000E-01     -1.136562000000000E+02
4868000000.000000      8.931580000000000E-01     -1.287109000000000E+02      2.657013000000000E-01     -1.139141000000000E+02
4869000000.000000      8.979797000000000E-01     -1.286406000000000E+02      2.679596000000000E-01     -1.142305000000000E+02
4870000000.000000      9.057922000000000E-01     -1.285781000000000E+02      2.703247000000000E-01     -1.142539000000000E+02
4871000000.000000      9.124146000000000E-01     -1.284453000000000E+02      2.725525000000000E-01     -1.147344000000000E+02
4872000000.000000      9.187012000000000E-01     -1.283281000000000E+02      2.739868000000000E-01     -1.148047000000000E+02
4873000000.000000      9.226074000000000E-01     -1.282187000000000E+02      2.759094000000000E-01     -1.153164000000000E+02
4874000000.000000      9.290161000000000E-01     -1.280625000000000E+02      2.774353000000000E-01     -1.156250000000000E+02
4875000000.000000      9.364929000000000E-01     -1.281172000000000E+02      2.791748000000000E-01     -1.157070000000000E+02
4876000000.000000      9.387512000000000E-01     -1.279375000000000E+02      2.811279000000000E-01     -1.162734000000000E+02
4877000000.000000      9.428406000000000E-01     -1.278008000000000E+02      2.825165000000000E-01     -1.163867000000000E+02
4878000000.000000      9.467773000000000E-01     -1.276015000000000E+02      2.845459000000000E-01     -1.166172000000000E+02
4879000000.000000      9.537048000000000E-01     -1.276914000000000E+02      2.864838000000000E-01     -1.169023000000000E+02
4880000000.000000      9.573669000000000E-01     -1.275742000000000E+02      2.877350000000000E-01     -1.172617000000000E+02
4881000000.000000      9.609985000000000E-01     -1.273320000000000E+02      2.896729000000000E-01     -1.174609000000000E+02
4882000000.000000      9.633789000000000E-01     -1.272187000000000E+02      2.914276000000000E-01     -1.177383000000000E+02
4883000000.000000      9.652100000000000E-01     -1.269570000000000E+02      2.920990000000000E-01     -1.179609000000000E+02
4884000000.000000      9.694214000000000E-01     -1.270195000000000E+02      2.940063000000000E-01     -1.183594000000000E+02
4885000000.000000      9.750671000000000E-01     -1.268398000000000E+02      2.955170000000000E-01     -1.183164000000000E+02
4886000000.000000      9.747009000000000E-01     -1.265977000000000E+02      2.967529000000000E-01     -1.184922000000000E+02
4887000000.000000      9.769287000000000E-01     -1.264453000000000E+02      2.987823000000000E-01     -1.188047000000000E+02
4888000000.000000      9.799805000000000E-01     -1.263086000000000E+02      3.005676000000000E-01     -1.190156000000000E+02
4889000000.000000      9.807129000000000E-01     -1.261680000000000E+02      3.012085000000000E-01     -1.192695000000000E+02
4890000000.000000      9.809265000000000E-01     -1.258398000000000E+02      3.022614000000000E-01     -1.196250000000000E+02
4891000000.000000      9.812012000000000E-01     -1.258242000000000E+02      3.028870000000000E-01     -1.199453000000000E+02
4892000000.000000      9.835815000000000E-01     -1.256719000000000E+02      3.051910000000000E-01     -1.198555000000000E+02
4893000000.000000      9.853516000000000E-01     -1.254219000000000E+02      3.069763000000000E-01     -1.203711000000000E+02
4894000000.000000      9.838562000000000E-01     -1.253477000000000E+02      3.077240000000000E-01     -1.204453000000000E+02
4895000000.000000      9.841309000000000E-01     -1.249961000000000E+02      3.093719000000000E-01     -1.205273000000000E+02
4896000000.000000      9.849548000000000E-01     -1.247617000000000E+02      3.107147000000000E-01     -1.207031000000000E+02
4897000000.000000      9.850769000000000E-01     -1.245586000000000E+02      3.120422000000000E-01     -1.210117000000000E+02
4898000000.000000      9.853210000000000E-01     -1.243008000000000E+02      3.134613000000000E-01     -1.210625000000000E+02
4899000000.000000      9.834900000000000E-01     -1.242226000000000E+02      3.154297000000000E-01     -1.215273000000000E+02
4900000000.000000      9.848938000000000E-01     -1.239375000000000E+02      3.166656000000000E-01     -1.215820000000000E+02
4901000000.000000      9.845886000000000E-01     -1.235547000000000E+02      3.183594000000000E-01     -1.215781000000000E+02
4902000000.000000      9.818420000000000E-01     -1.235117000000000E+02      3.202667000000000E-01     -1.218984000000000E+02
4903000000.000000      9.818420000000000E-01     -1.230273000000000E+02      3.211365000000000E-01     -1.219922000000000E+02
4904000000.000000      9.785767000000000E-01     -1.227891000000000E+02      3.225708000000000E-01     -1.221992000000000E+02
4905000000.000000      9.767761000000000E-01     -1.225625000000000E+02      3.251801000000000E-01     -1.225312000000000E+02
4906000000.000000      9.778137000000000E-01     -1.221523000000000E+02      3.265991000000000E-01     -1.222539000000000E+02
4907000000.000000      9.756165000000000E-01     -1.220547000000000E+02      3.285522000000000E-01     -1.228008000000000E+02
4908000000.000000      9.744568000000000E-01     -1.218516000000000E+02      3.301392000000000E-01     -1.230586000000000E+02
4909000000.000000      9.736633000000000E-01     -1.214258000000000E+02      3.314972000000000E-01     -1.232461000000000E+02
4910000000.000000      9.694824000000000E-01     -1.211953000000000E+02      3.331299000000000E-01     -1.234805000000000E+02
4911000000.000000      9.688416000000000E-01     -1.208789000000000E+02      3.352051000000000E-01     -1.236016000000000E+02
4912000000.000000      9.679260000000000E-01     -1.205703000000000E+02      3.378448000000000E-01     -1.239531000000000E+02
4913000000.000000      9.651184000000000E-01     -1.202539000000000E+02      3.391266000000000E-01     -1.239258000000000E+02
4914000000.000000      9.619446000000000E-01     -1.199258000000000E+02      3.408966000000000E-01     -1.241016000000000E+02
4915000000.000000      9.596252000000000E-01     -1.197266000000000E+02      3.423309000000000E-01     -1.245898000000000E+02
4916000000.000000      9.575500000000000E-01     -1.194961000000000E+02      3.448334000000000E-01     -1.248516000000000E+02
4917000000.000000      9.550476000000000E-01     -1.190156000000000E+02      3.467712000000000E-01     -1.249219000000000E+02
4918000000.000000      9.552307000000000E-01     -1.187734000000000E+02      3.482361000000000E-01     -1.253789000000000E+02
4919000000.000000      9.521179000000000E-01     -1.185898000000000E+02      3.510132000000000E-01     -1.253398000000000E+02
4920000000.000000      9.492188000000000E-01     -1.183203000000000E+02      3.520508000000000E-01     -1.257813000000000E+02
4921000000.000000      9.487000000000000E-01     -1.180430000000000E+02      3.550873000000000E-01     -1.261406000000000E+02
4922000000.000000      9.442139000000000E-01     -1.177422000000000E+02      3.563690000000000E-01     -1.261289000000000E+02
4923000000.000000      9.432678000000000E-01     -1.173867000000000E+02      3.580017000000000E-01     -1.264687000000000E+02
4924000000.000000      9.418640000000000E-01     -1.170820000000000E+02      3.597107000000000E-01     -1.269414000000000E+02
4925000000.000000      9.401245000000000E-01     -1.168750000000000E+02      3.632202000000000E-01     -1.270313000000000E+02
4926000000.000000      9.387817000000000E-01     -1.165898000000000E+02      3.645477000000000E-01     -1.275508000000000E+02
4927000000.000000      9.335327000000000E-01     -1.162734000000000E+02      3.657837000000000E-01     -1.277617000000000E+02
4928000000.000000      9.329224000000000E-01     -1.161406000000000E+02      3.685760000000000E-01     -1.280547000000000E+02
4929000000.000000      9.295654000000000E-01     -1.158203000000000E+02      3.699188000000000E-01     -1.283359000000000E+02
4930000000.000000      9.270020000000000E-01     -1.156445000000000E+02      3.719940000000000E-01     -1.287500000000000E+02
4931000000.000000      9.256897000000000E-01     -1.155469000000000E+02      3.751678000000000E-01     -1.290703000000000E+02
4932000000.000000      9.223328000000000E-01     -1.152969000000000E+02      3.764496000000000E-01     -1.294531000000000E+02
4933000000.000000      9.189148000000000E-01     -1.150859000000000E+02      3.771973000000000E-01     -1.296328000000000E+02
4934000000.000000      9.181213000000000E-01     -1.148359000000000E+02      3.795471000000000E-01     -1.301875000000000E+02
4935000000.000000      9.135742000000000E-01     -1.145039000000000E+02      3.827667000000000E-01     -1.302187000000000E+02
4936000000.000000      9.132690000000000E-01     -1.145742000000000E+02      3.844604000000000E-01     -1.307734000000000E+02
4937000000.000000      9.104919000000000E-01     -1.143008000000000E+02      3.855743000000000E-01     -1.310156000000000E+02
4938000000.000000      9.085693000000000E-01     -1.141953000000000E+02      3.883362000000000E-01     -1.316250000000000E+02
4939000000.000000      9.053955000000000E-01     -1.139609000000000E+02      3.906860000000000E-01     -1.317188000000000E+02
4940000000.000000      9.024658000000000E-01     -1.140000000000000E+02      3.924103000000000E-01     -1.323984000000000E+02
4941000000.000000      8.972778000000000E-01     -1.139063000000000E+02      3.944855000000000E-01     -1.324766000000000E+02
4942000000.000000      8.958435000000000E-01     -1.137305000000000E+02      3.963165000000000E-01     -1.330781000000000E+02
4943000000.000000      8.957825000000000E-01     -1.136445000000000E+02      3.978424000000000E-01     -1.334531000000000E+02
4944000000.000000      8.920898000000000E-01     -1.136406000000000E+02      4.004059000000000E-01     -1.338516000000000E+02
4945000000.000000      8.892822000000000E-01     -1.135469000000000E+02      4.018250000000000E-01     -1.340937000000000E+02
4946000000.000000      8.862000000000000E-01     -1.134531000000000E+02      4.037018000000000E-01     -1.346562000000000E+02
4947000000.000000      8.836365000000000E-01     -1.134492000000000E+02      4.046021000000000E-01     -1.351875000000000E+02
4948000000.000000      8.798523000000000E-01     -1.133984000000000E+02      4.078522000000000E-01     -1.355156000000000E+02
4949000000.000000      8.774414000000000E-01     -1.133516000000000E+02      4.091797000000000E-01     -1.356797000000000E+02
4950000000.000000      8.729248000000000E-01     -1.135000000000000E+02      4.117126000000000E-01     -1.364297000000000E+02
4951000000.000000      8.710938000000000E-01     -1.134961000000000E+02      4.126434000000000E-01     -1.370156000000000E+02
4952000000.000000      8.674316000000000E-01     -1.135742000000000E+02      4.151306000000000E-01     -1.372422000000000E+02
4953000000.000000      8.642883000000000E-01     -1.136562000000000E+02      4.177704000000000E-01     -1.376406000000000E+02
4954000000.000000      8.614197000000000E-01     -1.137734000000000E+02      4.183502000000000E-01     -1.382656000000000E+02
