! Network Analyzer HP8722D
! Hewlett-Packard
! Data name: Linha & Wilkinson
! Saver's name: Rodrigo Anjos
! Comments: Teste da utilização de aquisição
continua pelo VNA HP8722D
! Time and date: 21/5/2025 16:35
!              Frequency                     S11                                                   S21                                                   S12                                                   S22
# HZ  S  MA R 50
4800000000.000000      5.411987000000000E-01     -1.087773000000000E+02      1.171036000000000E-01     -1.527578000000000E+02
4801000000.000000      5.410767000000000E-01     -1.093398000000000E+02      1.156006000000000E-01     -1.510234000000000E+02
4802000000.000000      5.397644000000000E-01     -1.100820000000000E+02      1.145515000000000E-01     -1.489141000000000E+02
4803000000.000000      5.403442000000000E-01     -1.107891000000000E+02      1.130219000000000E-01     -1.471953000000000E+02
4804000000.000000      5.395508000000000E-01     -1.115273000000000E+02      1.125565000000000E-01     -1.453438000000000E+02
4805000000.000000      5.400696000000000E-01     -1.122617000000000E+02      1.116829000000000E-01     -1.433984000000000E+02
4806000000.000000      5.392761000000000E-01     -1.125742000000000E+02      1.115074000000000E-01     -1.415000000000000E+02
4807000000.000000      5.408936000000000E-01     -1.137305000000000E+02      1.119804000000000E-01     -1.395703000000000E+02
4808000000.000000      5.413818000000000E-01     -1.141484000000000E+02      1.115417000000000E-01     -1.374844000000000E+02
4809000000.000000      5.434570000000000E-01     -1.147305000000000E+02      1.122894000000000E-01     -1.357188000000000E+02
4810000000.000000      5.444641000000000E-01     -1.156172000000000E+02      1.127357000000000E-01     -1.338516000000000E+02
4811000000.000000      5.468140000000000E-01     -1.161562000000000E+02      1.138535000000000E-01     -1.322266000000000E+02
4812000000.000000      5.498352000000000E-01     -1.167578000000000E+02      1.146355000000000E-01     -1.304219000000000E+02
4813000000.000000      5.514526000000000E-01     -1.174180000000000E+02      1.156502000000000E-01     -1.286172000000000E+02
4814000000.000000      5.515442000000000E-01     -1.181562000000000E+02      1.172562000000000E-01     -1.270898000000000E+02
4815000000.000000      5.536804000000000E-01     -1.186953000000000E+02      1.190147000000000E-01     -1.254570000000000E+02
4816000000.000000      5.571594000000000E-01     -1.193516000000000E+02      1.211243000000000E-01     -1.237226000000000E+02
4817000000.000000      5.625305000000000E-01     -1.197578000000000E+02      1.230965000000000E-01     -1.225078000000000E+02
4818000000.000000      5.635986000000000E-01     -1.206523000000000E+02      1.248856000000000E-01     -1.213750000000000E+02
4819000000.000000      5.670471000000000E-01     -1.211367000000000E+02      1.278763000000000E-01     -1.199766000000000E+02
4820000000.000000      5.692139000000000E-01     -1.216055000000000E+02      1.295471000000000E-01     -1.188125000000000E+02
4821000000.000000      5.730286000000000E-01     -1.221133000000000E+02      1.327438000000000E-01     -1.178242000000000E+02
4822000000.000000      5.799866000000000E-01     -1.227539000000000E+02      1.352386000000000E-01     -1.168320000000000E+02
4823000000.000000      5.828247000000000E-01     -1.232148000000000E+02      1.381302000000000E-01     -1.159727000000000E+02
4824000000.000000      5.877380000000000E-01     -1.236875000000000E+02      1.405182000000000E-01     -1.150977000000000E+02
4825000000.000000      5.918884000000000E-01     -1.243125000000000E+02      1.434937000000000E-01     -1.142695000000000E+02
4826000000.000000      5.970459000000000E-01     -1.245351000000000E+02      1.463623000000000E-01     -1.136719000000000E+02
4827000000.000000      6.024170000000000E-01     -1.249141000000000E+02      1.494141000000000E-01     -1.129414000000000E+02
4828000000.000000      6.101685000000000E-01     -1.254922000000000E+02      1.528091000000000E-01     -1.122734000000000E+02
4829000000.000000      6.125488000000000E-01     -1.257930000000000E+02      1.556625000000000E-01     -1.117148000000000E+02
4830000000.000000      6.196594000000000E-01     -1.261992000000000E+02      1.588516000000000E-01     -1.114570000000000E+02
4831000000.000000      6.251526000000000E-01     -1.264609000000000E+02      1.620255000000000E-01     -1.111016000000000E+02
4832000000.000000      6.309204000000000E-01     -1.268437000000000E+02      1.648254000000000E-01     -1.105898000000000E+02
4833000000.000000      6.364746000000000E-01     -1.271680000000000E+02      1.682434000000000E-01     -1.101836000000000E+02
4834000000.000000      6.430054000000000E-01     -1.273867000000000E+02      1.709366000000000E-01     -1.100781000000000E+02
4835000000.000000      6.491699000000000E-01     -1.276289000000000E+02      1.747360000000000E-01     -1.098594000000000E+02
4836000000.000000      6.577454000000000E-01     -1.278281000000000E+02      1.774521000000000E-01     -1.095273000000000E+02
4837000000.000000      6.626282000000000E-01     -1.280469000000000E+02      1.809998000000000E-01     -1.097187000000000E+02
4838000000.000000      6.704712000000000E-01     -1.282578000000000E+02      1.849823000000000E-01     -1.093750000000000E+02
4839000000.000000      6.774597000000000E-01     -1.284688000000000E+02      1.866226000000000E-01     -1.091094000000000E+02
4840000000.000000      6.829529000000000E-01     -1.286719000000000E+02      1.902618000000000E-01     -1.092226000000000E+02
4841000000.000000      6.912842000000000E-01     -1.288906000000000E+02      1.939621000000000E-01     -1.092930000000000E+02
4842000000.000000      6.981812000000000E-01     -1.290390000000000E+02      1.964722000000000E-01     -1.092930000000000E+02
4843000000.000000      7.057190000000000E-01     -1.291563000000000E+02      1.997528000000000E-01     -1.093047000000000E+02
4844000000.000000      7.150269000000000E-01     -1.291484000000000E+02      2.027359000000000E-01     -1.091016000000000E+02
4845000000.000000      7.193604000000000E-01     -1.292109000000000E+02      2.057877000000000E-01     -1.092617000000000E+02
4846000000.000000      7.270203000000000E-01     -1.291953000000000E+02      2.088928000000000E-01     -1.093984000000000E+02
4847000000.000000      7.358398000000000E-01     -1.293125000000000E+02      2.117996000000000E-01     -1.094258000000000E+02
4848000000.000000      7.437744000000000E-01     -1.293906000000000E+02      2.146835000000000E-01     -1.093125000000000E+02
4849000000.000000      7.509766000000000E-01     -1.296484000000000E+02      2.178879000000000E-01     -1.097890000000000E+02
4850000000.000000      7.596741000000000E-01     -1.295469000000000E+02      2.209167000000000E-01     -1.096875000000000E+02
4851000000.000000      7.698059000000000E-01     -1.294531000000000E+02      2.238388000000000E-01     -1.100391000000000E+02
4852000000.000000      7.764282000000000E-01     -1.294453000000000E+02      2.267075000000000E-01     -1.102109000000000E+02
4853000000.000000      7.840271000000000E-01     -1.294453000000000E+02      2.287369000000000E-01     -1.103086000000000E+02
4854000000.000000      7.911682000000000E-01     -1.295781000000000E+02      2.319183000000000E-01     -1.106641000000000E+02
4855000000.000000      7.970276000000000E-01     -1.294766000000000E+02      2.343979000000000E-01     -1.107265000000000E+02
4856000000.000000      8.070068000000000E-01     -1.293437000000000E+02      2.376175000000000E-01     -1.108398000000000E+02
4857000000.000000      8.170166000000000E-01     -1.295000000000000E+02      2.406998000000000E-01     -1.111758000000000E+02
4858000000.000000      8.193359000000000E-01     -1.293672000000000E+02      2.433929000000000E-01     -1.113594000000000E+02
4859000000.000000      8.290100000000000E-01     -1.293906000000000E+02      2.452240000000000E-01     -1.117422000000000E+02
4860000000.000000      8.382568000000000E-01     -1.292500000000000E+02      2.482376000000000E-01     -1.117773000000000E+02
4861000000.000000      8.455505000000000E-01     -1.292031000000000E+02      2.507324000000000E-01     -1.121562000000000E+02
4862000000.000000      8.518372000000000E-01     -1.291484000000000E+02      2.530823000000000E-01     -1.124141000000000E+02
4863000000.000000      8.592834000000000E-01     -1.292266000000000E+02      2.550659000000000E-01     -1.127930000000000E+02
4864000000.000000      8.662720000000000E-01     -1.290469000000000E+02      2.579956000000000E-01     -1.128125000000000E+02
4865000000.000000      8.729248000000000E-01     -1.291094000000000E+02      2.597046000000000E-01     -1.131172000000000E+02
4866000000.000000      8.803406000000000E-01     -1.289141000000000E+02      2.615509000000000E-01     -1.134531000000000E+02
4867000000.000000      8.866577000000000E-01     -1.288203000000000E+02      2.646332000000000E-01     -1.137734000000000E+02
4868000000.000000      8.945313000000000E-01     -1.288437000000000E+02      2.662506000000000E-01     -1.140820000000000E+02
4869000000.000000      8.998108000000000E-01     -1.286875000000000E+02      2.680206000000000E-01     -1.144336000000000E+02
4870000000.000000      9.063110000000000E-01     -1.285938000000000E+02      2.707062000000000E-01     -1.144102000000000E+02
4871000000.000000      9.119568000000000E-01     -1.284765000000000E+02      2.726288000000000E-01     -1.148945000000000E+02
4872000000.000000      9.200134000000000E-01     -1.285078000000000E+02      2.740784000000000E-01     -1.150117000000000E+02
4873000000.000000      9.232178000000000E-01     -1.283047000000000E+02      2.762146000000000E-01     -1.154336000000000E+02
4874000000.000000      9.289856000000000E-01     -1.282031000000000E+02      2.776337000000000E-01     -1.157851000000000E+02
4875000000.000000      9.345093000000000E-01     -1.281328000000000E+02      2.800903000000000E-01     -1.160117000000000E+02
4876000000.000000      9.386902000000000E-01     -1.281172000000000E+02      2.812500000000000E-01     -1.163281000000000E+02
4877000000.000000      9.433899000000000E-01     -1.279102000000000E+02      2.831421000000000E-01     -1.164805000000000E+02
4878000000.000000      9.485779000000000E-01     -1.278711000000000E+02      2.851257000000000E-01     -1.168008000000000E+02
4879000000.000000      9.530945000000000E-01     -1.277617000000000E+02      2.859344000000000E-01     -1.170117000000000E+02
4880000000.000000      9.569092000000000E-01     -1.276289000000000E+02      2.880249000000000E-01     -1.173438000000000E+02
4881000000.000000      9.610291000000000E-01     -1.274414000000000E+02      2.899780000000000E-01     -1.175352000000000E+02
4882000000.000000      9.625854000000000E-01     -1.273828000000000E+02      2.911682000000000E-01     -1.179688000000000E+02
4883000000.000000      9.647522000000000E-01     -1.271016000000000E+02      2.923584000000000E-01     -1.180781000000000E+02
4884000000.000000      9.706421000000000E-01     -1.271328000000000E+02      2.940674000000000E-01     -1.183867000000000E+02
4885000000.000000      9.740906000000000E-01     -1.271289000000000E+02      2.956848000000000E-01     -1.184883000000000E+02
4886000000.000000      9.743958000000000E-01     -1.267617000000000E+02      2.971191000000000E-01     -1.186992000000000E+02
4887000000.000000      9.774475000000000E-01     -1.266133000000000E+02      2.988586000000000E-01     -1.190351000000000E+02
4888000000.000000      9.790039000000000E-01     -1.264101000000000E+02      3.006287000000000E-01     -1.192969000000000E+02
4889000000.000000      9.815063000000000E-01     -1.262305000000000E+02      3.009491000000000E-01     -1.194453000000000E+02
4890000000.000000      9.788513000000000E-01     -1.258945000000000E+02      3.023529000000000E-01     -1.198047000000000E+02
4891000000.000000      9.812622000000000E-01     -1.259453000000000E+02      3.034210000000000E-01     -1.200078000000000E+02
4892000000.000000      9.835510000000000E-01     -1.257305000000000E+02      3.052979000000000E-01     -1.199531000000000E+02
4893000000.000000      9.868774000000000E-01     -1.255430000000000E+02      3.071442000000000E-01     -1.205117000000000E+02
4894000000.000000      9.850464000000000E-01     -1.253906000000000E+02      3.077850000000000E-01     -1.206367000000000E+02
4895000000.000000      9.834595000000000E-01     -1.251015000000000E+02      3.095093000000000E-01     -1.205859000000000E+02
4896000000.000000      9.843750000000000E-01     -1.249180000000000E+02      3.106995000000000E-01     -1.208555000000000E+02
4897000000.000000      9.882813000000000E-01     -1.246601000000000E+02      3.123474000000000E-01     -1.210664000000000E+02
4898000000.000000      9.843140000000000E-01     -1.244492000000000E+02      3.139038000000000E-01     -1.212539000000000E+02
4899000000.000000      9.859314000000000E-01     -1.242969000000000E+02      3.155212000000000E-01     -1.216172000000000E+02
4900000000.000000      9.855652000000000E-01     -1.240273000000000E+02      3.170929000000000E-01     -1.215703000000000E+02
4901000000.000000      9.830322000000000E-01     -1.237109000000000E+02      3.186035000000000E-01     -1.216602000000000E+02
4902000000.000000      9.810791000000000E-01     -1.237070000000000E+02      3.201294000000000E-01     -1.220742000000000E+02
4903000000.000000      9.815979000000000E-01     -1.231445000000000E+02      3.217773000000000E-01     -1.220859000000000E+02
4904000000.000000      9.781189000000000E-01     -1.228125000000000E+02      3.225250000000000E-01     -1.222734000000000E+02
4905000000.000000      9.778137000000000E-01     -1.226836000000000E+02      3.250580000000000E-01     -1.226094000000000E+02
4906000000.000000      9.768066000000000E-01     -1.222461000000000E+02      3.266449000000000E-01     -1.224609000000000E+02
4907000000.000000      9.739075000000000E-01     -1.221133000000000E+02      3.288574000000000E-01     -1.229180000000000E+02
4908000000.000000      9.742432000000000E-01     -1.220273000000000E+02      3.298798000000000E-01     -1.232539000000000E+02
4909000000.000000      9.733582000000000E-01     -1.215898000000000E+02      3.315430000000000E-01     -1.233594000000000E+02
4910000000.000000      9.697876000000000E-01     -1.213242000000000E+02      3.332672000000000E-01     -1.235820000000000E+02
4911000000.000000      9.698792000000000E-01     -1.210312000000000E+02      3.356476000000000E-01     -1.237226000000000E+02
4912000000.000000      9.671936000000000E-01     -1.206836000000000E+02      3.377838000000000E-01     -1.241484000000000E+02
4913000000.000000      9.648132000000000E-01     -1.203203000000000E+02      3.394928000000000E-01     -1.241172000000000E+02
4914000000.000000      9.638062000000000E-01     -1.200703000000000E+02      3.411713000000000E-01     -1.241953000000000E+02
4915000000.000000      9.621277000000000E-01     -1.198398000000000E+02      3.427429000000000E-01     -1.248320000000000E+02
4916000000.000000      9.583740000000000E-01     -1.195117000000000E+02      3.439636000000000E-01     -1.250195000000000E+02
4917000000.000000      9.555359000000000E-01     -1.191719000000000E+02      3.466187000000000E-01     -1.250820000000000E+02
4918000000.000000      9.544678000000000E-01     -1.189766000000000E+02      3.485107000000000E-01     -1.256016000000000E+02
4919000000.000000      9.523315000000000E-01     -1.186055000000000E+02      3.510895000000000E-01     -1.255000000000000E+02
4920000000.000000      9.483337000000000E-01     -1.183555000000000E+02      3.517761000000000E-01     -1.260156000000000E+02
4921000000.000000      9.475708000000000E-01     -1.180976000000000E+02      3.549957000000000E-01     -1.261797000000000E+02
4922000000.000000      9.443970000000000E-01     -1.177969000000000E+02      3.560028000000000E-01     -1.262266000000000E+02
4923000000.000000      9.434204000000000E-01     -1.174492000000000E+02      3.581238000000000E-01     -1.265781000000000E+02
4924000000.000000      9.428101000000000E-01     -1.172109000000000E+02      3.602142000000000E-01     -1.271601000000000E+02
4925000000.000000      9.386902000000000E-01     -1.168828000000000E+02      3.624268000000000E-01     -1.271914000000000E+02
4926000000.000000      9.362183000000000E-01     -1.167539000000000E+02      3.643036000000000E-01     -1.275781000000000E+02
4927000000.000000      9.333801000000000E-01     -1.164726000000000E+02      3.657379000000000E-01     -1.279258000000000E+02
4928000000.000000      9.330139000000000E-01     -1.162344000000000E+02      3.679810000000000E-01     -1.281875000000000E+02
4929000000.000000      9.286804000000000E-01     -1.159141000000000E+02      3.703766000000000E-01     -1.283672000000000E+02
4930000000.000000      9.268494000000000E-01     -1.157813000000000E+02      3.726044000000000E-01     -1.288437000000000E+02
4931000000.000000      9.240723000000000E-01     -1.156445000000000E+02      3.749542000000000E-01     -1.292422000000000E+02
4932000000.000000      9.211121000000000E-01     -1.154726000000000E+02      3.763123000000000E-01     -1.295547000000000E+02
4933000000.000000      9.191895000000000E-01     -1.151836000000000E+02      3.773499000000000E-01     -1.298359000000000E+02
4934000000.000000      9.182129000000000E-01     -1.150547000000000E+02      3.793793000000000E-01     -1.303750000000000E+02
4935000000.000000      9.131470000000000E-01     -1.148164000000000E+02      3.824158000000000E-01     -1.304688000000000E+02
4936000000.000000      9.122925000000000E-01     -1.146797000000000E+02      3.842468000000000E-01     -1.309766000000000E+02
4937000000.000000      9.086609000000000E-01     -1.145039000000000E+02      3.862152000000000E-01     -1.313047000000000E+02
4938000000.000000      9.076538000000000E-01     -1.143555000000000E+02      3.894958000000000E-01     -1.316641000000000E+02
4939000000.000000      9.049988000000000E-01     -1.142070000000000E+02      3.910065000000000E-01     -1.319453000000000E+02
4940000000.000000      8.995667000000000E-01     -1.140430000000000E+02      3.916168000000000E-01     -1.325625000000000E+02
4941000000.000000      8.970642000000000E-01     -1.140430000000000E+02      3.946838000000000E-01     -1.326328000000000E+02
4942000000.000000      8.952332000000000E-01     -1.138359000000000E+02      3.959198000000000E-01     -1.332422000000000E+02
4943000000.000000      8.928528000000000E-01     -1.138906000000000E+02      3.981171000000000E-01     -1.336094000000000E+02
4944000000.000000      8.909302000000000E-01     -1.136523000000000E+02      4.005737000000000E-01     -1.339375000000000E+02
4945000000.000000      8.884277000000000E-01     -1.135976000000000E+02      4.021759000000000E-01     -1.343672000000000E+02
4946000000.000000      8.848267000000000E-01     -1.135898000000000E+02      4.040375000000000E-01     -1.349297000000000E+02
4947000000.000000      8.825684000000000E-01     -1.135390000000000E+02      4.048157000000000E-01     -1.352031000000000E+02
4948000000.000000      8.778687000000000E-01     -1.134961000000000E+02      4.072723000000000E-01     -1.357500000000000E+02
4949000000.000000      8.755188000000000E-01     -1.136016000000000E+02      4.094238000000000E-01     -1.358047000000000E+02
4950000000.000000      8.722229000000000E-01     -1.137109000000000E+02      4.111938000000000E-01     -1.364219000000000E+02
4951000000.000000      8.682556000000000E-01     -1.136133000000000E+02      4.130402000000000E-01     -1.371094000000000E+02
4952000000.000000      8.668823000000000E-01     -1.137383000000000E+02      4.152985000000000E-01     -1.375000000000000E+02
4953000000.000000      8.627014000000000E-01     -1.137266000000000E+02      4.176788000000000E-01     -1.377969000000000E+02
4954000000.000000      8.590698000000000E-01     -1.139141000000000E+02      4.185486000000000E-01     -1.383906000000000E+02
