! Network Analyzer HP8722D
! Hewlett-Packard
! Data name: Linha & Wilkinson
! Saver's name: Rodrigo Anjos
! Comments: Teste da utilização de aquisição
continua pelo VNA HP8722D
! Time and date: 21/5/2025 16:34
!              Frequency                     S11                                                   S21                                                   S12                                                   S22
# HZ  S  MA R 50
4800000000.000000      5.405884000000000E-01     -1.087266000000000E+02      1.169777000000000E-01     -1.527187000000000E+02
4801000000.000000      5.383301000000000E-01     -1.095625000000000E+02      1.157494000000000E-01     -1.509922000000000E+02
4802000000.000000      5.382690000000000E-01     -1.101836000000000E+02      1.144218000000000E-01     -1.490703000000000E+02
4803000000.000000      5.379639000000000E-01     -1.110273000000000E+02      1.129112000000000E-01     -1.472265000000000E+02
4804000000.000000      5.384216000000000E-01     -1.115430000000000E+02      1.123352000000000E-01     -1.453359000000000E+02
4805000000.000000      5.411377000000000E-01     -1.121484000000000E+02      1.111221000000000E-01     -1.434687000000000E+02
4806000000.000000      5.386353000000000E-01     -1.127617000000000E+02      1.113968000000000E-01     -1.414375000000000E+02
4807000000.000000      5.378723000000000E-01     -1.134101000000000E+02      1.114044000000000E-01     -1.396719000000000E+02
4808000000.000000      5.402527000000000E-01     -1.141055000000000E+02      1.115570000000000E-01     -1.376562000000000E+02
4809000000.000000      5.424500000000000E-01     -1.148047000000000E+02      1.121063000000000E-01     -1.360000000000000E+02
4810000000.000000      5.445862000000000E-01     -1.154062000000000E+02      1.126938000000000E-01     -1.337812000000000E+02
4811000000.000000      5.467529000000000E-01     -1.160859000000000E+02      1.133575000000000E-01     -1.321719000000000E+02
4812000000.000000      5.490723000000000E-01     -1.166640000000000E+02      1.146889000000000E-01     -1.305000000000000E+02
4813000000.000000      5.494690000000000E-01     -1.173828000000000E+02      1.164207000000000E-01     -1.286094000000000E+02
4814000000.000000      5.500183000000000E-01     -1.183476000000000E+02      1.174393000000000E-01     -1.270820000000000E+02
4815000000.000000      5.530396000000000E-01     -1.188750000000000E+02      1.191063000000000E-01     -1.254453000000000E+02
4816000000.000000      5.558777000000000E-01     -1.192383000000000E+02      1.208305000000000E-01     -1.238984000000000E+02
4817000000.000000      5.616760000000000E-01     -1.198086000000000E+02      1.234131000000000E-01     -1.227070000000000E+02
4818000000.000000      5.646362000000000E-01     -1.205273000000000E+02      1.253815000000000E-01     -1.212617000000000E+02
4819000000.000000      5.704956000000000E-01     -1.210508000000000E+02      1.272430000000000E-01     -1.201133000000000E+02
4820000000.000000      5.691528000000000E-01     -1.216719000000000E+02      1.296997000000000E-01     -1.187891000000000E+02
4821000000.000000      5.739441000000000E-01     -1.221367000000000E+02      1.325684000000000E-01     -1.178516000000000E+02
4822000000.000000      5.802612000000000E-01     -1.227266000000000E+02      1.348801000000000E-01     -1.168359000000000E+02
4823000000.000000      5.821838000000000E-01     -1.233203000000000E+02      1.372910000000000E-01     -1.159219000000000E+02
4824000000.000000      5.887756000000000E-01     -1.239023000000000E+02      1.410980000000000E-01     -1.153047000000000E+02
4825000000.000000      5.916748000000000E-01     -1.243359000000000E+02      1.432648000000000E-01     -1.143984000000000E+02
4826000000.000000      5.959473000000000E-01     -1.246172000000000E+02      1.463928000000000E-01     -1.138203000000000E+02
4827000000.000000      6.029663000000000E-01     -1.247773000000000E+02      1.493607000000000E-01     -1.129258000000000E+02
4828000000.000000      6.094360000000000E-01     -1.252383000000000E+02      1.523209000000000E-01     -1.123086000000000E+02
4829000000.000000      6.120300000000000E-01     -1.257539000000000E+02      1.554947000000000E-01     -1.119297000000000E+02
4830000000.000000      6.195374000000000E-01     -1.260898000000000E+02      1.585617000000000E-01     -1.116055000000000E+02
4831000000.000000      6.233826000000000E-01     -1.264844000000000E+02      1.617966000000000E-01     -1.111016000000000E+02
4832000000.000000      6.318665000000000E-01     -1.266406000000000E+02      1.653824000000000E-01     -1.107344000000000E+02
4833000000.000000      6.394958000000000E-01     -1.271601000000000E+02      1.686554000000000E-01     -1.103398000000000E+02
4834000000.000000      6.428223000000000E-01     -1.274297000000000E+02      1.710892000000000E-01     -1.101133000000000E+02
4835000000.000000      6.491394000000000E-01     -1.274844000000000E+02      1.747971000000000E-01     -1.098672000000000E+02
4836000000.000000      6.559448000000000E-01     -1.278437000000000E+02      1.775970000000000E-01     -1.096016000000000E+02
4837000000.000000      6.634827000000000E-01     -1.279102000000000E+02      1.808090000000000E-01     -1.096601000000000E+02
4838000000.000000      6.710205000000000E-01     -1.283594000000000E+02      1.840363000000000E-01     -1.094961000000000E+02
4839000000.000000      6.785278000000000E-01     -1.284453000000000E+02      1.869888000000000E-01     -1.093164000000000E+02
4840000000.000000      6.842957000000000E-01     -1.288125000000000E+02      1.900558000000000E-01     -1.092695000000000E+02
4841000000.000000      6.912842000000000E-01     -1.288125000000000E+02      1.939392000000000E-01     -1.094492000000000E+02
4842000000.000000      7.002869000000000E-01     -1.289141000000000E+02      1.963806000000000E-01     -1.091250000000000E+02
4843000000.000000      7.050781000000000E-01     -1.289687000000000E+02      1.994858000000000E-01     -1.093047000000000E+02
4844000000.000000      7.125854000000000E-01     -1.291250000000000E+02      2.026215000000000E-01     -1.092383000000000E+02
4845000000.000000      7.208862000000000E-01     -1.292969000000000E+02      2.055283000000000E-01     -1.093281000000000E+02
4846000000.000000      7.275085000000000E-01     -1.292734000000000E+02      2.089310000000000E-01     -1.094023000000000E+02
4847000000.000000      7.352295000000000E-01     -1.293437000000000E+02      2.123566000000000E-01     -1.094023000000000E+02
4848000000.000000      7.450867000000000E-01     -1.294375000000000E+02      2.146225000000000E-01     -1.093750000000000E+02
4849000000.000000      7.533264000000000E-01     -1.296094000000000E+02      2.177887000000000E-01     -1.097383000000000E+02
4850000000.000000      7.605591000000000E-01     -1.295000000000000E+02      2.207184000000000E-01     -1.097344000000000E+02
4851000000.000000      7.683105000000000E-01     -1.294844000000000E+02      2.241669000000000E-01     -1.101641000000000E+02
4852000000.000000      7.761536000000000E-01     -1.294609000000000E+02      2.267685000000000E-01     -1.100273000000000E+02
4853000000.000000      7.832336000000000E-01     -1.296562000000000E+02      2.285156000000000E-01     -1.103789000000000E+02
4854000000.000000      7.919617000000000E-01     -1.295547000000000E+02      2.319794000000000E-01     -1.106016000000000E+02
4855000000.000000      7.983704000000000E-01     -1.295391000000000E+02      2.341690000000000E-01     -1.107734000000000E+02
4856000000.000000      8.072205000000000E-01     -1.295391000000000E+02      2.373581000000000E-01     -1.109375000000000E+02
4857000000.000000      8.147888000000000E-01     -1.294688000000000E+02      2.408371000000000E-01     -1.112305000000000E+02
4858000000.000000      8.204346000000000E-01     -1.294766000000000E+02      2.432098000000000E-01     -1.113750000000000E+02
4859000000.000000      8.301697000000000E-01     -1.294375000000000E+02      2.456207000000000E-01     -1.117266000000000E+02
4860000000.000000      8.372192000000000E-01     -1.293594000000000E+02      2.479782000000000E-01     -1.118203000000000E+02
4861000000.000000      8.452148000000000E-01     -1.292422000000000E+02      2.507019000000000E-01     -1.122344000000000E+02
4862000000.000000      8.519897000000000E-01     -1.293047000000000E+02      2.535095000000000E-01     -1.123633000000000E+02
4863000000.000000      8.594666000000000E-01     -1.292109000000000E+02      2.546234000000000E-01     -1.127969000000000E+02
4864000000.000000      8.650208000000000E-01     -1.290234000000000E+02      2.578583000000000E-01     -1.127695000000000E+02
4865000000.000000      8.721313000000000E-01     -1.291563000000000E+02      2.596893000000000E-01     -1.131367000000000E+02
4866000000.000000      8.792725000000000E-01     -1.289453000000000E+02      2.616882000000000E-01     -1.134609000000000E+02
4867000000.000000      8.854980000000000E-01     -1.288281000000000E+02      2.643738000000000E-01     -1.137852000000000E+02
4868000000.000000      8.936462000000000E-01     -1.288984000000000E+02      2.663727000000000E-01     -1.141640000000000E+02
4869000000.000000      8.977051000000000E-01     -1.287656000000000E+02      2.683105000000000E-01     -1.143672000000000E+02
4870000000.000000      9.067688000000000E-01     -1.286250000000000E+02      2.706909000000000E-01     -1.144375000000000E+02
4871000000.000000      9.121704000000000E-01     -1.285078000000000E+02      2.728729000000000E-01     -1.149101000000000E+02
4872000000.000000      9.193420000000000E-01     -1.285000000000000E+02      2.742157000000000E-01     -1.150820000000000E+02
4873000000.000000      9.233704000000000E-01     -1.282969000000000E+02      2.760620000000000E-01     -1.155000000000000E+02
4874000000.000000      9.280701000000000E-01     -1.282187000000000E+02      2.777557000000000E-01     -1.158125000000000E+02
4875000000.000000      9.372559000000000E-01     -1.282812000000000E+02      2.794495000000000E-01     -1.160000000000000E+02
4876000000.000000      9.381714000000000E-01     -1.280469000000000E+02      2.815857000000000E-01     -1.163867000000000E+02
4877000000.000000      9.438171000000000E-01     -1.279297000000000E+02      2.829132000000000E-01     -1.164609000000000E+02
4878000000.000000      9.503174000000000E-01     -1.277383000000000E+02      2.851715000000000E-01     -1.167812000000000E+02
4879000000.000000      9.541626000000000E-01     -1.277226000000000E+02      2.860870000000000E-01     -1.170039000000000E+02
4880000000.000000      9.557190000000000E-01     -1.277773000000000E+02      2.877350000000000E-01     -1.175469000000000E+02
4881000000.000000      9.602661000000000E-01     -1.275078000000000E+02      2.900238000000000E-01     -1.174687000000000E+02
4882000000.000000      9.640198000000000E-01     -1.273281000000000E+02      2.913818000000000E-01     -1.179922000000000E+02
4883000000.000000      9.645691000000000E-01     -1.271601000000000E+02      2.920380000000000E-01     -1.180469000000000E+02
4884000000.000000      9.700623000000000E-01     -1.269687000000000E+02      2.941895000000000E-01     -1.184023000000000E+02
4885000000.000000      9.736633000000000E-01     -1.271055000000000E+02      2.958527000000000E-01     -1.185430000000000E+02
4886000000.000000      9.739380000000000E-01     -1.266719000000000E+02      2.972870000000000E-01     -1.186758000000000E+02
4887000000.000000      9.781494000000000E-01     -1.267031000000000E+02      2.993774000000000E-01     -1.189687000000000E+02
4888000000.000000      9.797668000000000E-01     -1.263984000000000E+02      3.005981000000000E-01     -1.192656000000000E+02
4889000000.000000      9.810181000000000E-01     -1.263281000000000E+02      3.017578000000000E-01     -1.193242000000000E+02
4890000000.000000      9.806824000000000E-01     -1.258984000000000E+02      3.021088000000000E-01     -1.198672000000000E+02
4891000000.000000      9.808960000000000E-01     -1.259687000000000E+02      3.032684000000000E-01     -1.199961000000000E+02
4892000000.000000      9.837952000000000E-01     -1.256641000000000E+02      3.056030000000000E-01     -1.200000000000000E+02
4893000000.000000      9.852600000000000E-01     -1.255898000000000E+02      3.070374000000000E-01     -1.204766000000000E+02
4894000000.000000      9.837952000000000E-01     -1.253750000000000E+02      3.076324000000000E-01     -1.205820000000000E+02
4895000000.000000      9.822998000000000E-01     -1.251601000000000E+02      3.095245000000000E-01     -1.207109000000000E+02
4896000000.000000      9.844971000000000E-01     -1.248906000000000E+02      3.109436000000000E-01     -1.208242000000000E+02
4897000000.000000      9.850464000000000E-01     -1.247500000000000E+02      3.121948000000000E-01     -1.211445000000000E+02
4898000000.000000      9.841309000000000E-01     -1.245351000000000E+02      3.141174000000000E-01     -1.212422000000000E+02
4899000000.000000      9.844666000000000E-01     -1.243125000000000E+02      3.155212000000000E-01     -1.216289000000000E+02
4900000000.000000      9.836731000000000E-01     -1.240312000000000E+02      3.168945000000000E-01     -1.216680000000000E+02
4901000000.000000      9.856262000000000E-01     -1.236758000000000E+02      3.185425000000000E-01     -1.218086000000000E+02
4902000000.000000      9.822693000000000E-01     -1.235625000000000E+02      3.206482000000000E-01     -1.220273000000000E+02
4903000000.000000      9.819946000000000E-01     -1.231602000000000E+02      3.210602000000000E-01     -1.221289000000000E+02
4904000000.000000      9.802551000000000E-01     -1.228398000000000E+02      3.226013000000000E-01     -1.222461000000000E+02
4905000000.000000      9.781189000000000E-01     -1.226328000000000E+02      3.255463000000000E-01     -1.225625000000000E+02
4906000000.000000      9.773254000000000E-01     -1.222266000000000E+02      3.267212000000000E-01     -1.224023000000000E+02
4907000000.000000      9.746704000000000E-01     -1.221953000000000E+02      3.286133000000000E-01     -1.228750000000000E+02
4908000000.000000      9.733582000000000E-01     -1.218945000000000E+02      3.306580000000000E-01     -1.232656000000000E+02
4909000000.000000      9.725342000000000E-01     -1.216133000000000E+02      3.316345000000000E-01     -1.234258000000000E+02
4910000000.000000      9.685974000000000E-01     -1.213320000000000E+02      3.335114000000000E-01     -1.235039000000000E+02
4911000000.000000      9.681396000000000E-01     -1.209219000000000E+02      3.359528000000000E-01     -1.237422000000000E+02
4912000000.000000      9.674377000000000E-01     -1.207539000000000E+02      3.373260000000000E-01     -1.240820000000000E+02
4913000000.000000      9.644775000000000E-01     -1.203984000000000E+02      3.395386000000000E-01     -1.241562000000000E+02
4914000000.000000      9.622192000000000E-01     -1.200664000000000E+02      3.408203000000000E-01     -1.242109000000000E+02
4915000000.000000      9.613342000000000E-01     -1.197930000000000E+02      3.428650000000000E-01     -1.247617000000000E+02
4916000000.000000      9.582825000000000E-01     -1.195430000000000E+02      3.446350000000000E-01     -1.250781000000000E+02
4917000000.000000      9.538269000000000E-01     -1.191797000000000E+02      3.466034000000000E-01     -1.250469000000000E+02
4918000000.000000      9.557800000000000E-01     -1.189492000000000E+02      3.485107000000000E-01     -1.253984000000000E+02
4919000000.000000      9.521179000000000E-01     -1.186211000000000E+02      3.513336000000000E-01     -1.254297000000000E+02
4920000000.000000      9.497986000000000E-01     -1.184141000000000E+02      3.515930000000000E-01     -1.260000000000000E+02
4921000000.000000      9.475708000000000E-01     -1.181055000000000E+02      3.550110000000000E-01     -1.260976000000000E+02
4922000000.000000      9.440613000000000E-01     -1.177734000000000E+02      3.558197000000000E-01     -1.262578000000000E+02
4923000000.000000      9.421387000000000E-01     -1.175195000000000E+02      3.576508000000000E-01     -1.266172000000000E+02
4924000000.000000      9.420166000000000E-01     -1.173008000000000E+02      3.599701000000000E-01     -1.270625000000000E+02
4925000000.000000      9.394226000000000E-01     -1.170937000000000E+02      3.624115000000000E-01     -1.272305000000000E+02
4926000000.000000      9.365540000000000E-01     -1.167656000000000E+02      3.640900000000000E-01     -1.276133000000000E+02
4927000000.000000      9.340820000000000E-01     -1.164180000000000E+02      3.662262000000000E-01     -1.279140000000000E+02
4928000000.000000      9.321289000000000E-01     -1.163203000000000E+02      3.691864000000000E-01     -1.281016000000000E+02
4929000000.000000      9.292297000000000E-01     -1.160430000000000E+02      3.699951000000000E-01     -1.284375000000000E+02
4930000000.000000      9.273071000000000E-01     -1.157461000000000E+02      3.721924000000000E-01     -1.289219000000000E+02
4931000000.000000      9.228210000000000E-01     -1.156133000000000E+02      3.753052000000000E-01     -1.292344000000000E+02
4932000000.000000      9.206543000000000E-01     -1.152851000000000E+02      3.764954000000000E-01     -1.295391000000000E+02
4933000000.000000      9.196777000000000E-01     -1.152226000000000E+02      3.773651000000000E-01     -1.298047000000000E+02
4934000000.000000      9.176941000000000E-01     -1.149844000000000E+02      3.798218000000000E-01     -1.303281000000000E+02
4935000000.000000      9.142151000000000E-01     -1.147031000000000E+02      3.818512000000000E-01     -1.304531000000000E+02
4936000000.000000      9.108276000000000E-01     -1.146992000000000E+02      3.841553000000000E-01     -1.309062000000000E+02
4937000000.000000      9.108887000000000E-01     -1.144570000000000E+02      3.866119000000000E-01     -1.314062000000000E+02
4938000000.000000      9.073792000000000E-01     -1.144727000000000E+02      3.893280000000000E-01     -1.316484000000000E+02
4939000000.000000      9.043579000000000E-01     -1.142226000000000E+02      3.905029000000000E-01     -1.319141000000000E+02
4940000000.000000      9.014282000000000E-01     -1.140312000000000E+02      3.917084000000000E-01     -1.324844000000000E+02
4941000000.000000      8.975220000000000E-01     -1.140391000000000E+02      3.944855000000000E-01     -1.328281000000000E+02
4942000000.000000      8.942566000000000E-01     -1.139961000000000E+02      3.960419000000000E-01     -1.332344000000000E+02
4943000000.000000      8.938599000000000E-01     -1.138281000000000E+02      3.984528000000000E-01     -1.337031000000000E+02
4944000000.000000      8.909912000000000E-01     -1.136641000000000E+02      4.000549000000000E-01     -1.340156000000000E+02
4945000000.000000      8.896790000000000E-01     -1.136758000000000E+02      4.013977000000000E-01     -1.342891000000000E+02
4946000000.000000      8.845215000000000E-01     -1.136641000000000E+02      4.039307000000000E-01     -1.349297000000000E+02
4947000000.000000      8.822632000000000E-01     -1.135664000000000E+02      4.058990000000000E-01     -1.351797000000000E+02
4948000000.000000      8.778992000000000E-01     -1.135586000000000E+02      4.076385000000000E-01     -1.357188000000000E+02
4949000000.000000      8.750610000000000E-01     -1.135625000000000E+02      4.097748000000000E-01     -1.358750000000000E+02
4950000000.000000      8.721313000000000E-01     -1.136328000000000E+02      4.113464000000000E-01     -1.365469000000000E+02
4951000000.000000      8.689880000000000E-01     -1.135000000000000E+02      4.134674000000000E-01     -1.371094000000000E+02
4952000000.000000      8.694458000000000E-01     -1.136016000000000E+02      4.153748000000000E-01     -1.375000000000000E+02
4953000000.000000      8.624268000000000E-01     -1.137070000000000E+02      4.172974000000000E-01     -1.377578000000000E+02
4954000000.000000      8.573608000000000E-01     -1.139180000000000E+02      4.189148000000000E-01     -1.383984000000000E+02
