! Network Analyzer HP8722D
! Hewlett-Packard
! Data name: Linha & Wilkinson
! Saver's name: Rodrigo Anjos
! Comments: Teste da utilização de aquisição
continua pelo VNA HP8722D
! Time and date: 21/5/2025 16:59
!              Frequency                     S11                                                   S21                                                   S12                                                   S22
# HZ  S  MA R 50
4800000000.000000      5.387878000000000E-01     -1.088008000000000E+02      1.171150000000000E-01     -1.527734000000000E+02
4801000000.000000      5.405884000000000E-01     -1.094922000000000E+02      1.155510000000000E-01     -1.510703000000000E+02
4802000000.000000      5.370483000000000E-01     -1.100039000000000E+02      1.136208000000000E-01     -1.492734000000000E+02
4803000000.000000      5.402832000000000E-01     -1.107109000000000E+02      1.136055000000000E-01     -1.474453000000000E+02
4804000000.000000      5.378113000000000E-01     -1.114609000000000E+02      1.121674000000000E-01     -1.456406000000000E+02
4805000000.000000      5.403442000000000E-01     -1.121562000000000E+02      1.120148000000000E-01     -1.434141000000000E+02
4806000000.000000      5.393982000000000E-01     -1.127070000000000E+02      1.112137000000000E-01     -1.416406000000000E+02
4807000000.000000      5.401001000000000E-01     -1.134414000000000E+02      1.113396000000000E-01     -1.397031000000000E+02
4808000000.000000      5.422363000000000E-01     -1.140000000000000E+02      1.117516000000000E-01     -1.376562000000000E+02
4809000000.000000      5.427551000000000E-01     -1.149531000000000E+02      1.119308000000000E-01     -1.359453000000000E+02
4810000000.000000      5.430908000000000E-01     -1.155156000000000E+02      1.131706000000000E-01     -1.341094000000000E+02
4811000000.000000      5.450439000000000E-01     -1.160625000000000E+02      1.139565000000000E-01     -1.322734000000000E+02
4812000000.000000      5.495605000000000E-01     -1.166680000000000E+02      1.148911000000000E-01     -1.304922000000000E+02
4813000000.000000      5.491943000000000E-01     -1.173789000000000E+02      1.157570000000000E-01     -1.289063000000000E+02
4814000000.000000      5.504150000000000E-01     -1.180820000000000E+02      1.174088000000000E-01     -1.272070000000000E+02
4815000000.000000      5.513611000000000E-01     -1.186250000000000E+02      1.190910000000000E-01     -1.255625000000000E+02
4816000000.000000      5.567932000000000E-01     -1.192969000000000E+02      1.213341000000000E-01     -1.240351000000000E+02
4817000000.000000      5.617065000000000E-01     -1.198555000000000E+02      1.226692000000000E-01     -1.227148000000000E+02
4818000000.000000      5.635376000000000E-01     -1.205664000000000E+02      1.247787000000000E-01     -1.211367000000000E+02
4819000000.000000      5.660095000000000E-01     -1.209375000000000E+02      1.271515000000000E-01     -1.201289000000000E+02
4820000000.000000      5.698242000000000E-01     -1.215781000000000E+02      1.300507000000000E-01     -1.189531000000000E+02
4821000000.000000      5.733032000000000E-01     -1.219648000000000E+02      1.322556000000000E-01     -1.180000000000000E+02
4822000000.000000      5.787659000000000E-01     -1.227773000000000E+02      1.346359000000000E-01     -1.169531000000000E+02
4823000000.000000      5.820923000000000E-01     -1.231523000000000E+02      1.376953000000000E-01     -1.161172000000000E+02
4824000000.000000      5.869446000000000E-01     -1.236289000000000E+02      1.403427000000000E-01     -1.153320000000000E+02
4825000000.000000      5.916443000000000E-01     -1.240000000000000E+02      1.427765000000000E-01     -1.142617000000000E+02
4826000000.000000      5.970154000000000E-01     -1.246133000000000E+02      1.462708000000000E-01     -1.138125000000000E+02
4827000000.000000      6.017151000000000E-01     -1.247539000000000E+02      1.491470000000000E-01     -1.127969000000000E+02
4828000000.000000      6.073914000000000E-01     -1.251914000000000E+02      1.522980000000000E-01     -1.124336000000000E+02
4829000000.000000      6.116333000000000E-01     -1.257227000000000E+02      1.553802000000000E-01     -1.120469000000000E+02
4830000000.000000      6.196289000000000E-01     -1.260625000000000E+02      1.584473000000000E-01     -1.116133000000000E+02
4831000000.000000      6.236572000000000E-01     -1.263789000000000E+02      1.616440000000000E-01     -1.110430000000000E+02
4832000000.000000      6.309509000000000E-01     -1.266680000000000E+02      1.643753000000000E-01     -1.106719000000000E+02
4833000000.000000      6.368713000000000E-01     -1.270508000000000E+02      1.681061000000000E-01     -1.103281000000000E+02
4834000000.000000      6.424561000000000E-01     -1.273164000000000E+02      1.706238000000000E-01     -1.101015000000000E+02
4835000000.000000      6.486511000000000E-01     -1.276055000000000E+02      1.743622000000000E-01     -1.098438000000000E+02
4836000000.000000      6.572571000000000E-01     -1.276445000000000E+02      1.772766000000000E-01     -1.094570000000000E+02
4837000000.000000      6.632080000000000E-01     -1.278594000000000E+02      1.803818000000000E-01     -1.095859000000000E+02
4838000000.000000      6.706848000000000E-01     -1.282812000000000E+02      1.842041000000000E-01     -1.092266000000000E+02
4839000000.000000      6.774597000000000E-01     -1.283359000000000E+02      1.866608000000000E-01     -1.092266000000000E+02
4840000000.000000      6.835327000000000E-01     -1.285078000000000E+02      1.898041000000000E-01     -1.089844000000000E+02
4841000000.000000      6.915283000000000E-01     -1.288203000000000E+02      1.934357000000000E-01     -1.090664000000000E+02
4842000000.000000      7.003479000000000E-01     -1.288125000000000E+02      1.962662000000000E-01     -1.091328000000000E+02
4843000000.000000      7.069092000000000E-01     -1.290234000000000E+02      1.991653000000000E-01     -1.091445000000000E+02
4844000000.000000      7.129822000000000E-01     -1.291172000000000E+02      2.023087000000000E-01     -1.091133000000000E+02
4845000000.000000      7.211609000000000E-01     -1.291875000000000E+02      2.057571000000000E-01     -1.092617000000000E+02
4846000000.000000      7.263184000000000E-01     -1.290859000000000E+02      2.084961000000000E-01     -1.092266000000000E+02
4847000000.000000      7.369995000000000E-01     -1.293516000000000E+02      2.116089000000000E-01     -1.094258000000000E+02
4848000000.000000      7.436523000000000E-01     -1.292969000000000E+02      2.140808000000000E-01     -1.094297000000000E+02
4849000000.000000      7.503357000000000E-01     -1.295703000000000E+02      2.175751000000000E-01     -1.097578000000000E+02
4850000000.000000      7.605591000000000E-01     -1.293906000000000E+02      2.204285000000000E-01     -1.096016000000000E+02
4851000000.000000      7.684021000000000E-01     -1.294141000000000E+02      2.238846000000000E-01     -1.098164000000000E+02
4852000000.000000      7.747192000000000E-01     -1.294219000000000E+02      2.262497000000000E-01     -1.100781000000000E+02
4853000000.000000      7.828064000000000E-01     -1.294062000000000E+02      2.283859000000000E-01     -1.101992000000000E+02
4854000000.000000      7.889404000000000E-01     -1.293437000000000E+02      2.319489000000000E-01     -1.106250000000000E+02
4855000000.000000      7.968140000000000E-01     -1.293672000000000E+02      2.344818000000000E-01     -1.107383000000000E+02
4856000000.000000      8.063965000000000E-01     -1.294531000000000E+02      2.376022000000000E-01     -1.107305000000000E+02
4857000000.000000      8.140564000000000E-01     -1.293906000000000E+02      2.404709000000000E-01     -1.111094000000000E+02
4858000000.000000      8.186035000000000E-01     -1.293984000000000E+02      2.424698000000000E-01     -1.112148000000000E+02
4859000000.000000      8.278198000000000E-01     -1.294141000000000E+02      2.452469000000000E-01     -1.115781000000000E+02
4860000000.000000      8.362122000000000E-01     -1.292422000000000E+02      2.479782000000000E-01     -1.118164000000000E+02
4861000000.000000      8.445129000000000E-01     -1.291172000000000E+02      2.503204000000000E-01     -1.120313000000000E+02
4862000000.000000      8.516846000000000E-01     -1.291641000000000E+02      2.532349000000000E-01     -1.122422000000000E+02
4863000000.000000      8.582153000000000E-01     -1.291172000000000E+02      2.546997000000000E-01     -1.126172000000000E+02
4864000000.000000      8.656006000000000E-01     -1.289531000000000E+02      2.575378000000000E-01     -1.128633000000000E+02
4865000000.000000      8.724670000000000E-01     -1.290234000000000E+02      2.598724000000000E-01     -1.131484000000000E+02
4866000000.000000      8.800659000000000E-01     -1.288750000000000E+02      2.619629000000000E-01     -1.133789000000000E+02
4867000000.000000      8.849182000000000E-01     -1.287344000000000E+02      2.639923000000000E-01     -1.137031000000000E+02
4868000000.000000      8.932190000000000E-01     -1.288281000000000E+02      2.665558000000000E-01     -1.139648000000000E+02
4869000000.000000      8.982849000000000E-01     -1.288203000000000E+02      2.678070000000000E-01     -1.143476000000000E+02
4870000000.000000      9.061584000000000E-01     -1.286016000000000E+02      2.706451000000000E-01     -1.144102000000000E+02
4871000000.000000      9.117126000000000E-01     -1.285000000000000E+02      2.724915000000000E-01     -1.148594000000000E+02
4872000000.000000      9.187622000000000E-01     -1.283516000000000E+02      2.735748000000000E-01     -1.148867000000000E+02
4873000000.000000      9.240723000000000E-01     -1.283125000000000E+02      2.758636000000000E-01     -1.153633000000000E+02
4874000000.000000      9.273682000000000E-01     -1.281875000000000E+02      2.776489000000000E-01     -1.156797000000000E+02
4875000000.000000      9.367676000000000E-01     -1.280937000000000E+02      2.794495000000000E-01     -1.158555000000000E+02
4876000000.000000      9.377441000000000E-01     -1.279922000000000E+02      2.814331000000000E-01     -1.162891000000000E+02
4877000000.000000      9.428406000000000E-01     -1.279180000000000E+02      2.827301000000000E-01     -1.164336000000000E+02
4878000000.000000      9.489441000000000E-01     -1.277851000000000E+02      2.850952000000000E-01     -1.167031000000000E+02
4879000000.000000      9.541321000000000E-01     -1.276797000000000E+02      2.859039000000000E-01     -1.169805000000000E+02
4880000000.000000      9.562988000000000E-01     -1.275352000000000E+02      2.880249000000000E-01     -1.173750000000000E+02
4881000000.000000      9.614563000000000E-01     -1.272812000000000E+02      2.899780000000000E-01     -1.173476000000000E+02
4882000000.000000      9.627075000000000E-01     -1.273672000000000E+02      2.908936000000000E-01     -1.177930000000000E+02
4883000000.000000      9.659119000000000E-01     -1.272344000000000E+02      2.923279000000000E-01     -1.179883000000000E+02
4884000000.000000      9.707947000000000E-01     -1.270781000000000E+02      2.941742000000000E-01     -1.183711000000000E+02
4885000000.000000      9.730835000000000E-01     -1.270078000000000E+02      2.957153000000000E-01     -1.184258000000000E+02
4886000000.000000      9.747620000000000E-01     -1.267070000000000E+02      2.969818000000000E-01     -1.185820000000000E+02
4887000000.000000      9.789429000000000E-01     -1.264922000000000E+02      2.989349000000000E-01     -1.189375000000000E+02
4888000000.000000      9.810791000000000E-01     -1.264063000000000E+02      3.003998000000000E-01     -1.191914000000000E+02
4889000000.000000      9.797668000000000E-01     -1.262226000000000E+02      3.012695000000000E-01     -1.193008000000000E+02
4890000000.000000      9.816589000000000E-01     -1.259570000000000E+02      3.022308000000000E-01     -1.196289000000000E+02
4891000000.000000      9.808655000000000E-01     -1.258476000000000E+02      3.033295000000000E-01     -1.199805000000000E+02
4892000000.000000      9.851379000000000E-01     -1.257578000000000E+02      3.052826000000000E-01     -1.199726000000000E+02
4893000000.000000      9.853210000000000E-01     -1.255078000000000E+02      3.066864000000000E-01     -1.203828000000000E+02
4894000000.000000      9.849854000000000E-01     -1.253633000000000E+02      3.076324000000000E-01     -1.204023000000000E+02
4895000000.000000      9.839478000000000E-01     -1.250430000000000E+02      3.097229000000000E-01     -1.205508000000000E+02
4896000000.000000      9.860840000000000E-01     -1.248398000000000E+02      3.108978000000000E-01     -1.206914000000000E+02
4897000000.000000      9.865723000000000E-01     -1.246523000000000E+02      3.123779000000000E-01     -1.210195000000000E+02
4898000000.000000      9.849548000000000E-01     -1.245234000000000E+02      3.137817000000000E-01     -1.211719000000000E+02
4899000000.000000      9.840088000000000E-01     -1.241836000000000E+02      3.153992000000000E-01     -1.216289000000000E+02
4900000000.000000      9.833374000000000E-01     -1.239570000000000E+02      3.163605000000000E-01     -1.215117000000000E+02
4901000000.000000      9.830322000000000E-01     -1.236133000000000E+02      3.185577000000000E-01     -1.217305000000000E+02
4902000000.000000      9.816895000000000E-01     -1.235039000000000E+02      3.204651000000000E-01     -1.218555000000000E+02
4903000000.000000      9.823608000000000E-01     -1.231562000000000E+02      3.212280000000000E-01     -1.220820000000000E+02
4904000000.000000      9.787292000000000E-01     -1.227812000000000E+02      3.223267000000000E-01     -1.222500000000000E+02
4905000000.000000      9.764404000000000E-01     -1.226055000000000E+02      3.249512000000000E-01     -1.225156000000000E+02
4906000000.000000      9.790039000000000E-01     -1.221953000000000E+02      3.267212000000000E-01     -1.223086000000000E+02
4907000000.000000      9.750671000000000E-01     -1.220351000000000E+02      3.284454000000000E-01     -1.228672000000000E+02
4908000000.000000      9.744568000000000E-01     -1.219609000000000E+02      3.298950000000000E-01     -1.233320000000000E+02
4909000000.000000      9.722900000000000E-01     -1.215078000000000E+02      3.314209000000000E-01     -1.231602000000000E+02
4910000000.000000      9.698486000000000E-01     -1.212031000000000E+02      3.328705000000000E-01     -1.234062000000000E+02
4911000000.000000      9.684448000000000E-01     -1.209961000000000E+02      3.355713000000000E-01     -1.236367000000000E+02
4912000000.000000      9.671021000000000E-01     -1.206055000000000E+02      3.375854000000000E-01     -1.240703000000000E+02
4913000000.000000      9.657898000000000E-01     -1.203672000000000E+02      3.395386000000000E-01     -1.241211000000000E+02
4914000000.000000      9.628906000000000E-01     -1.200508000000000E+02      3.411713000000000E-01     -1.241680000000000E+02
4915000000.000000      9.603882000000000E-01     -1.197383000000000E+02      3.424683000000000E-01     -1.246211000000000E+02
4916000000.000000      9.602051000000000E-01     -1.195547000000000E+02      3.446045000000000E-01     -1.249766000000000E+02
4917000000.000000      9.558411000000000E-01     -1.191836000000000E+02      3.463135000000000E-01     -1.250000000000000E+02
4918000000.000000      9.570007000000000E-01     -1.188906000000000E+02      3.481750000000000E-01     -1.253320000000000E+02
4919000000.000000      9.511719000000000E-01     -1.186211000000000E+02      3.509369000000000E-01     -1.254766000000000E+02
4920000000.000000      9.496155000000000E-01     -1.183125000000000E+02      3.518829000000000E-01     -1.259062000000000E+02
4921000000.000000      9.489136000000000E-01     -1.179062000000000E+02      3.550568000000000E-01     -1.260820000000000E+02
4922000000.000000      9.441528000000000E-01     -1.177070000000000E+02      3.563080000000000E-01     -1.261719000000000E+02
4923000000.000000      9.428406000000000E-01     -1.174375000000000E+02      3.583069000000000E-01     -1.265586000000000E+02
4924000000.000000      9.434814000000000E-01     -1.171758000000000E+02      3.600311000000000E-01     -1.270117000000000E+02
4925000000.000000      9.385986000000000E-01     -1.167578000000000E+02      3.623962000000000E-01     -1.271484000000000E+02
4926000000.000000      9.350281000000000E-01     -1.167461000000000E+02      3.645782000000000E-01     -1.275469000000000E+02
4927000000.000000      9.343262000000000E-01     -1.163984000000000E+02      3.659973000000000E-01     -1.276875000000000E+02
4928000000.000000      9.317017000000000E-01     -1.161133000000000E+02      3.684387000000000E-01     -1.280313000000000E+02
4929000000.000000      9.291687000000000E-01     -1.159141000000000E+02      3.698578000000000E-01     -1.283047000000000E+02
4930000000.000000      9.266663000000000E-01     -1.156875000000000E+02      3.729248000000000E-01     -1.287422000000000E+02
4931000000.000000      9.233093000000000E-01     -1.156289000000000E+02      3.749542000000000E-01     -1.292031000000000E+02
4932000000.000000      9.217224000000000E-01     -1.153398000000000E+02      3.760529000000000E-01     -1.295000000000000E+02
4933000000.000000      9.182129000000000E-01     -1.151523000000000E+02      3.765869000000000E-01     -1.295469000000000E+02
4934000000.000000      9.167480000000000E-01     -1.149492000000000E+02      3.795929000000000E-01     -1.302187000000000E+02
4935000000.000000      9.127808000000000E-01     -1.146641000000000E+02      3.819580000000000E-01     -1.303047000000000E+02
4936000000.000000      9.113159000000000E-01     -1.146094000000000E+02      3.839264000000000E-01     -1.308359000000000E+02
4937000000.000000      9.098816000000000E-01     -1.143672000000000E+02      3.864594000000000E-01     -1.311797000000000E+02
4938000000.000000      9.070435000000000E-01     -1.142812000000000E+02      3.883667000000000E-01     -1.316094000000000E+02
4939000000.000000      9.049377000000000E-01     -1.141250000000000E+02      3.909149000000000E-01     -1.317891000000000E+02
4940000000.000000      9.016418000000000E-01     -1.140156000000000E+02      3.916626000000000E-01     -1.324297000000000E+02
4941000000.000000      8.981018000000000E-01     -1.139687000000000E+02      3.942108000000000E-01     -1.326875000000000E+02
4942000000.000000      8.948975000000000E-01     -1.137656000000000E+02      3.960724000000000E-01     -1.331406000000000E+02
4943000000.000000      8.939209000000000E-01     -1.137148000000000E+02      3.986816000000000E-01     -1.335859000000000E+02
4944000000.000000      8.909912000000000E-01     -1.136523000000000E+02      4.000244000000000E-01     -1.339453000000000E+02
4945000000.000000      8.880615000000000E-01     -1.135742000000000E+02      4.019318000000000E-01     -1.342813000000000E+02
4946000000.000000      8.827820000000000E-01     -1.136133000000000E+02      4.038239000000000E-01     -1.348281000000000E+02
4947000000.000000      8.823853000000000E-01     -1.134648000000000E+02      4.047546000000000E-01     -1.350703000000000E+02
4948000000.000000      8.795166000000000E-01     -1.134844000000000E+02      4.077148000000000E-01     -1.357031000000000E+02
4949000000.000000      8.752747000000000E-01     -1.134492000000000E+02      4.091187000000000E-01     -1.358594000000000E+02
4950000000.000000      8.725281000000000E-01     -1.135508000000000E+02      4.114685000000000E-01     -1.365859000000000E+02
4951000000.000000      8.704529000000000E-01     -1.135234000000000E+02      4.132996000000000E-01     -1.369531000000000E+02
4952000000.000000      8.674011000000000E-01     -1.136250000000000E+02      4.150391000000000E-01     -1.374687000000000E+02
4953000000.000000      8.626099000000000E-01     -1.136016000000000E+02      4.173889000000000E-01     -1.375937000000000E+02
4954000000.000000      8.603516000000000E-01     -1.137539000000000E+02      4.182892000000000E-01     -1.382187000000000E+02
