! Network Analyzer HP8722D
! Hewlett-Packard
! Data name: Linha & Wilkinson
! Saver's name: Rodrigo Anjos
! Comments: Teste da utilização de aquisição
continua pelo VNA HP8722D
! Time and date: 21/5/2025 16:32
!              Frequency                     S11                                                   S21                                                   S12                                                   S22
# HZ  S  MA R 50
4800000000.000000      5.413818000000000E-01     -1.087226000000000E+02      1.175308000000000E-01     -1.526875000000000E+02
4801000000.000000      5.398254000000000E-01     -1.096250000000000E+02      1.157074000000000E-01     -1.507734000000000E+02
4802000000.000000      5.382996000000000E-01     -1.100430000000000E+02      1.143074000000000E-01     -1.490625000000000E+02
4803000000.000000      5.402222000000000E-01     -1.107734000000000E+02      1.133957000000000E-01     -1.473203000000000E+02
4804000000.000000      5.414429000000000E-01     -1.113906000000000E+02      1.121521000000000E-01     -1.453359000000000E+02
4805000000.000000      5.395813000000000E-01     -1.121758000000000E+02      1.121979000000000E-01     -1.433984000000000E+02
4806000000.000000      5.402222000000000E-01     -1.125898000000000E+02      1.115341000000000E-01     -1.413359000000000E+02
4807000000.000000      5.402222000000000E-01     -1.134648000000000E+02      1.113167000000000E-01     -1.395781000000000E+02
4808000000.000000      5.419006000000000E-01     -1.140430000000000E+02      1.118927000000000E-01     -1.374063000000000E+02
4809000000.000000      5.418091000000000E-01     -1.148047000000000E+02      1.120377000000000E-01     -1.359766000000000E+02
4810000000.000000      5.450134000000000E-01     -1.156055000000000E+02      1.129303000000000E-01     -1.337578000000000E+02
4811000000.000000      5.460205000000000E-01     -1.163398000000000E+02      1.140022000000000E-01     -1.321484000000000E+02
4812000000.000000      5.479126000000000E-01     -1.169102000000000E+02      1.149445000000000E-01     -1.304922000000000E+02
4813000000.000000      5.498657000000000E-01     -1.173047000000000E+02      1.159706000000000E-01     -1.286328000000000E+02
4814000000.000000      5.517273000000000E-01     -1.182695000000000E+02      1.178207000000000E-01     -1.272383000000000E+02
4815000000.000000      5.539551000000000E-01     -1.189023000000000E+02      1.195946000000000E-01     -1.254140000000000E+02
4816000000.000000      5.584717000000000E-01     -1.192891000000000E+02      1.210670000000000E-01     -1.238203000000000E+02
4817000000.000000      5.610046000000000E-01     -1.199687000000000E+02      1.231880000000000E-01     -1.227266000000000E+02
4818000000.000000      5.631409000000000E-01     -1.206328000000000E+02      1.252365000000000E-01     -1.213477000000000E+02
4819000000.000000      5.686646000000000E-01     -1.209766000000000E+02      1.275177000000000E-01     -1.201523000000000E+02
4820000000.000000      5.694885000000000E-01     -1.216055000000000E+02      1.301117000000000E-01     -1.187930000000000E+02
4821000000.000000      5.744019000000000E-01     -1.223906000000000E+02      1.322784000000000E-01     -1.179726000000000E+02
4822000000.000000      5.799561000000000E-01     -1.226758000000000E+02      1.350403000000000E-01     -1.168789000000000E+02
4823000000.000000      5.827026000000000E-01     -1.231602000000000E+02      1.376801000000000E-01     -1.158906000000000E+02
4824000000.000000      5.868225000000000E-01     -1.237344000000000E+02      1.404419000000000E-01     -1.151719000000000E+02
4825000000.000000      5.907898000000000E-01     -1.242578000000000E+02      1.437073000000000E-01     -1.142383000000000E+02
4826000000.000000      5.972900000000000E-01     -1.247969000000000E+02      1.467667000000000E-01     -1.138515000000000E+02
4827000000.000000      6.040649000000000E-01     -1.250391000000000E+02      1.496277000000000E-01     -1.129688000000000E+02
4828000000.000000      6.080017000000000E-01     -1.254453000000000E+02      1.528091000000000E-01     -1.123476000000000E+02
4829000000.000000      6.136780000000000E-01     -1.258047000000000E+02      1.553421000000000E-01     -1.120391000000000E+02
4830000000.000000      6.192322000000000E-01     -1.260586000000000E+02      1.584015000000000E-01     -1.115859000000000E+02
4831000000.000000      6.244202000000000E-01     -1.264258000000000E+02      1.618958000000000E-01     -1.111289000000000E+02
4832000000.000000      6.304932000000000E-01     -1.268711000000000E+02      1.650391000000000E-01     -1.105625000000000E+02
4833000000.000000      6.368408000000000E-01     -1.271484000000000E+02      1.682816000000000E-01     -1.102344000000000E+02
4834000000.000000      6.435547000000000E-01     -1.274062000000000E+02      1.715927000000000E-01     -1.101563000000000E+02
4835000000.000000      6.494141000000000E-01     -1.276133000000000E+02      1.744766000000000E-01     -1.098750000000000E+02
4836000000.000000      6.567993000000000E-01     -1.277891000000000E+02      1.775436000000000E-01     -1.095078000000000E+02
4837000000.000000      6.638184000000000E-01     -1.279375000000000E+02      1.809921000000000E-01     -1.098281000000000E+02
4838000000.000000      6.722717000000000E-01     -1.283672000000000E+02      1.845398000000000E-01     -1.094102000000000E+02
4839000000.000000      6.791077000000000E-01     -1.282656000000000E+02      1.870499000000000E-01     -1.092695000000000E+02
4840000000.000000      6.832275000000000E-01     -1.288437000000000E+02      1.899109000000000E-01     -1.092422000000000E+02
4841000000.000000      6.913147000000000E-01     -1.289531000000000E+02      1.935577000000000E-01     -1.092539000000000E+02
4842000000.000000      6.987610000000000E-01     -1.289453000000000E+02      1.966858000000000E-01     -1.092031000000000E+02
4843000000.000000      7.059021000000000E-01     -1.291797000000000E+02      1.998978000000000E-01     -1.092539000000000E+02
4844000000.000000      7.127686000000000E-01     -1.290781000000000E+02      2.027283000000000E-01     -1.091250000000000E+02
4845000000.000000      7.204590000000000E-01     -1.292578000000000E+02      2.059708000000000E-01     -1.092148000000000E+02
4846000000.000000      7.278442000000000E-01     -1.291875000000000E+02      2.087708000000000E-01     -1.092305000000000E+02
4847000000.000000      7.378235000000000E-01     -1.293359000000000E+02      2.117538000000000E-01     -1.093281000000000E+02
4848000000.000000      7.435303000000000E-01     -1.292734000000000E+02      2.144089000000000E-01     -1.094219000000000E+02
4849000000.000000      7.510376000000000E-01     -1.297422000000000E+02      2.178497000000000E-01     -1.098633000000000E+02
4850000000.000000      7.601624000000000E-01     -1.293437000000000E+02      2.208557000000000E-01     -1.098633000000000E+02
4851000000.000000      7.680969000000000E-01     -1.294453000000000E+02      2.240372000000000E-01     -1.100859000000000E+02
4852000000.000000      7.766113000000000E-01     -1.295156000000000E+02      2.268219000000000E-01     -1.101914000000000E+02
4853000000.000000      7.825928000000000E-01     -1.295078000000000E+02      2.287369000000000E-01     -1.102656000000000E+02
4854000000.000000      7.920837000000000E-01     -1.294922000000000E+02      2.320786000000000E-01     -1.106641000000000E+02
4855000000.000000      7.983398000000000E-01     -1.294609000000000E+02      2.350311000000000E-01     -1.106992000000000E+02
4856000000.000000      8.072205000000000E-01     -1.294688000000000E+02      2.372513000000000E-01     -1.109414000000000E+02
4857000000.000000      8.145752000000000E-01     -1.294531000000000E+02      2.407684000000000E-01     -1.112617000000000E+02
4858000000.000000      8.187256000000000E-01     -1.294453000000000E+02      2.431335000000000E-01     -1.114297000000000E+02
4859000000.000000      8.295593000000000E-01     -1.294141000000000E+02      2.455521000000000E-01     -1.116758000000000E+02
4860000000.000000      8.381348000000000E-01     -1.293594000000000E+02      2.481689000000000E-01     -1.118711000000000E+02
4861000000.000000      8.459167000000000E-01     -1.292500000000000E+02      2.506104000000000E-01     -1.122578000000000E+02
4862000000.000000      8.524780000000000E-01     -1.290703000000000E+02      2.528687000000000E-01     -1.123008000000000E+02
4863000000.000000      8.596497000000000E-01     -1.291250000000000E+02      2.553864000000000E-01     -1.127500000000000E+02
4864000000.000000      8.670959000000000E-01     -1.291484000000000E+02      2.579041000000000E-01     -1.128672000000000E+02
4865000000.000000      8.733826000000000E-01     -1.290781000000000E+02      2.600555000000000E-01     -1.130586000000000E+02
4866000000.000000      8.783875000000000E-01     -1.290000000000000E+02      2.616425000000000E-01     -1.135156000000000E+02
4867000000.000000      8.859558000000000E-01     -1.287891000000000E+02      2.643127000000000E-01     -1.138164000000000E+02
4868000000.000000      8.948364000000000E-01     -1.287656000000000E+02      2.667999000000000E-01     -1.141484000000000E+02
4869000000.000000      8.988953000000000E-01     -1.287109000000000E+02      2.681580000000000E-01     -1.143828000000000E+02
4870000000.000000      9.049377000000000E-01     -1.285938000000000E+02      2.705841000000000E-01     -1.145195000000000E+02
4871000000.000000      9.129639000000000E-01     -1.286016000000000E+02      2.725372000000000E-01     -1.149258000000000E+02
4872000000.000000      9.183350000000000E-01     -1.284062000000000E+02      2.743988000000000E-01     -1.150234000000000E+02
4873000000.000000      9.219971000000000E-01     -1.283125000000000E+02      2.762451000000000E-01     -1.155586000000000E+02
4874000000.000000      9.276733000000000E-01     -1.283047000000000E+02      2.779694000000000E-01     -1.157851000000000E+02
4875000000.000000      9.359131000000000E-01     -1.282812000000000E+02      2.797394000000000E-01     -1.159531000000000E+02
4876000000.000000      9.375305000000000E-01     -1.282187000000000E+02      2.818451000000000E-01     -1.164141000000000E+02
4877000000.000000      9.434509000000000E-01     -1.280156000000000E+02      2.831573000000000E-01     -1.165156000000000E+02
4878000000.000000      9.481506000000000E-01     -1.278359000000000E+02      2.853699000000000E-01     -1.168281000000000E+02
4879000000.000000      9.548645000000000E-01     -1.277031000000000E+02      2.862244000000000E-01     -1.170039000000000E+02
4880000000.000000      9.581299000000000E-01     -1.276601000000000E+02      2.882996000000000E-01     -1.174219000000000E+02
4881000000.000000      9.617004000000000E-01     -1.274883000000000E+02      2.899475000000000E-01     -1.175039000000000E+02
4882000000.000000      9.625854000000000E-01     -1.274726000000000E+02      2.912750000000000E-01     -1.179726000000000E+02
4883000000.000000      9.677429000000000E-01     -1.271406000000000E+02      2.919464000000000E-01     -1.181406000000000E+02
4884000000.000000      9.708252000000000E-01     -1.270820000000000E+02      2.942505000000000E-01     -1.184531000000000E+02
4885000000.000000      9.748840000000000E-01     -1.270351000000000E+02      2.959442000000000E-01     -1.185117000000000E+02
4886000000.000000      9.762573000000000E-01     -1.266602000000000E+02      2.971802000000000E-01     -1.186445000000000E+02
4887000000.000000      9.778442000000000E-01     -1.265977000000000E+02      2.995148000000000E-01     -1.191016000000000E+02
4888000000.000000      9.796753000000000E-01     -1.264414000000000E+02      3.005676000000000E-01     -1.192070000000000E+02
4889000000.000000      9.814453000000000E-01     -1.263359000000000E+02      3.015747000000000E-01     -1.194258000000000E+02
4890000000.000000      9.807739000000000E-01     -1.259766000000000E+02      3.022461000000000E-01     -1.198125000000000E+02
4891000000.000000      9.822998000000000E-01     -1.260156000000000E+02      3.032074000000000E-01     -1.200273000000000E+02
4892000000.000000      9.851990000000000E-01     -1.257422000000000E+02      3.056946000000000E-01     -1.200156000000000E+02
4893000000.000000      9.865417000000000E-01     -1.256289000000000E+02      3.066559000000000E-01     -1.204531000000000E+02
4894000000.000000      9.849854000000000E-01     -1.254258000000000E+02      3.080444000000000E-01     -1.205859000000000E+02
4895000000.000000      9.836426000000000E-01     -1.250820000000000E+02      3.098450000000000E-01     -1.206055000000000E+02
4896000000.000000      9.836426000000000E-01     -1.249297000000000E+02      3.107910000000000E-01     -1.209609000000000E+02
4897000000.000000      9.892273000000000E-01     -1.246875000000000E+02      3.126221000000000E-01     -1.211094000000000E+02
4898000000.000000      9.843140000000000E-01     -1.244961000000000E+02      3.140717000000000E-01     -1.211719000000000E+02
4899000000.000000      9.855042000000000E-01     -1.243828000000000E+02      3.154907000000000E-01     -1.217266000000000E+02
4900000000.000000      9.851685000000000E-01     -1.241250000000000E+02      3.167725000000000E-01     -1.216484000000000E+02
4901000000.000000      9.843445000000000E-01     -1.237812000000000E+02      3.186340000000000E-01     -1.217539000000000E+02
4902000000.000000      9.833374000000000E-01     -1.235000000000000E+02      3.204041000000000E-01     -1.220000000000000E+02
4903000000.000000      9.821167000000000E-01     -1.232578000000000E+02      3.210602000000000E-01     -1.221484000000000E+02
4904000000.000000      9.794617000000000E-01     -1.228086000000000E+02      3.225861000000000E-01     -1.223555000000000E+02
4905000000.000000      9.782715000000000E-01     -1.226094000000000E+02      3.253174000000000E-01     -1.225195000000000E+02
4906000000.000000      9.786072000000000E-01     -1.223125000000000E+02      3.270264000000000E-01     -1.224101000000000E+02
4907000000.000000      9.744568000000000E-01     -1.221406000000000E+02      3.285065000000000E-01     -1.229336000000000E+02
4908000000.000000      9.730530000000000E-01     -1.219727000000000E+02      3.306122000000000E-01     -1.232422000000000E+02
4909000000.000000      9.743347000000000E-01     -1.215391000000000E+02      3.314972000000000E-01     -1.233594000000000E+02
4910000000.000000      9.690857000000000E-01     -1.213437000000000E+02      3.332825000000000E-01     -1.236601000000000E+02
4911000000.000000      9.674072000000000E-01     -1.210547000000000E+02      3.356171000000000E-01     -1.237070000000000E+02
4912000000.000000      9.678345000000000E-01     -1.206914000000000E+02      3.376923000000000E-01     -1.241094000000000E+02
4913000000.000000      9.657288000000000E-01     -1.203828000000000E+02      3.392792000000000E-01     -1.241211000000000E+02
4914000000.000000      9.632874000000000E-01     -1.201055000000000E+02      3.407135000000000E-01     -1.242383000000000E+02
4915000000.000000      9.604492000000000E-01     -1.197539000000000E+02      3.424683000000000E-01     -1.247656000000000E+02
4916000000.000000      9.582214000000000E-01     -1.195039000000000E+02      3.444824000000000E-01     -1.250273000000000E+02
4917000000.000000      9.551697000000000E-01     -1.191367000000000E+02      3.466492000000000E-01     -1.251367000000000E+02
4918000000.000000      9.548950000000000E-01     -1.189844000000000E+02      3.479462000000000E-01     -1.254336000000000E+02
4919000000.000000      9.525757000000000E-01     -1.185703000000000E+02      3.508301000000000E-01     -1.255469000000000E+02
4920000000.000000      9.507141000000000E-01     -1.183711000000000E+02      3.516235000000000E-01     -1.261133000000000E+02
4921000000.000000      9.489441000000000E-01     -1.180078000000000E+02      3.551331000000000E-01     -1.261328000000000E+02
4922000000.000000      9.437256000000000E-01     -1.176797000000000E+02      3.561096000000000E-01     -1.263711000000000E+02
4923000000.000000      9.442139000000000E-01     -1.176094000000000E+02      3.578033000000000E-01     -1.266719000000000E+02
4924000000.000000      9.423523000000000E-01     -1.172539000000000E+02      3.600922000000000E-01     -1.271016000000000E+02
4925000000.000000      9.390869000000000E-01     -1.169961000000000E+02      3.625793000000000E-01     -1.271836000000000E+02
4926000000.000000      9.362488000000000E-01     -1.166523000000000E+02      3.645020000000000E-01     -1.276172000000000E+02
4927000000.000000      9.343262000000000E-01     -1.163906000000000E+02      3.658600000000000E-01     -1.278242000000000E+02
4928000000.000000      9.324036000000000E-01     -1.162266000000000E+02      3.687286000000000E-01     -1.281641000000000E+02
4929000000.000000      9.299927000000000E-01     -1.160859000000000E+02      3.701935000000000E-01     -1.283750000000000E+02
4930000000.000000      9.264526000000000E-01     -1.157969000000000E+02      3.720703000000000E-01     -1.289531000000000E+02
4931000000.000000      9.226990000000000E-01     -1.155664000000000E+02      3.751526000000000E-01     -1.292266000000000E+02
4932000000.000000      9.210510000000000E-01     -1.154023000000000E+02      3.765717000000000E-01     -1.295781000000000E+02
4933000000.000000      9.192505000000000E-01     -1.151758000000000E+02      3.771362000000000E-01     -1.297188000000000E+02
4934000000.000000      9.192200000000000E-01     -1.148828000000000E+02      3.799286000000000E-01     -1.304453000000000E+02
4935000000.000000      9.123840000000000E-01     -1.147344000000000E+02      3.819122000000000E-01     -1.304297000000000E+02
4936000000.000000      9.114380000000000E-01     -1.146836000000000E+02      3.844757000000000E-01     -1.308984000000000E+02
4937000000.000000      9.096680000000000E-01     -1.145039000000000E+02      3.862762000000000E-01     -1.313594000000000E+02
4938000000.000000      9.069519000000000E-01     -1.144531000000000E+02      3.890686000000000E-01     -1.317344000000000E+02
4939000000.000000      9.048157000000000E-01     -1.140703000000000E+02      3.911438000000000E-01     -1.320000000000000E+02
4940000000.000000      9.010925000000000E-01     -1.141992000000000E+02      3.916931000000000E-01     -1.326172000000000E+02
4941000000.000000      8.982849000000000E-01     -1.140312000000000E+02      3.945160000000000E-01     -1.328438000000000E+02
4942000000.000000      8.946228000000000E-01     -1.138555000000000E+02      3.954468000000000E-01     -1.331953000000000E+02
4943000000.000000      8.934631000000000E-01     -1.137422000000000E+02      3.982544000000000E-01     -1.336641000000000E+02
4944000000.000000      8.916321000000000E-01     -1.137383000000000E+02      4.011536000000000E-01     -1.339609000000000E+02
4945000000.000000      8.897095000000000E-01     -1.137070000000000E+02      4.017181000000000E-01     -1.343125000000000E+02
4946000000.000000      8.845825000000000E-01     -1.135898000000000E+02      4.038544000000000E-01     -1.348438000000000E+02
4947000000.000000      8.814697000000000E-01     -1.135234000000000E+02      4.050598000000000E-01     -1.352109000000000E+02
4948000000.000000      8.789368000000000E-01     -1.135938000000000E+02      4.078674000000000E-01     -1.357344000000000E+02
4949000000.000000      8.775940000000000E-01     -1.135117000000000E+02      4.091187000000000E-01     -1.359062000000000E+02
4950000000.000000      8.737488000000000E-01     -1.136758000000000E+02      4.111481000000000E-01     -1.365781000000000E+02
4951000000.000000      8.695068000000000E-01     -1.135976000000000E+02      4.123230000000000E-01     -1.371875000000000E+02
4952000000.000000      8.681946000000000E-01     -1.136641000000000E+02      4.151611000000000E-01     -1.374453000000000E+02
4953000000.000000      8.631287000000000E-01     -1.137305000000000E+02      4.179382000000000E-01     -1.377969000000000E+02
4954000000.000000      8.598328000000000E-01     -1.138906000000000E+02      4.187317000000000E-01     -1.383594000000000E+02
