! Network Analyzer HP8722D
! Hewlett-Packard
! Data name: Linha & Wilkinson
! Saver's name: Rodrigo Anjos
! Comments: Teste da utilização de aquisição
continua pelo VNA HP8722D
! Time and date: 3/9/2025 17:34
!              Frequency                     S11                                                   S21                                                   S12                                                   S22
# HZ  S  MA R 50
3000000000.000000      7.619858000000000E-02      8.702734000000000E+01      4.546509000000000E-01      2.542578000000000E+01
3020000000.000000      9.284592000000000E-02      7.260156000000000E+01      4.551697000000000E-01     -3.238281000000000E+00
3040000000.000000      9.561920000000000E-02      5.651367000000000E+01      4.563599000000000E-01     -3.229297000000000E+01
3060000000.000000      8.417511000000000E-02      4.099999000000000E+01      4.522552000000000E-01     -6.069530000000000E+01
3080000000.000000      6.423950000000000E-02      3.009961000000000E+01      4.544220000000000E-01     -8.918749000000000E+01
3100000000.000000      4.582024000000000E-02      2.983007000000000E+01      4.519958000000000E-01     -1.177031000000000E+02
3120000000.000000      3.887939000000000E-02      4.233203000000000E+01      4.497681000000000E-01     -1.463906000000000E+02
3140000000.000000      3.801727000000000E-02      4.819530000000000E+01      4.445953000000000E-01     -1.748594000000000E+02
3160000000.000000      3.043938000000000E-02      4.739648000000000E+01      4.411926000000000E-01      1.567578000000000E+02
3180000000.000000      1.659298000000000E-02      9.350000000000000E+01      4.397278000000000E-01      1.279336000000000E+02
3200000000.000000      4.570961000000000E-02      1.441094000000000E+02      4.342957000000000E-01      9.858593000000000E+01
3220000000.000000      9.650803000000000E-02      1.369219000000000E+02      4.212341000000000E-01      6.935937000000000E+01
3240000000.000000      1.469727000000000E-01      1.216914000000000E+02      4.095612000000000E-01      4.187500000000000E+01
3260000000.000000      1.897125000000000E-01      1.046758000000000E+02      4.125977000000000E-01      1.472559000000000E+01
3280000000.000000      2.169418000000000E-01      8.733984000000000E+01      4.175720000000000E-01     -1.479736000000000E+01
3300000000.000000      2.285690000000000E-01      7.057422000000000E+01      4.131622000000000E-01     -4.311913000000000E+01
3320000000.000000      2.239456000000000E-01      5.517187000000000E+01      4.154816000000000E-01     -7.093750000000000E+01
3340000000.000000      2.082596000000000E-01      4.239648000000000E+01      4.218903000000000E-01     -9.960155000000000E+01
3360000000.000000      1.848831000000000E-01      3.305078000000000E+01      4.227600000000000E-01     -1.279844000000000E+02
3380000000.000000      1.613464000000000E-01      2.805176000000000E+01      4.278259000000000E-01     -1.563828000000000E+02
3400000000.000000      1.425323000000000E-01      2.607422000000000E+01      4.291687000000000E-01      1.749531000000000E+02
3420000000.000000      1.290894000000000E-01      2.578125000000000E+01      4.303284000000000E-01      1.460859000000000E+02
3440000000.000000      1.163750000000000E-01      2.541601000000000E+01      4.291534000000000E-01      1.172500000000000E+02
3460000000.000000      1.048431000000000E-01      2.621191000000000E+01      4.257965000000000E-01      8.891405000000000E+01
3480000000.000000      9.664154000000000E-02      2.897168000000000E+01      4.280396000000000E-01      6.061523000000000E+01
3500000000.000000      9.272003000000000E-02      3.304688000000000E+01      4.231873000000000E-01      3.125977000000000E+01
3520000000.000000      9.130478000000000E-02      3.629883000000000E+01      4.197693000000000E-01      3.239502000000000E+00
3540000000.000000      9.182358000000000E-02      3.975976000000000E+01      4.233704000000000E-01     -2.556055000000000E+01
3560000000.000000      9.383392000000000E-02      4.512500000000000E+01      4.252014000000000E-01     -5.454102000000000E+01
3580000000.000000      1.014595000000000E-01      4.988867000000000E+01      4.248962000000000E-01     -8.315624000000000E+01
3600000000.000000      1.142731000000000E-01      5.129101000000000E+01      4.243469000000000E-01     -1.113086000000000E+02
3620000000.000000      1.279907000000000E-01      4.871288000000000E+01      4.252014000000000E-01     -1.398828000000000E+02
3640000000.000000      1.336746000000000E-01      4.225781000000000E+01      4.250031000000000E-01     -1.681406000000000E+02
3660000000.000000      1.289902000000000E-01      3.556250000000000E+01      4.222412000000000E-01      1.640312000000000E+02
3680000000.000000      1.164742000000000E-01      3.236133000000000E+01      4.277344000000000E-01      1.364375000000000E+02
3700000000.000000      1.037598000000000E-01      3.562304000000000E+01      4.282837000000000E-01      1.077617000000000E+02
3720000000.000000      1.042175000000000E-01      4.455274000000000E+01      4.267273000000000E-01      7.946484000000000E+01
3740000000.000000      1.218109000000000E-01      4.860742000000000E+01      4.206390000000000E-01      5.086914000000000E+01
3760000000.000000      1.402817000000000E-01      4.520703000000000E+01      4.156799000000000E-01      2.301562000000000E+01
3780000000.000000      1.476974000000000E-01      3.769140000000000E+01      4.156494000000000E-01     -4.636230000000000E+00
3800000000.000000      1.411896000000000E-01      3.021875000000000E+01      4.153442000000000E-01     -3.321289000000000E+01
3820000000.000000      1.228561000000000E-01      2.705469000000000E+01      4.154816000000000E-01     -6.199609000000000E+01
3840000000.000000      1.084785000000000E-01      3.200976000000000E+01      4.146423000000000E-01     -9.096874000000000E+01
3860000000.000000      1.128426000000000E-01      4.037305000000000E+01      4.140015000000000E-01     -1.197969000000000E+02
3880000000.000000      1.307144000000000E-01      4.217773000000000E+01      4.111786000000000E-01     -1.489844000000000E+02
3900000000.000000      1.450195000000000E-01      3.649805000000000E+01      4.048309000000000E-01     -1.772266000000000E+02
3920000000.000000      1.428680000000000E-01      2.885937000000000E+01      4.053497000000000E-01      1.556484000000000E+02
3940000000.000000      1.254959000000000E-01      2.468164000000000E+01      4.145508000000000E-01      1.269570000000000E+02
3960000000.000000      1.075020000000000E-01      3.106348000000000E+01      4.119415000000000E-01      9.772655000000000E+01
3980000000.000000      1.139107000000000E-01      4.468554000000000E+01      4.045105000000000E-01      6.919531000000000E+01
4000000000.000000      1.454315000000000E-01      4.816796000000000E+01      3.971558000000000E-01      4.214648000000000E+01
4020000000.000000      1.786880000000000E-01      4.097852000000000E+01      4.031677000000000E-01      1.441943000000000E+01
4040000000.000000      1.973190000000000E-01      2.832910000000000E+01      4.037170000000000E-01     -1.563379000000000E+01
4060000000.000000      1.922989000000000E-01      1.451563000000000E+01      3.895874000000000E-01     -4.428906000000000E+01
4080000000.000000      1.639023000000000E-01      8.775330000000000E-01      3.895874000000000E-01     -7.106640000000000E+01
4100000000.000000      1.179504000000000E-01     -6.943359000000000E+00      3.984222000000000E-01     -9.996483000000000E+01
4120000000.000000      7.543182000000000E-02      3.170898000000000E+00      3.988495000000000E-01     -1.299609000000000E+02
4140000000.000000      7.238388000000000E-02      3.276172000000000E+01      3.919373000000000E-01     -1.587891000000000E+02
4160000000.000000      9.703827000000000E-02      4.232812000000000E+01      3.940582000000000E-01      1.734141000000000E+02
4180000000.000000      1.151581000000000E-01      3.927148000000000E+01      4.015808000000000E-01      1.446563000000000E+02
4200000000.000000      1.172523000000000E-01      3.567773000000000E+01      4.038239000000000E-01      1.147773000000000E+02
4220000000.000000      1.147614000000000E-01      3.781054000000000E+01      3.956757000000000E-01      8.553905000000000E+01
4240000000.000000      1.230316000000000E-01      4.451367000000000E+01      3.892212000000000E-01      5.710938000000000E+01
4260000000.000000      1.478043000000000E-01      4.670117000000000E+01      3.861542000000000E-01      2.908691000000000E+01
4280000000.000000      1.744995000000000E-01      4.201953000000000E+01      3.852692000000000E-01      8.349609000000000E-01
4300000000.000000      1.901932000000000E-01      3.398633000000000E+01      3.808899000000000E-01     -2.815039000000000E+01
4320000000.000000      1.898956000000000E-01      2.538086000000000E+01      3.777771000000000E-01     -5.690234000000000E+01
4340000000.000000      1.768570000000000E-01      1.941895000000000E+01      3.773804000000000E-01     -8.579687000000000E+01
4360000000.000000      1.633072000000000E-01      1.837012000000000E+01      3.762054000000000E-01     -1.149766000000000E+02
4380000000.000000      1.611710000000000E-01      2.113281000000000E+01      3.742371000000000E-01     -1.445391000000000E+02
4400000000.000000      1.725464000000000E-01      2.120312000000000E+01      3.712311000000000E-01     -1.736172000000000E+02
4420000000.000000      1.820908000000000E-01      1.730273000000000E+01      3.720398000000000E-01      1.575547000000000E+02
4440000000.000000      1.797867000000000E-01      1.127979000000000E+01      3.754425000000000E-01      1.279688000000000E+02
4460000000.000000      1.631317000000000E-01      8.042969000000000E+00      3.678284000000000E-01      9.859375000000000E+01
4480000000.000000      1.442566000000000E-01      1.142676000000000E+01      3.649597000000000E-01      6.996875000000000E+01
4500000000.000000      1.461411000000000E-01      2.052246000000000E+01      3.643188000000000E-01      4.130273000000000E+01
4520000000.000000      1.712036000000000E-01      2.490723000000000E+01      3.601227000000000E-01      1.175098000000000E+01
4540000000.000000      2.027893000000000E-01      2.080078000000000E+01      3.511963000000000E-01     -1.746973000000000E+01
4560000000.000000      2.235031000000000E-01      1.256104000000000E+01      3.443146000000000E-01     -4.587110000000000E+01
4580000000.000000      2.290268000000000E-01      3.617188000000000E+00      3.464966000000000E-01     -7.538671000000000E+01
4600000000.000000      2.210617000000000E-01     -3.609009000000000E+00      3.425446000000000E-01     -1.055625000000000E+02
4620000000.000000      2.088470000000000E-01     -7.928223000000000E+00      3.363037000000000E-01     -1.351953000000000E+02
4640000000.000000      2.021408000000000E-01     -1.019287000000000E+01      3.372040000000000E-01     -1.646875000000000E+02
4660000000.000000      2.020264000000000E-01     -1.307813000000000E+01      3.362885000000000E-01      1.662891000000000E+02
4680000000.000000      2.029266000000000E-01     -1.809668000000000E+01      3.421173000000000E-01      1.370703000000000E+02
4700000000.000000      1.966705000000000E-01     -2.508203000000000E+01      3.416138000000000E-01      1.076328000000000E+02
4720000000.000000      1.815796000000000E-01     -3.250195000000000E+01      3.383179000000000E-01      7.971484000000000E+01
4740000000.000000      1.611710000000000E-01     -3.902344000000000E+01      3.455048000000000E-01      5.205273000000000E+01
4760000000.000000      1.371765000000000E-01     -4.434960000000000E+01      3.459625000000000E-01      2.346484000000000E+01
4780000000.000000      1.117134000000000E-01     -4.921679000000000E+01      3.423615000000000E-01     -5.005859000000000E+00
4800000000.000000      8.044434000000000E-02     -5.385937000000000E+01      3.383331000000000E-01     -3.346875000000000E+01
4820000000.000000      3.807831000000000E-02     -5.137109000000000E+01      3.296814000000000E-01     -6.244726000000000E+01
4840000000.000000      3.140831000000000E-02      5.515038000000000E+01      3.230133000000000E-01     -9.136719000000000E+01
4860000000.000000      9.714890000000000E-02      6.207617000000000E+01      3.151703000000000E-01     -1.221328000000000E+02
4880000000.000000      1.659851000000000E-01      4.897655000000000E+01      2.959442000000000E-01     -1.534531000000000E+02
4900000000.000000      2.252960000000000E-01      3.314844000000000E+01      2.725677000000000E-01      1.788203000000000E+02
4920000000.000000      2.673798000000000E-01      1.676172000000000E+01      2.739868000000000E-01      1.535078000000000E+02
4940000000.000000      2.892761000000000E-01      9.159851000000000E-01      2.868195000000000E-01      1.247812000000000E+02
4960000000.000000      2.868042000000000E-01     -1.451025000000000E+01      2.915955000000000E-01      9.492579000000000E+01
4980000000.000000      2.622528000000000E-01     -2.802148000000000E+01      2.971344000000000E-01      6.764453000000000E+01
5000000000.000000      2.197800000000000E-01     -3.825195000000000E+01      3.117523000000000E-01      4.028125000000000E+01
5020000000.000000      1.731186000000000E-01     -4.119922000000000E+01      3.224182000000000E-01      1.242822000000000E+01
5040000000.000000      1.435394000000000E-01     -3.413476000000000E+01      3.302765000000000E-01     -1.482617000000000E+01
5060000000.000000      1.444397000000000E-01     -2.445313000000000E+01      3.386841000000000E-01     -4.201172000000000E+01
5080000000.000000      1.603241000000000E-01     -2.096484000000000E+01      3.444672000000000E-01     -7.012109000000000E+01
5100000000.000000      1.740723000000000E-01     -2.322852000000000E+01      3.377838000000000E-01     -9.852343000000000E+01
5120000000.000000      1.788483000000000E-01     -2.685644000000000E+01      3.318634000000000E-01     -1.258906000000000E+02
5140000000.000000      1.813431000000000E-01     -2.976953000000000E+01      3.294220000000000E-01     -1.541875000000000E+02
5160000000.000000      1.846313000000000E-01     -3.214844000000000E+01      3.265076000000000E-01      1.764141000000000E+02
5180000000.000000      1.888580000000000E-01     -3.573633000000000E+01      3.224487000000000E-01      1.467969000000000E+02
5200000000.000000      1.908646000000000E-01     -4.044531000000000E+01      3.199768000000000E-01      1.165742000000000E+02
5220000000.000000      1.866074000000000E-01     -4.506640000000000E+01      3.209381000000000E-01      8.682812000000000E+01
5240000000.000000      1.765289000000000E-01     -4.788476000000000E+01      3.256073000000000E-01      5.710546000000000E+01
5260000000.000000      1.677170000000000E-01     -4.815430000000000E+01      3.309479000000000E-01      2.726367000000000E+01
5280000000.000000      1.646042000000000E-01     -4.692968000000000E+01      3.367920000000000E-01     -1.755066000000000E+00
5300000000.000000      1.689758000000000E-01     -4.711523000000000E+01      3.396454000000000E-01     -2.987109000000000E+01
5320000000.000000      1.728973000000000E-01     -4.973437000000000E+01      3.446350000000000E-01     -5.684375000000000E+01
5340000000.000000      1.718369000000000E-01     -5.341015000000000E+01      3.491364000000000E-01     -8.456249000000000E+01
5360000000.000000      1.650543000000000E-01     -5.664453000000000E+01      3.441010000000000E-01     -1.120117000000000E+02
5380000000.000000      1.586685000000000E-01     -5.766406000000000E+01      3.385620000000000E-01     -1.382500000000000E+02
5400000000.000000      1.586914000000000E-01     -5.680664000000000E+01      3.377228000000000E-01     -1.657500000000000E+02
5420000000.000000      1.683350000000000E-01     -5.641211000000000E+01      3.309326000000000E-01      1.658906000000000E+02
5440000000.000000      1.801987000000000E-01     -5.942773000000000E+01      3.249664000000000E-01      1.369609000000000E+02
5460000000.000000      1.858597000000000E-01     -6.548437000000000E+01      3.138275000000000E-01      1.069375000000000E+02
5480000000.000000      1.806030000000000E-01     -7.273828000000000E+01      3.077545000000000E-01      7.757421000000000E+01
5500000000.000000      1.639709000000000E-01     -7.925390000000000E+01      3.096619000000000E-01      4.775195000000000E+01
5520000000.000000      1.403732000000000E-01     -8.314844000000000E+01      3.123016000000000E-01      1.736230000000000E+01
5540000000.000000      1.212120000000000E-01     -8.223436000000000E+01      3.164520000000000E-01     -1.229688000000000E+01
5560000000.000000      1.091576000000000E-01     -7.834765000000000E+01      3.232422000000000E-01     -4.123828000000000E+01
5580000000.000000      1.032104000000000E-01     -7.307031000000000E+01      3.303986000000000E-01     -6.973046000000000E+01
5600000000.000000      1.008377000000000E-01     -6.721093000000000E+01      3.351746000000000E-01     -9.752342000000000E+01
5620000000.000000      1.041527000000000E-01     -5.963672000000000E+01      3.381958000000000E-01     -1.251719000000000E+02
5640000000.000000      1.181335000000000E-01     -5.287499000000000E+01      3.357086000000000E-01     -1.527031000000000E+02
5660000000.000000      1.426773000000000E-01     -5.206445000000000E+01      3.294067000000000E-01     -1.798047000000000E+02
5680000000.000000      1.695328000000000E-01     -5.766015000000000E+01      3.217773000000000E-01      1.521484000000000E+02
5700000000.000000      1.889725000000000E-01     -6.813671000000000E+01      3.079681000000000E-01      1.240391000000000E+02
5720000000.000000      1.927567000000000E-01     -8.043360000000000E+01      2.940979000000000E-01      9.654686000000000E+01
5740000000.000000      1.793060000000000E-01     -9.289454000000000E+01      2.889099000000000E-01      6.769531000000000E+01
5760000000.000000      1.518250000000000E-01     -1.026172000000000E+02      2.840881000000000E-01      3.659765000000000E+01
5780000000.000000      1.188087000000000E-01     -1.049336000000000E+02      2.799530000000000E-01      5.845947000000000E+00
5800000000.000000      9.867477000000000E-02     -9.660156000000000E+01      2.815857000000000E-01     -2.439453000000000E+01
5820000000.000000      1.020470000000000E-01     -8.793360000000000E+01      2.889404000000000E-01     -5.471874000000000E+01
5840000000.000000      1.129570000000000E-01     -8.941406000000000E+01      2.987518000000000E-01     -8.492188000000000E+01
5860000000.000000      1.162529000000000E-01     -9.750389000000000E+01      3.007507000000000E-01     -1.140664000000000E+02
5880000000.000000      1.083260000000000E-01     -1.082891000000000E+02      3.024445000000000E-01     -1.411328000000000E+02
5900000000.000000      9.098434000000000E-02     -1.156328000000000E+02      3.122406000000000E-01     -1.676484000000000E+02
5920000000.000000      7.238007000000000E-02     -1.146758000000000E+02      3.174744000000000E-01      1.642656000000000E+02
5940000000.000000      6.418991000000000E-02     -1.054648000000000E+02      3.120117000000000E-01      1.361328000000000E+02
5960000000.000000      6.217575000000000E-02     -1.004726000000000E+02      2.967377000000000E-01      1.087734000000000E+02
5980000000.000000      5.294609000000000E-02     -9.976563000000000E+01      2.864838000000000E-01      8.164843000000000E+01
6000000000.000000      3.285599000000000E-02     -8.824219000000000E+01      2.798157000000000E-01      5.244726000000000E+01
6020000000.000000      3.157806000000000E-02     -2.830566000000000E+01      2.673645000000000E-01      2.146679000000000E+01
6040000000.000000      6.592560000000000E-02     -1.256836000000000E+01      2.532959000000000E-01     -8.951172000000000E+00
6060000000.000000      1.017609000000000E-01     -2.115625000000000E+01      2.486954000000000E-01     -3.938086000000000E+01
6080000000.000000      1.288452000000000E-01     -3.566601000000000E+01      2.541351000000000E-01     -7.023046000000000E+01
