! Network Analyzer HP8722D
! Hewlett-Packard
! Data name: Linha & Wilkinson
! Saver's name: Rodrigo Anjos
! Comments: Teste da utilização de aquisição
continua pelo VNA HP8722D
! Time and date: 3/9/2025 17:45
!              Frequency                     S11                                                   S21                                                   S12                                                   S22
# HZ  S  MA R 50
3000000000.000000      7.630157000000000E-02      8.730078000000000E+01      4.549103000000000E-01      2.552246000000000E+01
3020000000.000000      9.320450000000000E-02      7.301171000000000E+01      4.550171000000000E-01     -3.370117000000000E+00
3040000000.000000      9.538269000000000E-02      5.640429000000000E+01      4.570770000000000E-01     -3.241601000000000E+01
3060000000.000000      8.365631000000000E-02      4.113281000000000E+01      4.531250000000000E-01     -6.077929000000000E+01
3080000000.000000      6.389618000000000E-02      3.000683000000000E+01      4.529877000000000E-01     -8.940624000000000E+01
3100000000.000000      4.545593000000000E-02      3.065234000000000E+01      4.515228000000000E-01     -1.177109000000000E+02
3120000000.000000      3.821754000000000E-02      4.327344000000000E+01      4.490814000000000E-01     -1.464531000000000E+02
3140000000.000000      3.739166000000000E-02      4.826953000000000E+01      4.468231000000000E-01     -1.751094000000000E+02
3160000000.000000      2.987194000000000E-02      4.897655000000000E+01      4.408569000000000E-01      1.565859000000000E+02
3180000000.000000      1.634789000000000E-02      9.458593000000000E+01      4.416809000000000E-01      1.280156000000000E+02
3200000000.000000      4.627991000000000E-02      1.446094000000000E+02      4.342804000000000E-01      9.829687000000000E+01
3220000000.000000      9.729004000000000E-02      1.372656000000000E+02      4.224243000000000E-01      6.923437000000000E+01
3240000000.000000      1.477432000000000E-01      1.217226000000000E+02      4.114075000000000E-01      4.184960000000000E+01
3260000000.000000      1.906586000000000E-01      1.047500000000000E+02      4.150696000000000E-01      1.444531000000000E+01
3280000000.000000      2.180328000000000E-01      8.741796000000000E+01      4.189301000000000E-01     -1.467920000000000E+01
3300000000.000000      2.289200000000000E-01      7.055469000000000E+01      4.150848000000000E-01     -4.336328000000000E+01
3320000000.000000      2.240219000000000E-01      5.528320000000000E+01      4.169312000000000E-01     -7.101953000000000E+01
3340000000.000000      2.080154000000000E-01      4.242383000000000E+01      4.232025000000000E-01     -9.971483000000000E+01
3360000000.000000      1.850662000000000E-01      3.317383000000000E+01      4.244385000000000E-01     -1.282422000000000E+02
3380000000.000000      1.614227000000000E-01      2.817285000000000E+01      4.276886000000000E-01     -1.563906000000000E+02
3400000000.000000      1.424255000000000E-01      2.625586000000000E+01      4.308624000000000E-01      1.746641000000000E+02
3420000000.000000      1.283340000000000E-01      2.577246000000000E+01      4.322510000000000E-01      1.460469000000000E+02
3440000000.000000      1.164017000000000E-01      2.566406000000000E+01      4.305420000000000E-01      1.171836000000000E+02
3460000000.000000      1.043510000000000E-01      2.648633000000000E+01      4.262695000000000E-01      8.910936000000000E+01
3480000000.000000      9.628677000000000E-02      2.924511000000000E+01      4.289093000000000E-01      6.034374000000000E+01
3500000000.000000      9.264755000000000E-02      3.295898000000000E+01      4.252319000000000E-01      3.109668000000000E+01
3520000000.000000      9.157944000000000E-02      3.644336000000000E+01      4.226532000000000E-01      3.125610000000000E+00
3540000000.000000      9.175491000000000E-02      3.989453000000000E+01      4.253235000000000E-01     -2.569921000000000E+01
3560000000.000000      9.388351000000000E-02      4.510938000000000E+01      4.247894000000000E-01     -5.468554000000000E+01
3580000000.000000      1.020622000000000E-01      5.036133000000000E+01      4.250488000000000E-01     -8.331640000000000E+01
3600000000.000000      1.149673000000000E-01      5.165625000000000E+01      4.231110000000000E-01     -1.114922000000000E+02
3620000000.000000      1.285019000000000E-01      4.874218000000000E+01      4.257813000000000E-01     -1.397891000000000E+02
3640000000.000000      1.336594000000000E-01      4.243554000000000E+01      4.265289000000000E-01     -1.681406000000000E+02
3660000000.000000      1.291275000000000E-01      3.564844000000000E+01      4.234772000000000E-01      1.641016000000000E+02
3680000000.000000      1.164780000000000E-01      3.242773000000000E+01      4.281158000000000E-01      1.363828000000000E+02
3700000000.000000      1.034355000000000E-01      3.599218000000000E+01      4.288483000000000E-01      1.076992000000000E+02
3720000000.000000      1.039772000000000E-01      4.478320000000000E+01      4.286041000000000E-01      7.920312000000000E+01
3740000000.000000      1.214333000000000E-01      4.879296000000000E+01      4.213104000000000E-01      5.084179000000000E+01
3760000000.000000      1.402588000000000E-01      4.542969000000000E+01      4.156799000000000E-01      2.278809000000000E+01
3780000000.000000      1.481781000000000E-01      3.782422000000000E+01      4.159088000000000E-01     -4.857422000000000E+00
3800000000.000000      1.411285000000000E-01      3.049219000000000E+01      4.161987000000000E-01     -3.355664000000000E+01
3820000000.000000      1.228180000000000E-01      2.714355000000000E+01      4.163208000000000E-01     -6.212304000000000E+01
3840000000.000000      1.086426000000000E-01      3.230664000000000E+01      4.157562000000000E-01     -9.108593000000000E+01
3860000000.000000      1.128540000000000E-01      4.064258000000000E+01      4.149170000000000E-01     -1.198672000000000E+02
3880000000.000000      1.306381000000000E-01      4.218554000000000E+01      4.118652000000000E-01     -1.492109000000000E+02
3900000000.000000      1.454620000000000E-01      3.658398000000000E+01      4.048767000000000E-01     -1.773750000000000E+02
3920000000.000000      1.429672000000000E-01      2.893750000000000E+01      4.063110000000000E-01      1.555234000000000E+02
3940000000.000000      1.256943000000000E-01      2.500488000000000E+01      4.134064000000000E-01      1.269570000000000E+02
3960000000.000000      1.075096000000000E-01      3.147168000000000E+01      4.136505000000000E-01      9.760937000000000E+01
3980000000.000000      1.137390000000000E-01      4.504883000000000E+01      4.067841000000000E-01      6.897265000000000E+01
4000000000.000000      1.458511000000000E-01      4.864843000000000E+01      3.986053000000000E-01      4.195703000000000E+01
4020000000.000000      1.791916000000000E-01      4.128711000000000E+01      4.048462000000000E-01      1.419824000000000E+01
4040000000.000000      1.981430000000000E-01      2.840723000000000E+01      4.053192000000000E-01     -1.576953000000000E+01
4060000000.000000      1.924515000000000E-01      1.435596000000000E+01      3.902283000000000E-01     -4.441796000000000E+01
4080000000.000000      1.636658000000000E-01      8.912659000000000E-01      3.883514000000000E-01     -7.132421000000000E+01
4100000000.000000      1.177444000000000E-01     -7.038330000000000E+00      4.011841000000000E-01     -1.000664000000000E+02
4120000000.000000      7.536316000000000E-02      3.488159000000000E+00      3.999176000000000E-01     -1.300547000000000E+02
4140000000.000000      7.302856000000000E-02      3.353320000000000E+01      3.930664000000000E-01     -1.590781000000000E+02
4160000000.000000      9.729385000000000E-02      4.284961000000000E+01      3.943787000000000E-01      1.731641000000000E+02
4180000000.000000      1.152916000000000E-01      3.968945000000000E+01      4.030457000000000E-01      1.445313000000000E+02
4200000000.000000      1.173134000000000E-01      3.604297000000000E+01      4.037323000000000E-01      1.146172000000000E+02
4220000000.000000      1.145706000000000E-01      3.814648000000000E+01      3.955994000000000E-01      8.548437000000000E+01
4240000000.000000      1.232262000000000E-01      4.483203000000000E+01      3.893433000000000E-01      5.685351000000000E+01
4260000000.000000      1.482086000000000E-01      4.679296000000000E+01      3.865662000000000E-01      2.889941000000000E+01
4280000000.000000      1.749496000000000E-01      4.203906000000000E+01      3.863831000000000E-01      6.564331000000000E-01
4300000000.000000      1.910782000000000E-01      3.397265000000000E+01      3.821106000000000E-01     -2.824316000000000E+01
4320000000.000000      1.909485000000000E-01      2.548047000000000E+01      3.795929000000000E-01     -5.693554000000000E+01
4340000000.000000      1.769943000000000E-01      1.945117000000000E+01      3.780975000000000E-01     -8.591406000000000E+01
4360000000.000000      1.630325000000000E-01      1.870410000000000E+01      3.759155000000000E-01     -1.152109000000000E+02
4380000000.000000      1.616135000000000E-01      2.132031000000000E+01      3.747406000000000E-01     -1.445937000000000E+02
4400000000.000000      1.728210000000000E-01      2.133496000000000E+01      3.713531000000000E-01     -1.737578000000000E+02
4420000000.000000      1.827698000000000E-01      1.728906000000000E+01      3.731384000000000E-01      1.576797000000000E+02
4440000000.000000      1.804352000000000E-01      1.122510000000000E+01      3.764038000000000E-01      1.279414000000000E+02
4460000000.000000      1.637344000000000E-01      8.165527000000000E+00      3.688049000000000E-01      9.828905000000000E+01
4480000000.000000      1.450882000000000E-01      1.149561000000000E+01      3.652802000000000E-01      7.001953000000000E+01
4500000000.000000      1.469574000000000E-01      2.070899000000000E+01      3.648376000000000E-01      4.130859000000000E+01
4520000000.000000      1.721725000000000E-01      2.502539000000000E+01      3.626862000000000E-01      1.168213000000000E+01
4540000000.000000      2.034073000000000E-01      2.094238000000000E+01      3.513641000000000E-01     -1.784961000000000E+01
4560000000.000000      2.239685000000000E-01      1.265186000000000E+01      3.454437000000000E-01     -4.599999000000000E+01
4580000000.000000      2.293854000000000E-01      3.641968000000000E+00      3.463440000000000E-01     -7.548046000000000E+01
4600000000.000000      2.212067000000000E-01     -3.591187000000000E+00      3.434143000000000E-01     -1.057695000000000E+02
4620000000.000000      2.083740000000000E-01     -7.893799000000000E+00      3.379364000000000E-01     -1.352422000000000E+02
4640000000.000000      2.026825000000000E-01     -1.012256000000000E+01      3.371735000000000E-01     -1.647891000000000E+02
4660000000.000000      2.025681000000000E-01     -1.291748000000000E+01      3.363342000000000E-01      1.661953000000000E+02
4680000000.000000      2.034531000000000E-01     -1.808691000000000E+01      3.414001000000000E-01      1.370781000000000E+02
4700000000.000000      1.970978000000000E-01     -2.502148000000000E+01      3.426361000000000E-01      1.073398000000000E+02
4720000000.000000      1.813202000000000E-01     -3.229492000000000E+01      3.391266000000000E-01      7.962891000000000E+01
4740000000.000000      1.609497000000000E-01     -3.901953000000000E+01      3.458099000000000E-01      5.185547000000000E+01
4760000000.000000      1.367340000000000E-01     -4.431250000000000E+01      3.476410000000000E-01      2.333887000000000E+01
4780000000.000000      1.113014000000000E-01     -4.901172000000000E+01      3.431549000000000E-01     -5.057861000000000E+00
4800000000.000000      7.945251000000000E-02     -5.358203000000000E+01      3.390198000000000E-01     -3.360156000000000E+01
4820000000.000000      3.744698000000000E-02     -5.008398000000000E+01      3.309326000000000E-01     -6.263866000000000E+01
4840000000.000000      3.169823000000000E-02      5.486914000000000E+01      3.234863000000000E-01     -9.154297000000000E+01
4860000000.000000      9.825134000000000E-02      6.191601000000000E+01      3.159027000000000E-01     -1.222383000000000E+02
4880000000.000000      1.675720000000000E-01      4.899414000000000E+01      2.964783000000000E-01     -1.534531000000000E+02
4900000000.000000      2.265625000000000E-01      3.316015000000000E+01      2.737274000000000E-01      1.788203000000000E+02
4920000000.000000      2.686462000000000E-01      1.663281000000000E+01      2.743988000000000E-01      1.531016000000000E+02
4940000000.000000      2.899017000000000E-01      1.038208000000000E+00      2.873840000000000E-01      1.247109000000000E+02
4960000000.000000      2.874756000000000E-01     -1.431006000000000E+01      2.917480000000000E-01      9.475780000000000E+01
4980000000.000000      2.625732000000000E-01     -2.808984000000000E+01      2.976990000000000E-01      6.760547000000000E+01
5000000000.000000      2.200851000000000E-01     -3.821875000000000E+01      3.123474000000000E-01      4.019921000000000E+01
5020000000.000000      1.734772000000000E-01     -4.099999000000000E+01      3.230286000000000E-01      1.215869000000000E+01
5040000000.000000      1.433334000000000E-01     -3.387500000000000E+01      3.306885000000000E-01     -1.497168000000000E+01
5060000000.000000      1.444626000000000E-01     -2.390625000000000E+01      3.393097000000000E-01     -4.214257000000000E+01
5080000000.000000      1.603699000000000E-01     -2.058789000000000E+01      3.446198000000000E-01     -7.023828000000000E+01
5100000000.000000      1.740036000000000E-01     -2.299609000000000E+01      3.389282000000000E-01     -9.859764000000000E+01
5120000000.000000      1.792603000000000E-01     -2.662890000000000E+01      3.325195000000000E-01     -1.261055000000000E+02
5140000000.000000      1.819611000000000E-01     -2.943554000000000E+01      3.302307000000000E-01     -1.543984000000000E+02
5160000000.000000      1.844101000000000E-01     -3.209570000000000E+01      3.272247000000000E-01      1.761875000000000E+02
5180000000.000000      1.889648000000000E-01     -3.565430000000000E+01      3.227539000000000E-01      1.464766000000000E+02
5200000000.000000      1.912003000000000E-01     -4.029492000000000E+01      3.216858000000000E-01      1.163984000000000E+02
5220000000.000000      1.862946000000000E-01     -4.484765000000000E+01      3.218536000000000E-01      8.654688000000000E+01
5240000000.000000      1.766586000000000E-01     -4.778710000000000E+01      3.266296000000000E-01      5.684960000000000E+01
5260000000.000000      1.677094000000000E-01     -4.801562000000000E+01      3.325958000000000E-01      2.723633000000000E+01
5280000000.000000      1.645660000000000E-01     -4.666016000000000E+01      3.377838000000000E-01     -1.951477000000000E+00
5300000000.000000      1.688919000000000E-01     -4.688867000000000E+01      3.404541000000000E-01     -3.011914000000000E+01
5320000000.000000      1.732330000000000E-01     -4.945703000000000E+01      3.454437000000000E-01     -5.712695000000000E+01
5340000000.000000      1.718521000000000E-01     -5.327343000000000E+01      3.500366000000000E-01     -8.461329000000000E+01
5360000000.000000      1.653366000000000E-01     -5.639843000000000E+01      3.444366000000000E-01     -1.120937000000000E+02
5380000000.000000      1.586304000000000E-01     -5.728906000000000E+01      3.395691000000000E-01     -1.384453000000000E+02
5400000000.000000      1.584854000000000E-01     -5.657812000000000E+01      3.383484000000000E-01     -1.659765000000000E+02
5420000000.000000      1.678391000000000E-01     -5.633398000000000E+01      3.315735000000000E-01      1.657734000000000E+02
5440000000.000000      1.801300000000000E-01     -5.942968000000000E+01      3.257446000000000E-01      1.366562000000000E+02
5460000000.000000      1.864090000000000E-01     -6.551171000000000E+01      3.147888000000000E-01      1.068594000000000E+02
5480000000.000000      1.804428000000000E-01     -7.275391000000000E+01      3.089294000000000E-01      7.730078000000000E+01
5500000000.000000      1.636963000000000E-01     -7.912499000000000E+01      3.107758000000000E-01      4.765038000000000E+01
5520000000.000000      1.407013000000000E-01     -8.307032000000000E+01      3.130493000000000E-01      1.714648000000000E+01
5540000000.000000      1.210098000000000E-01     -8.218359000000000E+01      3.175049000000000E-01     -1.243799000000000E+01
5560000000.000000      1.088715000000000E-01     -7.815234000000000E+01      3.244324000000000E-01     -4.148438000000000E+01
5580000000.000000      1.031227000000000E-01     -7.277344000000000E+01      3.311310000000000E-01     -6.993359000000000E+01
5600000000.000000      1.007690000000000E-01     -6.726953000000000E+01      3.361206000000000E-01     -9.776562000000000E+01
5620000000.000000      1.039505000000000E-01     -5.963476000000000E+01      3.389130000000000E-01     -1.253789000000000E+02
5640000000.000000      1.184959000000000E-01     -5.271679000000000E+01      3.365479000000000E-01     -1.529297000000000E+02
5660000000.000000      1.433716000000000E-01     -5.203711000000000E+01      3.302155000000000E-01      1.799531000000000E+02
5680000000.000000      1.700363000000000E-01     -5.770702000000000E+01      3.219604000000000E-01      1.521406000000000E+02
5700000000.000000      1.893539000000000E-01     -6.794140000000000E+01      3.080750000000000E-01      1.239180000000000E+02
5720000000.000000      1.928558000000000E-01     -8.032421000000000E+01      2.948761000000000E-01      9.619530000000000E+01
5740000000.000000      1.790237000000000E-01     -9.277344000000000E+01      2.896118000000000E-01      6.755077000000000E+01
5760000000.000000      1.508026000000000E-01     -1.024570000000000E+02      2.848053000000000E-01      3.638086000000000E+01
5780000000.000000      1.182022000000000E-01     -1.049375000000000E+02      2.805023000000000E-01      5.690918000000000E+00
5800000000.000000      9.876251000000000E-02     -9.653124000000000E+01      2.826080000000000E-01     -2.470312000000000E+01
5820000000.000000      1.019135000000000E-01     -8.785936000000000E+01      2.893982000000000E-01     -5.486328000000000E+01
5840000000.000000      1.129112000000000E-01     -8.913280000000000E+01      2.994843000000000E-01     -8.525000000000000E+01
5860000000.000000      1.171188000000000E-01     -9.757813000000000E+01      3.017273000000000E-01     -1.144727000000000E+02
5880000000.000000      1.086693000000000E-01     -1.078242000000000E+02      3.034363000000000E-01     -1.413516000000000E+02
5900000000.000000      9.045410000000000E-02     -1.152773000000000E+02      3.134460000000000E-01     -1.679844000000000E+02
5920000000.000000      7.194519000000000E-02     -1.141484000000000E+02      3.180084000000000E-01      1.640938000000000E+02
5940000000.000000      6.406403000000000E-02     -1.048281000000000E+02      3.119507000000000E-01      1.359453000000000E+02
5960000000.000000      6.132317000000000E-02     -1.000898000000000E+02      2.966461000000000E-01      1.084805000000000E+02
5980000000.000000      5.239868000000000E-02     -1.003906000000000E+02      2.869263000000000E-01      8.140625000000000E+01
6000000000.000000      3.253365000000000E-02     -8.773829000000000E+01      2.800751000000000E-01      5.223827000000000E+01
6020000000.000000      3.172874000000000E-02     -2.795703000000000E+01      2.685394000000000E-01      2.125683000000000E+01
6040000000.000000      6.705856000000000E-02     -1.234619000000000E+01      2.540436000000000E-01     -9.228516000000000E+00
6060000000.000000      1.026077000000000E-01     -2.122461000000000E+01      2.495956000000000E-01     -3.960351000000000E+01
6080000000.000000      1.297073000000000E-01     -3.573437000000000E+01      2.544403000000000E-01     -7.038671000000000E+01
