! Network Analyzer HP8722D
! Hewlett-Packard
! Data name: Linha & Wilkinson
! Saver's name: Rodrigo Anjos
! Comments: Teste da utilização de aquisição
continua pelo VNA HP8722D
! Time and date: 3/9/2025 18:59
!              Frequency                     S11                                                   S21                                                   S12                                                   S22
# HZ  S  MA R 50
3000000000.000000      7.716370000000000E-02      8.717188000000000E+01      4.566803000000000E-01      2.472949000000000E+01
3020000000.000000      9.377670000000000E-02      7.257421000000000E+01      4.585114000000000E-01     -3.982544000000000E+00
3040000000.000000      9.591675000000000E-02      5.643555000000000E+01      4.573059000000000E-01     -3.318164000000000E+01
3060000000.000000      8.322525000000000E-02      4.121094000000000E+01      4.553680000000000E-01     -6.152929000000000E+01
3080000000.000000      6.354141000000000E-02      3.058594000000000E+01      4.555206000000000E-01     -8.999218000000000E+01
3100000000.000000      4.516602000000000E-02      3.123730000000000E+01      4.532776000000000E-01     -1.184141000000000E+02
3120000000.000000      3.845787000000000E-02      4.364062000000000E+01      4.518127000000000E-01     -1.471250000000000E+02
3140000000.000000      3.783035000000000E-02      4.919922000000000E+01      4.472198000000000E-01     -1.755703000000000E+02
3160000000.000000      3.016472000000000E-02      4.863671000000000E+01      4.449463000000000E-01      1.558984000000000E+02
3180000000.000000      1.642323000000000E-02      9.728516000000000E+01      4.435577000000000E-01      1.271289000000000E+02
3200000000.000000      4.713249000000000E-02      1.447734000000000E+02      4.365997000000000E-01      9.763672000000000E+01
3220000000.000000      9.853745000000000E-02      1.373203000000000E+02      4.241028000000000E-01      6.864843000000000E+01
3240000000.000000      1.494980000000000E-01      1.217226000000000E+02      4.127808000000000E-01      4.120117000000000E+01
3260000000.000000      1.922684000000000E-01      1.046680000000000E+02      4.156494000000000E-01      1.389063000000000E+01
3280000000.000000      2.190857000000000E-01      8.735546000000000E+01      4.210968000000000E-01     -1.560645000000000E+01
3300000000.000000      2.296219000000000E-01      7.042187000000000E+01      4.147186000000000E-01     -4.411718000000000E+01
3320000000.000000      2.243195000000000E-01      5.505077000000000E+01      4.189301000000000E-01     -7.172265000000000E+01
3340000000.000000      2.081528000000000E-01      4.245898000000000E+01      4.249725000000000E-01     -1.006211000000000E+02
3360000000.000000      1.843185000000000E-01      3.322461000000000E+01      4.261169000000000E-01     -1.290625000000000E+02
3380000000.000000      1.608887000000000E-01      2.841992000000000E+01      4.295654000000000E-01     -1.571250000000000E+02
3400000000.000000      1.419601000000000E-01      2.670605000000000E+01      4.333344000000000E-01      1.741562000000000E+02
3420000000.000000      1.283569000000000E-01      2.644922000000000E+01      4.335938000000000E-01      1.454687000000000E+02
3440000000.000000      1.166420000000000E-01      2.606836000000000E+01      4.322052000000000E-01      1.165117000000000E+02
3460000000.000000      1.048851000000000E-01      2.720312000000000E+01      4.296265000000000E-01      8.829687000000000E+01
3480000000.000000      9.698105000000000E-02      2.967773000000000E+01      4.300232000000000E-01      5.948828000000000E+01
3500000000.000000      9.326553000000000E-02      3.336133000000000E+01      4.253235000000000E-01      3.023828000000000E+01
3520000000.000000      9.202576000000000E-02      3.654687000000000E+01      4.228058000000000E-01      2.257690000000000E+00
3540000000.000000      9.254074000000000E-02      3.995508000000000E+01      4.259949000000000E-01     -2.615527000000000E+01
3560000000.000000      9.426498000000000E-02      4.556054000000000E+01      4.271393000000000E-01     -5.545507000000000E+01
3580000000.000000      1.020393000000000E-01      5.049805000000000E+01      4.267273000000000E-01     -8.417187000000000E+01
3600000000.000000      1.155701000000000E-01      5.183203000000000E+01      4.252319000000000E-01     -1.124023000000000E+02
3620000000.000000      1.289368000000000E-01      4.875977000000000E+01      4.262238000000000E-01     -1.406172000000000E+02
3640000000.000000      1.346359000000000E-01      4.256836000000000E+01      4.275665000000000E-01     -1.689531000000000E+02
3660000000.000000      1.292877000000000E-01      3.562304000000000E+01      4.254303000000000E-01      1.632969000000000E+02
3680000000.000000      1.161385000000000E-01      3.257813000000000E+01      4.304657000000000E-01      1.354687000000000E+02
3700000000.000000      1.033669000000000E-01      3.609375000000000E+01      4.307404000000000E-01      1.070391000000000E+02
3720000000.000000      1.048355000000000E-01      4.530859000000000E+01      4.281769000000000E-01      7.841797000000000E+01
3740000000.000000      1.227531000000000E-01      4.908789000000000E+01      4.239197000000000E-01      5.006054000000000E+01
3760000000.000000      1.413345000000000E-01      4.564649000000000E+01      4.170990000000000E-01      2.194922000000000E+01
3780000000.000000      1.479797000000000E-01      3.803711000000000E+01      4.153595000000000E-01     -5.641602000000000E+00
3800000000.000000      1.410751000000000E-01      3.058789000000000E+01      4.188385000000000E-01     -3.434961000000000E+01
3820000000.000000      1.225891000000000E-01      2.775000000000000E+01      4.181213000000000E-01     -6.313671000000000E+01
3840000000.000000      1.083946000000000E-01      3.286328000000000E+01      4.165955000000000E-01     -9.205078000000000E+01
3860000000.000000      1.132507000000000E-01      4.121094000000000E+01      4.162598000000000E-01     -1.207734000000000E+02
3880000000.000000      1.316833000000000E-01      4.241796000000000E+01      4.134979000000000E-01     -1.498594000000000E+02
3900000000.000000      1.459961000000000E-01      3.649805000000000E+01      4.065094000000000E-01     -1.780781000000000E+02
3920000000.000000      1.432571000000000E-01      2.901953000000000E+01      4.073639000000000E-01      1.547891000000000E+02
3940000000.000000      1.249733000000000E-01      2.521289000000000E+01      4.166870000000000E-01      1.260000000000000E+02
3960000000.000000      1.070976000000000E-01      3.230273000000000E+01      4.144592000000000E-01      9.691015000000000E+01
3980000000.000000      1.151009000000000E-01      4.623242000000000E+01      4.063416000000000E-01      6.828125000000000E+01
4000000000.000000      1.470642000000000E-01      4.890234000000000E+01      3.996582000000000E-01      4.113281000000000E+01
4020000000.000000      1.806030000000000E-01      4.123437000000000E+01      4.064789000000000E-01      1.338672000000000E+01
4040000000.000000      1.987076000000000E-01      2.839355000000000E+01      4.073792000000000E-01     -1.684961000000000E+01
4060000000.000000      1.922607000000000E-01      1.425293000000000E+01      3.918457000000000E-01     -4.553515000000000E+01
4080000000.000000      1.627426000000000E-01      8.335876000000000E-01      3.908386000000000E-01     -7.218750000000000E+01
4100000000.000000      1.165657000000000E-01     -6.611084000000000E+00      4.015808000000000E-01     -1.009922000000000E+02
4120000000.000000      7.439041000000000E-02      4.758301000000000E+00      3.998108000000000E-01     -1.308828000000000E+02
4140000000.000000      7.364655000000000E-02      3.478906000000000E+01      3.950195000000000E-01     -1.597578000000000E+02
4160000000.000000      9.893036000000000E-02      4.315430000000000E+01      3.954468000000000E-01      1.724141000000000E+02
4180000000.000000      1.161957000000000E-01      3.965234000000000E+01      4.052277000000000E-01      1.436719000000000E+02
4200000000.000000      1.174393000000000E-01      3.626562000000000E+01      4.049988000000000E-01      1.135547000000000E+02
4220000000.000000      1.149979000000000E-01      3.859375000000000E+01      3.968353000000000E-01      8.446875000000000E+01
4240000000.000000      1.241493000000000E-01      4.530663000000000E+01      3.914337000000000E-01      5.618554000000000E+01
4260000000.000000      1.495514000000000E-01      4.719531000000000E+01      3.875275000000000E-01      2.800097000000000E+01
4280000000.000000      1.767731000000000E-01      4.226367000000000E+01      3.876038000000000E-01     -5.905151000000000E-01
4300000000.000000      1.921005000000000E-01      3.402539000000000E+01      3.846893000000000E-01     -2.918457000000000E+01
4320000000.000000      1.916275000000000E-01      2.555469000000000E+01      3.798523000000000E-01     -5.791406000000000E+01
4340000000.000000      1.769333000000000E-01      1.987793000000000E+01      3.798981000000000E-01     -8.689062000000000E+01
4360000000.000000      1.640091000000000E-01      1.921777000000000E+01      3.777618000000000E-01     -1.162969000000000E+02
4380000000.000000      1.628113000000000E-01      2.198144000000000E+01      3.768311000000000E-01     -1.456719000000000E+02
4400000000.000000      1.742630000000000E-01      2.166992000000000E+01      3.727417000000000E-01     -1.749063000000000E+02
4420000000.000000      1.840363000000000E-01      1.738770000000000E+01      3.742523000000000E-01      1.566250000000000E+02
4440000000.000000      1.811905000000000E-01      1.140918000000000E+01      3.769379000000000E-01      1.268398000000000E+02
4460000000.000000      1.633377000000000E-01      8.173828000000000E+00      3.716431000000000E-01      9.724218000000000E+01
4480000000.000000      1.459579000000000E-01      1.222607000000000E+01      3.673553000000000E-01      6.898828000000000E+01
4500000000.000000      1.483078000000000E-01      2.121777000000000E+01      3.675385000000000E-01      4.010156000000000E+01
4520000000.000000      1.745453000000000E-01      2.533008000000000E+01      3.621368000000000E-01      1.064160000000000E+01
4540000000.000000      2.051697000000000E-01      2.096680000000000E+01      3.520508000000000E-01     -1.880078000000000E+01
4560000000.000000      2.246475000000000E-01      1.271240000000000E+01      3.455658000000000E-01     -4.708398000000000E+01
4580000000.000000      2.296677000000000E-01      3.732544000000000E+00      3.470612000000000E-01     -7.647265000000000E+01
4600000000.000000      2.212601000000000E-01     -3.474487000000000E+00      3.447266000000000E-01     -1.069062000000000E+02
4620000000.000000      2.092133000000000E-01     -7.686523000000000E+00      3.388977000000000E-01     -1.363750000000000E+02
4640000000.000000      2.031403000000000E-01     -9.735352000000000E+00      3.392792000000000E-01     -1.658281000000000E+02
4660000000.000000      2.033310000000000E-01     -1.269238000000000E+01      3.383636000000000E-01      1.649609000000000E+02
4680000000.000000      2.040329000000000E-01     -1.792773000000000E+01      3.428345000000000E-01      1.359844000000000E+02
4700000000.000000      1.974716000000000E-01     -2.510839000000000E+01      3.442230000000000E-01      1.064336000000000E+02
4720000000.000000      1.813354000000000E-01     -3.217382000000000E+01      3.401184000000000E-01      7.860937000000000E+01
4740000000.000000      1.606445000000000E-01     -3.882031000000000E+01      3.471069000000000E-01      5.098046000000000E+01
4760000000.000000      1.360779000000000E-01     -4.408984000000000E+01      3.478546000000000E-01      2.225684000000000E+01
4780000000.000000      1.109810000000000E-01     -4.885351000000000E+01      3.440247000000000E-01     -6.189453000000000E+00
4800000000.000000      7.836533000000000E-02     -5.311718000000000E+01      3.399506000000000E-01     -3.474023000000000E+01
4820000000.000000      3.573608000000000E-02     -4.911523000000000E+01      3.305206000000000E-01     -6.361133000000000E+01
4840000000.000000      3.454590000000000E-02      5.783593000000000E+01      3.239136000000000E-01     -9.280468000000000E+01
4860000000.000000      1.017303000000000E-01      6.200390000000000E+01      3.169250000000000E-01     -1.235976000000000E+02
4880000000.000000      1.708908000000000E-01      4.862305000000000E+01      2.967682000000000E-01     -1.547500000000000E+02
4900000000.000000      2.301254000000000E-01      3.252734000000000E+01      2.745667000000000E-01      1.776797000000000E+02
4920000000.000000      2.710876000000000E-01      1.623340000000000E+01      2.751160000000000E-01      1.522109000000000E+02
4940000000.000000      2.917938000000000E-01      5.630493000000000E-01      2.892609000000000E-01      1.234922000000000E+02
4960000000.000000      2.882385000000000E-01     -1.484570000000000E+01      2.934723000000000E-01      9.368359000000000E+01
4980000000.000000      2.617035000000000E-01     -2.837109000000000E+01      3.001556000000000E-01      6.650391000000000E+01
5000000000.000000      2.185898000000000E-01     -3.846484000000000E+01      3.146362000000000E-01      3.914844000000000E+01
5020000000.000000      1.712036000000000E-01     -4.089257000000000E+01      3.247528000000000E-01      1.104492000000000E+01
5040000000.000000      1.426163000000000E-01     -3.341015000000000E+01      3.324738000000000E-01     -1.606836000000000E+01
5060000000.000000      1.449890000000000E-01     -2.334277000000000E+01      3.399200000000000E-01     -4.321485000000000E+01
5080000000.000000      1.611633000000000E-01     -2.054394000000000E+01      3.452454000000000E-01     -7.127343000000000E+01
5100000000.000000      1.742859000000000E-01     -2.294238000000000E+01      3.390808000000000E-01     -9.982811000000000E+01
5120000000.000000      1.793594000000000E-01     -2.630176000000000E+01      3.330536000000000E-01     -1.272266000000000E+02
5140000000.000000      1.816864000000000E-01     -2.912695000000000E+01      3.309631000000000E-01     -1.555078000000000E+02
5160000000.000000      1.847000000000000E-01     -3.175195000000000E+01      3.275909000000000E-01      1.750156000000000E+02
5180000000.000000      1.898804000000000E-01     -3.522656000000000E+01      3.242493000000000E-01      1.451797000000000E+02
5200000000.000000      1.913605000000000E-01     -4.001367000000000E+01      3.228149000000000E-01      1.150820000000000E+02
5220000000.000000      1.855621000000000E-01     -4.459570000000000E+01      3.228302000000000E-01      8.539454000000000E+01
5240000000.000000      1.759720000000000E-01     -4.741601000000000E+01      3.280945000000000E-01      5.566601000000000E+01
5260000000.000000      1.678619000000000E-01     -4.746679000000000E+01      3.335419000000000E-01      2.600293000000000E+01
5280000000.000000      1.653214000000000E-01     -4.621289000000000E+01      3.380127000000000E-01     -3.069336000000000E+00
5300000000.000000      1.699371000000000E-01     -4.641211000000000E+01      3.415833000000000E-01     -3.119238000000000E+01
5320000000.000000      1.741562000000000E-01     -4.904101000000000E+01      3.466034000000000E-01     -5.811328000000000E+01
5340000000.000000      1.720352000000000E-01     -5.285156000000000E+01      3.507233000000000E-01     -8.585546000000000E+01
5360000000.000000      1.653519000000000E-01     -5.601953000000000E+01      3.458710000000000E-01     -1.131680000000000E+02
5380000000.000000      1.589890000000000E-01     -5.696875000000000E+01      3.402100000000000E-01     -1.395156000000000E+02
5400000000.000000      1.594696000000000E-01     -5.616796000000000E+01      3.390045000000000E-01     -1.670391000000000E+02
5420000000.000000      1.696548000000000E-01     -5.606640000000000E+01      3.317719000000000E-01      1.646250000000000E+02
5440000000.000000      1.813278000000000E-01     -5.939648000000000E+01      3.259888000000000E-01      1.355156000000000E+02
5460000000.000000      1.876068000000000E-01     -6.556250000000000E+01      3.156738000000000E-01      1.054883000000000E+02
5480000000.000000      1.815033000000000E-01     -7.279297000000000E+01      3.092804000000000E-01      7.600390000000000E+01
5500000000.000000      1.641388000000000E-01     -7.922265000000000E+01      3.117218000000000E-01      4.631836000000000E+01
5520000000.000000      1.403580000000000E-01     -8.249609000000000E+01      3.141327000000000E-01      1.591895000000000E+01
5540000000.000000      1.205101000000000E-01     -8.168360000000000E+01      3.188477000000000E-01     -1.370313000000000E+01
5560000000.000000      1.083107000000000E-01     -7.772265000000000E+01      3.254700000000000E-01     -4.266406000000000E+01
5580000000.000000      1.028290000000000E-01     -7.261328000000000E+01      3.323364000000000E-01     -7.103906000000000E+01
5600000000.000000      1.003647000000000E-01     -6.680078000000000E+01      3.371124000000000E-01     -9.888281000000000E+01
5620000000.000000      1.039886000000000E-01     -5.897265000000000E+01      3.399963000000000E-01     -1.265078000000000E+02
5640000000.000000      1.194916000000000E-01     -5.237695000000000E+01      3.375549000000000E-01     -1.540781000000000E+02
5660000000.000000      1.448898000000000E-01     -5.174414000000000E+01      3.307190000000000E-01      1.787891000000000E+02
5680000000.000000      1.722488000000000E-01     -5.756054000000000E+01      3.220978000000000E-01      1.509609000000000E+02
5700000000.000000      1.903610000000000E-01     -6.792969000000000E+01      3.092194000000000E-01      1.226015000000000E+02
5720000000.000000      1.930084000000000E-01     -8.044140000000000E+01      2.952728000000000E-01      9.479687000000000E+01
5740000000.000000      1.782608000000000E-01     -9.279297000000000E+01      2.897644000000000E-01      6.603906000000000E+01
5760000000.000000      1.492233000000000E-01     -1.023281000000000E+02      2.858582000000000E-01      3.504883000000000E+01
5780000000.000000      1.173401000000000E-01     -1.042539000000000E+02      2.816315000000000E-01      4.294189000000000E+00
5800000000.000000      9.873581000000000E-02     -9.556641000000000E+01      2.837067000000000E-01     -2.607519000000000E+01
5820000000.000000      1.030655000000000E-01     -8.717577000000000E+01      2.913971000000000E-01     -5.611133000000000E+01
5840000000.000000      1.142883000000000E-01     -8.906250000000000E+01      3.011322000000000E-01     -8.645702000000000E+01
5860000000.000000      1.183701000000000E-01     -9.708593000000000E+01      3.025665000000000E-01     -1.154688000000000E+02
5880000000.000000      1.084747000000000E-01     -1.077617000000000E+02      3.043671000000000E-01     -1.425313000000000E+02
5900000000.000000      8.892441000000000E-02     -1.146406000000000E+02      3.145752000000000E-01     -1.691562000000000E+02
5920000000.000000      7.110977000000000E-02     -1.132500000000000E+02      3.184357000000000E-01      1.629453000000000E+02
5940000000.000000      6.388092000000000E-02     -1.039101000000000E+02      3.116608000000000E-01      1.346484000000000E+02
5960000000.000000      6.238556000000000E-02     -9.999218000000000E+01      2.971191000000000E-01      1.072148000000000E+02
5980000000.000000      5.288124000000000E-02     -9.973436000000000E+01      2.864685000000000E-01      8.008593000000000E+01
6000000000.000000      3.285027000000000E-02     -8.674219000000000E+01      2.804871000000000E-01      5.073828000000000E+01
6020000000.000000      3.301430000000000E-02     -2.666992000000000E+01      2.681122000000000E-01      1.977051000000000E+01
6040000000.000000      6.894684000000000E-02     -1.281445000000000E+01      2.543030000000000E-01     -1.075195000000000E+01
6060000000.000000      1.050453000000000E-01     -2.171484000000000E+01      2.499161000000000E-01     -4.108788000000000E+01
6080000000.000000      1.315918000000000E-01     -3.625391000000000E+01      2.560883000000000E-01     -7.199609000000000E+01
