! Network Analyzer HP8722D
! Hewlett-Packard
! Data name: Linha & Wilkinson
! Saver's name: Rodrigo Anjos
! Comments: Teste da utilização de aquisição
continua pelo VNA HP8722D
! Time and date: 3/9/2025 19:07
!              Frequency                     S11                                                   S21                                                   S12                                                   S22
# HZ  S  MA R 50
3000000000.000000      7.723236000000000E-02      8.751562000000000E+01      4.567413000000000E-01      2.508301000000000E+01
3020000000.000000      9.372711000000000E-02      7.284765000000000E+01      4.582214000000000E-01     -3.528076000000000E+00
3040000000.000000      9.528732000000000E-02      5.665039000000000E+01      4.585724000000000E-01     -3.265820000000000E+01
3060000000.000000      8.401871000000000E-02      4.126953000000000E+01      4.560089000000000E-01     -6.119726000000000E+01
3080000000.000000      6.367874000000000E-02      3.060840000000000E+01      4.563446000000000E-01     -8.953125000000000E+01
3100000000.000000      4.499435000000000E-02      3.058789000000000E+01      4.549713000000000E-01     -1.180273000000000E+02
3120000000.000000      3.820229000000000E-02      4.391015000000000E+01      4.515991000000000E-01     -1.465937000000000E+02
3140000000.000000      3.781509000000000E-02      4.886132000000000E+01      4.471130000000000E-01     -1.751562000000000E+02
3160000000.000000      2.968311000000000E-02      4.958398000000000E+01      4.437714000000000E-01      1.564062000000000E+02
3180000000.000000      1.654816000000000E-02      9.749218000000000E+01      4.425812000000000E-01      1.275977000000000E+02
3200000000.000000      4.732323000000000E-02      1.448594000000000E+02      4.377136000000000E-01      9.812500000000000E+01
3220000000.000000      9.834671000000000E-02      1.372500000000000E+02      4.235077000000000E-01      6.894921000000000E+01
3240000000.000000      1.497498000000000E-01      1.218945000000000E+02      4.138947000000000E-01      4.160546000000000E+01
3260000000.000000      1.919098000000000E-01      1.047578000000000E+02      4.169617000000000E-01      1.407617000000000E+01
3280000000.000000      2.189484000000000E-01      8.752733000000000E+01      4.211121000000000E-01     -1.504590000000000E+01
3300000000.000000      2.295303000000000E-01      7.057031000000000E+01      4.158173000000000E-01     -4.378906000000000E+01
3320000000.000000      2.241669000000000E-01      5.520312000000000E+01      4.196930000000000E-01     -7.124218000000000E+01
3340000000.000000      2.086487000000000E-01      4.257031000000000E+01      4.248962000000000E-01     -1.002305000000000E+02
3360000000.000000      1.847610000000000E-01      3.343945000000000E+01      4.241791000000000E-01     -1.285234000000000E+02
3380000000.000000      1.614914000000000E-01      2.852051000000000E+01      4.300690000000000E-01     -1.568203000000000E+02
3400000000.000000      1.422501000000000E-01      2.673242000000000E+01      4.323730000000000E-01      1.745469000000000E+02
3420000000.000000      1.283188000000000E-01      2.638086000000000E+01      4.328461000000000E-01      1.458281000000000E+02
3440000000.000000      1.161575000000000E-01      2.607715000000000E+01      4.323578000000000E-01      1.171641000000000E+02
3460000000.000000      1.042862000000000E-01      2.733105000000000E+01      4.292145000000000E-01      8.869532000000000E+01
3480000000.000000      9.682083000000000E-02      2.973145000000000E+01      4.309692000000000E-01      5.994726000000000E+01
3500000000.000000      9.292603000000000E-02      3.348828000000000E+01      4.268036000000000E-01      3.083105000000000E+01
3520000000.000000      9.239197000000000E-02      3.685547000000000E+01      4.223633000000000E-01      2.776733000000000E+00
3540000000.000000      9.248734000000000E-02      4.021680000000000E+01      4.257660000000000E-01     -2.602832000000000E+01
3560000000.000000      9.462738000000000E-02      4.534961000000000E+01      4.275818000000000E-01     -5.491796000000000E+01
3580000000.000000      1.023140000000000E-01      5.067968000000000E+01      4.267426000000000E-01     -8.372656000000000E+01
3600000000.000000      1.155090000000000E-01      5.203125000000000E+01      4.261169000000000E-01     -1.118750000000000E+02
3620000000.000000      1.290054000000000E-01      4.903710000000000E+01      4.279480000000000E-01     -1.399922000000000E+02
3640000000.000000      1.343231000000000E-01      4.257421000000000E+01      4.276733000000000E-01     -1.686328000000000E+02
3660000000.000000      1.291580000000000E-01      3.571875000000000E+01      4.246368000000000E-01      1.637109000000000E+02
3680000000.000000      1.163406000000000E-01      3.273438000000000E+01      4.291992000000000E-01      1.359922000000000E+02
3700000000.000000      1.037827000000000E-01      3.624218000000000E+01      4.312134000000000E-01      1.073906000000000E+02
3720000000.000000      1.044769000000000E-01      4.533593000000000E+01      4.292908000000000E-01      7.887500000000000E+01
3740000000.000000      1.223946000000000E-01      4.926367000000000E+01      4.237366000000000E-01      5.043163000000000E+01
3760000000.000000      1.415024000000000E-01      4.571679000000000E+01      4.182587000000000E-01      2.249023000000000E+01
3780000000.000000      1.484451000000000E-01      3.820703000000000E+01      4.175415000000000E-01     -5.277588000000000E+00
3800000000.000000      1.411972000000000E-01      3.087891000000000E+01      4.187164000000000E-01     -3.398242000000000E+01
3820000000.000000      1.226234000000000E-01      2.770996000000000E+01      4.187775000000000E-01     -6.264257000000000E+01
3840000000.000000      1.086807000000000E-01      3.290430000000000E+01      4.189148000000000E-01     -9.160156000000000E+01
3860000000.000000      1.134644000000000E-01      4.125781000000000E+01      4.168091000000000E-01     -1.202969000000000E+02
3880000000.000000      1.318207000000000E-01      4.253125000000000E+01      4.149017000000000E-01     -1.495156000000000E+02
3900000000.000000      1.461792000000000E-01      3.682617000000000E+01      4.059753000000000E-01     -1.777422000000000E+02
3920000000.000000      1.435699000000000E-01      2.920019000000000E+01      4.076843000000000E-01      1.550078000000000E+02
3940000000.000000      1.252060000000000E-01      2.555371000000000E+01      4.158630000000000E-01      1.265937000000000E+02
3960000000.000000      1.069336000000000E-01      3.214648000000000E+01      4.148712000000000E-01      9.729687000000000E+01
3980000000.000000      1.147957000000000E-01      4.602148000000000E+01      4.080811000000000E-01      6.845703000000000E+01
4000000000.000000      1.469040000000000E-01      4.906445000000000E+01      4.004364000000000E-01      4.159375000000000E+01
4020000000.000000      1.800537000000000E-01      4.149804000000000E+01      4.067230000000000E-01      1.394141000000000E+01
4040000000.000000      1.986008000000000E-01      2.860644000000000E+01      4.075165000000000E-01     -1.620215000000000E+01
4060000000.000000      1.923599000000000E-01      1.448926000000000E+01      3.921661000000000E-01     -4.482812000000000E+01
4080000000.000000      1.634750000000000E-01      1.098633000000000E+00      3.901978000000000E-01     -7.171484000000000E+01
4100000000.000000      1.172943000000000E-01     -6.650879000000000E+00      4.013519000000000E-01     -1.004140000000000E+02
4120000000.000000      7.498550000000000E-02      4.680176000000000E+00      4.006195000000000E-01     -1.304766000000000E+02
4140000000.000000      7.381439000000000E-02      3.466211000000000E+01      3.960876000000000E-01     -1.592266000000000E+02
4160000000.000000      9.810638000000000E-02      4.341210000000000E+01      3.966064000000000E-01      1.729766000000000E+02
4180000000.000000      1.162643000000000E-01      4.010547000000000E+01      4.047852000000000E-01      1.442266000000000E+02
4200000000.000000      1.174355000000000E-01      3.629492000000000E+01      4.053040000000000E-01      1.140703000000000E+02
4220000000.000000      1.150284000000000E-01      3.864453000000000E+01      3.973999000000000E-01      8.483202000000000E+01
4240000000.000000      1.242371000000000E-01      4.527734000000000E+01      3.916168000000000E-01      5.647655000000000E+01
4260000000.000000      1.495132000000000E-01      4.724609000000000E+01      3.889313000000000E-01      2.834863000000000E+01
4280000000.000000      1.762543000000000E-01      4.249804000000000E+01      3.884277000000000E-01      2.293396000000000E-01
4300000000.000000      1.924362000000000E-01      3.416016000000000E+01      3.854370000000000E-01     -2.872559000000000E+01
4320000000.000000      1.909561000000000E-01      2.567285000000000E+01      3.820953000000000E-01     -5.728710000000000E+01
4340000000.000000      1.772461000000000E-01      1.989258000000000E+01      3.801270000000000E-01     -8.641405000000000E+01
4360000000.000000      1.635818000000000E-01      1.925488000000000E+01      3.789063000000000E-01     -1.155742000000000E+02
4380000000.000000      1.626816000000000E-01      2.183300000000000E+01      3.775787000000000E-01     -1.451094000000000E+02
4400000000.000000      1.736755000000000E-01      2.172754000000000E+01      3.753662000000000E-01     -1.741250000000000E+02
4420000000.000000      1.839828000000000E-01      1.759277000000000E+01      3.748322000000000E-01      1.572031000000000E+02
4440000000.000000      1.809235000000000E-01      1.148047000000000E+01      3.790131000000000E-01      1.272539000000000E+02
4460000000.000000      1.640320000000000E-01      8.461914000000000E+00      3.703461000000000E-01      9.791796000000000E+01
4480000000.000000      1.457443000000000E-01      1.202979000000000E+01      3.665619000000000E-01      6.973827000000000E+01
4500000000.000000      1.484146000000000E-01      2.120898000000000E+01      3.668365000000000E-01      4.089648000000000E+01
4520000000.000000      1.740189000000000E-01      2.529394000000000E+01      3.626099000000000E-01      1.104492000000000E+01
4540000000.000000      2.052994000000000E-01      2.119043000000000E+01      3.521729000000000E-01     -1.832812000000000E+01
4560000000.000000      2.251892000000000E-01      1.273291000000000E+01      3.466949000000000E-01     -4.651563000000000E+01
4580000000.000000      2.301559000000000E-01      3.781982000000000E+00      3.491821000000000E-01     -7.578515000000000E+01
4600000000.000000      2.218246000000000E-01     -3.394775000000000E+00      3.446045000000000E-01     -1.062578000000000E+02
4620000000.000000      2.090759000000000E-01     -7.499756000000000E+00      3.390503000000000E-01     -1.357031000000000E+02
4640000000.000000      2.032318000000000E-01     -9.783691000000000E+00      3.393402000000000E-01     -1.651328000000000E+02
4660000000.000000      2.033157000000000E-01     -1.257813000000000E+01      3.386841000000000E-01      1.657500000000000E+02
4680000000.000000      2.039719000000000E-01     -1.778906000000000E+01      3.449249000000000E-01      1.366172000000000E+02
4700000000.000000      1.973190000000000E-01     -2.473730000000000E+01      3.450623000000000E-01      1.069453000000000E+02
4720000000.000000      1.811218000000000E-01     -3.206640000000000E+01      3.408508000000000E-01      7.915625000000000E+01
4740000000.000000      1.604309000000000E-01     -3.870703000000000E+01      3.475037000000000E-01      5.156836000000000E+01
4760000000.000000      1.362610000000000E-01     -4.393945000000000E+01      3.476563000000000E-01      2.295996000000000E+01
4780000000.000000      1.111450000000000E-01     -4.858593000000000E+01      3.443756000000000E-01     -5.474121000000000E+00
4800000000.000000      7.838058000000000E-02     -5.297265000000000E+01      3.404541000000000E-01     -3.395312000000000E+01
4820000000.000000      3.599739000000000E-02     -4.871094000000000E+01      3.318024000000000E-01     -6.296679000000000E+01
4840000000.000000      3.443527000000000E-02      5.676171000000000E+01      3.247681000000000E-01     -9.207811000000000E+01
4860000000.000000      1.006126000000000E-01      6.188281000000000E+01      3.176117000000000E-01     -1.228477000000000E+02
4880000000.000000      1.705246000000000E-01      4.908789000000000E+01      2.975464000000000E-01     -1.541328000000000E+02
4900000000.000000      2.302933000000000E-01      3.306836000000000E+01      2.753448000000000E-01      1.783359000000000E+02
4920000000.000000      2.712250000000000E-01      1.657129000000000E+01      2.753754000000000E-01      1.526484000000000E+02
4940000000.000000      2.917633000000000E-01      7.580566000000000E-01      2.890472000000000E-01      1.241172000000000E+02
4960000000.000000      2.883148000000000E-01     -1.455322000000000E+01      2.933044000000000E-01      9.429296000000000E+01
4980000000.000000      2.627106000000000E-01     -2.813086000000000E+01      2.997131000000000E-01      6.716406000000000E+01
5000000000.000000      2.195129000000000E-01     -3.826953000000000E+01      3.141174000000000E-01      3.983203000000000E+01
5020000000.000000      1.719360000000000E-01     -4.087500000000000E+01      3.253632000000000E-01      1.174268000000000E+01
5040000000.000000      1.424713000000000E-01     -3.359766000000000E+01      3.324890000000000E-01     -1.549658000000000E+01
5060000000.000000      1.448059000000000E-01     -2.344824000000000E+01      3.408813000000000E-01     -4.259961000000000E+01
5080000000.000000      1.609039000000000E-01     -2.041211000000000E+01      3.454132000000000E-01     -7.075390000000000E+01
5100000000.000000      1.743698000000000E-01     -2.279004000000000E+01      3.393250000000000E-01     -9.911327000000000E+01
5120000000.000000      1.797714000000000E-01     -2.624707000000000E+01      3.341827000000000E-01     -1.266328000000000E+02
5140000000.000000      1.819305000000000E-01     -2.919922000000000E+01      3.314972000000000E-01     -1.549609000000000E+02
5160000000.000000      1.849518000000000E-01     -3.182519000000000E+01      3.280334000000000E-01      1.757656000000000E+02
5180000000.000000      1.883545000000000E-01     -3.524219000000000E+01      3.239746000000000E-01      1.460078000000000E+02
5200000000.000000      1.909103000000000E-01     -3.990234000000000E+01      3.232269000000000E-01      1.157305000000000E+02
5220000000.000000      1.855545000000000E-01     -4.451953000000000E+01      3.232117000000000E-01      8.613672000000000E+01
5240000000.000000      1.762314000000000E-01     -4.743945000000000E+01      3.276215000000000E-01      5.626562000000000E+01
5260000000.000000      1.679688000000000E-01     -4.761914000000000E+01      3.341980000000000E-01      2.663769000000000E+01
5280000000.000000      1.650391000000000E-01     -4.628125000000000E+01      3.393250000000000E-01     -2.469238000000000E+00
5300000000.000000      1.699753000000000E-01     -4.637109000000000E+01      3.424835000000000E-01     -3.053711000000000E+01
5320000000.000000      1.742630000000000E-01     -4.895898000000000E+01      3.464203000000000E-01     -5.743750000000000E+01
5340000000.000000      1.722565000000000E-01     -5.279101000000000E+01      3.515625000000000E-01     -8.525391000000000E+01
5360000000.000000      1.655502000000000E-01     -5.604101000000000E+01      3.460999000000000E-01     -1.125000000000000E+02
5380000000.000000      1.590271000000000E-01     -5.688281000000000E+01      3.404388000000000E-01     -1.390078000000000E+02
5400000000.000000      1.588516000000000E-01     -5.616601000000000E+01      3.398132000000000E-01     -1.664531000000000E+02
5420000000.000000      1.688538000000000E-01     -5.611718000000000E+01      3.321381000000000E-01      1.652422000000000E+02
5440000000.000000      1.811752000000000E-01     -5.924805000000000E+01      3.266754000000000E-01      1.361016000000000E+02
5460000000.000000      1.876373000000000E-01     -6.551952000000000E+01      3.161621000000000E-01      1.062539000000000E+02
5480000000.000000      1.817703000000000E-01     -7.254296000000000E+01      3.097839000000000E-01      7.679688000000000E+01
5500000000.000000      1.636353000000000E-01     -7.906640000000000E+01      3.123474000000000E-01      4.711328000000000E+01
5520000000.000000      1.408997000000000E-01     -8.261719000000000E+01      3.150024000000000E-01      1.664258000000000E+01
5540000000.000000      1.205368000000000E-01     -8.170702000000000E+01      3.189087000000000E-01     -1.299854000000000E+01
5560000000.000000      1.081543000000000E-01     -7.777344000000000E+01      3.255615000000000E-01     -4.199219000000000E+01
5580000000.000000      1.027756000000000E-01     -7.243750000000000E+01      3.323822000000000E-01     -7.035937000000000E+01
5600000000.000000      1.003952000000000E-01     -6.694530000000000E+01      3.379974000000000E-01     -9.828125000000000E+01
5620000000.000000      1.038322000000000E-01     -5.916016000000000E+01      3.399963000000000E-01     -1.259258000000000E+02
5640000000.000000      1.192780000000000E-01     -5.234765000000000E+01      3.381958000000000E-01     -1.533281000000000E+02
5660000000.000000      1.440506000000000E-01     -5.171679000000000E+01      3.313599000000000E-01      1.795859000000000E+02
5680000000.000000      1.717529000000000E-01     -5.740429000000000E+01      3.235016000000000E-01      1.515156000000000E+02
5700000000.000000      1.901169000000000E-01     -6.771484000000000E+01      3.099365000000000E-01      1.232344000000000E+02
5720000000.000000      1.930542000000000E-01     -8.017578000000000E+01      2.960968000000000E-01      9.558985000000000E+01
5740000000.000000      1.787415000000000E-01     -9.260937000000000E+01      2.903595000000000E-01      6.683594000000000E+01
5760000000.000000      1.494675000000000E-01     -1.023984000000000E+02      2.864075000000000E-01      3.570117000000000E+01
5780000000.000000      1.176414000000000E-01     -1.045078000000000E+02      2.819214000000000E-01      5.151123000000000E+00
5800000000.000000      9.833908000000000E-02     -9.564453000000000E+01      2.842407000000000E-01     -2.523926000000000E+01
5820000000.000000      1.031113000000000E-01     -8.728516000000000E+01      2.911987000000000E-01     -5.542773000000000E+01
5840000000.000000      1.133537000000000E-01     -8.905859000000000E+01      3.011017000000000E-01     -8.578125000000000E+01
5860000000.000000      1.168671000000000E-01     -9.688280000000000E+01      3.031464000000000E-01     -1.147266000000000E+02
5880000000.000000      1.078110000000000E-01     -1.074609000000000E+02      3.045197000000000E-01     -1.418203000000000E+02
5900000000.000000      8.956909000000000E-02     -1.145547000000000E+02      3.143158000000000E-01     -1.684062000000000E+02
5920000000.000000      7.075500000000000E-02     -1.134883000000000E+02      3.190308000000000E-01      1.636094000000000E+02
5940000000.000000      6.357193000000000E-02     -1.038867000000000E+02      3.130035000000000E-01      1.353672000000000E+02
5960000000.000000      6.184196000000000E-02     -9.936327000000000E+01      2.982483000000000E-01      1.078359000000000E+02
5980000000.000000      5.293465000000000E-02     -9.947266000000000E+01      2.874908000000000E-01      8.086329000000000E+01
6000000000.000000      3.291130000000000E-02     -8.705469000000000E+01      2.812347000000000E-01      5.146679000000000E+01
6020000000.000000      3.261757000000000E-02     -2.661230000000000E+01      2.688293000000000E-01      2.055762000000000E+01
6040000000.000000      6.834412000000000E-02     -1.248340000000000E+01      2.551117000000000E-01     -9.901855000000000E+00
6060000000.000000      1.042747000000000E-01     -2.136914000000000E+01      2.501221000000000E-01     -4.024219000000000E+01
6080000000.000000      1.312790000000000E-01     -3.570508000000000E+01      2.564545000000000E-01     -7.119141000000000E+01
