! Network Analyzer HP8722D
! Hewlett-Packard
! Data name: Linha & Wilkinson
! Saver's name: Rodrigo Anjos
! Comments: Teste da utilização de aquisição
continua pelo VNA HP8722D
! Time and date: 3/9/2025 17:38
!              Frequency                     S11                                                   S21                                                   S12                                                   S22
# HZ  S  MA R 50
3000000000.000000      7.646561000000000E-02      8.731640000000000E+01      4.558563000000000E-01      2.560840000000000E+01
3020000000.000000      9.297562000000000E-02      7.295703000000000E+01      4.553833000000000E-01     -3.267090000000000E+00
3040000000.000000      9.572983000000000E-02      5.655663000000000E+01      4.544983000000000E-01     -3.220898000000000E+01
3060000000.000000      8.345413000000000E-02      4.099218000000000E+01      4.538879000000000E-01     -6.072460000000000E+01
3080000000.000000      6.370544000000000E-02      3.040234000000000E+01      4.538269000000000E-01     -8.932812000000000E+01
3100000000.000000      4.578400000000000E-02      2.999902000000000E+01      4.527893000000000E-01     -1.177031000000000E+02
3120000000.000000      3.815842000000000E-02      4.271289000000000E+01      4.497681000000000E-01     -1.463750000000000E+02
3140000000.000000      3.780365000000000E-02      4.825585000000000E+01      4.451599000000000E-01     -1.748125000000000E+02
3160000000.000000      2.997303000000000E-02      4.867773000000000E+01      4.415436000000000E-01      1.566797000000000E+02
3180000000.000000      1.669979000000000E-02      9.463671000000000E+01      4.397736000000000E-01      1.279492000000000E+02
3200000000.000000      4.590225000000000E-02      1.439766000000000E+02      4.356384000000000E-01      9.843359000000000E+01
3220000000.000000      9.666443000000000E-02      1.371094000000000E+02      4.228363000000000E-01      6.919922000000000E+01
3240000000.000000      1.477966000000000E-01      1.217734000000000E+02      4.102936000000000E-01      4.183007000000000E+01
3260000000.000000      1.900177000000000E-01      1.048555000000000E+02      4.133606000000000E-01      1.452783000000000E+01
3280000000.000000      2.173004000000000E-01      8.745703000000000E+01      4.186707000000000E-01     -1.473682000000000E+01
3300000000.000000      2.286835000000000E-01      7.050781000000000E+01      4.138641000000000E-01     -4.338867000000000E+01
3320000000.000000      2.242889000000000E-01      5.519726000000000E+01      4.163361000000000E-01     -7.107031000000000E+01
3340000000.000000      2.083054000000000E-01      4.248047000000000E+01      4.216461000000000E-01     -9.960546000000000E+01
3360000000.000000      1.848984000000000E-01      3.315234000000000E+01      4.234924000000000E-01     -1.281953000000000E+02
3380000000.000000      1.609955000000000E-01      2.812500000000000E+01      4.280243000000000E-01     -1.563359000000000E+02
3400000000.000000      1.421204000000000E-01      2.618261000000000E+01      4.295197000000000E-01      1.747734000000000E+02
3420000000.000000      1.283646000000000E-01      2.579980000000000E+01      4.321747000000000E-01      1.462969000000000E+02
3440000000.000000      1.163597000000000E-01      2.545215000000000E+01      4.291687000000000E-01      1.172773000000000E+02
3460000000.000000      1.046524000000000E-01      2.657227000000000E+01      4.258118000000000E-01      8.896093000000000E+01
3480000000.000000      9.646988000000000E-02      2.914258000000000E+01      4.283752000000000E-01      6.020898000000000E+01
3500000000.000000      9.248734000000000E-02      3.290430000000000E+01      4.230957000000000E-01      3.119922000000000E+01
3520000000.000000      9.098816000000000E-02      3.648046000000000E+01      4.213409000000000E-01      3.008789000000000E+00
3540000000.000000      9.141922000000000E-02      3.998437000000000E+01      4.237366000000000E-01     -2.559765000000000E+01
3560000000.000000      9.384155000000000E-02      4.531446000000000E+01      4.246979000000000E-01     -5.470117000000000E+01
3580000000.000000      1.013908000000000E-01      5.011523000000000E+01      4.244232000000000E-01     -8.340624000000000E+01
3600000000.000000      1.147919000000000E-01      5.162304000000000E+01      4.249573000000000E-01     -1.115937000000000E+02
3620000000.000000      1.282425000000000E-01      4.851171000000000E+01      4.254913000000000E-01     -1.396953000000000E+02
3640000000.000000      1.340256000000000E-01      4.250586000000000E+01      4.254303000000000E-01     -1.679766000000000E+02
3660000000.000000      1.292953000000000E-01      3.563672000000000E+01      4.229126000000000E-01      1.641406000000000E+02
3680000000.000000      1.164551000000000E-01      3.235352000000000E+01      4.280090000000000E-01      1.363984000000000E+02
3700000000.000000      1.035500000000000E-01      3.576562000000000E+01      4.286652000000000E-01      1.077656000000000E+02
3720000000.000000      1.039734000000000E-01      4.470899000000000E+01      4.277649000000000E-01      7.944140000000000E+01
3740000000.000000      1.217575000000000E-01      4.879883000000000E+01      4.218445000000000E-01      5.076562000000000E+01
3760000000.000000      1.402893000000000E-01      4.527148000000000E+01      4.158325000000000E-01      2.301074000000000E+01
3780000000.000000      1.478882000000000E-01      3.786523000000000E+01      4.146576000000000E-01     -4.880859000000000E+00
3800000000.000000      1.409225000000000E-01      3.052343000000000E+01      4.149017000000000E-01     -3.335351000000000E+01
3820000000.000000      1.226425000000000E-01      2.704687000000000E+01      4.171906000000000E-01     -6.208789000000000E+01
3840000000.000000      1.086998000000000E-01      3.225390000000000E+01      4.141846000000000E-01     -9.107813000000000E+01
3860000000.000000      1.125183000000000E-01      4.046679000000000E+01      4.156342000000000E-01     -1.200742000000000E+02
3880000000.000000      1.304932000000000E-01      4.218946000000000E+01      4.120178000000000E-01     -1.489609000000000E+02
3900000000.000000      1.453094000000000E-01      3.652344000000000E+01      4.040985000000000E-01     -1.773438000000000E+02
3920000000.000000      1.434326000000000E-01      2.880176000000000E+01      4.062347000000000E-01      1.554688000000000E+02
3940000000.000000      1.254196000000000E-01      2.493164000000000E+01      4.142914000000000E-01      1.268008000000000E+02
3960000000.000000      1.072693000000000E-01      3.141602000000000E+01      4.130402000000000E-01      9.757421000000000E+01
3980000000.000000      1.134796000000000E-01      4.500390000000000E+01      4.050140000000000E-01      6.920312000000000E+01
4000000000.000000      1.453781000000000E-01      4.855663000000000E+01      3.977814000000000E-01      4.217187000000000E+01
4020000000.000000      1.788025000000000E-01      4.110937000000000E+01      4.042053000000000E-01      1.415820000000000E+01
4040000000.000000      1.977844000000000E-01      2.839258000000000E+01      4.044037000000000E-01     -1.580566000000000E+01
4060000000.000000      1.921387000000000E-01      1.445508000000000E+01      3.903351000000000E-01     -4.445898000000000E+01
4080000000.000000      1.633987000000000E-01      1.040955000000000E+00      3.897552000000000E-01     -7.137500000000000E+01
4100000000.000000      1.180077000000000E-01     -6.991455000000000E+00      3.990173000000000E-01     -1.002617000000000E+02
4120000000.000000      7.534790000000000E-02      3.505981000000000E+00      3.975983000000000E-01     -1.298984000000000E+02
4140000000.000000      7.300568000000000E-02      3.330664000000000E+01      3.937378000000000E-01     -1.588984000000000E+02
4160000000.000000      9.745026000000000E-02      4.260742000000000E+01      3.945313000000000E-01      1.731953000000000E+02
4180000000.000000      1.147270000000000E-01      3.955664000000000E+01      4.015656000000000E-01      1.444219000000000E+02
4200000000.000000      1.170425000000000E-01      3.567578000000000E+01      4.037628000000000E-01      1.145859000000000E+02
4220000000.000000      1.146545000000000E-01      3.784180000000000E+01      3.959045000000000E-01      8.541407000000000E+01
4240000000.000000      1.234665000000000E-01      4.468163000000000E+01      3.885345000000000E-01      5.710938000000000E+01
4260000000.000000      1.482315000000000E-01      4.680078000000000E+01      3.869019000000000E-01      2.889257000000000E+01
4280000000.000000      1.747437000000000E-01      4.220117000000000E+01      3.850708000000000E-01      5.177307000000000E-01
4300000000.000000      1.901779000000000E-01      3.404492000000000E+01      3.830414000000000E-01     -2.815430000000000E+01
4320000000.000000      1.904144000000000E-01      2.547363000000000E+01      3.792114000000000E-01     -5.691796000000000E+01
4340000000.000000      1.769028000000000E-01      1.944824000000000E+01      3.784027000000000E-01     -8.582811000000000E+01
4360000000.000000      1.630554000000000E-01      1.849121000000000E+01      3.761292000000000E-01     -1.151914000000000E+02
4380000000.000000      1.615601000000000E-01      2.117578000000000E+01      3.735504000000000E-01     -1.446953000000000E+02
4400000000.000000      1.724930000000000E-01      2.119531000000000E+01      3.728638000000000E-01     -1.736641000000000E+02
4420000000.000000      1.826859000000000E-01      1.719727000000000E+01      3.728790000000000E-01      1.575703000000000E+02
4440000000.000000      1.801605000000000E-01      1.133643000000000E+01      3.753510000000000E-01      1.279102000000000E+02
4460000000.000000      1.635742000000000E-01      8.103516000000000E+00      3.681946000000000E-01      9.835546000000000E+01
4480000000.000000      1.445313000000000E-01      1.159570000000000E+01      3.652191000000000E-01      7.015625000000000E+01
4500000000.000000      1.467361000000000E-01      2.068262000000000E+01      3.653259000000000E-01      4.119141000000000E+01
4520000000.000000      1.718521000000000E-01      2.492871000000000E+01      3.605499000000000E-01      1.174707000000000E+01
4540000000.000000      2.031021000000000E-01      2.070313000000000E+01      3.514862000000000E-01     -1.776953000000000E+01
4560000000.000000      2.234650000000000E-01      1.259131000000000E+01      3.445282000000000E-01     -4.614648000000000E+01
4580000000.000000      2.292938000000000E-01      3.632324000000000E+00      3.461456000000000E-01     -7.536718000000000E+01
4600000000.000000      2.211075000000000E-01     -3.663940000000000E+00      3.429108000000000E-01     -1.057305000000000E+02
4620000000.000000      2.087326000000000E-01     -7.849854000000000E+00      3.372345000000000E-01     -1.351719000000000E+02
4640000000.000000      2.024078000000000E-01     -1.016406000000000E+01      3.359985000000000E-01     -1.648438000000000E+02
4660000000.000000      2.024002000000000E-01     -1.303564000000000E+01      3.370972000000000E-01      1.662969000000000E+02
4680000000.000000      2.030029000000000E-01     -1.810547000000000E+01      3.427887000000000E-01      1.370703000000000E+02
4700000000.000000      1.968842000000000E-01     -2.522265000000000E+01      3.428040000000000E-01      1.075664000000000E+02
4720000000.000000      1.813507000000000E-01     -3.237695000000000E+01      3.387604000000000E-01      7.966406000000000E+01
4740000000.000000      1.611404000000000E-01     -3.881250000000000E+01      3.455963000000000E-01      5.194921000000000E+01
4760000000.000000      1.368484000000000E-01     -4.431641000000000E+01      3.465118000000000E-01      2.354492000000000E+01
4780000000.000000      1.115761000000000E-01     -4.915820000000000E+01      3.426971000000000E-01     -5.064697000000000E+00
4800000000.000000      8.016205000000000E-02     -5.373828000000000E+01      3.384247000000000E-01     -3.341992000000000E+01
4820000000.000000      3.767967000000000E-02     -5.077929000000000E+01      3.303986000000000E-01     -6.246288000000000E+01
4840000000.000000      3.166199000000000E-02      5.560741000000000E+01      3.232880000000000E-01     -9.157421000000000E+01
4860000000.000000      9.729385000000000E-02      6.209570000000000E+01      3.159180000000000E-01     -1.222695000000000E+02
4880000000.000000      1.665726000000000E-01      4.913086000000000E+01      2.963104000000000E-01     -1.534453000000000E+02
4900000000.000000      2.263184000000000E-01      3.334765000000000E+01      2.739410000000000E-01      1.788281000000000E+02
4920000000.000000      2.684631000000000E-01      1.681445000000000E+01      2.739105000000000E-01      1.532812000000000E+02
4940000000.000000      2.892761000000000E-01      8.679199000000000E-01      2.872467000000000E-01      1.247812000000000E+02
4960000000.000000      2.876892000000000E-01     -1.446240000000000E+01      2.914734000000000E-01      9.478907000000000E+01
4980000000.000000      2.625885000000000E-01     -2.806933000000000E+01      2.975159000000000E-01      6.765625000000000E+01
5000000000.000000      2.198029000000000E-01     -3.827343000000000E+01      3.121796000000000E-01      4.011914000000000E+01
5020000000.000000      1.727829000000000E-01     -4.126953000000000E+01      3.231659000000000E-01      1.223877000000000E+01
5040000000.000000      1.438446000000000E-01     -3.405859000000000E+01      3.301697000000000E-01     -1.484570000000000E+01
5060000000.000000      1.445618000000000E-01     -2.412402000000000E+01      3.389587000000000E-01     -4.192187000000000E+01
5080000000.000000      1.605530000000000E-01     -2.079492000000000E+01      3.443604000000000E-01     -7.022265000000000E+01
5100000000.000000      1.737213000000000E-01     -2.309473000000000E+01      3.388824000000000E-01     -9.863670000000000E+01
5120000000.000000      1.794357000000000E-01     -2.675781000000000E+01      3.319244000000000E-01     -1.259609000000000E+02
5140000000.000000      1.814651000000000E-01     -2.950390000000000E+01      3.298187000000000E-01     -1.542266000000000E+02
5160000000.000000      1.845398000000000E-01     -3.235547000000000E+01      3.265228000000000E-01      1.762109000000000E+02
5180000000.000000      1.887741000000000E-01     -3.558594000000000E+01      3.226318000000000E-01      1.466250000000000E+02
5200000000.000000      1.909561000000000E-01     -4.039844000000000E+01      3.212738000000000E-01      1.163945000000000E+02
5220000000.000000      1.860657000000000E-01     -4.500586000000000E+01      3.211060000000000E-01      8.665625000000000E+01
5240000000.000000      1.766129000000000E-01     -4.776757000000000E+01      3.261261000000000E-01      5.695703000000000E+01
5260000000.000000      1.678162000000000E-01     -4.803124000000000E+01      3.316803000000000E-01      2.728808000000000E+01
5280000000.000000      1.646423000000000E-01     -4.671094000000000E+01      3.369446000000000E-01     -1.862183000000000E+00
5300000000.000000      1.690369000000000E-01     -4.699414000000000E+01      3.403778000000000E-01     -2.996582000000000E+01
5320000000.000000      1.734390000000000E-01     -4.962695000000000E+01      3.449097000000000E-01     -5.694530000000000E+01
5340000000.000000      1.715240000000000E-01     -5.333398000000000E+01      3.486481000000000E-01     -8.474218000000000E+01
5360000000.000000      1.655884000000000E-01     -5.657421000000000E+01      3.446198000000000E-01     -1.119570000000000E+02
5380000000.000000      1.586456000000000E-01     -5.742382000000000E+01      3.393707000000000E-01     -1.384766000000000E+02
5400000000.000000      1.589203000000000E-01     -5.674805000000000E+01      3.376465000000000E-01     -1.658516000000000E+02
5420000000.000000      1.679993000000000E-01     -5.638672000000000E+01      3.311768000000000E-01      1.659141000000000E+02
5440000000.000000      1.796265000000000E-01     -5.949413000000000E+01      3.244476000000000E-01      1.366641000000000E+02
5460000000.000000      1.861572000000000E-01     -6.552734000000000E+01      3.147583000000000E-01      1.068320000000000E+02
5480000000.000000      1.807632000000000E-01     -7.272265000000000E+01      3.085938000000000E-01      7.737499000000000E+01
5500000000.000000      1.642990000000000E-01     -7.947656000000000E+01      3.101501000000000E-01      4.760547000000000E+01
5520000000.000000      1.408005000000000E-01     -8.308985000000000E+01      3.126221000000000E-01      1.727930000000000E+01
5540000000.000000      1.212044000000000E-01     -8.223827000000000E+01      3.173828000000000E-01     -1.250244000000000E+01
5560000000.000000      1.088181000000000E-01     -7.811718000000000E+01      3.241425000000000E-01     -4.133398000000000E+01
5580000000.000000      1.028175000000000E-01     -7.294922000000000E+01      3.312073000000000E-01     -6.982422000000000E+01
5600000000.000000      1.010132000000000E-01     -6.728125000000000E+01      3.363342000000000E-01     -9.762108000000000E+01
5620000000.000000      1.038933000000000E-01     -5.937304000000000E+01      3.383942000000000E-01     -1.253555000000000E+02
5640000000.000000      1.183281000000000E-01     -5.278906000000000E+01      3.366089000000000E-01     -1.528437000000000E+02
5660000000.000000      1.426468000000000E-01     -5.197266000000000E+01      3.300934000000000E-01     -1.799141000000000E+02
5680000000.000000      1.696320000000000E-01     -5.768164000000000E+01      3.215027000000000E-01      1.521953000000000E+02
5700000000.000000      1.886749000000000E-01     -6.788671000000000E+01      3.087769000000000E-01      1.239687000000000E+02
5720000000.000000      1.928253000000000E-01     -8.040625000000000E+01      2.944946000000000E-01      9.628124000000000E+01
5740000000.000000      1.793289000000000E-01     -9.285156000000000E+01      2.892609000000000E-01      6.757421000000000E+01
5760000000.000000      1.511688000000000E-01     -1.025937000000000E+02      2.846680000000000E-01      3.646679000000000E+01
5780000000.000000      1.187897000000000E-01     -1.047695000000000E+02      2.796326000000000E-01      5.899658000000000E+00
5800000000.000000      9.847641000000000E-02     -9.655077000000000E+01      2.816925000000000E-01     -2.446289000000000E+01
5820000000.000000      1.014748000000000E-01     -8.782421000000000E+01      2.896271000000000E-01     -5.475976000000000E+01
5840000000.000000      1.131744000000000E-01     -8.923828000000000E+01      2.986450000000000E-01     -8.507030000000000E+01
5860000000.000000      1.169891000000000E-01     -9.735546000000000E+01      3.013000000000000E-01     -1.142422000000000E+02
5880000000.000000      1.087646000000000E-01     -1.080586000000000E+02      3.031616000000000E-01     -1.412109000000000E+02
5900000000.000000      9.032059000000000E-02     -1.153906000000000E+02      3.126526000000000E-01     -1.678828000000000E+02
5920000000.000000      7.234192000000000E-02     -1.144180000000000E+02      3.176422000000000E-01      1.642109000000000E+02
5940000000.000000      6.380463000000000E-02     -1.054414000000000E+02      3.117676000000000E-01      1.358906000000000E+02
5960000000.000000      6.163216000000000E-02     -1.001445000000000E+02      2.971954000000000E-01      1.085156000000000E+02
5980000000.000000      5.304337000000000E-02     -1.001406000000000E+02      2.864227000000000E-01      8.153124000000000E+01
6000000000.000000      3.276634000000000E-02     -8.797266000000000E+01      2.801208000000000E-01      5.233593000000000E+01
6020000000.000000      3.151321000000000E-02     -2.815039000000000E+01      2.680664000000000E-01      2.140332000000000E+01
6040000000.000000      6.656647000000000E-02     -1.233252000000000E+01      2.536469000000000E-01     -9.011719000000000E+00
6060000000.000000      1.022568000000000E-01     -2.132226000000000E+01      2.492599000000000E-01     -3.947266000000000E+01
6080000000.000000      1.292648000000000E-01     -3.570117000000000E+01      2.546997000000000E-01     -7.043359000000000E+01
