! Network Analyzer HP8722D
! Hewlett-Packard
! Data name: Linha & Wilkinson
! Saver's name: Rodrigo Anjos
! Comments: Teste da utilização de aquisição
continua pelo VNA HP8722D
! Time and date: 3/9/2025 19:07
!              Frequency                     S11                                                   S21                                                   S12                                                   S22
# HZ  S  MA R 50
3000000000.000000      7.714462000000000E-02      8.778124000000000E+01      4.563904000000000E-01      2.539453000000000E+01
3020000000.000000      9.320068000000000E-02      7.301952000000000E+01      4.574432000000000E-01     -3.515625000000000E+00
3040000000.000000      9.569931000000000E-02      5.672461000000000E+01      4.577332000000000E-01     -3.235742000000000E+01
3060000000.000000      8.359909000000000E-02      4.128711000000000E+01      4.545288000000000E-01     -6.097851000000000E+01
3080000000.000000      6.375122000000000E-02      3.053027000000000E+01      4.550171000000000E-01     -8.937109000000000E+01
3100000000.000000      4.527855000000000E-02      3.101269000000000E+01      4.548035000000000E-01     -1.177891000000000E+02
3120000000.000000      3.787994000000000E-02      4.373047000000000E+01      4.518433000000000E-01     -1.464766000000000E+02
3140000000.000000      3.765678000000000E-02      4.888866000000000E+01      4.479828000000000E-01     -1.750625000000000E+02
3160000000.000000      2.995396000000000E-02      4.985546000000000E+01      4.434052000000000E-01      1.566875000000000E+02
3180000000.000000      1.644516000000000E-02      9.517578000000000E+01      4.434967000000000E-01      1.278789000000000E+02
3200000000.000000      4.663277000000000E-02      1.447578000000000E+02      4.380035000000000E-01      9.836327000000000E+01
3220000000.000000      9.833145000000000E-02      1.374687000000000E+02      4.257507000000000E-01      6.919531000000000E+01
3240000000.000000      1.491699000000000E-01      1.221211000000000E+02      4.134369000000000E-01      4.187696000000000E+01
3260000000.000000      1.917648000000000E-01      1.050039000000000E+02      4.172668000000000E-01      1.442334000000000E+01
3280000000.000000      2.190018000000000E-01      8.753124000000000E+01      4.212494000000000E-01     -1.467383000000000E+01
3300000000.000000      2.294464000000000E-01      7.068359000000000E+01      4.159241000000000E-01     -4.364648000000000E+01
3320000000.000000      2.243042000000000E-01      5.536914000000000E+01      4.196625000000000E-01     -7.108593000000000E+01
3340000000.000000      2.085953000000000E-01      4.263085000000000E+01      4.240723000000000E-01     -9.991796000000000E+01
3360000000.000000      1.850357000000000E-01      3.341601000000000E+01      4.256897000000000E-01     -1.283359000000000E+02
3380000000.000000      1.613922000000000E-01      2.849023000000000E+01      4.314728000000000E-01     -1.564141000000000E+02
3400000000.000000      1.425400000000000E-01      2.660742000000000E+01      4.315338000000000E-01      1.746875000000000E+02
3420000000.000000      1.284256000000000E-01      2.622754000000000E+01      4.336548000000000E-01      1.460547000000000E+02
3440000000.000000      1.161613000000000E-01      2.600390000000000E+01      4.329224000000000E-01      1.173086000000000E+02
3460000000.000000      1.043777000000000E-01      2.715332000000000E+01      4.303894000000000E-01      8.900000000000000E+01
3480000000.000000      9.689713000000000E-02      2.966406000000000E+01      4.309998000000000E-01      6.020312000000000E+01
3500000000.000000      9.317398000000000E-02      3.351563000000000E+01      4.259644000000000E-01      3.108984000000000E+01
3520000000.000000      9.161758000000000E-02      3.688477000000000E+01      4.234467000000000E-01      2.919556000000000E+00
3540000000.000000      9.233475000000000E-02      4.023633000000000E+01      4.247894000000000E-01     -2.566992000000000E+01
3560000000.000000      9.462357000000000E-02      4.563086000000000E+01      4.288177000000000E-01     -5.476757000000000E+01
3580000000.000000      1.025314000000000E-01      5.053124000000000E+01      4.274445000000000E-01     -8.359375000000000E+01
3600000000.000000      1.153870000000000E-01      5.218945000000000E+01      4.273376000000000E-01     -1.118203000000000E+02
3620000000.000000      1.286697000000000E-01      4.911133000000000E+01      4.268951000000000E-01     -1.398984000000000E+02
3640000000.000000      1.338882000000000E-01      4.292578000000000E+01      4.275970000000000E-01     -1.682500000000000E+02
3660000000.000000      1.288834000000000E-01      3.589258000000000E+01      4.264374000000000E-01      1.640078000000000E+02
3680000000.000000      1.163979000000000E-01      3.271093000000000E+01      4.301300000000000E-01      1.362266000000000E+02
3700000000.000000      1.033249000000000E-01      3.632617000000000E+01      4.322205000000000E-01      1.077344000000000E+02
3720000000.000000      1.049347000000000E-01      4.534570000000000E+01      4.299927000000000E-01      7.914063000000000E+01
3740000000.000000      1.222115000000000E-01      4.919922000000000E+01      4.237366000000000E-01      5.067968000000000E+01
3760000000.000000      1.408768000000000E-01      4.573632000000000E+01      4.172058000000000E-01      2.283203000000000E+01
3780000000.000000      1.486206000000000E-01      3.816797000000000E+01      4.169464000000000E-01     -4.947998000000000E+00
3800000000.000000      1.411057000000000E-01      3.088574000000000E+01      4.182129000000000E-01     -3.357812000000000E+01
3820000000.000000      1.231918000000000E-01      2.791699000000000E+01      4.187164000000000E-01     -6.222265000000000E+01
3840000000.000000      1.087189000000000E-01      3.290625000000000E+01      4.173584000000000E-01     -9.134375000000000E+01
3860000000.000000      1.130905000000000E-01      4.127539000000000E+01      4.158173000000000E-01     -1.198945000000000E+02
3880000000.000000      1.314621000000000E-01      4.264257000000000E+01      4.144592000000000E-01     -1.492109000000000E+02
3900000000.000000      1.459656000000000E-01      3.693750000000000E+01      4.081421000000000E-01     -1.774922000000000E+02
3920000000.000000      1.436081000000000E-01      2.927148000000000E+01      4.080658000000000E-01      1.553594000000000E+02
3940000000.000000      1.254425000000000E-01      2.555761000000000E+01      4.149933000000000E-01      1.268594000000000E+02
3960000000.000000      1.076393000000000E-01      3.216406000000000E+01      4.155884000000000E-01      9.761328000000000E+01
3980000000.000000      1.143646000000000E-01      4.582421000000000E+01      4.064331000000000E-01      6.881249000000000E+01
4000000000.000000      1.468277000000000E-01      4.916797000000000E+01      4.008789000000000E-01      4.172461000000000E+01
4020000000.000000      1.798477000000000E-01      4.159961000000000E+01      4.060822000000000E-01      1.391943000000000E+01
4040000000.000000      1.979218000000000E-01      2.877832000000000E+01      4.074097000000000E-01     -1.615039000000000E+01
4060000000.000000      1.929626000000000E-01      1.470752000000000E+01      3.921051000000000E-01     -4.475390000000000E+01
4080000000.000000      1.639328000000000E-01      1.141174000000000E+00      3.911438000000000E-01     -7.144531000000000E+01
4100000000.000000      1.180191000000000E-01     -6.368164000000000E+00      4.015350000000000E-01     -1.002187000000000E+02
4120000000.000000      7.481003000000000E-02      4.215820000000000E+00      4.007111000000000E-01     -1.301719000000000E+02
4140000000.000000      7.305908000000000E-02      3.442383000000000E+01      3.958588000000000E-01     -1.588906000000000E+02
4160000000.000000      9.823227000000000E-02      4.355469000000000E+01      3.962402000000000E-01      1.731562000000000E+02
4180000000.000000      1.160851000000000E-01      4.012695000000000E+01      4.047546000000000E-01      1.443828000000000E+02
4200000000.000000      1.178207000000000E-01      3.619336000000000E+01      4.052734000000000E-01      1.145273000000000E+02
4220000000.000000      1.151772000000000E-01      3.852930000000000E+01      3.971558000000000E-01      8.521093000000000E+01
4240000000.000000      1.238594000000000E-01      4.533593000000000E+01      3.917542000000000E-01      5.684375000000000E+01
4260000000.000000      1.495590000000000E-01      4.734765000000000E+01      3.882599000000000E-01      2.875195000000000E+01
4280000000.000000      1.761093000000000E-01      4.245117000000000E+01      3.877258000000000E-01      3.790283000000000E-01
4300000000.000000      1.925354000000000E-01      3.422656000000000E+01      3.852692000000000E-01     -2.851855000000000E+01
4320000000.000000      1.914597000000000E-01      2.570215000000000E+01      3.806000000000000E-01     -5.704102000000000E+01
4340000000.000000      1.774826000000000E-01      1.991113000000000E+01      3.804779000000000E-01     -8.589844000000000E+01
4360000000.000000      1.638565000000000E-01      1.912305000000000E+01      3.783569000000000E-01     -1.154297000000000E+02
4380000000.000000      1.625366000000000E-01      2.181738000000000E+01      3.767853000000000E-01     -1.447734000000000E+02
4400000000.000000      1.735687000000000E-01      2.172363000000000E+01      3.735352000000000E-01     -1.738984000000000E+02
4420000000.000000      1.840286000000000E-01      1.762988000000000E+01      3.755035000000000E-01      1.574609000000000E+02
4440000000.000000      1.806870000000000E-01      1.171680000000000E+01      3.767395000000000E-01      1.275547000000000E+02
4460000000.000000      1.643982000000000E-01      8.523926000000000E+00      3.713074000000000E-01      9.809765000000000E+01
4480000000.000000      1.459122000000000E-01      1.191162000000000E+01      3.681030000000000E-01      6.973827000000000E+01
4500000000.000000      1.476593000000000E-01      2.105664000000000E+01      3.671112000000000E-01      4.106250000000000E+01
4520000000.000000      1.733246000000000E-01      2.549902000000000E+01      3.637848000000000E-01      1.155615000000000E+01
4540000000.000000      2.046738000000000E-01      2.111816000000000E+01      3.541565000000000E-01     -1.800879000000000E+01
4560000000.000000      2.247925000000000E-01      1.285938000000000E+01      3.461609000000000E-01     -4.615820000000000E+01
4580000000.000000      2.302628000000000E-01      3.890503000000000E+00      3.480988000000000E-01     -7.543359000000000E+01
4600000000.000000      2.220383000000000E-01     -3.265747000000000E+00      3.441162000000000E-01     -1.058945000000000E+02
4620000000.000000      2.094650000000000E-01     -7.542236000000000E+00      3.391724000000000E-01     -1.354766000000000E+02
4640000000.000000      2.032166000000000E-01     -9.728516000000000E+00      3.394012000000000E-01     -1.648906000000000E+02
4660000000.000000      2.034302000000000E-01     -1.265527000000000E+01      3.383331000000000E-01      1.661250000000000E+02
4680000000.000000      2.038498000000000E-01     -1.762207000000000E+01      3.424835000000000E-01      1.369766000000000E+02
4700000000.000000      1.971817000000000E-01     -2.472070000000000E+01      3.448792000000000E-01      1.073125000000000E+02
4720000000.000000      1.813507000000000E-01     -3.202734000000000E+01      3.406982000000000E-01      7.933984000000000E+01
4740000000.000000      1.610641000000000E-01     -3.862305000000000E+01      3.475037000000000E-01      5.184960000000000E+01
4760000000.000000      1.365662000000000E-01     -4.388672000000000E+01      3.477936000000000E-01      2.322754000000000E+01
4780000000.000000      1.108398000000000E-01     -4.842578000000000E+01      3.451691000000000E-01     -5.270752000000000E+00
4800000000.000000      7.903671000000000E-02     -5.317968000000000E+01      3.398895000000000E-01     -3.365234000000000E+01
4820000000.000000      3.686905000000000E-02     -4.868750000000000E+01      3.314667000000000E-01     -6.262500000000000E+01
4840000000.000000      3.358650000000000E-02      5.588672000000000E+01      3.250122000000000E-01     -9.176952000000000E+01
4860000000.000000      1.004105000000000E-01      6.214257000000000E+01      3.178864000000000E-01     -1.225820000000000E+02
4880000000.000000      1.701355000000000E-01      4.925781000000000E+01      2.983398000000000E-01     -1.537656000000000E+02
4900000000.000000      2.289658000000000E-01      3.336914000000000E+01      2.750092000000000E-01      1.785547000000000E+02
4920000000.000000      2.709808000000000E-01      1.675390000000000E+01      2.756958000000000E-01      1.530781000000000E+02
4940000000.000000      2.910004000000000E-01      9.915161000000000E-01      2.895203000000000E-01      1.245313000000000E+02
4960000000.000000      2.885895000000000E-01     -1.433203000000000E+01      2.934723000000000E-01      9.474218000000000E+01
4980000000.000000      2.625580000000000E-01     -2.803320000000000E+01      2.989960000000000E-01      6.756640000000000E+01
5000000000.000000      2.199631000000000E-01     -3.819531000000000E+01      3.140564000000000E-01      4.019140000000000E+01
5020000000.000000      1.727448000000000E-01     -4.075585000000000E+01      3.250427000000000E-01      1.207666000000000E+01
5040000000.000000      1.427841000000000E-01     -3.356250000000000E+01      3.325195000000000E-01     -1.496338000000000E+01
5060000000.000000      1.448822000000000E-01     -2.351855000000000E+01      3.403473000000000E-01     -4.224609000000000E+01
5080000000.000000      1.608658000000000E-01     -2.044336000000000E+01      3.457794000000000E-01     -7.032421000000000E+01
5100000000.000000      1.744995000000000E-01     -2.265137000000000E+01      3.398743000000000E-01     -9.891405000000000E+01
5120000000.000000      1.794739000000000E-01     -2.621289000000000E+01      3.336334000000000E-01     -1.262695000000000E+02
5140000000.000000      1.818314000000000E-01     -2.917089000000000E+01      3.312073000000000E-01     -1.545156000000000E+02
5160000000.000000      1.845245000000000E-01     -3.172070000000000E+01      3.285370000000000E-01      1.760625000000000E+02
5180000000.000000      1.883926000000000E-01     -3.541797000000000E+01      3.241730000000000E-01      1.463125000000000E+02
5200000000.000000      1.911621000000000E-01     -3.986133000000000E+01      3.227234000000000E-01      1.161562000000000E+02
5220000000.000000      1.856537000000000E-01     -4.449219000000000E+01      3.232422000000000E-01      8.639843000000000E+01
5240000000.000000      1.763229000000000E-01     -4.741992000000000E+01      3.283844000000000E-01      5.665429000000000E+01
5260000000.000000      1.680756000000000E-01     -4.760547000000000E+01      3.340149000000000E-01      2.698047000000000E+01
5280000000.000000      1.648102000000000E-01     -4.629687000000000E+01      3.391724000000000E-01     -2.061401000000000E+00
5300000000.000000      1.696320000000000E-01     -4.635547000000000E+01      3.422546000000000E-01     -3.013867000000000E+01
5320000000.000000      1.740112000000000E-01     -4.897265000000000E+01      3.465271000000000E-01     -5.729882000000000E+01
5340000000.000000      1.718521000000000E-01     -5.283984000000000E+01      3.513184000000000E-01     -8.483593000000000E+01
5360000000.000000      1.656418000000000E-01     -5.608007000000000E+01      3.461456000000000E-01     -1.122695000000000E+02
5380000000.000000      1.587524000000000E-01     -5.682031000000000E+01      3.407440000000000E-01     -1.386719000000000E+02
5400000000.000000      1.588898000000000E-01     -5.618164000000000E+01      3.396759000000000E-01     -1.661484000000000E+02
5420000000.000000      1.686935000000000E-01     -5.599023000000000E+01      3.326263000000000E-01      1.657031000000000E+02
5440000000.000000      1.806793000000000E-01     -5.912890000000000E+01      3.271942000000000E-01      1.364609000000000E+02
5460000000.000000      1.873016000000000E-01     -6.538280000000000E+01      3.157501000000000E-01      1.066250000000000E+02
5480000000.000000      1.810760000000000E-01     -7.248047000000000E+01      3.105164000000000E-01      7.711328000000000E+01
5500000000.000000      1.641312000000000E-01     -7.890234000000000E+01      3.126526000000000E-01      4.749413000000000E+01
5520000000.000000      1.408234000000000E-01     -8.261719000000000E+01      3.148956000000000E-01      1.702832000000000E+01
5540000000.000000      1.205864000000000E-01     -8.161327000000000E+01      3.181000000000000E-01     -1.259473000000000E+01
5560000000.000000      1.083832000000000E-01     -7.776953000000000E+01      3.255310000000000E-01     -4.158203000000000E+01
5580000000.000000      1.023636000000000E-01     -7.269921000000000E+01      3.328094000000000E-01     -6.996484000000000E+01
5600000000.000000      1.004028000000000E-01     -6.693359000000000E+01      3.374481000000000E-01     -9.785156000000000E+01
5620000000.000000      1.039085000000000E-01     -5.936718000000000E+01      3.394470000000000E-01     -1.255508000000000E+02
5640000000.000000      1.189995000000000E-01     -5.249804000000000E+01      3.382111000000000E-01     -1.530391000000000E+02
5660000000.000000      1.439133000000000E-01     -5.167578000000000E+01      3.317871000000000E-01      1.798984000000000E+02
5680000000.000000      1.710358000000000E-01     -5.726953000000000E+01      3.232422000000000E-01      1.518359000000000E+02
5700000000.000000      1.896515000000000E-01     -6.758984000000000E+01      3.100739000000000E-01      1.236562000000000E+02
5720000000.000000      1.928101000000000E-01     -8.000391000000000E+01      2.963562000000000E-01      9.605078000000000E+01
5740000000.000000      1.785583000000000E-01     -9.250780000000000E+01      2.904510000000000E-01      6.722656000000000E+01
5760000000.000000      1.500320000000000E-01     -1.022383000000000E+02      2.865143000000000E-01      3.620117000000000E+01
5780000000.000000      1.177216000000000E-01     -1.044727000000000E+02      2.827606000000000E-01      5.604248000000000E+00
5800000000.000000      9.866333000000000E-02     -9.576952000000000E+01      2.838745000000000E-01     -2.489160000000000E+01
5820000000.000000      1.023636000000000E-01     -8.733202000000000E+01      2.909088000000000E-01     -5.499218000000000E+01
5840000000.000000      1.140633000000000E-01     -8.895311000000000E+01      3.009491000000000E-01     -8.534374000000000E+01
5860000000.000000      1.173973000000000E-01     -9.674999000000000E+01      3.019409000000000E-01     -1.143047000000000E+02
5880000000.000000      1.082611000000000E-01     -1.071680000000000E+02      3.049164000000000E-01     -1.414687000000000E+02
5900000000.000000      8.965683000000000E-02     -1.145586000000000E+02      3.145905000000000E-01     -1.681484000000000E+02
5920000000.000000      7.084656000000000E-02     -1.138008000000000E+02      3.191681000000000E-01      1.640547000000000E+02
5940000000.000000      6.323624000000000E-02     -1.037226000000000E+02      3.133850000000000E-01      1.356172000000000E+02
5960000000.000000      6.224442000000000E-02     -9.907030000000000E+01      2.986450000000000E-01      1.083125000000000E+02
5980000000.000000      5.278587000000000E-02     -9.878515000000000E+01      2.878876000000000E-01      8.119532000000000E+01
6000000000.000000      3.304100000000000E-02     -8.581640000000000E+01      2.816925000000000E-01      5.191406000000000E+01
6020000000.000000      3.267670000000000E-02     -2.736035000000000E+01      2.689362000000000E-01      2.091015000000000E+01
6040000000.000000      6.818390000000000E-02     -1.261816000000000E+01      2.553253000000000E-01     -9.455566000000000E+00
6060000000.000000      1.041183000000000E-01     -2.117774000000000E+01      2.507935000000000E-01     -3.981640000000000E+01
6080000000.000000      1.308975000000000E-01     -3.541601000000000E+01      2.563782000000000E-01     -7.067968000000000E+01
