! Network Analyzer HP8722D
! Hewlett-Packard
! Data name: Linha & Wilkinson
! Saver's name: Rodrigo Anjos
! Comments: Teste da utilização de aquisição
continua pelo VNA HP8722D
! Time and date: 3/9/2025 17:41
!              Frequency                     S11                                                   S21                                                   S12                                                   S22
# HZ  S  MA R 50
3000000000.000000      7.615280000000000E-02      8.746874000000000E+01      4.554901000000000E-01      2.558496000000000E+01
3020000000.000000      9.283829000000000E-02      7.264453000000000E+01      4.554749000000000E-01     -3.353638000000000E+00
3040000000.000000      9.542847000000000E-02      5.669531000000000E+01      4.552155000000000E-01     -3.240234000000000E+01
3060000000.000000      8.410263000000000E-02      4.146874000000000E+01      4.532623000000000E-01     -6.081445000000000E+01
3080000000.000000      6.372070000000000E-02      3.018555000000000E+01      4.540710000000000E-01     -8.924219000000000E+01
3100000000.000000      4.545784000000000E-02      3.052051000000000E+01      4.520111000000000E-01     -1.180898000000000E+02
3120000000.000000      3.800583000000000E-02      4.337110000000000E+01      4.500885000000000E-01     -1.462265000000000E+02
3140000000.000000      3.776741000000000E-02      4.872656000000000E+01      4.451447000000000E-01     -1.749766000000000E+02
3160000000.000000      2.987576000000000E-02      4.885156000000000E+01      4.417572000000000E-01      1.566875000000000E+02
3180000000.000000      1.617908000000000E-02      9.523046000000000E+01      4.413147000000000E-01      1.278008000000000E+02
3200000000.000000      4.605865000000000E-02      1.442500000000000E+02      4.357605000000000E-01      9.845312000000000E+01
3220000000.000000      9.694672000000000E-02      1.372813000000000E+02      4.237061000000000E-01      6.917969000000000E+01
3240000000.000000      1.480560000000000E-01      1.218203000000000E+02      4.101257000000000E-01      4.186719000000000E+01
3260000000.000000      1.904068000000000E-01      1.046797000000000E+02      4.137573000000000E-01      1.442090000000000E+01
3280000000.000000      2.177200000000000E-01      8.752733000000000E+01      4.188538000000000E-01     -1.480566000000000E+01
3300000000.000000      2.289886000000000E-01      7.062890000000000E+01      4.141235000000000E-01     -4.342969000000000E+01
3320000000.000000      2.241287000000000E-01      5.524414000000000E+01      4.162750000000000E-01     -7.114843000000000E+01
3340000000.000000      2.082901000000000E-01      4.253711000000000E+01      4.224243000000000E-01     -9.979687000000000E+01
3360000000.000000      1.849060000000000E-01      3.316601000000000E+01      4.230347000000000E-01     -1.281563000000000E+02
3380000000.000000      1.615448000000000E-01      2.824219000000000E+01      4.290466000000000E-01     -1.563594000000000E+02
3400000000.000000      1.425705000000000E-01      2.629980000000000E+01      4.305878000000000E-01      1.747344000000000E+02
3420000000.000000      1.286087000000000E-01      2.600000000000000E+01      4.317169000000000E-01      1.461875000000000E+02
3440000000.000000      1.162643000000000E-01      2.564160000000000E+01      4.299927000000000E-01      1.171484000000000E+02
3460000000.000000      1.045685000000000E-01      2.651953000000000E+01      4.256897000000000E-01      8.895702000000000E+01
3480000000.000000      9.659576000000000E-02      2.903809000000000E+01      4.286194000000000E-01      6.033203000000000E+01
3500000000.000000      9.243774000000000E-02      3.318554000000000E+01      4.246368000000000E-01      3.116406000000000E+01
3520000000.000000      9.120178000000000E-02      3.659570000000000E+01      4.216003000000000E-01      2.918213000000000E+00
3540000000.000000      9.191895000000000E-02      3.984570000000000E+01      4.239197000000000E-01     -2.552148000000000E+01
3560000000.000000      9.424973000000000E-02      4.512109000000000E+01      4.263458000000000E-01     -5.456640000000000E+01
3580000000.000000      1.012955000000000E-01      5.032227000000000E+01      4.246216000000000E-01     -8.328905000000000E+01
3600000000.000000      1.144867000000000E-01      5.151757000000000E+01      4.256897000000000E-01     -1.116172000000000E+02
3620000000.000000      1.282501000000000E-01      4.866211000000000E+01      4.261017000000000E-01     -1.397656000000000E+02
3640000000.000000      1.337433000000000E-01      4.248632000000000E+01      4.257355000000000E-01     -1.680000000000000E+02
3660000000.000000      1.288605000000000E-01      3.559961000000000E+01      4.233856000000000E-01      1.640000000000000E+02
3680000000.000000      1.162834000000000E-01      3.229101000000000E+01      4.284973000000000E-01      1.364687000000000E+02
3700000000.000000      1.036224000000000E-01      3.576172000000000E+01      4.286652000000000E-01      1.077500000000000E+02
3720000000.000000      1.039085000000000E-01      4.477539000000000E+01      4.273529000000000E-01      7.931641000000000E+01
3740000000.000000      1.217880000000000E-01      4.879296000000000E+01      4.214630000000000E-01      5.071875000000000E+01
3760000000.000000      1.404800000000000E-01      4.547461000000000E+01      4.152527000000000E-01      2.285351000000000E+01
3780000000.000000      1.478119000000000E-01      3.784961000000000E+01      4.166565000000000E-01     -4.821777000000000E+00
3800000000.000000      1.410675000000000E-01      3.045898000000000E+01      4.152985000000000E-01     -3.356054000000000E+01
3820000000.000000      1.227837000000000E-01      2.731445000000000E+01      4.166412000000000E-01     -6.238476000000000E+01
3840000000.000000      1.086693000000000E-01      3.235742000000000E+01      4.154053000000000E-01     -9.100000000000000E+01
3860000000.000000      1.125870000000000E-01      4.063281000000000E+01      4.143829000000000E-01     -1.200156000000000E+02
3880000000.000000      1.307602000000000E-01      4.239648000000000E+01      4.131012000000000E-01     -1.490703000000000E+02
3900000000.000000      1.452026000000000E-01      3.664648000000000E+01      4.056854000000000E-01     -1.770781000000000E+02
3920000000.000000      1.437454000000000E-01      2.883008000000000E+01      4.053802000000000E-01      1.554453000000000E+02
3940000000.000000      1.255035000000000E-01      2.506738000000000E+01      4.151764000000000E-01      1.269219000000000E+02
3960000000.000000      1.073761000000000E-01      3.145312000000000E+01      4.132690000000000E-01      9.751562000000000E+01
3980000000.000000      1.140060000000000E-01      4.529492000000000E+01      4.054108000000000E-01      6.912890000000000E+01
4000000000.000000      1.455841000000000E-01      4.861523000000000E+01      3.996277000000000E-01      4.198242000000000E+01
4020000000.000000      1.789551000000000E-01      4.121094000000000E+01      4.043121000000000E-01      1.442627000000000E+01
4040000000.000000      1.975708000000000E-01      2.843652000000000E+01      4.050140000000000E-01     -1.584668000000000E+01
4060000000.000000      1.920319000000000E-01      1.437109000000000E+01      3.907623000000000E-01     -4.440039000000000E+01
4080000000.000000      1.636200000000000E-01      8.624268000000000E-01      3.892670000000000E-01     -7.118750000000000E+01
4100000000.000000      1.178169000000000E-01     -7.025879000000000E+00      3.994751000000000E-01     -9.988281000000000E+01
4120000000.000000      7.493210000000000E-02      3.234009000000000E+00      3.987885000000000E-01     -1.300703000000000E+02
4140000000.000000      7.267380000000000E-02      3.351758000000000E+01      3.935699000000000E-01     -1.587812000000000E+02
4160000000.000000      9.747696000000000E-02      4.278125000000000E+01      3.940277000000000E-01      1.732578000000000E+02
4180000000.000000      1.151619000000000E-01      3.959961000000000E+01      4.024048000000000E-01      1.445234000000000E+02
4200000000.000000      1.171722000000000E-01      3.589062000000000E+01      4.044342000000000E-01      1.145039000000000E+02
4220000000.000000      1.145554000000000E-01      3.807422000000000E+01      3.953705000000000E-01      8.554688000000000E+01
4240000000.000000      1.231346000000000E-01      4.483398000000000E+01      3.899231000000000E-01      5.687695000000000E+01
4260000000.000000      1.481018000000000E-01      4.694140000000000E+01      3.863068000000000E-01      2.882813000000000E+01
4280000000.000000      1.748810000000000E-01      4.217773000000000E+01      3.870239000000000E-01      5.740356000000000E-01
4300000000.000000      1.907730000000000E-01      3.376953000000000E+01      3.824463000000000E-01     -2.823242000000000E+01
4320000000.000000      1.905212000000000E-01      2.550976000000000E+01      3.799896000000000E-01     -5.702734000000000E+01
4340000000.000000      1.770706000000000E-01      1.933008000000000E+01      3.777466000000000E-01     -8.573828000000000E+01
4360000000.000000      1.632309000000000E-01      1.863770000000000E+01      3.769226000000000E-01     -1.152305000000000E+02
4380000000.000000      1.615753000000000E-01      2.129101000000000E+01      3.740234000000000E-01     -1.446328000000000E+02
4400000000.000000      1.726532000000000E-01      2.132031000000000E+01      3.722839000000000E-01     -1.738125000000000E+02
4420000000.000000      1.827698000000000E-01      1.724902000000000E+01      3.730316000000000E-01      1.574609000000000E+02
4440000000.000000      1.800537000000000E-01      1.118945000000000E+01      3.763733000000000E-01      1.280547000000000E+02
4460000000.000000      1.634445000000000E-01      8.092773000000000E+00      3.699341000000000E-01      9.820702000000000E+01
4480000000.000000      1.451416000000000E-01      1.160156000000000E+01      3.654022000000000E-01      6.994141000000000E+01
4500000000.000000      1.467133000000000E-01      2.069336000000000E+01      3.655090000000000E-01      4.106445000000000E+01
4520000000.000000      1.725540000000000E-01      2.506738000000000E+01      3.620453000000000E-01      1.163428000000000E+01
4540000000.000000      2.033386000000000E-01      2.095313000000000E+01      3.508759000000000E-01     -1.771973000000000E+01
4560000000.000000      2.238770000000000E-01      1.281250000000000E+01      3.460236000000000E-01     -4.597265000000000E+01
4580000000.000000      2.290726000000000E-01      3.733887000000000E+00      3.473206000000000E-01     -7.527344000000000E+01
4600000000.000000      2.209396000000000E-01     -3.536255000000000E+00      3.424530000000000E-01     -1.058086000000000E+02
4620000000.000000      2.086487000000000E-01     -7.811279000000000E+00      3.375397000000000E-01     -1.352500000000000E+02
4640000000.000000      2.026901000000000E-01     -1.003613000000000E+01      3.372955000000000E-01     -1.649219000000000E+02
4660000000.000000      2.020874000000000E-01     -1.295313000000000E+01      3.380585000000000E-01      1.661328000000000E+02
4680000000.000000      2.030029000000000E-01     -1.807812000000000E+01      3.416290000000000E-01      1.370781000000000E+02
4700000000.000000      1.970291000000000E-01     -2.503125000000000E+01      3.423004000000000E-01      1.072695000000000E+02
4720000000.000000      1.815033000000000E-01     -3.236719000000000E+01      3.392029000000000E-01      7.965234000000000E+01
4740000000.000000      1.611252000000000E-01     -3.898828000000000E+01      3.462067000000000E-01      5.195898000000000E+01
4760000000.000000      1.369019000000000E-01     -4.422461000000000E+01      3.471069000000000E-01      2.336230000000000E+01
4780000000.000000      1.114120000000000E-01     -4.892383000000000E+01      3.428040000000000E-01     -5.012695000000000E+00
4800000000.000000      7.988358000000000E-02     -5.367969000000000E+01      3.387909000000000E-01     -3.351563000000000E+01
4820000000.000000      3.735161000000000E-02     -5.097070000000000E+01      3.311615000000000E-01     -6.246875000000000E+01
4840000000.000000      3.189087000000000E-02      5.572656000000000E+01      3.240051000000000E-01     -9.169531000000000E+01
4860000000.000000      9.812164000000000E-02      6.224023000000000E+01      3.166199000000000E-01     -1.223242000000000E+02
4880000000.000000      1.669693000000000E-01      4.914648000000000E+01      2.966309000000000E-01     -1.535469000000000E+02
4900000000.000000      2.271957000000000E-01      3.334961000000000E+01      2.743073000000000E-01      1.787969000000000E+02
4920000000.000000      2.685547000000000E-01      1.677148000000000E+01      2.738190000000000E-01      1.534141000000000E+02
4940000000.000000      2.895813000000000E-01      8.486938000000000E-01      2.871552000000000E-01      1.247187000000000E+02
4960000000.000000      2.875824000000000E-01     -1.435547000000000E+01      2.919617000000000E-01      9.477343000000000E+01
4980000000.000000      2.627106000000000E-01     -2.808008000000000E+01      2.980499000000000E-01      6.773438000000000E+01
5000000000.000000      2.197647000000000E-01     -3.826562000000000E+01      3.126221000000000E-01      4.023438000000000E+01
5020000000.000000      1.728363000000000E-01     -4.097265000000000E+01      3.236694000000000E-01      1.226758000000000E+01
5040000000.000000      1.432877000000000E-01     -3.406445000000000E+01      3.309479000000000E-01     -1.493457000000000E+01
5060000000.000000      1.446152000000000E-01     -2.393261000000000E+01      3.391571000000000E-01     -4.212110000000000E+01
5080000000.000000      1.602325000000000E-01     -2.072363000000000E+01      3.447876000000000E-01     -7.043359000000000E+01
5100000000.000000      1.738968000000000E-01     -2.294238000000000E+01      3.386993000000000E-01     -9.879686000000000E+01
5120000000.000000      1.791306000000000E-01     -2.659668000000000E+01      3.328857000000000E-01     -1.260898000000000E+02
5140000000.000000      1.814728000000000E-01     -2.950293000000000E+01      3.302917000000000E-01     -1.543203000000000E+02
5160000000.000000      1.847305000000000E-01     -3.220312000000000E+01      3.264923000000000E-01      1.762891000000000E+02
5180000000.000000      1.892624000000000E-01     -3.572851000000000E+01      3.230286000000000E-01      1.463984000000000E+02
5200000000.000000      1.911163000000000E-01     -4.026563000000000E+01      3.216553000000000E-01      1.164023000000000E+02
5220000000.000000      1.863403000000000E-01     -4.476367000000000E+01      3.214874000000000E-01      8.657812000000000E+01
5240000000.000000      1.760788000000000E-01     -4.778320000000000E+01      3.268127000000000E-01      5.689648000000000E+01
5260000000.000000      1.673584000000000E-01     -4.795117000000000E+01      3.324738000000000E-01      2.704492000000000E+01
5280000000.000000      1.643982000000000E-01     -4.673047000000000E+01      3.374939000000000E-01     -1.922607000000000E+00
5300000000.000000      1.687851000000000E-01     -4.685156000000000E+01      3.407135000000000E-01     -3.009375000000000E+01
5320000000.000000      1.732864000000000E-01     -4.943945000000000E+01      3.451385000000000E-01     -5.700585000000000E+01
5340000000.000000      1.714478000000000E-01     -5.322656000000000E+01      3.496552000000000E-01     -8.477734000000000E+01
5360000000.000000      1.650772000000000E-01     -5.644726000000000E+01      3.448944000000000E-01     -1.121172000000000E+02
5380000000.000000      1.586075000000000E-01     -5.747656000000000E+01      3.397980000000000E-01     -1.384766000000000E+02
5400000000.000000      1.585541000000000E-01     -5.654297000000000E+01      3.379822000000000E-01     -1.658437000000000E+02
5420000000.000000      1.682892000000000E-01     -5.633398000000000E+01      3.315735000000000E-01      1.657422000000000E+02
5440000000.000000      1.800919000000000E-01     -5.945117000000000E+01      3.255157000000000E-01      1.366250000000000E+02
5460000000.000000      1.861649000000000E-01     -6.551171000000000E+01      3.150635000000000E-01      1.068476000000000E+02
5480000000.000000      1.807098000000000E-01     -7.271093000000000E+01      3.082581000000000E-01      7.726953000000000E+01
5500000000.000000      1.634674000000000E-01     -7.922265000000000E+01      3.106995000000000E-01      4.766992000000000E+01
5520000000.000000      1.406708000000000E-01     -8.300781000000000E+01      3.132935000000000E-01      1.722656000000000E+01
5540000000.000000      1.209373000000000E-01     -8.225389000000000E+01      3.171844000000000E-01     -1.249854000000000E+01
5560000000.000000      1.083374000000000E-01     -7.810547000000000E+01      3.242035000000000E-01     -4.142774000000000E+01
5580000000.000000      1.029282000000000E-01     -7.289453000000000E+01      3.313446000000000E-01     -6.982812000000000E+01
5600000000.000000      1.006126000000000E-01     -6.712109000000000E+01      3.367767000000000E-01     -9.762890000000000E+01
5620000000.000000      1.040001000000000E-01     -5.955859000000000E+01      3.388824000000000E-01     -1.253281000000000E+02
5640000000.000000      1.178627000000000E-01     -5.279491000000000E+01      3.366241000000000E-01     -1.529297000000000E+02
5660000000.000000      1.429443000000000E-01     -5.201562000000000E+01      3.300934000000000E-01      1.799453000000000E+02
5680000000.000000      1.700897000000000E-01     -5.754687000000000E+01      3.219299000000000E-01      1.521719000000000E+02
5700000000.000000      1.891937000000000E-01     -6.796484000000000E+01      3.084717000000000E-01      1.239453000000000E+02
5720000000.000000      1.929932000000000E-01     -8.031641000000000E+01      2.948761000000000E-01      9.618750000000000E+01
5740000000.000000      1.791840000000000E-01     -9.271093000000000E+01      2.893219000000000E-01      6.751171000000000E+01
5760000000.000000      1.510544000000000E-01     -1.026133000000000E+02      2.845764000000000E-01      3.642773000000000E+01
5780000000.000000      1.185036000000000E-01     -1.048125000000000E+02      2.806244000000000E-01      5.731934000000000E+00
5800000000.000000      9.878922000000000E-02     -9.644140000000000E+01      2.821808000000000E-01     -2.445996000000000E+01
5820000000.000000      1.013947000000000E-01     -8.810547000000000E+01      2.895203000000000E-01     -5.475195000000000E+01
5840000000.000000      1.130371000000000E-01     -8.929296000000000E+01      2.992096000000000E-01     -8.519140000000000E+01
5860000000.000000      1.167679000000000E-01     -9.732811000000000E+01      3.012848000000000E-01     -1.142500000000000E+02
5880000000.000000      1.082726000000000E-01     -1.078281000000000E+02      3.033142000000000E-01     -1.413359000000000E+02
5900000000.000000      9.049606000000000E-02     -1.153008000000000E+02      3.131104000000000E-01     -1.680000000000000E+02
5920000000.000000      7.159805000000000E-02     -1.145469000000000E+02      3.179321000000000E-01      1.641406000000000E+02
5940000000.000000      6.370544000000000E-02     -1.049648000000000E+02      3.118896000000000E-01      1.358984000000000E+02
5960000000.000000      6.167221000000000E-02     -1.006875000000000E+02      2.976379000000000E-01      1.084453000000000E+02
5980000000.000000      5.256271000000000E-02     -9.999609000000000E+01      2.870636000000000E-01      8.139063000000000E+01
6000000000.000000      3.243828000000000E-02     -8.823437000000000E+01      2.800446000000000E-01      5.223437000000000E+01
6020000000.000000      3.173637000000000E-02     -2.714453000000000E+01      2.677155000000000E-01      2.133399000000000E+01
6040000000.000000      6.639481000000000E-02     -1.201367000000000E+01      2.537994000000000E-01     -9.135254000000000E+00
6060000000.000000      1.023216000000000E-01     -2.090234000000000E+01      2.489243000000000E-01     -3.953711000000000E+01
6080000000.000000      1.295090000000000E-01     -3.570313000000000E+01      2.549133000000000E-01     -7.044922000000000E+01
