! Network Analyzer HP8722D
! Hewlett-Packard
! Data name: Linha & Wilkinson
! Saver's name: Rodrigo Anjos
! Comments: Teste da utilização de aquisição
continua pelo VNA HP8722D
! Time and date: 3/9/2025 17:37
!              Frequency                     S11                                                   S21                                                   S12                                                   S22
# HZ  S  MA R 50
3000000000.000000      7.595062000000000E-02      8.727343000000000E+01      4.549408000000000E-01      2.559179000000000E+01
3020000000.000000      9.288788000000000E-02      7.281640000000000E+01      4.548187000000000E-01     -3.283569000000000E+00
3040000000.000000      9.556961000000000E-02      5.630273000000000E+01      4.543457000000000E-01     -3.218359000000000E+01
3060000000.000000      8.401871000000000E-02      4.106445000000000E+01      4.533539000000000E-01     -6.078515000000000E+01
3080000000.000000      6.453705000000000E-02      3.032617000000000E+01      4.533234000000000E-01     -8.937500000000000E+01
3100000000.000000      4.596901000000000E-02      3.015137000000000E+01      4.521179000000000E-01     -1.177930000000000E+02
3120000000.000000      3.844452000000000E-02      4.237890000000000E+01      4.505920000000000E-01     -1.463438000000000E+02
3140000000.000000      3.799248000000000E-02      4.844727000000000E+01      4.450531000000000E-01     -1.748594000000000E+02
3160000000.000000      3.020191000000000E-02      4.887890000000000E+01      4.415741000000000E-01      1.568359000000000E+02
3180000000.000000      1.636600000000000E-02      9.476171000000000E+01      4.403076000000000E-01      1.280703000000000E+02
3200000000.000000      4.581451000000000E-02      1.440938000000000E+02      4.337006000000000E-01      9.846483000000000E+01
3220000000.000000      9.671783000000000E-02      1.370938000000000E+02      4.220428000000000E-01      6.913671000000000E+01
3240000000.000000      1.474533000000000E-01      1.217031000000000E+02      4.106903000000000E-01      4.203125000000000E+01
3260000000.000000      1.896667000000000E-01      1.047109000000000E+02      4.145660000000000E-01      1.456787000000000E+01
3280000000.000000      2.175598000000000E-01      8.726563000000000E+01      4.181671000000000E-01     -1.495410000000000E+01
3300000000.000000      2.287140000000000E-01      7.048437000000000E+01      4.144897000000000E-01     -4.335938000000000E+01
3320000000.000000      2.239532000000000E-01      5.530663000000000E+01      4.169006000000000E-01     -7.104297000000000E+01
3340000000.000000      2.083282000000000E-01      4.242383000000000E+01      4.224548000000000E-01     -9.987499000000000E+01
3360000000.000000      1.849442000000000E-01      3.313086000000000E+01      4.226990000000000E-01     -1.281328000000000E+02
3380000000.000000      1.616058000000000E-01      2.820508000000000E+01      4.287415000000000E-01     -1.562813000000000E+02
3400000000.000000      1.425552000000000E-01      2.606836000000000E+01      4.305725000000000E-01      1.748203000000000E+02
3420000000.000000      1.288910000000000E-01      2.573925000000000E+01      4.300537000000000E-01      1.462891000000000E+02
3440000000.000000      1.162949000000000E-01      2.556738000000000E+01      4.304352000000000E-01      1.174336000000000E+02
3460000000.000000      1.049728000000000E-01      2.642871000000000E+01      4.265594000000000E-01      8.902735000000000E+01
3480000000.000000      9.671021000000000E-02      2.906250000000000E+01      4.291229000000000E-01      6.036133000000000E+01
3500000000.000000      9.280777000000000E-02      3.308594000000000E+01      4.231567000000000E-01      3.130078000000000E+01
3520000000.000000      9.148026000000000E-02      3.626953000000000E+01      4.214020000000000E-01      3.137939000000000E+00
3540000000.000000      9.210205000000000E-02      3.984961000000000E+01      4.236298000000000E-01     -2.543066000000000E+01
3560000000.000000      9.406281000000000E-02      4.490624000000000E+01      4.248047000000000E-01     -5.456055000000000E+01
3580000000.000000      1.015472000000000E-01      5.007813000000000E+01      4.250183000000000E-01     -8.315624000000000E+01
3600000000.000000      1.145439000000000E-01      5.133984000000000E+01      4.230957000000000E-01     -1.116016000000000E+02
3620000000.000000      1.282043000000000E-01      4.836719000000000E+01      4.244537000000000E-01     -1.396953000000000E+02
3640000000.000000      1.340179000000000E-01      4.228906000000000E+01      4.258118000000000E-01     -1.679766000000000E+02
3660000000.000000      1.290588000000000E-01      3.553320000000000E+01      4.241638000000000E-01      1.641016000000000E+02
3680000000.000000      1.167946000000000E-01      3.222656000000000E+01      4.276276000000000E-01      1.364453000000000E+02
3700000000.000000      1.040077000000000E-01      3.551172000000000E+01      4.280243000000000E-01      1.077031000000000E+02
3720000000.000000      1.043854000000000E-01      4.450976000000000E+01      4.262848000000000E-01      7.928124000000000E+01
3740000000.000000      1.216354000000000E-01      4.866405000000000E+01      4.210968000000000E-01      5.082226000000000E+01
3760000000.000000      1.403885000000000E-01      4.517578000000000E+01      4.148560000000000E-01      2.299511000000000E+01
3780000000.000000      1.479721000000000E-01      3.776172000000000E+01      4.145508000000000E-01     -4.824463000000000E+00
3800000000.000000      1.412430000000000E-01      3.014355000000000E+01      4.173279000000000E-01     -3.328516000000000E+01
3820000000.000000      1.230431000000000E-01      2.705859000000000E+01      4.167786000000000E-01     -6.214257000000000E+01
3840000000.000000      1.085663000000000E-01      3.210351000000000E+01      4.144287000000000E-01     -9.104296000000000E+01
3860000000.000000      1.128464000000000E-01      4.040625000000000E+01      4.145203000000000E-01     -1.196992000000000E+02
3880000000.000000      1.309128000000000E-01      4.226367000000000E+01      4.117432000000000E-01     -1.490625000000000E+02
3900000000.000000      1.451187000000000E-01      3.653711000000000E+01      4.048462000000000E-01     -1.773828000000000E+02
3920000000.000000      1.430664000000000E-01      2.875391000000000E+01      4.053345000000000E-01      1.555000000000000E+02
3940000000.000000      1.256561000000000E-01      2.503418000000000E+01      4.131165000000000E-01      1.270625000000000E+02
3960000000.000000      1.074104000000000E-01      3.124218000000000E+01      4.129486000000000E-01      9.787109000000000E+01
3980000000.000000      1.139565000000000E-01      4.486133000000000E+01      4.044952000000000E-01      6.912499000000000E+01
4000000000.000000      1.455231000000000E-01      4.836132000000000E+01      3.973846000000000E-01      4.208398000000000E+01
4020000000.000000      1.786270000000000E-01      4.112695000000000E+01      4.036102000000000E-01      1.421045000000000E+01
4040000000.000000      1.975479000000000E-01      2.845996000000000E+01      4.038849000000000E-01     -1.575439000000000E+01
4060000000.000000      1.924591000000000E-01      1.431104000000000E+01      3.908691000000000E-01     -4.457227000000000E+01
4080000000.000000      1.635971000000000E-01      8.500671000000000E-01      3.897552000000000E-01     -7.118750000000000E+01
4100000000.000000      1.177864000000000E-01     -6.929688000000000E+00      3.981781000000000E-01     -9.999218000000000E+01
4120000000.000000      7.548523000000000E-02      3.076172000000000E+00      3.980560000000000E-01     -1.299766000000000E+02
4140000000.000000      7.275009000000000E-02      3.310351000000000E+01      3.933716000000000E-01     -1.587500000000000E+02
4160000000.000000      9.709549000000000E-02      4.265234000000000E+01      3.943481000000000E-01      1.731641000000000E+02
4180000000.000000      1.149483000000000E-01      3.935937000000000E+01      4.026031000000000E-01      1.445625000000000E+02
4200000000.000000      1.171112000000000E-01      3.576562000000000E+01      4.021759000000000E-01      1.146836000000000E+02
4220000000.000000      1.146355000000000E-01      3.783398000000000E+01      3.962555000000000E-01      8.526171000000000E+01
4240000000.000000      1.233177000000000E-01      4.454102000000000E+01      3.888397000000000E-01      5.693945000000000E+01
4260000000.000000      1.479263000000000E-01      4.679688000000000E+01      3.855591000000000E-01      2.898144000000000E+01
4280000000.000000      1.748734000000000E-01      4.211523000000000E+01      3.854523000000000E-01      4.284668000000000E-01
4300000000.000000      1.904755000000000E-01      3.391797000000000E+01      3.825531000000000E-01     -2.828027000000000E+01
4320000000.000000      1.899719000000000E-01      2.539551000000000E+01      3.789825000000000E-01     -5.697656000000000E+01
4340000000.000000      1.773148000000000E-01      1.939062000000000E+01      3.781128000000000E-01     -8.599609000000000E+01
4360000000.000000      1.632538000000000E-01      1.837305000000000E+01      3.756714000000000E-01     -1.151719000000000E+02
4380000000.000000      1.618118000000000E-01      2.111523000000000E+01      3.735809000000000E-01     -1.445234000000000E+02
4400000000.000000      1.725693000000000E-01      2.125000000000000E+01      3.715668000000000E-01     -1.735859000000000E+02
4420000000.000000      1.823120000000000E-01      1.723535000000000E+01      3.727722000000000E-01      1.575312000000000E+02
4440000000.000000      1.800385000000000E-01      1.128418000000000E+01      3.757019000000000E-01      1.278711000000000E+02
4460000000.000000      1.637115000000000E-01      8.030762000000000E+00      3.687286000000000E-01      9.840624000000000E+01
4480000000.000000      1.449432000000000E-01      1.139551000000000E+01      3.649597000000000E-01      7.013672000000000E+01
4500000000.000000      1.463928000000000E-01      2.035840000000000E+01      3.653259000000000E-01      4.119141000000000E+01
4520000000.000000      1.723404000000000E-01      2.489062000000000E+01      3.607788000000000E-01      1.182373000000000E+01
4540000000.000000      2.025909000000000E-01      2.067871000000000E+01      3.515167000000000E-01     -1.765527000000000E+01
4560000000.000000      2.234955000000000E-01      1.259424000000000E+01      3.448334000000000E-01     -4.604297000000000E+01
4580000000.000000      2.287521000000000E-01      3.662476000000000E+00      3.459320000000000E-01     -7.532812000000000E+01
4600000000.000000      2.210922000000000E-01     -3.663940000000000E+00      3.426208000000000E-01     -1.057070000000000E+02
4620000000.000000      2.086487000000000E-01     -7.979004000000000E+00      3.364563000000000E-01     -1.353437000000000E+02
4640000000.000000      2.022476000000000E-01     -1.024072000000000E+01      3.357239000000000E-01     -1.645937000000000E+02
4660000000.000000      2.023087000000000E-01     -1.304102000000000E+01      3.363037000000000E-01      1.661328000000000E+02
4680000000.000000      2.031021000000000E-01     -1.806933000000000E+01      3.414001000000000E-01      1.372813000000000E+02
4700000000.000000      1.968689000000000E-01     -2.511133000000000E+01      3.410492000000000E-01      1.075664000000000E+02
4720000000.000000      1.818848000000000E-01     -3.238672000000000E+01      3.388367000000000E-01      7.969921000000000E+01
4740000000.000000      1.609421000000000E-01     -3.906836000000000E+01      3.454285000000000E-01      5.203515000000000E+01
4760000000.000000      1.372223000000000E-01     -4.445117000000000E+01      3.460846000000000E-01      2.332910000000000E+01
4780000000.000000      1.120300000000000E-01     -4.903515000000000E+01      3.428040000000000E-01     -4.915039000000000E+00
4800000000.000000      8.033371000000000E-02     -5.378906000000000E+01      3.381958000000000E-01     -3.342773000000000E+01
4820000000.000000      3.753281000000000E-02     -5.139257000000000E+01      3.298187000000000E-01     -6.247460000000000E+01
4840000000.000000      3.125381000000000E-02      5.508984000000000E+01      3.230743000000000E-01     -9.158983000000000E+01
4860000000.000000      9.707260000000000E-02      6.242969000000000E+01      3.156433000000000E-01     -1.223476000000000E+02
4880000000.000000      1.664581000000000E-01      4.894336000000000E+01      2.959290000000000E-01     -1.534297000000000E+02
4900000000.000000      2.255478000000000E-01      3.327343000000000E+01      2.734222000000000E-01      1.789063000000000E+02
4920000000.000000      2.680969000000000E-01      1.684570000000000E+01      2.739105000000000E-01      1.533594000000000E+02
4940000000.000000      2.894287000000000E-01      9.187317000000000E-01      2.868042000000000E-01      1.247344000000000E+02
4960000000.000000      2.868652000000000E-01     -1.437598000000000E+01      2.913666000000000E-01      9.495312000000000E+01
4980000000.000000      2.622833000000000E-01     -2.816797000000000E+01      2.973480000000000E-01      6.764453000000000E+01
5000000000.000000      2.202377000000000E-01     -3.822266000000000E+01      3.118286000000000E-01      4.032617000000000E+01
5020000000.000000      1.728973000000000E-01     -4.123047000000000E+01      3.223877000000000E-01      1.236084000000000E+01
5040000000.000000      1.433792000000000E-01     -3.419140000000000E+01      3.301239000000000E-01     -1.485791000000000E+01
5060000000.000000      1.444550000000000E-01     -2.412402000000000E+01      3.388519000000000E-01     -4.202148000000000E+01
5080000000.000000      1.602631000000000E-01     -2.090039000000000E+01      3.439941000000000E-01     -7.019531000000000E+01
5100000000.000000      1.741638000000000E-01     -2.309082000000000E+01      3.376465000000000E-01     -9.856249000000000E+01
5120000000.000000      1.790848000000000E-01     -2.664063000000000E+01      3.321533000000000E-01     -1.260469000000000E+02
5140000000.000000      1.813583000000000E-01     -2.961426000000000E+01      3.301086000000000E-01     -1.543359000000000E+02
5160000000.000000      1.842499000000000E-01     -3.238672000000000E+01      3.265228000000000E-01      1.763203000000000E+02
5180000000.000000      1.892548000000000E-01     -3.567773000000000E+01      3.227539000000000E-01      1.466172000000000E+02
5200000000.000000      1.913681000000000E-01     -4.051953000000000E+01      3.213806000000000E-01      1.165469000000000E+02
5220000000.000000      1.863861000000000E-01     -4.506836000000000E+01      3.208771000000000E-01      8.672266000000000E+01
5240000000.000000      1.762314000000000E-01     -4.791016000000000E+01      3.264465000000000E-01      5.701366000000000E+01
5260000000.000000      1.675797000000000E-01     -4.803711000000000E+01      3.318176000000000E-01      2.731152000000000E+01
5280000000.000000      1.648636000000000E-01     -4.679883000000000E+01      3.368225000000000E-01     -1.904785000000000E+00
5300000000.000000      1.690826000000000E-01     -4.690820000000000E+01      3.403473000000000E-01     -2.989160000000000E+01
5320000000.000000      1.729889000000000E-01     -4.963085000000000E+01      3.448029000000000E-01     -5.695507000000000E+01
5340000000.000000      1.713333000000000E-01     -5.352539000000000E+01      3.486328000000000E-01     -8.467188000000000E+01
5360000000.000000      1.650848000000000E-01     -5.646289000000000E+01      3.448944000000000E-01     -1.120391000000000E+02
5380000000.000000      1.586685000000000E-01     -5.749413000000000E+01      3.389282000000000E-01     -1.383125000000000E+02
5400000000.000000      1.585999000000000E-01     -5.665625000000000E+01      3.373871000000000E-01     -1.658516000000000E+02
5420000000.000000      1.684341000000000E-01     -5.633007000000000E+01      3.303986000000000E-01      1.657734000000000E+02
5440000000.000000      1.803284000000000E-01     -5.940624000000000E+01      3.256073000000000E-01      1.367109000000000E+02
5460000000.000000      1.862717000000000E-01     -6.564062000000000E+01      3.141327000000000E-01      1.069297000000000E+02
5480000000.000000      1.810608000000000E-01     -7.279297000000000E+01      3.079224000000000E-01      7.743359000000000E+01
5500000000.000000      1.636734000000000E-01     -7.928515000000000E+01      3.103180000000000E-01      4.767187000000000E+01
5520000000.000000      1.410217000000000E-01     -8.306250000000000E+01      3.129120000000000E-01      1.729492000000000E+01
5540000000.000000      1.214066000000000E-01     -8.231249000000000E+01      3.166809000000000E-01     -1.236133000000000E+01
5560000000.000000      1.082687000000000E-01     -7.837109000000000E+01      3.232269000000000E-01     -4.124413000000000E+01
5580000000.000000      1.031380000000000E-01     -7.281250000000000E+01      3.304749000000000E-01     -6.982031000000000E+01
5600000000.000000      1.007805000000000E-01     -6.732031000000000E+01      3.364563000000000E-01     -9.764452000000000E+01
5620000000.000000      1.043510000000000E-01     -5.959961000000000E+01      3.383484000000000E-01     -1.253320000000000E+02
5640000000.000000      1.182327000000000E-01     -5.301367000000000E+01      3.364105000000000E-01     -1.527656000000000E+02
5660000000.000000      1.428604000000000E-01     -5.208984000000000E+01      3.300018000000000E-01     -1.799375000000000E+02
5680000000.000000      1.696625000000000E-01     -5.765625000000000E+01      3.212433000000000E-01      1.522109000000000E+02
5700000000.000000      1.890106000000000E-01     -6.803905000000000E+01      3.079529000000000E-01      1.240820000000000E+02
5720000000.000000      1.931152000000000E-01     -8.037109000000000E+01      2.944946000000000E-01      9.632030000000000E+01
5740000000.000000      1.791458000000000E-01     -9.277344000000000E+01      2.889709000000000E-01      6.752343000000000E+01
5760000000.000000      1.514282000000000E-01     -1.025000000000000E+02      2.840271000000000E-01      3.656250000000000E+01
5780000000.000000      1.185684000000000E-01     -1.051836000000000E+02      2.803497000000000E-01      5.784180000000000E+00
5800000000.000000      9.868240000000000E-02     -9.659765000000000E+01      2.822113000000000E-01     -2.447949000000000E+01
5820000000.000000      1.020393000000000E-01     -8.791407000000000E+01      2.888794000000000E-01     -5.467382000000000E+01
5840000000.000000      1.130104000000000E-01     -8.934765000000000E+01      2.989655000000000E-01     -8.510937000000000E+01
5860000000.000000      1.171875000000000E-01     -9.743750000000000E+01      3.009033000000000E-01     -1.142070000000000E+02
5880000000.000000      1.085777000000000E-01     -1.081992000000000E+02      3.023834000000000E-01     -1.412578000000000E+02
5900000000.000000      9.054184000000000E-02     -1.156523000000000E+02      3.125458000000000E-01     -1.678281000000000E+02
5920000000.000000      7.207870000000000E-02     -1.146953000000000E+02      3.175812000000000E-01      1.641875000000000E+02
5940000000.000000      6.387711000000000E-02     -1.053555000000000E+02      3.119965000000000E-01      1.358516000000000E+02
5960000000.000000      6.204033000000000E-02     -1.004297000000000E+02      2.968597000000000E-01      1.085078000000000E+02
5980000000.000000      5.285645000000000E-02     -9.952343000000000E+01      2.864532000000000E-01      8.157030000000000E+01
6000000000.000000      3.287315000000000E-02     -8.793749000000000E+01      2.798157000000000E-01      5.240820000000000E+01
6020000000.000000      3.141785000000000E-02     -2.737305000000000E+01      2.678680000000000E-01      2.145020000000000E+01
6040000000.000000      6.615829000000000E-02     -1.211133000000000E+01      2.531738000000000E-01     -9.018555000000000E+00
6060000000.000000      1.018410000000000E-01     -2.134961000000000E+01      2.491150000000000E-01     -3.943164000000000E+01
6080000000.000000      1.294479000000000E-01     -3.586719000000000E+01      2.547455000000000E-01     -7.028906000000000E+01
