! Network Analyzer HP8722D
! Hewlett-Packard
! Data name: Linha & Wilkinson
! Saver's name: Rodrigo Anjos
! Comments: Teste da utilização de aquisição
continua pelo VNA HP8722D
! Time and date: 3/9/2025 19:40
!              Frequency                     S11                                                   S21                                                   S12                                                   S22
# HZ  S  MA R 50
3000000000.000000      7.786179000000000E-02      8.730078000000000E+01      4.560089000000000E-01      2.452148000000000E+01
3020000000.000000      9.393692000000000E-02      7.283984000000000E+01      4.573212000000000E-01     -4.419434000000000E+00
3040000000.000000      9.542465000000000E-02      5.665039000000000E+01      4.586182000000000E-01     -3.326757000000000E+01
3060000000.000000      8.290863000000000E-02      4.122070000000000E+01      4.555206000000000E-01     -6.189062000000000E+01
3080000000.000000      6.252670000000000E-02      3.052637000000000E+01      4.567719000000000E-01     -9.026562000000000E+01
3100000000.000000      4.460335000000000E-02      3.170019000000000E+01      4.553986000000000E-01     -1.188398000000000E+02
3120000000.000000      3.822517000000000E-02      4.478906000000000E+01      4.508820000000000E-01     -1.474297000000000E+02
3140000000.000000      3.752899000000000E-02      4.931641000000000E+01      4.486542000000000E-01     -1.759609000000000E+02
3160000000.000000      2.911568000000000E-02      5.001953000000000E+01      4.444580000000000E-01      1.557969000000000E+02
3180000000.000000      1.612473000000000E-02      9.807030000000000E+01      4.424591000000000E-01      1.266719000000000E+02
3200000000.000000      4.824638000000000E-02      1.456875000000000E+02      4.375916000000000E-01      9.736328000000000E+01
3220000000.000000      1.000404000000000E-01      1.375234000000000E+02      4.239502000000000E-01      6.810937000000000E+01
3240000000.000000      1.512680000000000E-01      1.216445000000000E+02      4.130859000000000E-01      4.082227000000000E+01
3260000000.000000      1.929550000000000E-01      1.045703000000000E+02      4.172211000000000E-01      1.337158000000000E+01
3280000000.000000      2.194672000000000E-01      8.732422000000000E+01      4.223022000000000E-01     -1.573682000000000E+01
3300000000.000000      2.299042000000000E-01      7.028125000000000E+01      4.169464000000000E-01     -4.448047000000000E+01
3320000000.000000      2.244797000000000E-01      5.511523000000000E+01      4.183350000000000E-01     -7.201562000000000E+01
3340000000.000000      2.082291000000000E-01      4.244531000000000E+01      4.246521000000000E-01     -1.009141000000000E+02
3360000000.000000      1.844635000000000E-01      3.331055000000000E+01      4.259796000000000E-01     -1.293359000000000E+02
3380000000.000000      1.606216000000000E-01      2.845800000000000E+01      4.313049000000000E-01     -1.574453000000000E+02
3400000000.000000      1.420059000000000E-01      2.687207000000000E+01      4.328461000000000E-01      1.736719000000000E+02
3420000000.000000      1.282272000000000E-01      2.655078000000000E+01      4.327545000000000E-01      1.450781000000000E+02
3440000000.000000      1.162491000000000E-01      2.634863000000000E+01      4.325256000000000E-01      1.160820000000000E+02
3460000000.000000      1.048203000000000E-01      2.768652000000000E+01      4.288330000000000E-01      8.780077000000000E+01
3480000000.000000      9.702301000000000E-02      3.004883000000000E+01      4.308167000000000E-01      5.937304000000000E+01
3500000000.000000      9.370422000000000E-02      3.358203000000000E+01      4.255676000000000E-01      3.004883000000000E+01
3520000000.000000      9.219360000000000E-02      3.661718000000000E+01      4.230804000000000E-01      1.874512000000000E+00
3540000000.000000      9.227371000000000E-02      4.026367000000000E+01      4.258881000000000E-01     -2.669043000000000E+01
3560000000.000000      9.445953000000000E-02      4.587695000000000E+01      4.268951000000000E-01     -5.583398000000000E+01
3580000000.000000      1.022224000000000E-01      5.094531000000000E+01      4.274750000000000E-01     -8.461718000000000E+01
3600000000.000000      1.157646000000000E-01      5.230078000000000E+01      4.276276000000000E-01     -1.126484000000000E+02
3620000000.000000      1.290359000000000E-01      4.903320000000000E+01      4.285278000000000E-01     -1.409531000000000E+02
3640000000.000000      1.346512000000000E-01      4.272656000000000E+01      4.275208000000000E-01     -1.692188000000000E+02
3660000000.000000      1.289139000000000E-01      3.593750000000000E+01      4.260406000000000E-01      1.630078000000000E+02
3680000000.000000      1.155052000000000E-01      3.276367000000000E+01      4.306793000000000E-01      1.351641000000000E+02
3700000000.000000      1.033287000000000E-01      3.659765000000000E+01      4.308777000000000E-01      1.068086000000000E+02
3720000000.000000      1.047554000000000E-01      4.568749000000000E+01      4.300079000000000E-01      7.786327000000000E+01
3740000000.000000      1.229210000000000E-01      4.947460000000000E+01      4.236908000000000E-01      4.956055000000000E+01
3760000000.000000      1.417770000000000E-01      4.586328000000000E+01      4.165802000000000E-01      2.177051000000000E+01
3780000000.000000      1.482544000000000E-01      3.805859000000000E+01      4.170380000000000E-01     -6.056396000000000E+00
3800000000.000000      1.409302000000000E-01      3.079590000000000E+01      4.180145000000000E-01     -3.471094000000000E+01
3820000000.000000      1.219101000000000E-01      2.800000000000000E+01      4.188843000000000E-01     -6.339453000000000E+01
3840000000.000000      1.083717000000000E-01      3.318554000000000E+01      4.172668000000000E-01     -9.252733000000000E+01
3860000000.000000      1.138000000000000E-01      4.174609000000000E+01      4.160461000000000E-01     -1.211719000000000E+02
3880000000.000000      1.323166000000000E-01      4.263085000000000E+01      4.145813000000000E-01     -1.504453000000000E+02
3900000000.000000      1.459503000000000E-01      3.661914000000000E+01      4.053650000000000E-01     -1.787031000000000E+02
3920000000.000000      1.428986000000000E-01      2.896777000000000E+01      4.075470000000000E-01      1.541250000000000E+02
3940000000.000000      1.244621000000000E-01      2.553613000000000E+01      4.172058000000000E-01      1.255469000000000E+02
3960000000.000000      1.065598000000000E-01      3.298828000000000E+01      4.137573000000000E-01      9.637890000000000E+01
3980000000.000000      1.155510000000000E-01      4.677930000000000E+01      4.073639000000000E-01      6.773046000000000E+01
4000000000.000000      1.479492000000000E-01      4.925976000000000E+01      3.996735000000000E-01      4.075976000000000E+01
4020000000.000000      1.812592000000000E-01      4.126562000000000E+01      4.052734000000000E-01      1.287988000000000E+01
4040000000.000000      1.986618000000000E-01      2.820117000000000E+01      4.048920000000000E-01     -1.711035000000000E+01
4060000000.000000      1.922531000000000E-01      1.417236000000000E+01      3.922729000000000E-01     -4.602148000000000E+01
4080000000.000000      1.619415000000000E-01      9.420776000000000E-01      3.910217000000000E-01     -7.264453000000000E+01
4100000000.000000      1.157837000000000E-01     -6.480713000000000E+00      4.017029000000000E-01     -1.014570000000000E+02
4120000000.000000      7.390594000000000E-02      5.722412000000000E+00      4.018860000000000E-01     -1.314453000000000E+02
4140000000.000000      7.426453000000000E-02      3.559765000000000E+01      3.967590000000000E-01     -1.604219000000000E+02
4160000000.000000      9.894562000000000E-02      4.376367000000000E+01      3.956299000000000E-01      1.717891000000000E+02
4180000000.000000      1.163673000000000E-01      3.993359000000000E+01      4.041748000000000E-01      1.432578000000000E+02
4200000000.000000      1.175423000000000E-01      3.651562000000000E+01      4.042664000000000E-01      1.132930000000000E+02
4220000000.000000      1.158867000000000E-01      3.888672000000000E+01      3.988953000000000E-01      8.406250000000000E+01
4240000000.000000      1.251907000000000E-01      4.588281000000000E+01      3.926697000000000E-01      5.577538000000000E+01
4260000000.000000      1.505585000000000E-01      4.742383000000000E+01      3.875122000000000E-01      2.733887000000000E+01
4280000000.000000      1.776428000000000E-01      4.247460000000000E+01      3.864136000000000E-01     -6.990051000000000E-01
4300000000.000000      1.918869000000000E-01      3.415039000000000E+01      3.839874000000000E-01     -2.980371000000000E+01
4320000000.000000      1.909790000000000E-01      2.578125000000000E+01      3.808899000000000E-01     -5.837109000000000E+01
4340000000.000000      1.772919000000000E-01      2.018652000000000E+01      3.813629000000000E-01     -8.740625000000000E+01
4360000000.000000      1.636200000000000E-01      1.945898000000000E+01      3.796539000000000E-01     -1.166211000000000E+02
4380000000.000000      1.633606000000000E-01      2.217578000000000E+01      3.775635000000000E-01     -1.459766000000000E+02
4400000000.000000      1.746140000000000E-01      2.180176000000000E+01      3.738708000000000E-01     -1.752656000000000E+02
4420000000.000000      1.843948000000000E-01      1.749414000000000E+01      3.752136000000000E-01      1.559531000000000E+02
4440000000.000000      1.810989000000000E-01      1.131592000000000E+01      3.784332000000000E-01      1.262812000000000E+02
4460000000.000000      1.637497000000000E-01      8.666504000000000E+00      3.708038000000000E-01      9.680468000000000E+01
4480000000.000000      1.457291000000000E-01      1.251611000000000E+01      3.673706000000000E-01      6.840234000000000E+01
4500000000.000000      1.487122000000000E-01      2.165722000000000E+01      3.666229000000000E-01      3.966211000000000E+01
4520000000.000000      1.752319000000000E-01      2.554980000000000E+01      3.623352000000000E-01      1.011816000000000E+01
4540000000.000000      2.057724000000000E-01      2.098437000000000E+01      3.519745000000000E-01     -1.918652000000000E+01
4560000000.000000      2.255249000000000E-01      1.270557000000000E+01      3.460083000000000E-01     -4.755664000000000E+01
4580000000.000000      2.297516000000000E-01      3.636475000000000E+00      3.486176000000000E-01     -7.689843000000000E+01
4600000000.000000      2.210846000000000E-01     -3.453857000000000E+00      3.449554000000000E-01     -1.073594000000000E+02
4620000000.000000      2.093582000000000E-01     -7.459717000000000E+00      3.399658000000000E-01     -1.369766000000000E+02
4640000000.000000      2.032547000000000E-01     -9.654297000000000E+00      3.389282000000000E-01     -1.664453000000000E+02
4660000000.000000      2.033463000000000E-01     -1.255078000000000E+01      3.385468000000000E-01      1.645078000000000E+02
4680000000.000000      2.039261000000000E-01     -1.775195000000000E+01      3.441467000000000E-01      1.356562000000000E+02
4700000000.000000      1.969833000000000E-01     -2.489648000000000E+01      3.436279000000000E-01      1.057031000000000E+02
4720000000.000000      1.807480000000000E-01     -3.205078000000000E+01      3.409576000000000E-01      7.810156000000000E+01
4740000000.000000      1.601105000000000E-01     -3.853516000000000E+01      3.469543000000000E-01      5.046093000000000E+01
4760000000.000000      1.356125000000000E-01     -4.383985000000000E+01      3.473663000000000E-01      2.192090000000000E+01
4780000000.000000      1.100082000000000E-01     -4.854687000000000E+01      3.438873000000000E-01     -6.557617000000000E+00
4800000000.000000      7.751083000000000E-02     -5.305273000000000E+01      3.403931000000000E-01     -3.508398000000000E+01
4820000000.000000      3.435898000000000E-02     -4.723828000000000E+01      3.311920000000000E-01     -6.420703000000000E+01
4840000000.000000      3.671837000000000E-02      5.842773000000000E+01      3.247375000000000E-01     -9.323437000000000E+01
4860000000.000000      1.040001000000000E-01      6.174999000000000E+01      3.168335000000000E-01     -1.241602000000000E+02
4880000000.000000      1.725388000000000E-01      4.843163000000000E+01      2.972717000000000E-01     -1.553516000000000E+02
4900000000.000000      2.316360000000000E-01      3.262109000000000E+01      2.745056000000000E-01      1.771250000000000E+02
4920000000.000000      2.730255000000000E-01      1.602539000000000E+01      2.756042000000000E-01      1.515625000000000E+02
4940000000.000000      2.922058000000000E-01      1.290894000000000E-01      2.896118000000000E-01      1.230937000000000E+02
4960000000.000000      2.880859000000000E-01     -1.505127000000000E+01      2.938538000000000E-01      9.326172000000000E+01
4980000000.000000      2.610321000000000E-01     -2.849609000000000E+01      2.998199000000000E-01      6.611718000000000E+01
5000000000.000000      2.174225000000000E-01     -3.850586000000000E+01      3.142242000000000E-01      3.867969000000000E+01
5020000000.000000      1.702881000000000E-01     -4.080468000000000E+01      3.254395000000000E-01      1.057666000000000E+01
5040000000.000000      1.424179000000000E-01     -3.306641000000000E+01      3.328857000000000E-01     -1.645508000000000E+01
5060000000.000000      1.450500000000000E-01     -2.327343000000000E+01      3.404236000000000E-01     -4.365820000000000E+01
5080000000.000000      1.615295000000000E-01     -2.021679000000000E+01      3.448792000000000E-01     -7.196875000000000E+01
5100000000.000000      1.744919000000000E-01     -2.280762000000000E+01      3.387756000000000E-01     -1.003086000000000E+02
5120000000.000000      1.790848000000000E-01     -2.625781000000000E+01      3.327332000000000E-01     -1.277891000000000E+02
5140000000.000000      1.817017000000000E-01     -2.906738000000000E+01      3.310852000000000E-01     -1.560859000000000E+02
5160000000.000000      1.846237000000000E-01     -3.159668000000000E+01      3.277435000000000E-01      1.743594000000000E+02
5180000000.000000      1.881866000000000E-01     -3.517383000000000E+01      3.242035000000000E-01      1.446563000000000E+02
5200000000.000000      1.907501000000000E-01     -3.985742000000000E+01      3.227997000000000E-01      1.145976000000000E+02
5220000000.000000      1.854553000000000E-01     -4.455859000000000E+01      3.233795000000000E-01      8.482031000000000E+01
5240000000.000000      1.758575000000000E-01     -4.713281000000000E+01      3.280334000000000E-01      5.508203000000000E+01
5260000000.000000      1.676331000000000E-01     -4.729101000000000E+01      3.336792000000000E-01      2.547266000000000E+01
5280000000.000000      1.654282000000000E-01     -4.586523000000000E+01      3.386536000000000E-01     -3.615967000000000E+00
5300000000.000000      1.704865000000000E-01     -4.621679000000000E+01      3.419495000000000E-01     -3.174316000000000E+01
5320000000.000000      1.746140000000000E-01     -4.886719000000000E+01      3.459778000000000E-01     -5.864258000000000E+01
5340000000.000000      1.722412000000000E-01     -5.270117000000000E+01      3.511047000000000E-01     -8.636328000000000E+01
5360000000.000000      1.649323000000000E-01     -5.583984000000000E+01      3.454285000000000E-01     -1.136601000000000E+02
5380000000.000000      1.590576000000000E-01     -5.666016000000000E+01      3.402100000000000E-01     -1.401641000000000E+02
5400000000.000000      1.594849000000000E-01     -5.596289000000000E+01      3.384247000000000E-01     -1.676250000000000E+02
5420000000.000000      1.697006000000000E-01     -5.593554000000000E+01      3.317261000000000E-01      1.640469000000000E+02
5440000000.000000      1.817322000000000E-01     -5.927539000000000E+01      3.261566000000000E-01      1.347812000000000E+02
5460000000.000000      1.875687000000000E-01     -6.563671000000000E+01      3.155975000000000E-01      1.049101000000000E+02
5480000000.000000      1.813354000000000E-01     -7.289063000000000E+01      3.096313000000000E-01      7.538671000000000E+01
5500000000.000000      1.633148000000000E-01     -7.898438000000000E+01      3.122101000000000E-01      4.577148000000000E+01
5520000000.000000      1.400986000000000E-01     -8.229687000000000E+01      3.145599000000000E-01      1.531348000000000E+01
5540000000.000000      1.203575000000000E-01     -8.141796000000000E+01      3.195496000000000E-01     -1.439941000000000E+01
5560000000.000000      1.080780000000000E-01     -7.736718000000000E+01      3.258362000000000E-01     -4.326757000000000E+01
5580000000.000000      1.026993000000000E-01     -7.248437000000000E+01      3.323669000000000E-01     -7.159374000000000E+01
5600000000.000000      1.003113000000000E-01     -6.653906000000000E+01      3.382111000000000E-01     -9.948437000000000E+01
5620000000.000000      1.041718000000000E-01     -5.870312000000000E+01      3.401794000000000E-01     -1.270313000000000E+02
5640000000.000000      1.200829000000000E-01     -5.177734000000000E+01      3.374634000000000E-01     -1.546484000000000E+02
5660000000.000000      1.457214000000000E-01     -5.148828000000000E+01      3.307495000000000E-01      1.782031000000000E+02
5680000000.000000      1.729736000000000E-01     -5.746484000000000E+01      3.222809000000000E-01      1.503281000000000E+02
5700000000.000000      1.907501000000000E-01     -6.797265000000000E+01      3.089905000000000E-01      1.219570000000000E+02
5720000000.000000      1.923981000000000E-01     -8.042187000000000E+01      2.948608000000000E-01      9.420702000000000E+01
5740000000.000000      1.775970000000000E-01     -9.275782000000000E+01      2.897644000000000E-01      6.549218000000000E+01
5760000000.000000      1.483841000000000E-01     -1.022266000000000E+02      2.860718000000000E-01      3.431445000000000E+01
5780000000.000000      1.162033000000000E-01     -1.039844000000000E+02      2.820282000000000E-01      3.560913000000000E+00
5800000000.000000      9.868622000000000E-02     -9.498047000000000E+01      2.844391000000000E-01     -2.671679000000000E+01
5820000000.000000      1.036873000000000E-01     -8.690233000000000E+01      2.913666000000000E-01     -5.685741000000000E+01
5840000000.000000      1.146812000000000E-01     -8.890625000000000E+01      3.010864000000000E-01     -8.710938000000000E+01
5860000000.000000      1.173668000000000E-01     -9.715624000000000E+01      3.031464000000000E-01     -1.161016000000000E+02
5880000000.000000      1.072693000000000E-01     -1.075469000000000E+02      3.047333000000000E-01     -1.430000000000000E+02
5900000000.000000      8.848572000000000E-02     -1.144023000000000E+02      3.139496000000000E-01     -1.696719000000000E+02
5920000000.000000      7.056808000000000E-02     -1.129609000000000E+02      3.192444000000000E-01      1.624063000000000E+02
5940000000.000000      6.381226000000000E-02     -1.033555000000000E+02      3.118744000000000E-01      1.339766000000000E+02
5960000000.000000      6.231117000000000E-02     -9.889843000000000E+01      2.970886000000000E-01      1.066094000000000E+02
5980000000.000000      5.236244000000000E-02     -9.945702000000000E+01      2.871399000000000E-01      7.954296000000000E+01
6000000000.000000      3.262329000000000E-02     -8.620312000000000E+01      2.803192000000000E-01      5.014843000000000E+01
6020000000.000000      3.404617000000000E-02     -2.529785000000000E+01      2.677765000000000E-01      1.892871000000000E+01
6040000000.000000      6.989288000000000E-02     -1.262891000000000E+01      2.540894000000000E-01     -1.140283000000000E+01
6060000000.000000      1.063042000000000E-01     -2.179883000000000E+01      2.495041000000000E-01     -4.185156000000000E+01
6080000000.000000      1.320877000000000E-01     -3.607812000000000E+01      2.562408000000000E-01     -7.279687000000000E+01
