! Network Analyzer HP8722D
! Hewlett-Packard
! Data name: Linha & Wilkinson
! Saver's name: Rodrigo Anjos
! Comments: Teste da utilização de aquisição
continua pelo VNA HP8722D
! Time and date: 3/9/2025 18:38
!              Frequency                     S11                                                   S21                                                   S12                                                   S22
# HZ  S  MA R 50
3000000000.000000      7.601929000000000E-02      8.776953000000000E+01      4.561157000000000E-01      2.606640000000000E+01
3020000000.000000      9.323883000000000E-02      7.347656000000000E+01      4.580841000000000E-01     -2.781006000000000E+00
3040000000.000000      9.534836000000000E-02      5.720703000000000E+01      4.561005000000000E-01     -3.172656000000000E+01
3060000000.000000      8.411026000000000E-02      4.165039000000000E+01      4.538116000000000E-01     -6.025000000000000E+01
3080000000.000000      6.434250000000000E-02      3.047852000000000E+01      4.539642000000000E-01     -8.880859000000000E+01
3100000000.000000      4.565811000000000E-02      3.024316000000000E+01      4.550323000000000E-01     -1.173438000000000E+02
3120000000.000000      3.805542000000000E-02      4.298828000000000E+01      4.508209000000000E-01     -1.459687000000000E+02
3140000000.000000      3.751755000000000E-02      4.902344000000000E+01      4.464569000000000E-01     -1.744609000000000E+02
3160000000.000000      3.006363000000000E-02      4.945507000000000E+01      4.421844000000000E-01      1.571640000000000E+02
3180000000.000000      1.685238000000000E-02      9.441015000000000E+01      4.416199000000000E-01      1.286250000000000E+02
3200000000.000000      4.593658000000000E-02      1.441015000000000E+02      4.365845000000000E-01      9.900000000000000E+01
3220000000.000000      9.656525000000000E-02      1.372734000000000E+02      4.233856000000000E-01      6.985156000000000E+01
3240000000.000000      1.475754000000000E-01      1.219531000000000E+02      4.120789000000000E-01      4.239062000000000E+01
3260000000.000000      1.907043000000000E-01      1.051680000000000E+02      4.151001000000000E-01      1.497559000000000E+01
3280000000.000000      2.175369000000000E-01      8.779688000000000E+01      4.199524000000000E-01     -1.423975000000000E+01
3300000000.000000      2.292938000000000E-01      7.096874000000000E+01      4.155731000000000E-01     -4.293554000000000E+01
3320000000.000000      2.251663000000000E-01      5.551758000000000E+01      4.183350000000000E-01     -7.058984000000000E+01
3340000000.000000      2.089539000000000E-01      4.269921000000000E+01      4.236145000000000E-01     -9.919531000000000E+01
3360000000.000000      1.860886000000000E-01      3.325586000000000E+01      4.236450000000000E-01     -1.275312000000000E+02
3380000000.000000      1.624985000000000E-01      2.819433000000000E+01      4.282532000000000E-01     -1.560156000000000E+02
3400000000.000000      1.436386000000000E-01      2.628808000000000E+01      4.313049000000000E-01      1.754141000000000E+02
3420000000.000000      1.289978000000000E-01      2.583008000000000E+01      4.318848000000000E-01      1.467266000000000E+02
3440000000.000000      1.164894000000000E-01      2.558008000000000E+01      4.293823000000000E-01      1.180586000000000E+02
3460000000.000000      1.042061000000000E-01      2.644922000000000E+01      4.284058000000000E-01      8.965235000000000E+01
3480000000.000000      9.639359000000000E-02      2.915625000000000E+01      4.296875000000000E-01      6.075781000000000E+01
3500000000.000000      9.222412000000000E-02      3.317968000000000E+01      4.258728000000000E-01      3.178613000000000E+01
3520000000.000000      9.132767000000000E-02      3.670507000000000E+01      4.223175000000000E-01      3.802612000000000E+00
3540000000.000000      9.228134000000000E-02      4.027734000000000E+01      4.253082000000000E-01     -2.500293000000000E+01
3560000000.000000      9.455490000000000E-02      4.540235000000000E+01      4.254303000000000E-01     -5.403125000000000E+01
3580000000.000000      1.019325000000000E-01      5.038867000000000E+01      4.270477000000000E-01     -8.267187000000000E+01
3600000000.000000      1.154366000000000E-01      5.188281000000000E+01      4.255981000000000E-01     -1.106797000000000E+02
3620000000.000000      1.283951000000000E-01      4.913476000000000E+01      4.260406000000000E-01     -1.392109000000000E+02
3640000000.000000      1.342392000000000E-01      4.287695000000000E+01      4.269257000000000E-01     -1.674766000000000E+02
3660000000.000000      1.296844000000000E-01      3.606250000000000E+01      4.253998000000000E-01      1.645703000000000E+02
3680000000.000000      1.167526000000000E-01      3.251367000000000E+01      4.288330000000000E-01      1.369922000000000E+02
3700000000.000000      1.040573000000000E-01      3.595703000000000E+01      4.295654000000000E-01      1.084961000000000E+02
3720000000.000000      1.040878000000000E-01      4.455859000000000E+01      4.288025000000000E-01      7.991015000000000E+01
3740000000.000000      1.220284000000000E-01      4.876367000000000E+01      4.220276000000000E-01      5.149414000000000E+01
3760000000.000000      1.405334000000000E-01      4.565820000000000E+01      4.167786000000000E-01      2.355469000000000E+01
3780000000.000000      1.484528000000000E-01      3.810156000000000E+01      4.148865000000000E-01     -4.255859000000000E+00
3800000000.000000      1.414108000000000E-01      3.090234000000000E+01      4.172058000000000E-01     -3.258203000000000E+01
3820000000.000000      1.231575000000000E-01      2.739160000000000E+01      4.169312000000000E-01     -6.157812000000000E+01
3840000000.000000      1.087112000000000E-01      3.220312000000000E+01      4.168091000000000E-01     -9.041016000000000E+01
3860000000.000000      1.124725000000000E-01      4.066015000000000E+01      4.150848000000000E-01     -1.191172000000000E+02
3880000000.000000      1.303406000000000E-01      4.251172000000000E+01      4.127655000000000E-01     -1.485312000000000E+02
3900000000.000000      1.454620000000000E-01      3.692187000000000E+01      4.061737000000000E-01     -1.767500000000000E+02
3920000000.000000      1.437073000000000E-01      2.941015000000000E+01      4.064789000000000E-01      1.560625000000000E+02
3940000000.000000      1.264267000000000E-01      2.521582000000000E+01      4.142456000000000E-01      1.275039000000000E+02
3960000000.000000      1.081657000000000E-01      3.148633000000000E+01      4.138641000000000E-01      9.853905000000000E+01
3980000000.000000      1.138992000000000E-01      4.489648000000000E+01      4.051208000000000E-01      6.973046000000000E+01
4000000000.000000      1.453476000000000E-01      4.875977000000000E+01      3.988190000000000E-01      4.260351000000000E+01
4020000000.000000      1.781387000000000E-01      4.167578000000000E+01      4.051819000000000E-01      1.504980000000000E+01
4040000000.000000      1.977463000000000E-01      2.886230000000000E+01      4.052582000000000E-01     -1.491260000000000E+01
4060000000.000000      1.927338000000000E-01      1.489990000000000E+01      3.895264000000000E-01     -4.372460000000000E+01
4080000000.000000      1.648483000000000E-01      1.273010000000000E+00      3.904572000000000E-01     -7.044922000000000E+01
4100000000.000000      1.194839000000000E-01     -6.709961000000000E+00      3.992462000000000E-01     -9.931641000000000E+01
4120000000.000000      7.578659000000000E-02      3.548584000000000E+00      4.010162000000000E-01     -1.291875000000000E+02
4140000000.000000      7.271576000000000E-02      3.316601000000000E+01      3.945007000000000E-01     -1.582500000000000E+02
4160000000.000000      9.731293000000000E-02      4.320117000000000E+01      3.960724000000000E-01      1.738203000000000E+02
4180000000.000000      1.153870000000000E-01      4.007421000000000E+01      4.045868000000000E-01      1.453125000000000E+02
4200000000.000000      1.176071000000000E-01      3.623828000000000E+01      4.039154000000000E-01      1.153164000000000E+02
4220000000.000000      1.151085000000000E-01      3.812500000000000E+01      3.969574000000000E-01      8.614452000000000E+01
4240000000.000000      1.232491000000000E-01      4.477735000000000E+01      3.899078000000000E-01      5.766406000000000E+01
4260000000.000000      1.483307000000000E-01      4.707227000000000E+01      3.870087000000000E-01      2.966113000000000E+01
4280000000.000000      1.748810000000000E-01      4.238867000000000E+01      3.862457000000000E-01      1.333435000000000E+00
4300000000.000000      1.910172000000000E-01      3.444921000000000E+01      3.831940000000000E-01     -2.739941000000000E+01
4320000000.000000      1.918335000000000E-01      2.572851000000000E+01      3.801270000000000E-01     -5.641796000000000E+01
4340000000.000000      1.779404000000000E-01      1.965723000000000E+01      3.788300000000000E-01     -8.518749000000000E+01
4360000000.000000      1.635818000000000E-01      1.868066000000000E+01      3.778076000000000E-01     -1.144648000000000E+02
4380000000.000000      1.618805000000000E-01      2.135547000000000E+01      3.757019000000000E-01     -1.438594000000000E+02
4400000000.000000      1.726685000000000E-01      2.147070000000000E+01      3.723602000000000E-01     -1.730156000000000E+02
4420000000.000000      1.824875000000000E-01      1.745996000000000E+01      3.741302000000000E-01      1.583437000000000E+02
4440000000.000000      1.805801000000000E-01      1.157666000000000E+01      3.768616000000000E-01      1.285781000000000E+02
4460000000.000000      1.640396000000000E-01      8.333008000000000E+00      3.686981000000000E-01      9.911327000000000E+01
4480000000.000000      1.457977000000000E-01      1.163965000000000E+01      3.659058000000000E-01      7.082421000000000E+01
4500000000.000000      1.463318000000000E-01      2.078711000000000E+01      3.661499000000000E-01      4.181641000000000E+01
4520000000.000000      1.720581000000000E-01      2.518847000000000E+01      3.624573000000000E-01      1.239111000000000E+01
4540000000.000000      2.033463000000000E-01      2.128027000000000E+01      3.526917000000000E-01     -1.689453000000000E+01
4560000000.000000      2.244873000000000E-01      1.312158000000000E+01      3.453217000000000E-01     -4.511132000000000E+01
4580000000.000000      2.301102000000000E-01      4.011230000000000E+00      3.475647000000000E-01     -7.444921000000000E+01
4600000000.000000      2.221451000000000E-01     -3.275391000000000E+00      3.436890000000000E-01     -1.047969000000000E+02
4620000000.000000      2.100372000000000E-01     -7.775635000000000E+00      3.382568000000000E-01     -1.343594000000000E+02
4640000000.000000      2.033691000000000E-01     -1.000342000000000E+01      3.382874000000000E-01     -1.639297000000000E+02
4660000000.000000      2.032166000000000E-01     -1.278711000000000E+01      3.385010000000000E-01      1.670938000000000E+02
4680000000.000000      2.035980000000000E-01     -1.776855000000000E+01      3.422089000000000E-01      1.378984000000000E+02
4700000000.000000      1.979446000000000E-01     -2.476758000000000E+01      3.432617000000000E-01      1.082969000000000E+02
4720000000.000000      1.825409000000000E-01     -3.211523000000000E+01      3.401184000000000E-01      8.039063000000000E+01
4740000000.000000      1.618195000000000E-01     -3.860352000000000E+01      3.471375000000000E-01      5.291797000000000E+01
4760000000.000000      1.376572000000000E-01     -4.373242000000000E+01      3.474426000000000E-01      2.420605000000000E+01
4780000000.000000      1.117859000000000E-01     -4.848827000000000E+01      3.434906000000000E-01     -4.213379000000000E+00
4800000000.000000      8.110809000000000E-02     -5.342773000000000E+01      3.399048000000000E-01     -3.260547000000000E+01
4820000000.000000      3.850746000000000E-02     -5.065039000000000E+01      3.310394000000000E-01     -6.162304000000000E+01
4840000000.000000      3.105736000000000E-02      5.434570000000000E+01      3.246765000000000E-01     -9.075390000000000E+01
4860000000.000000      9.608078000000000E-02      6.235156000000000E+01      3.174286000000000E-01     -1.214883000000000E+02
4880000000.000000      1.665115000000000E-01      4.964453000000000E+01      2.978821000000000E-01     -1.526641000000000E+02
4900000000.000000      2.258453000000000E-01      3.383789000000000E+01      2.751770000000000E-01      1.795625000000000E+02
4920000000.000000      2.686615000000000E-01      1.725488000000000E+01      2.747345000000000E-01      1.541172000000000E+02
4940000000.000000      2.907715000000000E-01      1.539429000000000E+00      2.878113000000000E-01      1.254062000000000E+02
4960000000.000000      2.887878000000000E-01     -1.377588000000000E+01      2.922821000000000E-01      9.560156000000000E+01
4980000000.000000      2.633667000000000E-01     -2.754492000000000E+01      2.976532000000000E-01      6.852344000000000E+01
5000000000.000000      2.212448000000000E-01     -3.783203000000000E+01      3.125153000000000E-01      4.101367000000000E+01
5020000000.000000      1.743469000000000E-01     -4.083984000000000E+01      3.231049000000000E-01      1.296777000000000E+01
5040000000.000000      1.442337000000000E-01     -3.398046000000000E+01      3.312683000000000E-01     -1.400244000000000E+01
5060000000.000000      1.445389000000000E-01     -2.386719000000000E+01      3.397827000000000E-01     -4.123632000000000E+01
5080000000.000000      1.604004000000000E-01     -2.083301000000000E+01      3.451996000000000E-01     -6.948828000000000E+01
5100000000.000000      1.741257000000000E-01     -2.275977000000000E+01      3.398438000000000E-01     -9.794531000000000E+01
5120000000.000000      1.800308000000000E-01     -2.646387000000000E+01      3.334198000000000E-01     -1.251836000000000E+02
5140000000.000000      1.821594000000000E-01     -2.937695000000000E+01      3.307953000000000E-01     -1.533984000000000E+02
5160000000.000000      1.845703000000000E-01     -3.192285000000000E+01      3.275452000000000E-01      1.770859000000000E+02
5180000000.000000      1.885681000000000E-01     -3.530468000000000E+01      3.231049000000000E-01      1.475469000000000E+02
5200000000.000000      1.917343000000000E-01     -4.014648000000000E+01      3.221283000000000E-01      1.173984000000000E+02
5220000000.000000      1.866226000000000E-01     -4.459374000000000E+01      3.220978000000000E-01      8.767187000000000E+01
5240000000.000000      1.767807000000000E-01     -4.759766000000000E+01      3.267975000000000E-01      5.780273000000000E+01
5260000000.000000      1.683121000000000E-01     -4.810741000000000E+01      3.327179000000000E-01      2.806152000000000E+01
5280000000.000000      1.648941000000000E-01     -4.670312000000000E+01      3.381348000000000E-01     -1.095886000000000E+00
5300000000.000000      1.689758000000000E-01     -4.673047000000000E+01      3.413086000000000E-01     -2.900976000000000E+01
5320000000.000000      1.731186000000000E-01     -4.933788000000000E+01      3.458252000000000E-01     -5.617578000000000E+01
5340000000.000000      1.717300000000000E-01     -5.311718000000000E+01      3.509521000000000E-01     -8.381250000000000E+01
5360000000.000000      1.651001000000000E-01     -5.640820000000000E+01      3.450470000000000E-01     -1.112344000000000E+02
5380000000.000000      1.585236000000000E-01     -5.727539000000000E+01      3.398743000000000E-01     -1.374844000000000E+02
5400000000.000000      1.577988000000000E-01     -5.656054000000000E+01      3.389893000000000E-01     -1.650391000000000E+02
5420000000.000000      1.676407000000000E-01     -5.610742000000000E+01      3.322754000000000E-01      1.667812000000000E+02
5440000000.000000      1.796341000000000E-01     -5.911133000000000E+01      3.266449000000000E-01      1.376484000000000E+02
5460000000.000000      1.866608000000000E-01     -6.517968000000000E+01      3.160858000000000E-01      1.078437000000000E+02
5480000000.000000      1.820679000000000E-01     -7.239062000000000E+01      3.091278000000000E-01      7.826562000000000E+01
5500000000.000000      1.642075000000000E-01     -7.898046000000000E+01      3.112640000000000E-01      4.867578000000000E+01
5520000000.000000      1.410904000000000E-01     -8.276953000000000E+01      3.140717000000000E-01      1.823730000000000E+01
5540000000.000000      1.212578000000000E-01     -8.193750000000000E+01      3.182678000000000E-01     -1.150146000000000E+01
5560000000.000000      1.085358000000000E-01     -7.794531000000000E+01      3.246002000000000E-01     -4.049805000000000E+01
5580000000.000000      1.031990000000000E-01     -7.292969000000000E+01      3.315582000000000E-01     -6.876953000000000E+01
5600000000.000000      1.009254000000000E-01     -6.723437000000000E+01      3.372955000000000E-01     -9.674999000000000E+01
5620000000.000000      1.041412000000000E-01     -5.987109000000000E+01      3.390656000000000E-01     -1.244336000000000E+02
5640000000.000000      1.184044000000000E-01     -5.314453000000000E+01      3.372650000000000E-01     -1.519219000000000E+02
5660000000.000000      1.429520000000000E-01     -5.180859000000000E+01      3.309784000000000E-01     -1.790547000000000E+02
5680000000.000000      1.701202000000000E-01     -5.729101000000000E+01      3.231659000000000E-01      1.530625000000000E+02
5700000000.000000      1.897202000000000E-01     -6.740234000000000E+01      3.098145000000000E-01      1.249883000000000E+02
5720000000.000000      1.935425000000000E-01     -7.982422000000000E+01      2.959137000000000E-01      9.718359000000000E+01
5740000000.000000      1.798096000000000E-01     -9.213671000000000E+01      2.904205000000000E-01      6.853125000000000E+01
5760000000.000000      1.520920000000000E-01     -1.021758000000000E+02      2.857971000000000E-01      3.764453000000000E+01
5780000000.000000      1.194077000000000E-01     -1.049844000000000E+02      2.814941000000000E-01      6.711182000000000E+00
5800000000.000000      9.922028000000000E-02     -9.670702000000000E+01      2.828064000000000E-01     -2.344531000000000E+01
5820000000.000000      1.015358000000000E-01     -8.829687000000000E+01      2.900238000000000E-01     -5.376758000000000E+01
5840000000.000000      1.140976000000000E-01     -8.902344000000000E+01      3.000946000000000E-01     -8.413671000000000E+01
5860000000.000000      1.174622000000000E-01     -9.705467000000000E+01      3.016815000000000E-01     -1.132031000000000E+02
5880000000.000000      1.093216000000000E-01     -1.074101000000000E+02      3.033295000000000E-01     -1.403359000000000E+02
5900000000.000000      9.104538000000000E-02     -1.153789000000000E+02      3.138580000000000E-01     -1.669297000000000E+02
5920000000.000000      7.171249000000000E-02     -1.142344000000000E+02      3.184509000000000E-01      1.652031000000000E+02
5940000000.000000      6.379318000000000E-02     -1.050391000000000E+02      3.129883000000000E-01      1.369688000000000E+02
5960000000.000000      6.111717000000000E-02     -9.966797000000000E+01      2.981567000000000E-01      1.094141000000000E+02
5980000000.000000      5.244827000000000E-02     -9.926170000000000E+01      2.876892000000000E-01      8.240234000000000E+01
6000000000.000000      3.338242000000000E-02     -8.935156000000000E+01      2.814789000000000E-01      5.328320000000000E+01
6020000000.000000      3.122139000000000E-02     -2.907617000000000E+01      2.690430000000000E-01      2.235938000000000E+01
6040000000.000000      6.575394000000000E-02     -1.219775000000000E+01      2.545471000000000E-01     -7.962402000000000E+00
6060000000.000000      1.021461000000000E-01     -2.061621000000000E+01      2.500458000000000E-01     -3.841406000000000E+01
6080000000.000000      1.298141000000000E-01     -3.489843000000000E+01      2.549591000000000E-01     -6.929296000000000E+01
