! Network Analyzer HP8722D
! Hewlett-Packard
! Data name: Linha & Wilkinson
! Saver's name: Rodrigo Anjos
! Comments: Teste da utilização de aquisição
continua pelo VNA HP8722D
! Time and date: 3/9/2025 18:17
!              Frequency                     S11                                                   S21                                                   S12                                                   S22
# HZ  S  MA R 50
3000000000.000000      7.694626000000000E-02      8.725000000000000E+01      4.549561000000000E-01      2.506933000000000E+01
3020000000.000000      9.338760000000000E-02      7.271093000000000E+01      4.586792000000000E-01     -3.709351000000000E+00
3040000000.000000      9.532166000000000E-02      5.639648000000000E+01      4.566040000000000E-01     -3.257226000000000E+01
3060000000.000000      8.370590000000000E-02      4.112695000000000E+01      4.542694000000000E-01     -6.104297000000000E+01
3080000000.000000      6.319046000000000E-02      3.070996000000000E+01      4.547424000000000E-01     -8.957031000000000E+01
3100000000.000000      4.537010000000000E-02      3.050683000000000E+01      4.536133000000000E-01     -1.182344000000000E+02
3120000000.000000      3.799629000000000E-02      4.341797000000000E+01      4.518585000000000E-01     -1.467734000000000E+02
3140000000.000000      3.811836000000000E-02      4.879296000000000E+01      4.474030000000000E-01     -1.753515000000000E+02
3160000000.000000      2.974033000000000E-02      4.880273000000000E+01      4.433136000000000E-01      1.563047000000000E+02
3180000000.000000      1.608181000000000E-02      9.661718000000000E+01      4.425354000000000E-01      1.274922000000000E+02
3200000000.000000      4.694939000000000E-02      1.446016000000000E+02      4.357758000000000E-01      9.811327000000000E+01
3220000000.000000      9.814453000000000E-02      1.373594000000000E+02      4.241028000000000E-01      6.897265000000000E+01
3240000000.000000      1.489410000000000E-01      1.218594000000000E+02      4.125977000000000E-01      4.141015000000000E+01
3260000000.000000      1.917191000000000E-01      1.047969000000000E+02      4.143677000000000E-01      1.420801000000000E+01
3280000000.000000      2.187653000000000E-01      8.731640000000000E+01      4.214020000000000E-01     -1.509668000000000E+01
3300000000.000000      2.291260000000000E-01      7.038671000000000E+01      4.145508000000000E-01     -4.375196000000000E+01
3320000000.000000      2.244797000000000E-01      5.518164000000000E+01      4.183807000000000E-01     -7.139453000000000E+01
3340000000.000000      2.081909000000000E-01      4.235742000000000E+01      4.241638000000000E-01     -1.001953000000000E+02
3360000000.000000      1.847153000000000E-01      3.314258000000000E+01      4.255829000000000E-01     -1.286094000000000E+02
3380000000.000000      1.612473000000000E-01      2.827734000000000E+01      4.300842000000000E-01     -1.567891000000000E+02
3400000000.000000      1.423492000000000E-01      2.654297000000000E+01      4.308472000000000E-01      1.743515000000000E+02
3420000000.000000      1.285172000000000E-01      2.621387000000000E+01      4.320526000000000E-01      1.457344000000000E+02
3440000000.000000      1.163063000000000E-01      2.597851000000000E+01      4.313812000000000E-01      1.168320000000000E+02
3460000000.000000      1.045761000000000E-01      2.688183000000000E+01      4.272156000000000E-01      8.853125000000000E+01
3480000000.000000      9.664536000000000E-02      2.923925000000000E+01      4.295959000000000E-01      5.990820000000000E+01
3500000000.000000      9.299088000000000E-02      3.308594000000000E+01      4.253693000000000E-01      3.072656000000000E+01
3520000000.000000      9.150314000000000E-02      3.645117000000000E+01      4.232788000000000E-01      2.642212000000000E+00
3540000000.000000      9.262848000000000E-02      4.010156000000000E+01      4.251709000000000E-01     -2.579785000000000E+01
3560000000.000000      9.467316000000000E-02      4.548047000000000E+01      4.267578000000000E-01     -5.495312000000000E+01
3580000000.000000      1.020088000000000E-01      5.041016000000000E+01      4.260406000000000E-01     -8.369141000000000E+01
3600000000.000000      1.155014000000000E-01      5.160351000000000E+01      4.252319000000000E-01     -1.119102000000000E+02
3620000000.000000      1.287842000000000E-01      4.872265000000000E+01      4.275208000000000E-01     -1.402109000000000E+02
3640000000.000000      1.342468000000000E-01      4.256055000000000E+01      4.262238000000000E-01     -1.686406000000000E+02
3660000000.000000      1.290817000000000E-01      3.566406000000000E+01      4.251404000000000E-01      1.635469000000000E+02
3680000000.000000      1.164589000000000E-01      3.243359000000000E+01      4.290161000000000E-01      1.359609000000000E+02
3700000000.000000      1.030922000000000E-01      3.601953000000000E+01      4.303741000000000E-01      1.074570000000000E+02
3720000000.000000      1.045227000000000E-01      4.505078000000000E+01      4.287720000000000E-01      7.897655000000000E+01
3740000000.000000      1.224480000000000E-01      4.878711000000000E+01      4.216309000000000E-01      5.040820000000000E+01
3760000000.000000      1.409073000000000E-01      4.562304000000000E+01      4.162903000000000E-01      2.248437000000000E+01
3780000000.000000      1.482773000000000E-01      3.802343000000000E+01      4.168549000000000E-01     -5.364258000000000E+00
3800000000.000000      1.408768000000000E-01      3.066211000000000E+01      4.169922000000000E-01     -3.392578000000000E+01
3820000000.000000      1.224518000000000E-01      2.741015000000000E+01      4.174805000000000E-01     -6.266406000000000E+01
3840000000.000000      1.084976000000000E-01      3.277539000000000E+01      4.167023000000000E-01     -9.149218000000000E+01
3860000000.000000      1.128769000000000E-01      4.106250000000000E+01      4.165649000000000E-01     -1.203633000000000E+02
3880000000.000000      1.312256000000000E-01      4.228906000000000E+01      4.135437000000000E-01     -1.493828000000000E+02
3900000000.000000      1.455765000000000E-01      3.661328000000000E+01      4.057159000000000E-01     -1.777578000000000E+02
3920000000.000000      1.432571000000000E-01      2.898730000000000E+01      4.067993000000000E-01      1.549922000000000E+02
3940000000.000000      1.249352000000000E-01      2.516894000000000E+01      4.162140000000000E-01      1.263672000000000E+02
3960000000.000000      1.074524000000000E-01      3.212109000000000E+01      4.137421000000000E-01      9.739843000000000E+01
3980000000.000000      1.144943000000000E-01      4.564258000000000E+01      4.057159000000000E-01      6.857422000000000E+01
4000000000.000000      1.470642000000000E-01      4.879883000000000E+01      3.999176000000000E-01      4.147851000000000E+01
4020000000.000000      1.796570000000000E-01      4.136914000000000E+01      4.048462000000000E-01      1.395264000000000E+01
4040000000.000000      1.979370000000000E-01      2.834277000000000E+01      4.055786000000000E-01     -1.625488000000000E+01
4060000000.000000      1.925507000000000E-01      1.430127000000000E+01      3.902435000000000E-01     -4.508398000000000E+01
4080000000.000000      1.635284000000000E-01      7.882690000000000E-01      3.895416000000000E-01     -7.193359000000000E+01
4100000000.000000      1.175690000000000E-01     -6.898193000000000E+00      3.995361000000000E-01     -1.006211000000000E+02
4120000000.000000      7.524109000000000E-02      4.203613000000000E+00      4.000092000000000E-01     -1.307266000000000E+02
4140000000.000000      7.346725000000000E-02      3.401367000000000E+01      3.950348000000000E-01     -1.595000000000000E+02
4160000000.000000      9.819031000000000E-02      4.319921000000000E+01      3.953552000000000E-01      1.726953000000000E+02
4180000000.000000      1.158447000000000E-01      3.982031000000000E+01      4.036560000000000E-01      1.440938000000000E+02
4200000000.000000      1.174431000000000E-01      3.618555000000000E+01      4.045258000000000E-01      1.140000000000000E+02
4220000000.000000      1.146011000000000E-01      3.847461000000000E+01      3.976288000000000E-01      8.492968000000000E+01
4240000000.000000      1.235008000000000E-01      4.514257000000000E+01      3.919373000000000E-01      5.648632000000000E+01
4260000000.000000      1.488647000000000E-01      4.702148000000000E+01      3.864899000000000E-01      2.855566000000000E+01
4280000000.000000      1.760635000000000E-01      4.227735000000000E+01      3.864746000000000E-01      2.897644000000000E-01
4300000000.000000      1.917572000000000E-01      3.382421000000000E+01      3.826294000000000E-01     -2.898633000000000E+01
4320000000.000000      1.909256000000000E-01      2.559082000000000E+01      3.808746000000000E-01     -5.764257000000000E+01
4340000000.000000      1.775970000000000E-01      1.983789000000000E+01      3.788757000000000E-01     -8.655468000000000E+01
4360000000.000000      1.631546000000000E-01      1.887988000000000E+01      3.776093000000000E-01     -1.156328000000000E+02
4380000000.000000      1.623077000000000E-01      2.163672000000000E+01      3.763733000000000E-01     -1.452656000000000E+02
4400000000.000000      1.734772000000000E-01      2.150488000000000E+01      3.728790000000000E-01     -1.742266000000000E+02
4420000000.000000      1.833038000000000E-01      1.734277000000000E+01      3.751221000000000E-01      1.571094000000000E+02
4440000000.000000      1.808090000000000E-01      1.135010000000000E+01      3.776550000000000E-01      1.274766000000000E+02
4460000000.000000      1.641312000000000E-01      8.333008000000000E+00      3.697815000000000E-01      9.787498000000000E+01
4480000000.000000      1.453781000000000E-01      1.196777000000000E+01      3.668976000000000E-01      6.945313000000000E+01
4500000000.000000      1.476364000000000E-01      2.091895000000000E+01      3.670044000000000E-01      4.072461000000000E+01
4520000000.000000      1.731720000000000E-01      2.509668000000000E+01      3.619843000000000E-01      1.114795000000000E+01
4540000000.000000      2.043762000000000E-01      2.090137000000000E+01      3.531799000000000E-01     -1.837402000000000E+01
4560000000.000000      2.246780000000000E-01      1.271094000000000E+01      3.449860000000000E-01     -4.664844000000000E+01
4580000000.000000      2.296982000000000E-01      3.659790000000000E+00      3.480530000000000E-01     -7.589453000000000E+01
4600000000.000000      2.215576000000000E-01     -3.577515000000000E+00      3.447876000000000E-01     -1.064453000000000E+02
4620000000.000000      2.089844000000000E-01     -7.665771000000000E+00      3.386230000000000E-01     -1.358359000000000E+02
4640000000.000000      2.028961000000000E-01     -9.978516000000000E+00      3.389130000000000E-01     -1.653437000000000E+02
4660000000.000000      2.029648000000000E-01     -1.278564000000000E+01      3.379669000000000E-01      1.657266000000000E+02
4680000000.000000      2.039795000000000E-01     -1.798926000000000E+01      3.432617000000000E-01      1.367188000000000E+02
4700000000.000000      1.970444000000000E-01     -2.494238000000000E+01      3.436432000000000E-01      1.068437000000000E+02
4720000000.000000      1.816864000000000E-01     -3.220508000000000E+01      3.399200000000000E-01      7.908203000000000E+01
4740000000.000000      1.609192000000000E-01     -3.877539000000000E+01      3.468018000000000E-01      5.143749000000000E+01
4760000000.000000      1.369247000000000E-01     -4.395703000000000E+01      3.478699000000000E-01      2.280859000000000E+01
4780000000.000000      1.111488000000000E-01     -4.900781000000000E+01      3.444214000000000E-01     -5.579834000000000E+00
4800000000.000000      7.940674000000000E-02     -5.344140000000000E+01      3.401642000000000E-01     -3.419140000000000E+01
4820000000.000000      3.656197000000000E-02     -4.998241000000000E+01      3.311005000000000E-01     -6.318945000000000E+01
4840000000.000000      3.327942000000000E-02      5.694336000000000E+01      3.236237000000000E-01     -9.226171000000000E+01
4860000000.000000      1.000595000000000E-01      6.199609000000000E+01      3.169708000000000E-01     -1.229140000000000E+02
4880000000.000000      1.691971000000000E-01      4.892187000000000E+01      2.969971000000000E-01     -1.541250000000000E+02
4900000000.000000      2.285614000000000E-01      3.304296000000000E+01      2.747803000000000E-01      1.782031000000000E+02
4920000000.000000      2.704926000000000E-01      1.637695000000000E+01      2.749176000000000E-01      1.527578000000000E+02
4940000000.000000      2.905579000000000E-01      6.015015000000000E-01      2.882233000000000E-01      1.241445000000000E+02
4960000000.000000      2.881012000000000E-01     -1.454492000000000E+01      2.932434000000000E-01      9.417187000000000E+01
4980000000.000000      2.623291000000000E-01     -2.822949000000000E+01      2.986298000000000E-01      6.702734000000000E+01
5000000000.000000      2.196350000000000E-01     -3.823437000000000E+01      3.128204000000000E-01      3.966015000000000E+01
5020000000.000000      1.726608000000000E-01     -4.086719000000000E+01      3.239746000000000E-01      1.162061000000000E+01
5040000000.000000      1.429214000000000E-01     -3.364062000000000E+01      3.320770000000000E-01     -1.549219000000000E+01
5060000000.000000      1.452332000000000E-01     -2.372363000000000E+01      3.398590000000000E-01     -4.261328000000000E+01
5080000000.000000      1.610489000000000E-01     -2.068457000000000E+01      3.456573000000000E-01     -7.084765000000000E+01
5100000000.000000      1.743317000000000E-01     -2.284668000000000E+01      3.390503000000000E-01     -9.916796000000000E+01
5120000000.000000      1.796722000000000E-01     -2.639941000000000E+01      3.333130000000000E-01     -1.266016000000000E+02
5140000000.000000      1.815186000000000E-01     -2.926074000000000E+01      3.308258000000000E-01     -1.549609000000000E+02
5160000000.000000      1.851196000000000E-01     -3.196680000000000E+01      3.276672000000000E-01      1.756328000000000E+02
5180000000.000000      1.891327000000000E-01     -3.539258000000000E+01      3.239441000000000E-01      1.458359000000000E+02
5200000000.000000      1.910934000000000E-01     -4.009766000000000E+01      3.225555000000000E-01      1.157422000000000E+02
5220000000.000000      1.860962000000000E-01     -4.466797000000000E+01      3.223572000000000E-01      8.596094000000000E+01
5240000000.000000      1.762619000000000E-01     -4.758398000000000E+01      3.274689000000000E-01      5.622070000000000E+01
5260000000.000000      1.678467000000000E-01     -4.780859000000000E+01      3.335571000000000E-01      2.665820000000000E+01
5280000000.000000      1.653824000000000E-01     -4.659961000000000E+01      3.380890000000000E-01     -2.488403000000000E+00
5300000000.000000      1.697540000000000E-01     -4.659180000000000E+01      3.414154000000000E-01     -3.060742000000000E+01
5320000000.000000      1.739273000000000E-01     -4.927343000000000E+01      3.455048000000000E-01     -5.756249000000000E+01
5340000000.000000      1.719971000000000E-01     -5.300976000000000E+01      3.506317000000000E-01     -8.521484000000000E+01
5360000000.000000      1.654663000000000E-01     -5.617969000000000E+01      3.450165000000000E-01     -1.126992000000000E+02
5380000000.000000      1.586075000000000E-01     -5.698242000000000E+01      3.397064000000000E-01     -1.390078000000000E+02
5400000000.000000      1.591263000000000E-01     -5.632421000000000E+01      3.388214000000000E-01     -1.665781000000000E+02
5420000000.000000      1.688614000000000E-01     -5.615039000000000E+01      3.320618000000000E-01      1.651797000000000E+02
5440000000.000000      1.811371000000000E-01     -5.940430000000000E+01      3.260803000000000E-01      1.359766000000000E+02
5460000000.000000      1.874084000000000E-01     -6.564062000000000E+01      3.152771000000000E-01      1.061719000000000E+02
5480000000.000000      1.814423000000000E-01     -7.274219000000000E+01      3.092194000000000E-01      7.667187000000000E+01
5500000000.000000      1.639252000000000E-01     -7.922656000000000E+01      3.117981000000000E-01      4.692773000000000E+01
5520000000.000000      1.405106000000000E-01     -8.274218000000000E+01      3.139038000000000E-01      1.652539000000000E+01
5540000000.000000      1.206398000000000E-01     -8.183594000000000E+01      3.185120000000000E-01     -1.306006000000000E+01
5560000000.000000      1.083794000000000E-01     -7.792969000000000E+01      3.244629000000000E-01     -4.199414000000000E+01
5580000000.000000      1.028862000000000E-01     -7.272655000000000E+01      3.318481000000000E-01     -7.050390000000000E+01
5600000000.000000      1.006432000000000E-01     -6.710546000000000E+01      3.377380000000000E-01     -9.834764000000000E+01
5620000000.000000      1.044655000000000E-01     -5.955859000000000E+01      3.391266000000000E-01     -1.258789000000000E+02
5640000000.000000      1.186943000000000E-01     -5.267773000000000E+01      3.374329000000000E-01     -1.536328000000000E+02
5660000000.000000      1.440201000000000E-01     -5.180078000000000E+01      3.308868000000000E-01      1.793750000000000E+02
5680000000.000000      1.711273000000000E-01     -5.768359000000000E+01      3.221283000000000E-01      1.515156000000000E+02
5700000000.000000      1.903305000000000E-01     -6.797656000000000E+01      3.088074000000000E-01      1.232109000000000E+02
5720000000.000000      1.930161000000000E-01     -8.032421000000000E+01      2.949829000000000E-01      9.555468000000000E+01
5740000000.000000      1.788101000000000E-01     -9.269140000000000E+01      2.900238000000000E-01      6.666797000000000E+01
5760000000.000000      1.500320000000000E-01     -1.023516000000000E+02      2.851715000000000E-01      3.565039000000000E+01
5780000000.000000      1.177864000000000E-01     -1.045742000000000E+02      2.816162000000000E-01      4.832520000000000E+00
5800000000.000000      9.885788000000000E-02     -9.578516000000000E+01      2.830963000000000E-01     -2.525781000000000E+01
5820000000.000000      1.029701000000000E-01     -8.758593000000000E+01      2.901154000000000E-01     -5.545507000000000E+01
5840000000.000000      1.139679000000000E-01     -8.923437000000000E+01      3.004608000000000E-01     -8.593750000000000E+01
5860000000.000000      1.173401000000000E-01     -9.708202000000000E+01      3.019409000000000E-01     -1.150781000000000E+02
5880000000.000000      1.081467000000000E-01     -1.076641000000000E+02      3.039703000000000E-01     -1.420078000000000E+02
5900000000.000000      9.013367000000000E-02     -1.151094000000000E+02      3.136139000000000E-01     -1.685234000000000E+02
5920000000.000000      7.132721000000000E-02     -1.135820000000000E+02      3.188019000000000E-01      1.635234000000000E+02
5940000000.000000      6.398392000000000E-02     -1.044609000000000E+02      3.125153000000000E-01      1.351875000000000E+02
5960000000.000000      6.162834000000000E-02     -1.001328000000000E+02      2.974091000000000E-01      1.077734000000000E+02
5980000000.000000      5.219650000000000E-02     -9.994530000000000E+01      2.866364000000000E-01      8.077343000000000E+01
6000000000.000000      3.303528000000000E-02     -8.688280000000000E+01      2.802734000000000E-01      5.154882000000000E+01
6020000000.000000      3.237724000000000E-02     -2.759375000000000E+01      2.683258000000000E-01      2.042285000000000E+01
6040000000.000000      6.784439000000000E-02     -1.248193000000000E+01      2.547913000000000E-01     -9.927734000000000E+00
6060000000.000000      1.037369000000000E-01     -2.146191000000000E+01      2.500916000000000E-01     -4.045898000000000E+01
6080000000.000000      1.304779000000000E-01     -3.594922000000000E+01      2.558441000000000E-01     -7.135547000000000E+01
