! Network Analyzer HP8722D
! Hewlett-Packard
! Data name: Linha & Wilkinson
! Saver's name: Rodrigo Anjos
! Comments: Teste da utilização de aquisição
continua pelo VNA HP8722D
! Time and date: 3/9/2025 19:02
!              Frequency                     S11                                                   S21                                                   S12                                                   S22
# HZ  S  MA R 50
3000000000.000000      7.731628000000000E-02      8.744921000000000E+01      4.572144000000000E-01      2.472168000000000E+01
3020000000.000000      9.341049000000000E-02      7.272265000000000E+01      4.573212000000000E-01     -4.078857000000000E+00
3040000000.000000      9.538651000000000E-02      5.636719000000000E+01      4.582214000000000E-01     -3.299805000000000E+01
3060000000.000000      8.335876000000000E-02      4.100390000000000E+01      4.549103000000000E-01     -6.162304000000000E+01
3080000000.000000      6.307602000000000E-02      3.037793000000000E+01      4.558105000000000E-01     -9.017187000000000E+01
3100000000.000000      4.489708000000000E-02      3.145605000000000E+01      4.555206000000000E-01     -1.185508000000000E+02
3120000000.000000      3.834534000000000E-02      4.391406000000000E+01      4.518738000000000E-01     -1.472031000000000E+02
3140000000.000000      3.771973000000000E-02      4.908984000000000E+01      4.480591000000000E-01     -1.755312000000000E+02
3160000000.000000      2.962971000000000E-02      4.923828000000000E+01      4.431458000000000E-01      1.559609000000000E+02
3180000000.000000      1.645374000000000E-02      9.755859000000000E+01      4.427490000000000E-01      1.273320000000000E+02
3200000000.000000      4.753304000000000E-02      1.448437000000000E+02      4.372711000000000E-01      9.774609000000000E+01
3220000000.000000      9.893036000000000E-02      1.373047000000000E+02      4.240112000000000E-01      6.850390000000000E+01
3240000000.000000      1.501617000000000E-01      1.218203000000000E+02      4.127808000000000E-01      4.115039000000000E+01
3260000000.000000      1.923141000000000E-01      1.047852000000000E+02      4.166107000000000E-01      1.372461000000000E+01
3280000000.000000      2.193756000000000E-01      8.736328000000000E+01      4.220428000000000E-01     -1.564355000000000E+01
3300000000.000000      2.295227000000000E-01      7.046875000000000E+01      4.157562000000000E-01     -4.397851000000000E+01
3320000000.000000      2.242737000000000E-01      5.510742000000000E+01      4.179077000000000E-01     -7.170703000000000E+01
3340000000.000000      2.081146000000000E-01      4.236524000000000E+01      4.249573000000000E-01     -1.006211000000000E+02
3360000000.000000      1.844025000000000E-01      3.318554000000000E+01      4.251404000000000E-01     -1.287266000000000E+02
3380000000.000000      1.609344000000000E-01      2.852441000000000E+01      4.294281000000000E-01     -1.571719000000000E+02
3400000000.000000      1.419220000000000E-01      2.675488000000000E+01      4.327545000000000E-01      1.740234000000000E+02
3420000000.000000      1.284714000000000E-01      2.631738000000000E+01      4.333191000000000E-01      1.453047000000000E+02
3440000000.000000      1.162529000000000E-01      2.597851000000000E+01      4.314728000000000E-01      1.165625000000000E+02
3460000000.000000      1.045952000000000E-01      2.729492000000000E+01      4.296875000000000E-01      8.814453000000000E+01
3480000000.000000      9.682083000000000E-02      2.965820000000000E+01      4.301147000000000E-01      5.953320000000000E+01
3500000000.000000      9.302902000000000E-02      3.356445000000000E+01      4.255371000000000E-01      3.031250000000000E+01
3520000000.000000      9.202194000000000E-02      3.662500000000000E+01      4.231720000000000E-01      2.274170000000000E+00
3540000000.000000      9.238815000000000E-02      4.028906000000000E+01      4.274750000000000E-01     -2.650097000000000E+01
3560000000.000000      9.433746000000000E-02      4.536523000000000E+01      4.275665000000000E-01     -5.537499000000000E+01
3580000000.000000      1.021080000000000E-01      5.068945000000000E+01      4.279785000000000E-01     -8.416407000000000E+01
3600000000.000000      1.152992000000000E-01      5.196679000000000E+01      4.257813000000000E-01     -1.122422000000000E+02
3620000000.000000      1.289520000000000E-01      4.883398000000000E+01      4.277039000000000E-01     -1.406016000000000E+02
3640000000.000000      1.343460000000000E-01      4.275195000000000E+01      4.271698000000000E-01     -1.688437000000000E+02
3660000000.000000      1.288452000000000E-01      3.587695000000000E+01      4.255524000000000E-01      1.632109000000000E+02
3680000000.000000      1.159554000000000E-01      3.258789000000000E+01      4.295349000000000E-01      1.356875000000000E+02
3700000000.000000      1.032867000000000E-01      3.633984000000000E+01      4.308014000000000E-01      1.070742000000000E+02
3720000000.000000      1.047745000000000E-01      4.551758000000000E+01      4.291077000000000E-01      7.838281000000000E+01
3740000000.000000      1.223488000000000E-01      4.914648000000000E+01      4.228668000000000E-01      4.981835000000000E+01
3760000000.000000      1.411438000000000E-01      4.561132000000000E+01      4.174194000000000E-01      2.199121000000000E+01
3780000000.000000      1.484756000000000E-01      3.813867000000000E+01      4.175262000000000E-01     -5.927246000000000E+00
3800000000.000000      1.407394000000000E-01      3.073828000000000E+01      4.194183000000000E-01     -3.428515000000000E+01
3820000000.000000      1.221695000000000E-01      2.770410000000000E+01      4.187012000000000E-01     -6.299023000000000E+01
3840000000.000000      1.080933000000000E-01      3.320313000000000E+01      4.175110000000000E-01     -9.211718000000000E+01
3860000000.000000      1.135406000000000E-01      4.129102000000000E+01      4.162292000000000E-01     -1.208789000000000E+02
3880000000.000000      1.319580000000000E-01      4.265821000000000E+01      4.128571000000000E-01     -1.498750000000000E+02
3900000000.000000      1.458969000000000E-01      3.661914000000000E+01      4.060669000000000E-01     -1.783359000000000E+02
3920000000.000000      1.428146000000000E-01      2.898242000000000E+01      4.075928000000000E-01      1.545938000000000E+02
3940000000.000000      1.248741000000000E-01      2.550879000000000E+01      4.158936000000000E-01      1.259531000000000E+02
3960000000.000000      1.072807000000000E-01      3.267578000000000E+01      4.158173000000000E-01      9.677734000000000E+01
3980000000.000000      1.149101000000000E-01      4.624804000000000E+01      4.067383000000000E-01      6.818749000000000E+01
4000000000.000000      1.478500000000000E-01      4.919922000000000E+01      4.001617000000000E-01      4.102148000000000E+01
4020000000.000000      1.806183000000000E-01      4.119726000000000E+01      4.054260000000000E-01      1.324121000000000E+01
4040000000.000000      1.985779000000000E-01      2.835938000000000E+01      4.060059000000000E-01     -1.681641000000000E+01
4060000000.000000      1.920547000000000E-01      1.425732000000000E+01      3.916473000000000E-01     -4.550586000000000E+01
4080000000.000000      1.628036000000000E-01      1.090393000000000E+00      3.913879000000000E-01     -7.223046000000000E+01
4100000000.000000      1.163864000000000E-01     -6.730713000000000E+00      4.012909000000000E-01     -1.010039000000000E+02
4120000000.000000      7.450867000000000E-02      5.068604000000000E+00      4.003906000000000E-01     -1.311094000000000E+02
4140000000.000000      7.411194000000000E-02      3.504492000000000E+01      3.946991000000000E-01     -1.597734000000000E+02
4160000000.000000      9.899902000000000E-02      4.338672000000000E+01      3.959045000000000E-01      1.721484000000000E+02
4180000000.000000      1.160622000000000E-01      3.985547000000000E+01      4.039764000000000E-01      1.435781000000000E+02
4200000000.000000      1.174011000000000E-01      3.624218000000000E+01      4.062347000000000E-01      1.134805000000000E+02
4220000000.000000      1.150551000000000E-01      3.855273000000000E+01      3.975067000000000E-01      8.446093000000000E+01
4240000000.000000      1.243629000000000E-01      4.564258000000000E+01      3.908234000000000E-01      5.592773000000000E+01
4260000000.000000      1.495895000000000E-01      4.731054000000000E+01      3.879242000000000E-01      2.795996000000000E+01
4280000000.000000      1.764755000000000E-01      4.239843000000000E+01      3.887024000000000E-01     -7.855225000000000E-01
4300000000.000000      1.925430000000000E-01      3.404492000000000E+01      3.841553000000000E-01     -2.927539000000000E+01
4320000000.000000      1.913376000000000E-01      2.562793000000000E+01      3.811188000000000E-01     -5.804882000000000E+01
4340000000.000000      1.767883000000000E-01      1.983691000000000E+01      3.816986000000000E-01     -8.679296000000000E+01
4360000000.000000      1.634598000000000E-01      1.912305000000000E+01      3.773804000000000E-01     -1.162266000000000E+02
4380000000.000000      1.630020000000000E-01      2.192285000000000E+01      3.763580000000000E-01     -1.457187000000000E+02
4400000000.000000      1.741257000000000E-01      2.172949000000000E+01      3.728333000000000E-01     -1.748437000000000E+02
4420000000.000000      1.841812000000000E-01      1.741406000000000E+01      3.751831000000000E-01      1.566094000000000E+02
4440000000.000000      1.810608000000000E-01      1.142676000000000E+01      3.774719000000000E-01      1.267539000000000E+02
4460000000.000000      1.639557000000000E-01      8.282227000000000E+00      3.708649000000000E-01      9.697266000000000E+01
4480000000.000000      1.452637000000000E-01      1.198438000000000E+01      3.669281000000000E-01      6.906640000000000E+01
4500000000.000000      1.482925000000000E-01      2.120215000000000E+01      3.672180000000000E-01      3.996875000000000E+01
4520000000.000000      1.744766000000000E-01      2.525000000000000E+01      3.634644000000000E-01      1.050391000000000E+01
4540000000.000000      2.053375000000000E-01      2.098242000000000E+01      3.534546000000000E-01     -1.898730000000000E+01
4560000000.000000      2.251129000000000E-01      1.273682000000000E+01      3.444977000000000E-01     -4.703321000000000E+01
4580000000.000000      2.299118000000000E-01      3.617188000000000E+00      3.491211000000000E-01     -7.641406000000000E+01
4600000000.000000      2.211761000000000E-01     -3.464844000000000E+00      3.448639000000000E-01     -1.068047000000000E+02
4620000000.000000      2.088165000000000E-01     -7.623291000000000E+00      3.395538000000000E-01     -1.364687000000000E+02
4640000000.000000      2.029800000000000E-01     -9.792969000000000E+00      3.388977000000000E-01     -1.657891000000000E+02
4660000000.000000      2.033310000000000E-01     -1.259473000000000E+01      3.379822000000000E-01      1.649062000000000E+02
4680000000.000000      2.037811000000000E-01     -1.790723000000000E+01      3.437500000000000E-01      1.360312000000000E+02
4700000000.000000      1.972504000000000E-01     -2.487305000000000E+01      3.436890000000000E-01      1.064141000000000E+02
4720000000.000000      1.810226000000000E-01     -3.221484000000000E+01      3.407288000000000E-01      7.866015000000000E+01
4740000000.000000      1.605225000000000E-01     -3.856445000000000E+01      3.473053000000000E-01      5.078711000000000E+01
4760000000.000000      1.361313000000000E-01     -4.387109000000000E+01      3.479767000000000E-01      2.217773000000000E+01
4780000000.000000      1.101761000000000E-01     -4.853906000000000E+01      3.439331000000000E-01     -6.181396000000000E+00
4800000000.000000      7.818222000000000E-02     -5.317773000000000E+01      3.395081000000000E-01     -3.474023000000000E+01
4820000000.000000      3.543854000000000E-02     -4.801562000000000E+01      3.313293000000000E-01     -6.368164000000000E+01
4840000000.000000      3.500557000000000E-02      5.797070000000000E+01      3.237762000000000E-01     -9.277344000000000E+01
4860000000.000000      1.022835000000000E-01      6.201953000000000E+01      3.168640000000000E-01     -1.235586000000000E+02
4880000000.000000      1.712723000000000E-01      4.867969000000000E+01      2.973175000000000E-01     -1.548281000000000E+02
4900000000.000000      2.307739000000000E-01      3.279297000000000E+01      2.748871000000000E-01      1.776172000000000E+02
4920000000.000000      2.716980000000000E-01      1.611523000000000E+01      2.757874000000000E-01      1.519297000000000E+02
4940000000.000000      2.915497000000000E-01      4.559326000000000E-01      2.893982000000000E-01      1.235273000000000E+02
4960000000.000000      2.876434000000000E-01     -1.485107000000000E+01      2.936707000000000E-01      9.366405000000000E+01
4980000000.000000      2.617188000000000E-01     -2.844433000000000E+01      2.995758000000000E-01      6.657421000000000E+01
5000000000.000000      2.183228000000000E-01     -3.835156000000000E+01      3.146667000000000E-01      3.916211000000000E+01
5020000000.000000      1.710739000000000E-01     -4.083789000000000E+01      3.248749000000000E-01      1.116748000000000E+01
5040000000.000000      1.425095000000000E-01     -3.327929000000000E+01      3.325653000000000E-01     -1.606641000000000E+01
5060000000.000000      1.449814000000000E-01     -2.335840000000000E+01      3.399963000000000E-01     -4.324609000000000E+01
5080000000.000000      1.610413000000000E-01     -2.039941000000000E+01      3.452148000000000E-01     -7.146874000000000E+01
5100000000.000000      1.743774000000000E-01     -2.290039000000000E+01      3.390198000000000E-01     -9.995703000000000E+01
5120000000.000000      1.790390000000000E-01     -2.628711000000000E+01      3.328247000000000E-01     -1.273789000000000E+02
5140000000.000000      1.819000000000000E-01     -2.908300000000000E+01      3.309631000000000E-01     -1.556094000000000E+02
5160000000.000000      1.844788000000000E-01     -3.176562000000000E+01      3.283539000000000E-01      1.749922000000000E+02
5180000000.000000      1.891403000000000E-01     -3.521484000000000E+01      3.236542000000000E-01      1.451953000000000E+02
5200000000.000000      1.908493000000000E-01     -3.988867000000000E+01      3.224945000000000E-01      1.151484000000000E+02
5220000000.000000      1.851501000000000E-01     -4.445898000000000E+01      3.228302000000000E-01      8.530859000000000E+01
5240000000.000000      1.758270000000000E-01     -4.729101000000000E+01      3.282928000000000E-01      5.564258000000000E+01
5260000000.000000      1.680069000000000E-01     -4.744336000000000E+01      3.336945000000000E-01      2.586816000000000E+01
5280000000.000000      1.652679000000000E-01     -4.611914000000000E+01      3.391113000000000E-01     -3.084473000000000E+00
5300000000.000000      1.698608000000000E-01     -4.636523000000000E+01      3.419647000000000E-01     -3.118945000000000E+01
5320000000.000000      1.740036000000000E-01     -4.902148000000000E+01      3.462830000000000E-01     -5.818164000000000E+01
5340000000.000000      1.722183000000000E-01     -5.284961000000000E+01      3.509216000000000E-01     -8.592188000000000E+01
5360000000.000000      1.650543000000000E-01     -5.595703000000000E+01      3.455811000000000E-01     -1.132891000000000E+02
5380000000.000000      1.586838000000000E-01     -5.674218000000000E+01      3.402557000000000E-01     -1.396172000000000E+02
5400000000.000000      1.590881000000000E-01     -5.612499000000000E+01      3.390503000000000E-01     -1.672344000000000E+02
5420000000.000000      1.694565000000000E-01     -5.611133000000000E+01      3.316040000000000E-01      1.646094000000000E+02
5440000000.000000      1.811829000000000E-01     -5.931835000000000E+01      3.265076000000000E-01      1.353359000000000E+02
5460000000.000000      1.879044000000000E-01     -6.551171000000000E+01      3.148804000000000E-01      1.054766000000000E+02
5480000000.000000      1.810150000000000E-01     -7.287109000000000E+01      3.092346000000000E-01      7.601171000000000E+01
5500000000.000000      1.638641000000000E-01     -7.906640000000000E+01      3.123016000000000E-01      4.622460000000000E+01
5520000000.000000      1.404800000000000E-01     -8.263281000000000E+01      3.143158000000000E-01      1.587793000000000E+01
5540000000.000000      1.205292000000000E-01     -8.156250000000000E+01      3.185120000000000E-01     -1.374805000000000E+01
5560000000.000000      1.082077000000000E-01     -7.755859000000000E+01      3.255463000000000E-01     -4.276367000000000E+01
5580000000.000000      1.026001000000000E-01     -7.275781000000000E+01      3.323669000000000E-01     -7.113671000000000E+01
5600000000.000000      1.003418000000000E-01     -6.676171000000000E+01      3.380127000000000E-01     -9.899218000000000E+01
5620000000.000000      1.039314000000000E-01     -5.899414000000000E+01      3.396149000000000E-01     -1.265781000000000E+02
5640000000.000000      1.195755000000000E-01     -5.224609000000000E+01      3.375702000000000E-01     -1.541172000000000E+02
5660000000.000000      1.448288000000000E-01     -5.150781000000000E+01      3.311462000000000E-01      1.788203000000000E+02
5680000000.000000      1.721420000000000E-01     -5.741601000000000E+01      3.217468000000000E-01      1.509140000000000E+02
5700000000.000000      1.906357000000000E-01     -6.793359000000000E+01      3.085327000000000E-01      1.225234000000000E+02
5720000000.000000      1.928635000000000E-01     -8.034765000000000E+01      2.955475000000000E-01      9.503124000000000E+01
5740000000.000000      1.778793000000000E-01     -9.287109000000000E+01      2.901764000000000E-01      6.604297000000000E+01
5760000000.000000      1.489792000000000E-01     -1.023555000000000E+02      2.859039000000000E-01      3.499414000000000E+01
5780000000.000000      1.170006000000000E-01     -1.040820000000000E+02      2.814789000000000E-01      4.295654000000000E+00
5800000000.000000      9.877777000000000E-02     -9.542578000000000E+01      2.840729000000000E-01     -2.604785000000000E+01
5820000000.000000      1.030922000000000E-01     -8.708202000000000E+01      2.910767000000000E-01     -5.636719000000000E+01
5840000000.000000      1.141777000000000E-01     -8.893358000000000E+01      3.008118000000000E-01     -8.660156000000000E+01
5860000000.000000      1.175919000000000E-01     -9.705078000000000E+01      3.030701000000000E-01     -1.156328000000000E+02
5880000000.000000      1.082535000000000E-01     -1.076250000000000E+02      3.045654000000000E-01     -1.425234000000000E+02
5900000000.000000      8.915710000000000E-02     -1.144023000000000E+02      3.143311000000000E-01     -1.692266000000000E+02
5920000000.000000      7.051468000000000E-02     -1.131758000000000E+02      3.185577000000000E-01      1.628984000000000E+02
5940000000.000000      6.344223000000000E-02     -1.036601000000000E+02      3.119202000000000E-01      1.345703000000000E+02
5960000000.000000      6.204414000000000E-02     -9.921484000000000E+01      2.972260000000000E-01      1.070039000000000E+02
5980000000.000000      5.276489000000000E-02     -9.943748000000000E+01      2.864532000000000E-01      8.006250000000000E+01
6000000000.000000      3.273201000000000E-02     -8.559374000000000E+01      2.801056000000000E-01      5.064843000000000E+01
6020000000.000000      3.348160000000000E-02     -2.570605000000000E+01      2.679596000000000E-01      1.962891000000000E+01
6040000000.000000      6.935120000000000E-02     -1.286133000000000E+01      2.543182000000000E-01     -1.081348000000000E+01
6060000000.000000      1.055908000000000E-01     -2.176270000000000E+01      2.499008000000000E-01     -4.126172000000000E+01
6080000000.000000      1.318970000000000E-01     -3.583593000000000E+01      2.565918000000000E-01     -7.206640000000000E+01
