! Network Analyzer HP8722D
! Hewlett-Packard
! Data name: Linha & Wilkinson
! Saver's name: Rodrigo Anjos
! Comments: Teste da utilização de aquisição
continua pelo VNA HP8722D
! Time and date: 3/9/2025 17:53
!              Frequency                     S11                                                   S21                                                   S12                                                   S22
# HZ  S  MA R 50
3000000000.000000      7.608795000000000E-02      8.774218000000000E+01      4.557343000000000E-01      2.584765000000000E+01
3020000000.000000      9.287262000000000E-02      7.331640000000000E+01      4.561005000000000E-01     -2.870239000000000E+00
3040000000.000000      9.529114000000000E-02      5.681250000000000E+01      4.561005000000000E-01     -3.195996000000000E+01
3060000000.000000      8.390808000000000E-02      4.147265000000000E+01      4.532776000000000E-01     -6.034570000000000E+01
3080000000.000000      6.422806000000000E-02      3.011425000000000E+01      4.543304000000000E-01     -8.893358000000000E+01
3100000000.000000      4.571724000000000E-02      3.015332000000000E+01      4.530182000000000E-01     -1.174726000000000E+02
3120000000.000000      3.806114000000000E-02      4.270508000000000E+01      4.499512000000000E-01     -1.461094000000000E+02
3140000000.000000      3.753662000000000E-02      4.889648000000000E+01      4.452515000000000E-01     -1.745078000000000E+02
3160000000.000000      2.988148000000000E-02      4.905078000000000E+01      4.427185000000000E-01      1.569453000000000E+02
3180000000.000000      1.652527000000000E-02      9.585546000000000E+01      4.400482000000000E-01      1.283906000000000E+02
3200000000.000000      4.582596000000000E-02      1.441953000000000E+02      4.355316000000000E-01      9.889843000000000E+01
3220000000.000000      9.646225000000000E-02      1.370234000000000E+02      4.213409000000000E-01      6.976953000000000E+01
3240000000.000000      1.475677000000000E-01      1.218750000000000E+02      4.110565000000000E-01      4.243554000000000E+01
3260000000.000000      1.899109000000000E-01      1.049922000000000E+02      4.148254000000000E-01      1.483398000000000E+01
3280000000.000000      2.179642000000000E-01      8.762890000000000E+01      4.197083000000000E-01     -1.411621000000000E+01
3300000000.000000      2.289505000000000E-01      7.074219000000000E+01      4.135590000000000E-01     -4.292773000000000E+01
3320000000.000000      2.244339000000000E-01      5.548633000000000E+01      4.164124000000000E-01     -7.061328000000000E+01
3340000000.000000      2.087479000000000E-01      4.254492000000000E+01      4.225311000000000E-01     -9.926561000000000E+01
3360000000.000000      1.856995000000000E-01      3.325000000000000E+01      4.231567000000000E-01     -1.277031000000000E+02
3380000000.000000      1.618805000000000E-01      2.810840000000000E+01      4.291077000000000E-01     -1.559766000000000E+02
3400000000.000000      1.428223000000000E-01      2.634766000000000E+01      4.303284000000000E-01      1.753281000000000E+02
3420000000.000000      1.286392000000000E-01      2.581836000000000E+01      4.309998000000000E-01      1.466094000000000E+02
3440000000.000000      1.162682000000000E-01      2.531641000000000E+01      4.294128000000000E-01      1.178906000000000E+02
3460000000.000000      1.039925000000000E-01      2.626758000000000E+01      4.269257000000000E-01      8.940233000000000E+01
3480000000.000000      9.630203000000000E-02      2.920801000000000E+01      4.266510000000000E-01      6.061328000000000E+01
3500000000.000000      9.245300000000000E-02      3.320117000000000E+01      4.240875000000000E-01      3.169629000000000E+01
3520000000.000000      9.106445000000000E-02      3.669726000000000E+01      4.203796000000000E-01      3.534790000000000E+00
3540000000.000000      9.170914000000000E-02      4.015625000000000E+01      4.243774000000000E-01     -2.526172000000000E+01
3560000000.000000      9.424210000000000E-02      4.542382000000000E+01      4.258270000000000E-01     -5.416992000000000E+01
3580000000.000000      1.014290000000000E-01      5.057031000000000E+01      4.256287000000000E-01     -8.287889000000000E+01
3600000000.000000      1.150169000000000E-01      5.188281000000000E+01      4.260864000000000E-01     -1.109648000000000E+02
3620000000.000000      1.277771000000000E-01      4.893945000000000E+01      4.254456000000000E-01     -1.392109000000000E+02
3640000000.000000      1.337585000000000E-01      4.280469000000000E+01      4.252167000000000E-01     -1.675859000000000E+02
3660000000.000000      1.291885000000000E-01      3.590429000000000E+01      4.232483000000000E-01      1.645078000000000E+02
3680000000.000000      1.167374000000000E-01      3.273242000000000E+01      4.268188000000000E-01      1.368047000000000E+02
3700000000.000000      1.035194000000000E-01      3.563086000000000E+01      4.299774000000000E-01      1.084766000000000E+02
3720000000.000000      1.044121000000000E-01      4.467773000000000E+01      4.277039000000000E-01      7.987890000000000E+01
3740000000.000000      1.215591000000000E-01      4.854297000000000E+01      4.212952000000000E-01      5.131249000000000E+01
3760000000.000000      1.401672000000000E-01      4.557226000000000E+01      4.170685000000000E-01      2.350098000000000E+01
3780000000.000000      1.480026000000000E-01      3.803125000000000E+01      4.156952000000000E-01     -4.435791000000000E+00
3800000000.000000      1.413498000000000E-01      3.058691000000000E+01      4.159088000000000E-01     -3.286523000000000E+01
3820000000.000000      1.232758000000000E-01      2.733496000000000E+01      4.159088000000000E-01     -6.166992000000000E+01
3840000000.000000      1.083755000000000E-01      3.231445000000000E+01      4.159088000000000E-01     -9.055859000000000E+01
3860000000.000000      1.125336000000000E-01      4.061913000000000E+01      4.149475000000000E-01     -1.192930000000000E+02
3880000000.000000      1.303558000000000E-01      4.245898000000000E+01      4.121552000000000E-01     -1.485156000000000E+02
3900000000.000000      1.449432000000000E-01      3.681055000000000E+01      4.055939000000000E-01     -1.767891000000000E+02
3920000000.000000      1.435318000000000E-01      2.913574000000000E+01      4.055176000000000E-01      1.560781000000000E+02
3940000000.000000      1.260147000000000E-01      2.523926000000000E+01      4.136658000000000E-01      1.273828000000000E+02
3960000000.000000      1.077614000000000E-01      3.121875000000000E+01      4.132385000000000E-01      9.824219000000000E+01
3980000000.000000      1.139450000000000E-01      4.498828000000000E+01      4.051208000000000E-01      6.948047000000000E+01
4000000000.000000      1.451492000000000E-01      4.883789000000000E+01      3.981171000000000E-01      4.244726000000000E+01
4020000000.000000      1.781693000000000E-01      4.142578000000000E+01      4.037628000000000E-01      1.474609000000000E+01
4040000000.000000      1.971054000000000E-01      2.868066000000000E+01      4.048309000000000E-01     -1.513525000000000E+01
4060000000.000000      1.925278000000000E-01      1.467334000000000E+01      3.895874000000000E-01     -4.385938000000000E+01
4080000000.000000      1.640701000000000E-01      1.145325000000000E+00      3.903961000000000E-01     -7.082421000000000E+01
4100000000.000000      1.186943000000000E-01     -6.935303000000000E+00      3.993683000000000E-01     -9.929688000000000E+01
4120000000.000000      7.559967000000000E-02      2.966309000000000E+00      3.991394000000000E-01     -1.295156000000000E+02
4140000000.000000      7.262802000000000E-02      3.327929000000000E+01      3.937531000000000E-01     -1.582656000000000E+02
4160000000.000000      9.719849000000000E-02      4.302343000000000E+01      3.951111000000000E-01      1.737266000000000E+02
4180000000.000000      1.152077000000000E-01      3.985547000000000E+01      4.036255000000000E-01      1.451406000000000E+02
4200000000.000000      1.176491000000000E-01      3.601953000000000E+01      4.025116000000000E-01      1.152305000000000E+02
4220000000.000000      1.146889000000000E-01      3.814844000000000E+01      3.966370000000000E-01      8.600000000000000E+01
4240000000.000000      1.231575000000000E-01      4.461523000000000E+01      3.906708000000000E-01      5.741601000000000E+01
4260000000.000000      1.479721000000000E-01      4.690820000000000E+01      3.863525000000000E-01      2.952832000000000E+01
4280000000.000000      1.747971000000000E-01      4.227539000000000E+01      3.865509000000000E-01      1.146667000000000E+00
4300000000.000000      1.906128000000000E-01      3.415039000000000E+01      3.822479000000000E-01     -2.766797000000000E+01
4320000000.000000      1.906662000000000E-01      2.549511000000000E+01      3.799591000000000E-01     -5.628320000000000E+01
4340000000.000000      1.774902000000000E-01      1.958789000000000E+01      3.796539000000000E-01     -8.514063000000000E+01
4360000000.000000      1.635818000000000E-01      1.860352000000000E+01      3.754730000000000E-01     -1.144805000000000E+02
4380000000.000000      1.618958000000000E-01      2.125683000000000E+01      3.743286000000000E-01     -1.439922000000000E+02
4400000000.000000      1.720657000000000E-01      2.146679000000000E+01      3.722687000000000E-01     -1.729687000000000E+02
4420000000.000000      1.825943000000000E-01      1.738574000000000E+01      3.726501000000000E-01      1.581406000000000E+02
4440000000.000000      1.799927000000000E-01      1.151465000000000E+01      3.765259000000000E-01      1.284219000000000E+02
4460000000.000000      1.646576000000000E-01      8.236816000000000E+00      3.691101000000000E-01      9.867577000000000E+01
4480000000.000000      1.453323000000000E-01      1.157959000000000E+01      3.654327000000000E-01      7.073437000000000E+01
4500000000.000000      1.463318000000000E-01      2.078711000000000E+01      3.662109000000000E-01      4.202538000000000E+01
4520000000.000000      1.711960000000000E-01      2.513476000000000E+01      3.619843000000000E-01      1.231250000000000E+01
4540000000.000000      2.032776000000000E-01      2.114941000000000E+01      3.518982000000000E-01     -1.716894000000000E+01
4560000000.000000      2.241898000000000E-01      1.297461000000000E+01      3.451233000000000E-01     -4.518555000000000E+01
4580000000.000000      2.296143000000000E-01      3.920654000000000E+00      3.476715000000000E-01     -7.476563000000000E+01
4600000000.000000      2.216721000000000E-01     -3.464844000000000E+00      3.429565000000000E-01     -1.049805000000000E+02
4620000000.000000      2.093277000000000E-01     -7.833252000000000E+00      3.372498000000000E-01     -1.344844000000000E+02
4640000000.000000      2.031555000000000E-01     -1.004297000000000E+01      3.370514000000000E-01     -1.640312000000000E+02
4660000000.000000      2.027740000000000E-01     -1.285693000000000E+01      3.370056000000000E-01      1.668828000000000E+02
4680000000.000000      2.034073000000000E-01     -1.791894000000000E+01      3.416748000000000E-01      1.377656000000000E+02
4700000000.000000      1.972733000000000E-01     -2.479980000000000E+01      3.422394000000000E-01      1.080351000000000E+02
4720000000.000000      1.821671000000000E-01     -3.216015000000000E+01      3.392334000000000E-01      8.033983000000000E+01
4740000000.000000      1.613007000000000E-01     -3.884766000000000E+01      3.448486000000000E-01      5.260937000000000E+01
4760000000.000000      1.373062000000000E-01     -4.421484000000000E+01      3.467865000000000E-01      2.406641000000000E+01
4780000000.000000      1.120110000000000E-01     -4.858203000000000E+01      3.429565000000000E-01     -4.389160000000000E+00
4800000000.000000      8.079147000000000E-02     -5.346093000000000E+01      3.388672000000000E-01     -3.287109000000000E+01
4820000000.000000      3.851891000000000E-02     -5.037109000000000E+01      3.305511000000000E-01     -6.176758000000000E+01
4840000000.000000      3.072548000000000E-02      5.436718000000000E+01      3.235474000000000E-01     -9.089062000000000E+01
4860000000.000000      9.622955000000000E-02      6.234765000000000E+01      3.167267000000000E-01     -1.215703000000000E+02
4880000000.000000      1.659927000000000E-01      4.941601000000000E+01      2.968750000000000E-01     -1.527656000000000E+02
4900000000.000000      2.260666000000000E-01      3.368555000000000E+01      2.745361000000000E-01      1.795234000000000E+02
4920000000.000000      2.682190000000000E-01      1.709961000000000E+01      2.744141000000000E-01      1.540156000000000E+02
4940000000.000000      2.890625000000000E-01      1.426819000000000E+00      2.878418000000000E-01      1.254023000000000E+02
4960000000.000000      2.876282000000000E-01     -1.401172000000000E+01      2.920990000000000E-01      9.544531000000000E+01
4980000000.000000      2.628021000000000E-01     -2.765429000000000E+01      2.975616000000000E-01      6.832031000000000E+01
5000000000.000000      2.211990000000000E-01     -3.798047000000000E+01      3.118439000000000E-01      4.093750000000000E+01
5020000000.000000      1.741104000000000E-01     -4.085351000000000E+01      3.231506000000000E-01      1.290479000000000E+01
5040000000.000000      1.439896000000000E-01     -3.402539000000000E+01      3.304901000000000E-01     -1.428125000000000E+01
5060000000.000000      1.445389000000000E-01     -2.389746000000000E+01      3.391571000000000E-01     -4.144336000000000E+01
5080000000.000000      1.604614000000000E-01     -2.064746000000000E+01      3.447723000000000E-01     -6.958984000000000E+01
5100000000.000000      1.740265000000000E-01     -2.285058000000000E+01      3.388519000000000E-01     -9.806250000000000E+01
5120000000.000000      1.797256000000000E-01     -2.664648000000000E+01      3.325653000000000E-01     -1.254531000000000E+02
5140000000.000000      1.824036000000000E-01     -2.957129000000000E+01      3.306580000000000E-01     -1.536406000000000E+02
5160000000.000000      1.846924000000000E-01     -3.213281000000000E+01      3.272552000000000E-01      1.770391000000000E+02
5180000000.000000      1.891251000000000E-01     -3.552539000000000E+01      3.225250000000000E-01      1.473125000000000E+02
5200000000.000000      1.915817000000000E-01     -4.024219000000000E+01      3.208923000000000E-01      1.172500000000000E+02
5220000000.000000      1.865082000000000E-01     -4.478906000000000E+01      3.216553000000000E-01      8.740234000000000E+01
5240000000.000000      1.768265000000000E-01     -4.779882000000000E+01      3.265686000000000E-01      5.766992000000000E+01
5260000000.000000      1.680374000000000E-01     -4.813477000000000E+01      3.319855000000000E-01      2.787890000000000E+01
5280000000.000000      1.647110000000000E-01     -4.698632000000000E+01      3.373718000000000E-01     -1.119263000000000E+00
5300000000.000000      1.689377000000000E-01     -4.706445000000000E+01      3.405151000000000E-01     -2.929004000000000E+01
5320000000.000000      1.732941000000000E-01     -4.946094000000000E+01      3.451080000000000E-01     -5.620507000000000E+01
5340000000.000000      1.713715000000000E-01     -5.323047000000000E+01      3.493652000000000E-01     -8.401953000000000E+01
5360000000.000000      1.652527000000000E-01     -5.667187000000000E+01      3.449402000000000E-01     -1.113281000000000E+02
5380000000.000000      1.586304000000000E-01     -5.740624000000000E+01      3.398590000000000E-01     -1.377734000000000E+02
5400000000.000000      1.585236000000000E-01     -5.663476000000000E+01      3.384247000000000E-01     -1.651406000000000E+02
5420000000.000000      1.676254000000000E-01     -5.627734000000000E+01      3.316803000000000E-01      1.666016000000000E+02
5440000000.000000      1.793213000000000E-01     -5.920116000000000E+01      3.258362000000000E-01      1.374766000000000E+02
5460000000.000000      1.860733000000000E-01     -6.527734000000000E+01      3.151550000000000E-01      1.076680000000000E+02
5480000000.000000      1.808777000000000E-01     -7.252734000000000E+01      3.085785000000000E-01      7.815624000000000E+01
5500000000.000000      1.643982000000000E-01     -7.910546000000000E+01      3.108826000000000E-01      4.859375000000000E+01
5520000000.000000      1.415024000000000E-01     -8.281250000000000E+01      3.127289000000000E-01      1.803613000000000E+01
5540000000.000000      1.214485000000000E-01     -8.180079000000000E+01      3.176880000000000E-01     -1.173340000000000E+01
5560000000.000000      1.085625000000000E-01     -7.806641000000000E+01      3.241577000000000E-01     -4.061132000000000E+01
5580000000.000000      1.027832000000000E-01     -7.273438000000000E+01      3.308258000000000E-01     -6.911327000000000E+01
5600000000.000000      1.010551000000000E-01     -6.713672000000000E+01      3.358459000000000E-01     -9.692968000000000E+01
5620000000.000000      1.040840000000000E-01     -5.957031000000000E+01      3.390045000000000E-01     -1.246562000000000E+02
5640000000.000000      1.184731000000000E-01     -5.289257000000000E+01      3.366089000000000E-01     -1.521250000000000E+02
5660000000.000000      1.425247000000000E-01     -5.193945000000000E+01      3.301544000000000E-01     -1.792266000000000E+02
5680000000.000000      1.697464000000000E-01     -5.751562000000000E+01      3.218384000000000E-01      1.530000000000000E+02
5700000000.000000      1.896057000000000E-01     -6.772265000000000E+01      3.088379000000000E-01      1.248711000000000E+02
5720000000.000000      1.933975000000000E-01     -8.004686000000000E+01      2.951355000000000E-01      9.706640000000000E+01
5740000000.000000      1.797867000000000E-01     -9.241796000000000E+01      2.893066000000000E-01      6.833984000000000E+01
5760000000.000000      1.517029000000000E-01     -1.022617000000000E+02      2.848969000000000E-01      3.717968000000000E+01
5780000000.000000      1.190300000000000E-01     -1.048320000000000E+02      2.803497000000000E-01      6.624756000000000E+00
5800000000.000000      9.895325000000000E-02     -9.678905000000000E+01      2.821808000000000E-01     -2.366113000000000E+01
5820000000.000000      1.016541000000000E-01     -8.822266000000000E+01      2.896423000000000E-01     -5.396484000000000E+01
5840000000.000000      1.130791000000000E-01     -8.933594000000000E+01      2.991333000000000E-01     -8.433594000000000E+01
5860000000.000000      1.172333000000000E-01     -9.726563000000000E+01      3.015900000000000E-01     -1.135039000000000E+02
5880000000.000000      1.089478000000000E-01     -1.077578000000000E+02      3.031616000000000E-01     -1.404687000000000E+02
5900000000.000000      9.046936000000000E-02     -1.152187000000000E+02      3.126221000000000E-01     -1.671016000000000E+02
5920000000.000000      7.210541000000000E-02     -1.146133000000000E+02      3.187408000000000E-01      1.650391000000000E+02
5940000000.000000      6.316376000000000E-02     -1.050977000000000E+02      3.122406000000000E-01      1.366641000000000E+02
5960000000.000000      6.105804000000000E-02     -1.001836000000000E+02      2.976990000000000E-01      1.092539000000000E+02
5980000000.000000      5.241394000000000E-02     -9.933983000000000E+01      2.872009000000000E-01      8.225389000000000E+01
6000000000.000000      3.278351000000000E-02     -8.760937000000000E+01      2.807922000000000E-01      5.326562000000000E+01
6020000000.000000      3.126717000000000E-02     -2.861328000000000E+01      2.682953000000000E-01      2.225781000000000E+01
6040000000.000000      6.630707000000000E-02     -1.189307000000000E+01      2.539063000000000E-01     -8.271484000000000E+00
6060000000.000000      1.021347000000000E-01     -2.069824000000000E+01      2.491837000000000E-01     -3.850976000000000E+01
6080000000.000000      1.292343000000000E-01     -3.520898000000000E+01      2.549591000000000E-01     -6.955859000000000E+01
