! Network Analyzer HP8722D
! Hewlett-Packard
! Data name: Linha & Wilkinson
! Saver's name: Rodrigo Anjos
! Comments: Teste da utilização de aquisição
continua pelo VNA HP8722D
! Time and date: 3/9/2025 19:23
!              Frequency                     S11                                                   S21                                                   S12                                                   S22
# HZ  S  MA R 50
3000000000.000000      7.600403000000000E-02      8.821875000000000E+01      4.556732000000000E-01      2.617871000000000E+01
3020000000.000000      9.287262000000000E-02      7.363671000000000E+01      4.573059000000000E-01     -2.708130000000000E+00
3040000000.000000      9.564590000000000E-02      5.745703000000000E+01      4.557190000000000E-01     -3.177441000000000E+01
3060000000.000000      8.386612000000000E-02      4.192773000000000E+01      4.542847000000000E-01     -6.018359000000000E+01
3080000000.000000      6.408310000000000E-02      3.074707000000000E+01      4.564667000000000E-01     -8.872265000000000E+01
3100000000.000000      4.499626000000000E-02      3.076269000000000E+01      4.537201000000000E-01     -1.171484000000000E+02
3120000000.000000      3.744125000000000E-02      4.313281000000000E+01      4.514008000000000E-01     -1.456875000000000E+02
3140000000.000000      3.759384000000000E-02      4.933788000000000E+01      4.463348000000000E-01     -1.743047000000000E+02
3160000000.000000      2.994537000000000E-02      5.021484000000000E+01      4.431915000000000E-01      1.573594000000000E+02
3180000000.000000      1.669407000000000E-02      9.516796000000000E+01      4.408722000000000E-01      1.287031000000000E+02
3200000000.000000      4.632950000000000E-02      1.443281000000000E+02      4.365692000000000E-01      9.906639000000000E+01
3220000000.000000      9.740067000000000E-02      1.376250000000000E+02      4.236450000000000E-01      6.994531000000000E+01
3240000000.000000      1.482315000000000E-01      1.224336000000000E+02      4.122467000000000E-01      4.257031000000000E+01
3260000000.000000      1.908569000000000E-01      1.053828000000000E+02      4.145813000000000E-01      1.516797000000000E+01
3280000000.000000      2.182083000000000E-01      8.801952000000000E+01      4.198761000000000E-01     -1.405029000000000E+01
3300000000.000000      2.296677000000000E-01      7.105859000000000E+01      4.163361000000000E-01     -4.265234000000000E+01
3320000000.000000      2.250137000000000E-01      5.574023000000000E+01      4.179230000000000E-01     -7.046484000000000E+01
3340000000.000000      2.092819000000000E-01      4.288281000000000E+01      4.241486000000000E-01     -9.900391000000000E+01
3360000000.000000      1.860580000000000E-01      3.350781000000000E+01      4.250031000000000E-01     -1.275352000000000E+02
3380000000.000000      1.622543000000000E-01      2.841797000000000E+01      4.302216000000000E-01     -1.557969000000000E+02
3400000000.000000      1.429977000000000E-01      2.641894000000000E+01      4.311829000000000E-01      1.754922000000000E+02
3420000000.000000      1.287308000000000E-01      2.602636000000000E+01      4.326630000000000E-01      1.469063000000000E+02
3440000000.000000      1.163712000000000E-01      2.562891000000000E+01      4.322205000000000E-01      1.180664000000000E+02
3460000000.000000      1.039886000000000E-01      2.665918000000000E+01      4.291077000000000E-01      8.976954000000000E+01
3480000000.000000      9.577560000000000E-02      2.933300000000000E+01      4.300232000000000E-01      6.091406000000000E+01
3500000000.000000      9.214401000000000E-02      3.350195000000000E+01      4.247742000000000E-01      3.186230000000000E+01
3520000000.000000      9.085464000000000E-02      3.698242000000000E+01      4.223480000000000E-01      3.698242000000000E+00
3540000000.000000      9.180832000000000E-02      4.048047000000000E+01      4.250641000000000E-01     -2.480078000000000E+01
3560000000.000000      9.428406000000000E-02      4.566992000000000E+01      4.275055000000000E-01     -5.394531000000000E+01
3580000000.000000      1.014023000000000E-01      5.073047000000000E+01      4.261169000000000E-01     -8.270311000000000E+01
3600000000.000000      1.149864000000000E-01      5.222265000000000E+01      4.253998000000000E-01     -1.107227000000000E+02
3620000000.000000      1.279602000000000E-01      4.938477000000000E+01      4.269104000000000E-01     -1.391016000000000E+02
3640000000.000000      1.338959000000000E-01      4.329297000000000E+01      4.259033000000000E-01     -1.672734000000000E+02
3660000000.000000      1.293106000000000E-01      3.622461000000000E+01      4.248047000000000E-01      1.648906000000000E+02
3680000000.000000      1.166763000000000E-01      3.292969000000000E+01      4.288483000000000E-01      1.371484000000000E+02
3700000000.000000      1.035843000000000E-01      3.612695000000000E+01      4.305573000000000E-01      1.086328000000000E+02
3720000000.000000      1.041451000000000E-01      4.513867000000000E+01      4.278412000000000E-01      7.993750000000000E+01
3740000000.000000      1.216469000000000E-01      4.922656000000000E+01      4.227448000000000E-01      5.140234000000000E+01
3760000000.000000      1.404495000000000E-01      4.599609000000000E+01      4.174347000000000E-01      2.368847000000000E+01
3780000000.000000      1.482544000000000E-01      3.865820000000000E+01      4.172058000000000E-01     -4.121338000000000E+00
3800000000.000000      1.414719000000000E-01      3.113086000000000E+01      4.176025000000000E-01     -3.246094000000000E+01
3820000000.000000      1.229897000000000E-01      2.774414000000000E+01      4.177094000000000E-01     -6.138476000000000E+01
3840000000.000000      1.082649000000000E-01      3.262109000000000E+01      4.165344000000000E-01     -9.042578000000000E+01
3860000000.000000      1.121368000000000E-01      4.095703000000000E+01      4.145660000000000E-01     -1.190156000000000E+02
3880000000.000000      1.305313000000000E-01      4.285546000000000E+01      4.116821000000000E-01     -1.483203000000000E+02
3900000000.000000      1.454544000000000E-01      3.733203000000000E+01      4.054108000000000E-01     -1.764453000000000E+02
3920000000.000000      1.438293000000000E-01      2.969238000000000E+01      4.068756000000000E-01      1.562500000000000E+02
3940000000.000000      1.263428000000000E-01      2.547363000000000E+01      4.159241000000000E-01      1.277383000000000E+02
3960000000.000000      1.079559000000000E-01      3.186816000000000E+01      4.154205000000000E-01      9.857422000000000E+01
3980000000.000000      1.134491000000000E-01      4.555860000000000E+01      4.057312000000000E-01      6.997656000000000E+01
4000000000.000000      1.452942000000000E-01      4.898438000000000E+01      3.994293000000000E-01      4.288086000000000E+01
4020000000.000000      1.784210000000000E-01      4.193749000000000E+01      4.057617000000000E-01      1.512256000000000E+01
4040000000.000000      1.973572000000000E-01      2.911621000000000E+01      4.056244000000000E-01     -1.494873000000000E+01
4060000000.000000      1.930389000000000E-01      1.512109000000000E+01      3.911591000000000E-01     -4.367383000000000E+01
4080000000.000000      1.647415000000000E-01      1.599854000000000E+00      3.912354000000000E-01     -7.033203000000000E+01
4100000000.000000      1.188011000000000E-01     -6.366699000000000E+00      4.011078000000000E-01     -9.922264000000000E+01
4120000000.000000      7.562256000000000E-02      3.475708000000000E+00      3.994904000000000E-01     -1.291953000000000E+02
4140000000.000000      7.246017000000000E-02      3.396679000000000E+01      3.954926000000000E-01     -1.580781000000000E+02
4160000000.000000      9.737778000000000E-02      4.375390000000000E+01      3.965149000000000E-01      1.739844000000000E+02
4180000000.000000      1.153412000000000E-01      4.023046000000000E+01      4.037323000000000E-01      1.456563000000000E+02
4200000000.000000      1.179810000000000E-01      3.654297000000000E+01      4.040527000000000E-01      1.154140000000000E+02
4220000000.000000      1.153984000000000E-01      3.860156000000000E+01      3.975372000000000E-01      8.619921000000000E+01
4240000000.000000      1.240578000000000E-01      4.520898000000000E+01      3.911896000000000E-01      5.791406000000000E+01
4260000000.000000      1.486206000000000E-01      4.727929000000000E+01      3.876953000000000E-01      2.972851000000000E+01
4280000000.000000      1.752777000000000E-01      4.274414000000000E+01      3.859100000000000E-01      1.398010000000000E+00
4300000000.000000      1.914063000000000E-01      3.454687000000000E+01      3.844299000000000E-01     -2.726465000000000E+01
4320000000.000000      1.914749000000000E-01      2.604980000000000E+01      3.811035000000000E-01     -5.622851000000000E+01
4340000000.000000      1.778412000000000E-01      1.999219000000000E+01      3.800507000000000E-01     -8.492579000000000E+01
4360000000.000000      1.638031000000000E-01      1.894824000000000E+01      3.786163000000000E-01     -1.142539000000000E+02
4380000000.000000      1.619263000000000E-01      2.157227000000000E+01      3.753510000000000E-01     -1.436016000000000E+02
4400000000.000000      1.726837000000000E-01      2.175683000000000E+01      3.723755000000000E-01     -1.727500000000000E+02
4420000000.000000      1.831360000000000E-01      1.785645000000000E+01      3.749542000000000E-01      1.585156000000000E+02
4440000000.000000      1.807098000000000E-01      1.198730000000000E+01      3.768768000000000E-01      1.285703000000000E+02
4460000000.000000      1.646957000000000E-01      8.583008000000000E+00      3.701630000000000E-01      9.918749000000000E+01
4480000000.000000      1.453018000000000E-01      1.202979000000000E+01      3.670502000000000E-01      7.085938000000000E+01
4500000000.000000      1.466675000000000E-01      2.101269000000000E+01      3.670807000000000E-01      4.214844000000000E+01
4520000000.000000      1.719894000000000E-01      2.560156000000000E+01      3.624573000000000E-01      1.271484000000000E+01
4540000000.000000      2.034988000000000E-01      2.159961000000000E+01      3.533020000000000E-01     -1.705957000000000E+01
4560000000.000000      2.243195000000000E-01      1.331543000000000E+01      3.453979000000000E-01     -4.505664000000000E+01
4580000000.000000      2.301407000000000E-01      4.159668000000000E+00      3.484802000000000E-01     -7.431641000000000E+01
4600000000.000000      2.223282000000000E-01     -3.033691000000000E+00      3.447723000000000E-01     -1.045976000000000E+02
4620000000.000000      2.099533000000000E-01     -7.479004000000000E+00      3.391418000000000E-01     -1.341094000000000E+02
4640000000.000000      2.030411000000000E-01     -9.701172000000000E+00      3.382721000000000E-01     -1.635625000000000E+02
4660000000.000000      2.030945000000000E-01     -1.255371000000000E+01      3.387756000000000E-01      1.670781000000000E+02
4680000000.000000      2.035828000000000E-01     -1.752246000000000E+01      3.430939000000000E-01      1.380469000000000E+02
4700000000.000000      1.973343000000000E-01     -2.450000000000000E+01      3.437805000000000E-01      1.085156000000000E+02
4720000000.000000      1.817932000000000E-01     -3.183300000000000E+01      3.402710000000000E-01      8.057421000000000E+01
4740000000.000000      1.613541000000000E-01     -3.846680000000000E+01      3.465424000000000E-01      5.288086000000000E+01
4760000000.000000      1.371231000000000E-01     -4.362695000000000E+01      3.479767000000000E-01      2.420801000000000E+01
4780000000.000000      1.116409000000000E-01     -4.837891000000000E+01      3.439026000000000E-01     -4.023926000000000E+00
4800000000.000000      8.018875000000000E-02     -5.301758000000000E+01      3.400421000000000E-01     -3.261133000000000E+01
4820000000.000000      3.769112000000000E-02     -4.998828000000000E+01      3.316803000000000E-01     -6.150585000000000E+01
4840000000.000000      3.139877000000000E-02      5.515625000000000E+01      3.248749000000000E-01     -9.065624000000000E+01
4860000000.000000      9.668350000000000E-02      6.295703000000000E+01      3.176880000000000E-01     -1.213164000000000E+02
4880000000.000000      1.666107000000000E-01      4.997656000000000E+01      2.981110000000000E-01     -1.524531000000000E+02
4900000000.000000      2.264481000000000E-01      3.413281000000000E+01      2.751007000000000E-01      1.797344000000000E+02
4920000000.000000      2.688141000000000E-01      1.752539000000000E+01      2.747192000000000E-01      1.541719000000000E+02
4940000000.000000      2.907410000000000E-01      1.719360000000000E+00      2.881317000000000E-01      1.256250000000000E+02
4960000000.000000      2.889862000000000E-01     -1.356006000000000E+01      2.926941000000000E-01      9.576563000000000E+01
4980000000.000000      2.634430000000000E-01     -2.724902000000000E+01      2.983093000000000E-01      6.862890000000000E+01
5000000000.000000      2.216415000000000E-01     -3.766992000000000E+01      3.133850000000000E-01      4.132617000000000E+01
5020000000.000000      1.743011000000000E-01     -4.066602000000000E+01      3.234711000000000E-01      1.320801000000000E+01
5040000000.000000      1.439972000000000E-01     -3.383398000000000E+01      3.317108000000000E-01     -1.389648000000000E+01
5060000000.000000      1.446381000000000E-01     -2.370215000000000E+01      3.395081000000000E-01     -4.105469000000000E+01
5080000000.000000      1.604156000000000E-01     -2.043652000000000E+01      3.459320000000000E-01     -6.928905000000000E+01
5100000000.000000      1.739273000000000E-01     -2.242676000000000E+01      3.397827000000000E-01     -9.773438000000000E+01
5120000000.000000      1.796875000000000E-01     -2.616406000000000E+01      3.336945000000000E-01     -1.250430000000000E+02
5140000000.000000      1.822968000000000E-01     -2.905078000000000E+01      3.311462000000000E-01     -1.533203000000000E+02
5160000000.000000      1.846466000000000E-01     -3.156738000000000E+01      3.282166000000000E-01      1.772500000000000E+02
5180000000.000000      1.887512000000000E-01     -3.524805000000000E+01      3.242798000000000E-01      1.476875000000000E+02
5200000000.000000      1.912155000000000E-01     -3.976367000000000E+01      3.226776000000000E-01      1.174414000000000E+02
5220000000.000000      1.865387000000000E-01     -4.465429000000000E+01      3.225250000000000E-01      8.770311000000000E+01
5240000000.000000      1.769257000000000E-01     -4.751562000000000E+01      3.279724000000000E-01      5.792969000000000E+01
5260000000.000000      1.681061000000000E-01     -4.785352000000000E+01      3.331299000000000E-01      2.825684000000000E+01
5280000000.000000      1.646652000000000E-01     -4.657422000000000E+01      3.376160000000000E-01     -8.500671000000000E-01
5300000000.000000      1.688461000000000E-01     -4.655469000000000E+01      3.414307000000000E-01     -2.889843000000000E+01
5320000000.000000      1.730270000000000E-01     -4.900976000000000E+01      3.464050000000000E-01     -5.592968000000000E+01
5340000000.000000      1.714706000000000E-01     -5.280078000000000E+01      3.507385000000000E-01     -8.365234000000000E+01
5360000000.000000      1.644821000000000E-01     -5.606054000000000E+01      3.456879000000000E-01     -1.110195000000000E+02
5380000000.000000      1.579971000000000E-01     -5.714844000000000E+01      3.403320000000000E-01     -1.375078000000000E+02
5400000000.000000      1.577377000000000E-01     -5.638866000000000E+01      3.393250000000000E-01     -1.647422000000000E+02
5420000000.000000      1.676559000000000E-01     -5.589453000000000E+01      3.328400000000000E-01      1.669141000000000E+02
5440000000.000000      1.796646000000000E-01     -5.892968000000000E+01      3.264160000000000E-01      1.378438000000000E+02
5460000000.000000      1.865005000000000E-01     -6.499609000000000E+01      3.156128000000000E-01      1.080781000000000E+02
5480000000.000000      1.812210000000000E-01     -7.207421000000000E+01      3.096161000000000E-01      7.846874000000000E+01
5500000000.000000      1.645584000000000E-01     -7.851953000000000E+01      3.114777000000000E-01      4.857226000000000E+01
5520000000.000000      1.409988000000000E-01     -8.251953000000000E+01      3.137665000000000E-01      1.844043000000000E+01
5540000000.000000      1.209526000000000E-01     -8.167578000000000E+01      3.185120000000000E-01     -1.134082000000000E+01
5560000000.000000      1.081772000000000E-01     -7.775781000000000E+01      3.246918000000000E-01     -4.027929000000000E+01
5580000000.000000      1.025009000000000E-01     -7.271484000000000E+01      3.327179000000000E-01     -6.880077000000000E+01
5600000000.000000      1.006050000000000E-01     -6.702343000000000E+01      3.373108000000000E-01     -9.659374000000000E+01
5620000000.000000      1.037674000000000E-01     -5.949219000000000E+01      3.396454000000000E-01     -1.242930000000000E+02
5640000000.000000      1.181297000000000E-01     -5.245898000000000E+01      3.380737000000000E-01     -1.518281000000000E+02
5660000000.000000      1.428604000000000E-01     -5.153320000000000E+01      3.318481000000000E-01     -1.788984000000000E+02
5680000000.000000      1.700058000000000E-01     -5.699023000000000E+01      3.233337000000000E-01      1.534765000000000E+02
5700000000.000000      1.893082000000000E-01     -6.718750000000000E+01      3.102722000000000E-01      1.250781000000000E+02
5720000000.000000      1.931152000000000E-01     -7.950390000000000E+01      2.962036000000000E-01      9.732422000000000E+01
5740000000.000000      1.790161000000000E-01     -9.216015000000000E+01      2.905884000000000E-01      6.875000000000000E+01
5760000000.000000      1.520767000000000E-01     -1.021094000000000E+02      2.863464000000000E-01      3.763086000000000E+01
5780000000.000000      1.193008000000000E-01     -1.047344000000000E+02      2.816620000000000E-01      7.009277000000000E+00
5800000000.000000      9.849548000000000E-02     -9.669531000000000E+01      2.839050000000000E-01     -2.320899000000000E+01
5820000000.000000      1.014671000000000E-01     -8.756639000000000E+01      2.908783000000000E-01     -5.363867000000000E+01
5840000000.000000      1.133270000000000E-01     -8.858593000000000E+01      3.005371000000000E-01     -8.394140000000000E+01
5860000000.000000      1.172981000000000E-01     -9.688280000000000E+01      3.029327000000000E-01     -1.131797000000000E+02
5880000000.000000      1.088257000000000E-01     -1.072500000000000E+02      3.046265000000000E-01     -1.401328000000000E+02
5900000000.000000      9.055710000000000E-02     -1.149570000000000E+02      3.138580000000000E-01     -1.667969000000000E+02
5920000000.000000      7.081985000000000E-02     -1.146445000000000E+02      3.190765000000000E-01      1.654219000000000E+02
5940000000.000000      6.279373000000000E-02     -1.046328000000000E+02      3.134918000000000E-01      1.369688000000000E+02
5960000000.000000      6.118774000000000E-02     -9.960938000000000E+01      2.988281000000000E-01      1.095391000000000E+02
5980000000.000000      5.222130000000000E-02     -9.910545000000000E+01      2.883148000000000E-01      8.262890000000000E+01
6000000000.000000      3.275681000000000E-02     -8.694921000000000E+01      2.816467000000000E-01      5.346093000000000E+01
6020000000.000000      3.153229000000000E-02     -2.766406000000000E+01      2.693939000000000E-01      2.250781000000000E+01
6040000000.000000      6.605148000000000E-02     -1.176953000000000E+01      2.550964000000000E-01     -7.932129000000000E+00
6060000000.000000      1.024818000000000E-01     -2.035645000000000E+01      2.505188000000000E-01     -3.820703000000000E+01
6080000000.000000      1.298370000000000E-01     -3.439453000000000E+01      2.561340000000000E-01     -6.910546000000000E+01
