! Network Analyzer HP8722D
! Hewlett-Packard
! Data name: Linha & Wilkinson
! Saver's name: Rodrigo Anjos
! Comments: Teste da utilização de aquisição
continua pelo VNA HP8722D
! Time and date: 3/9/2025 19:30
!              Frequency                     S11                                                   S21                                                   S12                                                   S22
# HZ  S  MA R 50
3000000000.000000      7.713699000000000E-02      8.764843000000000E+01      4.575043000000000E-01      2.487305000000000E+01
3020000000.000000      9.393311000000000E-02      7.277734000000000E+01      4.595642000000000E-01     -3.992188000000000E+00
3040000000.000000      9.537888000000000E-02      5.650195000000000E+01      4.591370000000000E-01     -3.300781000000000E+01
3060000000.000000      8.311081000000000E-02      4.130078000000000E+01      4.555664000000000E-01     -6.140820000000000E+01
3080000000.000000      6.292725000000000E-02      3.062207000000000E+01      4.559326000000000E-01     -9.015234000000000E+01
3100000000.000000      4.472923000000000E-02      3.134472000000000E+01      4.557953000000000E-01     -1.184609000000000E+02
3120000000.000000      3.798103000000000E-02      4.431250000000000E+01      4.521179000000000E-01     -1.471172000000000E+02
3140000000.000000      3.793907000000000E-02      4.938867000000000E+01      4.472351000000000E-01     -1.756562000000000E+02
3160000000.000000      2.937889000000000E-02      4.936913000000000E+01      4.452209000000000E-01      1.559687000000000E+02
3180000000.000000      1.610184000000000E-02      9.831249000000000E+01      4.434814000000000E-01      1.273711000000000E+02
3200000000.000000      4.758072000000000E-02      1.453281000000000E+02      4.380341000000000E-01      9.764843000000000E+01
3220000000.000000      9.908295000000000E-02      1.375156000000000E+02      4.248199000000000E-01      6.859375000000000E+01
3240000000.000000      1.503372000000000E-01      1.219180000000000E+02      4.127350000000000E-01      4.120703000000000E+01
3260000000.000000      1.922989000000000E-01      1.048984000000000E+02      4.175415000000000E-01      1.383984000000000E+01
3280000000.000000      2.198792000000000E-01      8.745703000000000E+01      4.222870000000000E-01     -1.559277000000000E+01
3300000000.000000      2.293701000000000E-01      7.053124000000000E+01      4.167175000000000E-01     -4.422071000000000E+01
3320000000.000000      2.246094000000000E-01      5.521484000000000E+01      4.191589000000000E-01     -7.182812000000000E+01
3340000000.000000      2.081680000000000E-01      4.253906000000000E+01      4.244385000000000E-01     -1.005820000000000E+02
3360000000.000000      1.850052000000000E-01      3.328906000000000E+01      4.248657000000000E-01     -1.287734000000000E+02
3380000000.000000      1.608658000000000E-01      2.850879000000000E+01      4.300842000000000E-01     -1.570078000000000E+02
3400000000.000000      1.416702000000000E-01      2.684277000000000E+01      4.328918000000000E-01      1.741250000000000E+02
3420000000.000000      1.286163000000000E-01      2.646875000000000E+01      4.339600000000000E-01      1.454141000000000E+02
3440000000.000000      1.163521000000000E-01      2.609179000000000E+01      4.328156000000000E-01      1.164883000000000E+02
3460000000.000000      1.047173000000000E-01      2.722656000000000E+01      4.300385000000000E-01      8.822657000000000E+01
3480000000.000000      9.662628000000000E-02      2.986035000000000E+01      4.315491000000000E-01      5.943164000000000E+01
3500000000.000000      9.318161000000000E-02      3.353125000000000E+01      4.261627000000000E-01      3.039063000000000E+01
3520000000.000000      9.164047000000000E-02      3.685742000000000E+01      4.233093000000000E-01      2.184814000000000E+00
3540000000.000000      9.230423000000000E-02      4.025195000000000E+01      4.264984000000000E-01     -2.629395000000000E+01
3560000000.000000      9.440994000000000E-02      4.578906000000000E+01      4.276733000000000E-01     -5.546875000000000E+01
3580000000.000000      1.018486000000000E-01      5.083984000000000E+01      4.285889000000000E-01     -8.414843000000000E+01
3600000000.000000      1.158524000000000E-01      5.226171000000000E+01      4.267120000000000E-01     -1.123789000000000E+02
3620000000.000000      1.287842000000000E-01      4.903906000000000E+01      4.278564000000000E-01     -1.406250000000000E+02
3640000000.000000      1.339874000000000E-01      4.281446000000000E+01      4.277496000000000E-01     -1.688672000000000E+02
3660000000.000000      1.288681000000000E-01      3.587891000000000E+01      4.255371000000000E-01      1.632813000000000E+02
3680000000.000000      1.158485000000000E-01      3.275391000000000E+01      4.299927000000000E-01      1.355937000000000E+02
3700000000.000000      1.032104000000000E-01      3.632031000000000E+01      4.314575000000000E-01      1.070234000000000E+02
3720000000.000000      1.045265000000000E-01      4.548047000000000E+01      4.294586000000000E-01      7.853906000000000E+01
3740000000.000000      1.227036000000000E-01      4.941992000000000E+01      4.238129000000000E-01      4.996679000000000E+01
3760000000.000000      1.409531000000000E-01      4.562890000000000E+01      4.170685000000000E-01      2.190625000000000E+01
3780000000.000000      1.484680000000000E-01      3.811914000000000E+01      4.170685000000000E-01     -5.594971000000000E+00
3800000000.000000      1.406326000000000E-01      3.082812000000000E+01      4.190216000000000E-01     -3.412890000000000E+01
3820000000.000000      1.220436000000000E-01      2.783984000000000E+01      4.172821000000000E-01     -6.291992000000000E+01
3840000000.000000      1.080780000000000E-01      3.299414000000000E+01      4.170685000000000E-01     -9.201172000000000E+01
3860000000.000000      1.133270000000000E-01      4.130859000000000E+01      4.167480000000000E-01     -1.207305000000000E+02
3880000000.000000      1.319809000000000E-01      4.262695000000000E+01      4.139099000000000E-01     -1.499453000000000E+02
3900000000.000000      1.458664000000000E-01      3.664453000000000E+01      4.063568000000000E-01     -1.781484000000000E+02
3920000000.000000      1.429520000000000E-01      2.911621000000000E+01      4.085693000000000E-01      1.546406000000000E+02
3940000000.000000      1.244087000000000E-01      2.558300000000000E+01      4.156647000000000E-01      1.258711000000000E+02
3960000000.000000      1.064529000000000E-01      3.254687000000000E+01      4.149323000000000E-01      9.679296000000000E+01
3980000000.000000      1.148758000000000E-01      4.642578000000000E+01      4.068604000000000E-01      6.823437000000000E+01
4000000000.000000      1.477814000000000E-01      4.926367000000000E+01      4.007568000000000E-01      4.105273000000000E+01
4020000000.000000      1.803131000000000E-01      4.138672000000000E+01      4.059143000000000E-01      1.324951000000000E+01
4040000000.000000      1.984711000000000E-01      2.851563000000000E+01      4.065704000000000E-01     -1.668848000000000E+01
4060000000.000000      1.922989000000000E-01      1.425293000000000E+01      3.918457000000000E-01     -4.551562000000000E+01
4080000000.000000      1.628418000000000E-01      8.624268000000000E-01      3.909607000000000E-01     -7.216797000000000E+01
4100000000.000000      1.163101000000000E-01     -6.601563000000000E+00      4.014435000000000E-01     -1.011211000000000E+02
4120000000.000000      7.412720000000000E-02      5.468262000000000E+00      4.005127000000000E-01     -1.311172000000000E+02
4140000000.000000      7.365799000000000E-02      3.520508000000000E+01      3.964386000000000E-01     -1.597265000000000E+02
4160000000.000000      9.844971000000000E-02      4.357812000000000E+01      3.967896000000000E-01      1.722422000000000E+02
4180000000.000000      1.159210000000000E-01      4.006445000000000E+01      4.038544000000000E-01      1.437031000000000E+02
4200000000.000000      1.172371000000000E-01      3.643945000000000E+01      4.057617000000000E-01      1.135234000000000E+02
4220000000.000000      1.147919000000000E-01      3.901758000000000E+01      3.979492000000000E-01      8.446484000000000E+01
4240000000.000000      1.245384000000000E-01      4.546679000000000E+01      3.914337000000000E-01      5.600780000000000E+01
4260000000.000000      1.500549000000000E-01      4.737305000000000E+01      3.867798000000000E-01      2.802832000000000E+01
4280000000.000000      1.770172000000000E-01      4.253320000000000E+01      3.873901000000000E-01     -3.886414000000000E-01
4300000000.000000      1.918488000000000E-01      3.428906000000000E+01      3.832092000000000E-01     -2.928027000000000E+01
4320000000.000000      1.909256000000000E-01      2.576269000000000E+01      3.814850000000000E-01     -5.815430000000000E+01
4340000000.000000      1.770630000000000E-01      2.003125000000000E+01      3.804016000000000E-01     -8.700781000000000E+01
4360000000.000000      1.634445000000000E-01      1.940430000000000E+01      3.781738000000000E-01     -1.164023000000000E+02
4380000000.000000      1.630096000000000E-01      2.202539000000000E+01      3.760376000000000E-01     -1.456250000000000E+02
4400000000.000000      1.741257000000000E-01      2.186133000000000E+01      3.727722000000000E-01     -1.749141000000000E+02
4420000000.000000      1.841125000000000E-01      1.750195000000000E+01      3.762360000000000E-01      1.566015000000000E+02
4440000000.000000      1.811523000000000E-01      1.162207000000000E+01      3.783264000000000E-01      1.268437000000000E+02
4460000000.000000      1.641769000000000E-01      8.411133000000000E+00      3.708954000000000E-01      9.708593000000000E+01
4480000000.000000      1.449966000000000E-01      1.241309000000000E+01      3.677521000000000E-01      6.883594000000000E+01
4500000000.000000      1.483231000000000E-01      2.147461000000000E+01      3.663940000000000E-01      4.020117000000000E+01
4520000000.000000      1.747284000000000E-01      2.557031000000000E+01      3.625946000000000E-01      1.064697000000000E+01
4540000000.000000      2.049637000000000E-01      2.104004000000000E+01      3.532715000000000E-01     -1.888574000000000E+01
4560000000.000000      2.250519000000000E-01      1.276025000000000E+01      3.460236000000000E-01     -4.705859000000000E+01
4580000000.000000      2.297821000000000E-01      3.757324000000000E+00      3.493500000000000E-01     -7.642187000000000E+01
4600000000.000000      2.212143000000000E-01     -3.412720000000000E+00      3.452759000000000E-01     -1.070117000000000E+02
4620000000.000000      2.090454000000000E-01     -7.418701000000000E+00      3.400269000000000E-01     -1.362266000000000E+02
4640000000.000000      2.029572000000000E-01     -9.686035000000000E+00      3.394928000000000E-01     -1.658281000000000E+02
4660000000.000000      2.031860000000000E-01     -1.255225000000000E+01      3.395538000000000E-01      1.650625000000000E+02
4680000000.000000      2.037735000000000E-01     -1.770996000000000E+01      3.438568000000000E-01      1.361172000000000E+02
4700000000.000000      1.971283000000000E-01     -2.486914000000000E+01      3.441620000000000E-01      1.063711000000000E+02
4720000000.000000      1.810532000000000E-01     -3.216797000000000E+01      3.413391000000000E-01      7.862499000000000E+01
4740000000.000000      1.604233000000000E-01     -3.862695000000000E+01      3.482208000000000E-01      5.101171000000000E+01
4760000000.000000      1.361771000000000E-01     -4.384179000000000E+01      3.478546000000000E-01      2.227832000000000E+01
4780000000.000000      1.102715000000000E-01     -4.866405000000000E+01      3.447418000000000E-01     -6.243164000000000E+00
4800000000.000000      7.862091000000000E-02     -5.325000000000000E+01      3.403320000000000E-01     -3.460742000000000E+01
4820000000.000000      3.528404000000000E-02     -4.808398000000000E+01      3.313751000000000E-01     -6.367382000000000E+01
4840000000.000000      3.526306000000000E-02      5.880859000000000E+01      3.244476000000000E-01     -9.275000000000000E+01
4860000000.000000      1.023140000000000E-01      6.190820000000000E+01      3.176575000000000E-01     -1.235352000000000E+02
4880000000.000000      1.710663000000000E-01      4.879687000000000E+01      2.971649000000000E-01     -1.547188000000000E+02
4900000000.000000      2.303848000000000E-01      3.301758000000000E+01      2.754974000000000E-01      1.775781000000000E+02
4920000000.000000      2.709503000000000E-01      1.634863000000000E+01      2.752228000000000E-01      1.520781000000000E+02
4940000000.000000      2.913208000000000E-01      5.218506000000000E-01      2.898254000000000E-01      1.234648000000000E+02
4960000000.000000      2.883911000000000E-01     -1.474951000000000E+01      2.937012000000000E-01      9.367579000000000E+01
4980000000.000000      2.614136000000000E-01     -2.830957000000000E+01      2.999268000000000E-01      6.652734000000000E+01
5000000000.000000      2.182007000000000E-01     -3.832617000000000E+01      3.139191000000000E-01      3.908594000000000E+01
5020000000.000000      1.708221000000000E-01     -4.078125000000000E+01      3.251343000000000E-01      1.103027000000000E+01
5040000000.000000      1.425018000000000E-01     -3.325390000000000E+01      3.323517000000000E-01     -1.593457000000000E+01
5060000000.000000      1.445923000000000E-01     -2.340527000000000E+01      3.407593000000000E-01     -4.314843000000000E+01
5080000000.000000      1.612091000000000E-01     -2.052051000000000E+01      3.451691000000000E-01     -7.133203000000000E+01
5100000000.000000      1.740723000000000E-01     -2.269726000000000E+01      3.398895000000000E-01     -9.981249000000000E+01
5120000000.000000      1.788864000000000E-01     -2.619336000000000E+01      3.335114000000000E-01     -1.273750000000000E+02
5140000000.000000      1.818314000000000E-01     -2.896484000000000E+01      3.313599000000000E-01     -1.556250000000000E+02
5160000000.000000      1.847992000000000E-01     -3.172852000000000E+01      3.281250000000000E-01      1.749531000000000E+02
5180000000.000000      1.888657000000000E-01     -3.526758000000000E+01      3.234406000000000E-01      1.453438000000000E+02
5200000000.000000      1.911926000000000E-01     -3.974023000000000E+01      3.229980000000000E-01      1.151406000000000E+02
5220000000.000000      1.852493000000000E-01     -4.446875000000000E+01      3.236237000000000E-01      8.538280000000000E+01
5240000000.000000      1.757889000000000E-01     -4.725976000000000E+01      3.290558000000000E-01      5.564648000000000E+01
5260000000.000000      1.675720000000000E-01     -4.736914000000000E+01      3.340149000000000E-01      2.586035000000000E+01
5280000000.000000      1.650620000000000E-01     -4.586523000000000E+01      3.394012000000000E-01     -3.225952000000000E+00
5300000000.000000      1.699448000000000E-01     -4.628320000000000E+01      3.418579000000000E-01     -3.112207000000000E+01
5320000000.000000      1.738129000000000E-01     -4.889843000000000E+01      3.467255000000000E-01     -5.813281000000000E+01
5340000000.000000      1.718445000000000E-01     -5.280078000000000E+01      3.512726000000000E-01     -8.583202000000000E+01
5360000000.000000      1.651611000000000E-01     -5.586328000000000E+01      3.454895000000000E-01     -1.132344000000000E+02
5380000000.000000      1.584015000000000E-01     -5.689062000000000E+01      3.406525000000000E-01     -1.395625000000000E+02
5400000000.000000      1.590042000000000E-01     -5.608984000000000E+01      3.390961000000000E-01     -1.671328000000000E+02
5420000000.000000      1.692047000000000E-01     -5.607616000000000E+01      3.321686000000000E-01      1.644766000000000E+02
5440000000.000000      1.816788000000000E-01     -5.913671000000000E+01      3.258057000000000E-01      1.355781000000000E+02
5460000000.000000      1.870422000000000E-01     -6.562109000000000E+01      3.159485000000000E-01      1.053984000000000E+02
5480000000.000000      1.812668000000000E-01     -7.274219000000000E+01      3.095551000000000E-01      7.596484000000000E+01
5500000000.000000      1.636581000000000E-01     -7.893749000000000E+01      3.125916000000000E-01      4.626367000000000E+01
5520000000.000000      1.400604000000000E-01     -8.247656000000000E+01      3.147278000000000E-01      1.591504000000000E+01
5540000000.000000      1.204033000000000E-01     -8.154688000000000E+01      3.197784000000000E-01     -1.377148000000000E+01
5560000000.000000      1.079178000000000E-01     -7.770702000000000E+01      3.255768000000000E-01     -4.273046000000000E+01
5580000000.000000      1.023369000000000E-01     -7.250781000000000E+01      3.330994000000000E-01     -7.098437000000000E+01
5600000000.000000      1.000748000000000E-01     -6.680469000000000E+01      3.384094000000000E-01     -9.882421000000000E+01
5620000000.000000      1.042442000000000E-01     -5.898438000000000E+01      3.395844000000000E-01     -1.264687000000000E+02
5640000000.000000      1.192360000000000E-01     -5.201562000000000E+01      3.377380000000000E-01     -1.540625000000000E+02
5660000000.000000      1.447144000000000E-01     -5.167187000000000E+01      3.307648000000000E-01      1.787266000000000E+02
5680000000.000000      1.719589000000000E-01     -5.741796000000000E+01      3.225555000000000E-01      1.509453000000000E+02
5700000000.000000      1.902924000000000E-01     -6.779297000000000E+01      3.092651000000000E-01      1.225195000000000E+02
5720000000.000000      1.927185000000000E-01     -8.019922000000000E+01      2.952423000000000E-01      9.480078000000000E+01
5740000000.000000      1.778183000000000E-01     -9.266796000000000E+01      2.902527000000000E-01      6.596484000000000E+01
5760000000.000000      1.491165000000000E-01     -1.022500000000000E+02      2.861176000000000E-01      3.496289000000000E+01
5780000000.000000      1.171379000000000E-01     -1.040273000000000E+02      2.821198000000000E-01      4.202148000000000E+00
5800000000.000000      9.838486000000000E-02     -9.529688000000000E+01      2.837219000000000E-01     -2.602832000000000E+01
5820000000.000000      1.034241000000000E-01     -8.704687000000000E+01      2.914276000000000E-01     -5.623632000000000E+01
5840000000.000000      1.142845000000000E-01     -8.894140000000000E+01      3.015900000000000E-01     -8.654688000000000E+01
5860000000.000000      1.171799000000000E-01     -9.714844000000000E+01      3.034668000000000E-01     -1.155508000000000E+02
5880000000.000000      1.070709000000000E-01     -1.075469000000000E+02      3.045654000000000E-01     -1.424844000000000E+02
5900000000.000000      8.921051000000000E-02     -1.144141000000000E+02      3.148041000000000E-01     -1.690938000000000E+02
5920000000.000000      7.056427000000000E-02     -1.126875000000000E+02      3.190155000000000E-01      1.630312000000000E+02
5940000000.000000      6.309128000000000E-02     -1.038437000000000E+02      3.128357000000000E-01      1.345625000000000E+02
5960000000.000000      6.192017000000000E-02     -9.957811000000000E+01      2.978821000000000E-01      1.071719000000000E+02
5980000000.000000      5.244446000000000E-02     -9.928905000000000E+01      2.866974000000000E-01      8.015234000000000E+01
6000000000.000000      3.227615000000000E-02     -8.602343000000000E+01      2.802582000000000E-01      5.068749000000000E+01
6020000000.000000      3.311920000000000E-02     -2.578418000000000E+01      2.678680000000000E-01      1.958398000000000E+01
6040000000.000000      6.908035000000000E-02     -1.229248000000000E+01      2.540283000000000E-01     -1.072266000000000E+01
6060000000.000000      1.051216000000000E-01     -2.148438000000000E+01      2.503967000000000E-01     -4.117578000000000E+01
6080000000.000000      1.316223000000000E-01     -3.581640000000000E+01      2.562103000000000E-01     -7.208593000000000E+01
