! Network Analyzer HP8722D
! Hewlett-Packard
! Data name: Linha & Wilkinson
! Saver's name: Rodrigo Anjos
! Comments: Teste da utilização de aquisição
continua pelo VNA HP8722D
! Time and date: 3/9/2025 17:52
!              Frequency                     S11                                                   S21                                                   S12                                                   S22
# HZ  S  MA R 50
3000000000.000000      7.608795000000000E-02      8.781250000000000E+01      4.538116000000000E-01      2.582324000000000E+01
3020000000.000000      9.244537000000000E-02      7.317187000000000E+01      4.559631000000000E-01     -2.949829000000000E+00
3040000000.000000      9.522247000000000E-02      5.686132000000000E+01      4.550323000000000E-01     -3.181445000000000E+01
3060000000.000000      8.401871000000000E-02      4.136523000000000E+01      4.539490000000000E-01     -6.044726000000000E+01
3080000000.000000      6.400299000000000E-02      3.044434000000000E+01      4.542542000000000E-01     -8.886719000000000E+01
3100000000.000000      4.536819000000000E-02      2.974218000000000E+01      4.521790000000000E-01     -1.174844000000000E+02
3120000000.000000      3.804398000000000E-02      4.275391000000000E+01      4.497986000000000E-01     -1.458828000000000E+02
3140000000.000000      3.723907000000000E-02      4.874218000000000E+01      4.453125000000000E-01     -1.746016000000000E+02
3160000000.000000      2.980137000000000E-02      4.946875000000000E+01      4.420166000000000E-01      1.570625000000000E+02
3180000000.000000      1.676750000000000E-02      9.589844000000000E+01      4.407043000000000E-01      1.283437000000000E+02
3200000000.000000      4.589081000000000E-02      1.444297000000000E+02      4.354553000000000E-01      9.881639000000000E+01
3220000000.000000      9.631729000000000E-02      1.370781000000000E+02      4.223938000000000E-01      6.967968000000000E+01
3240000000.000000      1.473923000000000E-01      1.217773000000000E+02      4.107208000000000E-01      4.238477000000000E+01
3260000000.000000      1.906586000000000E-01      1.051289000000000E+02      4.142609000000000E-01      1.485352000000000E+01
3280000000.000000      2.175522000000000E-01      8.766016000000000E+01      4.204407000000000E-01     -1.431006000000000E+01
3300000000.000000      2.296219000000000E-01      7.080078000000000E+01      4.139404000000000E-01     -4.291797000000000E+01
3320000000.000000      2.244797000000000E-01      5.537304000000000E+01      4.169159000000000E-01     -7.062890000000000E+01
3340000000.000000      2.085800000000000E-01      4.268555000000000E+01      4.221649000000000E-01     -9.939062000000000E+01
3360000000.000000      1.856766000000000E-01      3.320313000000000E+01      4.232483000000000E-01     -1.277656000000000E+02
3380000000.000000      1.620102000000000E-01      2.816895000000000E+01      4.285278000000000E-01     -1.559609000000000E+02
3400000000.000000      1.428070000000000E-01      2.618945000000000E+01      4.299164000000000E-01      1.751875000000000E+02
3420000000.000000      1.289139000000000E-01      2.574414000000000E+01      4.310455000000000E-01      1.466406000000000E+02
3440000000.000000      1.164474000000000E-01      2.529101000000000E+01      4.298859000000000E-01      1.175898000000000E+02
3460000000.000000      1.041145000000000E-01      2.629687000000000E+01      4.273682000000000E-01      8.948828000000000E+01
3480000000.000000      9.607315000000000E-02      2.898144000000000E+01      4.282837000000000E-01      6.079296000000000E+01
3500000000.000000      9.244156000000000E-02      3.298047000000000E+01      4.248657000000000E-01      3.178711000000000E+01
3520000000.000000      9.089661000000000E-02      3.665430000000000E+01      4.206848000000000E-01      3.688599000000000E+00
3540000000.000000      9.152222000000000E-02      4.009961000000000E+01      4.235229000000000E-01     -2.496094000000000E+01
3560000000.000000      9.428406000000000E-02      4.534570000000000E+01      4.262543000000000E-01     -5.405468000000000E+01
3580000000.000000      1.014748000000000E-01      5.030078000000000E+01      4.252930000000000E-01     -8.290625000000000E+01
3600000000.000000      1.146965000000000E-01      5.176171000000000E+01      4.248962000000000E-01     -1.109062000000000E+02
3620000000.000000      1.281281000000000E-01      4.876367000000000E+01      4.254456000000000E-01     -1.394297000000000E+02
3640000000.000000      1.339645000000000E-01      4.270703000000000E+01      4.251709000000000E-01     -1.676328000000000E+02
3660000000.000000      1.291733000000000E-01      3.590039000000000E+01      4.235229000000000E-01      1.647187000000000E+02
3680000000.000000      1.165276000000000E-01      3.247265000000000E+01      4.292297000000000E-01      1.367969000000000E+02
3700000000.000000      1.038628000000000E-01      3.587305000000000E+01      4.290009000000000E-01      1.082539000000000E+02
3720000000.000000      1.041107000000000E-01      4.460156000000000E+01      4.282074000000000E-01      7.975780000000000E+01
3740000000.000000      1.216125000000000E-01      4.867969000000000E+01      4.211121000000000E-01      5.137890000000000E+01
3760000000.000000      1.403275000000000E-01      4.554101000000000E+01      4.157562000000000E-01      2.333594000000000E+01
3780000000.000000      1.480408000000000E-01      3.803711000000000E+01      4.152679000000000E-01     -4.321777000000000E+00
3800000000.000000      1.411591000000000E-01      3.062988000000000E+01      4.160004000000000E-01     -3.292187000000000E+01
3820000000.000000      1.230850000000000E-01      2.722461000000000E+01      4.167480000000000E-01     -6.169140000000000E+01
3840000000.000000      1.083565000000000E-01      3.234961000000000E+01      4.158173000000000E-01     -9.060938000000000E+01
3860000000.000000      1.123047000000000E-01      4.081250000000000E+01      4.137878000000000E-01     -1.194687000000000E+02
3880000000.000000      1.304169000000000E-01      4.245313000000000E+01      4.115448000000000E-01     -1.484922000000000E+02
3900000000.000000      1.449661000000000E-01      3.691015000000000E+01      4.054260000000000E-01     -1.768672000000000E+02
3920000000.000000      1.436920000000000E-01      2.909375000000000E+01      4.059753000000000E-01      1.560781000000000E+02
3940000000.000000      1.262741000000000E-01      2.508398000000000E+01      4.149475000000000E-01      1.274180000000000E+02
3960000000.000000      1.081314000000000E-01      3.124023000000000E+01      4.151611000000000E-01      9.825390000000000E+01
3980000000.000000      1.136971000000000E-01      4.501562000000000E+01      4.054413000000000E-01      6.962891000000000E+01
4000000000.000000      1.451035000000000E-01      4.872070000000000E+01      3.990784000000000E-01      4.253515000000000E+01
4020000000.000000      1.781006000000000E-01      4.138672000000000E+01      4.037476000000000E-01      1.463086000000000E+01
4040000000.000000      1.972046000000000E-01      2.872168000000000E+01      4.044037000000000E-01     -1.521484000000000E+01
4060000000.000000      1.922913000000000E-01      1.469531000000000E+01      3.902588000000000E-01     -4.384375000000000E+01
4080000000.000000      1.644745000000000E-01      1.270264000000000E+00      3.907928000000000E-01     -7.091406000000000E+01
4100000000.000000      1.186981000000000E-01     -6.861084000000000E+00      4.002228000000000E-01     -9.944530000000000E+01
4120000000.000000      7.543945000000000E-02      2.985474000000000E+00      3.984222000000000E-01     -1.295469000000000E+02
4140000000.000000      7.243347000000000E-02      3.308008000000000E+01      3.932800000000000E-01     -1.582187000000000E+02
4160000000.000000      9.711838000000000E-02      4.313086000000000E+01      3.945465000000000E-01      1.738594000000000E+02
4180000000.000000      1.149979000000000E-01      3.978516000000000E+01      4.020538000000000E-01      1.450547000000000E+02
4200000000.000000      1.172180000000000E-01      3.608007000000000E+01      4.038391000000000E-01      1.151719000000000E+02
4220000000.000000      1.152000000000000E-01      3.825000000000000E+01      3.951111000000000E-01      8.605078000000000E+01
4240000000.000000      1.231804000000000E-01      4.469336000000000E+01      3.901367000000000E-01      5.739843000000000E+01
4260000000.000000      1.480942000000000E-01      4.683007000000000E+01      3.862762000000000E-01      2.937988000000000E+01
4280000000.000000      1.746292000000000E-01      4.228125000000000E+01      3.867645000000000E-01      1.137085000000000E+00
4300000000.000000      1.915283000000000E-01      3.403125000000000E+01      3.825531000000000E-01     -2.746191000000000E+01
4320000000.000000      1.911392000000000E-01      2.561035000000000E+01      3.791962000000000E-01     -5.655468000000000E+01
4340000000.000000      1.773224000000000E-01      1.955566000000000E+01      3.775482000000000E-01     -8.534765000000000E+01
4360000000.000000      1.636658000000000E-01      1.859766000000000E+01      3.764191000000000E-01     -1.145430000000000E+02
4380000000.000000      1.614838000000000E-01      2.126465000000000E+01      3.743286000000000E-01     -1.440234000000000E+02
4400000000.000000      1.718903000000000E-01      2.138574000000000E+01      3.723907000000000E-01     -1.731562000000000E+02
4420000000.000000      1.825409000000000E-01      1.740723000000000E+01      3.733978000000000E-01      1.580625000000000E+02
4440000000.000000      1.800919000000000E-01      1.144482000000000E+01      3.756866000000000E-01      1.284531000000000E+02
4460000000.000000      1.637878000000000E-01      8.253418000000000E+00      3.698273000000000E-01      9.896484000000000E+01
4480000000.000000      1.450500000000000E-01      1.155322000000000E+01      3.664246000000000E-01      7.062109000000000E+01
4500000000.000000      1.462631000000000E-01      2.068262000000000E+01      3.649139000000000E-01      4.177148000000000E+01
4520000000.000000      1.717834000000000E-01      2.517871000000000E+01      3.612671000000000E-01      1.237305000000000E+01
4540000000.000000      2.028961000000000E-01      2.110742000000000E+01      3.519897000000000E-01     -1.716504000000000E+01
4560000000.000000      2.233047000000000E-01      1.291016000000000E+01      3.449707000000000E-01     -4.528906000000000E+01
4580000000.000000      2.293396000000000E-01      3.875366000000000E+00      3.460693000000000E-01     -7.467187000000000E+01
4600000000.000000      2.218399000000000E-01     -3.470337000000000E+00      3.428955000000000E-01     -1.050898000000000E+02
4620000000.000000      2.094193000000000E-01     -7.804443000000000E+00      3.376465000000000E-01     -1.344375000000000E+02
4640000000.000000      2.028656000000000E-01     -1.004590000000000E+01      3.370209000000000E-01     -1.640703000000000E+02
4660000000.000000      2.025299000000000E-01     -1.288867000000000E+01      3.378601000000000E-01      1.668125000000000E+02
4680000000.000000      2.035065000000000E-01     -1.794141000000000E+01      3.417358000000000E-01      1.376328000000000E+02
4700000000.000000      1.971588000000000E-01     -2.492676000000000E+01      3.421631000000000E-01      1.081133000000000E+02
4720000000.000000      1.820221000000000E-01     -3.226367000000000E+01      3.394928000000000E-01      8.024609000000000E+01
4740000000.000000      1.613998000000000E-01     -3.883984000000000E+01      3.461609000000000E-01      5.262890000000000E+01
4760000000.000000      1.372986000000000E-01     -4.414844000000000E+01      3.467255000000000E-01      2.402148000000000E+01
4780000000.000000      1.117821000000000E-01     -4.920312000000000E+01      3.433380000000000E-01     -4.356201000000000E+00
4800000000.000000      8.039856000000000E-02     -5.370703000000000E+01      3.389282000000000E-01     -3.283594000000000E+01
4820000000.000000      3.782082000000000E-02     -5.082031000000000E+01      3.305817000000000E-01     -6.179101000000000E+01
4840000000.000000      3.084469000000000E-02      5.466210000000000E+01      3.240662000000000E-01     -9.085938000000000E+01
4860000000.000000      9.617996000000000E-02      6.257226000000000E+01      3.161163000000000E-01     -1.216094000000000E+02
4880000000.000000      1.659012000000000E-01      4.938086000000000E+01      2.968445000000000E-01     -1.527578000000000E+02
4900000000.000000      2.251205000000000E-01      3.350195000000000E+01      2.742004000000000E-01      1.794453000000000E+02
4920000000.000000      2.680206000000000E-01      1.713574000000000E+01      2.739105000000000E-01      1.540313000000000E+02
4940000000.000000      2.889404000000000E-01      1.367798000000000E+00      2.876587000000000E-01      1.253320000000000E+02
4960000000.000000      2.881012000000000E-01     -1.392529000000000E+01      2.919312000000000E-01      9.548046000000000E+01
4980000000.000000      2.630615000000000E-01     -2.765820000000000E+01      2.977600000000000E-01      6.829687000000000E+01
5000000000.000000      2.211761000000000E-01     -3.794531000000000E+01      3.116302000000000E-01      4.075781000000000E+01
5020000000.000000      1.736069000000000E-01     -4.082812000000000E+01      3.229218000000000E-01      1.291260000000000E+01
5040000000.000000      1.440659000000000E-01     -3.411718000000000E+01      3.308868000000000E-01     -1.421387000000000E+01
5060000000.000000      1.445847000000000E-01     -2.391211000000000E+01      3.388519000000000E-01     -4.140625000000000E+01
5080000000.000000      1.602936000000000E-01     -2.066308000000000E+01      3.446655000000000E-01     -6.956249000000000E+01
5100000000.000000      1.740036000000000E-01     -2.287304000000000E+01      3.392944000000000E-01     -9.801952000000000E+01
5120000000.000000      1.796646000000000E-01     -2.645703000000000E+01      3.324432000000000E-01     -1.253516000000000E+02
5140000000.000000      1.823349000000000E-01     -2.948242000000000E+01      3.302460000000000E-01     -1.535859000000000E+02
5160000000.000000      1.847839000000000E-01     -3.210546000000000E+01      3.268585000000000E-01      1.770547000000000E+02
5180000000.000000      1.890259000000000E-01     -3.545312000000000E+01      3.232117000000000E-01      1.473203000000000E+02
5200000000.000000      1.917114000000000E-01     -4.023633000000000E+01      3.218689000000000E-01      1.170781000000000E+02
5220000000.000000      1.864014000000000E-01     -4.467187000000000E+01      3.210907000000000E-01      8.740625000000000E+01
5240000000.000000      1.770020000000000E-01     -4.775000000000000E+01      3.266754000000000E-01      5.763672000000000E+01
5260000000.000000      1.680527000000000E-01     -4.816601000000000E+01      3.322144000000000E-01      2.781738000000000E+01
5280000000.000000      1.645050000000000E-01     -4.687304000000000E+01      3.371582000000000E-01     -1.156311000000000E+00
5300000000.000000      1.686172000000000E-01     -4.700391000000000E+01      3.406677000000000E-01     -2.924707000000000E+01
5320000000.000000      1.730499000000000E-01     -4.946875000000000E+01      3.448486000000000E-01     -5.620898000000000E+01
5340000000.000000      1.717148000000000E-01     -5.325195000000000E+01      3.497772000000000E-01     -8.407030000000000E+01
5360000000.000000      1.652069000000000E-01     -5.651367000000000E+01      3.452911000000000E-01     -1.114258000000000E+02
5380000000.000000      1.581955000000000E-01     -5.753515000000000E+01      3.397522000000000E-01     -1.378672000000000E+02
5400000000.000000      1.581879000000000E-01     -5.658203000000000E+01      3.386078000000000E-01     -1.651328000000000E+02
5420000000.000000      1.676483000000000E-01     -5.627343000000000E+01      3.317261000000000E-01      1.666250000000000E+02
5440000000.000000      1.795654000000000E-01     -5.929296000000000E+01      3.260193000000000E-01      1.375625000000000E+02
5460000000.000000      1.859741000000000E-01     -6.538280000000000E+01      3.152313000000000E-01      1.076211000000000E+02
5480000000.000000      1.808701000000000E-01     -7.266015000000000E+01      3.084106000000000E-01      7.823047000000000E+01
5500000000.000000      1.645813000000000E-01     -7.914453000000000E+01      3.106079000000000E-01      4.844727000000000E+01
5520000000.000000      1.408234000000000E-01     -8.287500000000000E+01      3.131256000000000E-01      1.809082000000000E+01
5540000000.000000      1.212921000000000E-01     -8.208984000000000E+01      3.179626000000000E-01     -1.150977000000000E+01
5560000000.000000      1.085320000000000E-01     -7.817187000000000E+01      3.240204000000000E-01     -4.068359000000000E+01
5580000000.000000      1.029625000000000E-01     -7.270702000000000E+01      3.312073000000000E-01     -6.911718000000000E+01
5600000000.000000      1.003494000000000E-01     -6.718359000000000E+01      3.361969000000000E-01     -9.693748000000000E+01
5620000000.000000      1.039619000000000E-01     -5.981835000000000E+01      3.390045000000000E-01     -1.246445000000000E+02
5640000000.000000      1.181068000000000E-01     -5.296288000000000E+01      3.364105000000000E-01     -1.521250000000000E+02
5660000000.000000      1.422882000000000E-01     -5.198632000000000E+01      3.305817000000000E-01     -1.792344000000000E+02
5680000000.000000      1.693344000000000E-01     -5.741992000000000E+01      3.215790000000000E-01      1.528828000000000E+02
5700000000.000000      1.887360000000000E-01     -6.756249000000000E+01      3.087311000000000E-01      1.247187000000000E+02
5720000000.000000      1.930084000000000E-01     -8.000391000000000E+01      2.946320000000000E-01      9.709764000000000E+01
5740000000.000000      1.797256000000000E-01     -9.242188000000000E+01      2.894135000000000E-01      6.828515000000000E+01
5760000000.000000      1.517029000000000E-01     -1.024414000000000E+02      2.848053000000000E-01      3.728906000000000E+01
5780000000.000000      1.190681000000000E-01     -1.049766000000000E+02      2.809601000000000E-01      6.616455000000000E+00
5800000000.000000      9.884644000000000E-02     -9.674608000000000E+01      2.824097000000000E-01     -2.368164000000000E+01
5820000000.000000      1.017838000000000E-01     -8.787889000000000E+01      2.891846000000000E-01     -5.399609000000000E+01
5840000000.000000      1.129990000000000E-01     -8.917969000000000E+01      2.989655000000000E-01     -8.441406000000000E+01
5860000000.000000      1.173096000000000E-01     -9.755468000000000E+01      3.011475000000000E-01     -1.135703000000000E+02
5880000000.000000      1.087608000000000E-01     -1.079219000000000E+02      3.029480000000000E-01     -1.405469000000000E+02
5900000000.000000      9.087753000000000E-02     -1.152656000000000E+02      3.128815000000000E-01     -1.671562000000000E+02
5920000000.000000      7.194138000000000E-02     -1.150430000000000E+02      3.182831000000000E-01      1.649531000000000E+02
5940000000.000000      6.335831000000000E-02     -1.052851000000000E+02      3.124390000000000E-01      1.366953000000000E+02
5960000000.000000      6.113434000000000E-02     -1.000586000000000E+02      2.978363000000000E-01      1.094180000000000E+02
5980000000.000000      5.257797000000000E-02     -9.982422000000000E+01      2.872620000000000E-01      8.234375000000000E+01
6000000000.000000      3.259850000000000E-02     -8.833202000000000E+01      2.808685000000000E-01      5.308398000000000E+01
6020000000.000000      3.148842000000000E-02     -2.818848000000000E+01      2.682495000000000E-01      2.226758000000000E+01
6040000000.000000      6.619644000000000E-02     -1.252344000000000E+01      2.536774000000000E-01     -8.397949000000000E+00
6060000000.000000      1.022034000000000E-01     -2.071094000000000E+01      2.495575000000000E-01     -3.856640000000000E+01
6080000000.000000      1.293793000000000E-01     -3.513281000000000E+01      2.548218000000000E-01     -6.937500000000000E+01
