! Network Analyzer HP8722D
! Hewlett-Packard
! Data name: Linha & Wilkinson
! Saver's name: Rodrigo Anjos
! Comments: Teste da utilização de aquisição
continua pelo VNA HP8722D
! Time and date: 3/9/2025 19:15
!              Frequency                     S11                                                   S21                                                   S12                                                   S22
# HZ  S  MA R 50
3000000000.000000      7.590103000000000E-02      8.794140000000000E+01      4.560547000000000E-01      2.597265000000000E+01
3020000000.000000      9.342575000000000E-02      7.357031000000000E+01      4.568329000000000E-01     -2.768555000000000E+00
3040000000.000000      9.557343000000000E-02      5.725976000000000E+01      4.579468000000000E-01     -3.200195000000000E+01
3060000000.000000      8.387756000000000E-02      4.177539000000000E+01      4.549103000000000E-01     -6.040429000000000E+01
3080000000.000000      6.380081000000000E-02      3.080273000000000E+01      4.552307000000000E-01     -8.895702000000000E+01
3100000000.000000      4.517555000000000E-02      3.081347000000000E+01      4.537811000000000E-01     -1.172227000000000E+02
3120000000.000000      3.774834000000000E-02      4.367578000000000E+01      4.514618000000000E-01     -1.459141000000000E+02
3140000000.000000      3.726006000000000E-02      4.901953000000000E+01      4.473267000000000E-01     -1.743906000000000E+02
3160000000.000000      2.998066000000000E-02      5.006054000000000E+01      4.425812000000000E-01      1.573047000000000E+02
3180000000.000000      1.690292000000000E-02      9.547266000000000E+01      4.420166000000000E-01      1.283984000000000E+02
3200000000.000000      4.661942000000000E-02      1.444062000000000E+02      4.359436000000000E-01      9.905859000000000E+01
3220000000.000000      9.717560000000000E-02      1.376250000000000E+02      4.237823000000000E-01      6.971874000000000E+01
3240000000.000000      1.486435000000000E-01      1.224258000000000E+02      4.130249000000000E-01      4.218750000000000E+01
3260000000.000000      1.908340000000000E-01      1.052969000000000E+02      4.154816000000000E-01      1.499609000000000E+01
3280000000.000000      2.187042000000000E-01      8.805079000000000E+01      4.201965000000000E-01     -1.411914000000000E+01
3300000000.000000      2.293167000000000E-01      7.103516000000000E+01      4.149475000000000E-01     -4.300586000000000E+01
3320000000.000000      2.248230000000000E-01      5.565820000000000E+01      4.183807000000000E-01     -7.067187000000000E+01
3340000000.000000      2.092819000000000E-01      4.283789000000000E+01      4.234924000000000E-01     -9.932812000000000E+01
3360000000.000000      1.859512000000000E-01      3.349023000000000E+01      4.237213000000000E-01     -1.276601000000000E+02
3380000000.000000      1.620483000000000E-01      2.852051000000000E+01      4.297333000000000E-01     -1.557734000000000E+02
3400000000.000000      1.430359000000000E-01      2.648340000000000E+01      4.318695000000000E-01      1.751875000000000E+02
3420000000.000000      1.288528000000000E-01      2.614160000000000E+01      4.320984000000000E-01      1.467187000000000E+02
3440000000.000000      1.163216000000000E-01      2.591601000000000E+01      4.323425000000000E-01      1.179414000000000E+02
3460000000.000000      1.043663000000000E-01      2.688281000000000E+01      4.285126000000000E-01      8.952343000000000E+01
3480000000.000000      9.592438000000000E-02      2.941992000000000E+01      4.300537000000000E-01      6.072070000000000E+01
3500000000.000000      9.249496000000000E-02      3.362500000000000E+01      4.247284000000000E-01      3.180371000000000E+01
3520000000.000000      9.093857000000000E-02      3.695508000000000E+01      4.223175000000000E-01      3.549927000000000E+00
3540000000.000000      9.210587000000000E-02      4.038281000000000E+01      4.249268000000000E-01     -2.497656000000000E+01
3560000000.000000      9.443283000000000E-02      4.582227000000000E+01      4.275818000000000E-01     -5.409765000000000E+01
3580000000.000000      1.017799000000000E-01      5.079883000000000E+01      4.260406000000000E-01     -8.294922000000000E+01
3600000000.000000      1.151123000000000E-01      5.206836000000000E+01      4.249725000000000E-01     -1.110586000000000E+02
3620000000.000000      1.279984000000000E-01      4.907227000000000E+01      4.267273000000000E-01     -1.393359000000000E+02
3640000000.000000      1.342545000000000E-01      4.312696000000000E+01      4.275818000000000E-01     -1.674844000000000E+02
3660000000.000000      1.291122000000000E-01      3.618555000000000E+01      4.258270000000000E-01      1.644844000000000E+02
3680000000.000000      1.168022000000000E-01      3.276172000000000E+01      4.297943000000000E-01      1.370391000000000E+02
3700000000.000000      1.035576000000000E-01      3.617773000000000E+01      4.310455000000000E-01      1.085039000000000E+02
3720000000.000000      1.047058000000000E-01      4.498437000000000E+01      4.285126000000000E-01      7.973827000000000E+01
3740000000.000000      1.219940000000000E-01      4.926171000000000E+01      4.242249000000000E-01      5.142968000000000E+01
3760000000.000000      1.403198000000000E-01      4.605078000000000E+01      4.174194000000000E-01      2.359961000000000E+01
3780000000.000000      1.483459000000000E-01      3.854687000000000E+01      4.164734000000000E-01     -4.207764000000000E+00
3800000000.000000      1.413040000000000E-01      3.115723000000000E+01      4.170074000000000E-01     -3.278711000000000E+01
3820000000.000000      1.234436000000000E-01      2.772656000000000E+01      4.168091000000000E-01     -6.145117000000000E+01
3840000000.000000      1.084557000000000E-01      3.253125000000000E+01      4.181061000000000E-01     -9.064062000000000E+01
3860000000.000000      1.124611000000000E-01      4.099414000000000E+01      4.160309000000000E-01     -1.192109000000000E+02
3880000000.000000      1.310043000000000E-01      4.278516000000000E+01      4.126434000000000E-01     -1.485312000000000E+02
3900000000.000000      1.455154000000000E-01      3.710938000000000E+01      4.051971000000000E-01     -1.766328000000000E+02
3920000000.000000      1.438065000000000E-01      2.954687000000000E+01      4.067078000000000E-01      1.560547000000000E+02
3940000000.000000      1.261902000000000E-01      2.552637000000000E+01      4.159546000000000E-01      1.275000000000000E+02
3960000000.000000      1.080742000000000E-01      3.196289000000000E+01      4.149933000000000E-01      9.833984000000000E+01
3980000000.000000      1.140251000000000E-01      4.540625000000000E+01      4.066315000000000E-01      6.954687000000000E+01
4000000000.000000      1.452332000000000E-01      4.901367000000000E+01      4.009247000000000E-01      4.280859000000000E+01
4020000000.000000      1.787491000000000E-01      4.182226000000000E+01      4.049988000000000E-01      1.500439000000000E+01
4040000000.000000      1.975555000000000E-01      2.904297000000000E+01      4.055481000000000E-01     -1.528223000000000E+01
4060000000.000000      1.925049000000000E-01      1.495752000000000E+01      3.918152000000000E-01     -4.373828000000000E+01
4080000000.000000      1.648407000000000E-01      1.561401000000000E+00      3.907471000000000E-01     -7.071875000000000E+01
4100000000.000000      1.188126000000000E-01     -6.543945000000000E+00      4.011688000000000E-01     -9.943748000000000E+01
4120000000.000000      7.534409000000000E-02      3.739380000000000E+00      4.001007000000000E-01     -1.293672000000000E+02
4140000000.000000      7.254028000000000E-02      3.410937000000000E+01      3.960571000000000E-01     -1.581563000000000E+02
4160000000.000000      9.761429000000000E-02      4.359765000000000E+01      3.959808000000000E-01      1.740000000000000E+02
4180000000.000000      1.159172000000000E-01      4.037695000000000E+01      4.036102000000000E-01      1.452969000000000E+02
4200000000.000000      1.177788000000000E-01      3.650391000000000E+01      4.040985000000000E-01      1.152969000000000E+02
4220000000.000000      1.154671000000000E-01      3.866015000000000E+01      3.978424000000000E-01      8.641405000000000E+01
4240000000.000000      1.239243000000000E-01      4.514648000000000E+01      3.909302000000000E-01      5.755859000000000E+01
4260000000.000000      1.486206000000000E-01      4.723828000000000E+01      3.875275000000000E-01      2.943066000000000E+01
4280000000.000000      1.759872000000000E-01      4.276953000000000E+01      3.879700000000000E-01      1.040955000000000E+00
4300000000.000000      1.916580000000000E-01      3.456836000000000E+01      3.839722000000000E-01     -2.750977000000000E+01
4320000000.000000      1.921997000000000E-01      2.613086000000000E+01      3.811340000000000E-01     -5.638476000000000E+01
4340000000.000000      1.782837000000000E-01      2.012207000000000E+01      3.798676000000000E-01     -8.513672000000000E+01
4360000000.000000      1.639862000000000E-01      1.903223000000000E+01      3.770905000000000E-01     -1.142695000000000E+02
4380000000.000000      1.619186000000000E-01      2.154395000000000E+01      3.763123000000000E-01     -1.439062000000000E+02
4400000000.000000      1.729965000000000E-01      2.172461000000000E+01      3.726196000000000E-01     -1.730703000000000E+02
4420000000.000000      1.831589000000000E-01      1.772168000000000E+01      3.737793000000000E-01      1.582734000000000E+02
4440000000.000000      1.804657000000000E-01      1.178125000000000E+01      3.775787000000000E-01      1.285625000000000E+02
4460000000.000000      1.643066000000000E-01      8.852051000000000E+00      3.701630000000000E-01      9.883984000000000E+01
4480000000.000000      1.454544000000000E-01      1.199268000000000E+01      3.668823000000000E-01      7.062109000000000E+01
4500000000.000000      1.471329000000000E-01      2.126367000000000E+01      3.683777000000000E-01      4.200391000000000E+01
4520000000.000000      1.724396000000000E-01      2.556347000000000E+01      3.627319000000000E-01      1.240723000000000E+01
4540000000.000000      2.037735000000000E-01      2.141894000000000E+01      3.531952000000000E-01     -1.692773000000000E+01
4560000000.000000      2.247849000000000E-01      1.329053000000000E+01      3.451843000000000E-01     -4.517187000000000E+01
4580000000.000000      2.300110000000000E-01      4.215820000000000E+00      3.483124000000000E-01     -7.454687000000000E+01
4600000000.000000      2.221832000000000E-01     -3.153076000000000E+00      3.448486000000000E-01     -1.050586000000000E+02
4620000000.000000      2.097321000000000E-01     -7.624512000000000E+00      3.392334000000000E-01     -1.346016000000000E+02
4640000000.000000      2.033081000000000E-01     -9.686035000000000E+00      3.389893000000000E-01     -1.639531000000000E+02
4660000000.000000      2.028351000000000E-01     -1.253857000000000E+01      3.388824000000000E-01      1.669453000000000E+02
4680000000.000000      2.034073000000000E-01     -1.752539000000000E+01      3.437805000000000E-01      1.376953000000000E+02
4700000000.000000      1.970367000000000E-01     -2.449414000000000E+01      3.443756000000000E-01      1.082227000000000E+02
4720000000.000000      1.821289000000000E-01     -3.188379000000000E+01      3.407593000000000E-01      8.039063000000000E+01
4740000000.000000      1.611404000000000E-01     -3.841406000000000E+01      3.462219000000000E-01      5.267578000000000E+01
4760000000.000000      1.367035000000000E-01     -4.367188000000000E+01      3.486176000000000E-01      2.412012000000000E+01
4780000000.000000      1.114578000000000E-01     -4.825976000000000E+01      3.440094000000000E-01     -4.316406000000000E+00
4800000000.000000      8.004761000000000E-02     -5.285351000000000E+01      3.403625000000000E-01     -3.276562000000000E+01
4820000000.000000      3.763199000000000E-02     -4.922070000000000E+01      3.322296000000000E-01     -6.177734000000000E+01
4840000000.000000      3.187561000000000E-02      5.543750000000000E+01      3.249969000000000E-01     -9.089453000000000E+01
4860000000.000000      9.724045000000000E-02      6.261328000000000E+01      3.177185000000000E-01     -1.216953000000000E+02
4880000000.000000      1.673431000000000E-01      4.991405000000000E+01      2.976837000000000E-01     -1.527266000000000E+02
4900000000.000000      2.268753000000000E-01      3.383789000000000E+01      2.752380000000000E-01      1.794922000000000E+02
4920000000.000000      2.694550000000000E-01      1.754199000000000E+01      2.751312000000000E-01      1.538906000000000E+02
4940000000.000000      2.909546000000000E-01      1.671265000000000E+00      2.888641000000000E-01      1.253594000000000E+02
4960000000.000000      2.889557000000000E-01     -1.372510000000000E+01      2.931976000000000E-01      9.556250000000000E+01
4980000000.000000      2.639618000000000E-01     -2.750488000000000E+01      2.988129000000000E-01      6.857031000000000E+01
5000000000.000000      2.208939000000000E-01     -3.775781000000000E+01      3.131256000000000E-01      4.105859000000000E+01
5020000000.000000      1.739807000000000E-01     -4.064258000000000E+01      3.239746000000000E-01      1.295654000000000E+01
5040000000.000000      1.437912000000000E-01     -3.397070000000000E+01      3.326874000000000E-01     -1.407373000000000E+01
5060000000.000000      1.443939000000000E-01     -2.375195000000000E+01      3.399963000000000E-01     -4.127539000000000E+01
5080000000.000000      1.603012000000000E-01     -2.041992000000000E+01      3.453522000000000E-01     -6.948828000000000E+01
5100000000.000000      1.742477000000000E-01     -2.261133000000000E+01      3.399200000000000E-01     -9.796093000000000E+01
5120000000.000000      1.800232000000000E-01     -2.633496000000000E+01      3.337708000000000E-01     -1.253750000000000E+02
5140000000.000000      1.817245000000000E-01     -2.904394000000000E+01      3.310089000000000E-01     -1.535000000000000E+02
5160000000.000000      1.846542000000000E-01     -3.168262000000000E+01      3.279419000000000E-01      1.769531000000000E+02
5180000000.000000      1.884460000000000E-01     -3.517773000000000E+01      3.237305000000000E-01      1.473828000000000E+02
5200000000.000000      1.914902000000000E-01     -3.983007000000000E+01      3.228760000000000E-01      1.173281000000000E+02
5220000000.000000      1.865997000000000E-01     -4.456445000000000E+01      3.231812000000000E-01      8.745703000000000E+01
5240000000.000000      1.767197000000000E-01     -4.749413000000000E+01      3.280792000000000E-01      5.766015000000000E+01
5260000000.000000      1.680069000000000E-01     -4.777734000000000E+01      3.331299000000000E-01      2.810156000000000E+01
5280000000.000000      1.644135000000000E-01     -4.646289000000000E+01      3.387451000000000E-01     -1.156311000000000E+00
5300000000.000000      1.687546000000000E-01     -4.654492000000000E+01      3.420410000000000E-01     -2.927051000000000E+01
5320000000.000000      1.730957000000000E-01     -4.908008000000000E+01      3.459930000000000E-01     -5.617578000000000E+01
5340000000.000000      1.715546000000000E-01     -5.294726000000000E+01      3.505096000000000E-01     -8.383593000000000E+01
5360000000.000000      1.649399000000000E-01     -5.607031000000000E+01      3.454742000000000E-01     -1.112812000000000E+02
5380000000.000000      1.581955000000000E-01     -5.700195000000000E+01      3.407745000000000E-01     -1.375313000000000E+02
5400000000.000000      1.575623000000000E-01     -5.624804000000000E+01      3.387451000000000E-01     -1.650469000000000E+02
5420000000.000000      1.675339000000000E-01     -5.599609000000000E+01      3.319702000000000E-01      1.666484000000000E+02
5440000000.000000      1.798248000000000E-01     -5.902148000000000E+01      3.272858000000000E-01      1.375000000000000E+02
5460000000.000000      1.865463000000000E-01     -6.493750000000000E+01      3.162537000000000E-01      1.077383000000000E+02
5480000000.000000      1.813049000000000E-01     -7.206640000000000E+01      3.100128000000000E-01      7.813281000000000E+01
5500000000.000000      1.640778000000000E-01     -7.858984000000000E+01      3.120880000000000E-01      4.859375000000000E+01
5520000000.000000      1.410904000000000E-01     -8.247265000000000E+01      3.141785000000000E-01      1.813086000000000E+01
5540000000.000000      1.208839000000000E-01     -8.161718000000000E+01      3.182373000000000E-01     -1.151660000000000E+01
5560000000.000000      1.084709000000000E-01     -7.794140000000000E+01      3.251801000000000E-01     -4.047265000000000E+01
5580000000.000000      1.022644000000000E-01     -7.248437000000000E+01      3.323059000000000E-01     -6.897265000000000E+01
5600000000.000000      1.004410000000000E-01     -6.685156000000000E+01      3.374329000000000E-01     -9.681250000000000E+01
5620000000.000000      1.040993000000000E-01     -5.923828000000000E+01      3.395538000000000E-01     -1.244180000000000E+02
5640000000.000000      1.178703000000000E-01     -5.240820000000000E+01      3.375244000000000E-01     -1.520391000000000E+02
5660000000.000000      1.429062000000000E-01     -5.146874000000000E+01      3.318176000000000E-01     -1.791094000000000E+02
5680000000.000000      1.699524000000000E-01     -5.696094000000000E+01      3.235931000000000E-01      1.529844000000000E+02
5700000000.000000      1.894608000000000E-01     -6.727734000000000E+01      3.099365000000000E-01      1.247852000000000E+02
5720000000.000000      1.931534000000000E-01     -7.957421000000000E+01      2.964020000000000E-01      9.705078000000000E+01
5740000000.000000      1.795120000000000E-01     -9.216797000000000E+01      2.904510000000000E-01      6.840625000000000E+01
5760000000.000000      1.515656000000000E-01     -1.021094000000000E+02      2.863007000000000E-01      3.739062000000000E+01
5780000000.000000      1.191940000000000E-01     -1.046562000000000E+02      2.817078000000000E-01      6.739990000000000E+00
5800000000.000000      9.843445000000000E-02     -9.663671000000000E+01      2.833252000000000E-01     -2.354297000000000E+01
5820000000.000000      1.016579000000000E-01     -8.762499000000000E+01      2.908630000000000E-01     -5.395117000000000E+01
5840000000.000000      1.126900000000000E-01     -8.878124000000000E+01      3.004456000000000E-01     -8.415625000000000E+01
5860000000.000000      1.166878000000000E-01     -9.658203000000000E+01      3.025513000000000E-01     -1.134258000000000E+02
5880000000.000000      1.085930000000000E-01     -1.069727000000000E+02      3.043976000000000E-01     -1.404609000000000E+02
5900000000.000000      9.039307000000000E-02     -1.145664000000000E+02      3.142700000000000E-01     -1.670547000000000E+02
5920000000.000000      7.122421000000000E-02     -1.140156000000000E+02      3.188934000000000E-01      1.651250000000000E+02
5940000000.000000      6.269073000000000E-02     -1.044492000000000E+02      3.129425000000000E-01      1.367969000000000E+02
5960000000.000000      6.110573000000000E-02     -9.962500000000000E+01      2.985687000000000E-01      1.094883000000000E+02
5980000000.000000      5.308151000000000E-02     -9.879295000000000E+01      2.883606000000000E-01      8.242968000000000E+01
6000000000.000000      3.394318000000000E-02     -8.742188000000000E+01      2.816620000000000E-01      5.325000000000000E+01
6020000000.000000      3.154755000000000E-02     -2.796875000000000E+01      2.687988000000000E-01      2.228027000000000E+01
6040000000.000000      6.665039000000000E-02     -1.193018000000000E+01      2.546234000000000E-01     -8.205566000000000E+00
6060000000.000000      1.029892000000000E-01     -2.022754000000000E+01      2.503510000000000E-01     -3.855273000000000E+01
6080000000.000000      1.302795000000000E-01     -3.477148000000000E+01      2.560883000000000E-01     -6.937890000000000E+01
