! Network Analyzer HP8722D
! Hewlett-Packard
! Data name: Linha & Wilkinson
! Saver's name: Rodrigo Anjos
! Comments: Teste da utilização de aquisição
continua pelo VNA HP8722D
! Time and date: 3/9/2025 19:20
!              Frequency                     S11                                                   S21                                                   S12                                                   S22
# HZ  S  MA R 50
3000000000.000000      7.620239000000000E-02      8.809765000000000E+01      4.564819000000000E-01      2.603613000000000E+01
3020000000.000000      9.328079000000000E-02      7.372656000000000E+01      4.560089000000000E-01     -2.743896000000000E+00
3040000000.000000      9.545898000000000E-02      5.709570000000000E+01      4.570770000000000E-01     -3.159277000000000E+01
3060000000.000000      8.386230000000000E-02      4.207031000000000E+01      4.543762000000000E-01     -6.013672000000000E+01
3080000000.000000      6.428146000000000E-02      3.095117000000000E+01      4.547119000000000E-01     -8.869921000000000E+01
3100000000.000000      4.553986000000000E-02      3.047168000000000E+01      4.540100000000000E-01     -1.171797000000000E+02
3120000000.000000      3.775215000000000E-02      4.333789000000000E+01      4.510193000000000E-01     -1.458437000000000E+02
3140000000.000000      3.745461000000000E-02      4.973633000000000E+01      4.473267000000000E-01     -1.744375000000000E+02
3160000000.000000      2.978420000000000E-02      5.003711000000000E+01      4.432831000000000E-01      1.572656000000000E+02
3180000000.000000      1.664066000000000E-02      9.549999000000000E+01      4.416962000000000E-01      1.284531000000000E+02
3200000000.000000      4.633141000000000E-02      1.443750000000000E+02      4.369965000000000E-01      9.908983000000000E+01
3220000000.000000      9.691238000000000E-02      1.375156000000000E+02      4.232025000000000E-01      6.998047000000000E+01
3240000000.000000      1.485825000000000E-01      1.221875000000000E+02      4.125977000000000E-01      4.241796000000000E+01
3260000000.000000      1.906357000000000E-01      1.053242000000000E+02      4.153595000000000E-01      1.520605000000000E+01
3280000000.000000      2.181549000000000E-01      8.797655000000000E+01      4.205780000000000E-01     -1.409033000000000E+01
3300000000.000000      2.293701000000000E-01      7.112499000000000E+01      4.144745000000000E-01     -4.279297000000000E+01
3320000000.000000      2.249756000000000E-01      5.576953000000000E+01      4.175415000000000E-01     -7.052734000000000E+01
3340000000.000000      2.095871000000000E-01      4.283593000000000E+01      4.232941000000000E-01     -9.898438000000000E+01
3360000000.000000      1.860657000000000E-01      3.348633000000000E+01      4.242096000000000E-01     -1.275234000000000E+02
3380000000.000000      1.620789000000000E-01      2.850781000000000E+01      4.300232000000000E-01     -1.559062000000000E+02
3400000000.000000      1.429901000000000E-01      2.639551000000000E+01      4.324188000000000E-01      1.753359000000000E+02
3420000000.000000      1.287308000000000E-01      2.604004000000000E+01      4.329681000000000E-01      1.469531000000000E+02
3440000000.000000      1.160889000000000E-01      2.570801000000000E+01      4.310760000000000E-01      1.179961000000000E+02
3460000000.000000      1.043739000000000E-01      2.673633000000000E+01      4.281006000000000E-01      8.960938000000000E+01
3480000000.000000      9.579468000000000E-02      2.924219000000000E+01      4.310455000000000E-01      6.086914000000000E+01
3500000000.000000      9.213638000000000E-02      3.334765000000000E+01      4.260559000000000E-01      3.179492000000000E+01
3520000000.000000      9.099197000000000E-02      3.696484000000000E+01      4.228973000000000E-01      3.541626000000000E+00
3540000000.000000      9.179688000000000E-02      4.047852000000000E+01      4.265289000000000E-01     -2.497559000000000E+01
3560000000.000000      9.447861000000000E-02      4.561523000000000E+01      4.259338000000000E-01     -5.381836000000000E+01
3580000000.000000      1.014633000000000E-01      5.090820000000000E+01      4.255829000000000E-01     -8.280468000000000E+01
3600000000.000000      1.148872000000000E-01      5.231250000000000E+01      4.255676000000000E-01     -1.108633000000000E+02
3620000000.000000      1.281662000000000E-01      4.927734000000000E+01      4.268646000000000E-01     -1.391172000000000E+02
3640000000.000000      1.339798000000000E-01      4.307226000000000E+01      4.278564000000000E-01     -1.673906000000000E+02
3660000000.000000      1.293869000000000E-01      3.622851000000000E+01      4.248047000000000E-01      1.647578000000000E+02
3680000000.000000      1.169739000000000E-01      3.287890000000000E+01      4.284515000000000E-01      1.370625000000000E+02
3700000000.000000      1.039009000000000E-01      3.607617000000000E+01      4.299927000000000E-01      1.087226000000000E+02
3720000000.000000      1.045494000000000E-01      4.510547000000000E+01      4.281158000000000E-01      7.979687000000000E+01
3740000000.000000      1.219330000000000E-01      4.918945000000000E+01      4.229584000000000E-01      5.154101000000000E+01
3760000000.000000      1.405792000000000E-01      4.617969000000000E+01      4.167938000000000E-01      2.352637000000000E+01
3780000000.000000      1.478653000000000E-01      3.847656000000000E+01      4.170074000000000E-01     -3.986694000000000E+00
3800000000.000000      1.414337000000000E-01      3.112793000000000E+01      4.180298000000000E-01     -3.258594000000000E+01
3820000000.000000      1.228981000000000E-01      2.773438000000000E+01      4.179230000000000E-01     -6.130273000000000E+01
3840000000.000000      1.085587000000000E-01      3.256445000000000E+01      4.152679000000000E-01     -9.039063000000000E+01
3860000000.000000      1.122665000000000E-01      4.121094000000000E+01      4.150696000000000E-01     -1.193984000000000E+02
3880000000.000000      1.307220000000000E-01      4.288671000000000E+01      4.134521000000000E-01     -1.483672000000000E+02
3900000000.000000      1.457062000000000E-01      3.723242000000000E+01      4.063416000000000E-01     -1.766172000000000E+02
3920000000.000000      1.440125000000000E-01      2.974609000000000E+01      4.065704000000000E-01      1.562656000000000E+02
3940000000.000000      1.264038000000000E-01      2.544922000000000E+01      4.148254000000000E-01      1.277422000000000E+02
3960000000.000000      1.077919000000000E-01      3.193652000000000E+01      4.151611000000000E-01      9.842968000000000E+01
3980000000.000000      1.140938000000000E-01      4.551953000000000E+01      4.066010000000000E-01      6.982031000000000E+01
4000000000.000000      1.451263000000000E-01      4.914844000000000E+01      3.992004000000000E-01      4.260742000000000E+01
4020000000.000000      1.786575000000000E-01      4.182422000000000E+01      4.056549000000000E-01      1.494824000000000E+01
4040000000.000000      1.977921000000000E-01      2.901562000000000E+01      4.063110000000000E-01     -1.514063000000000E+01
4060000000.000000      1.928101000000000E-01      1.511572000000000E+01      3.915405000000000E-01     -4.359375000000000E+01
4080000000.000000      1.644363000000000E-01      1.480408000000000E+00      3.908691000000000E-01     -7.052734000000000E+01
4100000000.000000      1.187248000000000E-01     -6.260986000000000E+00      4.003448000000000E-01     -9.928905000000000E+01
4120000000.000000      7.551575000000000E-02      3.770996000000000E+00      4.000244000000000E-01     -1.292969000000000E+02
4140000000.000000      7.261276000000000E-02      3.400195000000000E+01      3.951721000000000E-01     -1.580703000000000E+02
4160000000.000000      9.720993000000000E-02      4.370313000000000E+01      3.961639000000000E-01      1.739375000000000E+02
4180000000.000000      1.156921000000000E-01      4.035352000000000E+01      4.038849000000000E-01      1.453672000000000E+02
4200000000.000000      1.176453000000000E-01      3.649219000000000E+01      4.057007000000000E-01      1.153945000000000E+02
4220000000.000000      1.150780000000000E-01      3.831445000000000E+01      3.962402000000000E-01      8.610937000000000E+01
4240000000.000000      1.235657000000000E-01      4.512304000000000E+01      3.907623000000000E-01      5.774804000000000E+01
4260000000.000000      1.487045000000000E-01      4.724414000000000E+01      3.888550000000000E-01      2.961035000000000E+01
4280000000.000000      1.754456000000000E-01      4.265234000000000E+01      3.872375000000000E-01      1.487244000000000E+00
4300000000.000000      1.917267000000000E-01      3.444336000000000E+01      3.827972000000000E-01     -2.741992000000000E+01
4320000000.000000      1.915741000000000E-01      2.611914000000000E+01      3.803711000000000E-01     -5.618164000000000E+01
4340000000.000000      1.779861000000000E-01      1.999023000000000E+01      3.801880000000000E-01     -8.512499000000000E+01
4360000000.000000      1.637878000000000E-01      1.896777000000000E+01      3.782196000000000E-01     -1.142930000000000E+02
4380000000.000000      1.619034000000000E-01      2.152050000000000E+01      3.756866000000000E-01     -1.437734000000000E+02
4400000000.000000      1.726074000000000E-01      2.173144000000000E+01      3.730774000000000E-01     -1.727734000000000E+02
4420000000.000000      1.832047000000000E-01      1.783301000000000E+01      3.747101000000000E-01      1.583437000000000E+02
4440000000.000000      1.809235000000000E-01      1.181982000000000E+01      3.775940000000000E-01      1.289766000000000E+02
4460000000.000000      1.647873000000000E-01      8.718750000000000E+00      3.698883000000000E-01      9.913671000000000E+01
4480000000.000000      1.458588000000000E-01      1.195313000000000E+01      3.679810000000000E-01      7.085938000000000E+01
4500000000.000000      1.471558000000000E-01      2.112500000000000E+01      3.671112000000000E-01      4.234961000000000E+01
4520000000.000000      1.722488000000000E-01      2.549023000000000E+01      3.631592000000000E-01      1.227441000000000E+01
4540000000.000000      2.036362000000000E-01      2.161328000000000E+01      3.530731000000000E-01     -1.683008000000000E+01
4560000000.000000      2.244415000000000E-01      1.337988000000000E+01      3.461914000000000E-01     -4.506055000000000E+01
4580000000.000000      2.302628000000000E-01      4.274902000000000E+00      3.476563000000000E-01     -7.442968000000000E+01
4600000000.000000      2.223206000000000E-01     -3.088623000000000E+00      3.446655000000000E-01     -1.049062000000000E+02
4620000000.000000      2.093277000000000E-01     -7.355469000000000E+00      3.384399000000000E-01     -1.343906000000000E+02
4640000000.000000      2.033005000000000E-01     -9.724609000000000E+00      3.383636000000000E-01     -1.638672000000000E+02
4660000000.000000      2.028351000000000E-01     -1.250244000000000E+01      3.378906000000000E-01      1.671250000000000E+02
4680000000.000000      2.035446000000000E-01     -1.764355000000000E+01      3.425293000000000E-01      1.381250000000000E+02
4700000000.000000      1.974716000000000E-01     -2.465332000000000E+01      3.433990000000000E-01      1.083750000000000E+02
4720000000.000000      1.813965000000000E-01     -3.182129000000000E+01      3.402252000000000E-01      8.058594000000000E+01
4740000000.000000      1.615753000000000E-01     -3.843164000000000E+01      3.471832000000000E-01      5.283398000000000E+01
4760000000.000000      1.371994000000000E-01     -4.372851000000000E+01      3.478088000000000E-01      2.419824000000000E+01
4780000000.000000      1.118240000000000E-01     -4.823632000000000E+01      3.438873000000000E-01     -4.136475000000000E+00
4800000000.000000      8.032608000000000E-02     -5.305859000000000E+01      3.399048000000000E-01     -3.261328000000000E+01
4820000000.000000      3.801155000000000E-02     -5.002539000000000E+01      3.309174000000000E-01     -6.156640000000000E+01
4840000000.000000      3.133965000000000E-02      5.574413000000000E+01      3.250275000000000E-01     -9.064844000000000E+01
4860000000.000000      9.717941000000000E-02      6.288671000000000E+01      3.178711000000000E-01     -1.214101000000000E+02
4880000000.000000      1.668777000000000E-01      4.986133000000000E+01      2.982483000000000E-01     -1.526328000000000E+02
4900000000.000000      2.260895000000000E-01      3.399805000000000E+01      2.749176000000000E-01      1.797188000000000E+02
4920000000.000000      2.687073000000000E-01      1.756250000000000E+01      2.753448000000000E-01      1.539922000000000E+02
4940000000.000000      2.905121000000000E-01      1.690491000000000E+00      2.885437000000000E-01      1.255781000000000E+02
4960000000.000000      2.886963000000000E-01     -1.363037000000000E+01      2.924194000000000E-01      9.573437000000000E+01
4980000000.000000      2.637024000000000E-01     -2.740625000000000E+01      2.983551000000000E-01      6.854687000000000E+01
5000000000.000000      2.213669000000000E-01     -3.761328000000000E+01      3.132629000000000E-01      4.112695000000000E+01
5020000000.000000      1.741409000000000E-01     -4.069336000000000E+01      3.238831000000000E-01      1.320117000000000E+01
5040000000.000000      1.433945000000000E-01     -3.375391000000000E+01      3.316803000000000E-01     -1.398193000000000E+01
5060000000.000000      1.444397000000000E-01     -2.374316000000000E+01      3.400269000000000E-01     -4.110742000000000E+01
5080000000.000000      1.606522000000000E-01     -2.053515000000000E+01      3.455353000000000E-01     -6.930078000000000E+01
5100000000.000000      1.740112000000000E-01     -2.258301000000000E+01      3.396759000000000E-01     -9.779686000000000E+01
5120000000.000000      1.792374000000000E-01     -2.616992000000000E+01      3.337250000000000E-01     -1.251484000000000E+02
5140000000.000000      1.817245000000000E-01     -2.913769000000000E+01      3.313446000000000E-01     -1.533984000000000E+02
5160000000.000000      1.844330000000000E-01     -3.177441000000000E+01      3.282471000000000E-01      1.771953000000000E+02
5180000000.000000      1.891098000000000E-01     -3.521875000000000E+01      3.236237000000000E-01      1.475625000000000E+02
5200000000.000000      1.910172000000000E-01     -3.980078000000000E+01      3.227692000000000E-01      1.174062000000000E+02
5220000000.000000      1.865997000000000E-01     -4.444531000000000E+01      3.227081000000000E-01      8.768358000000000E+01
5240000000.000000      1.764755000000000E-01     -4.755859000000000E+01      3.275909000000000E-01      5.789453000000000E+01
5260000000.000000      1.682205000000000E-01     -4.778710000000000E+01      3.330688000000000E-01      2.817285000000000E+01
5280000000.000000      1.649551000000000E-01     -4.638867000000000E+01      3.385010000000000E-01     -8.363342000000000E-01
5300000000.000000      1.691818000000000E-01     -4.647461000000000E+01      3.415985000000000E-01     -2.903613000000000E+01
5320000000.000000      1.732941000000000E-01     -4.896484000000000E+01      3.460693000000000E-01     -5.603320000000000E+01
5340000000.000000      1.711121000000000E-01     -5.280468000000000E+01      3.507385000000000E-01     -8.373438000000000E+01
5360000000.000000      1.648178000000000E-01     -5.604882000000000E+01      3.457642000000000E-01     -1.111680000000000E+02
5380000000.000000      1.583786000000000E-01     -5.708984000000000E+01      3.403168000000000E-01     -1.374375000000000E+02
5400000000.000000      1.576691000000000E-01     -5.626562000000000E+01      3.394775000000000E-01     -1.649219000000000E+02
5420000000.000000      1.677551000000000E-01     -5.597656000000000E+01      3.321228000000000E-01      1.667969000000000E+02
5440000000.000000      1.794052000000000E-01     -5.899023000000000E+01      3.269348000000000E-01      1.376016000000000E+02
5460000000.000000      1.862793000000000E-01     -6.495703000000000E+01      3.159027000000000E-01      1.079805000000000E+02
5480000000.000000      1.807709000000000E-01     -7.217968000000000E+01      3.097534000000000E-01      7.831249000000000E+01
5500000000.000000      1.644211000000000E-01     -7.859765000000000E+01      3.112030000000000E-01      4.855663000000000E+01
5520000000.000000      1.406631000000000E-01     -8.244141000000000E+01      3.135376000000000E-01      1.824219000000000E+01
5540000000.000000      1.211014000000000E-01     -8.169140000000000E+01      3.182526000000000E-01     -1.140137000000000E+01
5560000000.000000      1.084251000000000E-01     -7.789063000000000E+01      3.245697000000000E-01     -4.029101000000000E+01
5580000000.000000      1.027565000000000E-01     -7.257030000000000E+01      3.320160000000000E-01     -6.878515000000000E+01
5600000000.000000      1.003609000000000E-01     -6.708202000000000E+01      3.378906000000000E-01     -9.684765000000000E+01
5620000000.000000      1.036758000000000E-01     -5.929492000000000E+01      3.399963000000000E-01     -1.242617000000000E+02
5640000000.000000      1.183357000000000E-01     -5.268555000000000E+01      3.375092000000000E-01     -1.517969000000000E+02
5660000000.000000      1.429367000000000E-01     -5.157227000000000E+01      3.317413000000000E-01     -1.789687000000000E+02
5680000000.000000      1.697617000000000E-01     -5.691796000000000E+01      3.233032000000000E-01      1.532656000000000E+02
5700000000.000000      1.898041000000000E-01     -6.716015000000000E+01      3.096466000000000E-01      1.250742000000000E+02
5720000000.000000      1.932144000000000E-01     -7.960155000000000E+01      2.960968000000000E-01      9.731640000000000E+01
5740000000.000000      1.795425000000000E-01     -9.208593000000000E+01      2.906647000000000E-01      6.854297000000000E+01
5760000000.000000      1.516571000000000E-01     -1.022070000000000E+02      2.861633000000000E-01      3.757421000000000E+01
5780000000.000000      1.191864000000000E-01     -1.049414000000000E+02      2.820129000000000E-01      6.829346000000000E+00
5800000000.000000      9.883881000000000E-02     -9.668749000000000E+01      2.833862000000000E-01     -2.335059000000000E+01
5820000000.000000      1.015320000000000E-01     -8.789063000000000E+01      2.908783000000000E-01     -5.364258000000000E+01
5840000000.000000      1.128540000000000E-01     -8.903124000000000E+01      2.999115000000000E-01     -8.401171000000000E+01
5860000000.000000      1.177711000000000E-01     -9.651953000000000E+01      3.020020000000000E-01     -1.131445000000000E+02
5880000000.000000      1.085358000000000E-01     -1.072812000000000E+02      3.040161000000000E-01     -1.401953000000000E+02
5900000000.000000      9.011459000000000E-02     -1.150430000000000E+02      3.144531000000000E-01     -1.669453000000000E+02
5920000000.000000      7.106018000000000E-02     -1.141055000000000E+02      3.186951000000000E-01      1.652266000000000E+02
5940000000.000000      6.259155000000000E-02     -1.047422000000000E+02      3.138885000000000E-01      1.370625000000000E+02
5960000000.000000      6.096077000000000E-02     -9.957420000000000E+01      2.985229000000000E-01      1.094062000000000E+02
5980000000.000000      5.263329000000000E-02     -9.934765000000000E+01      2.882233000000000E-01      8.254686000000000E+01
6000000000.000000      3.317261000000000E-02     -8.806250000000000E+01      2.818451000000000E-01      5.336328000000000E+01
6020000000.000000      3.129005000000000E-02     -2.739062000000000E+01      2.694702000000000E-01      2.238965000000000E+01
6040000000.000000      6.632233000000000E-02     -1.198340000000000E+01      2.548370000000000E-01     -8.020020000000000E+00
6060000000.000000      1.025963000000000E-01     -2.036231000000000E+01      2.502899000000000E-01     -3.838086000000000E+01
6080000000.000000      1.301804000000000E-01     -3.468554000000000E+01      2.558289000000000E-01     -6.921484000000000E+01
