! Network Analyzer HP8722D
! Hewlett-Packard
! Data name: Linha & Wilkinson
! Saver's name: Rodrigo Anjos
! Comments: Teste da utilização de aquisição
continua pelo VNA HP8722D
! Time and date: 3/9/2025 18:26
!              Frequency                     S11                                                   S21                                                   S12                                                   S22
# HZ  S  MA R 50
3000000000.000000      7.662582000000000E-02      8.731640000000000E+01      4.558563000000000E-01      2.520996000000000E+01
3020000000.000000      9.328079000000000E-02      7.285546000000000E+01      4.575958000000000E-01     -3.548584000000000E+00
3040000000.000000      9.562683000000000E-02      5.650781000000000E+01      4.573822000000000E-01     -3.259375000000000E+01
3060000000.000000      8.380890000000000E-02      4.118554000000000E+01      4.554291000000000E-01     -6.108984000000000E+01
3080000000.000000      6.352997000000000E-02      3.035840000000000E+01      4.554138000000000E-01     -8.949219000000000E+01
3100000000.000000      4.523277000000000E-02      3.071582000000000E+01      4.532318000000000E-01     -1.181523000000000E+02
3120000000.000000      3.842354000000000E-02      4.316211000000000E+01      4.516144000000000E-01     -1.466094000000000E+02
3140000000.000000      3.786087000000000E-02      4.877343000000000E+01      4.473267000000000E-01     -1.751562000000000E+02
3160000000.000000      2.990818000000000E-02      4.890038000000000E+01      4.430237000000000E-01      1.564219000000000E+02
3180000000.000000      1.651573000000000E-02      9.536718000000000E+01      4.413147000000000E-01      1.276680000000000E+02
3200000000.000000      4.644775000000000E-02      1.444531000000000E+02      4.363098000000000E-01      9.826561000000000E+01
3220000000.000000      9.787750000000000E-02      1.369844000000000E+02      4.240265000000000E-01      6.889453000000000E+01
3240000000.000000      1.489716000000000E-01      1.216953000000000E+02      4.125214000000000E-01      4.156446000000000E+01
3260000000.000000      1.911621000000000E-01      1.047930000000000E+02      4.159546000000000E-01      1.412842000000000E+01
3280000000.000000      2.184525000000000E-01      8.727734000000000E+01      4.218903000000000E-01     -1.488818000000000E+01
3300000000.000000      2.293167000000000E-01      7.037499000000000E+01      4.151764000000000E-01     -4.384766000000000E+01
3320000000.000000      2.248077000000000E-01      5.508789000000000E+01      4.179230000000000E-01     -7.146093000000000E+01
3340000000.000000      2.087479000000000E-01      4.237109000000000E+01      4.244843000000000E-01     -9.990234000000000E+01
3360000000.000000      1.848984000000000E-01      3.319726000000000E+01      4.249725000000000E-01     -1.283906000000000E+02
3380000000.000000      1.616135000000000E-01      2.842285000000000E+01      4.307861000000000E-01     -1.566641000000000E+02
3400000000.000000      1.426544000000000E-01      2.652637000000000E+01      4.309387000000000E-01      1.746406000000000E+02
3420000000.000000      1.287842000000000E-01      2.612402000000000E+01      4.328156000000000E-01      1.460000000000000E+02
3440000000.000000      1.163292000000000E-01      2.583105000000000E+01      4.313660000000000E-01      1.170273000000000E+02
3460000000.000000      1.047974000000000E-01      2.696972000000000E+01      4.276733000000000E-01      8.875780000000000E+01
3480000000.000000      9.695816000000000E-02      2.950976000000000E+01      4.297791000000000E-01      5.997851000000000E+01
3500000000.000000      9.307098000000000E-02      3.334179000000000E+01      4.247894000000000E-01      3.102051000000000E+01
3520000000.000000      9.216309000000000E-02      3.647070000000000E+01      4.235992000000000E-01      2.710815000000000E+00
3540000000.000000      9.241104000000000E-02      3.987305000000000E+01      4.247437000000000E-01     -2.590625000000000E+01
3560000000.000000      9.488297000000000E-02      4.528125000000000E+01      4.268646000000000E-01     -5.491796000000000E+01
3580000000.000000      1.022758000000000E-01      5.051171000000000E+01      4.261780000000000E-01     -8.363672000000000E+01
3600000000.000000      1.155586000000000E-01      5.173633000000000E+01      4.253693000000000E-01     -1.116914000000000E+02
3620000000.000000      1.287766000000000E-01      4.884960000000000E+01      4.266357000000000E-01     -1.400703000000000E+02
3640000000.000000      1.342773000000000E-01      4.248242000000000E+01      4.273376000000000E-01     -1.683828000000000E+02
3660000000.000000      1.291580000000000E-01      3.577539000000000E+01      4.249268000000000E-01      1.638750000000000E+02
3680000000.000000      1.165924000000000E-01      3.256445000000000E+01      4.288330000000000E-01      1.360625000000000E+02
3700000000.000000      1.034851000000000E-01      3.603906000000000E+01      4.299622000000000E-01      1.075039000000000E+02
3720000000.000000      1.043701000000000E-01      4.495313000000000E+01      4.293823000000000E-01      7.898438000000000E+01
3740000000.000000      1.223106000000000E-01      4.911133000000000E+01      4.220886000000000E-01      5.036523000000000E+01
3760000000.000000      1.411057000000000E-01      4.549414000000000E+01      4.174652000000000E-01      2.247070000000000E+01
3780000000.000000      1.481857000000000E-01      3.791797000000000E+01      4.164429000000000E-01     -5.317383000000000E+00
3800000000.000000      1.411133000000000E-01      3.053613000000000E+01      4.178772000000000E-01     -3.373437000000000E+01
3820000000.000000      1.228676000000000E-01      2.746094000000000E+01      4.170990000000000E-01     -6.257226000000000E+01
3840000000.000000      1.083641000000000E-01      3.266602000000000E+01      4.168701000000000E-01     -9.127733000000000E+01
3860000000.000000      1.128578000000000E-01      4.119531000000000E+01      4.165039000000000E-01     -1.202383000000000E+02
3880000000.000000      1.313248000000000E-01      4.241601000000000E+01      4.134979000000000E-01     -1.494922000000000E+02
3900000000.000000      1.457672000000000E-01      3.655664000000000E+01      4.058685000000000E-01     -1.776172000000000E+02
3920000000.000000      1.433334000000000E-01      2.889941000000000E+01      4.079132000000000E-01      1.551563000000000E+02
3940000000.000000      1.255493000000000E-01      2.503418000000000E+01      4.155426000000000E-01      1.265273000000000E+02
3960000000.000000      1.073761000000000E-01      3.208008000000000E+01      4.159851000000000E-01      9.710938000000000E+01
3980000000.000000      1.148643000000000E-01      4.559570000000000E+01      4.061432000000000E-01      6.872265000000000E+01
4000000000.000000      1.463165000000000E-01      4.881445000000000E+01      4.011841000000000E-01      4.160352000000000E+01
4020000000.000000      1.798019000000000E-01      4.129687000000000E+01      4.040070000000000E-01      1.391260000000000E+01
4040000000.000000      1.983337000000000E-01      2.836230000000000E+01      4.072571000000000E-01     -1.604004000000000E+01
4060000000.000000      1.925201000000000E-01      1.431348000000000E+01      3.916168000000000E-01     -4.475976000000000E+01
4080000000.000000      1.637421000000000E-01      8.143616000000000E-01      3.901215000000000E-01     -7.161718000000000E+01
4100000000.000000      1.172791000000000E-01     -6.799316000000000E+00      4.009399000000000E-01     -1.004375000000000E+02
4120000000.000000      7.511902000000000E-02      4.123779000000000E+00      4.000702000000000E-01     -1.304688000000000E+02
4140000000.000000      7.339859000000000E-02      3.399609000000000E+01      3.953400000000000E-01     -1.592500000000000E+02
4160000000.000000      9.819031000000000E-02      4.300977000000000E+01      3.952789000000000E-01      1.729453000000000E+02
4180000000.000000      1.160851000000000E-01      3.970312000000000E+01      4.046478000000000E-01      1.441953000000000E+02
4200000000.000000      1.175041000000000E-01      3.598047000000000E+01      4.053192000000000E-01      1.140820000000000E+02
4220000000.000000      1.146393000000000E-01      3.822070000000000E+01      3.967438000000000E-01      8.503124000000000E+01
4240000000.000000      1.233597000000000E-01      4.495117000000000E+01      3.912048000000000E-01      5.656054000000000E+01
4260000000.000000      1.491699000000000E-01      4.701757000000000E+01      3.871918000000000E-01      2.867285000000000E+01
4280000000.000000      1.758728000000000E-01      4.222461000000000E+01      3.868713000000000E-01      2.128601000000000E-01
4300000000.000000      1.920090000000000E-01      3.391211000000000E+01      3.847656000000000E-01     -2.874023000000000E+01
4320000000.000000      1.916656000000000E-01      2.547363000000000E+01      3.809662000000000E-01     -5.751367000000000E+01
4340000000.000000      1.775360000000000E-01      1.979980000000000E+01      3.807068000000000E-01     -8.636328000000000E+01
4360000000.000000      1.632843000000000E-01      1.896289000000000E+01      3.777313000000000E-01     -1.156914000000000E+02
4380000000.000000      1.620865000000000E-01      2.161621000000000E+01      3.756561000000000E-01     -1.449609000000000E+02
4400000000.000000      1.735611000000000E-01      2.144629000000000E+01      3.729401000000000E-01     -1.741016000000000E+02
4420000000.000000      1.838913000000000E-01      1.725195000000000E+01      3.745270000000000E-01      1.571797000000000E+02
4440000000.000000      1.807251000000000E-01      1.131592000000000E+01      3.771973000000000E-01      1.272695000000000E+02
4460000000.000000      1.640701000000000E-01      8.267090000000000E+00      3.703766000000000E-01      9.784374000000000E+01
4480000000.000000      1.452866000000000E-01      1.166992000000000E+01      3.669434000000000E-01      6.979297000000000E+01
4500000000.000000      1.477585000000000E-01      2.085742000000000E+01      3.670044000000000E-01      4.089844000000000E+01
4520000000.000000      1.735077000000000E-01      2.510449000000000E+01      3.624573000000000E-01      1.135693000000000E+01
4540000000.000000      2.047424000000000E-01      2.089453000000000E+01      3.527069000000000E-01     -1.801562000000000E+01
4560000000.000000      2.245407000000000E-01      1.266309000000000E+01      3.470001000000000E-01     -4.651563000000000E+01
4580000000.000000      2.296677000000000E-01      3.674927000000000E+00      3.495483000000000E-01     -7.581640000000000E+01
4600000000.000000      2.216415000000000E-01     -3.603516000000000E+00      3.444214000000000E-01     -1.062617000000000E+02
4620000000.000000      2.090454000000000E-01     -7.777100000000000E+00      3.386993000000000E-01     -1.357891000000000E+02
4640000000.000000      2.035828000000000E-01     -1.001709000000000E+01      3.389282000000000E-01     -1.652266000000000E+02
4660000000.000000      2.031326000000000E-01     -1.271826000000000E+01      3.391724000000000E-01      1.656797000000000E+02
4680000000.000000      2.037277000000000E-01     -1.796484000000000E+01      3.441162000000000E-01      1.366797000000000E+02
4700000000.000000      1.972809000000000E-01     -2.489843000000000E+01      3.433685000000000E-01      1.071992000000000E+02
4720000000.000000      1.816330000000000E-01     -3.235937000000000E+01      3.405304000000000E-01      7.924609000000000E+01
4740000000.000000      1.610336000000000E-01     -3.886133000000000E+01      3.464661000000000E-01      5.152929000000000E+01
4760000000.000000      1.369629000000000E-01     -4.406640000000000E+01      3.479462000000000E-01      2.301953000000000E+01
4780000000.000000      1.106529000000000E-01     -4.873437000000000E+01      3.442535000000000E-01     -5.522217000000000E+00
4800000000.000000      7.928848000000000E-02     -5.345312000000000E+01      3.396759000000000E-01     -3.386133000000000E+01
4820000000.000000      3.630829000000000E-02     -4.961328000000000E+01      3.313293000000000E-01     -6.290625000000000E+01
4840000000.000000      3.347778000000000E-02      5.605469000000000E+01      3.249664000000000E-01     -9.209764000000000E+01
4860000000.000000      1.002197000000000E-01      6.201953000000000E+01      3.173828000000000E-01     -1.227891000000000E+02
4880000000.000000      1.692429000000000E-01      4.876367000000000E+01      2.975922000000000E-01     -1.539297000000000E+02
4900000000.000000      2.290726000000000E-01      3.293164000000000E+01      2.752380000000000E-01      1.782109000000000E+02
4920000000.000000      2.704315000000000E-01      1.653223000000000E+01      2.757263000000000E-01      1.528203000000000E+02
4940000000.000000      2.908936000000000E-01      7.127380000000000E-01      2.888031000000000E-01      1.242266000000000E+02
4960000000.000000      2.878571000000000E-01     -1.457373000000000E+01      2.931671000000000E-01      9.438671000000000E+01
4980000000.000000      2.623596000000000E-01     -2.821289000000000E+01      2.991638000000000E-01      6.733593000000000E+01
5000000000.000000      2.198029000000000E-01     -3.824804000000000E+01      3.140411000000000E-01      3.983593000000000E+01
5020000000.000000      1.721115000000000E-01     -4.102344000000000E+01      3.244476000000000E-01      1.181543000000000E+01
5040000000.000000      1.426773000000000E-01     -3.380664000000000E+01      3.316650000000000E-01     -1.529199000000000E+01
5060000000.000000      1.448593000000000E-01     -2.383691000000000E+01      3.402863000000000E-01     -4.250196000000000E+01
5080000000.000000      1.609039000000000E-01     -2.063574000000000E+01      3.455963000000000E-01     -7.073828000000000E+01
5100000000.000000      1.741943000000000E-01     -2.283789000000000E+01      3.396606000000000E-01     -9.919922000000000E+01
5120000000.000000      1.792755000000000E-01     -2.655762000000000E+01      3.334503000000000E-01     -1.265117000000000E+02
5140000000.000000      1.818924000000000E-01     -2.945313000000000E+01      3.310089000000000E-01     -1.548281000000000E+02
5160000000.000000      1.847916000000000E-01     -3.194336000000000E+01      3.279724000000000E-01      1.757266000000000E+02
5180000000.000000      1.892624000000000E-01     -3.538476000000000E+01      3.242950000000000E-01      1.459609000000000E+02
5200000000.000000      1.917419000000000E-01     -4.004687000000000E+01      3.226318000000000E-01      1.158516000000000E+02
5220000000.000000      1.862259000000000E-01     -4.474414000000000E+01      3.225250000000000E-01      8.609375000000000E+01
5240000000.000000      1.762695000000000E-01     -4.758008000000000E+01      3.275604000000000E-01      5.645702000000000E+01
5260000000.000000      1.679688000000000E-01     -4.769727000000000E+01      3.336639000000000E-01      2.667187000000000E+01
5280000000.000000      1.657486000000000E-01     -4.648633000000000E+01      3.381348000000000E-01     -2.322266000000000E+00
5300000000.000000      1.698227000000000E-01     -4.654882000000000E+01      3.416138000000000E-01     -3.045019000000000E+01
5320000000.000000      1.739960000000000E-01     -4.927929000000000E+01      3.464813000000000E-01     -5.750195000000000E+01
5340000000.000000      1.723404000000000E-01     -5.302539000000000E+01      3.503418000000000E-01     -8.511328000000000E+01
5360000000.000000      1.655121000000000E-01     -5.625000000000000E+01      3.454285000000000E-01     -1.125078000000000E+02
5380000000.000000      1.590729000000000E-01     -5.719531000000000E+01      3.407288000000000E-01     -1.388594000000000E+02
5400000000.000000      1.592255000000000E-01     -5.641602000000000E+01      3.382874000000000E-01     -1.664141000000000E+02
5420000000.000000      1.691208000000000E-01     -5.629296000000000E+01      3.317413000000000E-01      1.653672000000000E+02
5440000000.000000      1.808319000000000E-01     -5.937304000000000E+01      3.262787000000000E-01      1.361797000000000E+02
5460000000.000000      1.872406000000000E-01     -6.554688000000000E+01      3.157654000000000E-01      1.064492000000000E+02
5480000000.000000      1.819077000000000E-01     -7.296093000000000E+01      3.092957000000000E-01      7.678515000000000E+01
5500000000.000000      1.641922000000000E-01     -7.917969000000000E+01      3.124542000000000E-01      4.703515000000000E+01
5520000000.000000      1.409988000000000E-01     -8.288280000000000E+01      3.146362000000000E-01      1.658984000000000E+01
5540000000.000000      1.211014000000000E-01     -8.191797000000000E+01      3.180542000000000E-01     -1.290088000000000E+01
5560000000.000000      1.088028000000000E-01     -7.799218000000000E+01      3.255310000000000E-01     -4.187500000000000E+01
5580000000.000000      1.031494000000000E-01     -7.277344000000000E+01      3.326874000000000E-01     -7.044531000000000E+01
5600000000.000000      1.008759000000000E-01     -6.708984000000000E+01      3.380432000000000E-01     -9.816795000000000E+01
5620000000.000000      1.044083000000000E-01     -5.936328000000000E+01      3.396606000000000E-01     -1.258672000000000E+02
5640000000.000000      1.188889000000000E-01     -5.275391000000000E+01      3.382416000000000E-01     -1.533359000000000E+02
5660000000.000000      1.442413000000000E-01     -5.196094000000000E+01      3.310852000000000E-01      1.795703000000000E+02
5680000000.000000      1.712341000000000E-01     -5.769336000000000E+01      3.226776000000000E-01      1.516172000000000E+02
5700000000.000000      1.902313000000000E-01     -6.795312000000000E+01      3.094330000000000E-01      1.232891000000000E+02
5720000000.000000      1.933594000000000E-01     -8.036718000000000E+01      2.950134000000000E-01      9.553125000000000E+01
5740000000.000000      1.788940000000000E-01     -9.262499000000000E+01      2.898712000000000E-01      6.695703000000000E+01
5760000000.000000      1.505814000000000E-01     -1.025391000000000E+02      2.858276000000000E-01      3.581640000000000E+01
5780000000.000000      1.178246000000000E-01     -1.047227000000000E+02      2.808380000000000E-01      5.160645000000000E+00
5800000000.000000      9.921265000000000E-02     -9.592188000000000E+01      2.839966000000000E-01     -2.521289000000000E+01
5820000000.000000      1.028137000000000E-01     -8.762890000000000E+01      2.907562000000000E-01     -5.539063000000000E+01
5840000000.000000      1.135406000000000E-01     -8.918749000000000E+01      3.003082000000000E-01     -8.569921000000000E+01
5860000000.000000      1.180916000000000E-01     -9.730858000000000E+01      3.024445000000000E-01     -1.148516000000000E+02
5880000000.000000      1.087608000000000E-01     -1.077695000000000E+02      3.045502000000000E-01     -1.418828000000000E+02
5900000000.000000      9.004974000000000E-02     -1.146250000000000E+02      3.134308000000000E-01     -1.683125000000000E+02
5920000000.000000      7.143784000000000E-02     -1.135547000000000E+02      3.191986000000000E-01      1.636328000000000E+02
5940000000.000000      6.385803000000000E-02     -1.040430000000000E+02      3.130798000000000E-01      1.354063000000000E+02
5960000000.000000      6.203842000000000E-02     -9.988281000000000E+01      2.976227000000000E-01      1.078984000000000E+02
5980000000.000000      5.269623000000000E-02     -9.971483000000000E+01      2.871246000000000E-01      8.089844000000000E+01
6000000000.000000      3.314590000000000E-02     -8.705858000000000E+01      2.809448000000000E-01      5.169922000000000E+01
6020000000.000000      3.193283000000000E-02     -2.826953000000000E+01      2.682190000000000E-01      2.066113000000000E+01
6040000000.000000      6.749344000000000E-02     -1.303955000000000E+01      2.549591000000000E-01     -9.809570000000000E+00
6060000000.000000      1.037521000000000E-01     -2.147168000000000E+01      2.501221000000000E-01     -4.021484000000000E+01
6080000000.000000      1.309280000000000E-01     -3.584570000000000E+01      2.555695000000000E-01     -7.103906000000000E+01
