! Network Analyzer HP8722D
! Hewlett-Packard
! Data name: Linha & Wilkinson
! Saver's name: Rodrigo Anjos
! Comments: Teste da utilização de aquisição
continua pelo VNA HP8722D
! Time and date: 3/9/2025 19:48
!              Frequency                     S11                                                   S21                                                   S12                                                   S22
# HZ  S  MA R 50
3000000000.000000      7.670212000000000E-02      8.762890000000000E+01      4.576721000000000E-01      2.529687000000000E+01
3020000000.000000      9.364319000000000E-02      7.327734000000000E+01      4.579926000000000E-01     -3.548584000000000E+00
3040000000.000000      9.599304000000000E-02      5.694530000000000E+01      4.589844000000000E-01     -3.243750000000000E+01
3060000000.000000      8.379745000000000E-02      4.172461000000000E+01      4.558563000000000E-01     -6.091210000000000E+01
3080000000.000000      6.375504000000000E-02      3.076269000000000E+01      4.562378000000000E-01     -8.941015000000000E+01
3100000000.000000      4.482079000000000E-02      3.096875000000000E+01      4.540863000000000E-01     -1.179570000000000E+02
3120000000.000000      3.784561000000000E-02      4.336328000000000E+01      4.515228000000000E-01     -1.465000000000000E+02
3140000000.000000      3.774261000000000E-02      4.957226000000000E+01      4.483185000000000E-01     -1.750156000000000E+02
3160000000.000000      3.009415000000000E-02      4.891015000000000E+01      4.443054000000000E-01      1.566406000000000E+02
3180000000.000000      1.673794000000000E-02      9.571093000000000E+01      4.425659000000000E-01      1.277461000000000E+02
3200000000.000000      4.705620000000000E-02      1.443984000000000E+02      4.366760000000000E-01      9.839062000000000E+01
3220000000.000000      9.870911000000000E-02      1.374766000000000E+02      4.238129000000000E-01      6.922265000000000E+01
3240000000.000000      1.495361000000000E-01      1.220859000000000E+02      4.135437000000000E-01      4.166601000000000E+01
3260000000.000000      1.923447000000000E-01      1.051563000000000E+02      4.176941000000000E-01      1.439990000000000E+01
3280000000.000000      2.191162000000000E-01      8.778124000000000E+01      4.222412000000000E-01     -1.509131000000000E+01
3300000000.000000      2.294617000000000E-01      7.073047000000000E+01      4.164581000000000E-01     -4.334961000000000E+01
3320000000.000000      2.245331000000000E-01      5.547656000000000E+01      4.195251000000000E-01     -7.119141000000000E+01
3340000000.000000      2.083817000000000E-01      4.265821000000000E+01      4.233704000000000E-01     -9.977343000000000E+01
3360000000.000000      1.851501000000000E-01      3.346680000000000E+01      4.261932000000000E-01     -1.283125000000000E+02
3380000000.000000      1.613693000000000E-01      2.863770000000000E+01      4.300232000000000E-01     -1.565312000000000E+02
3400000000.000000      1.422195000000000E-01      2.688672000000000E+01      4.329987000000000E-01      1.747109000000000E+02
3420000000.000000      1.285324000000000E-01      2.628808000000000E+01      4.331970000000000E-01      1.460781000000000E+02
3440000000.000000      1.160316000000000E-01      2.622363000000000E+01      4.329071000000000E-01      1.171133000000000E+02
3460000000.000000      1.046448000000000E-01      2.724804000000000E+01      4.301300000000000E-01      8.894531000000000E+01
3480000000.000000      9.660721000000000E-02      2.971094000000000E+01      4.316254000000000E-01      6.009179000000000E+01
3500000000.000000      9.337234000000000E-02      3.356445000000000E+01      4.270325000000000E-01      3.101269000000000E+01
3520000000.000000      9.188461000000000E-02      3.713476000000000E+01      4.233704000000000E-01      3.007446000000000E+00
3540000000.000000      9.275436000000000E-02      4.045507000000000E+01      4.273987000000000E-01     -2.576367000000000E+01
3560000000.000000      9.449387000000000E-02      4.586328000000000E+01      4.284668000000000E-01     -5.473437000000000E+01
3580000000.000000      1.019135000000000E-01      5.078711000000000E+01      4.265594000000000E-01     -8.338671000000000E+01
3600000000.000000      1.155319000000000E-01      5.216015000000000E+01      4.267731000000000E-01     -1.116680000000000E+02
3620000000.000000      1.284409000000000E-01      4.918945000000000E+01      4.271545000000000E-01     -1.399219000000000E+02
3640000000.000000      1.344452000000000E-01      4.305078000000000E+01      4.278107000000000E-01     -1.682891000000000E+02
3660000000.000000      1.291122000000000E-01      3.608398000000000E+01      4.254913000000000E-01      1.639141000000000E+02
3680000000.000000      1.163330000000000E-01      3.288867000000000E+01      4.300690000000000E-01      1.363672000000000E+02
3700000000.000000      1.035728000000000E-01      3.622461000000000E+01      4.312592000000000E-01      1.077695000000000E+02
3720000000.000000      1.043587000000000E-01      4.537305000000000E+01      4.280853000000000E-01      7.912499000000000E+01
3740000000.000000      1.222496000000000E-01      4.940820000000000E+01      4.234772000000000E-01      5.055273000000000E+01
3760000000.000000      1.410522000000000E-01      4.618164000000000E+01      4.176636000000000E-01      2.276465000000000E+01
3780000000.000000      1.486206000000000E-01      3.857812000000000E+01      4.176025000000000E-01     -5.034668000000000E+00
3800000000.000000      1.412430000000000E-01      3.099512000000000E+01      4.195709000000000E-01     -3.349609000000000E+01
3820000000.000000      1.225624000000000E-01      2.777344000000000E+01      4.184113000000000E-01     -6.221093000000000E+01
3840000000.000000      1.085777000000000E-01      3.303515000000000E+01      4.188995000000000E-01     -9.120703000000000E+01
3860000000.000000      1.130257000000000E-01      4.118750000000000E+01      4.171448000000000E-01     -1.201015000000000E+02
3880000000.000000      1.317291000000000E-01      4.276172000000000E+01      4.151306000000000E-01     -1.491406000000000E+02
3900000000.000000      1.462402000000000E-01      3.695703000000000E+01      4.066772000000000E-01     -1.773594000000000E+02
3920000000.000000      1.438522000000000E-01      2.939941000000000E+01      4.078674000000000E-01      1.553047000000000E+02
3940000000.000000      1.255951000000000E-01      2.570215000000000E+01      4.167480000000000E-01      1.267461000000000E+02
3960000000.000000      1.077995000000000E-01      3.221680000000000E+01      4.159241000000000E-01      9.749609000000000E+01
3980000000.000000      1.149216000000000E-01      4.613281000000000E+01      4.074097000000000E-01      6.878124000000000E+01
4000000000.000000      1.464767000000000E-01      4.917578000000000E+01      3.997803000000000E-01      4.191602000000000E+01
4020000000.000000      1.798096000000000E-01      4.152734000000000E+01      4.059906000000000E-01      1.411719000000000E+01
4040000000.000000      1.986237000000000E-01      2.880859000000000E+01      4.066315000000000E-01     -1.585059000000000E+01
4060000000.000000      1.928711000000000E-01      1.472705000000000E+01      3.928986000000000E-01     -4.451172000000000E+01
4080000000.000000      1.636658000000000E-01      1.308716000000000E+00      3.916168000000000E-01     -7.144921000000000E+01
4100000000.000000      1.173134000000000E-01     -6.293945000000000E+00      4.010925000000000E-01     -1.002930000000000E+02
4120000000.000000      7.477951000000000E-02      4.692383000000000E+00      4.010925000000000E-01     -1.301250000000000E+02
4140000000.000000      7.347870000000000E-02      3.480859000000000E+01      3.959503000000000E-01     -1.588594000000000E+02
4160000000.000000      9.843826000000000E-02      4.373242000000000E+01      3.959656000000000E-01      1.731172000000000E+02
4180000000.000000      1.160355000000000E-01      4.021484000000000E+01      4.047699000000000E-01      1.444219000000000E+02
4200000000.000000      1.180611000000000E-01      3.656250000000000E+01      4.054260000000000E-01      1.143086000000000E+02
4220000000.000000      1.150017000000000E-01      3.883984000000000E+01      3.975220000000000E-01      8.516405000000000E+01
4240000000.000000      1.240768000000000E-01      4.552734000000000E+01      3.929596000000000E-01      5.687304000000000E+01
4260000000.000000      1.498947000000000E-01      4.756249000000000E+01      3.882751000000000E-01      2.879199000000000E+01
4280000000.000000      1.764679000000000E-01      4.265038000000000E+01      3.870392000000000E-01      3.337097000000000E-01
4300000000.000000      1.924362000000000E-01      3.443359000000000E+01      3.839264000000000E-01     -2.848145000000000E+01
4320000000.000000      1.916046000000000E-01      2.596972000000000E+01      3.806305000000000E-01     -5.708593000000000E+01
4340000000.000000      1.774521000000000E-01      2.009375000000000E+01      3.807220000000000E-01     -8.616796000000000E+01
4360000000.000000      1.635895000000000E-01      1.925586000000000E+01      3.787079000000000E-01     -1.156289000000000E+02
4380000000.000000      1.629257000000000E-01      2.191308000000000E+01      3.769531000000000E-01     -1.447266000000000E+02
4400000000.000000      1.738968000000000E-01      2.182129000000000E+01      3.753662000000000E-01     -1.738828000000000E+02
4420000000.000000      1.841583000000000E-01      1.770703000000000E+01      3.749390000000000E-01      1.572891000000000E+02
4440000000.000000      1.811600000000000E-01      1.189795000000000E+01      3.781128000000000E-01      1.277148000000000E+02
4460000000.000000      1.647720000000000E-01      8.724121000000000E+00      3.706970000000000E-01      9.823828000000000E+01
4480000000.000000      1.462936000000000E-01      1.220557000000000E+01      3.684387000000000E-01      6.982031000000000E+01
4500000000.000000      1.477051000000000E-01      2.144336000000000E+01      3.684540000000000E-01      4.111718000000000E+01
4520000000.000000      1.738205000000000E-01      2.546875000000000E+01      3.637848000000000E-01      1.167139000000000E+01
4540000000.000000      2.048721000000000E-01      2.132031000000000E+01      3.534241000000000E-01     -1.779785000000000E+01
4560000000.000000      2.257309000000000E-01      1.301172000000000E+01      3.467102000000000E-01     -4.604101000000000E+01
4580000000.000000      2.303467000000000E-01      3.919312000000000E+00      3.492737000000000E-01     -7.560937000000000E+01
4600000000.000000      2.220001000000000E-01     -3.225952000000000E+00      3.452606000000000E-01     -1.057695000000000E+02
4620000000.000000      2.095337000000000E-01     -7.430908000000000E+00      3.401031000000000E-01     -1.353047000000000E+02
4640000000.000000      2.035599000000000E-01     -9.660156000000000E+00      3.391724000000000E-01     -1.649844000000000E+02
4660000000.000000      2.031784000000000E-01     -1.244238000000000E+01      3.382874000000000E-01      1.659375000000000E+02
4680000000.000000      2.036972000000000E-01     -1.750195000000000E+01      3.456268000000000E-01      1.369844000000000E+02
4700000000.000000      1.976242000000000E-01     -2.464160000000000E+01      3.444519000000000E-01      1.073242000000000E+02
4720000000.000000      1.811142000000000E-01     -3.199219000000000E+01      3.414307000000000E-01      7.951562000000000E+01
4740000000.000000      1.606216000000000E-01     -3.838867000000000E+01      3.477173000000000E-01      5.172461000000000E+01
4760000000.000000      1.362991000000000E-01     -4.364843000000000E+01      3.490601000000000E-01      2.316308000000000E+01
4780000000.000000      1.102753000000000E-01     -4.828711000000000E+01      3.446655000000000E-01     -5.206299000000000E+00
4800000000.000000      7.882690000000000E-02     -5.295898000000000E+01      3.405457000000000E-01     -3.374609000000000E+01
4820000000.000000      3.596306000000000E-02     -4.845117000000000E+01      3.326874000000000E-01     -6.284180000000000E+01
4840000000.000000      3.440285000000000E-02      5.726953000000000E+01      3.253632000000000E-01     -9.185156000000000E+01
4860000000.000000      1.007957000000000E-01      6.219336000000000E+01      3.178558000000000E-01     -1.225156000000000E+02
4880000000.000000      1.702194000000000E-01      4.922265000000000E+01      2.978973000000000E-01     -1.536641000000000E+02
4900000000.000000      2.294617000000000E-01      3.316797000000000E+01      2.755585000000000E-01      1.785000000000000E+02
4920000000.000000      2.717590000000000E-01      1.703418000000000E+01      2.752838000000000E-01      1.530547000000000E+02
4940000000.000000      2.920685000000000E-01      1.014832000000000E+00      2.893829000000000E-01      1.244765000000000E+02
4960000000.000000      2.889099000000000E-01     -1.435400000000000E+01      2.938385000000000E-01      9.469921000000000E+01
4980000000.000000      2.633514000000000E-01     -2.790820000000000E+01      2.996979000000000E-01      6.750781000000000E+01
5000000000.000000      2.200470000000000E-01     -3.805664000000000E+01      3.141632000000000E-01      4.016602000000000E+01
5020000000.000000      1.723480000000000E-01     -4.067187000000000E+01      3.254089000000000E-01      1.200488000000000E+01
5040000000.000000      1.430206000000000E-01     -3.352930000000000E+01      3.325958000000000E-01     -1.506396000000000E+01
5060000000.000000      1.444931000000000E-01     -2.343262000000000E+01      3.406982000000000E-01     -4.226171000000000E+01
5080000000.000000      1.608810000000000E-01     -2.037988000000000E+01      3.454742000000000E-01     -7.038280000000000E+01
5100000000.000000      1.743164000000000E-01     -2.273926000000000E+01      3.395081000000000E-01     -9.890234000000000E+01
5120000000.000000      1.793060000000000E-01     -2.619043000000000E+01      3.339996000000000E-01     -1.262969000000000E+02
5140000000.000000      1.817932000000000E-01     -2.908984000000000E+01      3.313904000000000E-01     -1.545859000000000E+02
5160000000.000000      1.845932000000000E-01     -3.168457000000000E+01      3.284454000000000E-01      1.760156000000000E+02
5180000000.000000      1.886444000000000E-01     -3.513476000000000E+01      3.248749000000000E-01      1.461406000000000E+02
5200000000.000000      1.906357000000000E-01     -3.986133000000000E+01      3.230743000000000E-01      1.160586000000000E+02
5220000000.000000      1.854935000000000E-01     -4.449023000000000E+01      3.229065000000000E-01      8.631250000000000E+01
5240000000.000000      1.763306000000000E-01     -4.730859000000000E+01      3.285522000000000E-01      5.664648000000000E+01
5260000000.000000      1.678925000000000E-01     -4.748828000000000E+01      3.344116000000000E-01      2.689258000000000E+01
5280000000.000000      1.650009000000000E-01     -4.624023000000000E+01      3.397522000000000E-01     -2.084717000000000E+00
5300000000.000000      1.699066000000000E-01     -4.629883000000000E+01      3.423157000000000E-01     -3.035742000000000E+01
5320000000.000000      1.737518000000000E-01     -4.886523000000000E+01      3.467255000000000E-01     -5.719727000000000E+01
5340000000.000000      1.719284000000000E-01     -5.265234000000000E+01      3.510895000000000E-01     -8.490234000000000E+01
5360000000.000000      1.652756000000000E-01     -5.588085000000000E+01      3.460541000000000E-01     -1.122578000000000E+02
5380000000.000000      1.583633000000000E-01     -5.683788000000000E+01      3.406677000000000E-01     -1.386484000000000E+02
5400000000.000000      1.588058000000000E-01     -5.587695000000000E+01      3.395996000000000E-01     -1.660156000000000E+02
5420000000.000000      1.687241000000000E-01     -5.590820000000000E+01      3.328705000000000E-01      1.654922000000000E+02
5440000000.000000      1.810760000000000E-01     -5.901172000000000E+01      3.272552000000000E-01      1.365391000000000E+02
5460000000.000000      1.875458000000000E-01     -6.509375000000000E+01      3.163452000000000E-01      1.065039000000000E+02
5480000000.000000      1.812134000000000E-01     -7.239452000000000E+01      3.103333000000000E-01      7.707812000000000E+01
5500000000.000000      1.643448000000000E-01     -7.871484000000000E+01      3.126221000000000E-01      4.740820000000000E+01
5520000000.000000      1.406937000000000E-01     -8.243750000000000E+01      3.146820000000000E-01      1.690918000000000E+01
5540000000.000000      1.207619000000000E-01     -8.153906000000000E+01      3.201141000000000E-01     -1.265381000000000E+01
5560000000.000000      1.084061000000000E-01     -7.779687000000000E+01      3.255920000000000E-01     -4.163671000000000E+01
5580000000.000000      1.026878000000000E-01     -7.252343000000000E+01      3.333893000000000E-01     -6.999609000000000E+01
5600000000.000000      1.001854000000000E-01     -6.684765000000000E+01      3.382111000000000E-01     -9.780468000000000E+01
5620000000.000000      1.038017000000000E-01     -5.927734000000000E+01      3.402405000000000E-01     -1.255000000000000E+02
5640000000.000000      1.189613000000000E-01     -5.224414000000000E+01      3.380737000000000E-01     -1.530078000000000E+02
5660000000.000000      1.445465000000000E-01     -5.146093000000000E+01      3.317566000000000E-01      1.797344000000000E+02
5680000000.000000      1.714935000000000E-01     -5.707617000000000E+01      3.233643000000000E-01      1.519219000000000E+02
5700000000.000000      1.902313000000000E-01     -6.755859000000000E+01      3.097534000000000E-01      1.237070000000000E+02
5720000000.000000      1.929779000000000E-01     -7.991796000000000E+01      2.957611000000000E-01      9.589062000000000E+01
5740000000.000000      1.788177000000000E-01     -9.238281000000000E+01      2.905426000000000E-01      6.719531000000000E+01
5760000000.000000      1.502304000000000E-01     -1.022383000000000E+02      2.867432000000000E-01      3.612305000000000E+01
5780000000.000000      1.176834000000000E-01     -1.042461000000000E+02      2.823486000000000E-01      5.390137000000000E+00
5800000000.000000      9.867859000000000E-02     -9.582031000000000E+01      2.845001000000000E-01     -2.487793000000000E+01
5820000000.000000      1.023903000000000E-01     -8.705858000000000E+01      2.912750000000000E-01     -5.525585000000000E+01
5840000000.000000      1.138115000000000E-01     -8.857031000000000E+01      3.014984000000000E-01     -8.541016000000000E+01
5860000000.000000      1.173248000000000E-01     -9.674608000000000E+01      3.035278000000000E-01     -1.145703000000000E+02
5880000000.000000      1.084480000000000E-01     -1.074609000000000E+02      3.049011000000000E-01     -1.414297000000000E+02
5900000000.000000      8.935165000000000E-02     -1.143359000000000E+02      3.144531000000000E-01     -1.681484000000000E+02
5920000000.000000      7.082367000000000E-02     -1.133047000000000E+02      3.194885000000000E-01      1.641016000000000E+02
5940000000.000000      6.339264000000000E-02     -1.036211000000000E+02      3.134155000000000E-01      1.357109000000000E+02
5960000000.000000      6.219101000000000E-02     -9.933594000000000E+01      2.987366000000000E-01      1.082187000000000E+02
5980000000.000000      5.333900000000000E-02     -9.902344000000000E+01      2.879333000000000E-01      8.122656000000000E+01
6000000000.000000      3.348541000000000E-02     -8.632030000000000E+01      2.812653000000000E-01      5.181250000000000E+01
6020000000.000000      3.307152000000000E-02     -2.705566000000000E+01      2.691193000000000E-01      2.092285000000000E+01
6040000000.000000      6.845093000000000E-02     -1.249023000000000E+01      2.552185000000000E-01     -9.528320000000000E+00
6060000000.000000      1.040764000000000E-01     -2.079199000000000E+01      2.506561000000000E-01     -3.985742000000000E+01
6080000000.000000      1.311493000000000E-01     -3.532617000000000E+01      2.564087000000000E-01     -7.076172000000000E+01
