! Network Analyzer HP8722D
! Hewlett-Packard
! Data name: Linha & Wilkinson
! Saver's name: Rodrigo Anjos
! Comments: Teste da utilização de aquisição
continua pelo VNA HP8722D
! Time and date: 3/9/2025 17:48
!              Frequency                     S11                                                   S21                                                   S12                                                   S22
# HZ  S  MA R 50
3000000000.000000      7.592010000000000E-02      8.769922000000000E+01      4.537201000000000E-01      2.572558000000000E+01
3020000000.000000      9.283829000000000E-02      7.321094000000000E+01      4.558411000000000E-01     -2.890869000000000E+00
3040000000.000000      9.518814000000000E-02      5.683203000000000E+01      4.559021000000000E-01     -3.216406000000000E+01
3060000000.000000      8.388901000000000E-02      4.127930000000000E+01      4.540863000000000E-01     -6.040039000000000E+01
3080000000.000000      6.413269000000000E-02      3.028515000000000E+01      4.539490000000000E-01     -8.902735000000000E+01
3100000000.000000      4.584694000000000E-02      3.042773000000000E+01      4.518890000000000E-01     -1.176328000000000E+02
3120000000.000000      3.765106000000000E-02      4.278125000000000E+01      4.497070000000000E-01     -1.461484000000000E+02
3140000000.000000      3.748512000000000E-02      4.894726000000000E+01      4.467926000000000E-01     -1.748203000000000E+02
3160000000.000000      3.002357000000000E-02      4.916406000000000E+01      4.427643000000000E-01      1.569141000000000E+02
3180000000.000000      1.674366000000000E-02      9.578905000000000E+01      4.405212000000000E-01      1.283594000000000E+02
3200000000.000000      4.597092000000000E-02      1.441484000000000E+02      4.351807000000000E-01      9.867968000000000E+01
3220000000.000000      9.662628000000000E-02      1.373906000000000E+02      4.224091000000000E-01      6.954296000000000E+01
3240000000.000000      1.477127000000000E-01      1.218086000000000E+02      4.118042000000000E-01      4.209374000000000E+01
3260000000.000000      1.900482000000000E-01      1.049687000000000E+02      4.158630000000000E-01      1.489600000000000E+01
3280000000.000000      2.178345000000000E-01      8.750780000000000E+01      4.201813000000000E-01     -1.453369000000000E+01
3300000000.000000      2.290878000000000E-01      7.074609000000000E+01      4.142303000000000E-01     -4.306641000000000E+01
3320000000.000000      2.242813000000000E-01      5.536523000000000E+01      4.178009000000000E-01     -7.069921000000000E+01
3340000000.000000      2.085342000000000E-01      4.262891000000000E+01      4.226532000000000E-01     -9.955858000000000E+01
3360000000.000000      1.855164000000000E-01      3.328125000000000E+01      4.231415000000000E-01     -1.279258000000000E+02
3380000000.000000      1.619034000000000E-01      2.822851000000000E+01      4.273224000000000E-01     -1.562500000000000E+02
3400000000.000000      1.427383000000000E-01      2.627636000000000E+01      4.306793000000000E-01      1.750625000000000E+02
3420000000.000000      1.285553000000000E-01      2.574219000000000E+01      4.312134000000000E-01      1.464922000000000E+02
3440000000.000000      1.161919000000000E-01      2.549219000000000E+01      4.290466000000000E-01      1.177148000000000E+02
3460000000.000000      1.039429000000000E-01      2.656445000000000E+01      4.269562000000000E-01      8.926952000000000E+01
3480000000.000000      9.593964000000000E-02      2.909961000000000E+01      4.293060000000000E-01      6.055078000000000E+01
3500000000.000000      9.223938000000000E-02      3.298633000000000E+01      4.252625000000000E-01      3.145996000000000E+01
3520000000.000000      9.088898000000000E-02      3.661523000000000E+01      4.221954000000000E-01      3.412598000000000E+00
3540000000.000000      9.181976000000000E-02      4.010547000000000E+01      4.247284000000000E-01     -2.508105000000000E+01
3560000000.000000      9.418106000000000E-02      4.532812000000000E+01      4.260101000000000E-01     -5.436913000000000E+01
3580000000.000000      1.013680000000000E-01      5.040234000000000E+01      4.248047000000000E-01     -8.314062000000000E+01
3600000000.000000      1.150780000000000E-01      5.178905000000000E+01      4.244690000000000E-01     -1.112031000000000E+02
3620000000.000000      1.279678000000000E-01      4.880273000000000E+01      4.268341000000000E-01     -1.395547000000000E+02
3640000000.000000      1.337891000000000E-01      4.253515000000000E+01      4.251556000000000E-01     -1.678359000000000E+02
3660000000.000000      1.290894000000000E-01      3.578711000000000E+01      4.234314000000000E-01      1.645078000000000E+02
3680000000.000000      1.166611000000000E-01      3.238281000000000E+01      4.277344000000000E-01      1.367109000000000E+02
3700000000.000000      1.038818000000000E-01      3.588086000000000E+01      4.289856000000000E-01      1.081719000000000E+02
3720000000.000000      1.043816000000000E-01      4.482422000000000E+01      4.265442000000000E-01      7.964062000000000E+01
3740000000.000000      1.216888000000000E-01      4.871094000000000E+01      4.212646000000000E-01      5.123047000000000E+01
3760000000.000000      1.404190000000000E-01      4.542188000000000E+01      4.161224000000000E-01      2.319043000000000E+01
3780000000.000000      1.481323000000000E-01      3.800000000000000E+01      4.158783000000000E-01     -4.393311000000000E+00
3800000000.000000      1.414185000000000E-01      3.054199000000000E+01      4.179688000000000E-01     -3.309375000000000E+01
3820000000.000000      1.229439000000000E-01      2.729101000000000E+01      4.173279000000000E-01     -6.164453000000000E+01
3840000000.000000      1.084824000000000E-01      3.212695000000000E+01      4.169769000000000E-01     -9.070313000000000E+01
3860000000.000000      1.126709000000000E-01      4.057617000000000E+01      4.162750000000000E-01     -1.196914000000000E+02
3880000000.000000      1.304550000000000E-01      4.243750000000000E+01      4.110565000000000E-01     -1.486406000000000E+02
3900000000.000000      1.452942000000000E-01      3.695508000000000E+01      4.053650000000000E-01     -1.768906000000000E+02
3920000000.000000      1.433640000000000E-01      2.904882000000000E+01      4.066467000000000E-01      1.558984000000000E+02
3940000000.000000      1.257248000000000E-01      2.506348000000000E+01      4.136353000000000E-01      1.272344000000000E+02
3960000000.000000      1.075592000000000E-01      3.138867000000000E+01      4.133606000000000E-01      9.811718000000000E+01
3980000000.000000      1.141701000000000E-01      4.511523000000000E+01      4.064941000000000E-01      6.934375000000000E+01
4000000000.000000      1.452560000000000E-01      4.860352000000000E+01      3.983459000000000E-01      4.233984000000000E+01
4020000000.000000      1.782608000000000E-01      4.129492000000000E+01      4.040375000000000E-01      1.463770000000000E+01
4040000000.000000      1.973495000000000E-01      2.867285000000000E+01      4.060059000000000E-01     -1.537305000000000E+01
4060000000.000000      1.923523000000000E-01      1.458398000000000E+01      3.898315000000000E-01     -4.397070000000000E+01
4080000000.000000      1.639709000000000E-01      9.324646000000000E-01      3.902740000000000E-01     -7.095703000000000E+01
4100000000.000000      1.183853000000000E-01     -6.958496000000000E+00      3.992157000000000E-01     -9.972656000000000E+01
4120000000.000000      7.572937000000000E-02      3.261475000000000E+00      3.996124000000000E-01     -1.296562000000000E+02
4140000000.000000      7.258606000000000E-02      3.304101000000000E+01      3.949432000000000E-01     -1.583672000000000E+02
4160000000.000000      9.702301000000000E-02      4.289258000000000E+01      3.946533000000000E-01      1.738281000000000E+02
4180000000.000000      1.152725000000000E-01      3.983593000000000E+01      4.030762000000000E-01      1.450703000000000E+02
4200000000.000000      1.174889000000000E-01      3.613672000000000E+01      4.036255000000000E-01      1.149062000000000E+02
4220000000.000000      1.149178000000000E-01      3.802929000000000E+01      3.954315000000000E-01      8.606249000000000E+01
4240000000.000000      1.232910000000000E-01      4.475195000000000E+01      3.900452000000000E-01      5.748047000000000E+01
4260000000.000000      1.478882000000000E-01      4.684570000000000E+01      3.866882000000000E-01      2.928320000000000E+01
4280000000.000000      1.748352000000000E-01      4.224218000000000E+01      3.854370000000000E-01      1.040955000000000E+00
4300000000.000000      1.908569000000000E-01      3.399414000000000E+01      3.828888000000000E-01     -2.771875000000000E+01
4320000000.000000      1.912384000000000E-01      2.554590000000000E+01      3.793182000000000E-01     -5.667187000000000E+01
4340000000.000000      1.777649000000000E-01      1.967578000000000E+01      3.786774000000000E-01     -8.533983000000000E+01
4360000000.000000      1.634216000000000E-01      1.857617000000000E+01      3.770142000000000E-01     -1.148047000000000E+02
4380000000.000000      1.617661000000000E-01      2.124804000000000E+01      3.746796000000000E-01     -1.441094000000000E+02
4400000000.000000      1.724167000000000E-01      2.136133000000000E+01      3.717041000000000E-01     -1.732734000000000E+02
4420000000.000000      1.822586000000000E-01      1.739453000000000E+01      3.732300000000000E-01      1.579531000000000E+02
4440000000.000000      1.798019000000000E-01      1.142822000000000E+01      3.763580000000000E-01      1.282344000000000E+02
4460000000.000000      1.637802000000000E-01      8.076172000000000E+00      3.691254000000000E-01      9.884766000000000E+01
4480000000.000000      1.450043000000000E-01      1.164258000000000E+01      3.663940000000000E-01      7.053905000000000E+01
4500000000.000000      1.464462000000000E-01      2.073925000000000E+01      3.663788000000000E-01      4.156640000000000E+01
4520000000.000000      1.720657000000000E-01      2.503711000000000E+01      3.620758000000000E-01      1.230713000000000E+01
4540000000.000000      2.032318000000000E-01      2.097949000000000E+01      3.526154000000000E-01     -1.734668000000000E+01
4560000000.000000      2.236710000000000E-01      1.282471000000000E+01      3.452911000000000E-01     -4.535546000000000E+01
4580000000.000000      2.294083000000000E-01      3.790283000000000E+00      3.477173000000000E-01     -7.505859000000000E+01
4600000000.000000      2.214355000000000E-01     -3.515625000000000E+00      3.432312000000000E-01     -1.051563000000000E+02
4620000000.000000      2.091599000000000E-01     -7.891113000000000E+00      3.377075000000000E-01     -1.348203000000000E+02
4640000000.000000      2.030334000000000E-01     -1.000732000000000E+01      3.375244000000000E-01     -1.643437000000000E+02
4660000000.000000      2.025452000000000E-01     -1.290625000000000E+01      3.367767000000000E-01      1.666016000000000E+02
4680000000.000000      2.036438000000000E-01     -1.795215000000000E+01      3.424225000000000E-01      1.374922000000000E+02
4700000000.000000      1.975479000000000E-01     -2.495214000000000E+01      3.433685000000000E-01      1.078750000000000E+02
4720000000.000000      1.816940000000000E-01     -3.228320000000000E+01      3.387299000000000E-01      8.015625000000000E+01
4740000000.000000      1.615677000000000E-01     -3.882813000000000E+01      3.455658000000000E-01      5.240039000000000E+01
4760000000.000000      1.368790000000000E-01     -4.433007000000000E+01      3.467712000000000E-01      2.376465000000000E+01
4780000000.000000      1.114998000000000E-01     -4.907812000000000E+01      3.432465000000000E-01     -4.637695000000000E+00
4800000000.000000      8.030319000000000E-02     -5.369922000000000E+01      3.393860000000000E-01     -3.303711000000000E+01
4820000000.000000      3.780937000000000E-02     -5.023828000000000E+01      3.310394000000000E-01     -6.211719000000000E+01
4840000000.000000      3.118038000000000E-02      5.473633000000000E+01      3.235626000000000E-01     -9.106640000000000E+01
4860000000.000000      9.700012000000000E-02      6.204492000000000E+01      3.162231000000000E-01     -1.217773000000000E+02
4880000000.000000      1.662674000000000E-01      4.928320000000000E+01      2.973328000000000E-01     -1.530313000000000E+02
4900000000.000000      2.255554000000000E-01      3.358789000000000E+01      2.739105000000000E-01      1.792578000000000E+02
4920000000.000000      2.681122000000000E-01      1.701074000000000E+01      2.744293000000000E-01      1.537734000000000E+02
4940000000.000000      2.890015000000000E-01      1.194763000000000E+00      2.873383000000000E-01      1.252461000000000E+02
4960000000.000000      2.879333000000000E-01     -1.406836000000000E+01      2.920685000000000E-01      9.523829000000000E+01
4980000000.000000      2.628479000000000E-01     -2.781543000000000E+01      2.979126000000000E-01      6.819140000000000E+01
5000000000.000000      2.208023000000000E-01     -3.805859000000000E+01      3.128204000000000E-01      4.070313000000000E+01
5020000000.000000      1.737595000000000E-01     -4.097265000000000E+01      3.231506000000000E-01      1.273584000000000E+01
5040000000.000000      1.437607000000000E-01     -3.416992000000000E+01      3.311310000000000E-01     -1.444873000000000E+01
5060000000.000000      1.443176000000000E-01     -2.393261000000000E+01      3.392792000000000E-01     -4.152148000000000E+01
5080000000.000000      1.602402000000000E-01     -2.061523000000000E+01      3.447876000000000E-01     -6.985156000000000E+01
5100000000.000000      1.740189000000000E-01     -2.301562000000000E+01      3.393097000000000E-01     -9.819139000000000E+01
5120000000.000000      1.796417000000000E-01     -2.650879000000000E+01      3.326263000000000E-01     -1.255234000000000E+02
5140000000.000000      1.815414000000000E-01     -2.945215000000000E+01      3.303680000000000E-01     -1.537969000000000E+02
5160000000.000000      1.851120000000000E-01     -3.204492000000000E+01      3.269043000000000E-01      1.768203000000000E+02
5180000000.000000      1.887360000000000E-01     -3.561523000000000E+01      3.228455000000000E-01      1.471641000000000E+02
5200000000.000000      1.913605000000000E-01     -4.017968000000000E+01      3.220825000000000E-01      1.168398000000000E+02
5220000000.000000      1.860046000000000E-01     -4.491211000000000E+01      3.214111000000000E-01      8.719141000000000E+01
5240000000.000000      1.766357000000000E-01     -4.785546000000000E+01      3.267822000000000E-01      5.747656000000000E+01
5260000000.000000      1.677856000000000E-01     -4.811328000000000E+01      3.321381000000000E-01      2.763281000000000E+01
5280000000.000000      1.643066000000000E-01     -4.674024000000000E+01      3.379211000000000E-01     -1.381531000000000E+00
5300000000.000000      1.690369000000000E-01     -4.692578000000000E+01      3.403778000000000E-01     -2.946875000000000E+01
5320000000.000000      1.730728000000000E-01     -4.937890000000000E+01      3.451385000000000E-01     -5.655468000000000E+01
5340000000.000000      1.714783000000000E-01     -5.308594000000000E+01      3.497162000000000E-01     -8.418749000000000E+01
5360000000.000000      1.653061000000000E-01     -5.639843000000000E+01      3.448792000000000E-01     -1.115664000000000E+02
5380000000.000000      1.588516000000000E-01     -5.727929000000000E+01      3.402100000000000E-01     -1.379141000000000E+02
5400000000.000000      1.582565000000000E-01     -5.658398000000000E+01      3.381805000000000E-01     -1.652812000000000E+02
5420000000.000000      1.678619000000000E-01     -5.634570000000000E+01      3.322449000000000E-01      1.662891000000000E+02
5440000000.000000      1.795578000000000E-01     -5.925390000000000E+01      3.260193000000000E-01      1.371953000000000E+02
5460000000.000000      1.862564000000000E-01     -6.539063000000000E+01      3.146057000000000E-01      1.074023000000000E+02
5480000000.000000      1.814423000000000E-01     -7.266796000000000E+01      3.087158000000000E-01      7.798437000000000E+01
5500000000.000000      1.641083000000000E-01     -7.921484000000000E+01      3.109283000000000E-01      4.828711000000000E+01
5520000000.000000      1.410065000000000E-01     -8.286327000000000E+01      3.128662000000000E-01      1.773926000000000E+01
5540000000.000000      1.208344000000000E-01     -8.205858000000000E+01      3.170624000000000E-01     -1.189160000000000E+01
5560000000.000000      1.084061000000000E-01     -7.804688000000000E+01      3.242950000000000E-01     -4.089648000000000E+01
5580000000.000000      1.026688000000000E-01     -7.293750000000000E+01      3.316345000000000E-01     -6.924609000000000E+01
5600000000.000000      1.003914000000000E-01     -6.699609000000000E+01      3.368225000000000E-01     -9.712500000000000E+01
5620000000.000000      1.038818000000000E-01     -5.980859000000000E+01      3.385620000000000E-01     -1.248359000000000E+02
5640000000.000000      1.182594000000000E-01     -5.302343000000000E+01      3.364410000000000E-01     -1.523516000000000E+02
5660000000.000000      1.427078000000000E-01     -5.201757000000000E+01      3.304138000000000E-01     -1.795234000000000E+02
5680000000.000000      1.699219000000000E-01     -5.744335000000000E+01      3.217621000000000E-01      1.526641000000000E+02
5700000000.000000      1.893082000000000E-01     -6.766015000000000E+01      3.092346000000000E-01      1.244609000000000E+02
5720000000.000000      1.930084000000000E-01     -8.013281000000000E+01      2.945404000000000E-01      9.676952000000000E+01
5740000000.000000      1.795502000000000E-01     -9.250000000000000E+01      2.893524000000000E-01      6.804296000000000E+01
5760000000.000000      1.513138000000000E-01     -1.024453000000000E+02      2.846680000000000E-01      3.694921000000000E+01
5780000000.000000      1.189079000000000E-01     -1.049101000000000E+02      2.803802000000000E-01      6.367920000000000E+00
5800000000.000000      9.879303000000000E-02     -9.647655000000000E+01      2.817535000000000E-01     -2.397265000000000E+01
5820000000.000000      1.014481000000000E-01     -8.783983000000000E+01      2.897797000000000E-01     -5.415820000000000E+01
5840000000.000000      1.132736000000000E-01     -8.948046000000000E+01      2.991333000000000E-01     -8.451172000000000E+01
5860000000.000000      1.175346000000000E-01     -9.700781000000000E+01      3.014374000000000E-01     -1.136133000000000E+02
5880000000.000000      1.088791000000000E-01     -1.077930000000000E+02      3.031158000000000E-01     -1.406641000000000E+02
5900000000.000000      9.067917000000000E-02     -1.154766000000000E+02      3.130188000000000E-01     -1.675000000000000E+02
5920000000.000000      7.209015000000000E-02     -1.148672000000000E+02      3.180237000000000E-01      1.648203000000000E+02
5940000000.000000      6.351471000000000E-02     -1.051055000000000E+02      3.123016000000000E-01      1.364609000000000E+02
5960000000.000000      6.120872000000000E-02     -1.003984000000000E+02      2.978210000000000E-01      1.090469000000000E+02
5980000000.000000      5.243111000000000E-02     -9.946484000000000E+01      2.868805000000000E-01      8.209375000000000E+01
6000000000.000000      3.263664000000000E-02     -8.817968000000000E+01      2.807922000000000E-01      5.290625000000000E+01
6020000000.000000      3.128624000000000E-02     -2.839844000000000E+01      2.680969000000000E-01      2.203516000000000E+01
6040000000.000000      6.581497000000000E-02     -1.221289000000000E+01      2.542572000000000E-01     -8.503418000000000E+00
6060000000.000000      1.017914000000000E-01     -2.092773000000000E+01      2.495270000000000E-01     -3.882421000000000E+01
6080000000.000000      1.295013000000000E-01     -3.543164000000000E+01      2.549896000000000E-01     -6.966406000000000E+01
