! Network Analyzer HP8722D
! Hewlett-Packard
! Data name: Linha & Wilkinson
! Saver's name: Rodrigo Anjos
! Comments: Teste da utilização de aquisição
continua pelo VNA HP8722D
! Time and date: 3/9/2025 18:18
!              Frequency                     S11                                                   S21                                                   S12                                                   S22
# HZ  S  MA R 50
3000000000.000000      7.690048000000000E-02      8.764063000000000E+01      4.558716000000000E-01      2.509668000000000E+01
3020000000.000000      9.307098000000000E-02      7.306641000000000E+01      4.574738000000000E-01     -3.617310000000000E+00
3040000000.000000      9.521103000000000E-02      5.634570000000000E+01      4.582672000000000E-01     -3.273046000000000E+01
3060000000.000000      8.378220000000000E-02      4.128711000000000E+01      4.546204000000000E-01     -6.115039000000000E+01
3080000000.000000      6.340790000000000E-02      3.037793000000000E+01      4.542389000000000E-01     -8.983593000000000E+01
3100000000.000000      4.516983000000000E-02      3.041211000000000E+01      4.541626000000000E-01     -1.180703000000000E+02
3120000000.000000      3.807640000000000E-02      4.342578000000000E+01      4.514465000000000E-01     -1.467734000000000E+02
3140000000.000000      3.758240000000000E-02      4.890038000000000E+01      4.469910000000000E-01     -1.753047000000000E+02
3160000000.000000      2.971840000000000E-02      4.895312000000000E+01      4.438477000000000E-01      1.562187000000000E+02
3180000000.000000      1.637745000000000E-02      9.666016000000000E+01      4.422913000000000E-01      1.273711000000000E+02
3200000000.000000      4.682922000000000E-02      1.451953000000000E+02      4.368286000000000E-01      9.816795000000000E+01
3220000000.000000      9.796524000000000E-02      1.373359000000000E+02      4.236755000000000E-01      6.906640000000000E+01
3240000000.000000      1.494446000000000E-01      1.217969000000000E+02      4.126282000000000E-01      4.147851000000000E+01
3260000000.000000      1.916428000000000E-01      1.048438000000000E+02      4.149780000000000E-01      1.415723000000000E+01
3280000000.000000      2.187805000000000E-01      8.742188000000000E+01      4.207306000000000E-01     -1.543750000000000E+01
3300000000.000000      2.293243000000000E-01      7.053124000000000E+01      4.155273000000000E-01     -4.364648000000000E+01
3320000000.000000      2.243423000000000E-01      5.520508000000000E+01      4.185791000000000E-01     -7.141406000000000E+01
3340000000.000000      2.084274000000000E-01      4.243554000000000E+01      4.239044000000000E-01     -1.002773000000000E+02
3360000000.000000      1.848450000000000E-01      3.323047000000000E+01      4.256134000000000E-01     -1.286641000000000E+02
3380000000.000000      1.609344000000000E-01      2.832324000000000E+01      4.298401000000000E-01     -1.568203000000000E+02
3400000000.000000      1.421585000000000E-01      2.640332000000000E+01      4.308319000000000E-01      1.745703000000000E+02
3420000000.000000      1.286774000000000E-01      2.608691000000000E+01      4.323425000000000E-01      1.456719000000000E+02
3440000000.000000      1.164017000000000E-01      2.591894000000000E+01      4.318542000000000E-01      1.169102000000000E+02
3460000000.000000      1.042709000000000E-01      2.684473000000000E+01      4.289856000000000E-01      8.842968000000000E+01
3480000000.000000      9.682846000000000E-02      2.950098000000000E+01      4.304199000000000E-01      5.989648000000000E+01
3500000000.000000      9.280014000000000E-02      3.339844000000000E+01      4.264221000000000E-01      3.076172000000000E+01
3520000000.000000      9.183884000000000E-02      3.651953000000000E+01      4.236603000000000E-01      2.820679000000000E+00
3540000000.000000      9.216309000000000E-02      4.004296000000000E+01      4.264526000000000E-01     -2.586914000000000E+01
3560000000.000000      9.423828000000000E-02      4.512891000000000E+01      4.265289000000000E-01     -5.511328000000000E+01
3580000000.000000      1.019058000000000E-01      5.064453000000000E+01      4.261017000000000E-01     -8.382030000000000E+01
3600000000.000000      1.157227000000000E-01      5.190234000000000E+01      4.262848000000000E-01     -1.119531000000000E+02
3620000000.000000      1.282578000000000E-01      4.885156000000000E+01      4.270782000000000E-01     -1.401797000000000E+02
3640000000.000000      1.341248000000000E-01      4.252343000000000E+01      4.267426000000000E-01     -1.684609000000000E+02
3660000000.000000      1.293564000000000E-01      3.566797000000000E+01      4.250793000000000E-01      1.636016000000000E+02
3680000000.000000      1.166420000000000E-01      3.252148000000000E+01      4.287872000000000E-01      1.358828000000000E+02
3700000000.000000      1.033936000000000E-01      3.604101000000000E+01      4.312744000000000E-01      1.073398000000000E+02
3720000000.000000      1.042900000000000E-01      4.500390000000000E+01      4.292755000000000E-01      7.884375000000000E+01
3740000000.000000      1.224823000000000E-01      4.891211000000000E+01      4.218445000000000E-01      5.040625000000000E+01
3760000000.000000      1.407776000000000E-01      4.558007000000000E+01      4.181519000000000E-01      2.258789000000000E+01
3780000000.000000      1.480026000000000E-01      3.797852000000000E+01      4.164886000000000E-01     -5.402588000000000E+00
3800000000.000000      1.411133000000000E-01      3.065136000000000E+01      4.184113000000000E-01     -3.386523000000000E+01
3820000000.000000      1.227341000000000E-01      2.758594000000000E+01      4.183502000000000E-01     -6.259766000000000E+01
3840000000.000000      1.080627000000000E-01      3.258789000000000E+01      4.163666000000000E-01     -9.160547000000000E+01
3860000000.000000      1.128960000000000E-01      4.103906000000000E+01      4.152374000000000E-01     -1.203359000000000E+02
3880000000.000000      1.315308000000000E-01      4.242383000000000E+01      4.137421000000000E-01     -1.495469000000000E+02
3900000000.000000      1.456146000000000E-01      3.665430000000000E+01      4.053650000000000E-01     -1.779063000000000E+02
3920000000.000000      1.432495000000000E-01      2.887598000000000E+01      4.077606000000000E-01      1.549922000000000E+02
3940000000.000000      1.251831000000000E-01      2.540722000000000E+01      4.154968000000000E-01      1.262148000000000E+02
3960000000.000000      1.074219000000000E-01      3.188183000000000E+01      4.143677000000000E-01      9.732031000000000E+01
3980000000.000000      1.145592000000000E-01      4.570117000000000E+01      4.060516000000000E-01      6.856250000000000E+01
4000000000.000000      1.465683000000000E-01      4.885742000000000E+01      3.993530000000000E-01      4.152539000000000E+01
4020000000.000000      1.797104000000000E-01      4.122656000000000E+01      4.065704000000000E-01      1.382178000000000E+01
4040000000.000000      1.981506000000000E-01      2.831933000000000E+01      4.058685000000000E-01     -1.615723000000000E+01
4060000000.000000      1.925888000000000E-01      1.427930000000000E+01      3.903046000000000E-01     -4.508789000000000E+01
4080000000.000000      1.632843000000000E-01      8.418274000000000E-01      3.911133000000000E-01     -7.170703000000000E+01
4100000000.000000      1.172028000000000E-01     -6.894043000000000E+00      4.022980000000000E-01     -1.007070000000000E+02
4120000000.000000      7.514572000000000E-02      3.993530000000000E+00      4.000549000000000E-01     -1.306406000000000E+02
4140000000.000000      7.376480000000000E-02      3.427148000000000E+01      3.955536000000000E-01     -1.594297000000000E+02
4160000000.000000      9.814072000000000E-02      4.300977000000000E+01      3.966827000000000E-01      1.727422000000000E+02
4180000000.000000      1.159477000000000E-01      3.988672000000000E+01      4.033813000000000E-01      1.440469000000000E+02
4200000000.000000      1.170959000000000E-01      3.616211000000000E+01      4.044647000000000E-01      1.140703000000000E+02
4220000000.000000      1.147079000000000E-01      3.853516000000000E+01      3.976288000000000E-01      8.488281000000000E+01
4240000000.000000      1.237869000000000E-01      4.521484000000000E+01      3.920898000000000E-01      5.645312000000000E+01
4260000000.000000      1.492767000000000E-01      4.699219000000000E+01      3.859406000000000E-01      2.846484000000000E+01
4280000000.000000      1.758041000000000E-01      4.236718000000000E+01      3.863678000000000E-01     -6.179810000000000E-02
4300000000.000000      1.916504000000000E-01      3.407812000000000E+01      3.825684000000000E-01     -2.874609000000000E+01
4320000000.000000      1.906891000000000E-01      2.557324000000000E+01      3.815460000000000E-01     -5.758007000000000E+01
4340000000.000000      1.777496000000000E-01      1.975195000000000E+01      3.794708000000000E-01     -8.637499000000000E+01
4360000000.000000      1.634445000000000E-01      1.905957000000000E+01      3.776703000000000E-01     -1.159180000000000E+02
4380000000.000000      1.622391000000000E-01      2.164355000000000E+01      3.760071000000000E-01     -1.452188000000000E+02
4400000000.000000      1.737900000000000E-01      2.158496000000000E+01      3.726196000000000E-01     -1.740703000000000E+02
4420000000.000000      1.833572000000000E-01      1.733203000000000E+01      3.749237000000000E-01      1.570000000000000E+02
4440000000.000000      1.807251000000000E-01      1.129492000000000E+01      3.772125000000000E-01      1.273359000000000E+02
4460000000.000000      1.636200000000000E-01      8.321777000000000E+00      3.695984000000000E-01      9.795311000000000E+01
4480000000.000000      1.451035000000000E-01      1.201074000000000E+01      3.666534000000000E-01      6.949219000000000E+01
4500000000.000000      1.473312000000000E-01      2.095313000000000E+01      3.665924000000000E-01      4.048828000000000E+01
4520000000.000000      1.732788000000000E-01      2.517773000000000E+01      3.625641000000000E-01      1.106006000000000E+01
4540000000.000000      2.040939000000000E-01      2.090332000000000E+01      3.520966000000000E-01     -1.829394000000000E+01
4560000000.000000      2.246094000000000E-01      1.272217000000000E+01      3.455811000000000E-01     -4.646289000000000E+01
4580000000.000000      2.296448000000000E-01      3.695435000000000E+00      3.474579000000000E-01     -7.578125000000000E+01
4600000000.000000      2.213211000000000E-01     -3.529419000000000E+00      3.439026000000000E-01     -1.061797000000000E+02
4620000000.000000      2.088547000000000E-01     -7.719482000000000E+00      3.384705000000000E-01     -1.359141000000000E+02
4640000000.000000      2.031326000000000E-01     -9.977051000000000E+00      3.382568000000000E-01     -1.653594000000000E+02
4660000000.000000      2.032166000000000E-01     -1.280225000000000E+01      3.382721000000000E-01      1.654844000000000E+02
4680000000.000000      2.038422000000000E-01     -1.796289000000000E+01      3.433228000000000E-01      1.366875000000000E+02
4700000000.000000      1.972809000000000E-01     -2.500977000000000E+01      3.425751000000000E-01      1.066328000000000E+02
4720000000.000000      1.814804000000000E-01     -3.224804000000000E+01      3.401642000000000E-01      7.902734000000000E+01
4740000000.000000      1.605682000000000E-01     -3.875781000000000E+01      3.471527000000000E-01      5.139453000000000E+01
4760000000.000000      1.365280000000000E-01     -4.406640000000000E+01      3.472290000000000E-01      2.280859000000000E+01
4780000000.000000      1.108246000000000E-01     -4.869531000000000E+01      3.434143000000000E-01     -5.663574000000000E+00
4800000000.000000      7.983780000000000E-02     -5.349999000000000E+01      3.399506000000000E-01     -3.412890000000000E+01
4820000000.000000      3.614616000000000E-02     -4.979297000000000E+01      3.315277000000000E-01     -6.311523000000000E+01
4840000000.000000      3.409004000000000E-02      5.649609000000000E+01      3.238831000000000E-01     -9.219530000000000E+01
4860000000.000000      1.002617000000000E-01      6.196875000000000E+01      3.168793000000000E-01     -1.230078000000000E+02
4880000000.000000      1.691055000000000E-01      4.866796000000000E+01      2.971954000000000E-01     -1.541250000000000E+02
4900000000.000000      2.290497000000000E-01      3.316211000000000E+01      2.743530000000000E-01      1.781719000000000E+02
4920000000.000000      2.700806000000000E-01      1.653809000000000E+01      2.752991000000000E-01      1.527891000000000E+02
4940000000.000000      2.912598000000000E-01      6.303406000000000E-01      2.883911000000000E-01      1.240625000000000E+02
4960000000.000000      2.883911000000000E-01     -1.449268000000000E+01      2.929840000000000E-01      9.419140000000000E+01
4980000000.000000      2.619934000000000E-01     -2.817090000000000E+01      2.992249000000000E-01      6.717578000000000E+01
5000000000.000000      2.193680000000000E-01     -3.833008000000000E+01      3.138123000000000E-01      3.966797000000000E+01
5020000000.000000      1.723404000000000E-01     -4.082812000000000E+01      3.246918000000000E-01      1.167676000000000E+01
5040000000.000000      1.431732000000000E-01     -3.357031000000000E+01      3.323364000000000E-01     -1.538672000000000E+01
5060000000.000000      1.446152000000000E-01     -2.372851000000000E+01      3.399048000000000E-01     -4.270117000000000E+01
5080000000.000000      1.608047000000000E-01     -2.057227000000000E+01      3.455505000000000E-01     -7.082421000000000E+01
5100000000.000000      1.739578000000000E-01     -2.281054000000000E+01      3.387756000000000E-01     -9.927343000000000E+01
5120000000.000000      1.797943000000000E-01     -2.643945000000000E+01      3.331604000000000E-01     -1.267148000000000E+02
5140000000.000000      1.820145000000000E-01     -2.937500000000000E+01      3.309174000000000E-01     -1.551016000000000E+02
5160000000.000000      1.845627000000000E-01     -3.199414000000000E+01      3.275604000000000E-01      1.754844000000000E+02
5180000000.000000      1.892700000000000E-01     -3.547266000000000E+01      3.234558000000000E-01      1.457813000000000E+02
5200000000.000000      1.915817000000000E-01     -4.015821000000000E+01      3.224640000000000E-01      1.157891000000000E+02
5220000000.000000      1.864319000000000E-01     -4.465429000000000E+01      3.226929000000000E-01      8.592577000000000E+01
5240000000.000000      1.761627000000000E-01     -4.754102000000000E+01      3.273315000000000E-01      5.624413000000000E+01
5260000000.000000      1.677704000000000E-01     -4.774804000000000E+01      3.331146000000000E-01      2.649609000000000E+01
5280000000.000000      1.644516000000000E-01     -4.647851000000000E+01      3.386536000000000E-01     -2.540649000000000E+00
5300000000.000000      1.694412000000000E-01     -4.656054000000000E+01      3.414917000000000E-01     -3.065918000000000E+01
5320000000.000000      1.741562000000000E-01     -4.925586000000000E+01      3.463135000000000E-01     -5.764648000000000E+01
5340000000.000000      1.719589000000000E-01     -5.298437000000000E+01      3.504486000000000E-01     -8.534765000000000E+01
5360000000.000000      1.653824000000000E-01     -5.618554000000000E+01      3.454590000000000E-01     -1.126367000000000E+02
5380000000.000000      1.587753000000000E-01     -5.707812000000000E+01      3.402863000000000E-01     -1.390547000000000E+02
5400000000.000000      1.590881000000000E-01     -5.627148000000000E+01      3.383942000000000E-01     -1.665781000000000E+02
5420000000.000000      1.687088000000000E-01     -5.617578000000000E+01      3.316956000000000E-01      1.651953000000000E+02
5440000000.000000      1.809616000000000E-01     -5.937695000000000E+01      3.264008000000000E-01      1.360078000000000E+02
5460000000.000000      1.872406000000000E-01     -6.560937000000000E+01      3.157349000000000E-01      1.061992000000000E+02
5480000000.000000      1.813354000000000E-01     -7.288671000000000E+01      3.090057000000000E-01      7.666016000000000E+01
5500000000.000000      1.639328000000000E-01     -7.917187000000000E+01      3.114014000000000E-01      4.706055000000000E+01
5520000000.000000      1.401825000000000E-01     -8.267578000000000E+01      3.141479000000000E-01      1.650391000000000E+01
5540000000.000000      1.208382000000000E-01     -8.187500000000000E+01      3.186798000000000E-01     -1.312598000000000E+01
5560000000.000000      1.083183000000000E-01     -7.793359000000000E+01      3.252716000000000E-01     -4.205078000000000E+01
5580000000.000000      1.024284000000000E-01     -7.287890000000000E+01      3.319397000000000E-01     -7.046875000000000E+01
5600000000.000000      1.004562000000000E-01     -6.705468000000000E+01      3.370972000000000E-01     -9.830858000000000E+01
5620000000.000000      1.040382000000000E-01     -5.950195000000000E+01      3.399658000000000E-01     -1.259453000000000E+02
5640000000.000000      1.191635000000000E-01     -5.240624000000000E+01      3.373413000000000E-01     -1.536250000000000E+02
5660000000.000000      1.443100000000000E-01     -5.184179000000000E+01      3.307648000000000E-01      1.793750000000000E+02
5680000000.000000      1.712723000000000E-01     -5.754296000000000E+01      3.219910000000000E-01      1.514609000000000E+02
5700000000.000000      1.901016000000000E-01     -6.798437000000000E+01      3.088684000000000E-01      1.232070000000000E+02
5720000000.000000      1.934052000000000E-01     -8.037889000000000E+01      2.956085000000000E-01      9.540234000000000E+01
5740000000.000000      1.788025000000000E-01     -9.274218000000000E+01      2.898712000000000E-01      6.666016000000000E+01
5760000000.000000      1.500778000000000E-01     -1.023203000000000E+02      2.856903000000000E-01      3.567968000000000E+01
5780000000.000000      1.173248000000000E-01     -1.045820000000000E+02      2.816010000000000E-01      4.913574000000000E+00
5800000000.000000      9.886169000000000E-02     -9.611328000000000E+01      2.834167000000000E-01     -2.537304000000000E+01
5820000000.000000      1.023254000000000E-01     -8.734375000000000E+01      2.906342000000000E-01     -5.556250000000000E+01
5840000000.000000      1.135902000000000E-01     -8.911718000000000E+01      3.004303000000000E-01     -8.591797000000000E+01
5860000000.000000      1.174469000000000E-01     -9.722656000000000E+01      3.025055000000000E-01     -1.150469000000000E+02
5880000000.000000      1.083565000000000E-01     -1.077226000000000E+02      3.041840000000000E-01     -1.418984000000000E+02
5900000000.000000      9.027863000000000E-02     -1.145703000000000E+02      3.137817000000000E-01     -1.686016000000000E+02
5920000000.000000      7.147598000000000E-02     -1.137695000000000E+02      3.183136000000000E-01      1.634687000000000E+02
5940000000.000000      6.363297000000000E-02     -1.041602000000000E+02      3.122406000000000E-01      1.351563000000000E+02
5960000000.000000      6.235886000000000E-02     -9.967577000000000E+01      2.976837000000000E-01      1.077734000000000E+02
5980000000.000000      5.252075000000000E-02     -9.981249000000000E+01      2.872009000000000E-01      8.093750000000000E+01
6000000000.000000      3.277588000000000E-02     -8.696875000000000E+01      2.805634000000000E-01      5.141796000000000E+01
6020000000.000000      3.230476000000000E-02     -2.714746000000000E+01      2.689362000000000E-01      2.053320000000000E+01
6040000000.000000      6.799316000000000E-02     -1.265088000000000E+01      2.541656000000000E-01     -1.000488000000000E+01
6060000000.000000      1.039734000000000E-01     -2.153125000000000E+01      2.497025000000000E-01     -4.041211000000000E+01
6080000000.000000      1.314163000000000E-01     -3.584375000000000E+01      2.557983000000000E-01     -7.131640000000000E+01
