! Network Analyzer HP8722D
! Hewlett-Packard
! Data name: Linha & Wilkinson
! Saver's name: Rodrigo Anjos
! Comments: Teste da utilização de aquisição
continua pelo VNA HP8722D
! Time and date: 3/9/2025 19:23
!              Frequency                     S11                                                   S21                                                   S12                                                   S22
# HZ  S  MA R 50
3000000000.000000      7.604218000000000E-02      8.820704000000000E+01      4.562683000000000E-01      2.603613000000000E+01
3020000000.000000      9.328079000000000E-02      7.389062000000000E+01      4.577179000000000E-01     -2.783691000000000E+00
3040000000.000000      9.537506000000000E-02      5.736914000000000E+01      4.563599000000000E-01     -3.161816000000000E+01
3060000000.000000      8.390427000000000E-02      4.198242000000000E+01      4.550018000000000E-01     -6.026953000000000E+01
3080000000.000000      6.420898000000000E-02      3.069629000000000E+01      4.557343000000000E-01     -8.872656000000000E+01
3100000000.000000      4.518700000000000E-02      3.047266000000000E+01      4.539795000000000E-01     -1.171523000000000E+02
3120000000.000000      3.740883000000000E-02      4.301758000000000E+01      4.513245000000000E-01     -1.458125000000000E+02
3140000000.000000      3.723907000000000E-02      4.941406000000000E+01      4.465485000000000E-01     -1.742734000000000E+02
3160000000.000000      2.972221000000000E-02      5.013281000000000E+01      4.429016000000000E-01      1.575469000000000E+02
3180000000.000000      1.695061000000000E-02      9.662498000000000E+01      4.412079000000000E-01      1.286328000000000E+02
3200000000.000000      4.614639000000000E-02      1.443906000000000E+02      4.360657000000000E-01      9.908203000000000E+01
3220000000.000000      9.721375000000000E-02      1.377656000000000E+02      4.245148000000000E-01      6.983984000000000E+01
3240000000.000000      1.483917000000000E-01      1.224531000000000E+02      4.128418000000000E-01      4.265038000000000E+01
3260000000.000000      1.909103000000000E-01      1.053789000000000E+02      4.167328000000000E-01      1.498535000000000E+01
3280000000.000000      2.186661000000000E-01      8.796093000000000E+01      4.198914000000000E-01     -1.398193000000000E+01
3300000000.000000      2.295380000000000E-01      7.112890000000000E+01      4.147491000000000E-01     -4.268359000000000E+01
3320000000.000000      2.253876000000000E-01      5.573828000000000E+01      4.180756000000000E-01     -7.035546000000000E+01
3340000000.000000      2.095337000000000E-01      4.278516000000000E+01      4.236908000000000E-01     -9.904297000000000E+01
3360000000.000000      1.859207000000000E-01      3.346875000000000E+01      4.234924000000000E-01     -1.276211000000000E+02
3380000000.000000      1.620865000000000E-01      2.848437000000000E+01      4.302216000000000E-01     -1.557578000000000E+02
3400000000.000000      1.430664000000000E-01      2.650097000000000E+01      4.303741000000000E-01      1.754453000000000E+02
3420000000.000000      1.286240000000000E-01      2.619238000000000E+01      4.333191000000000E-01      1.467500000000000E+02
3440000000.000000      1.160889000000000E-01      2.560059000000000E+01      4.306183000000000E-01      1.179844000000000E+02
3460000000.000000      1.038132000000000E-01      2.666211000000000E+01      4.282074000000000E-01      8.967188000000000E+01
3480000000.000000      9.589386000000000E-02      2.953320000000000E+01      4.289398000000000E-01      6.097265000000000E+01
3500000000.000000      9.159851000000000E-02      3.329492000000000E+01      4.264984000000000E-01      3.193652000000000E+01
3520000000.000000      9.084702000000000E-02      3.678125000000000E+01      4.237213000000000E-01      3.711914000000000E+00
3540000000.000000      9.215927000000000E-02      4.043554000000000E+01      4.257813000000000E-01     -2.487207000000000E+01
3560000000.000000      9.420395000000000E-02      4.609961000000000E+01      4.273224000000000E-01     -5.395117000000000E+01
3580000000.000000      1.016731000000000E-01      5.098046000000000E+01      4.274445000000000E-01     -8.273438000000000E+01
3600000000.000000      1.147041000000000E-01      5.213281000000000E+01      4.254150000000000E-01     -1.107070000000000E+02
3620000000.000000      1.280746000000000E-01      4.920898000000000E+01      4.266052000000000E-01     -1.389922000000000E+02
3640000000.000000      1.338425000000000E-01      4.322461000000000E+01      4.273987000000000E-01     -1.675000000000000E+02
3660000000.000000      1.292648000000000E-01      3.623828000000000E+01      4.255371000000000E-01      1.646094000000000E+02
3680000000.000000      1.168442000000000E-01      3.287500000000000E+01      4.298859000000000E-01      1.371562000000000E+02
3700000000.000000      1.035843000000000E-01      3.606250000000000E+01      4.302521000000000E-01      1.087695000000000E+02
3720000000.000000      1.044159000000000E-01      4.495313000000000E+01      4.301605000000000E-01      8.013672000000000E+01
3740000000.000000      1.215782000000000E-01      4.934570000000000E+01      4.228516000000000E-01      5.167187000000000E+01
3760000000.000000      1.403427000000000E-01      4.613671000000000E+01      4.166870000000000E-01      2.365137000000000E+01
3780000000.000000      1.484375000000000E-01      3.858789000000000E+01      4.161072000000000E-01     -4.033447000000000E+00
3800000000.000000      1.411667000000000E-01      3.119824000000000E+01      4.176025000000000E-01     -3.261523000000000E+01
3820000000.000000      1.227989000000000E-01      2.772168000000000E+01      4.182587000000000E-01     -6.133984000000000E+01
3840000000.000000      1.083336000000000E-01      3.258203000000000E+01      4.165039000000000E-01     -9.042578000000000E+01
3860000000.000000      1.123962000000000E-01      4.092969000000000E+01      4.167328000000000E-01     -1.191640000000000E+02
3880000000.000000      1.309967000000000E-01      4.294335000000000E+01      4.132233000000000E-01     -1.482812000000000E+02
3900000000.000000      1.452255000000000E-01      3.734766000000000E+01      4.059296000000000E-01     -1.765938000000000E+02
3920000000.000000      1.436462000000000E-01      2.956347000000000E+01      4.064636000000000E-01      1.562031000000000E+02
3940000000.000000      1.265030000000000E-01      2.560059000000000E+01      4.144592000000000E-01      1.276953000000000E+02
3960000000.000000      1.082077000000000E-01      3.189941000000000E+01      4.144135000000000E-01      9.844921000000000E+01
3980000000.000000      1.135483000000000E-01      4.530469000000000E+01      4.058075000000000E-01      6.984765000000000E+01
4000000000.000000      1.448441000000000E-01      4.923437000000000E+01      4.003754000000000E-01      4.267968000000000E+01
4020000000.000000      1.784286000000000E-01      4.184375000000000E+01      4.041290000000000E-01      1.502344000000000E+01
4040000000.000000      1.977234000000000E-01      2.913379000000000E+01      4.054565000000000E-01     -1.493604000000000E+01
4060000000.000000      1.925507000000000E-01      1.516113000000000E+01      3.908844000000000E-01     -4.362305000000000E+01
4080000000.000000      1.647263000000000E-01      1.582031000000000E+00      3.909302000000000E-01     -7.042187000000000E+01
4100000000.000000      1.187935000000000E-01     -6.425781000000000E+00      4.020081000000000E-01     -9.925390000000000E+01
4120000000.000000      7.562637000000000E-02      3.538940000000000E+00      3.989105000000000E-01     -1.292187000000000E+02
4140000000.000000      7.246780000000000E-02      3.401758000000000E+01      3.956909000000000E-01     -1.579453000000000E+02
4160000000.000000      9.716034000000000E-02      4.384961000000000E+01      3.953857000000000E-01      1.740391000000000E+02
4180000000.000000      1.154213000000000E-01      4.048047000000000E+01      4.046326000000000E-01      1.453047000000000E+02
4200000000.000000      1.176033000000000E-01      3.661718000000000E+01      4.047852000000000E-01      1.154258000000000E+02
4220000000.000000      1.150360000000000E-01      3.858789000000000E+01      3.966980000000000E-01      8.623438000000000E+01
4240000000.000000      1.235771000000000E-01      4.503711000000000E+01      3.916168000000000E-01      5.785937000000000E+01
4260000000.000000      1.483994000000000E-01      4.732812000000000E+01      3.872681000000000E-01      2.971191000000000E+01
4280000000.000000      1.754761000000000E-01      4.284765000000000E+01      3.866577000000000E-01      1.620483000000000E+00
4300000000.000000      1.917801000000000E-01      3.451562000000000E+01      3.843079000000000E-01     -2.733593000000000E+01
4320000000.000000      1.916275000000000E-01      2.616894000000000E+01      3.806610000000000E-01     -5.604297000000000E+01
4340000000.000000      1.782303000000000E-01      2.000293000000000E+01      3.802185000000000E-01     -8.517187000000000E+01
4360000000.000000      1.638336000000000E-01      1.901269000000000E+01      3.771362000000000E-01     -1.142578000000000E+02
4380000000.000000      1.617813000000000E-01      2.162304000000000E+01      3.774719000000000E-01     -1.437578000000000E+02
4400000000.000000      1.728592000000000E-01      2.171289000000000E+01      3.725433000000000E-01     -1.729219000000000E+02
4420000000.000000      1.826935000000000E-01      1.779980000000000E+01      3.734589000000000E-01      1.585625000000000E+02
4440000000.000000      1.805725000000000E-01      1.175537000000000E+01      3.777161000000000E-01      1.285312000000000E+02
4460000000.000000      1.645050000000000E-01      8.701172000000000E+00      3.714752000000000E-01      9.911718000000000E+01
4480000000.000000      1.458588000000000E-01      1.192285000000000E+01      3.677826000000000E-01      7.104297000000000E+01
4500000000.000000      1.467972000000000E-01      2.104394000000000E+01      3.671722000000000E-01      4.189062000000000E+01
4520000000.000000      1.718750000000000E-01      2.551562000000000E+01      3.627319000000000E-01      1.254736000000000E+01
4540000000.000000      2.033463000000000E-01      2.159863000000000E+01      3.516083000000000E-01     -1.691015000000000E+01
4560000000.000000      2.242584000000000E-01      1.336719000000000E+01      3.454437000000000E-01     -4.514257000000000E+01
4580000000.000000      2.302704000000000E-01      4.329834000000000E+00      3.497772000000000E-01     -7.430078000000000E+01
4600000000.000000      2.225342000000000E-01     -3.092651000000000E+00      3.437195000000000E-01     -1.046523000000000E+02
4620000000.000000      2.100906000000000E-01     -7.441895000000000E+00      3.391418000000000E-01     -1.342969000000000E+02
4640000000.000000      2.031097000000000E-01     -9.728516000000000E+00      3.392181000000000E-01     -1.638906000000000E+02
4660000000.000000      2.027664000000000E-01     -1.249854000000000E+01      3.386383000000000E-01      1.670859000000000E+02
4680000000.000000      2.034531000000000E-01     -1.750684000000000E+01      3.441925000000000E-01      1.378828000000000E+02
4700000000.000000      1.974182000000000E-01     -2.449707000000000E+01      3.439636000000000E-01      1.084336000000000E+02
4720000000.000000      1.818314000000000E-01     -3.183984000000000E+01      3.399963000000000E-01      8.067968000000000E+01
4740000000.000000      1.614075000000000E-01     -3.843750000000000E+01      3.472595000000000E-01      5.289453000000000E+01
4760000000.000000      1.373901000000000E-01     -4.382226000000000E+01      3.482513000000000E-01      2.431543000000000E+01
4780000000.000000      1.117096000000000E-01     -4.835938000000000E+01      3.440399000000000E-01     -4.102051000000000E+00
4800000000.000000      8.065033000000000E-02     -5.287109000000000E+01      3.402252000000000E-01     -3.254687000000000E+01
4820000000.000000      3.819847000000000E-02     -4.978516000000000E+01      3.313293000000000E-01     -6.163086000000000E+01
4840000000.000000      3.116035000000000E-02      5.575781000000000E+01      3.248596000000000E-01     -9.056250000000000E+01
4860000000.000000      9.702301000000000E-02      6.284961000000000E+01      3.179321000000000E-01     -1.212695000000000E+02
4880000000.000000      1.662750000000000E-01      4.995312000000000E+01      2.976837000000000E-01     -1.526406000000000E+02
4900000000.000000      2.260056000000000E-01      3.413281000000000E+01      2.746429000000000E-01      1.796875000000000E+02
4920000000.000000      2.689362000000000E-01      1.753418000000000E+01      2.752533000000000E-01      1.542891000000000E+02
4940000000.000000      2.908020000000000E-01      1.761902000000000E+00      2.887878000000000E-01      1.256367000000000E+02
4960000000.000000      2.891083000000000E-01     -1.355713000000000E+01      2.929230000000000E-01      9.571875000000000E+01
4980000000.000000      2.640533000000000E-01     -2.731152000000000E+01      2.979431000000000E-01      6.862890000000000E+01
5000000000.000000      2.217026000000000E-01     -3.756250000000000E+01      3.132477000000000E-01      4.113671000000000E+01
5020000000.000000      1.742020000000000E-01     -4.063477000000000E+01      3.237762000000000E-01      1.315332000000000E+01
5040000000.000000      1.440277000000000E-01     -3.388086000000000E+01      3.314056000000000E-01     -1.396240000000000E+01
5060000000.000000      1.444168000000000E-01     -2.377636000000000E+01      3.397675000000000E-01     -4.111328000000000E+01
5080000000.000000      1.601334000000000E-01     -2.032519000000000E+01      3.447571000000000E-01     -6.919531000000000E+01
5100000000.000000      1.742859000000000E-01     -2.268457000000000E+01      3.399811000000000E-01     -9.768358000000000E+01
5120000000.000000      1.796722000000000E-01     -2.614648000000000E+01      3.338013000000000E-01     -1.250977000000000E+02
5140000000.000000      1.816483000000000E-01     -2.904297000000000E+01      3.309937000000000E-01     -1.533203000000000E+02
5160000000.000000      1.844406000000000E-01     -3.170019000000000E+01      3.283539000000000E-01      1.771953000000000E+02
5180000000.000000      1.885681000000000E-01     -3.520898000000000E+01      3.240204000000000E-01      1.476484000000000E+02
5200000000.000000      1.913681000000000E-01     -3.983593000000000E+01      3.226013000000000E-01      1.174726000000000E+02
5220000000.000000      1.864395000000000E-01     -4.453321000000000E+01      3.227386000000000E-01      8.768358000000000E+01
5240000000.000000      1.766815000000000E-01     -4.754296000000000E+01      3.269348000000000E-01      5.788671000000000E+01
5260000000.000000      1.679077000000000E-01     -4.786718000000000E+01      3.326416000000000E-01      2.815722000000000E+01
5280000000.000000      1.647110000000000E-01     -4.664258000000000E+01      3.390961000000000E-01     -7.113647000000000E-01
5300000000.000000      1.688232000000000E-01     -4.661328000000000E+01      3.412933000000000E-01     -2.895215000000000E+01
5320000000.000000      1.730652000000000E-01     -4.909961000000000E+01      3.460846000000000E-01     -5.592773000000000E+01
5340000000.000000      1.709976000000000E-01     -5.278125000000000E+01      3.508301000000000E-01     -8.369921000000000E+01
5360000000.000000      1.646881000000000E-01     -5.615234000000000E+01      3.457642000000000E-01     -1.111680000000000E+02
5380000000.000000      1.581573000000000E-01     -5.709374000000000E+01      3.409271000000000E-01     -1.373594000000000E+02
5400000000.000000      1.578217000000000E-01     -5.633789000000000E+01      3.393250000000000E-01     -1.647812000000000E+02
5420000000.000000      1.672440000000000E-01     -5.602539000000000E+01      3.319702000000000E-01      1.668359000000000E+02
5440000000.000000      1.796951000000000E-01     -5.884766000000000E+01      3.272247000000000E-01      1.377656000000000E+02
5460000000.000000      1.865997000000000E-01     -6.489843000000000E+01      3.160095000000000E-01      1.079492000000000E+02
5480000000.000000      1.811142000000000E-01     -7.205078000000000E+01      3.098755000000000E-01      7.850780000000000E+01
5500000000.000000      1.641388000000000E-01     -7.842578000000000E+01      3.115387000000000E-01      4.883007000000000E+01
5520000000.000000      1.409760000000000E-01     -8.232422000000000E+01      3.138733000000000E-01      1.822070000000000E+01
5540000000.000000      1.208076000000000E-01     -8.171093000000000E+01      3.181152000000000E-01     -1.133936000000000E+01
5560000000.000000      1.085167000000000E-01     -7.776562000000000E+01      3.249664000000000E-01     -4.024414000000000E+01
5580000000.000000      1.026001000000000E-01     -7.247656000000000E+01      3.319855000000000E-01     -6.881249000000000E+01
5600000000.000000      1.005554000000000E-01     -6.685547000000000E+01      3.368073000000000E-01     -9.649218000000000E+01
5620000000.000000      1.038437000000000E-01     -5.960546000000000E+01      3.395538000000000E-01     -1.242383000000000E+02
5640000000.000000      1.179962000000000E-01     -5.248828000000000E+01      3.375092000000000E-01     -1.518281000000000E+02
5660000000.000000      1.427460000000000E-01     -5.151953000000000E+01      3.316345000000000E-01     -1.788672000000000E+02
5680000000.000000      1.701660000000000E-01     -5.684179000000000E+01      3.228455000000000E-01      1.531719000000000E+02
5700000000.000000      1.892014000000000E-01     -6.708593000000000E+01      3.106995000000000E-01      1.250117000000000E+02
5720000000.000000      1.930771000000000E-01     -7.946875000000000E+01      2.960968000000000E-01      9.731640000000000E+01
5740000000.000000      1.795731000000000E-01     -9.193359000000000E+01      2.906342000000000E-01      6.863671000000000E+01
5760000000.000000      1.514587000000000E-01     -1.021562000000000E+02      2.862396000000000E-01      3.760547000000000E+01
5780000000.000000      1.185226000000000E-01     -1.050039000000000E+02      2.815399000000000E-01      6.994141000000000E+00
5800000000.000000      9.881210000000000E-02     -9.668749000000000E+01      2.832489000000000E-01     -2.321484000000000E+01
5820000000.000000      1.015549000000000E-01     -8.800781000000000E+01      2.905579000000000E-01     -5.359375000000000E+01
5840000000.000000      1.126633000000000E-01     -8.869141000000000E+01      2.995911000000000E-01     -8.393358000000000E+01
5860000000.000000      1.171875000000000E-01     -9.664843000000000E+01      3.019867000000000E-01     -1.131680000000000E+02
5880000000.000000      1.087494000000000E-01     -1.072383000000000E+02      3.039398000000000E-01     -1.400312000000000E+02
5900000000.000000      9.058380000000000E-02     -1.150352000000000E+02      3.140869000000000E-01     -1.668359000000000E+02
5920000000.000000      7.104492000000000E-02     -1.142500000000000E+02      3.189392000000000E-01      1.653672000000000E+02
5940000000.000000      6.248856000000000E-02     -1.054140000000000E+02      3.129272000000000E-01      1.370312000000000E+02
5960000000.000000      6.094360000000000E-02     -9.957420000000000E+01      2.991791000000000E-01      1.095586000000000E+02
5980000000.000000      5.270958000000000E-02     -9.907030000000000E+01      2.880859000000000E-01      8.262110000000000E+01
6000000000.000000      3.337288000000000E-02     -8.724609000000000E+01      2.819214000000000E-01      5.355469000000000E+01
6020000000.000000      3.156281000000000E-02     -2.765332000000000E+01      2.691193000000000E-01      2.256640000000000E+01
6040000000.000000      6.637573000000000E-02     -1.161133000000000E+01      2.549744000000000E-01     -7.966553000000000E+00
6060000000.000000      1.025772000000000E-01     -2.015332000000000E+01      2.506409000000000E-01     -3.832226000000000E+01
6080000000.000000      1.301727000000000E-01     -3.451757000000000E+01      2.562103000000000E-01     -6.917187000000000E+01
