! Network Analyzer HP8722D
! Hewlett-Packard
! Data name: Linha & Wilkinson
! Saver's name: Rodrigo Anjos
! Comments: Teste da utilização de aquisição
continua pelo VNA HP8722D
! Time and date: 3/9/2025 19:15
!              Frequency                     S11                                                   S21                                                   S12                                                   S22
# HZ  S  MA R 50
3000000000.000000      7.603073000000000E-02      8.804688000000000E+01      4.562378000000000E-01      2.592285000000000E+01
3020000000.000000      9.352875000000000E-02      7.361328000000000E+01      4.578094000000000E-01     -2.782349000000000E+00
3040000000.000000      9.547424000000000E-02      5.708202000000000E+01      4.562836000000000E-01     -3.182519000000000E+01
3060000000.000000      8.363342000000000E-02      4.195703000000000E+01      4.556885000000000E-01     -6.033984000000000E+01
3080000000.000000      6.356812000000000E-02      3.056347000000000E+01      4.552765000000000E-01     -8.877344000000000E+01
3100000000.000000      4.539108000000000E-02      3.071191000000000E+01      4.537506000000000E-01     -1.173984000000000E+02
3120000000.000000      3.758621000000000E-02      4.325781000000000E+01      4.522552000000000E-01     -1.458828000000000E+02
3140000000.000000      3.721809000000000E-02      5.015625000000000E+01      4.467621000000000E-01     -1.744219000000000E+02
3160000000.000000      3.005886000000000E-02      4.934179000000000E+01      4.422913000000000E-01      1.572656000000000E+02
3180000000.000000      1.710320000000000E-02      9.601171000000000E+01      4.408569000000000E-01      1.284219000000000E+02
3200000000.000000      4.625702000000000E-02      1.440859000000000E+02      4.364319000000000E-01      9.885155000000000E+01
3220000000.000000      9.744263000000000E-02      1.376562000000000E+02      4.244995000000000E-01      6.978906000000000E+01
3240000000.000000      1.481171000000000E-01      1.223906000000000E+02      4.127655000000000E-01      4.235547000000000E+01
3260000000.000000      1.912155000000000E-01      1.053555000000000E+02      4.158020000000000E-01      1.504980000000000E+01
3280000000.000000      2.187119000000000E-01      8.792578000000000E+01      4.207916000000000E-01     -1.423438000000000E+01
3300000000.000000      2.294998000000000E-01      7.115624000000000E+01      4.149780000000000E-01     -4.278710000000000E+01
3320000000.000000      2.250671000000000E-01      5.566406000000000E+01      4.177094000000000E-01     -7.053515000000000E+01
3340000000.000000      2.091293000000000E-01      4.277539000000000E+01      4.223938000000000E-01     -9.921093000000000E+01
3360000000.000000      1.857986000000000E-01      3.339844000000000E+01      4.256134000000000E-01     -1.275859000000000E+02
3380000000.000000      1.627502000000000E-01      2.849902000000000E+01      4.290924000000000E-01     -1.559453000000000E+02
3400000000.000000      1.430664000000000E-01      2.645605000000000E+01      4.317780000000000E-01      1.752578000000000E+02
3420000000.000000      1.286621000000000E-01      2.610742000000000E+01      4.335022000000000E-01      1.467578000000000E+02
3440000000.000000      1.164093000000000E-01      2.575390000000000E+01      4.332428000000000E-01      1.179726000000000E+02
3460000000.000000      1.044197000000000E-01      2.675683000000000E+01      4.276123000000000E-01      8.963671000000000E+01
3480000000.000000      9.603500000000000E-02      2.958984000000000E+01      4.293365000000000E-01      6.089257000000000E+01
3500000000.000000      9.254456000000000E-02      3.332812000000000E+01      4.253693000000000E-01      3.171582000000000E+01
3520000000.000000      9.098434000000000E-02      3.678320000000000E+01      4.229584000000000E-01      3.587036000000000E+00
3540000000.000000      9.214401000000000E-02      4.036914000000000E+01      4.262543000000000E-01     -2.492578000000000E+01
3560000000.000000      9.434891000000000E-02      4.546094000000000E+01      4.275818000000000E-01     -5.408203000000000E+01
3580000000.000000      1.018295000000000E-01      5.074413000000000E+01      4.266968000000000E-01     -8.269922000000000E+01
3600000000.000000      1.147652000000000E-01      5.214062000000000E+01      4.256744000000000E-01     -1.109219000000000E+02
3620000000.000000      1.285019000000000E-01      4.925390000000000E+01      4.276276000000000E-01     -1.392812000000000E+02
3640000000.000000      1.340179000000000E-01      4.299609000000000E+01      4.265289000000000E-01     -1.675390000000000E+02
3660000000.000000      1.292343000000000E-01      3.617188000000000E+01      4.257965000000000E-01      1.647578000000000E+02
3680000000.000000      1.167526000000000E-01      3.274609000000000E+01      4.286194000000000E-01      1.370547000000000E+02
3700000000.000000      1.039772000000000E-01      3.602539000000000E+01      4.316254000000000E-01      1.082148000000000E+02
3720000000.000000      1.048431000000000E-01      4.524219000000000E+01      4.287262000000000E-01      7.994531000000000E+01
3740000000.000000      1.217613000000000E-01      4.912499000000000E+01      4.225769000000000E-01      5.156445000000000E+01
3760000000.000000      1.406631000000000E-01      4.595899000000000E+01      4.157257000000000E-01      2.342383000000000E+01
3780000000.000000      1.482849000000000E-01      3.847265000000000E+01      4.169159000000000E-01     -4.206543000000000E+00
3800000000.000000      1.413956000000000E-01      3.098926000000000E+01      4.170532000000000E-01     -3.289453000000000E+01
3820000000.000000      1.230774000000000E-01      2.767090000000000E+01      4.181213000000000E-01     -6.155663000000000E+01
3840000000.000000      1.084633000000000E-01      3.262109000000000E+01      4.166565000000000E-01     -9.038671000000000E+01
3860000000.000000      1.124039000000000E-01      4.099414000000000E+01      4.156799000000000E-01     -1.193086000000000E+02
3880000000.000000      1.308670000000000E-01      4.279882000000000E+01      4.135284000000000E-01     -1.484141000000000E+02
3900000000.000000      1.459961000000000E-01      3.715625000000000E+01      4.052277000000000E-01     -1.766797000000000E+02
3920000000.000000      1.437988000000000E-01      2.947754000000000E+01      4.067841000000000E-01      1.560547000000000E+02
3940000000.000000      1.262741000000000E-01      2.556445000000000E+01      4.164581000000000E-01      1.275469000000000E+02
3960000000.000000      1.080170000000000E-01      3.177637000000000E+01      4.148712000000000E-01      9.826952000000000E+01
3980000000.000000      1.140556000000000E-01      4.579687000000000E+01      4.065399000000000E-01      6.984375000000000E+01
4000000000.000000      1.452103000000000E-01      4.906445000000000E+01      4.004364000000000E-01      4.268164000000000E+01
4020000000.000000      1.787796000000000E-01      4.183203000000000E+01      4.054718000000000E-01      1.486572000000000E+01
4040000000.000000      1.980820000000000E-01      2.901074000000000E+01      4.061737000000000E-01     -1.494873000000000E+01
4060000000.000000      1.927490000000000E-01      1.498535000000000E+01      3.911438000000000E-01     -4.400586000000000E+01
4080000000.000000      1.639633000000000E-01      1.424072000000000E+00      3.905029000000000E-01     -7.072656000000000E+01
4100000000.000000      1.185799000000000E-01     -6.437988000000000E+00      4.012451000000000E-01     -9.950390000000000E+01
4120000000.000000      7.532883000000000E-02      3.733887000000000E+00      4.001770000000000E-01     -1.293281000000000E+02
4140000000.000000      7.266235000000000E-02      3.396484000000000E+01      3.956451000000000E-01     -1.583516000000000E+02
4160000000.000000      9.758759000000000E-02      4.362500000000000E+01      3.962097000000000E-01      1.738437000000000E+02
4180000000.000000      1.155930000000000E-01      4.036328000000000E+01      4.039154000000000E-01      1.451406000000000E+02
4200000000.000000      1.176605000000000E-01      3.651953000000000E+01      4.057770000000000E-01      1.153633000000000E+02
4220000000.000000      1.151848000000000E-01      3.841211000000000E+01      3.975830000000000E-01      8.619921000000000E+01
4240000000.000000      1.236649000000000E-01      4.502149000000000E+01      3.921356000000000E-01      5.777148000000000E+01
4260000000.000000      1.485138000000000E-01      4.720117000000000E+01      3.877411000000000E-01      2.972461000000000E+01
4280000000.000000      1.752243000000000E-01      4.262695000000000E+01      3.877258000000000E-01      1.251038000000000E+00
4300000000.000000      1.916504000000000E-01      3.456250000000000E+01      3.844910000000000E-01     -2.760644000000000E+01
4320000000.000000      1.913528000000000E-01      2.602636000000000E+01      3.807831000000000E-01     -5.613476000000000E+01
4340000000.000000      1.778717000000000E-01      1.992969000000000E+01      3.804169000000000E-01     -8.536327000000000E+01
4360000000.000000      1.636276000000000E-01      1.909082000000000E+01      3.774719000000000E-01     -1.144648000000000E+02
4380000000.000000      1.620941000000000E-01      2.152050000000000E+01      3.778229000000000E-01     -1.439141000000000E+02
4400000000.000000      1.727829000000000E-01      2.172363000000000E+01      3.734589000000000E-01     -1.728359000000000E+02
4420000000.000000      1.827316000000000E-01      1.771387000000000E+01      3.735962000000000E-01      1.583516000000000E+02
4440000000.000000      1.809464000000000E-01      1.185254000000000E+01      3.764648000000000E-01      1.283594000000000E+02
4460000000.000000      1.637802000000000E-01      8.496094000000000E+00      3.697815000000000E-01      9.884766000000000E+01
4480000000.000000      1.456985000000000E-01      1.192383000000000E+01      3.674011000000000E-01      7.080468000000000E+01
4500000000.000000      1.474457000000000E-01      2.116992000000000E+01      3.669128000000000E-01      4.187696000000000E+01
4520000000.000000      1.721725000000000E-01      2.553613000000000E+01      3.632813000000000E-01      1.265186000000000E+01
4540000000.000000      2.041321000000000E-01      2.150391000000000E+01      3.531342000000000E-01     -1.725195000000000E+01
4560000000.000000      2.242966000000000E-01      1.331250000000000E+01      3.457336000000000E-01     -4.511523000000000E+01
4580000000.000000      2.302704000000000E-01      4.137695000000000E+00      3.475494000000000E-01     -7.451562000000000E+01
4600000000.000000      2.222977000000000E-01     -3.183350000000000E+00      3.444366000000000E-01     -1.048711000000000E+02
4620000000.000000      2.100449000000000E-01     -7.506592000000000E+00      3.395996000000000E-01     -1.343984000000000E+02
4640000000.000000      2.032471000000000E-01     -9.661133000000000E+00      3.385010000000000E-01     -1.640469000000000E+02
4660000000.000000      2.032242000000000E-01     -1.254102000000000E+01      3.381653000000000E-01      1.670703000000000E+02
4680000000.000000      2.036972000000000E-01     -1.755273000000000E+01      3.434601000000000E-01      1.379062000000000E+02
4700000000.000000      1.974106000000000E-01     -2.462402000000000E+01      3.433380000000000E-01      1.082930000000000E+02
4720000000.000000      1.819992000000000E-01     -3.184179000000000E+01      3.400574000000000E-01      8.046484000000000E+01
4740000000.000000      1.614151000000000E-01     -3.834375000000000E+01      3.468170000000000E-01      5.271289000000000E+01
4760000000.000000      1.372604000000000E-01     -4.385351000000000E+01      3.476868000000000E-01      2.413086000000000E+01
4780000000.000000      1.113968000000000E-01     -4.834570000000000E+01      3.444061000000000E-01     -4.347900000000000E+00
4800000000.000000      8.050156000000000E-02     -5.304492000000000E+01      3.396149000000000E-01     -3.281445000000000E+01
4820000000.000000      3.799629000000000E-02     -5.022265000000000E+01      3.321991000000000E-01     -6.177343000000000E+01
4840000000.000000      3.164101000000000E-02      5.587891000000000E+01      3.252716000000000E-01     -9.079296000000000E+01
4860000000.000000      9.728622000000000E-02      6.253124000000000E+01      3.169708000000000E-01     -1.215703000000000E+02
4880000000.000000      1.670227000000000E-01      4.984179000000000E+01      2.979126000000000E-01     -1.526094000000000E+02
4900000000.000000      2.266541000000000E-01      3.380859000000000E+01      2.756500000000000E-01      1.796328000000000E+02
4920000000.000000      2.694092000000000E-01      1.738965000000000E+01      2.748413000000000E-01      1.539375000000000E+02
4940000000.000000      2.902527000000000E-01      1.572388000000000E+00      2.889862000000000E-01      1.254453000000000E+02
4960000000.000000      2.886505000000000E-01     -1.372070000000000E+01      2.930603000000000E-01      9.556641000000000E+01
4980000000.000000      2.635956000000000E-01     -2.741015000000000E+01      2.987061000000000E-01      6.850390000000000E+01
5000000000.000000      2.213516000000000E-01     -3.768750000000000E+01      3.136902000000000E-01      4.108203000000000E+01
5020000000.000000      1.737289000000000E-01     -4.074023000000000E+01      3.238983000000000E-01      1.305713000000000E+01
5040000000.000000      1.434402000000000E-01     -3.375391000000000E+01      3.312073000000000E-01     -1.409717000000000E+01
5060000000.000000      1.445847000000000E-01     -2.366211000000000E+01      3.398590000000000E-01     -4.126367000000000E+01
5080000000.000000      1.602631000000000E-01     -2.044238000000000E+01      3.452911000000000E-01     -6.946875000000000E+01
5100000000.000000      1.741638000000000E-01     -2.266016000000000E+01      3.403168000000000E-01     -9.785545000000000E+01
5120000000.000000      1.793137000000000E-01     -2.615039000000000E+01      3.337708000000000E-01     -1.252226000000000E+02
5140000000.000000      1.822128000000000E-01     -2.910742000000000E+01      3.315430000000000E-01     -1.534844000000000E+02
5160000000.000000      1.844559000000000E-01     -3.181543000000000E+01      3.282013000000000E-01      1.771172000000000E+02
5180000000.000000      1.886978000000000E-01     -3.528515000000000E+01      3.240204000000000E-01      1.474531000000000E+02
5200000000.000000      1.903839000000000E-01     -3.975781000000000E+01      3.231201000000000E-01      1.172656000000000E+02
5220000000.000000      1.861115000000000E-01     -4.455468000000000E+01      3.228607000000000E-01      8.755077000000000E+01
5240000000.000000      1.767960000000000E-01     -4.756249000000000E+01      3.277588000000000E-01      5.766796000000000E+01
5260000000.000000      1.678772000000000E-01     -4.786718000000000E+01      3.335724000000000E-01      2.795605000000000E+01
5280000000.000000      1.646423000000000E-01     -4.638281000000000E+01      3.386078000000000E-01     -9.613037000000000E-01
5300000000.000000      1.692810000000000E-01     -4.663867000000000E+01      3.415833000000000E-01     -2.914355000000000E+01
5320000000.000000      1.730347000000000E-01     -4.905859000000000E+01      3.460693000000000E-01     -5.616796000000000E+01
5340000000.000000      1.719208000000000E-01     -5.281836000000000E+01      3.509979000000000E-01     -8.378906000000000E+01
5360000000.000000      1.651459000000000E-01     -5.599218000000000E+01      3.455963000000000E-01     -1.113437000000000E+02
5380000000.000000      1.580658000000000E-01     -5.710546000000000E+01      3.404999000000000E-01     -1.376797000000000E+02
5400000000.000000      1.581802000000000E-01     -5.632030000000000E+01      3.392792000000000E-01     -1.650625000000000E+02
5420000000.000000      1.676941000000000E-01     -5.596484000000000E+01      3.327484000000000E-01      1.667109000000000E+02
5440000000.000000      1.801300000000000E-01     -5.894531000000000E+01      3.274078000000000E-01      1.375703000000000E+02
5460000000.000000      1.865692000000000E-01     -6.501171000000000E+01      3.157196000000000E-01      1.077305000000000E+02
5480000000.000000      1.816177000000000E-01     -7.224999000000000E+01      3.090668000000000E-01      7.831249000000000E+01
5500000000.000000      1.642151000000000E-01     -7.859375000000000E+01      3.117676000000000E-01      4.865820000000000E+01
5520000000.000000      1.409302000000000E-01     -8.241796000000000E+01      3.135071000000000E-01      1.818848000000000E+01
5540000000.000000      1.207962000000000E-01     -8.173437000000000E+01      3.179932000000000E-01     -1.150977000000000E+01
5560000000.000000      1.082268000000000E-01     -7.782812000000000E+01      3.253937000000000E-01     -4.047461000000000E+01
5580000000.000000      1.024208000000000E-01     -7.247656000000000E+01      3.324432000000000E-01     -6.894921000000000E+01
5600000000.000000      1.007118000000000E-01     -6.691406000000000E+01      3.376465000000000E-01     -9.667969000000000E+01
5620000000.000000      1.042137000000000E-01     -5.947070000000000E+01      3.406830000000000E-01     -1.245430000000000E+02
5640000000.000000      1.185951000000000E-01     -5.249804000000000E+01      3.373871000000000E-01     -1.520391000000000E+02
5660000000.000000      1.432343000000000E-01     -5.154101000000000E+01      3.319702000000000E-01     -1.791328000000000E+02
5680000000.000000      1.702194000000000E-01     -5.689062000000000E+01      3.234406000000000E-01      1.531328000000000E+02
5700000000.000000      1.893921000000000E-01     -6.721484000000000E+01      3.101044000000000E-01      1.247969000000000E+02
5720000000.000000      1.932983000000000E-01     -7.959374000000000E+01      2.959290000000000E-01      9.710546000000000E+01
5740000000.000000      1.794739000000000E-01     -9.214844000000000E+01      2.903748000000000E-01      6.848827000000000E+01
5760000000.000000      1.516724000000000E-01     -1.021484000000000E+02      2.864838000000000E-01      3.746289000000000E+01
5780000000.000000      1.187401000000000E-01     -1.047695000000000E+02      2.816772000000000E-01      6.671387000000000E+00
5800000000.000000      9.866714000000000E-02     -9.651171000000000E+01      2.836609000000000E-01     -2.360058000000000E+01
5820000000.000000      1.015625000000000E-01     -8.763672000000000E+01      2.904816000000000E-01     -5.390038000000000E+01
5840000000.000000      1.128311000000000E-01     -8.867579000000000E+01      3.004456000000000E-01     -8.416016000000000E+01
5860000000.000000      1.174088000000000E-01     -9.687109000000000E+01      3.016663000000000E-01     -1.133047000000000E+02
5880000000.000000      1.083145000000000E-01     -1.070156000000000E+02      3.046570000000000E-01     -1.403437000000000E+02
5900000000.000000      9.082031000000000E-02     -1.146523000000000E+02      3.142090000000000E-01     -1.668906000000000E+02
5920000000.000000      7.126236000000000E-02     -1.143398000000000E+02      3.191223000000000E-01      1.651484000000000E+02
5940000000.000000      6.276703000000000E-02     -1.047266000000000E+02      3.134766000000000E-01      1.367500000000000E+02
5960000000.000000      6.100273000000000E-02     -9.961718000000000E+01      2.981110000000000E-01      1.094219000000000E+02
5980000000.000000      5.265236000000000E-02     -9.913280000000000E+01      2.876282000000000E-01      8.233202000000000E+01
6000000000.000000      3.307724000000000E-02     -8.740234000000000E+01      2.817535000000000E-01      5.316211000000000E+01
6020000000.000000      3.153992000000000E-02     -2.778515000000000E+01      2.689209000000000E-01      2.231640000000000E+01
6040000000.000000      6.645966000000000E-02     -1.198242000000000E+01      2.548828000000000E-01     -8.107910000000000E+00
6060000000.000000      1.027603000000000E-01     -2.044043000000000E+01      2.502747000000000E-01     -3.862695000000000E+01
6080000000.000000      1.299744000000000E-01     -3.454687000000000E+01      2.556610000000000E-01     -6.951562000000000E+01
