! Network Analyzer HP8722D
! Hewlett-Packard
! Data name: Linha & Wilkinson
! Saver's name: Rodrigo Anjos
! Comments: Teste da utilização de aquisição
continua pelo VNA HP8722D
! Time and date: 3/9/2025 18:24
!              Frequency                     S11                                                   S21                                                   S12                                                   S22
# HZ  S  MA R 50
3000000000.000000      7.669067000000000E-02      8.701563000000000E+01      4.562225000000000E-01      2.507031000000000E+01
3020000000.000000      9.352875000000000E-02      7.279297000000000E+01      4.567871000000000E-01     -3.834229000000000E+00
3040000000.000000      9.552383000000000E-02      5.651953000000000E+01      4.577332000000000E-01     -3.277539000000000E+01
3060000000.000000      8.362961000000000E-02      4.124804000000000E+01      4.552307000000000E-01     -6.109570000000000E+01
3080000000.000000      6.375504000000000E-02      3.036426000000000E+01      4.556732000000000E-01     -8.967188000000000E+01
3100000000.000000      4.518127000000000E-02      3.053223000000000E+01      4.535675000000000E-01     -1.183203000000000E+02
3120000000.000000      3.846359000000000E-02      4.314062000000000E+01      4.518890000000000E-01     -1.468125000000000E+02
3140000000.000000      3.790283000000000E-02      4.891211000000000E+01      4.470520000000000E-01     -1.751719000000000E+02
3160000000.000000      2.982235000000000E-02      4.897461000000000E+01      4.434204000000000E-01      1.562109000000000E+02
3180000000.000000      1.622677000000000E-02      9.574219000000000E+01      4.423523000000000E-01      1.276563000000000E+02
3200000000.000000      4.667664000000000E-02      1.447656000000000E+02      4.372101000000000E-01      9.809765000000000E+01
3220000000.000000      9.820938000000000E-02      1.373594000000000E+02      4.235840000000000E-01      6.883203000000000E+01
3240000000.000000      1.494293000000000E-01      1.218320000000000E+02      4.119415000000000E-01      4.137109000000000E+01
3260000000.000000      1.914597000000000E-01      1.047695000000000E+02      4.160614000000000E-01      1.413232000000000E+01
3280000000.000000      2.186432000000000E-01      8.736719000000000E+01      4.210815000000000E-01     -1.530029000000000E+01
3300000000.000000      2.289352000000000E-01      7.041406000000000E+01      4.157410000000000E-01     -4.386328000000000E+01
3320000000.000000      2.244186000000000E-01      5.518945000000000E+01      4.196625000000000E-01     -7.158203000000000E+01
3340000000.000000      2.081985000000000E-01      4.242969000000000E+01      4.245758000000000E-01     -1.002109000000000E+02
3360000000.000000      1.847153000000000E-01      3.317773000000000E+01      4.259491000000000E-01     -1.286328000000000E+02
3380000000.000000      1.617279000000000E-01      2.835351000000000E+01      4.294434000000000E-01     -1.568281000000000E+02
3400000000.000000      1.423798000000000E-01      2.647656000000000E+01      4.320984000000000E-01      1.743438000000000E+02
3420000000.000000      1.286926000000000E-01      2.625586000000000E+01      4.329071000000000E-01      1.457344000000000E+02
3440000000.000000      1.163216000000000E-01      2.579590000000000E+01      4.326477000000000E-01      1.168789000000000E+02
3460000000.000000      1.047096000000000E-01      2.692383000000000E+01      4.284515000000000E-01      8.858593000000000E+01
3480000000.000000      9.691620000000000E-02      2.952246000000000E+01      4.299316000000000E-01      5.989452000000000E+01
3500000000.000000      9.316254000000000E-02      3.335938000000000E+01      4.254150000000000E-01      3.068066000000000E+01
3520000000.000000      9.169006000000000E-02      3.642187000000000E+01      4.217987000000000E-01      2.698486000000000E+00
3540000000.000000      9.248734000000000E-02      4.007813000000000E+01      4.257507000000000E-01     -2.599121000000000E+01
3560000000.000000      9.391785000000000E-02      4.528125000000000E+01      4.281158000000000E-01     -5.511719000000000E+01
3580000000.000000      1.021233000000000E-01      5.068945000000000E+01      4.265747000000000E-01     -8.380468000000000E+01
3600000000.000000      1.153183000000000E-01      5.182617000000000E+01      4.262085000000000E-01     -1.120469000000000E+02
3620000000.000000      1.287613000000000E-01      4.886132000000000E+01      4.267120000000000E-01     -1.402812000000000E+02
3640000000.000000      1.341095000000000E-01      4.266211000000000E+01      4.257507000000000E-01     -1.686250000000000E+02
3660000000.000000      1.293182000000000E-01      3.574804000000000E+01      4.261475000000000E-01      1.635078000000000E+02
3680000000.000000      1.163979000000000E-01      3.245117000000000E+01      4.281158000000000E-01      1.359141000000000E+02
3700000000.000000      1.033897000000000E-01      3.597851000000000E+01      4.308472000000000E-01      1.074336000000000E+02
3720000000.000000      1.046944000000000E-01      4.505078000000000E+01      4.291382000000000E-01      7.887109000000000E+01
3740000000.000000      1.222916000000000E-01      4.883398000000000E+01      4.221649000000000E-01      5.034570000000000E+01
3760000000.000000      1.409302000000000E-01      4.544335000000000E+01      4.171906000000000E-01      2.213379000000000E+01
3780000000.000000      1.484070000000000E-01      3.798437000000000E+01      4.175720000000000E-01     -5.340820000000000E+00
3800000000.000000      1.412125000000000E-01      3.064453000000000E+01      4.175415000000000E-01     -3.400781000000000E+01
3820000000.000000      1.226463000000000E-01      2.763184000000000E+01      4.178314000000000E-01     -6.258203000000000E+01
3840000000.000000      1.084366000000000E-01      3.276367000000000E+01      4.175720000000000E-01     -9.168360000000000E+01
3860000000.000000      1.130981000000000E-01      4.105859000000000E+01      4.153137000000000E-01     -1.202851000000000E+02
3880000000.000000      1.313400000000000E-01      4.244531000000000E+01      4.142456000000000E-01     -1.496328000000000E+02
3900000000.000000      1.457291000000000E-01      3.668554000000000E+01      4.052734000000000E-01     -1.778047000000000E+02
3920000000.000000      1.434937000000000E-01      2.883594000000000E+01      4.070129000000000E-01      1.551250000000000E+02
3940000000.000000      1.254959000000000E-01      2.520605000000000E+01      4.157410000000000E-01      1.261836000000000E+02
3960000000.000000      1.074066000000000E-01      3.199902000000000E+01      4.154205000000000E-01      9.713671000000000E+01
3980000000.000000      1.146965000000000E-01      4.584374000000000E+01      4.067993000000000E-01      6.863281000000000E+01
4000000000.000000      1.468887000000000E-01      4.883007000000000E+01      3.999023000000000E-01      4.145117000000000E+01
4020000000.000000      1.796951000000000E-01      4.125586000000000E+01      4.047699000000000E-01      1.380957000000000E+01
4040000000.000000      1.983719000000000E-01      2.841015000000000E+01      4.054260000000000E-01     -1.632715000000000E+01
4060000000.000000      1.922302000000000E-01      1.418701000000000E+01      3.912354000000000E-01     -4.495117000000000E+01
4080000000.000000      1.631393000000000E-01      9.036255000000000E-01      3.911438000000000E-01     -7.173437000000000E+01
4100000000.000000      1.170197000000000E-01     -6.704590000000000E+00      4.020844000000000E-01     -1.005273000000000E+02
4120000000.000000      7.490158000000000E-02      4.059326000000000E+00      4.003448000000000E-01     -1.308359000000000E+02
4140000000.000000      7.365799000000000E-02      3.408789000000000E+01      3.958740000000000E-01     -1.595234000000000E+02
4160000000.000000      9.825134000000000E-02      4.341210000000000E+01      3.962860000000000E-01      1.725625000000000E+02
4180000000.000000      1.156883000000000E-01      3.960938000000000E+01      4.037323000000000E-01      1.440859000000000E+02
4200000000.000000      1.173515000000000E-01      3.609961000000000E+01      4.052429000000000E-01      1.140117000000000E+02
4220000000.000000      1.148682000000000E-01      3.853906000000000E+01      3.968964000000000E-01      8.473827000000000E+01
4240000000.000000      1.240158000000000E-01      4.510547000000000E+01      3.907471000000000E-01      5.638866000000000E+01
4260000000.000000      1.493530000000000E-01      4.702929000000000E+01      3.873596000000000E-01      2.820703000000000E+01
4280000000.000000      1.759415000000000E-01      4.221680000000000E+01      3.872833000000000E-01      2.746582000000000E-03
4300000000.000000      1.913986000000000E-01      3.395117000000000E+01      3.839874000000000E-01     -2.876367000000000E+01
4320000000.000000      1.907806000000000E-01      2.551367000000000E+01      3.792725000000000E-01     -5.773046000000000E+01
4340000000.000000      1.775589000000000E-01      1.974219000000000E+01      3.797913000000000E-01     -8.653906000000000E+01
4360000000.000000      1.634140000000000E-01      1.901269000000000E+01      3.779144000000000E-01     -1.158711000000000E+02
4380000000.000000      1.624908000000000E-01      2.162598000000000E+01      3.749542000000000E-01     -1.453281000000000E+02
4400000000.000000      1.737900000000000E-01      2.148340000000000E+01      3.723450000000000E-01     -1.743359000000000E+02
4420000000.000000      1.834183000000000E-01      1.730176000000000E+01      3.737335000000000E-01      1.569609000000000E+02
4440000000.000000      1.810455000000000E-01      1.145313000000000E+01      3.773804000000000E-01      1.271445000000000E+02
4460000000.000000      1.643219000000000E-01      8.242188000000000E+00      3.697968000000000E-01      9.774609000000000E+01
4480000000.000000      1.453705000000000E-01      1.194482000000000E+01      3.674774000000000E-01      6.945703000000000E+01
4500000000.000000      1.479416000000000E-01      2.089258000000000E+01      3.675385000000000E-01      4.060156000000000E+01
4520000000.000000      1.741638000000000E-01      2.499512000000000E+01      3.616791000000000E-01      1.104102000000000E+01
4540000000.000000      2.048264000000000E-01      2.097656000000000E+01      3.528442000000000E-01     -1.834473000000000E+01
4560000000.000000      2.249908000000000E-01      1.263281000000000E+01      3.450928000000000E-01     -4.659765000000000E+01
4580000000.000000      2.296753000000000E-01      3.629517000000000E+00      3.472748000000000E-01     -7.594140000000000E+01
4600000000.000000      2.211533000000000E-01     -3.540405000000000E+00      3.439178000000000E-01     -1.063867000000000E+02
4620000000.000000      2.091980000000000E-01     -7.680908000000000E+00      3.384552000000000E-01     -1.356641000000000E+02
4640000000.000000      2.031174000000000E-01     -9.873047000000000E+00      3.387604000000000E-01     -1.653359000000000E+02
4660000000.000000      2.035446000000000E-01     -1.274023000000000E+01      3.387604000000000E-01      1.656250000000000E+02
4680000000.000000      2.039871000000000E-01     -1.800879000000000E+01      3.432159000000000E-01      1.363828000000000E+02
4700000000.000000      1.975021000000000E-01     -2.495898000000000E+01      3.442383000000000E-01      1.068281000000000E+02
4720000000.000000      1.813278000000000E-01     -3.220117000000000E+01      3.405914000000000E-01      7.898438000000000E+01
4740000000.000000      1.609802000000000E-01     -3.868164000000000E+01      3.473969000000000E-01      5.122460000000000E+01
4760000000.000000      1.363068000000000E-01     -4.401953000000000E+01      3.479462000000000E-01      2.270996000000000E+01
4780000000.000000      1.110306000000000E-01     -4.865429000000000E+01      3.437042000000000E-01     -5.793945000000000E+00
4800000000.000000      7.955170000000000E-02     -5.350390000000000E+01      3.398895000000000E-01     -3.414258000000000E+01
4820000000.000000      3.635216000000000E-02     -4.882226000000000E+01      3.317566000000000E-01     -6.313086000000000E+01
4840000000.000000      3.389931000000000E-02      5.737695000000000E+01      3.241882000000000E-01     -9.225000000000000E+01
4860000000.000000      1.003189000000000E-01      6.176952000000000E+01      3.170624000000000E-01     -1.230430000000000E+02
4880000000.000000      1.702881000000000E-01      4.886132000000000E+01      2.971954000000000E-01     -1.541797000000000E+02
4900000000.000000      2.289658000000000E-01      3.297656000000000E+01      2.746429000000000E-01      1.781563000000000E+02
4920000000.000000      2.705383000000000E-01      1.655762000000000E+01      2.749634000000000E-01      1.525312000000000E+02
4940000000.000000      2.916260000000000E-01      7.621765000000000E-01      2.887421000000000E-01      1.239453000000000E+02
4960000000.000000      2.879333000000000E-01     -1.455029000000000E+01      2.929382000000000E-01      9.409765000000000E+01
4980000000.000000      2.621460000000000E-01     -2.824219000000000E+01      2.991943000000000E-01      6.692968000000000E+01
5000000000.000000      2.194366000000000E-01     -3.831250000000000E+01      3.127899000000000E-01      3.965234000000000E+01
5020000000.000000      1.721954000000000E-01     -4.097265000000000E+01      3.250275000000000E-01      1.157959000000000E+01
5040000000.000000      1.430511000000000E-01     -3.369922000000000E+01      3.322144000000000E-01     -1.552930000000000E+01
5060000000.000000      1.448364000000000E-01     -2.354590000000000E+01      3.406372000000000E-01     -4.272070000000000E+01
5080000000.000000      1.614151000000000E-01     -2.057519000000000E+01      3.454742000000000E-01     -7.100390000000000E+01
5100000000.000000      1.743317000000000E-01     -2.285742000000000E+01      3.390350000000000E-01     -9.930077000000000E+01
5120000000.000000      1.794739000000000E-01     -2.651464000000000E+01      3.331299000000000E-01     -1.267891000000000E+02
5140000000.000000      1.823502000000000E-01     -2.931445000000000E+01      3.308258000000000E-01     -1.550625000000000E+02
5160000000.000000      1.850891000000000E-01     -3.179883000000000E+01      3.278961000000000E-01      1.754453000000000E+02
5180000000.000000      1.888580000000000E-01     -3.539453000000000E+01      3.241272000000000E-01      1.458359000000000E+02
5200000000.000000      1.908569000000000E-01     -4.002343000000000E+01      3.222656000000000E-01      1.156289000000000E+02
5220000000.000000      1.862946000000000E-01     -4.472461000000000E+01      3.223877000000000E-01      8.582422000000000E+01
5240000000.000000      1.764069000000000E-01     -4.764062000000000E+01      3.274384000000000E-01      5.617969000000000E+01
5260000000.000000      1.677933000000000E-01     -4.777734000000000E+01      3.337097000000000E-01      2.640332000000000E+01
5280000000.000000      1.651688000000000E-01     -4.644531000000000E+01      3.390350000000000E-01     -2.517334000000000E+00
5300000000.000000      1.697998000000000E-01     -4.662499000000000E+01      3.417969000000000E-01     -3.062597000000000E+01
5320000000.000000      1.740189000000000E-01     -4.931250000000000E+01      3.462677000000000E-01     -5.770312000000000E+01
5340000000.000000      1.715698000000000E-01     -5.295703000000000E+01      3.504639000000000E-01     -8.532812000000000E+01
5360000000.000000      1.653595000000000E-01     -5.611133000000000E+01      3.447418000000000E-01     -1.127734000000000E+02
5380000000.000000      1.586533000000000E-01     -5.706445000000000E+01      3.399658000000000E-01     -1.390781000000000E+02
5400000000.000000      1.592636000000000E-01     -5.622265000000000E+01      3.385773000000000E-01     -1.665625000000000E+02
5420000000.000000      1.687546000000000E-01     -5.615429000000000E+01      3.319092000000000E-01      1.650469000000000E+02
5440000000.000000      1.810150000000000E-01     -5.925781000000000E+01      3.262329000000000E-01      1.358438000000000E+02
5460000000.000000      1.869736000000000E-01     -6.563671000000000E+01      3.151245000000000E-01      1.060508000000000E+02
5480000000.000000      1.817932000000000E-01     -7.276172000000000E+01      3.093567000000000E-01      7.657031000000000E+01
5500000000.000000      1.642532000000000E-01     -7.924609000000000E+01      3.119507000000000E-01      4.690820000000000E+01
5520000000.000000      1.406708000000000E-01     -8.271875000000000E+01      3.135681000000000E-01      1.640039000000000E+01
5540000000.000000      1.208839000000000E-01     -8.181250000000000E+01      3.187103000000000E-01     -1.318799000000000E+01
5560000000.000000      1.082764000000000E-01     -7.785156000000000E+01      3.252411000000000E-01     -4.211719000000000E+01
5580000000.000000      1.027298000000000E-01     -7.278906000000000E+01      3.324890000000000E-01     -7.057031000000000E+01
5600000000.000000      1.006317000000000E-01     -6.699609000000000E+01      3.373108000000000E-01     -9.855469000000000E+01
5620000000.000000      1.041908000000000E-01     -5.942968000000000E+01      3.395691000000000E-01     -1.260898000000000E+02
5640000000.000000      1.189957000000000E-01     -5.252539000000000E+01      3.374176000000000E-01     -1.536562000000000E+02
5660000000.000000      1.440201000000000E-01     -5.176952000000000E+01      3.313141000000000E-01      1.793594000000000E+02
5680000000.000000      1.716003000000000E-01     -5.758789000000000E+01      3.224792000000000E-01      1.513438000000000E+02
5700000000.000000      1.901703000000000E-01     -6.797265000000000E+01      3.092651000000000E-01      1.231133000000000E+02
5720000000.000000      1.927185000000000E-01     -8.034765000000000E+01      2.955170000000000E-01      9.539063000000000E+01
5740000000.000000      1.784592000000000E-01     -9.286327000000000E+01      2.898560000000000E-01      6.668750000000000E+01
5760000000.000000      1.500626000000000E-01     -1.024531000000000E+02      2.853546000000000E-01      3.566797000000000E+01
5780000000.000000      1.181374000000000E-01     -1.044805000000000E+02      2.818604000000000E-01      4.859863000000000E+00
5800000000.000000      9.915543000000000E-02     -9.604296000000000E+01      2.834778000000000E-01     -2.526660000000000E+01
5820000000.000000      1.026917000000000E-01     -8.746094000000000E+01      2.901611000000000E-01     -5.557226000000000E+01
5840000000.000000      1.141434000000000E-01     -8.925390000000000E+01      3.010101000000000E-01     -8.592188000000000E+01
5860000000.000000      1.178474000000000E-01     -9.757030000000000E+01      3.026581000000000E-01     -1.150156000000000E+02
5880000000.000000      1.086540000000000E-01     -1.076601000000000E+02      3.044739000000000E-01     -1.419375000000000E+02
5900000000.000000      9.029007000000000E-02     -1.147187000000000E+02      3.133087000000000E-01     -1.686797000000000E+02
5920000000.000000      7.110596000000000E-02     -1.136562000000000E+02      3.191528000000000E-01      1.634766000000000E+02
5940000000.000000      6.382370000000000E-02     -1.039766000000000E+02      3.123016000000000E-01      1.351641000000000E+02
5960000000.000000      6.218719000000000E-02     -1.001758000000000E+02      2.977753000000000E-01      1.077187000000000E+02
5980000000.000000      5.295944000000000E-02     -9.990234000000000E+01      2.873230000000000E-01      8.062109000000000E+01
6000000000.000000      3.314781000000000E-02     -8.706640000000000E+01      2.802277000000000E-01      5.150585000000000E+01
6020000000.000000      3.256035000000000E-02     -2.745117000000000E+01      2.682037000000000E-01      2.035351000000000E+01
6040000000.000000      6.794739000000000E-02     -1.308643000000000E+01      2.542114000000000E-01     -1.028906000000000E+01
6060000000.000000      1.039238000000000E-01     -2.158496000000000E+01      2.503662000000000E-01     -4.045898000000000E+01
6080000000.000000      1.310196000000000E-01     -3.586523000000000E+01      2.559662000000000E-01     -7.135156000000000E+01
