! Network Analyzer HP8722D
! Hewlett-Packard
! Data name: Linha & Wilkinson
! Saver's name: Rodrigo Anjos
! Comments: Teste da utilização de aquisição
continua pelo VNA HP8722D
! Time and date: 3/9/2025 18:02
!              Frequency                     S11                                                   S21                                                   S12                                                   S22
# HZ  S  MA R 50
3000000000.000000      7.595062000000000E-02      8.753124000000000E+01      4.547577000000000E-01      2.593652000000000E+01
3020000000.000000      9.284973000000000E-02      7.347265000000000E+01      4.553680000000000E-01     -2.870239000000000E+00
3040000000.000000      9.514999000000000E-02      5.691015000000000E+01      4.549408000000000E-01     -3.175390000000000E+01
3060000000.000000      8.423996000000000E-02      4.179883000000000E+01      4.535217000000000E-01     -6.039063000000000E+01
3080000000.000000      6.408691000000000E-02      3.042383000000000E+01      4.542542000000000E-01     -8.881639000000000E+01
3100000000.000000      4.556274000000000E-02      2.980566000000000E+01      4.533539000000000E-01     -1.171016000000000E+02
3120000000.000000      3.756905000000000E-02      4.281836000000000E+01      4.494019000000000E-01     -1.458516000000000E+02
3140000000.000000      3.728676000000000E-02      4.995703000000000E+01      4.459381000000000E-01     -1.745312000000000E+02
3160000000.000000      2.985954000000000E-02      5.033203000000000E+01      4.421234000000000E-01      1.573047000000000E+02
3180000000.000000      1.692867000000000E-02      9.526953000000000E+01      4.410248000000000E-01      1.285156000000000E+02
3200000000.000000      4.647064000000000E-02      1.436797000000000E+02      4.353180000000000E-01      9.897655000000000E+01
3220000000.000000      9.689713000000000E-02      1.372109000000000E+02      4.223938000000000E-01      6.979687000000000E+01
3240000000.000000      1.480484000000000E-01      1.219102000000000E+02      4.102478000000000E-01      4.243164000000000E+01
3260000000.000000      1.894836000000000E-01      1.051172000000000E+02      4.135742000000000E-01      1.505371000000000E+01
3280000000.000000      2.178955000000000E-01      8.775391000000000E+01      4.189606000000000E-01     -1.421387000000000E+01
3300000000.000000      2.290115000000000E-01      7.087109000000000E+01      4.141541000000000E-01     -4.279492000000000E+01
3320000000.000000      2.246704000000000E-01      5.545312000000000E+01      4.179230000000000E-01     -7.056250000000000E+01
3340000000.000000      2.090378000000000E-01      4.271874000000000E+01      4.219360000000000E-01     -9.922655000000000E+01
3360000000.000000      1.856842000000000E-01      3.324023000000000E+01      4.239655000000000E-01     -1.276172000000000E+02
3380000000.000000      1.625443000000000E-01      2.812891000000000E+01      4.288940000000000E-01     -1.559375000000000E+02
3400000000.000000      1.426849000000000E-01      2.606445000000000E+01      4.307709000000000E-01      1.754609000000000E+02
3420000000.000000      1.287918000000000E-01      2.575195000000000E+01      4.312592000000000E-01      1.469375000000000E+02
3440000000.000000      1.164322000000000E-01      2.546582000000000E+01      4.293518000000000E-01      1.178789000000000E+02
3460000000.000000      1.043320000000000E-01      2.631152000000000E+01      4.270020000000000E-01      8.965235000000000E+01
3480000000.000000      9.605026000000000E-02      2.903125000000000E+01      4.287415000000000E-01      6.088476000000000E+01
3500000000.000000      9.214020000000000E-02      3.312891000000000E+01      4.253082000000000E-01      3.178808000000000E+01
3520000000.000000      9.091949000000000E-02      3.677734000000000E+01      4.220428000000000E-01      3.584229000000000E+00
3540000000.000000      9.173965000000000E-02      4.033399000000000E+01      4.252167000000000E-01     -2.476758000000000E+01
3560000000.000000      9.409714000000000E-02      4.538086000000000E+01      4.258575000000000E-01     -5.399804000000000E+01
3580000000.000000      1.018486000000000E-01      5.054688000000000E+01      4.243164000000000E-01     -8.269140000000000E+01
3600000000.000000      1.151237000000000E-01      5.201172000000000E+01      4.233551000000000E-01     -1.109375000000000E+02
3620000000.000000      1.280518000000000E-01      4.900195000000000E+01      4.248657000000000E-01     -1.392500000000000E+02
3640000000.000000      1.340256000000000E-01      4.302148000000000E+01      4.252472000000000E-01     -1.674922000000000E+02
3660000000.000000      1.292496000000000E-01      3.603516000000000E+01      4.248199000000000E-01      1.647500000000000E+02
3680000000.000000      1.165314000000000E-01      3.261133000000000E+01      4.285736000000000E-01      1.369375000000000E+02
3700000000.000000      1.038475000000000E-01      3.590429000000000E+01      4.280396000000000E-01      1.085117000000000E+02
3720000000.000000      1.042595000000000E-01      4.480273000000000E+01      4.264679000000000E-01      8.004686000000000E+01
3740000000.000000      1.217270000000000E-01      4.892578000000000E+01      4.213104000000000E-01      5.152734000000000E+01
3760000000.000000      1.404419000000000E-01      4.573438000000000E+01      4.160767000000000E-01      2.341699000000000E+01
3780000000.000000      1.477127000000000E-01      3.828125000000000E+01      4.148560000000000E-01     -4.188721000000000E+00
3800000000.000000      1.413498000000000E-01      3.064062000000000E+01      4.167633000000000E-01     -3.270508000000000E+01
3820000000.000000      1.227722000000000E-01      2.739648000000000E+01      4.168854000000000E-01     -6.152344000000000E+01
3840000000.000000      1.087990000000000E-01      3.235742000000000E+01      4.153595000000000E-01     -9.038280000000000E+01
3860000000.000000      1.117897000000000E-01      4.074023000000000E+01      4.149780000000000E-01     -1.194609000000000E+02
3880000000.000000      1.305084000000000E-01      4.256249000000000E+01      4.135284000000000E-01     -1.485547000000000E+02
3900000000.000000      1.448898000000000E-01      3.692968000000000E+01      4.042816000000000E-01     -1.768203000000000E+02
3920000000.000000      1.439209000000000E-01      2.928223000000000E+01      4.057922000000000E-01      1.561797000000000E+02
3940000000.000000      1.262894000000000E-01      2.519531000000000E+01      4.149475000000000E-01      1.276172000000000E+02
3960000000.000000      1.081581000000000E-01      3.136523000000000E+01      4.132690000000000E-01      9.830078000000000E+01
3980000000.000000      1.141129000000000E-01      4.487695000000000E+01      4.052277000000000E-01      6.976171000000000E+01
4000000000.000000      1.451645000000000E-01      4.866992000000000E+01      3.992920000000000E-01      4.262109000000000E+01
4020000000.000000      1.779251000000000E-01      4.148633000000000E+01      4.041290000000000E-01      1.490820000000000E+01
4040000000.000000      1.970520000000000E-01      2.880566000000000E+01      4.042664000000000E-01     -1.531104000000000E+01
4060000000.000000      1.922455000000000E-01      1.472412000000000E+01      3.891144000000000E-01     -4.378320000000000E+01
4080000000.000000      1.645203000000000E-01      1.193359000000000E+00      3.894196000000000E-01     -7.066796000000000E+01
4100000000.000000      1.190987000000000E-01     -6.642822000000000E+00      4.000854000000000E-01     -9.938280000000000E+01
4120000000.000000      7.618332000000000E-02      3.023926000000000E+00      3.982239000000000E-01     -1.292734000000000E+02
4140000000.000000      7.235336000000000E-02      3.324414000000000E+01      3.938599000000000E-01     -1.581484000000000E+02
4160000000.000000      9.701157000000000E-02      4.300390000000000E+01      3.957367000000000E-01      1.740625000000000E+02
4180000000.000000      1.151199000000000E-01      3.995703000000000E+01      4.019165000000000E-01      1.452891000000000E+02
4200000000.000000      1.175537000000000E-01      3.605859000000000E+01      4.034729000000000E-01      1.152734000000000E+02
4220000000.000000      1.150017000000000E-01      3.805078000000000E+01      3.961792000000000E-01      8.611719000000000E+01
4240000000.000000      1.232643000000000E-01      4.483398000000000E+01      3.899841000000000E-01      5.769140000000000E+01
4260000000.000000      1.478043000000000E-01      4.696875000000000E+01      3.860474000000000E-01      2.957617000000000E+01
4280000000.000000      1.751404000000000E-01      4.238477000000000E+01      3.854065000000000E-01      1.288147000000000E+00
4300000000.000000      1.913223000000000E-01      3.421093000000000E+01      3.824768000000000E-01     -2.747070000000000E+01
4320000000.000000      1.914825000000000E-01      2.567773000000000E+01      3.795776000000000E-01     -5.620703000000000E+01
4340000000.000000      1.775513000000000E-01      1.949707000000000E+01      3.783264000000000E-01     -8.514452000000000E+01
4360000000.000000      1.635895000000000E-01      1.865723000000000E+01      3.770294000000000E-01     -1.145430000000000E+02
4380000000.000000      1.617050000000000E-01      2.127832000000000E+01      3.749237000000000E-01     -1.438437000000000E+02
4400000000.000000      1.723862000000000E-01      2.133203000000000E+01      3.724365000000000E-01     -1.729687000000000E+02
4420000000.000000      1.821136000000000E-01      1.741992000000000E+01      3.730469000000000E-01      1.584922000000000E+02
4440000000.000000      1.801682000000000E-01      1.149951000000000E+01      3.764343000000000E-01      1.285469000000000E+02
4460000000.000000      1.645813000000000E-01      8.159668000000000E+00      3.681793000000000E-01      9.903906000000000E+01
4480000000.000000      1.451950000000000E-01      1.173193000000000E+01      3.655548000000000E-01      7.082421000000000E+01
4500000000.000000      1.465378000000000E-01      2.059180000000000E+01      3.652954000000000E-01      4.203906000000000E+01
4520000000.000000      1.720734000000000E-01      2.519531000000000E+01      3.619843000000000E-01      1.250488000000000E+01
4540000000.000000      2.030334000000000E-01      2.122265000000000E+01      3.522644000000000E-01     -1.712695000000000E+01
4560000000.000000      2.236786000000000E-01      1.306104000000000E+01      3.447876000000000E-01     -4.514844000000000E+01
4580000000.000000      2.296524000000000E-01      3.957764000000000E+00      3.471222000000000E-01     -7.458984000000000E+01
4600000000.000000      2.219543000000000E-01     -3.305542000000000E+00      3.432159000000000E-01     -1.049336000000000E+02
4620000000.000000      2.095642000000000E-01     -7.671387000000000E+00      3.366547000000000E-01     -1.344922000000000E+02
4640000000.000000      2.030411000000000E-01     -1.003076000000000E+01      3.383179000000000E-01     -1.639375000000000E+02
4660000000.000000      2.028122000000000E-01     -1.284473000000000E+01      3.373718000000000E-01      1.670312000000000E+02
4680000000.000000      2.033920000000000E-01     -1.789746000000000E+01      3.421173000000000E-01      1.378047000000000E+02
4700000000.000000      1.975021000000000E-01     -2.477832000000000E+01      3.427277000000000E-01      1.083320000000000E+02
4720000000.000000      1.819611000000000E-01     -3.207031000000000E+01      3.396912000000000E-01      8.041016000000000E+01
4740000000.000000      1.613159000000000E-01     -3.859570000000000E+01      3.452148000000000E-01      5.276953000000000E+01
4760000000.000000      1.371689000000000E-01     -4.418750000000000E+01      3.471222000000000E-01      2.416016000000000E+01
4780000000.000000      1.117516000000000E-01     -4.890820000000000E+01      3.430634000000000E-01     -4.269775000000000E+00
4800000000.000000      8.082962000000000E-02     -5.366992000000000E+01      3.390198000000000E-01     -3.269531000000000E+01
4820000000.000000      3.818512000000000E-02     -5.091601000000000E+01      3.310394000000000E-01     -6.182422000000000E+01
4840000000.000000      3.052902000000000E-02      5.396289000000000E+01      3.240967000000000E-01     -9.063280000000000E+01
4860000000.000000      9.597015000000000E-02      6.218359000000000E+01      3.168488000000000E-01     -1.213789000000000E+02
4880000000.000000      1.657791000000000E-01      4.938086000000000E+01      2.968140000000000E-01     -1.525547000000000E+02
4900000000.000000      2.261734000000000E-01      3.391992000000000E+01      2.740784000000000E-01      1.796719000000000E+02
4920000000.000000      2.672272000000000E-01      1.736523000000000E+01      2.740784000000000E-01      1.540781000000000E+02
4940000000.000000      2.901764000000000E-01      1.536682000000000E+00      2.879639000000000E-01      1.255547000000000E+02
4960000000.000000      2.878418000000000E-01     -1.389111000000000E+01      2.916565000000000E-01      9.555079000000000E+01
4980000000.000000      2.633362000000000E-01     -2.751758000000000E+01      2.975311000000000E-01      6.841406000000000E+01
5000000000.000000      2.213440000000000E-01     -3.775781000000000E+01      3.123169000000000E-01      4.093946000000000E+01
5020000000.000000      1.740189000000000E-01     -4.085546000000000E+01      3.228455000000000E-01      1.301172000000000E+01
5040000000.000000      1.441650000000000E-01     -3.410547000000000E+01      3.306885000000000E-01     -1.407910000000000E+01
5060000000.000000      1.444016000000000E-01     -2.391406000000000E+01      3.392029000000000E-01     -4.126953000000000E+01
5080000000.000000      1.605301000000000E-01     -2.063379000000000E+01      3.448944000000000E-01     -6.940624000000000E+01
5100000000.000000      1.740646000000000E-01     -2.279395000000000E+01      3.393402000000000E-01     -9.787109000000000E+01
5120000000.000000      1.795883000000000E-01     -2.644433000000000E+01      3.329773000000000E-01     -1.252695000000000E+02
5140000000.000000      1.819611000000000E-01     -2.937793000000000E+01      3.307495000000000E-01     -1.534297000000000E+02
5160000000.000000      1.847458000000000E-01     -3.203711000000000E+01      3.271637000000000E-01      1.771875000000000E+02
5180000000.000000      1.890869000000000E-01     -3.559765000000000E+01      3.230743000000000E-01      1.475391000000000E+02
5200000000.000000      1.910858000000000E-01     -4.009766000000000E+01      3.216705000000000E-01      1.174726000000000E+02
5220000000.000000      1.867599000000000E-01     -4.466797000000000E+01      3.215179000000000E-01      8.758204000000000E+01
5240000000.000000      1.771622000000000E-01     -4.771680000000000E+01      3.262787000000000E-01      5.778906000000000E+01
5260000000.000000      1.682510000000000E-01     -4.819336000000000E+01      3.322144000000000E-01      2.823144000000000E+01
5280000000.000000      1.647568000000000E-01     -4.691602000000000E+01      3.380280000000000E-01     -9.681702000000000E-01
5300000000.000000      1.688843000000000E-01     -4.687500000000000E+01      3.407593000000000E-01     -2.908496000000000E+01
5320000000.000000      1.731720000000000E-01     -4.940624000000000E+01      3.452759000000000E-01     -5.614452000000000E+01
5340000000.000000      1.714859000000000E-01     -5.315624000000000E+01      3.498993000000000E-01     -8.382813000000000E+01
5360000000.000000      1.652679000000000E-01     -5.650391000000000E+01      3.444519000000000E-01     -1.111797000000000E+02
5380000000.000000      1.583099000000000E-01     -5.735742000000000E+01      3.401794000000000E-01     -1.375703000000000E+02
5400000000.000000      1.580276000000000E-01     -5.664453000000000E+01      3.384857000000000E-01     -1.649688000000000E+02
5420000000.000000      1.671295000000000E-01     -5.629687000000000E+01      3.320923000000000E-01      1.666797000000000E+02
5440000000.000000      1.791840000000000E-01     -5.925390000000000E+01      3.265076000000000E-01      1.377656000000000E+02
5460000000.000000      1.862946000000000E-01     -6.520702000000000E+01      3.149872000000000E-01      1.078555000000000E+02
5480000000.000000      1.810837000000000E-01     -7.262109000000000E+01      3.086853000000000E-01      7.839844000000000E+01
5500000000.000000      1.645126000000000E-01     -7.907031000000000E+01      3.109436000000000E-01      4.863281000000000E+01
5520000000.000000      1.413345000000000E-01     -8.266016000000000E+01      3.133240000000000E-01      1.820215000000000E+01
5540000000.000000      1.210022000000000E-01     -8.194139000000000E+01      3.171234000000000E-01     -1.144775000000000E+01
5560000000.000000      1.082802000000000E-01     -7.805078000000000E+01      3.240204000000000E-01     -4.044531000000000E+01
5580000000.000000      1.029320000000000E-01     -7.282421000000000E+01      3.310394000000000E-01     -6.899609000000000E+01
5600000000.000000      1.006622000000000E-01     -6.691406000000000E+01      3.367462000000000E-01     -9.674608000000000E+01
5620000000.000000      1.042786000000000E-01     -5.968554000000000E+01      3.386536000000000E-01     -1.244883000000000E+02
5640000000.000000      1.181335000000000E-01     -5.298633000000000E+01      3.367920000000000E-01     -1.518984000000000E+02
5660000000.000000      1.427994000000000E-01     -5.195703000000000E+01      3.305206000000000E-01     -1.790390000000000E+02
5680000000.000000      1.694794000000000E-01     -5.746484000000000E+01      3.224182000000000E-01      1.531641000000000E+02
5700000000.000000      1.893158000000000E-01     -6.752343000000000E+01      3.091431000000000E-01      1.248047000000000E+02
5720000000.000000      1.932983000000000E-01     -7.995312000000000E+01      2.949829000000000E-01      9.728125000000000E+01
5740000000.000000      1.797333000000000E-01     -9.226563000000000E+01      2.895050000000000E-01      6.858984000000000E+01
5760000000.000000      1.517410000000000E-01     -1.021914000000000E+02      2.852936000000000E-01      3.752344000000000E+01
5780000000.000000      1.193428000000000E-01     -1.051367000000000E+02      2.805023000000000E-01      6.856689000000000E+00
5800000000.000000      9.883881000000000E-02     -9.708593000000000E+01      2.819214000000000E-01     -2.352246000000000E+01
5820000000.000000      1.017647000000000E-01     -8.821093000000000E+01      2.892456000000000E-01     -5.368750000000000E+01
5840000000.000000      1.129875000000000E-01     -8.914454000000000E+01      2.989349000000000E-01     -8.412500000000000E+01
5860000000.000000      1.170921000000000E-01     -9.722656000000000E+01      3.017731000000000E-01     -1.132695000000000E+02
5880000000.000000      1.093292000000000E-01     -1.077109000000000E+02      3.032074000000000E-01     -1.402344000000000E+02
5900000000.000000      9.069824000000000E-02     -1.153945000000000E+02      3.131409000000000E-01     -1.669297000000000E+02
5920000000.000000      7.196808000000000E-02     -1.147812000000000E+02      3.184357000000000E-01      1.651875000000000E+02
5940000000.000000      6.296158000000000E-02     -1.055000000000000E+02      3.123016000000000E-01      1.369219000000000E+02
5960000000.000000      6.075859000000000E-02     -1.000430000000000E+02      2.983398000000000E-01      1.094336000000000E+02
5980000000.000000      5.276299000000000E-02     -9.929296000000000E+01      2.871399000000000E-01      8.258593000000000E+01
6000000000.000000      3.259850000000000E-02     -8.801952000000000E+01      2.807770000000000E-01      5.337891000000000E+01
6020000000.000000      3.130722000000000E-02     -2.867480000000000E+01      2.683716000000000E-01      2.241211000000000E+01
6040000000.000000      6.570053000000000E-02     -1.237207000000000E+01      2.543030000000000E-01     -8.012207000000000E+00
6060000000.000000      1.023560000000000E-01     -2.078125000000000E+01      2.498703000000000E-01     -3.834570000000000E+01
6080000000.000000      1.301346000000000E-01     -3.503320000000000E+01      2.551880000000000E-01     -6.924609000000000E+01
