! Network Analyzer HP8722D
! Hewlett-Packard
! Data name: Linha & Wilkinson
! Saver's name: Rodrigo Anjos
! Comments: Teste da utilização de aquisição
continua pelo VNA HP8722D
! Time and date: 3/9/2025 17:44
!              Frequency                     S11                                                   S21                                                   S12                                                   S22
# HZ  S  MA R 50
3000000000.000000      7.617950000000000E-02      8.724609000000000E+01      4.543457000000000E-01      2.556347000000000E+01
3020000000.000000      9.306335000000000E-02      7.285156000000000E+01      4.556885000000000E-01     -3.381104000000000E+00
3040000000.000000      9.522247000000000E-02      5.651757000000000E+01      4.554901000000000E-01     -3.233398000000000E+01
3060000000.000000      8.374405000000000E-02      4.137891000000000E+01      4.538879000000000E-01     -6.083789000000000E+01
3080000000.000000      6.383896000000000E-02      3.016406000000000E+01      4.534302000000000E-01     -8.942186000000000E+01
3100000000.000000      4.556274000000000E-02      3.003027000000000E+01      4.524231000000000E-01     -1.178516000000000E+02
3120000000.000000      3.838348000000000E-02      4.306054000000000E+01      4.500732000000000E-01     -1.464609000000000E+02
3140000000.000000      3.779030000000000E-02      4.864452000000000E+01      4.456482000000000E-01     -1.750078000000000E+02
3160000000.000000      2.993965000000000E-02      4.879687000000000E+01      4.423981000000000E-01      1.566641000000000E+02
3180000000.000000      1.640415000000000E-02      9.529297000000000E+01      4.414673000000000E-01      1.279140000000000E+02
3200000000.000000      4.631615000000000E-02      1.441328000000000E+02      4.340668000000000E-01      9.851952000000000E+01
3220000000.000000      9.686661000000000E-02      1.372422000000000E+02      4.218903000000000E-01      6.933203000000000E+01
3240000000.000000      1.482010000000000E-01      1.217734000000000E+02      4.104767000000000E-01      4.180078000000000E+01
3260000000.000000      1.907578000000000E-01      1.046797000000000E+02      4.142609000000000E-01      1.438623000000000E+01
3280000000.000000      2.178040000000000E-01      8.741405000000000E+01      4.194641000000000E-01     -1.480273000000000E+01
3300000000.000000      2.290192000000000E-01      7.058594000000000E+01      4.134064000000000E-01     -4.341992000000000E+01
3320000000.000000      2.242203000000000E-01      5.522265000000000E+01      4.175415000000000E-01     -7.101563000000000E+01
3340000000.000000      2.085190000000000E-01      4.238867000000000E+01      4.223785000000000E-01     -9.974609000000000E+01
3360000000.000000      1.849289000000000E-01      3.311523000000000E+01      4.233551000000000E-01     -1.281797000000000E+02
3380000000.000000      1.610413000000000E-01      2.816113000000000E+01      4.289703000000000E-01     -1.565703000000000E+02
3400000000.000000      1.424561000000000E-01      2.623535000000000E+01      4.300690000000000E-01      1.748594000000000E+02
3420000000.000000      1.283951000000000E-01      2.583008000000000E+01      4.322052000000000E-01      1.462891000000000E+02
3440000000.000000      1.161575000000000E-01      2.541211000000000E+01      4.305267000000000E-01      1.173867000000000E+02
3460000000.000000      1.043205000000000E-01      2.657422000000000E+01      4.276581000000000E-01      8.894922000000000E+01
3480000000.000000      9.623337000000000E-02      2.916992000000000E+01      4.284973000000000E-01      6.029491000000000E+01
3500000000.000000      9.243011000000000E-02      3.311914000000000E+01      4.245453000000000E-01      3.109375000000000E+01
3520000000.000000      9.110260000000000E-02      3.648046000000000E+01      4.224854000000000E-01      3.025269000000000E+00
3540000000.000000      9.208298000000000E-02      3.990234000000000E+01      4.252014000000000E-01     -2.555371000000000E+01
3560000000.000000      9.412766000000000E-02      4.516992000000000E+01      4.250946000000000E-01     -5.463281000000000E+01
3580000000.000000      1.015701000000000E-01      5.021679000000000E+01      4.250183000000000E-01     -8.352734000000000E+01
3600000000.000000      1.152802000000000E-01      5.167187000000000E+01      4.248047000000000E-01     -1.116211000000000E+02
3620000000.000000      1.280594000000000E-01      4.867188000000000E+01      4.258728000000000E-01     -1.400000000000000E+02
3640000000.000000      1.336136000000000E-01      4.236914000000000E+01      4.255371000000000E-01     -1.681484000000000E+02
3660000000.000000      1.288681000000000E-01      3.558594000000000E+01      4.245911000000000E-01      1.640000000000000E+02
3680000000.000000      1.164932000000000E-01      3.251562000000000E+01      4.281006000000000E-01      1.363437000000000E+02
3700000000.000000      1.035461000000000E-01      3.568359000000000E+01      4.295502000000000E-01      1.078164000000000E+02
3720000000.000000      1.042938000000000E-01      4.475390000000000E+01      4.283142000000000E-01      7.916016000000000E+01
3740000000.000000      1.216393000000000E-01      4.865624000000000E+01      4.223480000000000E-01      5.083202000000000E+01
3760000000.000000      1.403580000000000E-01      4.541406000000000E+01      4.164124000000000E-01      2.302441000000000E+01
3780000000.000000      1.482010000000000E-01      3.788086000000000E+01      4.161072000000000E-01     -4.810791000000000E+00
3800000000.000000      1.411972000000000E-01      3.048340000000000E+01      4.170837000000000E-01     -3.339062000000000E+01
3820000000.000000      1.227951000000000E-01      2.707422000000000E+01      4.169464000000000E-01     -6.216797000000000E+01
3840000000.000000      1.087723000000000E-01      3.232422000000000E+01      4.170990000000000E-01     -9.121485000000000E+01
3860000000.000000      1.125450000000000E-01      4.072851000000000E+01      4.146881000000000E-01     -1.200195000000000E+02
3880000000.000000      1.308060000000000E-01      4.236718000000000E+01      4.115143000000000E-01     -1.491797000000000E+02
3900000000.000000      1.451797000000000E-01      3.679296000000000E+01      4.047241000000000E-01     -1.772812000000000E+02
3920000000.000000      1.434555000000000E-01      2.895996000000000E+01      4.055939000000000E-01      1.554609000000000E+02
3940000000.000000      1.250534000000000E-01      2.475000000000000E+01      4.142761000000000E-01      1.268594000000000E+02
3960000000.000000      1.074181000000000E-01      3.156738000000000E+01      4.138336000000000E-01      9.791016000000000E+01
3980000000.000000      1.140671000000000E-01      4.508789000000000E+01      4.047852000000000E-01      6.902734000000000E+01
4000000000.000000      1.459656000000000E-01      4.853710000000000E+01      3.991699000000000E-01      4.192383000000000E+01
4020000000.000000      1.787415000000000E-01      4.113281000000000E+01      4.040985000000000E-01      1.430957000000000E+01
4040000000.000000      1.976318000000000E-01      2.838574000000000E+01      4.050446000000000E-01     -1.584131000000000E+01
4060000000.000000      1.920013000000000E-01      1.451416000000000E+01      3.906250000000000E-01     -4.447461000000000E+01
4080000000.000000      1.637497000000000E-01      1.097229000000000E+00      3.899536000000000E-01     -7.149609000000000E+01
4100000000.000000      1.179695000000000E-01     -7.017578000000000E+00      3.989410000000000E-01     -1.000859000000000E+02
4120000000.000000      7.550812000000000E-02      3.277954000000000E+00      3.990936000000000E-01     -1.301250000000000E+02
4140000000.000000      7.300949000000000E-02      3.345117000000000E+01      3.941193000000000E-01     -1.588125000000000E+02
4160000000.000000      9.750366000000000E-02      4.312109000000000E+01      3.946228000000000E-01      1.731641000000000E+02
4180000000.000000      1.156197000000000E-01      3.963281000000000E+01      4.027863000000000E-01      1.445000000000000E+02
4200000000.000000      1.171913000000000E-01      3.599218000000000E+01      4.040985000000000E-01      1.144414000000000E+02
4220000000.000000      1.144218000000000E-01      3.829102000000000E+01      3.950195000000000E-01      8.539454000000000E+01
4240000000.000000      1.230392000000000E-01      4.474414000000000E+01      3.898621000000000E-01      5.697266000000000E+01
4260000000.000000      1.485672000000000E-01      4.697266000000000E+01      3.870697000000000E-01      2.901269000000000E+01
4280000000.000000      1.751862000000000E-01      4.221484000000000E+01      3.854218000000000E-01      5.699158000000000E-01
4300000000.000000      1.907959000000000E-01      3.383789000000000E+01      3.825378000000000E-01     -2.831055000000000E+01
4320000000.000000      1.910934000000000E-01      2.561132000000000E+01      3.795776000000000E-01     -5.716601000000000E+01
4340000000.000000      1.766205000000000E-01      1.964062000000000E+01      3.782043000000000E-01     -8.607422000000000E+01
4360000000.000000      1.634445000000000E-01      1.870508000000000E+01      3.762360000000000E-01     -1.152305000000000E+02
4380000000.000000      1.619949000000000E-01      2.135742000000000E+01      3.745422000000000E-01     -1.446563000000000E+02
4400000000.000000      1.725235000000000E-01      2.139160000000000E+01      3.715820000000000E-01     -1.739453000000000E+02
4420000000.000000      1.823730000000000E-01      1.732910000000000E+01      3.737183000000000E-01      1.575156000000000E+02
4440000000.000000      1.799545000000000E-01      1.130078000000000E+01      3.766632000000000E-01      1.279375000000000E+02
4460000000.000000      1.636200000000000E-01      8.224609000000000E+00      3.678741000000000E-01      9.824219000000000E+01
4480000000.000000      1.447906000000000E-01      1.164795000000000E+01      3.654938000000000E-01      7.016406000000000E+01
4500000000.000000      1.471863000000000E-01      2.075684000000000E+01      3.667603000000000E-01      4.124804000000000E+01
4520000000.000000      1.723938000000000E-01      2.509277000000000E+01      3.608093000000000E-01      1.165479000000000E+01
4540000000.000000      2.033157000000000E-01      2.090137000000000E+01      3.524323000000000E-01     -1.775879000000000E+01
4560000000.000000      2.235794000000000E-01      1.264893000000000E+01      3.460236000000000E-01     -4.592773000000000E+01
4580000000.000000      2.293091000000000E-01      3.692749000000000E+00      3.462677000000000E-01     -7.525781000000000E+01
4600000000.000000      2.210617000000000E-01     -3.561035000000000E+00      3.431702000000000E-01     -1.057851000000000E+02
4620000000.000000      2.092743000000000E-01     -7.797607000000000E+00      3.381958000000000E-01     -1.355000000000000E+02
4640000000.000000      2.025070000000000E-01     -1.007080000000000E+01      3.370361000000000E-01     -1.648828000000000E+02
4660000000.000000      2.026520000000000E-01     -1.293945000000000E+01      3.379364000000000E-01      1.662266000000000E+02
4680000000.000000      2.033691000000000E-01     -1.810156000000000E+01      3.424377000000000E-01      1.370391000000000E+02
4700000000.000000      1.969147000000000E-01     -2.500391000000000E+01      3.420258000000000E-01      1.073398000000000E+02
4720000000.000000      1.815643000000000E-01     -3.232617000000000E+01      3.391571000000000E-01      7.961719000000000E+01
4740000000.000000      1.610336000000000E-01     -3.878320000000000E+01      3.461151000000000E-01      5.202929000000000E+01
4760000000.000000      1.370010000000000E-01     -4.418164000000000E+01      3.465576000000000E-01      2.335644000000000E+01
4780000000.000000      1.118584000000000E-01     -4.893945000000000E+01      3.434906000000000E-01     -5.063477000000000E+00
4800000000.000000      8.016968000000000E-02     -5.395117000000000E+01      3.387604000000000E-01     -3.356054000000000E+01
4820000000.000000      3.734016000000000E-02     -5.045898000000000E+01      3.305359000000000E-01     -6.248632000000000E+01
4840000000.000000      3.225517000000000E-02      5.529882000000000E+01      3.234100000000000E-01     -9.159765000000000E+01
4860000000.000000      9.777451000000000E-02      6.201366000000000E+01      3.163147000000000E-01     -1.223047000000000E+02
4880000000.000000      1.674042000000000E-01      4.894921000000000E+01      2.965851000000000E-01     -1.535234000000000E+02
4900000000.000000      2.266312000000000E-01      3.325781000000000E+01      2.741852000000000E-01      1.788047000000000E+02
4920000000.000000      2.695770000000000E-01      1.661133000000000E+01      2.742920000000000E-01      1.531953000000000E+02
4940000000.000000      2.897034000000000E-01      9.599304000000000E-01      2.873230000000000E-01      1.246484000000000E+02
4960000000.000000      2.877655000000000E-01     -1.453809000000000E+01      2.922974000000000E-01      9.478125000000000E+01
4980000000.000000      2.625275000000000E-01     -2.800976000000000E+01      2.981873000000000E-01      6.767968000000000E+01
5000000000.000000      2.194061000000000E-01     -3.826562000000000E+01      3.134308000000000E-01      4.026172000000000E+01
5020000000.000000      1.731262000000000E-01     -4.102539000000000E+01      3.232269000000000E-01      1.221924000000000E+01
5040000000.000000      1.434631000000000E-01     -3.394531000000000E+01      3.309937000000000E-01     -1.493896000000000E+01
5060000000.000000      1.446762000000000E-01     -2.383301000000000E+01      3.400269000000000E-01     -4.212500000000000E+01
5080000000.000000      1.606369000000000E-01     -2.080176000000000E+01      3.444214000000000E-01     -7.016406000000000E+01
5100000000.000000      1.736069000000000E-01     -2.283008000000000E+01      3.382416000000000E-01     -9.877733000000000E+01
5120000000.000000      1.792297000000000E-01     -2.654101000000000E+01      3.323669000000000E-01     -1.261484000000000E+02
5140000000.000000      1.813049000000000E-01     -2.957422000000000E+01      3.302917000000000E-01     -1.543750000000000E+02
5160000000.000000      1.845703000000000E-01     -3.219531000000000E+01      3.275299000000000E-01      1.762578000000000E+02
5180000000.000000      1.890945000000000E-01     -3.557812000000000E+01      3.224182000000000E-01      1.466406000000000E+02
5200000000.000000      1.910858000000000E-01     -4.023828000000000E+01      3.213959000000000E-01      1.164375000000000E+02
5220000000.000000      1.859207000000000E-01     -4.481054000000000E+01      3.219299000000000E-01      8.657030000000000E+01
5240000000.000000      1.768494000000000E-01     -4.784961000000000E+01      3.264008000000000E-01      5.680273000000000E+01
5260000000.000000      1.683807000000000E-01     -4.798828000000000E+01      3.324890000000000E-01      2.702637000000000E+01
5280000000.000000      1.648102000000000E-01     -4.668554000000000E+01      3.372803000000000E-01     -1.917114000000000E+00
5300000000.000000      1.693039000000000E-01     -4.682813000000000E+01      3.407898000000000E-01     -3.006348000000000E+01
5320000000.000000      1.733551000000000E-01     -4.946289000000000E+01      3.453217000000000E-01     -5.703711000000000E+01
5340000000.000000      1.717682000000000E-01     -5.322656000000000E+01      3.503265000000000E-01     -8.465624000000000E+01
5360000000.000000      1.653519000000000E-01     -5.638281000000000E+01      3.446960000000000E-01     -1.121094000000000E+02
5380000000.000000      1.586838000000000E-01     -5.736523000000000E+01      3.394623000000000E-01     -1.384531000000000E+02
5400000000.000000      1.585541000000000E-01     -5.651953000000000E+01      3.379364000000000E-01     -1.659688000000000E+02
5420000000.000000      1.685486000000000E-01     -5.627343000000000E+01      3.310394000000000E-01      1.657812000000000E+02
5440000000.000000      1.798935000000000E-01     -5.940430000000000E+01      3.252411000000000E-01      1.368125000000000E+02
5460000000.000000      1.864548000000000E-01     -6.544922000000000E+01      3.151855000000000E-01      1.068906000000000E+02
5480000000.000000      1.809311000000000E-01     -7.277344000000000E+01      3.088684000000000E-01      7.735937000000000E+01
5500000000.000000      1.637039000000000E-01     -7.924609000000000E+01      3.105469000000000E-01      4.754687000000000E+01
5520000000.000000      1.407394000000000E-01     -8.292969000000000E+01      3.134460000000000E-01      1.711914000000000E+01
5540000000.000000      1.207237000000000E-01     -8.194921000000000E+01      3.180695000000000E-01     -1.253174000000000E+01
5560000000.000000      1.085701000000000E-01     -7.802734000000000E+01      3.243256000000000E-01     -4.143945000000000E+01
5580000000.000000      1.029930000000000E-01     -7.296093000000000E+01      3.312073000000000E-01     -6.983984000000000E+01
5600000000.000000      1.006660000000000E-01     -6.702734000000000E+01      3.369598000000000E-01     -9.781639000000000E+01
5620000000.000000      1.037483000000000E-01     -5.943749000000000E+01      3.389282000000000E-01     -1.253672000000000E+02
5640000000.000000      1.181221000000000E-01     -5.271874000000000E+01      3.364410000000000E-01     -1.529219000000000E+02
5660000000.000000      1.429443000000000E-01     -5.208398000000000E+01      3.305664000000000E-01      1.799062000000000E+02
5680000000.000000      1.703720000000000E-01     -5.756640000000000E+01      3.229675000000000E-01      1.521172000000000E+02
5700000000.000000      1.892395000000000E-01     -6.802734000000000E+01      3.091583000000000E-01      1.238125000000000E+02
5720000000.000000      1.931763000000000E-01     -8.035547000000000E+01      2.950134000000000E-01      9.616014000000000E+01
5740000000.000000      1.790390000000000E-01     -9.275782000000000E+01      2.893524000000000E-01      6.740624000000000E+01
5760000000.000000      1.506119000000000E-01     -1.024141000000000E+02      2.850952000000000E-01      3.641406000000000E+01
5780000000.000000      1.183510000000000E-01     -1.047656000000000E+02      2.808990000000000E-01      5.822754000000000E+00
5800000000.000000      9.789658000000000E-02     -9.637108000000000E+01      2.825165000000000E-01     -2.454980000000000E+01
5820000000.000000      1.016693000000000E-01     -8.789843000000000E+01      2.896576000000000E-01     -5.487499000000000E+01
5840000000.000000      1.132545000000000E-01     -8.912500000000000E+01      2.992859000000000E-01     -8.523438000000000E+01
5860000000.000000      1.169205000000000E-01     -9.763672000000000E+01      3.011169000000000E-01     -1.143086000000000E+02
5880000000.000000      1.090813000000000E-01     -1.080820000000000E+02      3.036804000000000E-01     -1.414063000000000E+02
5900000000.000000      9.040070000000000E-02     -1.152383000000000E+02      3.141174000000000E-01     -1.679297000000000E+02
5920000000.000000      7.192230000000000E-02     -1.143320000000000E+02      3.183136000000000E-01      1.641641000000000E+02
5940000000.000000      6.383133000000000E-02     -1.053047000000000E+02      3.123627000000000E-01      1.358516000000000E+02
5960000000.000000      6.180763000000000E-02     -1.002344000000000E+02      2.974396000000000E-01      1.084101000000000E+02
5980000000.000000      5.226517000000000E-02     -1.003359000000000E+02      2.873077000000000E-01      8.141405000000000E+01
6000000000.000000      3.257942000000000E-02     -8.789454000000000E+01      2.806549000000000E-01      5.221289000000000E+01
6020000000.000000      3.144646000000000E-02     -2.829199000000000E+01      2.676392000000000E-01      2.119922000000000E+01
6040000000.000000      6.656647000000000E-02     -1.232959000000000E+01      2.537231000000000E-01     -9.169922000000000E+00
6060000000.000000      1.026230000000000E-01     -2.120117000000000E+01      2.486191000000000E-01     -3.950195000000000E+01
6080000000.000000      1.296082000000000E-01     -3.555664000000000E+01      2.551270000000000E-01     -7.040234000000000E+01
