! Network Analyzer HP8722D
! Hewlett-Packard
! Data name: Linha & Wilkinson
! Saver's name: Rodrigo Anjos
! Comments: Teste da utilização de aquisição
continua pelo VNA HP8722D
! Time and date: 6/5/2025 13:33
!              Frequency                     S11                                                   S21                                                   S12                                                   S22
# HZ  S  MA R 50
4800000000.000000      9.060059000000000E-01      1.158320000000000E+02      3.201904000000000E-01     -1.705078000000000E+02      2.570953000000000E-01     -8.616405000000000E+01      9.860840000000000E-01     -4.754687000000000E+01
4801000000.000000      9.050598000000000E-01      1.160469000000000E+02      3.198853000000000E-01     -1.704219000000000E+02      2.567444000000000E-01     -8.619532000000000E+01      9.801331000000000E-01     -4.766015000000000E+01
4802000000.000000      9.000549000000000E-01      1.164570000000000E+02      3.201599000000000E-01     -1.702734000000000E+02      2.576752000000000E-01     -8.583593000000000E+01      9.761963000000000E-01     -4.752149000000000E+01
4803000000.000000      9.005432000000000E-01      1.164922000000000E+02      3.210754000000000E-01     -1.702422000000000E+02      2.566681000000000E-01     -8.579687000000000E+01      9.689636000000000E-01     -4.775586000000000E+01
4804000000.000000      8.991699000000000E-01      1.168125000000000E+02      3.209381000000000E-01     -1.700938000000000E+02      2.570496000000000E-01     -8.567968000000000E+01      9.655762000000000E-01     -4.771680000000000E+01
4805000000.000000      8.984375000000000E-01      1.170078000000000E+02      3.212891000000000E-01     -1.702422000000000E+02      2.570038000000000E-01     -8.532421000000000E+01      9.585266000000000E-01     -4.790625000000000E+01
4806000000.000000      8.952332000000000E-01      1.172461000000000E+02      3.218994000000000E-01     -1.701250000000000E+02      2.557831000000000E-01     -8.509766000000000E+01      9.523010000000000E-01     -4.811913000000000E+01
4807000000.000000      8.942871000000000E-01      1.174648000000000E+02      3.225250000000000E-01     -1.702891000000000E+02      2.565918000000000E-01     -8.496485000000000E+01      9.475098000000000E-01     -4.798437000000000E+01
4808000000.000000      8.923340000000000E-01      1.177656000000000E+02      3.234711000000000E-01     -1.700703000000000E+02      2.563477000000000E-01     -8.477343000000000E+01      9.426270000000000E-01     -4.801758000000000E+01
4809000000.000000      8.888245000000000E-01      1.179922000000000E+02      3.231354000000000E-01     -1.701719000000000E+02      2.570801000000000E-01     -8.460546000000000E+01      9.369507000000000E-01     -4.808594000000000E+01
4810000000.000000      8.865662000000000E-01      1.183047000000000E+02      3.240356000000000E-01     -1.701250000000000E+02      2.564697000000000E-01     -8.435938000000000E+01      9.320679000000000E-01     -4.831836000000000E+01
4811000000.000000      8.840027000000000E-01      1.184219000000000E+02      3.246460000000000E-01     -1.701250000000000E+02      2.575836000000000E-01     -8.403124000000000E+01      9.266357000000000E-01     -4.815430000000000E+01
4812000000.000000      8.840027000000000E-01      1.188320000000000E+02      3.244324000000000E-01     -1.702500000000000E+02      2.569427000000000E-01     -8.384375000000000E+01      9.194641000000000E-01     -4.826172000000000E+01
4813000000.000000      8.801880000000000E-01      1.191250000000000E+02      3.253326000000000E-01     -1.701953000000000E+02      2.566223000000000E-01     -8.355860000000000E+01      9.161682000000000E-01     -4.832421000000000E+01
4814000000.000000      8.763428000000000E-01      1.191562000000000E+02      3.255005000000000E-01     -1.701562000000000E+02      2.567139000000000E-01     -8.326563000000000E+01      9.109802000000000E-01     -4.842578000000000E+01
4815000000.000000      8.730469000000000E-01      1.194062000000000E+02      3.261261000000000E-01     -1.703047000000000E+02      2.565308000000000E-01     -8.299999000000000E+01      9.050903000000000E-01     -4.829296000000000E+01
4816000000.000000      8.729553000000000E-01      1.198438000000000E+02      3.277740000000000E-01     -1.701484000000000E+02      2.573853000000000E-01     -8.281641000000000E+01      9.007874000000000E-01     -4.853710000000000E+01
4817000000.000000      8.680420000000000E-01      1.200820000000000E+02      3.279877000000000E-01     -1.703359000000000E+02      2.568359000000000E-01     -8.245312000000000E+01      8.942566000000000E-01     -4.863281000000000E+01
4818000000.000000      8.658142000000000E-01      1.202500000000000E+02      3.280945000000000E-01     -1.703828000000000E+02      2.567749000000000E-01     -8.202734000000000E+01      8.874207000000000E-01     -4.858788000000000E+01
4819000000.000000      8.658447000000000E-01      1.204414000000000E+02      3.285370000000000E-01     -1.705078000000000E+02      2.559814000000000E-01     -8.193359000000000E+01      8.820190000000000E-01     -4.876953000000000E+01
4820000000.000000      8.563232000000000E-01      1.205508000000000E+02      3.290863000000000E-01     -1.705156000000000E+02      2.567139000000000E-01     -8.151171000000000E+01      8.784790000000000E-01     -4.881445000000000E+01
4821000000.000000      8.565674000000000E-01      1.207031000000000E+02      3.310394000000000E-01     -1.705312000000000E+02      2.568817000000000E-01     -8.136719000000000E+01      8.727112000000000E-01     -4.874804000000000E+01
4822000000.000000      8.546143000000000E-01      1.208242000000000E+02      3.309479000000000E-01     -1.708359000000000E+02      2.555389000000000E-01     -8.105078000000000E+01      8.683777000000000E-01     -4.891796000000000E+01
4823000000.000000      8.490906000000000E-01      1.210898000000000E+02      3.316803000000000E-01     -1.707813000000000E+02      2.558746000000000E-01     -8.057032000000000E+01      8.619690000000000E-01     -4.897851000000000E+01
4824000000.000000      8.456726000000000E-01      1.212226000000000E+02      3.321686000000000E-01     -1.710625000000000E+02      2.563934000000000E-01     -8.033203000000000E+01      8.575134000000000E-01     -4.898438000000000E+01
4825000000.000000      8.422852000000000E-01      1.213437000000000E+02      3.327026000000000E-01     -1.711797000000000E+02      2.564545000000000E-01     -8.002344000000000E+01      8.540955000000000E-01     -4.909374000000000E+01
4826000000.000000      8.414307000000000E-01      1.216484000000000E+02      3.340607000000000E-01     -1.713516000000000E+02      2.559204000000000E-01     -7.976953000000000E+01      8.481750000000000E-01     -4.914844000000000E+01
4827000000.000000      8.351135000000000E-01      1.217422000000000E+02      3.341522000000000E-01     -1.713438000000000E+02      2.558594000000000E-01     -7.946484000000000E+01      8.428040000000000E-01     -4.916406000000000E+01
4828000000.000000      8.313293000000000E-01      1.218086000000000E+02      3.348694000000000E-01     -1.715547000000000E+02      2.553558000000000E-01     -7.913280000000000E+01      8.388367000000000E-01     -4.941992000000000E+01
4829000000.000000      8.262329000000000E-01      1.219765000000000E+02      3.342896000000000E-01     -1.717187000000000E+02      2.566681000000000E-01     -7.879296000000000E+01      8.363953000000000E-01     -4.942773000000000E+01
4830000000.000000      8.236389000000000E-01      1.222031000000000E+02      3.350372000000000E-01     -1.719297000000000E+02      2.561646000000000E-01     -7.833593000000000E+01      8.292236000000000E-01     -4.943945000000000E+01
4831000000.000000      8.182373000000000E-01      1.222305000000000E+02      3.355103000000000E-01     -1.720547000000000E+02      2.564697000000000E-01     -7.795312000000000E+01      8.259888000000000E-01     -4.946875000000000E+01
4832000000.000000      8.143311000000000E-01      1.222266000000000E+02      3.365021000000000E-01     -1.723828000000000E+02      2.560883000000000E-01     -7.765234000000000E+01      8.203125000000000E-01     -4.951757000000000E+01
4833000000.000000      8.081055000000000E-01      1.222461000000000E+02      3.366241000000000E-01     -1.724609000000000E+02      2.559967000000000E-01     -7.735156000000000E+01      8.162842000000000E-01     -4.969531000000000E+01
4834000000.000000      8.033142000000000E-01      1.225469000000000E+02      3.366547000000000E-01     -1.726484000000000E+02      2.562256000000000E-01     -7.696484000000000E+01      8.123169000000000E-01     -4.965429000000000E+01
4835000000.000000      8.005676000000000E-01      1.225117000000000E+02      3.373260000000000E-01     -1.729922000000000E+02      2.565918000000000E-01     -7.659374000000000E+01      8.076782000000000E-01     -4.976757000000000E+01
4836000000.000000      7.960815000000000E-01      1.226601000000000E+02      3.370209000000000E-01     -1.730859000000000E+02      2.565918000000000E-01     -7.621094000000000E+01      8.049316000000000E-01     -4.976757000000000E+01
4837000000.000000      7.918396000000000E-01      1.228242000000000E+02      3.374176000000000E-01     -1.735469000000000E+02      2.568512000000000E-01     -7.598046000000000E+01      8.004456000000000E-01     -4.981445000000000E+01
4838000000.000000      7.851563000000000E-01      1.225703000000000E+02      3.376007000000000E-01     -1.735781000000000E+02      2.572784000000000E-01     -7.553905000000000E+01      7.966614000000000E-01     -4.991992000000000E+01
4839000000.000000      7.811279000000000E-01      1.228281000000000E+02      3.369293000000000E-01     -1.737344000000000E+02      2.571564000000000E-01     -7.532031000000000E+01      7.929382000000000E-01     -5.007226000000000E+01
4840000000.000000      7.739868000000000E-01      1.228086000000000E+02      3.376312000000000E-01     -1.739063000000000E+02      2.577362000000000E-01     -7.496484000000000E+01      7.887878000000000E-01     -5.010351000000000E+01
4841000000.000000      7.699280000000000E-01      1.227695000000000E+02      3.372498000000000E-01     -1.745078000000000E+02      2.580109000000000E-01     -7.462891000000000E+01      7.866821000000000E-01     -5.012890000000000E+01
4842000000.000000      7.648926000000000E-01      1.227578000000000E+02      3.375854000000000E-01     -1.745078000000000E+02      2.575836000000000E-01     -7.428124000000000E+01      7.843018000000000E-01     -5.020117000000000E+01
4843000000.000000      7.589722000000000E-01      1.227851000000000E+02      3.374786000000000E-01     -1.748828000000000E+02      2.580566000000000E-01     -7.392578000000000E+01      7.790222000000000E-01     -5.027148000000000E+01
4844000000.000000      7.545166000000000E-01      1.227031000000000E+02      3.368988000000000E-01     -1.750859000000000E+02      2.581940000000000E-01     -7.351171000000000E+01      7.760010000000000E-01     -5.028906000000000E+01
4845000000.000000      7.488403000000000E-01      1.226406000000000E+02      3.362274000000000E-01     -1.751562000000000E+02      2.587280000000000E-01     -7.327343000000000E+01      7.715759000000000E-01     -5.034374000000000E+01
4846000000.000000      7.420959000000000E-01      1.226367000000000E+02      3.362274000000000E-01     -1.754609000000000E+02      2.591553000000000E-01     -7.292969000000000E+01      7.691956000000000E-01     -5.042382000000000E+01
4847000000.000000      7.372131000000000E-01      1.225234000000000E+02      3.362732000000000E-01     -1.756719000000000E+02      2.592163000000000E-01     -7.256640000000000E+01      7.664490000000000E-01     -5.058007000000000E+01
4848000000.000000      7.320251000000000E-01      1.223555000000000E+02      3.347015000000000E-01     -1.759219000000000E+02      2.593231000000000E-01     -7.220312000000000E+01      7.623291000000000E-01     -5.058788000000000E+01
4849000000.000000      7.257080000000000E-01      1.221211000000000E+02      3.345490000000000E-01     -1.763359000000000E+02      2.596588000000000E-01     -7.189062000000000E+01      7.583923000000000E-01     -5.054882000000000E+01
4850000000.000000      7.227478000000000E-01      1.220430000000000E+02      3.337860000000000E-01     -1.764141000000000E+02      2.597961000000000E-01     -7.162109000000000E+01      7.560730000000000E-01     -5.061132000000000E+01
4851000000.000000      7.147217000000000E-01      1.220742000000000E+02      3.338623000000000E-01     -1.767812000000000E+02      2.604828000000000E-01     -7.141406000000000E+01      7.539063000000000E-01     -5.074804000000000E+01
4852000000.000000      7.074585000000000E-01      1.217734000000000E+02      3.325500000000000E-01     -1.769844000000000E+02      2.609100000000000E-01     -7.103125000000000E+01      7.513733000000000E-01     -5.073242000000000E+01
4853000000.000000      7.029724000000000E-01      1.218008000000000E+02      3.312836000000000E-01     -1.770859000000000E+02      2.616272000000000E-01     -7.074219000000000E+01      7.487793000000000E-01     -5.095117000000000E+01
4854000000.000000      6.954041000000000E-01      1.213906000000000E+02      3.309021000000000E-01     -1.776094000000000E+02      2.614746000000000E-01     -7.053124000000000E+01      7.464600000000000E-01     -5.095703000000000E+01
4855000000.000000      6.900940000000000E-01      1.213906000000000E+02      3.305969000000000E-01     -1.777656000000000E+02      2.617645000000000E-01     -7.010937000000000E+01      7.411499000000000E-01     -5.091015000000000E+01
4856000000.000000      6.842651000000000E-01      1.211250000000000E+02      3.298798000000000E-01     -1.779375000000000E+02      2.627106000000000E-01     -6.998828000000000E+01      7.408447000000000E-01     -5.097265000000000E+01
4857000000.000000      6.791992000000000E-01      1.210273000000000E+02      3.292847000000000E-01     -1.781797000000000E+02      2.624512000000000E-01     -6.949609000000000E+01      7.362976000000000E-01     -5.098633000000000E+01
4858000000.000000      6.702881000000000E-01      1.207461000000000E+02      3.280945000000000E-01     -1.783359000000000E+02      2.630463000000000E-01     -6.937890000000000E+01      7.355042000000000E-01     -5.119922000000000E+01
4859000000.000000      6.639099000000000E-01      1.204883000000000E+02      3.269653000000000E-01     -1.785781000000000E+02      2.632141000000000E-01     -6.917578000000000E+01      7.333679000000000E-01     -5.132813000000000E+01
4860000000.000000      6.605530000000000E-01      1.201680000000000E+02      3.260498000000000E-01     -1.787188000000000E+02      2.637787000000000E-01     -6.883984000000000E+01      7.297363000000000E-01     -5.125000000000000E+01
4861000000.000000      6.524963000000000E-01      1.199687000000000E+02      3.244476000000000E-01     -1.790625000000000E+02      2.637787000000000E-01     -6.857031000000000E+01      7.268066000000000E-01     -5.140625000000000E+01
4862000000.000000      6.452026000000000E-01      1.195391000000000E+02      3.242798000000000E-01     -1.792187000000000E+02      2.646790000000000E-01     -6.835155000000000E+01      7.258911000000000E-01     -5.141992000000000E+01
4863000000.000000      6.384277000000000E-01      1.193750000000000E+02      3.226471000000000E-01     -1.794609000000000E+02      2.651825000000000E-01     -6.812890000000000E+01      7.237854000000000E-01     -5.137695000000000E+01
4864000000.000000      6.349182000000000E-01      1.187695000000000E+02      3.222046000000000E-01     -1.794453000000000E+02      2.649689000000000E-01     -6.794140000000000E+01      7.206421000000000E-01     -5.153125000000000E+01
4865000000.000000      6.266479000000000E-01      1.186445000000000E+02      3.200378000000000E-01     -1.797969000000000E+02      2.653961000000000E-01     -6.786327000000000E+01      7.191772000000000E-01     -5.145508000000000E+01
4866000000.000000      6.208191000000000E-01      1.183594000000000E+02      3.185883000000000E-01     -1.799531000000000E+02      2.655029000000000E-01     -6.760547000000000E+01      7.172546000000000E-01     -5.149804000000000E+01
4867000000.000000      6.150208000000000E-01      1.178906000000000E+02      3.180695000000000E-01      1.797344000000000E+02      2.652588000000000E-01     -6.738671000000000E+01      7.159424000000000E-01     -5.153320000000000E+01
4868000000.000000      6.096497000000000E-01      1.174609000000000E+02      3.170319000000000E-01      1.796953000000000E+02      2.663727000000000E-01     -6.720312000000000E+01      7.124634000000000E-01     -5.152734000000000E+01
4869000000.000000      6.036682000000000E-01      1.170898000000000E+02      3.155212000000000E-01      1.795625000000000E+02      2.669067000000000E-01     -6.708202000000000E+01      7.109680000000000E-01     -5.170703000000000E+01
4870000000.000000      5.971069000000000E-01      1.167891000000000E+02      3.149719000000000E-01      1.794765000000000E+02      2.670288000000000E-01     -6.700781000000000E+01      7.091675000000000E-01     -5.162304000000000E+01
4871000000.000000      5.924377000000000E-01      1.164297000000000E+02      3.122253000000000E-01      1.792500000000000E+02      2.669373000000000E-01     -6.689062000000000E+01      7.058411000000000E-01     -5.176952000000000E+01
4872000000.000000      5.877686000000000E-01      1.158164000000000E+02      3.120880000000000E-01      1.791016000000000E+02      2.666779000000000E-01     -6.687109000000000E+01      7.053528000000000E-01     -5.175976000000000E+01
4873000000.000000      5.827332000000000E-01      1.155430000000000E+02      3.107910000000000E-01      1.789922000000000E+02      2.673035000000000E-01     -6.667969000000000E+01      7.015991000000000E-01     -5.183398000000000E+01
4874000000.000000      5.766907000000000E-01      1.150039000000000E+02      3.095856000000000E-01      1.787656000000000E+02      2.680511000000000E-01     -6.663671000000000E+01      6.991882000000000E-01     -5.169335000000000E+01
4875000000.000000      5.711975000000000E-01      1.143633000000000E+02      3.082886000000000E-01      1.788516000000000E+02      2.681427000000000E-01     -6.633203000000000E+01      6.984558000000000E-01     -5.180078000000000E+01
4876000000.000000      5.655212000000000E-01      1.139961000000000E+02      3.070068000000000E-01      1.785938000000000E+02      2.673645000000000E-01     -6.633984000000000E+01      6.967773000000000E-01     -5.191796000000000E+01
4877000000.000000      5.628357000000000E-01      1.133789000000000E+02      3.060150000000000E-01      1.786875000000000E+02      2.676392000000000E-01     -6.632421000000000E+01      6.939392000000000E-01     -5.190820000000000E+01
4878000000.000000      5.559998000000000E-01      1.130547000000000E+02      3.050690000000000E-01      1.784062000000000E+02      2.680817000000000E-01     -6.617578000000000E+01      6.926880000000000E-01     -5.183788000000000E+01
4879000000.000000      5.518494000000000E-01      1.124961000000000E+02      3.027496000000000E-01      1.783594000000000E+02      2.677155000000000E-01     -6.614843000000000E+01      6.907959000000000E-01     -5.182031000000000E+01
4880000000.000000      5.468140000000000E-01      1.121016000000000E+02      3.023987000000000E-01      1.782891000000000E+02      2.677460000000000E-01     -6.606640000000000E+01      6.882324000000000E-01     -5.174023000000000E+01
4881000000.000000      5.431213000000000E-01      1.113867000000000E+02      3.020630000000000E-01      1.783828000000000E+02      2.681427000000000E-01     -6.605469000000000E+01      6.868896000000000E-01     -5.176758000000000E+01
4882000000.000000      5.369263000000000E-01      1.109062000000000E+02      3.005524000000000E-01      1.781328000000000E+02      2.681122000000000E-01     -6.591797000000000E+01      6.839294000000000E-01     -5.182031000000000E+01
