! Network Analyzer HP8722D
! Hewlett-Packard
! Data name: Linha & Wilkinson
! Saver's name: Rodrigo Anjos
! Comments: Teste da utilização de aquisição
continua pelo VNA HP8722D
! Time and date: 6/5/2025 15:07
!              Frequency                     S11                                                   S21                                                   S12                                                   S22
# HZ  S  MA R 50
4800000000.000000      4.967346000000000E-01     -1.681953000000000E+02      2.518158000000000E-01     -1.952637000000000E+01      2.483826000000000E-01     -1.407812000000000E+02      6.478882000000000E-01     -8.035936000000000E+01
4801000000.000000      4.978638000000000E-01     -1.682812000000000E+02      2.556458000000000E-01     -1.981445000000000E+01      2.519073000000000E-01     -1.408750000000000E+02      6.469421000000000E-01     -8.003906000000000E+01
4802000000.000000      4.991302000000000E-01     -1.682891000000000E+02      2.593536000000000E-01     -1.996582000000000E+01      2.557983000000000E-01     -1.408828000000000E+02      6.455078000000000E-01     -7.982031000000000E+01
4803000000.000000      5.006714000000000E-01     -1.683828000000000E+02      2.644501000000000E-01     -2.022461000000000E+01      2.591705000000000E-01     -1.409922000000000E+02      6.454163000000000E-01     -7.962109000000000E+01
4804000000.000000      5.025940000000000E-01     -1.683047000000000E+02      2.678528000000000E-01     -2.053515000000000E+01      2.630157000000000E-01     -1.412656000000000E+02      6.445007000000000E-01     -7.942577000000000E+01
4805000000.000000      5.061646000000000E-01     -1.684453000000000E+02      2.720947000000000E-01     -2.079785000000000E+01      2.668762000000000E-01     -1.411406000000000E+02      6.437378000000000E-01     -7.926952000000000E+01
4806000000.000000      5.072632000000000E-01     -1.683672000000000E+02      2.763977000000000E-01     -2.099414000000000E+01      2.700653000000000E-01     -1.411953000000000E+02      6.430054000000000E-01     -7.907031000000000E+01
4807000000.000000      5.106201000000000E-01     -1.683672000000000E+02      2.804871000000000E-01     -2.152246000000000E+01      2.742004000000000E-01     -1.413516000000000E+02      6.437683000000000E-01     -7.877343000000000E+01
4808000000.000000      5.130005000000000E-01     -1.683437000000000E+02      2.848816000000000E-01     -2.168457000000000E+01      2.768097000000000E-01     -1.414375000000000E+02      6.428528000000000E-01     -7.862890000000000E+01
4809000000.000000      5.147095000000000E-01     -1.683203000000000E+02      2.883911000000000E-01     -2.225879000000000E+01      2.810516000000000E-01     -1.415859000000000E+02      6.437683000000000E-01     -7.846484000000000E+01
4810000000.000000      5.181580000000000E-01     -1.683906000000000E+02      2.925110000000000E-01     -2.239844000000000E+01      2.847595000000000E-01     -1.417422000000000E+02      6.445313000000000E-01     -7.826562000000000E+01
4811000000.000000      5.214844000000000E-01     -1.683125000000000E+02      2.961273000000000E-01     -2.307910000000000E+01      2.886353000000000E-01     -1.418437000000000E+02      6.430664000000000E-01     -7.796484000000000E+01
4812000000.000000      5.255127000000000E-01     -1.682188000000000E+02      2.995605000000000E-01     -2.338379000000000E+01      2.916412000000000E-01     -1.419062000000000E+02      6.444397000000000E-01     -7.770312000000000E+01
4813000000.000000      5.278320000000000E-01     -1.681875000000000E+02      3.035431000000000E-01     -2.374218000000000E+01      2.945404000000000E-01     -1.420703000000000E+02      6.451111000000000E-01     -7.761328000000000E+01
4814000000.000000      5.305786000000000E-01     -1.683203000000000E+02      3.074646000000000E-01     -2.407519000000000E+01      2.973328000000000E-01     -1.423203000000000E+02      6.464539000000000E-01     -7.744531000000000E+01
4815000000.000000      5.344543000000000E-01     -1.681094000000000E+02      3.103790000000000E-01     -2.447266000000000E+01      3.009644000000000E-01     -1.424375000000000E+02      6.470337000000000E-01     -7.721093000000000E+01
4816000000.000000      5.393372000000000E-01     -1.680234000000000E+02      3.149414000000000E-01     -2.477636000000000E+01      3.052216000000000E-01     -1.424922000000000E+02      6.472778000000000E-01     -7.698828000000000E+01
4817000000.000000      5.435791000000000E-01     -1.679609000000000E+02      3.182983000000000E-01     -2.543945000000000E+01      3.072662000000000E-01     -1.426172000000000E+02      6.489868000000000E-01     -7.690234000000000E+01
4818000000.000000      5.467224000000000E-01     -1.679688000000000E+02      3.207092000000000E-01     -2.568359000000000E+01      3.110657000000000E-01     -1.428984000000000E+02      6.497803000000000E-01     -7.671484000000000E+01
4819000000.000000      5.523071000000000E-01     -1.678125000000000E+02      3.247986000000000E-01     -2.619433000000000E+01      3.137512000000000E-01     -1.430391000000000E+02      6.530762000000000E-01     -7.662109000000000E+01
4820000000.000000      5.544434000000000E-01     -1.677813000000000E+02      3.275299000000000E-01     -2.658984000000000E+01      3.168945000000000E-01     -1.432344000000000E+02      6.539307000000000E-01     -7.641015000000000E+01
4821000000.000000      5.608215000000000E-01     -1.677031000000000E+02      3.315735000000000E-01     -2.718164000000000E+01      3.194580000000000E-01     -1.434922000000000E+02      6.554565000000000E-01     -7.632813000000000E+01
4822000000.000000      5.673828000000000E-01     -1.675937000000000E+02      3.344421000000000E-01     -2.758301000000000E+01      3.221130000000000E-01     -1.436406000000000E+02      6.582947000000000E-01     -7.610937000000000E+01
4823000000.000000      5.700378000000000E-01     -1.675156000000000E+02      3.380127000000000E-01     -2.814355000000000E+01      3.248596000000000E-01     -1.437656000000000E+02      6.605225000000000E-01     -7.598827000000000E+01
4824000000.000000      5.774231000000000E-01     -1.674531000000000E+02      3.408661000000000E-01     -2.861621000000000E+01      3.287964000000000E-01     -1.440391000000000E+02      6.633301000000000E-01     -7.582812000000000E+01
4825000000.000000      5.814209000000000E-01     -1.673437000000000E+02      3.438110000000000E-01     -2.910742000000000E+01      3.312073000000000E-01     -1.441250000000000E+02      6.658936000000000E-01     -7.573047000000000E+01
4826000000.000000      5.877686000000000E-01     -1.672500000000000E+02      3.466034000000000E-01     -2.961816000000000E+01      3.332672000000000E-01     -1.444844000000000E+02      6.683044000000000E-01     -7.569921000000000E+01
4827000000.000000      5.931702000000000E-01     -1.670938000000000E+02      3.501740000000000E-01     -3.000097000000000E+01      3.359222000000000E-01     -1.445703000000000E+02      6.703796000000000E-01     -7.551171000000000E+01
4828000000.000000      6.001282000000000E-01     -1.670781000000000E+02      3.529205000000000E-01     -3.057910000000000E+01      3.387909000000000E-01     -1.448359000000000E+02      6.741943000000000E-01     -7.535156000000000E+01
4829000000.000000      6.038208000000000E-01     -1.669062000000000E+02      3.547974000000000E-01     -3.115527000000000E+01      3.413544000000000E-01     -1.449453000000000E+02      6.766357000000000E-01     -7.520312000000000E+01
4830000000.000000      6.105652000000000E-01     -1.668594000000000E+02      3.578339000000000E-01     -3.166699000000000E+01      3.436432000000000E-01     -1.452344000000000E+02      6.795654000000000E-01     -7.519921000000000E+01
4831000000.000000      6.156921000000000E-01     -1.667891000000000E+02      3.601074000000000E-01     -3.234375000000000E+01      3.461456000000000E-01     -1.452812000000000E+02      6.834106000000000E-01     -7.513281000000000E+01
4832000000.000000      6.241150000000000E-01     -1.666797000000000E+02      3.630676000000000E-01     -3.278320000000000E+01      3.482513000000000E-01     -1.454922000000000E+02      6.864624000000000E-01     -7.502734000000000E+01
4833000000.000000      6.309509000000000E-01     -1.666484000000000E+02      3.648071000000000E-01     -3.329492000000000E+01      3.506012000000000E-01     -1.457187000000000E+02      6.896667000000000E-01     -7.498047000000000E+01
4834000000.000000      6.370544000000000E-01     -1.665313000000000E+02      3.670349000000000E-01     -3.386719000000000E+01      3.527679000000000E-01     -1.460000000000000E+02      6.927490000000000E-01     -7.490234000000000E+01
4835000000.000000      6.427002000000000E-01     -1.664531000000000E+02      3.692169000000000E-01     -3.437891000000000E+01      3.559875000000000E-01     -1.461641000000000E+02      6.961975000000000E-01     -7.489843000000000E+01
4836000000.000000      6.511230000000000E-01     -1.663437000000000E+02      3.718109000000000E-01     -3.484179000000000E+01      3.573914000000000E-01     -1.463594000000000E+02      6.996155000000000E-01     -7.476953000000000E+01
4837000000.000000      6.575623000000000E-01     -1.662734000000000E+02      3.733368000000000E-01     -3.571680000000000E+01      3.598022000000000E-01     -1.466328000000000E+02      7.034607000000000E-01     -7.476171000000000E+01
4838000000.000000      6.644287000000000E-01     -1.663594000000000E+02      3.763580000000000E-01     -3.598242000000000E+01      3.616638000000000E-01     -1.467578000000000E+02      7.076416000000000E-01     -7.465625000000000E+01
4839000000.000000      6.714172000000000E-01     -1.661172000000000E+02      3.771057000000000E-01     -3.654687000000000E+01      3.633270000000000E-01     -1.468750000000000E+02      7.117920000000000E-01     -7.460155000000000E+01
4840000000.000000      6.777039000000000E-01     -1.661797000000000E+02      3.783417000000000E-01     -3.709570000000000E+01      3.661346000000000E-01     -1.471016000000000E+02      7.156677000000000E-01     -7.460155000000000E+01
4841000000.000000      6.864319000000000E-01     -1.661016000000000E+02      3.804474000000000E-01     -3.776172000000000E+01      3.676910000000000E-01     -1.473906000000000E+02      7.195435000000000E-01     -7.456640000000000E+01
4842000000.000000      6.929016000000000E-01     -1.660078000000000E+02      3.818665000000000E-01     -3.829883000000000E+01      3.692017000000000E-01     -1.475547000000000E+02      7.239990000000000E-01     -7.441015000000000E+01
4843000000.000000      6.991272000000000E-01     -1.660859000000000E+02      3.830109000000000E-01     -3.888281000000000E+01      3.710632000000000E-01     -1.476719000000000E+02      7.292175000000000E-01     -7.449609000000000E+01
4844000000.000000      7.059021000000000E-01     -1.659844000000000E+02      3.841553000000000E-01     -3.942578000000000E+01      3.722076000000000E-01     -1.479375000000000E+02      7.324829000000000E-01     -7.453515000000000E+01
4845000000.000000      7.127991000000000E-01     -1.659453000000000E+02      3.847046000000000E-01     -3.989258000000000E+01      3.746490000000000E-01     -1.481719000000000E+02      7.360535000000000E-01     -7.442187000000000E+01
4846000000.000000      7.207031000000000E-01     -1.657969000000000E+02      3.865051000000000E-01     -4.044922000000000E+01      3.767700000000000E-01     -1.481953000000000E+02      7.406006000000000E-01     -7.441796000000000E+01
4847000000.000000      7.276001000000000E-01     -1.657969000000000E+02      3.867645000000000E-01     -4.109375000000000E+01      3.790741000000000E-01     -1.485469000000000E+02      7.468872000000000E-01     -7.455859000000000E+01
4848000000.000000      7.362366000000000E-01     -1.657812000000000E+02      3.884735000000000E-01     -4.144531000000000E+01      3.803711000000000E-01     -1.486641000000000E+02      7.488708000000000E-01     -7.456640000000000E+01
4849000000.000000      7.418823000000000E-01     -1.660547000000000E+02      3.893890000000000E-01     -4.222070000000000E+01      3.822327000000000E-01     -1.488359000000000E+02      7.538757000000000E-01     -7.452734000000000E+01
4850000000.000000      7.487183000000000E-01     -1.658516000000000E+02      3.893738000000000E-01     -4.282812000000000E+01      3.832855000000000E-01     -1.490000000000000E+02      7.587891000000000E-01     -7.450000000000000E+01
4851000000.000000      7.554626000000000E-01     -1.657734000000000E+02      3.903046000000000E-01     -4.325781000000000E+01      3.846130000000000E-01     -1.492422000000000E+02      7.641602000000000E-01     -7.450000000000000E+01
4852000000.000000      7.622375000000000E-01     -1.658047000000000E+02      3.902588000000000E-01     -4.381640000000000E+01      3.866119000000000E-01     -1.493438000000000E+02      7.692566000000000E-01     -7.456640000000000E+01
4853000000.000000      7.704773000000000E-01     -1.658594000000000E+02      3.889465000000000E-01     -4.409375000000000E+01      3.882141000000000E-01     -1.496406000000000E+02      7.744141000000000E-01     -7.471874000000000E+01
4854000000.000000      7.768555000000000E-01     -1.658203000000000E+02      3.903351000000000E-01     -4.490820000000000E+01      3.888397000000000E-01     -1.497734000000000E+02      7.786865000000000E-01     -7.462891000000000E+01
4855000000.000000      7.817993000000000E-01     -1.658281000000000E+02      3.896790000000000E-01     -4.528710000000000E+01      3.905029000000000E-01     -1.498203000000000E+02      7.824097000000000E-01     -7.458984000000000E+01
4856000000.000000      7.905579000000000E-01     -1.657969000000000E+02      3.902130000000000E-01     -4.569726000000000E+01      3.912659000000000E-01     -1.500000000000000E+02      7.889709000000000E-01     -7.467578000000000E+01
4857000000.000000      7.959595000000000E-01     -1.659375000000000E+02      3.906555000000000E-01     -4.635547000000000E+01      3.926544000000000E-01     -1.501875000000000E+02      7.929382000000000E-01     -7.471484000000000E+01
4858000000.000000      7.994385000000000E-01     -1.658359000000000E+02      3.894653000000000E-01     -4.670507000000000E+01      3.933716000000000E-01     -1.504297000000000E+02      7.971191000000000E-01     -7.478906000000000E+01
4859000000.000000      8.064575000000000E-01     -1.658828000000000E+02      3.902740000000000E-01     -4.716210000000000E+01      3.953400000000000E-01     -1.506406000000000E+02      8.044739000000000E-01     -7.505859000000000E+01
4860000000.000000      8.140869000000000E-01     -1.658281000000000E+02      3.892365000000000E-01     -4.763085000000000E+01      3.957520000000000E-01     -1.508047000000000E+02      8.065186000000000E-01     -7.491796000000000E+01
4861000000.000000      8.204041000000000E-01     -1.658203000000000E+02      3.879852000000000E-01     -4.821484000000000E+01      3.977356000000000E-01     -1.509531000000000E+02      8.132324000000000E-01     -7.505468000000000E+01
4862000000.000000      8.241882000000000E-01     -1.657187000000000E+02      3.885345000000000E-01     -4.854882000000000E+01      3.989258000000000E-01     -1.511406000000000E+02      8.186951000000000E-01     -7.501171000000000E+01
4863000000.000000      8.286743000000000E-01     -1.658437000000000E+02      3.861084000000000E-01     -4.919531000000000E+01      4.002075000000000E-01     -1.512187000000000E+02      8.235168000000000E-01     -7.504296000000000E+01
4864000000.000000      8.355408000000000E-01     -1.658516000000000E+02      3.868866000000000E-01     -4.936328000000000E+01      4.001160000000000E-01     -1.513906000000000E+02      8.269653000000000E-01     -7.519531000000000E+01
4865000000.000000      8.390808000000000E-01     -1.660312000000000E+02      3.848114000000000E-01     -4.989648000000000E+01      4.014282000000000E-01     -1.516250000000000E+02      8.325806000000000E-01     -7.523046000000000E+01
4866000000.000000      8.429260000000000E-01     -1.659297000000000E+02      3.842621000000000E-01     -5.025000000000000E+01      4.024811000000000E-01     -1.517969000000000E+02      8.373413000000000E-01     -7.531640000000000E+01
4867000000.000000      8.489685000000000E-01     -1.658359000000000E+02      3.839874000000000E-01     -5.093750000000000E+01      4.027405000000000E-01     -1.519531000000000E+02      8.431091000000000E-01     -7.532421000000000E+01
4868000000.000000      8.557739000000000E-01     -1.659609000000000E+02      3.822021000000000E-01     -5.096484000000000E+01      4.040680000000000E-01     -1.521641000000000E+02      8.464050000000000E-01     -7.545703000000000E+01
4869000000.000000      8.567810000000000E-01     -1.659219000000000E+02      3.802032000000000E-01     -5.160546000000000E+01      4.048004000000000E-01     -1.523359000000000E+02      8.509827000000000E-01     -7.568359000000000E+01
4870000000.000000      8.608704000000000E-01     -1.658594000000000E+02      3.793335000000000E-01     -5.160742000000000E+01      4.049988000000000E-01     -1.525000000000000E+02      8.564453000000000E-01     -7.561718000000000E+01
4871000000.000000      8.656616000000000E-01     -1.658047000000000E+02      3.783722000000000E-01     -5.217773000000000E+01      4.047394000000000E-01     -1.527266000000000E+02      8.597412000000000E-01     -7.586719000000000E+01
4872000000.000000      8.702698000000000E-01     -1.659453000000000E+02      3.762665000000000E-01     -5.232226000000000E+01      4.056396000000000E-01     -1.530000000000000E+02      8.679199000000000E-01     -7.592968000000000E+01
4873000000.000000      8.752747000000000E-01     -1.656484000000000E+02      3.751526000000000E-01     -5.275195000000000E+01      4.055939000000000E-01     -1.529766000000000E+02      8.694153000000000E-01     -7.598437000000000E+01
4874000000.000000      8.766174000000000E-01     -1.655937000000000E+02      3.740234000000000E-01     -5.305469000000000E+01      4.070892000000000E-01     -1.531094000000000E+02      8.736267000000000E-01     -7.600390000000000E+01
4875000000.000000      8.788452000000000E-01     -1.657656000000000E+02      3.723297000000000E-01     -5.322851000000000E+01      4.078217000000000E-01     -1.534141000000000E+02      8.782654000000000E-01     -7.619531000000000E+01
4876000000.000000      8.804016000000000E-01     -1.656484000000000E+02      3.707886000000000E-01     -5.358007000000000E+01      4.066162000000000E-01     -1.535469000000000E+02      8.823242000000000E-01     -7.642968000000000E+01
4877000000.000000      8.845520000000000E-01     -1.655859000000000E+02      3.703461000000000E-01     -5.382617000000000E+01      4.078217000000000E-01     -1.537500000000000E+02      8.872681000000000E-01     -7.644921000000000E+01
4878000000.000000      8.886719000000000E-01     -1.655000000000000E+02      3.692474000000000E-01     -5.411914000000000E+01      4.077911000000000E-01     -1.538047000000000E+02      8.914185000000000E-01     -7.655078000000000E+01
4879000000.000000      8.912048000000000E-01     -1.655078000000000E+02      3.673096000000000E-01     -5.429492000000000E+01      4.075928000000000E-01     -1.540078000000000E+02      8.937073000000000E-01     -7.658593000000000E+01
4880000000.000000      8.890076000000000E-01     -1.654219000000000E+02      3.659973000000000E-01     -5.458984000000000E+01      4.085236000000000E-01     -1.541016000000000E+02      8.992004000000000E-01     -7.674218000000000E+01
4881000000.000000      8.945313000000000E-01     -1.652031000000000E+02      3.660736000000000E-01     -5.463281000000000E+01      4.088593000000000E-01     -1.543516000000000E+02      9.048462000000000E-01     -7.701562000000000E+01
4882000000.000000      8.943787000000000E-01     -1.651875000000000E+02      3.634186000000000E-01     -5.491405000000000E+01      4.084930000000000E-01     -1.543984000000000E+02      9.064941000000000E-01     -7.701172000000000E+01
