! Network Analyzer HP8722D
! Hewlett-Packard
! Data name: Linha & Wilkinson
! Saver's name: Rodrigo Anjos
! Comments: Teste da utilização de aquisição
continua pelo VNA HP8722D
! Time and date: 6/5/2025 12:48
!              Frequency                     S11                                                   S21                                                   S12                                                   S22
# HZ  S  MA R 50
4800000000.000000      9.512634000000000E-01      1.642578000000000E+02      4.392700000000000E-01      1.240117000000000E+02      4.339294000000000E-01      1.907031000000000E+01      9.535828000000000E-01     -3.662109000000000E+01
4801000000.000000      9.528809000000000E-01      1.642969000000000E+02      4.391022000000000E-01      1.238125000000000E+02      4.346466000000000E-01      1.863672000000000E+01      9.500427000000000E-01     -3.706250000000000E+01
4802000000.000000      9.505920000000000E-01      1.643828000000000E+02      4.415588000000000E-01      1.231875000000000E+02      4.364624000000000E-01      1.841406000000000E+01      9.472961000000000E-01     -3.736328000000000E+01
4803000000.000000      9.490356000000000E-01      1.643984000000000E+02      4.421082000000000E-01      1.227930000000000E+02      4.365234000000000E-01      1.788769000000000E+01      9.407654000000000E-01     -3.797461000000000E+01
4804000000.000000      9.485779000000000E-01      1.645391000000000E+02      4.446411000000000E-01      1.222734000000000E+02      4.376831000000000E-01      1.758691000000000E+01      9.375610000000000E-01     -3.835351000000000E+01
4805000000.000000      9.497681000000000E-01      1.645781000000000E+02      4.458008000000000E-01      1.220117000000000E+02      4.384003000000000E-01      1.736230000000000E+01      9.312134000000000E-01     -3.882031000000000E+01
4806000000.000000      9.477539000000000E-01      1.645234000000000E+02      4.499359000000000E-01      1.215039000000000E+02      4.387360000000000E-01      1.705957000000000E+01      9.273071000000000E-01     -3.948047000000000E+01
4807000000.000000      9.486389000000000E-01      1.646094000000000E+02      4.503021000000000E-01      1.208476000000000E+02      4.383392000000000E-01      1.669629000000000E+01      9.207764000000000E-01     -3.974804000000000E+01
4808000000.000000      9.455566000000000E-01      1.647031000000000E+02      4.543610000000000E-01      1.205156000000000E+02      4.397888000000000E-01      1.648144000000000E+01      9.184875000000000E-01     -4.021484000000000E+01
4809000000.000000      9.425964000000000E-01      1.646094000000000E+02      4.558563000000000E-01      1.198125000000000E+02      4.409943000000000E-01      1.595752000000000E+01      9.122925000000000E-01     -4.067968000000000E+01
4810000000.000000      9.417419000000000E-01      1.646094000000000E+02      4.548187000000000E-01      1.196445000000000E+02      4.411621000000000E-01      1.581445000000000E+01      9.081726000000000E-01     -4.120313000000000E+01
4811000000.000000      9.405518000000000E-01      1.649219000000000E+02      4.581757000000000E-01      1.189336000000000E+02      4.437714000000000E-01      1.554004000000000E+01      9.017639000000000E-01     -4.155859000000000E+01
4812000000.000000      9.400940000000000E-01      1.649531000000000E+02      4.586639000000000E-01      1.182930000000000E+02      4.421692000000000E-01      1.534229000000000E+01      8.959656000000000E-01     -4.214257000000000E+01
4813000000.000000      9.374390000000000E-01      1.650234000000000E+02      4.615784000000000E-01      1.179102000000000E+02      4.425354000000000E-01      1.493701000000000E+01      8.900452000000000E-01     -4.251953000000000E+01
4814000000.000000      9.332886000000000E-01      1.649062000000000E+02      4.619598000000000E-01      1.175273000000000E+02      4.426575000000000E-01      1.464746000000000E+01      8.848877000000000E-01     -4.300586000000000E+01
4815000000.000000      9.320068000000000E-01      1.651172000000000E+02      4.641724000000000E-01      1.167344000000000E+02      4.431458000000000E-01      1.447998000000000E+01      8.799744000000000E-01     -4.340625000000000E+01
4816000000.000000      9.319458000000000E-01      1.651875000000000E+02      4.667206000000000E-01      1.165820000000000E+02      4.456329000000000E-01      1.419434000000000E+01      8.747253000000000E-01     -4.403906000000000E+01
4817000000.000000      9.305115000000000E-01      1.651406000000000E+02      4.700775000000000E-01      1.155976000000000E+02      4.449158000000000E-01      1.380566000000000E+01      8.681946000000000E-01     -4.433789000000000E+01
4818000000.000000      9.278564000000000E-01      1.652109000000000E+02      4.706573000000000E-01      1.152344000000000E+02      4.455109000000000E-01      1.355957000000000E+01      8.623352000000000E-01     -4.479882000000000E+01
4819000000.000000      9.262695000000000E-01      1.653984000000000E+02      4.714203000000000E-01      1.147305000000000E+02      4.447479000000000E-01      1.303369000000000E+01      8.551331000000000E-01     -4.548242000000000E+01
4820000000.000000      9.201355000000000E-01      1.652344000000000E+02      4.730682000000000E-01      1.141680000000000E+02      4.441376000000000E-01      1.293896000000000E+01      8.492737000000000E-01     -4.582227000000000E+01
4821000000.000000      9.205627000000000E-01      1.653984000000000E+02      4.759369000000000E-01      1.134141000000000E+02      4.456329000000000E-01      1.263672000000000E+01      8.428345000000000E-01     -4.622656000000000E+01
4822000000.000000      9.203796000000000E-01      1.652500000000000E+02      4.776001000000000E-01      1.127305000000000E+02      4.450531000000000E-01      1.232080000000000E+01      8.380737000000000E-01     -4.671288000000000E+01
4823000000.000000      9.157104000000000E-01      1.653984000000000E+02      4.773560000000000E-01      1.123750000000000E+02      4.444580000000000E-01      1.229736000000000E+01      8.304138000000000E-01     -4.720703000000000E+01
4824000000.000000      9.154663000000000E-01      1.654609000000000E+02      4.810333000000000E-01      1.114570000000000E+02      4.457245000000000E-01      1.165234000000000E+01      8.227844000000000E-01     -4.767774000000000E+01
4825000000.000000      9.103088000000000E-01      1.654375000000000E+02      4.797516000000000E-01      1.109531000000000E+02      4.481354000000000E-01      1.124170000000000E+01      8.183899000000000E-01     -4.816601000000000E+01
4826000000.000000      9.079590000000000E-01      1.655859000000000E+02      4.825897000000000E-01      1.102070000000000E+02      4.461060000000000E-01      1.109326000000000E+01      8.114319000000000E-01     -4.861914000000000E+01
4827000000.000000      9.060364000000000E-01      1.655078000000000E+02      4.836273000000000E-01      1.097422000000000E+02      4.460144000000000E-01      1.066455000000000E+01      8.049622000000000E-01     -4.912304000000000E+01
4828000000.000000      9.037781000000000E-01      1.655625000000000E+02      4.845123000000000E-01      1.090078000000000E+02      4.451752000000000E-01      1.026660000000000E+01      7.998352000000000E-01     -4.969727000000000E+01
4829000000.000000      8.962708000000000E-01      1.656016000000000E+02      4.841461000000000E-01      1.084648000000000E+02      4.455872000000000E-01      9.965820000000000E+00      7.934265000000000E-01     -4.989843000000000E+01
4830000000.000000      8.973999000000000E-01      1.657187000000000E+02      4.864655000000000E-01      1.074609000000000E+02      4.457397000000000E-01      9.762695000000000E+00      7.854919000000000E-01     -5.044922000000000E+01
4831000000.000000      8.922119000000000E-01      1.657500000000000E+02      4.860382000000000E-01      1.068359000000000E+02      4.462585000000000E-01      9.564941000000000E+00      7.791443000000000E-01     -5.092382000000000E+01
4832000000.000000      8.907471000000000E-01      1.657734000000000E+02      4.896088000000000E-01      1.061133000000000E+02      4.455566000000000E-01      9.210449000000000E+00      7.715149000000000E-01     -5.133203000000000E+01
4833000000.000000      8.860779000000000E-01      1.656484000000000E+02      4.884338000000000E-01      1.054453000000000E+02      4.457397000000000E-01      8.658203000000000E+00      7.631226000000000E-01     -5.182031000000000E+01
4834000000.000000      8.845520000000000E-01      1.657187000000000E+02      4.902954000000000E-01      1.047969000000000E+02      4.462433000000000E-01      8.458008000000000E+00      7.573547000000000E-01     -5.228125000000000E+01
4835000000.000000      8.793640000000000E-01      1.657109000000000E+02      4.882202000000000E-01      1.039648000000000E+02      4.476929000000000E-01      8.233887000000000E+00      7.509460000000000E-01     -5.270702000000000E+01
4836000000.000000      8.786926000000000E-01      1.656250000000000E+02      4.893799000000000E-01      1.030937000000000E+02      4.488525000000000E-01      7.979980000000000E+00      7.436829000000000E-01     -5.307031000000000E+01
4837000000.000000      8.750305000000000E-01      1.658672000000000E+02      4.879913000000000E-01      1.022383000000000E+02      4.470520000000000E-01      7.651855000000000E+00      7.368469000000000E-01     -5.349218000000000E+01
4838000000.000000      8.696289000000000E-01      1.656719000000000E+02      4.889526000000000E-01      1.018281000000000E+02      4.472504000000000E-01      7.248047000000000E+00      7.292786000000000E-01     -5.384960000000000E+01
4839000000.000000      8.670654000000000E-01      1.658750000000000E+02      4.870758000000000E-01      1.010078000000000E+02      4.462891000000000E-01      6.852539000000000E+00      7.233887000000000E-01     -5.433203000000000E+01
4840000000.000000      8.625183000000000E-01      1.658594000000000E+02      4.879150000000000E-01      1.004414000000000E+02      4.466705000000000E-01      6.554688000000000E+00      7.161865000000000E-01     -5.479882000000000E+01
4841000000.000000      8.591309000000000E-01      1.655469000000000E+02      4.869537000000000E-01      9.929688000000000E+01      4.481506000000000E-01      6.190674000000000E+00      7.089844000000000E-01     -5.508594000000000E+01
4842000000.000000      8.564148000000000E-01      1.656719000000000E+02      4.874115000000000E-01      9.879686000000000E+01      4.458466000000000E-01      5.810303000000000E+00      7.020874000000000E-01     -5.544140000000000E+01
4843000000.000000      8.523865000000000E-01      1.656250000000000E+02      4.836884000000000E-01      9.773046000000000E+01      4.456024000000000E-01      5.446289000000000E+00      6.944580000000000E-01     -5.579102000000000E+01
4844000000.000000      8.472900000000000E-01      1.656484000000000E+02      4.838867000000000E-01      9.718750000000000E+01      4.453583000000000E-01      5.149658000000000E+00      6.864624000000000E-01     -5.623632000000000E+01
4845000000.000000      8.435364000000000E-01      1.656953000000000E+02      4.820862000000000E-01      9.667578000000000E+01      4.462738000000000E-01      4.777588000000000E+00      6.785583000000000E-01     -5.658398000000000E+01
4846000000.000000      8.406372000000000E-01      1.657891000000000E+02      4.811554000000000E-01      9.575781000000000E+01      4.467468000000000E-01      4.410889000000000E+00      6.708374000000000E-01     -5.691015000000000E+01
4847000000.000000      8.365784000000000E-01      1.656172000000000E+02      4.805450000000000E-01      9.508204000000000E+01      4.462128000000000E-01      3.905640000000000E+00      6.643677000000000E-01     -5.729492000000000E+01
4848000000.000000      8.355408000000000E-01      1.657656000000000E+02      4.777222000000000E-01      9.417578000000000E+01      4.449768000000000E-01      3.558105000000000E+00      6.551208000000000E-01     -5.762304000000000E+01
4849000000.000000      8.275757000000000E-01      1.655469000000000E+02      4.775085000000000E-01      9.344921000000000E+01      4.457855000000000E-01      3.198364000000000E+00      6.478577000000000E-01     -5.786523000000000E+01
4850000000.000000      8.266296000000000E-01      1.657031000000000E+02      4.751587000000000E-01      9.292578000000000E+01      4.449158000000000E-01      2.933350000000000E+00      6.400452000000000E-01     -5.816601000000000E+01
4851000000.000000      8.223572000000000E-01      1.655859000000000E+02      4.744720000000000E-01      9.185938000000000E+01      4.444122000000000E-01      2.309814000000000E+00      6.330566000000000E-01     -5.841015000000000E+01
4852000000.000000      8.179321000000000E-01      1.656406000000000E+02      4.697876000000000E-01      9.135157000000000E+01      4.435425000000000E-01      2.054443000000000E+00      6.245117000000000E-01     -5.866601000000000E+01
4853000000.000000      8.174438000000000E-01      1.656719000000000E+02      4.675903000000000E-01      9.070313000000000E+01      4.442291000000000E-01      1.554565000000000E+00      6.171875000000000E-01     -5.903710000000000E+01
4854000000.000000      8.114319000000000E-01      1.656016000000000E+02      4.657288000000000E-01      8.982031000000000E+01      4.427185000000000E-01      1.014832000000000E+00      6.093140000000000E-01     -5.929101000000000E+01
4855000000.000000      8.065186000000000E-01      1.656172000000000E+02      4.620361000000000E-01      8.923046000000000E+01      4.426727000000000E-01      5.932617000000000E-01      5.996094000000000E-01     -5.938671000000000E+01
4856000000.000000      8.049927000000000E-01      1.655313000000000E+02      4.602814000000000E-01      8.853907000000000E+01      4.420013000000000E-01      1.139832000000000E-01      5.930176000000000E-01     -5.959961000000000E+01
4857000000.000000      8.003235000000000E-01      1.654219000000000E+02      4.583588000000000E-01      8.792969000000000E+01      4.408264000000000E-01     -2.499390000000000E-01      5.836182000000000E-01     -5.980663000000000E+01
4858000000.000000      7.925110000000000E-01      1.655313000000000E+02      4.555206000000000E-01      8.717577000000000E+01      4.402161000000000E-01     -5.767822000000000E-01      5.768433000000000E-01     -5.998828000000000E+01
4859000000.000000      7.890015000000000E-01      1.655234000000000E+02      4.529419000000000E-01      8.646093000000000E+01      4.403381000000000E-01     -1.183777000000000E+00      5.699158000000000E-01     -6.017773000000000E+01
4860000000.000000      7.890625000000000E-01      1.654453000000000E+02      4.508820000000000E-01      8.597265000000000E+01      4.384155000000000E-01     -1.691895000000000E+00      5.597229000000000E-01     -6.019531000000000E+01
4861000000.000000      7.853699000000000E-01      1.655313000000000E+02      4.483948000000000E-01      8.507421000000000E+01      4.369965000000000E-01     -2.194580000000000E+00      5.512390000000000E-01     -6.046093000000000E+01
4862000000.000000      7.809448000000000E-01      1.654609000000000E+02      4.469604000000000E-01      8.444921000000000E+01      4.379120000000000E-01     -2.551636000000000E+00      5.440063000000000E-01     -6.033008000000000E+01
4863000000.000000      7.776489000000000E-01      1.654063000000000E+02      4.405212000000000E-01      8.380077000000000E+01      4.367218000000000E-01     -3.109131000000000E+00      5.365601000000000E-01     -6.039648000000000E+01
4864000000.000000      7.748413000000000E-01      1.653437000000000E+02      4.399872000000000E-01      8.345703000000000E+01      4.333344000000000E-01     -3.603516000000000E+00      5.278015000000000E-01     -6.043554000000000E+01
4865000000.000000      7.691956000000000E-01      1.653047000000000E+02      4.358521000000000E-01      8.284374000000000E+01      4.345398000000000E-01     -4.242188000000000E+00      5.200806000000000E-01     -6.023828000000000E+01
4866000000.000000      7.666016000000000E-01      1.653828000000000E+02      4.329987000000000E-01      8.213282000000000E+01      4.315491000000000E-01     -4.692627000000000E+00      5.115356000000000E-01     -6.027148000000000E+01
4867000000.000000      7.628174000000000E-01      1.653047000000000E+02      4.296112000000000E-01      8.138672000000000E+01      4.312439000000000E-01     -5.217285000000000E+00      5.036316000000000E-01     -6.009179000000000E+01
4868000000.000000      7.601318000000000E-01      1.652266000000000E+02      4.290009000000000E-01      8.110937000000000E+01      4.306946000000000E-01     -5.563232000000000E+00      4.948273000000000E-01     -5.999413000000000E+01
4869000000.000000      7.563782000000000E-01      1.651719000000000E+02      4.233398000000000E-01      8.019922000000000E+01      4.281769000000000E-01     -6.381836000000000E+00      4.873047000000000E-01     -5.996094000000000E+01
4870000000.000000      7.541199000000000E-01      1.652187000000000E+02      4.225922000000000E-01      7.984765000000000E+01      4.268188000000000E-01     -6.758057000000000E+00      4.794464000000000E-01     -5.953906000000000E+01
4871000000.000000      7.531128000000000E-01      1.650781000000000E+02      4.201965000000000E-01      7.910546000000000E+01      4.234314000000000E-01     -7.332031000000000E+00      4.708252000000000E-01     -5.935547000000000E+01
4872000000.000000      7.480164000000000E-01      1.650781000000000E+02      4.157715000000000E-01      7.880468000000000E+01      4.223785000000000E-01     -8.173828000000000E+00      4.637451000000000E-01     -5.897461000000000E+01
4873000000.000000      7.460022000000000E-01      1.652187000000000E+02      4.117584000000000E-01      7.820313000000000E+01      4.214325000000000E-01     -8.419922000000000E+00      4.553375000000000E-01     -5.873437000000000E+01
4874000000.000000      7.409973000000000E-01      1.650391000000000E+02      4.085236000000000E-01      7.754687000000000E+01      4.204865000000000E-01     -9.172363000000000E+00      4.481201000000000E-01     -5.812500000000000E+01
4875000000.000000      7.405090000000000E-01      1.649844000000000E+02      4.059448000000000E-01      7.691796000000000E+01      4.173584000000000E-01     -9.738281000000000E+00      4.409637000000000E-01     -5.767578000000000E+01
4876000000.000000      7.366638000000000E-01      1.651484000000000E+02      4.038086000000000E-01      7.639453000000000E+01      4.153748000000000E-01     -1.024902000000000E+01      4.342346000000000E-01     -5.728906000000000E+01
4877000000.000000      7.348633000000000E-01      1.650625000000000E+02      4.002075000000000E-01      7.589453000000000E+01      4.136963000000000E-01     -1.070898000000000E+01      4.271240000000000E-01     -5.657617000000000E+01
4878000000.000000      7.327271000000000E-01      1.652266000000000E+02      3.975525000000000E-01      7.533593000000000E+01      4.120789000000000E-01     -1.158398000000000E+01      4.201660000000000E-01     -5.602929000000000E+01
4879000000.000000      7.324829000000000E-01      1.648672000000000E+02      3.930359000000000E-01      7.466406000000000E+01      4.087677000000000E-01     -1.213330000000000E+01      4.137421000000000E-01     -5.528320000000000E+01
4880000000.000000      7.291260000000000E-01      1.649609000000000E+02      3.904724000000000E-01      7.394531000000000E+01      4.055176000000000E-01     -1.257813000000000E+01      4.075928000000000E-01     -5.452734000000000E+01
4881000000.000000      7.262878000000000E-01      1.649765000000000E+02      3.880157000000000E-01      7.383203000000000E+01      4.047699000000000E-01     -1.325781000000000E+01      4.017029000000000E-01     -5.359179000000000E+01
4882000000.000000      7.248230000000000E-01      1.651328000000000E+02      3.844147000000000E-01      7.311328000000000E+01      4.016266000000000E-01     -1.368799000000000E+01      3.959045000000000E-01     -5.280859000000000E+01
