! Network Analyzer HP8722D
! Hewlett-Packard
! Data name: Linha & Wilkinson
! Saver's name: Rodrigo Anjos
! Comments: Teste da utilização de aquisição
continua pelo VNA HP8722D
! Time and date: 6/5/2025 15:03
!              Frequency                     S11                                                   S21                                                   S12                                                   S22
# HZ  S  MA R 50
4800000000.000000      4.963226000000000E-01     -1.682031000000000E+02      2.520599000000000E-01     -1.965820000000000E+01      2.487411000000000E-01     -1.408984000000000E+02      6.483459000000000E-01     -8.033594000000000E+01
4801000000.000000      4.980927000000000E-01     -1.682734000000000E+02      2.558289000000000E-01     -1.987500000000000E+01      2.518005000000000E-01     -1.408516000000000E+02      6.474609000000000E-01     -8.006250000000000E+01
4802000000.000000      4.992676000000000E-01     -1.683516000000000E+02      2.591248000000000E-01     -2.009082000000000E+01      2.562408000000000E-01     -1.409453000000000E+02      6.450806000000000E-01     -7.979687000000000E+01
4803000000.000000      5.006409000000000E-01     -1.683984000000000E+02      2.645416000000000E-01     -2.023633000000000E+01      2.589722000000000E-01     -1.409453000000000E+02      6.442871000000000E-01     -7.970312000000000E+01
4804000000.000000      5.033264000000000E-01     -1.684297000000000E+02      2.679138000000000E-01     -2.046777000000000E+01      2.625427000000000E-01     -1.411016000000000E+02      6.443176000000000E-01     -7.941406000000000E+01
4805000000.000000      5.057678000000000E-01     -1.684141000000000E+02      2.721405000000000E-01     -2.084179000000000E+01      2.666168000000000E-01     -1.411094000000000E+02      6.448975000000000E-01     -7.926952000000000E+01
4806000000.000000      5.070801000000000E-01     -1.683516000000000E+02      2.760620000000000E-01     -2.117383000000000E+01      2.693176000000000E-01     -1.411875000000000E+02      6.445007000000000E-01     -7.905468000000000E+01
4807000000.000000      5.098572000000000E-01     -1.684141000000000E+02      2.805786000000000E-01     -2.155859000000000E+01      2.737122000000000E-01     -1.414453000000000E+02      6.427002000000000E-01     -7.887500000000000E+01
4808000000.000000      5.129089000000000E-01     -1.683203000000000E+02      2.847748000000000E-01     -2.177539000000000E+01      2.771454000000000E-01     -1.415156000000000E+02      6.432495000000000E-01     -7.863281000000000E+01
4809000000.000000      5.151062000000000E-01     -1.683516000000000E+02      2.879181000000000E-01     -2.233691000000000E+01      2.812042000000000E-01     -1.416484000000000E+02      6.436462000000000E-01     -7.849218000000000E+01
4810000000.000000      5.179138000000000E-01     -1.684297000000000E+02      2.924500000000000E-01     -2.258105000000000E+01      2.839966000000000E-01     -1.417109000000000E+02      6.444397000000000E-01     -7.820313000000000E+01
4811000000.000000      5.212097000000000E-01     -1.683359000000000E+02      2.961731000000000E-01     -2.298242000000000E+01      2.889404000000000E-01     -1.418516000000000E+02      6.441650000000000E-01     -7.793359000000000E+01
4812000000.000000      5.252991000000000E-01     -1.682578000000000E+02      2.998505000000000E-01     -2.326953000000000E+01      2.917023000000000E-01     -1.419531000000000E+02      6.447144000000000E-01     -7.783203000000000E+01
4813000000.000000      5.276184000000000E-01     -1.681953000000000E+02      3.039246000000000E-01     -2.371680000000000E+01      2.942505000000000E-01     -1.419688000000000E+02      6.452942000000000E-01     -7.762500000000000E+01
4814000000.000000      5.300293000000000E-01     -1.682734000000000E+02      3.068848000000000E-01     -2.404101000000000E+01      2.980804000000000E-01     -1.423437000000000E+02      6.464233000000000E-01     -7.742969000000000E+01
4815000000.000000      5.343323000000000E-01     -1.681562000000000E+02      3.105927000000000E-01     -2.457422000000000E+01      3.007660000000000E-01     -1.423672000000000E+02      6.464233000000000E-01     -7.716797000000000E+01
4816000000.000000      5.389099000000000E-01     -1.680156000000000E+02      3.142853000000000E-01     -2.476269000000000E+01      3.052826000000000E-01     -1.426250000000000E+02      6.477661000000000E-01     -7.705859000000000E+01
4817000000.000000      5.437012000000000E-01     -1.679688000000000E+02      3.176270000000000E-01     -2.529882000000000E+01      3.072510000000000E-01     -1.427813000000000E+02      6.491699000000000E-01     -7.688281000000000E+01
4818000000.000000      5.468445000000000E-01     -1.678984000000000E+02      3.209686000000000E-01     -2.569629000000000E+01      3.113556000000000E-01     -1.428906000000000E+02      6.503601000000000E-01     -7.675390000000000E+01
4819000000.000000      5.521545000000000E-01     -1.678828000000000E+02      3.249207000000000E-01     -2.625000000000000E+01      3.131866000000000E-01     -1.431094000000000E+02      6.530762000000000E-01     -7.658593000000000E+01
4820000000.000000      5.545349000000000E-01     -1.677187000000000E+02      3.281708000000000E-01     -2.665918000000000E+01      3.168335000000000E-01     -1.432500000000000E+02      6.546936000000000E-01     -7.639453000000000E+01
4821000000.000000      5.606384000000000E-01     -1.676641000000000E+02      3.317108000000000E-01     -2.706640000000000E+01      3.196869000000000E-01     -1.435078000000000E+02      6.554565000000000E-01     -7.628906000000000E+01
4822000000.000000      5.671387000000000E-01     -1.676484000000000E+02      3.351288000000000E-01     -2.760644000000000E+01      3.220367000000000E-01     -1.437187000000000E+02      6.577759000000000E-01     -7.608203000000000E+01
4823000000.000000      5.709839000000000E-01     -1.675234000000000E+02      3.383636000000000E-01     -2.809570000000000E+01      3.253174000000000E-01     -1.437187000000000E+02      6.606140000000000E-01     -7.591015000000000E+01
4824000000.000000      5.772705000000000E-01     -1.675156000000000E+02      3.409882000000000E-01     -2.861621000000000E+01      3.278351000000000E-01     -1.440078000000000E+02      6.632080000000000E-01     -7.585938000000000E+01
4825000000.000000      5.818176000000000E-01     -1.673594000000000E+02      3.440857000000000E-01     -2.909375000000000E+01      3.308258000000000E-01     -1.442266000000000E+02      6.655273000000000E-01     -7.566015000000000E+01
4826000000.000000      5.873108000000000E-01     -1.672812000000000E+02      3.473053000000000E-01     -2.973633000000000E+01      3.327026000000000E-01     -1.444297000000000E+02      6.675415000000000E-01     -7.566015000000000E+01
4827000000.000000      5.932007000000000E-01     -1.671250000000000E+02      3.502197000000000E-01     -3.011523000000000E+01      3.356934000000000E-01     -1.446250000000000E+02      6.707458000000000E-01     -7.549999000000000E+01
4828000000.000000      5.998230000000000E-01     -1.670781000000000E+02      3.537903000000000E-01     -3.063867000000000E+01      3.382568000000000E-01     -1.448750000000000E+02      6.740112000000000E-01     -7.537499000000000E+01
4829000000.000000      6.032715000000000E-01     -1.669922000000000E+02      3.552856000000000E-01     -3.114355000000000E+01      3.410492000000000E-01     -1.451250000000000E+02      6.764526000000000E-01     -7.524219000000000E+01
4830000000.000000      6.109924000000000E-01     -1.668828000000000E+02      3.578033000000000E-01     -3.166894000000000E+01      3.430023000000000E-01     -1.451016000000000E+02      6.794128000000000E-01     -7.516796000000000E+01
4831000000.000000      6.158447000000000E-01     -1.667891000000000E+02      3.600616000000000E-01     -3.227539000000000E+01      3.466339000000000E-01     -1.452266000000000E+02      6.834717000000000E-01     -7.517968000000000E+01
4832000000.000000      6.249695000000000E-01     -1.667031000000000E+02      3.631134000000000E-01     -3.291016000000000E+01      3.484955000000000E-01     -1.455547000000000E+02      6.861572000000000E-01     -7.503906000000000E+01
4833000000.000000      6.301880000000000E-01     -1.666641000000000E+02      3.658142000000000E-01     -3.325195000000000E+01      3.506012000000000E-01     -1.458516000000000E+02      6.895142000000000E-01     -7.492969000000000E+01
4834000000.000000      6.366272000000000E-01     -1.665703000000000E+02      3.672485000000000E-01     -3.379492000000000E+01      3.528900000000000E-01     -1.459609000000000E+02      6.933899000000000E-01     -7.489062000000000E+01
4835000000.000000      6.431274000000000E-01     -1.665234000000000E+02      3.703766000000000E-01     -3.453516000000000E+01      3.552399000000000E-01     -1.460469000000000E+02      6.965027000000000E-01     -7.494141000000000E+01
4836000000.000000      6.511230000000000E-01     -1.663828000000000E+02      3.717651000000000E-01     -3.492773000000000E+01      3.571930000000000E-01     -1.463594000000000E+02      6.998901000000000E-01     -7.479687000000000E+01
4837000000.000000      6.580811000000000E-01     -1.662266000000000E+02      3.732758000000000E-01     -3.573437000000000E+01      3.598938000000000E-01     -1.466719000000000E+02      7.035522000000000E-01     -7.467187000000000E+01
4838000000.000000      6.643372000000000E-01     -1.663437000000000E+02      3.762054000000000E-01     -3.612305000000000E+01      3.620911000000000E-01     -1.467187000000000E+02      7.075806000000000E-01     -7.467187000000000E+01
4839000000.000000      6.718140000000000E-01     -1.661250000000000E+02      3.770599000000000E-01     -3.673047000000000E+01      3.636169000000000E-01     -1.469297000000000E+02      7.118225000000000E-01     -7.451562000000000E+01
4840000000.000000      6.773987000000000E-01     -1.661250000000000E+02      3.785095000000000E-01     -3.706836000000000E+01      3.658752000000000E-01     -1.472422000000000E+02      7.153625000000000E-01     -7.458984000000000E+01
4841000000.000000      6.849365000000000E-01     -1.661719000000000E+02      3.808289000000000E-01     -3.780468000000000E+01      3.679962000000000E-01     -1.474141000000000E+02      7.199097000000000E-01     -7.457421000000000E+01
4842000000.000000      6.925354000000000E-01     -1.660234000000000E+02      3.814697000000000E-01     -3.841406000000000E+01      3.691711000000000E-01     -1.475703000000000E+02      7.244873000000000E-01     -7.456249000000000E+01
4843000000.000000      6.989746000000000E-01     -1.661094000000000E+02      3.839417000000000E-01     -3.897070000000000E+01      3.709717000000000E-01     -1.477969000000000E+02      7.281799000000000E-01     -7.454296000000000E+01
4844000000.000000      7.056580000000000E-01     -1.659688000000000E+02      3.848877000000000E-01     -3.943945000000000E+01      3.724213000000000E-01     -1.479141000000000E+02      7.336426000000000E-01     -7.453906000000000E+01
4845000000.000000      7.127380000000000E-01     -1.659375000000000E+02      3.845978000000000E-01     -4.010156000000000E+01      3.750153000000000E-01     -1.481328000000000E+02      7.357178000000000E-01     -7.450390000000000E+01
4846000000.000000      7.198486000000000E-01     -1.658047000000000E+02      3.860016000000000E-01     -4.049024000000000E+01      3.769531000000000E-01     -1.483359000000000E+02      7.409058000000000E-01     -7.446484000000000E+01
4847000000.000000      7.280579000000000E-01     -1.659062000000000E+02      3.878937000000000E-01     -4.112890000000000E+01      3.788757000000000E-01     -1.485000000000000E+02      7.469788000000000E-01     -7.455078000000000E+01
4848000000.000000      7.359619000000000E-01     -1.658125000000000E+02      3.884583000000000E-01     -4.156836000000000E+01      3.804169000000000E-01     -1.486641000000000E+02      7.496643000000000E-01     -7.452734000000000E+01
4849000000.000000      7.418213000000000E-01     -1.660938000000000E+02      3.889160000000000E-01     -4.224023000000000E+01      3.816528000000000E-01     -1.489766000000000E+02      7.546997000000000E-01     -7.453125000000000E+01
4850000000.000000      7.496338000000000E-01     -1.657812000000000E+02      3.897095000000000E-01     -4.262500000000000E+01      3.836212000000000E-01     -1.489844000000000E+02      7.598267000000000E-01     -7.446875000000000E+01
4851000000.000000      7.558899000000000E-01     -1.657422000000000E+02      3.906708000000000E-01     -4.335742000000000E+01      3.845978000000000E-01     -1.492266000000000E+02      7.650757000000000E-01     -7.449609000000000E+01
4852000000.000000      7.630920000000000E-01     -1.658828000000000E+02      3.901520000000000E-01     -4.375196000000000E+01      3.864136000000000E-01     -1.493203000000000E+02      7.680969000000000E-01     -7.452343000000000E+01
4853000000.000000      7.693481000000000E-01     -1.658516000000000E+02      3.886566000000000E-01     -4.432031000000000E+01      3.881226000000000E-01     -1.495859000000000E+02      7.725830000000000E-01     -7.466406000000000E+01
4854000000.000000      7.775879000000000E-01     -1.658047000000000E+02      3.899384000000000E-01     -4.508398000000000E+01      3.899689000000000E-01     -1.497031000000000E+02      7.795105000000000E-01     -7.461328000000000E+01
4855000000.000000      7.817078000000000E-01     -1.658750000000000E+02      3.901367000000000E-01     -4.523046000000000E+01      3.901062000000000E-01     -1.499063000000000E+02      7.818604000000000E-01     -7.464844000000000E+01
4856000000.000000      7.894897000000000E-01     -1.657109000000000E+02      3.903656000000000E-01     -4.576953000000000E+01      3.916016000000000E-01     -1.500625000000000E+02      7.879028000000000E-01     -7.476563000000000E+01
4857000000.000000      7.960815000000000E-01     -1.659141000000000E+02      3.902435000000000E-01     -4.627149000000000E+01      3.924561000000000E-01     -1.502187000000000E+02      7.923584000000000E-01     -7.465234000000000E+01
4858000000.000000      7.994690000000000E-01     -1.658672000000000E+02      3.888855000000000E-01     -4.674024000000000E+01      3.936615000000000E-01     -1.504922000000000E+02      7.966614000000000E-01     -7.487499000000000E+01
4859000000.000000      8.075562000000000E-01     -1.658750000000000E+02      3.890533000000000E-01     -4.726758000000000E+01      3.946838000000000E-01     -1.506719000000000E+02      8.035278000000000E-01     -7.495703000000000E+01
4860000000.000000      8.149719000000000E-01     -1.658984000000000E+02      3.893585000000000E-01     -4.767383000000000E+01      3.961945000000000E-01     -1.507891000000000E+02      8.061218000000000E-01     -7.484375000000000E+01
4861000000.000000      8.193359000000000E-01     -1.657266000000000E+02      3.879547000000000E-01     -4.813281000000000E+01      3.972626000000000E-01     -1.509844000000000E+02      8.112488000000000E-01     -7.500781000000000E+01
4862000000.000000      8.249207000000000E-01     -1.657266000000000E+02      3.883972000000000E-01     -4.853516000000000E+01      3.991394000000000E-01     -1.510937000000000E+02      8.195801000000000E-01     -7.500781000000000E+01
4863000000.000000      8.300781000000000E-01     -1.657422000000000E+02      3.865204000000000E-01     -4.917382000000000E+01      3.996429000000000E-01     -1.513125000000000E+02      8.227234000000000E-01     -7.512109000000000E+01
4864000000.000000      8.359680000000000E-01     -1.658359000000000E+02      3.867493000000000E-01     -4.941211000000000E+01      3.999786000000000E-01     -1.514375000000000E+02      8.275452000000000E-01     -7.519921000000000E+01
4865000000.000000      8.388367000000000E-01     -1.659609000000000E+02      3.853455000000000E-01     -4.990039000000000E+01      4.015045000000000E-01     -1.517109000000000E+02      8.318176000000000E-01     -7.521093000000000E+01
4866000000.000000      8.434448000000000E-01     -1.658203000000000E+02      3.840790000000000E-01     -5.020508000000000E+01      4.017639000000000E-01     -1.517969000000000E+02      8.374939000000000E-01     -7.530859000000000E+01
4867000000.000000      8.500671000000000E-01     -1.658125000000000E+02      3.838806000000000E-01     -5.074219000000000E+01      4.023132000000000E-01     -1.519922000000000E+02      8.420105000000000E-01     -7.532031000000000E+01
4868000000.000000      8.541565000000000E-01     -1.659844000000000E+02      3.821869000000000E-01     -5.114258000000000E+01      4.041901000000000E-01     -1.521094000000000E+02      8.469543000000000E-01     -7.546484000000000E+01
4869000000.000000      8.559265000000000E-01     -1.658359000000000E+02      3.804321000000000E-01     -5.162304000000000E+01      4.044342000000000E-01     -1.523047000000000E+02      8.511963000000000E-01     -7.567187000000000E+01
4870000000.000000      8.610535000000000E-01     -1.657891000000000E+02      3.804321000000000E-01     -5.167187000000000E+01      4.052277000000000E-01     -1.525391000000000E+02      8.568726000000000E-01     -7.562500000000000E+01
4871000000.000000      8.643188000000000E-01     -1.659141000000000E+02      3.788605000000000E-01     -5.222851000000000E+01      4.049530000000000E-01     -1.527031000000000E+02      8.613892000000000E-01     -7.583593000000000E+01
4872000000.000000      8.705750000000000E-01     -1.658203000000000E+02      3.760223000000000E-01     -5.231835000000000E+01      4.061127000000000E-01     -1.529922000000000E+02      8.652344000000000E-01     -7.589844000000000E+01
4873000000.000000      8.737793000000000E-01     -1.657344000000000E+02      3.754578000000000E-01     -5.272851000000000E+01      4.057465000000000E-01     -1.530469000000000E+02      8.693542000000000E-01     -7.606250000000000E+01
4874000000.000000      8.753357000000000E-01     -1.656563000000000E+02      3.744354000000000E-01     -5.315234000000000E+01      4.075775000000000E-01     -1.531250000000000E+02      8.740845000000000E-01     -7.598437000000000E+01
4875000000.000000      8.790588000000000E-01     -1.656953000000000E+02      3.725128000000000E-01     -5.334179000000000E+01      4.075165000000000E-01     -1.535000000000000E+02      8.785706000000000E-01     -7.625781000000000E+01
4876000000.000000      8.809204000000000E-01     -1.657500000000000E+02      3.719788000000000E-01     -5.363867000000000E+01      4.069214000000000E-01     -1.535625000000000E+02      8.827209000000000E-01     -7.645702000000000E+01
4877000000.000000      8.841553000000000E-01     -1.655547000000000E+02      3.703461000000000E-01     -5.370117000000000E+01      4.078217000000000E-01     -1.538359000000000E+02      8.881836000000000E-01     -7.650000000000000E+01
4878000000.000000      8.892822000000000E-01     -1.654922000000000E+02      3.696594000000000E-01     -5.406640000000000E+01      4.078217000000000E-01     -1.538359000000000E+02      8.914490000000000E-01     -7.651953000000000E+01
4879000000.000000      8.908691000000000E-01     -1.655937000000000E+02      3.668365000000000E-01     -5.433203000000000E+01      4.079590000000000E-01     -1.540313000000000E+02      8.934631000000000E-01     -7.654687000000000E+01
4880000000.000000      8.909302000000000E-01     -1.654219000000000E+02      3.659058000000000E-01     -5.455273000000000E+01      4.087982000000000E-01     -1.540625000000000E+02      8.988647000000000E-01     -7.671093000000000E+01
4881000000.000000      8.944092000000000E-01     -1.652812000000000E+02      3.645935000000000E-01     -5.473827000000000E+01      4.083862000000000E-01     -1.543359000000000E+02      9.042664000000000E-01     -7.687890000000000E+01
4882000000.000000      8.930359000000000E-01     -1.652578000000000E+02      3.631287000000000E-01     -5.485937000000000E+01      4.078369000000000E-01     -1.544141000000000E+02      9.067993000000000E-01     -7.698828000000000E+01
