! Network Analyzer HP8722D
! Hewlett-Packard
! Data name: Linha & Wilkinson
! Saver's name: Rodrigo Anjos
! Comments: Teste da utilização de aquisição
continua pelo VNA HP8722D
! Time and date: 6/5/2025 13:49
!              Frequency                     S11                                                   S21                                                   S12                                                   S22
# HZ  S  MA R 50
4800000000.000000      4.976959000000000E-01     -1.683047000000000E+02      2.529602000000000E-01     -1.983398000000000E+01      2.499847000000000E-01     -1.410469000000000E+02      6.481323000000000E-01     -8.032812000000000E+01
4801000000.000000      4.986572000000000E-01     -1.683750000000000E+02      2.571411000000000E-01     -2.007519000000000E+01      2.532349000000000E-01     -1.411719000000000E+02      6.467285000000000E-01     -8.009766000000000E+01
4802000000.000000      5.006104000000000E-01     -1.684687000000000E+02      2.613373000000000E-01     -2.019922000000000E+01      2.572632000000000E-01     -1.412188000000000E+02      6.458435000000000E-01     -7.976563000000000E+01
4803000000.000000      5.014648000000000E-01     -1.685547000000000E+02      2.659149000000000E-01     -2.061328000000000E+01      2.605286000000000E-01     -1.412969000000000E+02      6.460266000000000E-01     -7.967578000000000E+01
4804000000.000000      5.039978000000000E-01     -1.684687000000000E+02      2.695770000000000E-01     -2.084570000000000E+01      2.642822000000000E-01     -1.414219000000000E+02      6.446228000000000E-01     -7.935937000000000E+01
4805000000.000000      5.065002000000000E-01     -1.685625000000000E+02      2.733154000000000E-01     -2.110156000000000E+01      2.681274000000000E-01     -1.413984000000000E+02      6.452332000000000E-01     -7.919922000000000E+01
4806000000.000000      5.081177000000000E-01     -1.684844000000000E+02      2.773743000000000E-01     -2.142383000000000E+01      2.708130000000000E-01     -1.414531000000000E+02      6.438904000000000E-01     -7.910546000000000E+01
4807000000.000000      5.110474000000000E-01     -1.685469000000000E+02      2.811737000000000E-01     -2.173828000000000E+01      2.751007000000000E-01     -1.416563000000000E+02      6.434021000000000E-01     -7.881249000000000E+01
4808000000.000000      5.140076000000000E-01     -1.684844000000000E+02      2.858429000000000E-01     -2.205664000000000E+01      2.786865000000000E-01     -1.417031000000000E+02      6.425476000000000E-01     -7.858593000000000E+01
4809000000.000000      5.158997000000000E-01     -1.685078000000000E+02      2.895050000000000E-01     -2.261133000000000E+01      2.828217000000000E-01     -1.418906000000000E+02      6.429138000000000E-01     -7.847265000000000E+01
4810000000.000000      5.192871000000000E-01     -1.684844000000000E+02      2.932739000000000E-01     -2.292578000000000E+01      2.854767000000000E-01     -1.420703000000000E+02      6.453857000000000E-01     -7.823437000000000E+01
4811000000.000000      5.223389000000000E-01     -1.684609000000000E+02      2.972107000000000E-01     -2.318848000000000E+01      2.897186000000000E-01     -1.421328000000000E+02      6.444702000000000E-01     -7.795703000000000E+01
4812000000.000000      5.263672000000000E-01     -1.683906000000000E+02      3.007202000000000E-01     -2.370898000000000E+01      2.925110000000000E-01     -1.422266000000000E+02      6.451721000000000E-01     -7.779687000000000E+01
4813000000.000000      5.290527000000000E-01     -1.683203000000000E+02      3.048859000000000E-01     -2.402441000000000E+01      2.952728000000000E-01     -1.423594000000000E+02      6.453247000000000E-01     -7.760547000000000E+01
4814000000.000000      5.319824000000000E-01     -1.684375000000000E+02      3.081665000000000E-01     -2.439550000000000E+01      2.986603000000000E-01     -1.426172000000000E+02      6.470337000000000E-01     -7.742578000000000E+01
4815000000.000000      5.352173000000000E-01     -1.682266000000000E+02      3.115082000000000E-01     -2.482812000000000E+01      3.017731000000000E-01     -1.426797000000000E+02      6.477966000000000E-01     -7.709765000000000E+01
4816000000.000000      5.405579000000000E-01     -1.681328000000000E+02      3.164368000000000E-01     -2.506348000000000E+01      3.063660000000000E-01     -1.427578000000000E+02      6.495361000000000E-01     -7.699219000000000E+01
4817000000.000000      5.449524000000000E-01     -1.680391000000000E+02      3.192902000000000E-01     -2.564550000000000E+01      3.087006000000000E-01     -1.430547000000000E+02      6.493835000000000E-01     -7.684375000000000E+01
4818000000.000000      5.482483000000000E-01     -1.680703000000000E+02      3.218536000000000E-01     -2.607812000000000E+01      3.114471000000000E-01     -1.431484000000000E+02      6.518250000000000E-01     -7.669531000000000E+01
4819000000.000000      5.531006000000000E-01     -1.679844000000000E+02      3.262177000000000E-01     -2.656836000000000E+01      3.139496000000000E-01     -1.434766000000000E+02      6.543579000000000E-01     -7.662890000000000E+01
4820000000.000000      5.557251000000000E-01     -1.679062000000000E+02      3.291016000000000E-01     -2.702441000000000E+01      3.175201000000000E-01     -1.436563000000000E+02      6.552734000000000E-01     -7.643359000000000E+01
4821000000.000000      5.618896000000000E-01     -1.677656000000000E+02      3.328247000000000E-01     -2.736230000000000E+01      3.197021000000000E-01     -1.438906000000000E+02      6.567078000000000E-01     -7.625781000000000E+01
4822000000.000000      5.686646000000000E-01     -1.677891000000000E+02      3.359833000000000E-01     -2.793066000000000E+01      3.227081000000000E-01     -1.441797000000000E+02      6.591187000000000E-01     -7.619141000000000E+01
4823000000.000000      5.719604000000000E-01     -1.676406000000000E+02      3.389587000000000E-01     -2.840039000000000E+01      3.257904000000000E-01     -1.439609000000000E+02      6.606140000000000E-01     -7.601171000000000E+01
4824000000.000000      5.788269000000000E-01     -1.676250000000000E+02      3.419800000000000E-01     -2.900586000000000E+01      3.293152000000000E-01     -1.445391000000000E+02      6.636658000000000E-01     -7.582421000000000E+01
4825000000.000000      5.824890000000000E-01     -1.674766000000000E+02      3.443909000000000E-01     -2.922852000000000E+01      3.318939000000000E-01     -1.445703000000000E+02      6.662598000000000E-01     -7.567577000000000E+01
4826000000.000000      5.892029000000000E-01     -1.673437000000000E+02      3.478088000000000E-01     -2.993847000000000E+01      3.339386000000000E-01     -1.447891000000000E+02      6.690674000000000E-01     -7.572656000000000E+01
4827000000.000000      5.950317000000000E-01     -1.672422000000000E+02      3.511810000000000E-01     -3.039160000000000E+01      3.356476000000000E-01     -1.448672000000000E+02      6.719055000000000E-01     -7.548437000000000E+01
4828000000.000000      6.015015000000000E-01     -1.671406000000000E+02      3.540955000000000E-01     -3.096972000000000E+01      3.387604000000000E-01     -1.450469000000000E+02      6.751099000000000E-01     -7.548828000000000E+01
4829000000.000000      6.048279000000000E-01     -1.670938000000000E+02      3.555145000000000E-01     -3.153906000000000E+01      3.418274000000000E-01     -1.452578000000000E+02      6.773682000000000E-01     -7.524219000000000E+01
4830000000.000000      6.127319000000000E-01     -1.670000000000000E+02      3.587036000000000E-01     -3.199707000000000E+01      3.437195000000000E-01     -1.454609000000000E+02      6.798096000000000E-01     -7.530859000000000E+01
4831000000.000000      6.174927000000000E-01     -1.668906000000000E+02      3.611145000000000E-01     -3.258594000000000E+01      3.469086000000000E-01     -1.456328000000000E+02      6.838684000000000E-01     -7.518359000000000E+01
4832000000.000000      6.261292000000000E-01     -1.667578000000000E+02      3.638611000000000E-01     -3.305469000000000E+01      3.491211000000000E-01     -1.458516000000000E+02      6.869507000000000E-01     -7.504687000000000E+01
4833000000.000000      6.320190000000000E-01     -1.667969000000000E+02      3.653870000000000E-01     -3.368359000000000E+01      3.506622000000000E-01     -1.461797000000000E+02      6.899719000000000E-01     -7.501953000000000E+01
4834000000.000000      6.382141000000000E-01     -1.667344000000000E+02      3.681946000000000E-01     -3.418554000000000E+01      3.533783000000000E-01     -1.464141000000000E+02      6.932373000000000E-01     -7.489062000000000E+01
4835000000.000000      6.446533000000000E-01     -1.666484000000000E+02      3.704376000000000E-01     -3.480078000000000E+01      3.565216000000000E-01     -1.464609000000000E+02      6.974487000000000E-01     -7.498828000000000E+01
4836000000.000000      6.529236000000000E-01     -1.665547000000000E+02      3.721161000000000E-01     -3.535937000000000E+01      3.581543000000000E-01     -1.465469000000000E+02      7.008057000000000E-01     -7.489452000000000E+01
4837000000.000000      6.592102000000000E-01     -1.663906000000000E+02      3.736572000000000E-01     -3.615039000000000E+01      3.594360000000000E-01     -1.469609000000000E+02      7.051697000000000E-01     -7.473827000000000E+01
4838000000.000000      6.657715000000000E-01     -1.664453000000000E+02      3.771515000000000E-01     -3.644922000000000E+01      3.618469000000000E-01     -1.471172000000000E+02      7.082214000000000E-01     -7.472656000000000E+01
4839000000.000000      6.730042000000000E-01     -1.663359000000000E+02      3.780060000000000E-01     -3.680078000000000E+01      3.642731000000000E-01     -1.472891000000000E+02      7.126160000000000E-01     -7.462891000000000E+01
4840000000.000000      6.793518000000000E-01     -1.663281000000000E+02      3.789673000000000E-01     -3.758789000000000E+01      3.661804000000000E-01     -1.475078000000000E+02      7.162170000000000E-01     -7.471484000000000E+01
4841000000.000000      6.868591000000000E-01     -1.663359000000000E+02      3.809814000000000E-01     -3.828516000000000E+01      3.679810000000000E-01     -1.477578000000000E+02      7.207642000000000E-01     -7.461719000000000E+01
4842000000.000000      6.937561000000000E-01     -1.661797000000000E+02      3.815460000000000E-01     -3.860547000000000E+01      3.694153000000000E-01     -1.479219000000000E+02      7.255554000000000E-01     -7.461719000000000E+01
4843000000.000000      7.005920000000000E-01     -1.662812000000000E+02      3.830109000000000E-01     -3.931250000000000E+01      3.716125000000000E-01     -1.480234000000000E+02      7.287903000000000E-01     -7.467578000000000E+01
4844000000.000000      7.080078000000000E-01     -1.662500000000000E+02      3.837433000000000E-01     -3.982422000000000E+01      3.726807000000000E-01     -1.482344000000000E+02      7.332764000000000E-01     -7.460546000000000E+01
4845000000.000000      7.140808000000000E-01     -1.660859000000000E+02      3.853149000000000E-01     -4.027344000000000E+01      3.752441000000000E-01     -1.485391000000000E+02      7.377930000000000E-01     -7.450390000000000E+01
4846000000.000000      7.217712000000000E-01     -1.660625000000000E+02      3.862457000000000E-01     -4.091210000000000E+01      3.773804000000000E-01     -1.486172000000000E+02      7.424011000000000E-01     -7.460938000000000E+01
4847000000.000000      7.298889000000000E-01     -1.660234000000000E+02      3.872528000000000E-01     -4.127734000000000E+01      3.789215000000000E-01     -1.488516000000000E+02      7.474670000000000E-01     -7.459374000000000E+01
4848000000.000000      7.361450000000000E-01     -1.659844000000000E+02      3.876038000000000E-01     -4.179101000000000E+01      3.805389000000000E-01     -1.490313000000000E+02      7.506714000000000E-01     -7.453515000000000E+01
4849000000.000000      7.434387000000000E-01     -1.662188000000000E+02      3.893585000000000E-01     -4.256640000000000E+01      3.816681000000000E-01     -1.491250000000000E+02      7.553406000000000E-01     -7.464453000000000E+01
4850000000.000000      7.507629000000000E-01     -1.660547000000000E+02      3.890381000000000E-01     -4.297071000000000E+01      3.834534000000000E-01     -1.492734000000000E+02      7.597656000000000E-01     -7.461719000000000E+01
4851000000.000000      7.576904000000000E-01     -1.659688000000000E+02      3.898010000000000E-01     -4.362695000000000E+01      3.843689000000000E-01     -1.495469000000000E+02      7.654114000000000E-01     -7.460546000000000E+01
4852000000.000000      7.645569000000000E-01     -1.660156000000000E+02      3.905640000000000E-01     -4.417382000000000E+01      3.869324000000000E-01     -1.497031000000000E+02      7.703552000000000E-01     -7.464453000000000E+01
4853000000.000000      7.714844000000000E-01     -1.660156000000000E+02      3.892975000000000E-01     -4.455664000000000E+01      3.880768000000000E-01     -1.498828000000000E+02      7.742615000000000E-01     -7.488671000000000E+01
4854000000.000000      7.775574000000000E-01     -1.660000000000000E+02      3.906250000000000E-01     -4.520898000000000E+01      3.886719000000000E-01     -1.500313000000000E+02      7.799377000000000E-01     -7.475390000000000E+01
4855000000.000000      7.836609000000000E-01     -1.660156000000000E+02      3.893738000000000E-01     -4.562696000000000E+01      3.899536000000000E-01     -1.501797000000000E+02      7.830811000000000E-01     -7.481250000000000E+01
4856000000.000000      7.914124000000000E-01     -1.659688000000000E+02      3.896484000000000E-01     -4.607812000000000E+01      3.916779000000000E-01     -1.504219000000000E+02      7.885742000000000E-01     -7.478125000000000E+01
4857000000.000000      7.974243000000000E-01     -1.661094000000000E+02      3.900452000000000E-01     -4.659180000000000E+01      3.925018000000000E-01     -1.504297000000000E+02      7.939148000000000E-01     -7.486718000000000E+01
4858000000.000000      8.005371000000000E-01     -1.660781000000000E+02      3.896484000000000E-01     -4.710546000000000E+01      3.932800000000000E-01     -1.507578000000000E+02      7.979736000000000E-01     -7.501562000000000E+01
4859000000.000000      8.101501000000000E-01     -1.660312000000000E+02      3.890533000000000E-01     -4.753515000000000E+01      3.948212000000000E-01     -1.509844000000000E+02      8.041382000000000E-01     -7.506249000000000E+01
4860000000.000000      8.138733000000000E-01     -1.660078000000000E+02      3.885956000000000E-01     -4.798437000000000E+01      3.959503000000000E-01     -1.509922000000000E+02      8.073730000000000E-01     -7.502343000000000E+01
4861000000.000000      8.196716000000000E-01     -1.660625000000000E+02      3.877869000000000E-01     -4.857616000000000E+01      3.973541000000000E-01     -1.512422000000000E+02      8.125916000000000E-01     -7.520312000000000E+01
4862000000.000000      8.250732000000000E-01     -1.660938000000000E+02      3.881989000000000E-01     -4.886719000000000E+01      3.985748000000000E-01     -1.514062000000000E+02      8.186035000000000E-01     -7.519531000000000E+01
4863000000.000000      8.298340000000000E-01     -1.661562000000000E+02      3.869781000000000E-01     -4.938086000000000E+01      3.997040000000000E-01     -1.515000000000000E+02      8.229675000000000E-01     -7.534374000000000E+01
4864000000.000000      8.354797000000000E-01     -1.660391000000000E+02      3.865509000000000E-01     -4.963085000000000E+01      3.993073000000000E-01     -1.517266000000000E+02      8.282776000000000E-01     -7.535156000000000E+01
4865000000.000000      8.409119000000000E-01     -1.662188000000000E+02      3.847809000000000E-01     -5.013085000000000E+01      4.009247000000000E-01     -1.519766000000000E+02      8.328857000000000E-01     -7.534374000000000E+01
4866000000.000000      8.452454000000000E-01     -1.661172000000000E+02      3.837280000000000E-01     -5.048242000000000E+01      4.021301000000000E-01     -1.521250000000000E+02      8.374329000000000E-01     -7.549609000000000E+01
4867000000.000000      8.509827000000000E-01     -1.660781000000000E+02      3.833923000000000E-01     -5.107422000000000E+01      4.028168000000000E-01     -1.523047000000000E+02      8.434143000000000E-01     -7.555469000000000E+01
4868000000.000000      8.530579000000000E-01     -1.660625000000000E+02      3.825531000000000E-01     -5.132813000000000E+01      4.036255000000000E-01     -1.523594000000000E+02      8.468628000000000E-01     -7.555078000000000E+01
4869000000.000000      8.570557000000000E-01     -1.660859000000000E+02      3.805542000000000E-01     -5.174414000000000E+01      4.045410000000000E-01     -1.526094000000000E+02      8.524475000000000E-01     -7.579296000000000E+01
4870000000.000000      8.616943000000000E-01     -1.660234000000000E+02      3.802795000000000E-01     -5.185156000000000E+01      4.044647000000000E-01     -1.528125000000000E+02      8.582153000000000E-01     -7.575781000000000E+01
4871000000.000000      8.666382000000000E-01     -1.660625000000000E+02      3.785858000000000E-01     -5.236328000000000E+01      4.046936000000000E-01     -1.529922000000000E+02      8.609009000000000E-01     -7.598046000000000E+01
4872000000.000000      8.707275000000000E-01     -1.660078000000000E+02      3.761597000000000E-01     -5.273828000000000E+01      4.054108000000000E-01     -1.532422000000000E+02      8.657837000000000E-01     -7.600780000000000E+01
4873000000.000000      8.724670000000000E-01     -1.658828000000000E+02      3.749390000000000E-01     -5.306445000000000E+01      4.058533000000000E-01     -1.532734000000000E+02      8.700256000000000E-01     -7.617188000000000E+01
4874000000.000000      8.752441000000000E-01     -1.660625000000000E+02      3.739166000000000E-01     -5.338476000000000E+01      4.071808000000000E-01     -1.534219000000000E+02      8.742065000000000E-01     -7.608984000000000E+01
4875000000.000000      8.827820000000000E-01     -1.659062000000000E+02      3.720703000000000E-01     -5.359570000000000E+01      4.068909000000000E-01     -1.537422000000000E+02      8.787842000000000E-01     -7.630859000000000E+01
4876000000.000000      8.812561000000000E-01     -1.659219000000000E+02      3.716431000000000E-01     -5.389257000000000E+01      4.061127000000000E-01     -1.538047000000000E+02      8.837280000000000E-01     -7.652734000000000E+01
4877000000.000000      8.840332000000000E-01     -1.658437000000000E+02      3.699646000000000E-01     -5.412109000000000E+01      4.076691000000000E-01     -1.540859000000000E+02      8.868103000000000E-01     -7.648438000000000E+01
4878000000.000000      8.881226000000000E-01     -1.657422000000000E+02      3.693085000000000E-01     -5.432812000000000E+01      4.078674000000000E-01     -1.540937000000000E+02      8.922729000000000E-01     -7.672265000000000E+01
4879000000.000000      8.898315000000000E-01     -1.657734000000000E+02      3.667450000000000E-01     -5.443164000000000E+01      4.076538000000000E-01     -1.542734000000000E+02      8.939514000000000E-01     -7.676952000000000E+01
4880000000.000000      8.912659000000000E-01     -1.656484000000000E+02      3.658600000000000E-01     -5.491796000000000E+01      4.076385000000000E-01     -1.543516000000000E+02      9.006348000000000E-01     -7.687890000000000E+01
4881000000.000000      8.943787000000000E-01     -1.654922000000000E+02      3.645020000000000E-01     -5.486328000000000E+01      4.086456000000000E-01     -1.546016000000000E+02      9.039917000000000E-01     -7.710938000000000E+01
4882000000.000000      8.934937000000000E-01     -1.655000000000000E+02      3.627777000000000E-01     -5.507617000000000E+01      4.080963000000000E-01     -1.546875000000000E+02      9.065857000000000E-01     -7.710546000000000E+01
