! Network Analyzer HP8722D
! Hewlett-Packard
! Data name: Linha & Wilkinson
! Saver's name: Rodrigo Anjos
! Comments: Teste da utilização de aquisição
continua pelo VNA HP8722D
! Time and date: 6/5/2025 15:53
!              Frequency                     S11                                                   S21                                                   S12                                                   S22
# HZ  S  MA R 50
4800000000.000000      4.961090000000000E-01     -1.681015000000000E+02      2.513428000000000E-01     -1.947558000000000E+01      2.478561000000000E-01     -1.407422000000000E+02      6.476440000000000E-01     -8.032030000000000E+01
4801000000.000000      4.975739000000000E-01     -1.681641000000000E+02      2.549133000000000E-01     -1.971680000000000E+01      2.510681000000000E-01     -1.407891000000000E+02      6.463318000000000E-01     -8.013281000000000E+01
4802000000.000000      4.988708000000000E-01     -1.682578000000000E+02      2.588654000000000E-01     -1.993359000000000E+01      2.557983000000000E-01     -1.407187000000000E+02      6.457520000000000E-01     -7.983984000000000E+01
4803000000.000000      5.006104000000000E-01     -1.683516000000000E+02      2.639160000000000E-01     -2.008105000000000E+01      2.585602000000000E-01     -1.408516000000000E+02      6.445923000000000E-01     -7.969531000000000E+01
4804000000.000000      5.026245000000000E-01     -1.682656000000000E+02      2.675018000000000E-01     -2.032227000000000E+01      2.628326000000000E-01     -1.409688000000000E+02      6.437683000000000E-01     -7.943359000000000E+01
4805000000.000000      5.050354000000000E-01     -1.683437000000000E+02      2.715302000000000E-01     -2.076367000000000E+01      2.659149000000000E-01     -1.409375000000000E+02      6.435242000000000E-01     -7.919922000000000E+01
4806000000.000000      5.062866000000000E-01     -1.682656000000000E+02      2.758179000000000E-01     -2.093066000000000E+01      2.691650000000000E-01     -1.409453000000000E+02      6.434326000000000E-01     -7.905078000000000E+01
4807000000.000000      5.093689000000000E-01     -1.683594000000000E+02      2.798462000000000E-01     -2.140723000000000E+01      2.730865000000000E-01     -1.412891000000000E+02      6.430969000000000E-01     -7.887890000000000E+01
4808000000.000000      5.123596000000000E-01     -1.682734000000000E+02      2.843628000000000E-01     -2.152246000000000E+01      2.768250000000000E-01     -1.412734000000000E+02      6.427917000000000E-01     -7.874609000000000E+01
4809000000.000000      5.148010000000000E-01     -1.682969000000000E+02      2.872467000000000E-01     -2.216113000000000E+01      2.805328000000000E-01     -1.414141000000000E+02      6.434937000000000E-01     -7.848046000000000E+01
4810000000.000000      5.174561000000000E-01     -1.682891000000000E+02      2.915649000000000E-01     -2.231348000000000E+01      2.837219000000000E-01     -1.415703000000000E+02      6.439514000000000E-01     -7.828515000000000E+01
4811000000.000000      5.206299000000000E-01     -1.682344000000000E+02      2.954865000000000E-01     -2.281543000000000E+01      2.881775000000000E-01     -1.416406000000000E+02      6.441956000000000E-01     -7.796875000000000E+01
4812000000.000000      5.248108000000000E-01     -1.682109000000000E+02      2.994995000000000E-01     -2.318848000000000E+01      2.913818000000000E-01     -1.417578000000000E+02      6.448669000000000E-01     -7.782812000000000E+01
4813000000.000000      5.271912000000000E-01     -1.681172000000000E+02      3.028412000000000E-01     -2.364258000000000E+01      2.939758000000000E-01     -1.418750000000000E+02      6.447754000000000E-01     -7.755859000000000E+01
4814000000.000000      5.304565000000000E-01     -1.682266000000000E+02      3.065338000000000E-01     -2.385156000000000E+01      2.976837000000000E-01     -1.421406000000000E+02      6.461182000000000E-01     -7.739452000000000E+01
4815000000.000000      5.335083000000000E-01     -1.680469000000000E+02      3.102417000000000E-01     -2.423047000000000E+01      3.007965000000000E-01     -1.421250000000000E+02      6.463623000000000E-01     -7.720312000000000E+01
4816000000.000000      5.387878000000000E-01     -1.679297000000000E+02      3.137054000000000E-01     -2.464258000000000E+01      3.047638000000000E-01     -1.423359000000000E+02      6.478271000000000E-01     -7.702734000000000E+01
4817000000.000000      5.428772000000000E-01     -1.678594000000000E+02      3.174591000000000E-01     -2.516504000000000E+01      3.068085000000000E-01     -1.425547000000000E+02      6.484985000000000E-01     -7.686328000000000E+01
4818000000.000000      5.465698000000000E-01     -1.678750000000000E+02      3.204956000000000E-01     -2.555761000000000E+01      3.101654000000000E-01     -1.426953000000000E+02      6.503601000000000E-01     -7.670703000000000E+01
4819000000.000000      5.513916000000000E-01     -1.677891000000000E+02      3.243256000000000E-01     -2.594922000000000E+01      3.125610000000000E-01     -1.428516000000000E+02      6.517334000000000E-01     -7.662499000000000E+01
4820000000.000000      5.539551000000000E-01     -1.676719000000000E+02      3.274841000000000E-01     -2.637304000000000E+01      3.157654000000000E-01     -1.430469000000000E+02      6.543274000000000E-01     -7.646093000000000E+01
4821000000.000000      5.598450000000000E-01     -1.675625000000000E+02      3.317108000000000E-01     -2.699414000000000E+01      3.192596000000000E-01     -1.433906000000000E+02      6.549683000000000E-01     -7.630077000000000E+01
4822000000.000000      5.662231000000000E-01     -1.675390000000000E+02      3.343048000000000E-01     -2.747070000000000E+01      3.219147000000000E-01     -1.434531000000000E+02      6.579285000000000E-01     -7.602734000000000E+01
4823000000.000000      5.695190000000000E-01     -1.673906000000000E+02      3.377686000000000E-01     -2.788769000000000E+01      3.248749000000000E-01     -1.436172000000000E+02      6.599731000000000E-01     -7.600390000000000E+01
4824000000.000000      5.771484000000000E-01     -1.673828000000000E+02      3.411102000000000E-01     -2.849609000000000E+01      3.280334000000000E-01     -1.438984000000000E+02      6.624451000000000E-01     -7.584765000000000E+01
4825000000.000000      5.802307000000000E-01     -1.672656000000000E+02      3.432770000000000E-01     -2.885742000000000E+01      3.313293000000000E-01     -1.440391000000000E+02      6.647339000000000E-01     -7.571484000000000E+01
4826000000.000000      5.870667000000000E-01     -1.672031000000000E+02      3.469696000000000E-01     -2.952051000000000E+01      3.332062000000000E-01     -1.442266000000000E+02      6.676941000000000E-01     -7.563671000000000E+01
4827000000.000000      5.929565000000000E-01     -1.670156000000000E+02      3.499451000000000E-01     -2.970508000000000E+01      3.357849000000000E-01     -1.444453000000000E+02      6.694641000000000E-01     -7.554296000000000E+01
4828000000.000000      5.992737000000000E-01     -1.669765000000000E+02      3.526306000000000E-01     -3.042578000000000E+01      3.383179000000000E-01     -1.446640000000000E+02      6.738586000000000E-01     -7.547265000000000E+01
4829000000.000000      6.026306000000000E-01     -1.668203000000000E+02      3.547516000000000E-01     -3.093554000000000E+01      3.405914000000000E-01     -1.448047000000000E+02      6.767578000000000E-01     -7.520312000000000E+01
4830000000.000000      6.097717000000000E-01     -1.667969000000000E+02      3.575134000000000E-01     -3.163574000000000E+01      3.431091000000000E-01     -1.448906000000000E+02      6.784668000000000E-01     -7.522265000000000E+01
4831000000.000000      6.152039000000000E-01     -1.666953000000000E+02      3.603058000000000E-01     -3.213281000000000E+01      3.460388000000000E-01     -1.451172000000000E+02      6.817627000000000E-01     -7.503906000000000E+01
4832000000.000000      6.230774000000000E-01     -1.665625000000000E+02      3.621216000000000E-01     -3.261133000000000E+01      3.479919000000000E-01     -1.453047000000000E+02      6.857605000000000E-01     -7.496484000000000E+01
4833000000.000000      6.301270000000000E-01     -1.665781000000000E+02      3.652496000000000E-01     -3.307031000000000E+01      3.512878000000000E-01     -1.456640000000000E+02      6.886902000000000E-01     -7.490624000000000E+01
4834000000.000000      6.356812000000000E-01     -1.664766000000000E+02      3.675995000000000E-01     -3.373632000000000E+01      3.526306000000000E-01     -1.457969000000000E+02      6.927490000000000E-01     -7.486718000000000E+01
4835000000.000000      6.428833000000000E-01     -1.664375000000000E+02      3.697357000000000E-01     -3.430469000000000E+01      3.554077000000000E-01     -1.459531000000000E+02      6.958923000000000E-01     -7.483203000000000E+01
4836000000.000000      6.505737000000000E-01     -1.663047000000000E+02      3.712463000000000E-01     -3.497461000000000E+01      3.568878000000000E-01     -1.460781000000000E+02      6.990051000000000E-01     -7.472265000000000E+01
4837000000.000000      6.566772000000000E-01     -1.661953000000000E+02      3.727875000000000E-01     -3.549609000000000E+01      3.592987000000000E-01     -1.464531000000000E+02      7.025757000000000E-01     -7.467578000000000E+01
4838000000.000000      6.642151000000000E-01     -1.662344000000000E+02      3.759766000000000E-01     -3.590429000000000E+01      3.618011000000000E-01     -1.466484000000000E+02      7.073364000000000E-01     -7.465625000000000E+01
4839000000.000000      6.712036000000000E-01     -1.660469000000000E+02      3.768921000000000E-01     -3.636523000000000E+01      3.636475000000000E-01     -1.467187000000000E+02      7.111511000000000E-01     -7.450000000000000E+01
4840000000.000000      6.763916000000000E-01     -1.660703000000000E+02      3.787994000000000E-01     -3.691015000000000E+01      3.659210000000000E-01     -1.469531000000000E+02      7.142944000000000E-01     -7.450000000000000E+01
4841000000.000000      6.846313000000000E-01     -1.660547000000000E+02      3.804321000000000E-01     -3.756250000000000E+01      3.681946000000000E-01     -1.472578000000000E+02      7.203064000000000E-01     -7.450781000000000E+01
4842000000.000000      6.916199000000000E-01     -1.659765000000000E+02      3.816833000000000E-01     -3.814453000000000E+01      3.692780000000000E-01     -1.473828000000000E+02      7.237244000000000E-01     -7.448828000000000E+01
4843000000.000000      6.984253000000000E-01     -1.660469000000000E+02      3.830719000000000E-01     -3.876758000000000E+01      3.711700000000000E-01     -1.476172000000000E+02      7.278442000000000E-01     -7.435156000000000E+01
4844000000.000000      7.054138000000000E-01     -1.658828000000000E+02      3.835297000000000E-01     -3.919531000000000E+01      3.724823000000000E-01     -1.477344000000000E+02      7.314758000000000E-01     -7.454296000000000E+01
4845000000.000000      7.117615000000000E-01     -1.658906000000000E+02      3.851776000000000E-01     -3.978516000000000E+01      3.746643000000000E-01     -1.479844000000000E+02      7.360840000000000E-01     -7.441796000000000E+01
4846000000.000000      7.191772000000000E-01     -1.657187000000000E+02      3.856812000000000E-01     -4.034961000000000E+01      3.771973000000000E-01     -1.481484000000000E+02      7.408447000000000E-01     -7.440624000000000E+01
4847000000.000000      7.275085000000000E-01     -1.657891000000000E+02      3.873444000000000E-01     -4.096093000000000E+01      3.781738000000000E-01     -1.484141000000000E+02      7.454529000000000E-01     -7.457421000000000E+01
4848000000.000000      7.346191000000000E-01     -1.657031000000000E+02      3.872833000000000E-01     -4.133985000000000E+01      3.801117000000000E-01     -1.484844000000000E+02      7.496643000000000E-01     -7.445703000000000E+01
4849000000.000000      7.409363000000000E-01     -1.659219000000000E+02      3.892670000000000E-01     -4.195703000000000E+01      3.821411000000000E-01     -1.487422000000000E+02      7.534790000000000E-01     -7.437890000000000E+01
4850000000.000000      7.482300000000000E-01     -1.657109000000000E+02      3.891907000000000E-01     -4.251758000000000E+01      3.833313000000000E-01     -1.487656000000000E+02      7.596741000000000E-01     -7.444921000000000E+01
4851000000.000000      7.553711000000000E-01     -1.657422000000000E+02      3.908386000000000E-01     -4.306836000000000E+01      3.847198000000000E-01     -1.491406000000000E+02      7.639465000000000E-01     -7.440624000000000E+01
4852000000.000000      7.622986000000000E-01     -1.657500000000000E+02      3.904572000000000E-01     -4.346093000000000E+01      3.863068000000000E-01     -1.492422000000000E+02      7.682190000000000E-01     -7.450000000000000E+01
4853000000.000000      7.694092000000000E-01     -1.657031000000000E+02      3.895874000000000E-01     -4.408399000000000E+01      3.882904000000000E-01     -1.494688000000000E+02      7.740479000000000E-01     -7.460938000000000E+01
4854000000.000000      7.763977000000000E-01     -1.657500000000000E+02      3.901367000000000E-01     -4.472656000000000E+01      3.892822000000000E-01     -1.496016000000000E+02      7.780762000000000E-01     -7.458593000000000E+01
4855000000.000000      7.811890000000000E-01     -1.657266000000000E+02      3.902588000000000E-01     -4.501367000000000E+01      3.910370000000000E-01     -1.496562000000000E+02      7.817383000000000E-01     -7.456640000000000E+01
4856000000.000000      7.896118000000000E-01     -1.657187000000000E+02      3.900757000000000E-01     -4.570313000000000E+01      3.914490000000000E-01     -1.499531000000000E+02      7.885132000000000E-01     -7.468750000000000E+01
4857000000.000000      7.943726000000000E-01     -1.657422000000000E+02      3.903809000000000E-01     -4.604297000000000E+01      3.930359000000000E-01     -1.500781000000000E+02      7.917175000000000E-01     -7.473827000000000E+01
4858000000.000000      7.987366000000000E-01     -1.656641000000000E+02      3.896790000000000E-01     -4.659180000000000E+01      3.939056000000000E-01     -1.503047000000000E+02      7.966919000000000E-01     -7.480859000000000E+01
4859000000.000000      8.052979000000000E-01     -1.657656000000000E+02      3.896332000000000E-01     -4.703711000000000E+01      3.954773000000000E-01     -1.505469000000000E+02      8.026428000000000E-01     -7.489062000000000E+01
4860000000.000000      8.136292000000000E-01     -1.656953000000000E+02      3.892822000000000E-01     -4.757226000000000E+01      3.961945000000000E-01     -1.505781000000000E+02      8.072205000000000E-01     -7.480078000000000E+01
4861000000.000000      8.193054000000000E-01     -1.656875000000000E+02      3.885956000000000E-01     -4.813477000000000E+01      3.976288000000000E-01     -1.508047000000000E+02      8.109131000000000E-01     -7.494141000000000E+01
4862000000.000000      8.243103000000000E-01     -1.657031000000000E+02      3.886719000000000E-01     -4.837109000000000E+01      3.993073000000000E-01     -1.509140000000000E+02      8.184204000000000E-01     -7.488671000000000E+01
4863000000.000000      8.284912000000000E-01     -1.656406000000000E+02      3.865967000000000E-01     -4.911523000000000E+01      4.005280000000000E-01     -1.510469000000000E+02      8.216553000000000E-01     -7.503124000000000E+01
4864000000.000000      8.340759000000000E-01     -1.657031000000000E+02      3.873444000000000E-01     -4.914063000000000E+01      4.001465000000000E-01     -1.511953000000000E+02      8.258362000000000E-01     -7.508203000000000E+01
4865000000.000000      8.382263000000000E-01     -1.659062000000000E+02      3.854828000000000E-01     -4.980078000000000E+01      4.017944000000000E-01     -1.514688000000000E+02      8.323975000000000E-01     -7.517578000000000E+01
4866000000.000000      8.430786000000000E-01     -1.657344000000000E+02      3.833771000000000E-01     -5.007813000000000E+01      4.022827000000000E-01     -1.516797000000000E+02      8.365173000000000E-01     -7.516406000000000E+01
4867000000.000000      8.453674000000000E-01     -1.655703000000000E+02      3.844910000000000E-01     -5.062109000000000E+01      4.031525000000000E-01     -1.517734000000000E+02      8.418274000000000E-01     -7.523828000000000E+01
4868000000.000000      8.541260000000000E-01     -1.657734000000000E+02      3.828278000000000E-01     -5.091797000000000E+01      4.043884000000000E-01     -1.520000000000000E+02      8.458557000000000E-01     -7.535937000000000E+01
4869000000.000000      8.563232000000000E-01     -1.657266000000000E+02      3.807526000000000E-01     -5.138672000000000E+01      4.046936000000000E-01     -1.522266000000000E+02      8.514404000000000E-01     -7.566406000000000E+01
4870000000.000000      8.610229000000000E-01     -1.656719000000000E+02      3.802948000000000E-01     -5.157421000000000E+01      4.053955000000000E-01     -1.523828000000000E+02      8.571777000000000E-01     -7.557422000000000E+01
4871000000.000000      8.641968000000000E-01     -1.658281000000000E+02      3.789063000000000E-01     -5.208202000000000E+01      4.053650000000000E-01     -1.525547000000000E+02      8.601685000000000E-01     -7.582421000000000E+01
4872000000.000000      8.704529000000000E-01     -1.656016000000000E+02      3.768768000000000E-01     -5.226367000000000E+01      4.064789000000000E-01     -1.528281000000000E+02      8.651733000000000E-01     -7.580078000000000E+01
4873000000.000000      8.708496000000000E-01     -1.656484000000000E+02      3.753815000000000E-01     -5.255859000000000E+01      4.066315000000000E-01     -1.528437000000000E+02      8.690796000000000E-01     -7.596484000000000E+01
4874000000.000000      8.756714000000000E-01     -1.655000000000000E+02      3.739777000000000E-01     -5.291797000000000E+01      4.077606000000000E-01     -1.530000000000000E+02      8.735352000000000E-01     -7.590234000000000E+01
4875000000.000000      8.798828000000000E-01     -1.656484000000000E+02      3.732605000000000E-01     -5.313281000000000E+01      4.079437000000000E-01     -1.532891000000000E+02      8.783569000000000E-01     -7.606250000000000E+01
4876000000.000000      8.807068000000000E-01     -1.654453000000000E+02      3.717194000000000E-01     -5.352734000000000E+01      4.070892000000000E-01     -1.533906000000000E+02      8.832397000000000E-01     -7.629296000000000E+01
4877000000.000000      8.831482000000000E-01     -1.655078000000000E+02      3.695679000000000E-01     -5.359375000000000E+01      4.083557000000000E-01     -1.536641000000000E+02      8.875122000000000E-01     -7.644531000000000E+01
4878000000.000000      8.882141000000000E-01     -1.653906000000000E+02      3.699493000000000E-01     -5.393749000000000E+01      4.081116000000000E-01     -1.536562000000000E+02      8.913269000000000E-01     -7.653515000000000E+01
4879000000.000000      8.890991000000000E-01     -1.654219000000000E+02      3.668671000000000E-01     -5.407617000000000E+01      4.080811000000000E-01     -1.538906000000000E+02      8.962708000000000E-01     -7.650391000000000E+01
4880000000.000000      8.901062000000000E-01     -1.653437000000000E+02      3.655396000000000E-01     -5.437695000000000E+01      4.089966000000000E-01     -1.539219000000000E+02      8.989258000000000E-01     -7.654687000000000E+01
4881000000.000000      8.925781000000000E-01     -1.652891000000000E+02      3.656464000000000E-01     -5.444726000000000E+01      4.091339000000000E-01     -1.542109000000000E+02      9.033508000000000E-01     -7.685547000000000E+01
4882000000.000000      8.933105000000000E-01     -1.651953000000000E+02      3.631744000000000E-01     -5.468750000000000E+01      4.087830000000000E-01     -1.543047000000000E+02      9.060364000000000E-01     -7.691015000000000E+01
