! Network Analyzer HP8722D
! Hewlett-Packard
! Data name: Linha & Wilkinson
! Saver's name: Rodrigo Anjos
! Comments: Teste da utilização de aquisição
continua pelo VNA HP8722D
! Time and date: 6/5/2025 13:24
!              Frequency                     S11                                                   S21                                                   S12                                                   S22
# HZ  S  MA R 50
4800000000.000000      9.045410000000000E-01      1.157265000000000E+02      3.201904000000000E-01     -1.704609000000000E+02      2.569122000000000E-01     -8.612499000000000E+01      9.846802000000000E-01     -4.755468000000000E+01
4801000000.000000      9.052124000000000E-01      1.160117000000000E+02      3.196259000000000E-01     -1.705078000000000E+02      2.567902000000000E-01     -8.617579000000000E+01      9.805298000000000E-01     -4.766211000000000E+01
4802000000.000000      9.010925000000000E-01      1.163281000000000E+02      3.194885000000000E-01     -1.702266000000000E+02      2.572174000000000E-01     -8.586718000000000E+01      9.757996000000000E-01     -4.749804000000000E+01
4803000000.000000      8.989258000000000E-01      1.165547000000000E+02      3.208160000000000E-01     -1.700938000000000E+02      2.566986000000000E-01     -8.581640000000000E+01      9.702148000000000E-01     -4.771874000000000E+01
4804000000.000000      8.995056000000000E-01      1.167695000000000E+02      3.212585000000000E-01     -1.701797000000000E+02      2.570801000000000E-01     -8.560938000000000E+01      9.651794000000000E-01     -4.772656000000000E+01
4805000000.000000      8.975525000000000E-01      1.170117000000000E+02      3.214111000000000E-01     -1.702109000000000E+02      2.565613000000000E-01     -8.528515000000000E+01      9.590454000000000E-01     -4.785937000000000E+01
4806000000.000000      8.959045000000000E-01      1.171953000000000E+02      3.216553000000000E-01     -1.701250000000000E+02      2.556915000000000E-01     -8.513281000000000E+01      9.533386000000000E-01     -4.802734000000000E+01
4807000000.000000      8.932190000000000E-01      1.174219000000000E+02      3.228455000000000E-01     -1.703984000000000E+02      2.565460000000000E-01     -8.500391000000000E+01      9.475403000000000E-01     -4.797265000000000E+01
4808000000.000000      8.912659000000000E-01      1.177109000000000E+02      3.232574000000000E-01     -1.701172000000000E+02      2.563934000000000E-01     -8.478125000000000E+01      9.415283000000000E-01     -4.802539000000000E+01
4809000000.000000      8.890076000000000E-01      1.181133000000000E+02      3.230286000000000E-01     -1.702812000000000E+02      2.567749000000000E-01     -8.461329000000000E+01      9.369202000000000E-01     -4.809765000000000E+01
4810000000.000000      8.858337000000000E-01      1.182617000000000E+02      3.235931000000000E-01     -1.701406000000000E+02      2.563019000000000E-01     -8.430079000000000E+01      9.319153000000000E-01     -4.820898000000000E+01
4811000000.000000      8.837585000000000E-01      1.185390000000000E+02      3.247528000000000E-01     -1.701484000000000E+02      2.574921000000000E-01     -8.401171000000000E+01      9.267273000000000E-01     -4.812304000000000E+01
4812000000.000000      8.827820000000000E-01      1.187226000000000E+02      3.246613000000000E-01     -1.702188000000000E+02      2.567749000000000E-01     -8.386719000000000E+01      9.203491000000000E-01     -4.831640000000000E+01
4813000000.000000      8.803711000000000E-01      1.190469000000000E+02      3.256073000000000E-01     -1.702422000000000E+02      2.568817000000000E-01     -8.355860000000000E+01      9.158630000000000E-01     -4.839453000000000E+01
4814000000.000000      8.752136000000000E-01      1.191602000000000E+02      3.260956000000000E-01     -1.702500000000000E+02      2.563477000000000E-01     -8.327734000000000E+01      9.103088000000000E-01     -4.838281000000000E+01
4815000000.000000      8.730164000000000E-01      1.195195000000000E+02      3.262787000000000E-01     -1.702734000000000E+02      2.567902000000000E-01     -8.296484000000000E+01      9.057617000000000E-01     -4.839257000000000E+01
4816000000.000000      8.717651000000000E-01      1.196601000000000E+02      3.277283000000000E-01     -1.701953000000000E+02      2.572021000000000E-01     -8.278906000000000E+01      8.990479000000000E-01     -4.853710000000000E+01
4817000000.000000      8.684692000000000E-01      1.198672000000000E+02      3.279419000000000E-01     -1.703750000000000E+02      2.566833000000000E-01     -8.242968000000000E+01      8.941650000000000E-01     -4.856640000000000E+01
4818000000.000000      8.656311000000000E-01      1.201094000000000E+02      3.280792000000000E-01     -1.704062000000000E+02      2.565765000000000E-01     -8.205858000000000E+01      8.872375000000000E-01     -4.860546000000000E+01
4819000000.000000      8.627930000000000E-01      1.202695000000000E+02      3.289795000000000E-01     -1.704844000000000E+02      2.558899000000000E-01     -8.190233000000000E+01      8.819580000000000E-01     -4.878906000000000E+01
4820000000.000000      8.554688000000000E-01      1.204961000000000E+02      3.285370000000000E-01     -1.704687000000000E+02      2.563934000000000E-01     -8.146093000000000E+01      8.781433000000000E-01     -4.873437000000000E+01
4821000000.000000      8.571472000000000E-01      1.206797000000000E+02      3.308868000000000E-01     -1.706016000000000E+02      2.566071000000000E-01     -8.135157000000000E+01      8.727417000000000E-01     -4.874804000000000E+01
4822000000.000000      8.524475000000000E-01      1.207070000000000E+02      3.312225000000000E-01     -1.707734000000000E+02      2.555389000000000E-01     -8.110937000000000E+01      8.669434000000000E-01     -4.895702000000000E+01
4823000000.000000      8.493652000000000E-01      1.210898000000000E+02      3.312378000000000E-01     -1.708516000000000E+02      2.560120000000000E-01     -8.055468000000000E+01      8.618164000000000E-01     -4.894531000000000E+01
4824000000.000000      8.456726000000000E-01      1.212031000000000E+02      3.320465000000000E-01     -1.711562000000000E+02      2.561798000000000E-01     -8.030468000000000E+01      8.561401000000000E-01     -4.898438000000000E+01
4825000000.000000      8.410645000000000E-01      1.213945000000000E+02      3.325958000000000E-01     -1.711250000000000E+02      2.566071000000000E-01     -8.001953000000000E+01      8.533936000000000E-01     -4.905273000000000E+01
4826000000.000000      8.405762000000000E-01      1.215273000000000E+02      3.339233000000000E-01     -1.712188000000000E+02      2.557983000000000E-01     -7.976563000000000E+01      8.486023000000000E-01     -4.921484000000000E+01
4827000000.000000      8.357849000000000E-01      1.217695000000000E+02      3.336945000000000E-01     -1.713125000000000E+02      2.557831000000000E-01     -7.943749000000000E+01      8.435669000000000E-01     -4.921093000000000E+01
4828000000.000000      8.320618000000000E-01      1.218320000000000E+02      3.346710000000000E-01     -1.716250000000000E+02      2.554626000000000E-01     -7.910937000000000E+01      8.381042000000000E-01     -4.939062000000000E+01
4829000000.000000      8.260498000000000E-01      1.221562000000000E+02      3.348846000000000E-01     -1.717813000000000E+02      2.566833000000000E-01     -7.882813000000000E+01      8.354797000000000E-01     -4.939648000000000E+01
4830000000.000000      8.213806000000000E-01      1.221719000000000E+02      3.359985000000000E-01     -1.720391000000000E+02      2.560120000000000E-01     -7.833984000000000E+01      8.285522000000000E-01     -4.947266000000000E+01
4831000000.000000      8.180847000000000E-01      1.222344000000000E+02      3.358765000000000E-01     -1.720781000000000E+02      2.565308000000000E-01     -7.793359000000000E+01      8.255310000000000E-01     -4.949219000000000E+01
4832000000.000000      8.142395000000000E-01      1.224570000000000E+02      3.358002000000000E-01     -1.723281000000000E+02      2.558289000000000E-01     -7.760156000000000E+01      8.209229000000000E-01     -4.957421000000000E+01
4833000000.000000      8.078308000000000E-01      1.220781000000000E+02      3.363647000000000E-01     -1.724688000000000E+02      2.560425000000000E-01     -7.728906000000000E+01      8.156738000000000E-01     -4.950976000000000E+01
4834000000.000000      8.039246000000000E-01      1.226055000000000E+02      3.370209000000000E-01     -1.727422000000000E+02      2.561951000000000E-01     -7.704296000000000E+01      8.122864000000000E-01     -4.966797000000000E+01
4835000000.000000      7.996216000000000E-01      1.225000000000000E+02      3.369293000000000E-01     -1.729375000000000E+02      2.566223000000000E-01     -7.660156000000000E+01      8.080444000000000E-01     -4.982031000000000E+01
4836000000.000000      7.970581000000000E-01      1.225703000000000E+02      3.368988000000000E-01     -1.731953000000000E+02      2.566071000000000E-01     -7.626171000000000E+01      8.038330000000000E-01     -4.984375000000000E+01
4837000000.000000      7.906799000000000E-01      1.228594000000000E+02      3.364410000000000E-01     -1.735703000000000E+02      2.570953000000000E-01     -7.600780000000000E+01      7.998047000000000E-01     -4.980078000000000E+01
4838000000.000000      7.859497000000000E-01      1.225977000000000E+02      3.377380000000000E-01     -1.735625000000000E+02      2.571716000000000E-01     -7.548437000000000E+01      7.958069000000000E-01     -4.986328000000000E+01
4839000000.000000      7.816162000000000E-01      1.227851000000000E+02      3.370209000000000E-01     -1.737031000000000E+02      2.569733000000000E-01     -7.526562000000000E+01      7.924500000000000E-01     -5.001562000000000E+01
4840000000.000000      7.750244000000000E-01      1.226211000000000E+02      3.371735000000000E-01     -1.739609000000000E+02      2.575684000000000E-01     -7.485937000000000E+01      7.888489000000000E-01     -5.008398000000000E+01
4841000000.000000      7.721558000000000E-01      1.227344000000000E+02      3.372955000000000E-01     -1.744297000000000E+02      2.578430000000000E-01     -7.458593000000000E+01      7.858276000000000E-01     -5.013672000000000E+01
4842000000.000000      7.620850000000000E-01      1.229297000000000E+02      3.372955000000000E-01     -1.745391000000000E+02      2.577972000000000E-01     -7.424218000000000E+01      7.837524000000000E-01     -5.018945000000000E+01
4843000000.000000      7.588501000000000E-01      1.226015000000000E+02      3.368378000000000E-01     -1.747344000000000E+02      2.579498000000000E-01     -7.390234000000000E+01      7.797241000000000E-01     -5.024023000000000E+01
4844000000.000000      7.540894000000000E-01      1.225352000000000E+02      3.367310000000000E-01     -1.750313000000000E+02      2.578735000000000E-01     -7.349218000000000E+01      7.747803000000000E-01     -5.033984000000000E+01
4845000000.000000      7.469482000000000E-01      1.226367000000000E+02      3.358612000000000E-01     -1.752187000000000E+02      2.587128000000000E-01     -7.322266000000000E+01      7.712097000000000E-01     -5.037890000000000E+01
4846000000.000000      7.424011000000000E-01      1.224453000000000E+02      3.356628000000000E-01     -1.754453000000000E+02      2.589111000000000E-01     -7.294531000000000E+01      7.696838000000000E-01     -5.035156000000000E+01
4847000000.000000      7.389221000000000E-01      1.225117000000000E+02      3.352356000000000E-01     -1.757969000000000E+02      2.595215000000000E-01     -7.265625000000000E+01      7.657776000000000E-01     -5.061132000000000E+01
4848000000.000000      7.314453000000000E-01      1.223281000000000E+02      3.346405000000000E-01     -1.760547000000000E+02      2.591248000000000E-01     -7.232422000000000E+01      7.619324000000000E-01     -5.062500000000000E+01
4849000000.000000      7.245178000000000E-01      1.221523000000000E+02      3.343353000000000E-01     -1.762500000000000E+02      2.598267000000000E-01     -7.191796000000000E+01      7.586060000000000E-01     -5.053515000000000E+01
4850000000.000000      7.185059000000000E-01      1.219492000000000E+02      3.339233000000000E-01     -1.765156000000000E+02      2.599487000000000E-01     -7.155859000000000E+01      7.549133000000000E-01     -5.063477000000000E+01
4851000000.000000      7.136230000000000E-01      1.220351000000000E+02      3.337097000000000E-01     -1.768125000000000E+02      2.605743000000000E-01     -7.135547000000000E+01      7.547302000000000E-01     -5.075976000000000E+01
4852000000.000000      7.074585000000000E-01      1.217383000000000E+02      3.327637000000000E-01     -1.770937000000000E+02      2.608490000000000E-01     -7.092578000000000E+01      7.503052000000000E-01     -5.082226000000000E+01
4853000000.000000      7.029114000000000E-01      1.218828000000000E+02      3.310089000000000E-01     -1.770547000000000E+02      2.617645000000000E-01     -7.074609000000000E+01      7.475281000000000E-01     -5.094921000000000E+01
4854000000.000000      6.932373000000000E-01      1.214063000000000E+02      3.308411000000000E-01     -1.776562000000000E+02      2.613983000000000E-01     -7.046875000000000E+01      7.456665000000000E-01     -5.090038000000000E+01
4855000000.000000      6.893616000000000E-01      1.213984000000000E+02      3.304291000000000E-01     -1.776953000000000E+02      2.617798000000000E-01     -7.004687000000000E+01      7.413635000000000E-01     -5.099999000000000E+01
4856000000.000000      6.847839000000000E-01      1.212148000000000E+02      3.293152000000000E-01     -1.778750000000000E+02      2.619629000000000E-01     -6.989452000000000E+01      7.402649000000000E-01     -5.108007000000000E+01
4857000000.000000      6.774902000000000E-01      1.210508000000000E+02      3.285828000000000E-01     -1.781953000000000E+02      2.624359000000000E-01     -6.955859000000000E+01      7.368469000000000E-01     -5.112499000000000E+01
4858000000.000000      6.690674000000000E-01      1.206914000000000E+02      3.278809000000000E-01     -1.783750000000000E+02      2.623596000000000E-01     -6.930469000000000E+01      7.348938000000000E-01     -5.125781000000000E+01
4859000000.000000      6.644897000000000E-01      1.204023000000000E+02      3.273926000000000E-01     -1.785469000000000E+02      2.631531000000000E-01     -6.922265000000000E+01      7.340698000000000E-01     -5.127930000000000E+01
4860000000.000000      6.592712000000000E-01      1.201797000000000E+02      3.261871000000000E-01     -1.788516000000000E+02      2.630920000000000E-01     -6.880468000000000E+01      7.296143000000000E-01     -5.123047000000000E+01
4861000000.000000      6.528625000000000E-01      1.199336000000000E+02      3.245697000000000E-01     -1.791719000000000E+02      2.639313000000000E-01     -6.860156000000000E+01      7.264099000000000E-01     -5.132421000000000E+01
4862000000.000000      6.473999000000000E-01      1.196094000000000E+02      3.244934000000000E-01     -1.792109000000000E+02      2.644196000000000E-01     -6.830078000000000E+01      7.264404000000000E-01     -5.141211000000000E+01
4863000000.000000      6.380615000000000E-01      1.192617000000000E+02      3.219452000000000E-01     -1.794844000000000E+02      2.649994000000000E-01     -6.811718000000000E+01      7.241516000000000E-01     -5.140625000000000E+01
4864000000.000000      6.342773000000000E-01      1.189883000000000E+02      3.218231000000000E-01     -1.795469000000000E+02      2.646484000000000E-01     -6.789844000000000E+01      7.203674000000000E-01     -5.149219000000000E+01
4865000000.000000      6.276550000000000E-01      1.185234000000000E+02      3.202515000000000E-01     -1.797734000000000E+02      2.652588000000000E-01     -6.783203000000000E+01      7.189331000000000E-01     -5.142187000000000E+01
4866000000.000000      6.210327000000000E-01      1.182695000000000E+02      3.190918000000000E-01     -1.799609000000000E+02      2.656097000000000E-01     -6.757813000000000E+01      7.167664000000000E-01     -5.149609000000000E+01
4867000000.000000      6.157532000000000E-01      1.178984000000000E+02      3.182831000000000E-01      1.798203000000000E+02      2.656708000000000E-01     -6.743359000000000E+01      7.154846000000000E-01     -5.158008000000000E+01
4868000000.000000      6.095276000000000E-01      1.174609000000000E+02      3.171082000000000E-01      1.797266000000000E+02      2.661896000000000E-01     -6.714844000000000E+01      7.121887000000000E-01     -5.151562000000000E+01
4869000000.000000      6.041565000000000E-01      1.171484000000000E+02      3.152313000000000E-01      1.795312000000000E+02      2.669525000000000E-01     -6.709765000000000E+01      7.113953000000000E-01     -5.172265000000000E+01
4870000000.000000      5.968323000000000E-01      1.167344000000000E+02      3.141479000000000E-01      1.795625000000000E+02      2.668610000000000E-01     -6.694140000000000E+01      7.093811000000000E-01     -5.165820000000000E+01
4871000000.000000      5.923157000000000E-01      1.161601000000000E+02      3.132172000000000E-01      1.791250000000000E+02      2.667236000000000E-01     -6.675390000000000E+01      7.068481000000000E-01     -5.176562000000000E+01
4872000000.000000      5.860291000000000E-01      1.158633000000000E+02      3.122711000000000E-01      1.792500000000000E+02      2.671967000000000E-01     -6.687109000000000E+01      7.052307000000000E-01     -5.165820000000000E+01
4873000000.000000      5.824890000000000E-01      1.155820000000000E+02      3.105469000000000E-01      1.788984000000000E+02      2.668152000000000E-01     -6.657812000000000E+01      7.021179000000000E-01     -5.180469000000000E+01
4874000000.000000      5.763550000000000E-01      1.149961000000000E+02      3.094025000000000E-01      1.788906000000000E+02      2.678528000000000E-01     -6.650391000000000E+01      6.994324000000000E-01     -5.164453000000000E+01
4875000000.000000      5.709839000000000E-01      1.145859000000000E+02      3.079071000000000E-01      1.787109000000000E+02      2.677155000000000E-01     -6.632030000000000E+01      6.986389000000000E-01     -5.176562000000000E+01
4876000000.000000      5.665283000000000E-01      1.141680000000000E+02      3.071594000000000E-01      1.787344000000000E+02      2.673035000000000E-01     -6.653906000000000E+01      6.963806000000000E-01     -5.194336000000000E+01
4877000000.000000      5.617981000000000E-01      1.133906000000000E+02      3.069305000000000E-01      1.786797000000000E+02      2.675323000000000E-01     -6.628124000000000E+01      6.943054000000000E-01     -5.194336000000000E+01
4878000000.000000      5.552673000000000E-01      1.130312000000000E+02      3.053741000000000E-01      1.784375000000000E+02      2.677460000000000E-01     -6.617578000000000E+01      6.919250000000000E-01     -5.194336000000000E+01
4879000000.000000      5.517273000000000E-01      1.125273000000000E+02      3.032837000000000E-01      1.784531000000000E+02      2.672882000000000E-01     -6.617188000000000E+01      6.895142000000000E-01     -5.178515000000000E+01
4880000000.000000      5.457458000000000E-01      1.118047000000000E+02      3.025970000000000E-01      1.781563000000000E+02      2.683105000000000E-01     -6.600780000000000E+01      6.884460000000000E-01     -5.174218000000000E+01
4881000000.000000      5.417175000000000E-01      1.115547000000000E+02      3.021545000000000E-01      1.783281000000000E+02      2.679291000000000E-01     -6.603125000000000E+01      6.861267000000000E-01     -5.188086000000000E+01
4882000000.000000      5.375061000000000E-01      1.108945000000000E+02      3.005981000000000E-01      1.781094000000000E+02      2.679596000000000E-01     -6.591406000000000E+01      6.828918000000000E-01     -5.177734000000000E+01
