! Network Analyzer HP8722D
! Hewlett-Packard
! Data name: Linha & Wilkinson
! Saver's name: Rodrigo Anjos
! Comments: Teste da utilização de aquisição
continua pelo VNA HP8722D
! Time and date: 6/5/2025 14:33
!              Frequency                     S11                                                   S21                                                   S12                                                   S22
# HZ  S  MA R 50
4800000000.000000      4.969788000000000E-01     -1.682344000000000E+02      2.526855000000000E-01     -1.985254000000000E+01      2.488861000000000E-01     -1.409297000000000E+02      6.479797000000000E-01     -8.033203000000000E+01
4801000000.000000      4.984283000000000E-01     -1.683516000000000E+02      2.565002000000000E-01     -2.001172000000000E+01      2.520905000000000E-01     -1.410000000000000E+02      6.470032000000000E-01     -8.012890000000000E+01
4802000000.000000      4.995422000000000E-01     -1.683828000000000E+02      2.599945000000000E-01     -2.008887000000000E+01      2.566833000000000E-01     -1.408437000000000E+02      6.450195000000000E-01     -7.974999000000000E+01
4803000000.000000      5.010376000000000E-01     -1.684687000000000E+02      2.647247000000000E-01     -2.036621000000000E+01      2.595673000000000E-01     -1.411250000000000E+02      6.442566000000000E-01     -7.967187000000000E+01
4804000000.000000      5.035706000000000E-01     -1.684219000000000E+02      2.687988000000000E-01     -2.064746000000000E+01      2.636414000000000E-01     -1.412812000000000E+02      6.438293000000000E-01     -7.944921000000000E+01
4805000000.000000      5.059204000000000E-01     -1.684922000000000E+02      2.727203000000000E-01     -2.100488000000000E+01      2.674408000000000E-01     -1.412500000000000E+02      6.439209000000000E-01     -7.919531000000000E+01
4806000000.000000      5.072632000000000E-01     -1.684141000000000E+02      2.771149000000000E-01     -2.116699000000000E+01      2.699738000000000E-01     -1.411953000000000E+02      6.441040000000000E-01     -7.907812000000000E+01
4807000000.000000      5.107117000000000E-01     -1.684844000000000E+02      2.805023000000000E-01     -2.151855000000000E+01      2.741241000000000E-01     -1.414141000000000E+02      6.430969000000000E-01     -7.890625000000000E+01
4808000000.000000      5.131226000000000E-01     -1.683984000000000E+02      2.849579000000000E-01     -2.180859000000000E+01      2.777252000000000E-01     -1.415625000000000E+02      6.431885000000000E-01     -7.862890000000000E+01
4809000000.000000      5.150757000000000E-01     -1.684297000000000E+02      2.884369000000000E-01     -2.236133000000000E+01      2.812042000000000E-01     -1.417031000000000E+02      6.432495000000000E-01     -7.846874000000000E+01
4810000000.000000      5.185852000000000E-01     -1.684141000000000E+02      2.924957000000000E-01     -2.255176000000000E+01      2.849731000000000E-01     -1.418203000000000E+02      6.437073000000000E-01     -7.818359000000000E+01
4811000000.000000      5.216980000000000E-01     -1.683516000000000E+02      2.970734000000000E-01     -2.309473000000000E+01      2.888794000000000E-01     -1.419609000000000E+02      6.435547000000000E-01     -7.794140000000000E+01
4812000000.000000      5.256958000000000E-01     -1.683437000000000E+02      3.000183000000000E-01     -2.335156000000000E+01      2.919312000000000E-01     -1.420547000000000E+02      6.444092000000000E-01     -7.789453000000000E+01
4813000000.000000      5.280762000000000E-01     -1.682578000000000E+02      3.039856000000000E-01     -2.382813000000000E+01      2.948608000000000E-01     -1.421484000000000E+02      6.448059000000000E-01     -7.756249000000000E+01
4814000000.000000      5.311279000000000E-01     -1.683516000000000E+02      3.076477000000000E-01     -2.416797000000000E+01      2.984161000000000E-01     -1.423984000000000E+02      6.459045000000000E-01     -7.742969000000000E+01
4815000000.000000      5.347900000000000E-01     -1.681484000000000E+02      3.110962000000000E-01     -2.465918000000000E+01      3.010559000000000E-01     -1.425859000000000E+02      6.465149000000000E-01     -7.721093000000000E+01
4816000000.000000      5.398560000000000E-01     -1.680859000000000E+02      3.158722000000000E-01     -2.489258000000000E+01      3.053894000000000E-01     -1.426641000000000E+02      6.480103000000000E-01     -7.711719000000000E+01
4817000000.000000      5.439453000000000E-01     -1.680078000000000E+02      3.184814000000000E-01     -2.551855000000000E+01      3.074036000000000E-01     -1.428516000000000E+02      6.497803000000000E-01     -7.689062000000000E+01
4818000000.000000      5.469666000000000E-01     -1.680078000000000E+02      3.212738000000000E-01     -2.593554000000000E+01      3.107910000000000E-01     -1.429922000000000E+02      6.500549000000000E-01     -7.668359000000000E+01
4819000000.000000      5.531311000000000E-01     -1.679219000000000E+02      3.251801000000000E-01     -2.630273000000000E+01      3.134308000000000E-01     -1.431719000000000E+02      6.534424000000000E-01     -7.660546000000000E+01
4820000000.000000      5.546265000000000E-01     -1.678359000000000E+02      3.281403000000000E-01     -2.670801000000000E+01      3.170319000000000E-01     -1.433672000000000E+02      6.542053000000000E-01     -7.636719000000000E+01
4821000000.000000      5.611877000000000E-01     -1.677422000000000E+02      3.321075000000000E-01     -2.727441000000000E+01      3.197021000000000E-01     -1.436328000000000E+02      6.558228000000000E-01     -7.636328000000000E+01
4822000000.000000      5.674438000000000E-01     -1.676797000000000E+02      3.347626000000000E-01     -2.770410000000000E+01      3.223724000000000E-01     -1.438437000000000E+02      6.588440000000000E-01     -7.612109000000000E+01
4823000000.000000      5.709229000000000E-01     -1.675781000000000E+02      3.385010000000000E-01     -2.827637000000000E+01      3.255310000000000E-01     -1.438359000000000E+02      6.604004000000000E-01     -7.601171000000000E+01
4824000000.000000      5.776367000000000E-01     -1.675156000000000E+02      3.415833000000000E-01     -2.882129000000000E+01      3.285217000000000E-01     -1.442578000000000E+02      6.627197000000000E-01     -7.589453000000000E+01
4825000000.000000      5.822754000000000E-01     -1.674375000000000E+02      3.439178000000000E-01     -2.910351000000000E+01      3.314972000000000E-01     -1.443750000000000E+02      6.656189000000000E-01     -7.569921000000000E+01
4826000000.000000      5.881653000000000E-01     -1.672891000000000E+02      3.473816000000000E-01     -2.977930000000000E+01      3.330078000000000E-01     -1.445391000000000E+02      6.677246000000000E-01     -7.562109000000000E+01
4827000000.000000      5.939026000000000E-01     -1.671562000000000E+02      3.502960000000000E-01     -3.018847000000000E+01      3.360901000000000E-01     -1.447656000000000E+02      6.711121000000000E-01     -7.553905000000000E+01
4828000000.000000      6.011047000000000E-01     -1.671250000000000E+02      3.535919000000000E-01     -3.077441000000000E+01      3.386536000000000E-01     -1.449141000000000E+02      6.735535000000000E-01     -7.541016000000000E+01
4829000000.000000      6.040649000000000E-01     -1.669844000000000E+02      3.551788000000000E-01     -3.125683000000000E+01      3.410492000000000E-01     -1.451328000000000E+02      6.772461000000000E-01     -7.530078000000000E+01
4830000000.000000      6.113892000000000E-01     -1.669765000000000E+02      3.587799000000000E-01     -3.178027000000000E+01      3.434906000000000E-01     -1.450703000000000E+02      6.789856000000000E-01     -7.534374000000000E+01
4831000000.000000      6.163635000000000E-01     -1.668984000000000E+02      3.604279000000000E-01     -3.233593000000000E+01      3.460846000000000E-01     -1.454219000000000E+02      6.835632000000000E-01     -7.517187000000000E+01
4832000000.000000      6.248779000000000E-01     -1.667969000000000E+02      3.631287000000000E-01     -3.289844000000000E+01      3.483429000000000E-01     -1.457031000000000E+02      6.864319000000000E-01     -7.511719000000000E+01
4833000000.000000      6.311035000000000E-01     -1.667656000000000E+02      3.652039000000000E-01     -3.338281000000000E+01      3.509369000000000E-01     -1.460859000000000E+02      6.893616000000000E-01     -7.501562000000000E+01
4834000000.000000      6.373901000000000E-01     -1.666719000000000E+02      3.675690000000000E-01     -3.398242000000000E+01      3.525543000000000E-01     -1.461172000000000E+02      6.928711000000000E-01     -7.494531000000000E+01
4835000000.000000      6.433411000000000E-01     -1.665703000000000E+02      3.703766000000000E-01     -3.438477000000000E+01      3.555298000000000E-01     -1.463281000000000E+02      6.966248000000000E-01     -7.493750000000000E+01
4836000000.000000      6.514893000000000E-01     -1.664531000000000E+02      3.717041000000000E-01     -3.510547000000000E+01      3.578339000000000E-01     -1.465156000000000E+02      6.997681000000000E-01     -7.476953000000000E+01
4837000000.000000      6.585083000000000E-01     -1.662969000000000E+02      3.731995000000000E-01     -3.582812000000000E+01      3.591461000000000E-01     -1.468281000000000E+02      7.038879000000000E-01     -7.468359000000000E+01
4838000000.000000      6.652222000000000E-01     -1.664297000000000E+02      3.758698000000000E-01     -3.624804000000000E+01      3.620148000000000E-01     -1.469766000000000E+02      7.084961000000000E-01     -7.463672000000000E+01
4839000000.000000      6.726074000000000E-01     -1.662188000000000E+02      3.774414000000000E-01     -3.679101000000000E+01      3.634644000000000E-01     -1.470312000000000E+02      7.126770000000000E-01     -7.458593000000000E+01
4840000000.000000      6.779175000000000E-01     -1.662656000000000E+02      3.781128000000000E-01     -3.723437000000000E+01      3.660431000000000E-01     -1.472656000000000E+02      7.159424000000000E-01     -7.462109000000000E+01
4841000000.000000      6.861877000000000E-01     -1.662109000000000E+02      3.811035000000000E-01     -3.807617000000000E+01      3.668060000000000E-01     -1.475469000000000E+02      7.208557000000000E-01     -7.462109000000000E+01
4842000000.000000      6.930847000000000E-01     -1.661172000000000E+02      3.821564000000000E-01     -3.847070000000000E+01      3.690338000000000E-01     -1.476641000000000E+02      7.246399000000000E-01     -7.457812000000000E+01
4843000000.000000      6.993103000000000E-01     -1.661562000000000E+02      3.831787000000000E-01     -3.907031000000000E+01      3.710022000000000E-01     -1.479063000000000E+02      7.273560000000000E-01     -7.449609000000000E+01
4844000000.000000      7.066650000000000E-01     -1.660859000000000E+02      3.839417000000000E-01     -3.950000000000000E+01      3.723297000000000E-01     -1.481016000000000E+02      7.327576000000000E-01     -7.454687000000000E+01
4845000000.000000      7.132874000000000E-01     -1.660156000000000E+02      3.852539000000000E-01     -4.011523000000000E+01      3.747101000000000E-01     -1.483203000000000E+02      7.361145000000000E-01     -7.452343000000000E+01
4846000000.000000      7.206421000000000E-01     -1.659297000000000E+02      3.862152000000000E-01     -4.059179000000000E+01      3.770294000000000E-01     -1.485078000000000E+02      7.411499000000000E-01     -7.451562000000000E+01
4847000000.000000      7.279663000000000E-01     -1.659531000000000E+02      3.870392000000000E-01     -4.114843000000000E+01      3.787537000000000E-01     -1.487109000000000E+02      7.466736000000000E-01     -7.461328000000000E+01
4848000000.000000      7.351074000000000E-01     -1.659141000000000E+02      3.878021000000000E-01     -4.157617000000000E+01      3.797913000000000E-01     -1.488125000000000E+02      7.506714000000000E-01     -7.453906000000000E+01
4849000000.000000      7.424622000000000E-01     -1.660938000000000E+02      3.883209000000000E-01     -4.239062000000000E+01      3.815460000000000E-01     -1.490234000000000E+02      7.548523000000000E-01     -7.452343000000000E+01
4850000000.000000      7.494202000000000E-01     -1.659688000000000E+02      3.891602000000000E-01     -4.279492000000000E+01      3.835754000000000E-01     -1.491094000000000E+02      7.597046000000000E-01     -7.447656000000000E+01
4851000000.000000      7.556763000000000E-01     -1.658984000000000E+02      3.898468000000000E-01     -4.342187000000000E+01      3.846893000000000E-01     -1.493828000000000E+02      7.647400000000000E-01     -7.453906000000000E+01
4852000000.000000      7.632446000000000E-01     -1.659453000000000E+02      3.901367000000000E-01     -4.394336000000000E+01      3.866119000000000E-01     -1.494688000000000E+02      7.695007000000000E-01     -7.461719000000000E+01
4853000000.000000      7.703247000000000E-01     -1.658984000000000E+02      3.890228000000000E-01     -4.434375000000000E+01      3.879700000000000E-01     -1.496875000000000E+02      7.742920000000000E-01     -7.474218000000000E+01
4854000000.000000      7.765503000000000E-01     -1.658672000000000E+02      3.899231000000000E-01     -4.510156000000000E+01      3.889313000000000E-01     -1.499141000000000E+02      7.787476000000000E-01     -7.470312000000000E+01
4855000000.000000      7.821960000000000E-01     -1.659297000000000E+02      3.899536000000000E-01     -4.540820000000000E+01      3.902740000000000E-01     -1.500469000000000E+02      7.825928000000000E-01     -7.465234000000000E+01
4856000000.000000      7.895813000000000E-01     -1.658281000000000E+02      3.897858000000000E-01     -4.574609000000000E+01      3.916779000000000E-01     -1.501797000000000E+02      7.884216000000000E-01     -7.480859000000000E+01
4857000000.000000      7.958679000000000E-01     -1.659844000000000E+02      3.903198000000000E-01     -4.644921000000000E+01      3.924103000000000E-01     -1.503672000000000E+02      7.932434000000000E-01     -7.472656000000000E+01
4858000000.000000      7.991943000000000E-01     -1.659922000000000E+02      3.893738000000000E-01     -4.693555000000000E+01      3.935089000000000E-01     -1.506016000000000E+02      7.976990000000000E-01     -7.491796000000000E+01
4859000000.000000      8.067932000000000E-01     -1.658906000000000E+02      3.889313000000000E-01     -4.738477000000000E+01      3.951721000000000E-01     -1.508125000000000E+02      8.043518000000000E-01     -7.492969000000000E+01
4860000000.000000      8.129272000000000E-01     -1.659062000000000E+02      3.885803000000000E-01     -4.781836000000000E+01      3.957367000000000E-01     -1.508125000000000E+02      8.069458000000000E-01     -7.485546000000000E+01
4861000000.000000      8.176575000000000E-01     -1.658828000000000E+02      3.878021000000000E-01     -4.832226000000000E+01      3.970337000000000E-01     -1.510469000000000E+02      8.130798000000000E-01     -7.505859000000000E+01
4862000000.000000      8.246155000000000E-01     -1.658047000000000E+02      3.877258000000000E-01     -4.868750000000000E+01      3.991547000000000E-01     -1.512500000000000E+02      8.185730000000000E-01     -7.511719000000000E+01
4863000000.000000      8.286743000000000E-01     -1.659688000000000E+02      3.858948000000000E-01     -4.920116000000000E+01      3.998260000000000E-01     -1.513438000000000E+02      8.237305000000000E-01     -7.509375000000000E+01
4864000000.000000      8.341675000000000E-01     -1.658984000000000E+02      3.864136000000000E-01     -4.941211000000000E+01      3.991699000000000E-01     -1.515391000000000E+02      8.268738000000000E-01     -7.527344000000000E+01
4865000000.000000      8.383789000000000E-01     -1.659844000000000E+02      3.849640000000000E-01     -5.004101000000000E+01      4.008026000000000E-01     -1.517422000000000E+02      8.321838000000000E-01     -7.533203000000000E+01
4866000000.000000      8.431091000000000E-01     -1.660078000000000E+02      3.836823000000000E-01     -5.041797000000000E+01      4.014435000000000E-01     -1.519063000000000E+02      8.372498000000000E-01     -7.530859000000000E+01
4867000000.000000      8.486328000000000E-01     -1.659297000000000E+02      3.838196000000000E-01     -5.109961000000000E+01      4.026947000000000E-01     -1.520859000000000E+02      8.436890000000000E-01     -7.538280000000000E+01
4868000000.000000      8.547363000000000E-01     -1.659375000000000E+02      3.824463000000000E-01     -5.116796000000000E+01      4.036407000000000E-01     -1.522500000000000E+02      8.467407000000000E-01     -7.546875000000000E+01
4869000000.000000      8.572388000000000E-01     -1.659922000000000E+02      3.801117000000000E-01     -5.161133000000000E+01      4.041748000000000E-01     -1.524844000000000E+02      8.520813000000000E-01     -7.571094000000000E+01
4870000000.000000      8.593750000000000E-01     -1.658750000000000E+02      3.790131000000000E-01     -5.182812000000000E+01      4.045563000000000E-01     -1.526484000000000E+02      8.573608000000000E-01     -7.573047000000000E+01
4871000000.000000      8.649292000000000E-01     -1.660000000000000E+02      3.779449000000000E-01     -5.226367000000000E+01      4.043274000000000E-01     -1.528125000000000E+02      8.594055000000000E-01     -7.592578000000000E+01
4872000000.000000      8.699951000000000E-01     -1.658516000000000E+02      3.766937000000000E-01     -5.244335000000000E+01      4.054871000000000E-01     -1.531250000000000E+02      8.663940000000000E-01     -7.594921000000000E+01
4873000000.000000      8.711548000000000E-01     -1.658281000000000E+02      3.749695000000000E-01     -5.281836000000000E+01      4.055328000000000E-01     -1.531328000000000E+02      8.698425000000000E-01     -7.614062000000000E+01
4874000000.000000      8.738098000000000E-01     -1.658203000000000E+02      3.741760000000000E-01     -5.323828000000000E+01      4.071198000000000E-01     -1.532422000000000E+02      8.722839000000000E-01     -7.598437000000000E+01
4875000000.000000      8.796082000000000E-01     -1.658906000000000E+02      3.724670000000000E-01     -5.336328000000000E+01      4.073029000000000E-01     -1.535469000000000E+02      8.793640000000000E-01     -7.622265000000000E+01
4876000000.000000      8.805847000000000E-01     -1.656953000000000E+02      3.708954000000000E-01     -5.377343000000000E+01      4.065247000000000E-01     -1.536641000000000E+02      8.837891000000000E-01     -7.647655000000000E+01
4877000000.000000      8.839111000000000E-01     -1.658047000000000E+02      3.701019000000000E-01     -5.390429000000000E+01      4.075623000000000E-01     -1.538437000000000E+02      8.866882000000000E-01     -7.658984000000000E+01
4878000000.000000      8.869019000000000E-01     -1.657031000000000E+02      3.696442000000000E-01     -5.414257000000000E+01      4.077148000000000E-01     -1.538906000000000E+02      8.911133000000000E-01     -7.663280000000000E+01
4879000000.000000      8.905945000000000E-01     -1.656484000000000E+02      3.667450000000000E-01     -5.444726000000000E+01      4.075317000000000E-01     -1.541172000000000E+02      8.954773000000000E-01     -7.667969000000000E+01
4880000000.000000      8.908081000000000E-01     -1.655469000000000E+02      3.655548000000000E-01     -5.472070000000000E+01      4.082947000000000E-01     -1.542031000000000E+02      8.988647000000000E-01     -7.680078000000000E+01
4881000000.000000      8.958130000000000E-01     -1.653516000000000E+02      3.648529000000000E-01     -5.467382000000000E+01      4.079590000000000E-01     -1.545000000000000E+02      9.032593000000000E-01     -7.700390000000000E+01
4882000000.000000      8.948975000000000E-01     -1.654063000000000E+02      3.634186000000000E-01     -5.508007000000000E+01      4.080811000000000E-01     -1.545391000000000E+02      9.054565000000000E-01     -7.713672000000000E+01
