! Network Analyzer HP8722D
! Hewlett-Packard
! Data name: Linha & Wilkinson
! Saver's name: Rodrigo Anjos
! Comments: Teste da utilização de aquisição
continua pelo VNA HP8722D
! Time and date: 6/5/2025 14:03
!              Frequency                     S11                                                   S21                                                   S12                                                   S22
# HZ  S  MA R 50
4800000000.000000      4.976349000000000E-01     -1.683281000000000E+02      2.528229000000000E-01     -1.985644000000000E+01      2.493134000000000E-01     -1.410234000000000E+02      6.477966000000000E-01     -8.041407000000000E+01
4801000000.000000      4.987488000000000E-01     -1.683828000000000E+02      2.568665000000000E-01     -1.999512000000000E+01      2.527771000000000E-01     -1.411953000000000E+02      6.465149000000000E-01     -8.008984000000000E+01
4802000000.000000      4.999695000000000E-01     -1.684453000000000E+02      2.602386000000000E-01     -2.022363000000000E+01      2.566528000000000E-01     -1.411641000000000E+02      6.458740000000000E-01     -7.981640000000000E+01
4803000000.000000      5.015259000000000E-01     -1.685000000000000E+02      2.655792000000000E-01     -2.049805000000000E+01      2.601166000000000E-01     -1.411250000000000E+02      6.453247000000000E-01     -7.960938000000000E+01
4804000000.000000      5.040894000000000E-01     -1.684687000000000E+02      2.693024000000000E-01     -2.080566000000000E+01      2.642822000000000E-01     -1.412578000000000E+02      6.452332000000000E-01     -7.939843000000000E+01
4805000000.000000      5.064697000000000E-01     -1.685937000000000E+02      2.735138000000000E-01     -2.104590000000000E+01      2.674713000000000E-01     -1.413828000000000E+02      6.440735000000000E-01     -7.928905000000000E+01
4806000000.000000      5.079346000000000E-01     -1.684922000000000E+02      2.770844000000000E-01     -2.130469000000000E+01      2.704163000000000E-01     -1.413594000000000E+02      6.435852000000000E-01     -7.912499000000000E+01
4807000000.000000      5.108032000000000E-01     -1.685390000000000E+02      2.815094000000000E-01     -2.174805000000000E+01      2.747498000000000E-01     -1.415937000000000E+02      6.425171000000000E-01     -7.873047000000000E+01
4808000000.000000      5.135498000000000E-01     -1.684453000000000E+02      2.855988000000000E-01     -2.175195000000000E+01      2.778015000000000E-01     -1.417656000000000E+02      6.436768000000000E-01     -7.859765000000000E+01
4809000000.000000      5.158691000000000E-01     -1.684297000000000E+02      2.890930000000000E-01     -2.254004000000000E+01      2.819061000000000E-01     -1.419375000000000E+02      6.438293000000000E-01     -7.844921000000000E+01
4810000000.000000      5.190735000000000E-01     -1.684609000000000E+02      2.932739000000000E-01     -2.272851000000000E+01      2.853088000000000E-01     -1.420391000000000E+02      6.443787000000000E-01     -7.834374000000000E+01
4811000000.000000      5.220337000000000E-01     -1.684375000000000E+02      2.971497000000000E-01     -2.318457000000000E+01      2.888184000000000E-01     -1.420391000000000E+02      6.443481000000000E-01     -7.791797000000000E+01
4812000000.000000      5.260620000000000E-01     -1.684141000000000E+02      3.010559000000000E-01     -2.356738000000000E+01      2.917938000000000E-01     -1.421875000000000E+02      6.443787000000000E-01     -7.782031000000000E+01
4813000000.000000      5.285034000000000E-01     -1.682578000000000E+02      3.040009000000000E-01     -2.389941000000000E+01      2.951508000000000E-01     -1.422422000000000E+02      6.456604000000000E-01     -7.754296000000000E+01
4814000000.000000      5.314331000000000E-01     -1.683906000000000E+02      3.080444000000000E-01     -2.423047000000000E+01      2.983093000000000E-01     -1.425390000000000E+02      6.475220000000000E-01     -7.753124000000000E+01
4815000000.000000      5.354614000000000E-01     -1.681875000000000E+02      3.114319000000000E-01     -2.480371000000000E+01      3.017273000000000E-01     -1.425390000000000E+02      6.461182000000000E-01     -7.720703000000000E+01
4816000000.000000      5.398560000000000E-01     -1.681172000000000E+02      3.151550000000000E-01     -2.506738000000000E+01      3.054810000000000E-01     -1.427813000000000E+02      6.485901000000000E-01     -7.703906000000000E+01
4817000000.000000      5.442810000000000E-01     -1.680312000000000E+02      3.195190000000000E-01     -2.563574000000000E+01      3.080444000000000E-01     -1.430234000000000E+02      6.497498000000000E-01     -7.687890000000000E+01
4818000000.000000      5.474243000000000E-01     -1.680781000000000E+02      3.215027000000000E-01     -2.601171000000000E+01      3.115845000000000E-01     -1.431797000000000E+02      6.509705000000000E-01     -7.680859000000000E+01
4819000000.000000      5.528870000000000E-01     -1.679453000000000E+02      3.251495000000000E-01     -2.650781000000000E+01      3.136139000000000E-01     -1.433203000000000E+02      6.537476000000000E-01     -7.664453000000000E+01
4820000000.000000      5.552368000000000E-01     -1.678750000000000E+02      3.288269000000000E-01     -2.691992000000000E+01      3.172913000000000E-01     -1.435313000000000E+02      6.549988000000000E-01     -7.639843000000000E+01
4821000000.000000      5.616150000000000E-01     -1.677813000000000E+02      3.323517000000000E-01     -2.745703000000000E+01      3.201752000000000E-01     -1.437500000000000E+02      6.558838000000000E-01     -7.633203000000000E+01
4822000000.000000      5.677185000000000E-01     -1.677734000000000E+02      3.355408000000000E-01     -2.792089000000000E+01      3.227997000000000E-01     -1.439375000000000E+02      6.596069000000000E-01     -7.613671000000000E+01
4823000000.000000      5.714111000000000E-01     -1.676328000000000E+02      3.387146000000000E-01     -2.841406000000000E+01      3.259430000000000E-01     -1.439297000000000E+02      6.598511000000000E-01     -7.603516000000000E+01
4824000000.000000      5.783997000000000E-01     -1.675625000000000E+02      3.416595000000000E-01     -2.895898000000000E+01      3.290863000000000E-01     -1.443047000000000E+02      6.631165000000000E-01     -7.582421000000000E+01
4825000000.000000      5.826111000000000E-01     -1.674531000000000E+02      3.454742000000000E-01     -2.931641000000000E+01      3.320160000000000E-01     -1.444844000000000E+02      6.662292000000000E-01     -7.570313000000000E+01
4826000000.000000      5.886230000000000E-01     -1.673359000000000E+02      3.482056000000000E-01     -2.974218000000000E+01      3.340607000000000E-01     -1.446250000000000E+02      6.683350000000000E-01     -7.562500000000000E+01
4827000000.000000      5.946960000000000E-01     -1.672500000000000E+02      3.509521000000000E-01     -3.033203000000000E+01      3.361359000000000E-01     -1.448047000000000E+02      6.716309000000000E-01     -7.544531000000000E+01
4828000000.000000      6.011353000000000E-01     -1.671953000000000E+02      3.541107000000000E-01     -3.085254000000000E+01      3.388824000000000E-01     -1.450469000000000E+02      6.752625000000000E-01     -7.548046000000000E+01
4829000000.000000      6.048279000000000E-01     -1.670156000000000E+02      3.554688000000000E-01     -3.127734000000000E+01      3.419037000000000E-01     -1.452422000000000E+02      6.773987000000000E-01     -7.520702000000000E+01
4830000000.000000      6.119995000000000E-01     -1.670078000000000E+02      3.580475000000000E-01     -3.177051000000000E+01      3.440247000000000E-01     -1.454453000000000E+02      6.795044000000000E-01     -7.523046000000000E+01
4831000000.000000      6.167908000000000E-01     -1.668906000000000E+02      3.605347000000000E-01     -3.249804000000000E+01      3.466797000000000E-01     -1.455703000000000E+02      6.840515000000000E-01     -7.519921000000000E+01
4832000000.000000      6.257935000000000E-01     -1.667969000000000E+02      3.639832000000000E-01     -3.301367000000000E+01      3.480988000000000E-01     -1.459297000000000E+02      6.864624000000000E-01     -7.503124000000000E+01
4833000000.000000      6.317749000000000E-01     -1.667812000000000E+02      3.662415000000000E-01     -3.348633000000000E+01      3.507996000000000E-01     -1.461562000000000E+02      6.899109000000000E-01     -7.501953000000000E+01
4834000000.000000      6.376038000000000E-01     -1.666563000000000E+02      3.682709000000000E-01     -3.413867000000000E+01      3.531342000000000E-01     -1.462656000000000E+02      6.921082000000000E-01     -7.496484000000000E+01
4835000000.000000      6.442261000000000E-01     -1.666641000000000E+02      3.704987000000000E-01     -3.466406000000000E+01      3.554535000000000E-01     -1.464141000000000E+02      6.971130000000000E-01     -7.493750000000000E+01
4836000000.000000      6.526184000000000E-01     -1.665000000000000E+02      3.724823000000000E-01     -3.518164000000000E+01      3.574982000000000E-01     -1.466328000000000E+02      7.007141000000000E-01     -7.480859000000000E+01
4837000000.000000      6.587219000000000E-01     -1.663984000000000E+02      3.740692000000000E-01     -3.590625000000000E+01      3.597412000000000E-01     -1.468984000000000E+02      7.042847000000000E-01     -7.472656000000000E+01
4838000000.000000      6.656799000000000E-01     -1.664453000000000E+02      3.768616000000000E-01     -3.622851000000000E+01      3.619843000000000E-01     -1.470937000000000E+02      7.077942000000000E-01     -7.471874000000000E+01
4839000000.000000      6.727905000000000E-01     -1.662422000000000E+02      3.775482000000000E-01     -3.685156000000000E+01      3.633118000000000E-01     -1.471641000000000E+02      7.123718000000000E-01     -7.470312000000000E+01
4840000000.000000      6.779175000000000E-01     -1.662656000000000E+02      3.785095000000000E-01     -3.740625000000000E+01      3.657227000000000E-01     -1.474688000000000E+02      7.162476000000000E-01     -7.461328000000000E+01
4841000000.000000      6.860352000000000E-01     -1.662891000000000E+02      3.810883000000000E-01     -3.800390000000000E+01      3.678436000000000E-01     -1.476563000000000E+02      7.211304000000000E-01     -7.460938000000000E+01
4842000000.000000      6.940918000000000E-01     -1.661797000000000E+02      3.823547000000000E-01     -3.860352000000000E+01      3.690186000000000E-01     -1.478047000000000E+02      7.252808000000000E-01     -7.466015000000000E+01
4843000000.000000      7.001648000000000E-01     -1.662422000000000E+02      3.829803000000000E-01     -3.919140000000000E+01      3.713989000000000E-01     -1.480469000000000E+02      7.284851000000000E-01     -7.458593000000000E+01
4844000000.000000      7.071228000000000E-01     -1.661562000000000E+02      3.841858000000000E-01     -3.964844000000000E+01      3.726807000000000E-01     -1.481953000000000E+02      7.338257000000000E-01     -7.458202000000000E+01
4845000000.000000      7.136536000000000E-01     -1.661250000000000E+02      3.842468000000000E-01     -4.030859000000000E+01      3.748322000000000E-01     -1.483516000000000E+02      7.376099000000000E-01     -7.452734000000000E+01
4846000000.000000      7.215576000000000E-01     -1.660000000000000E+02      3.854980000000000E-01     -4.068555000000000E+01      3.771667000000000E-01     -1.486406000000000E+02      7.417603000000000E-01     -7.451172000000000E+01
4847000000.000000      7.287292000000000E-01     -1.660000000000000E+02      3.875732000000000E-01     -4.121289000000000E+01      3.786469000000000E-01     -1.487578000000000E+02      7.479858000000000E-01     -7.460546000000000E+01
4848000000.000000      7.368469000000000E-01     -1.659375000000000E+02      3.874207000000000E-01     -4.184960000000000E+01      3.803101000000000E-01     -1.489609000000000E+02      7.501526000000000E-01     -7.462500000000000E+01
4849000000.000000      7.429199000000000E-01     -1.662266000000000E+02      3.887634000000000E-01     -4.255859000000000E+01      3.820648000000000E-01     -1.491250000000000E+02      7.565918000000000E-01     -7.449609000000000E+01
4850000000.000000      7.504272000000000E-01     -1.659844000000000E+02      3.891296000000000E-01     -4.293359000000000E+01      3.833313000000000E-01     -1.492656000000000E+02      7.591858000000000E-01     -7.454687000000000E+01
4851000000.000000      7.568970000000000E-01     -1.659844000000000E+02      3.903198000000000E-01     -4.355859000000000E+01      3.845673000000000E-01     -1.494531000000000E+02      7.652893000000000E-01     -7.460155000000000E+01
4852000000.000000      7.644653000000000E-01     -1.660156000000000E+02      3.912354000000000E-01     -4.410352000000000E+01      3.863373000000000E-01     -1.496250000000000E+02      7.694092000000000E-01     -7.462891000000000E+01
4853000000.000000      7.710876000000000E-01     -1.659765000000000E+02      3.888092000000000E-01     -4.451953000000000E+01      3.877563000000000E-01     -1.498984000000000E+02      7.745361000000000E-01     -7.478906000000000E+01
4854000000.000000      7.774353000000000E-01     -1.660000000000000E+02      3.900146000000000E-01     -4.514844000000000E+01      3.889618000000000E-01     -1.501562000000000E+02      7.793884000000000E-01     -7.473827000000000E+01
4855000000.000000      7.825623000000000E-01     -1.660078000000000E+02      3.896790000000000E-01     -4.560547000000000E+01      3.905029000000000E-01     -1.501406000000000E+02      7.831421000000000E-01     -7.474609000000000E+01
4856000000.000000      7.900696000000000E-01     -1.659531000000000E+02      3.895111000000000E-01     -4.605078000000000E+01      3.912201000000000E-01     -1.502969000000000E+02      7.889099000000000E-01     -7.485156000000000E+01
4857000000.000000      7.966919000000000E-01     -1.660078000000000E+02      3.902435000000000E-01     -4.664453000000000E+01      3.929901000000000E-01     -1.504844000000000E+02      7.936401000000000E-01     -7.476953000000000E+01
4858000000.000000      7.998352000000000E-01     -1.660312000000000E+02      3.893738000000000E-01     -4.702148000000000E+01      3.937073000000000E-01     -1.506875000000000E+02      7.964783000000000E-01     -7.493359000000000E+01
4859000000.000000      8.078613000000000E-01     -1.660391000000000E+02      3.886566000000000E-01     -4.747070000000000E+01      3.951263000000000E-01     -1.509219000000000E+02      8.030701000000000E-01     -7.507030000000000E+01
4860000000.000000      8.142700000000000E-01     -1.659219000000000E+02      3.894348000000000E-01     -4.788281000000000E+01      3.958588000000000E-01     -1.509844000000000E+02      8.084717000000000E-01     -7.507030000000000E+01
4861000000.000000      8.186340000000000E-01     -1.660078000000000E+02      3.880920000000000E-01     -4.847070000000000E+01      3.976440000000000E-01     -1.511719000000000E+02      8.123779000000000E-01     -7.518359000000000E+01
4862000000.000000      8.256531000000000E-01     -1.659531000000000E+02      3.880768000000000E-01     -4.883984000000000E+01      3.988953000000000E-01     -1.513359000000000E+02      8.186646000000000E-01     -7.519531000000000E+01
4863000000.000000      8.285522000000000E-01     -1.659531000000000E+02      3.855438000000000E-01     -4.948828000000000E+01      3.997498000000000E-01     -1.514219000000000E+02      8.236084000000000E-01     -7.520312000000000E+01
4864000000.000000      8.371887000000000E-01     -1.660000000000000E+02      3.857727000000000E-01     -4.964648000000000E+01      3.997345000000000E-01     -1.516328000000000E+02      8.268433000000000E-01     -7.530468000000000E+01
4865000000.000000      8.396606000000000E-01     -1.661484000000000E+02      3.852081000000000E-01     -5.019140000000000E+01      4.011841000000000E-01     -1.518828000000000E+02      8.335876000000000E-01     -7.531640000000000E+01
4866000000.000000      8.429565000000000E-01     -1.659531000000000E+02      3.831482000000000E-01     -5.052929000000000E+01      4.020386000000000E-01     -1.520391000000000E+02      8.376770000000000E-01     -7.540234000000000E+01
4867000000.000000      8.495789000000000E-01     -1.660469000000000E+02      3.837585000000000E-01     -5.098437000000000E+01      4.023895000000000E-01     -1.522187000000000E+02      8.431396000000000E-01     -7.545312000000000E+01
4868000000.000000      8.559265000000000E-01     -1.661250000000000E+02      3.825989000000000E-01     -5.123241000000000E+01      4.039459000000000E-01     -1.523281000000000E+02      8.463440000000000E-01     -7.557031000000000E+01
4869000000.000000      8.562927000000000E-01     -1.659922000000000E+02      3.804016000000000E-01     -5.184765000000000E+01      4.040833000000000E-01     -1.525391000000000E+02      8.517761000000000E-01     -7.577343000000000E+01
4870000000.000000      8.623352000000000E-01     -1.660234000000000E+02      3.794098000000000E-01     -5.191601000000000E+01      4.044800000000000E-01     -1.527422000000000E+02      8.581848000000000E-01     -7.573047000000000E+01
4871000000.000000      8.652039000000000E-01     -1.660938000000000E+02      3.784027000000000E-01     -5.237499000000000E+01      4.042969000000000E-01     -1.529453000000000E+02      8.595886000000000E-01     -7.595312000000000E+01
4872000000.000000      8.702087000000000E-01     -1.660156000000000E+02      3.768768000000000E-01     -5.254296000000000E+01      4.055481000000000E-01     -1.531875000000000E+02      8.666382000000000E-01     -7.597656000000000E+01
4873000000.000000      8.748169000000000E-01     -1.659141000000000E+02      3.754730000000000E-01     -5.306641000000000E+01      4.056091000000000E-01     -1.532187000000000E+02      8.686218000000000E-01     -7.619141000000000E+01
4874000000.000000      8.767700000000000E-01     -1.658672000000000E+02      3.742065000000000E-01     -5.343163000000000E+01      4.066010000000000E-01     -1.533281000000000E+02      8.753052000000000E-01     -7.610546000000000E+01
4875000000.000000      8.817749000000000E-01     -1.660391000000000E+02      3.724365000000000E-01     -5.347656000000000E+01      4.069519000000000E-01     -1.536719000000000E+02      8.774109000000000E-01     -7.630077000000000E+01
4876000000.000000      8.804932000000000E-01     -1.659297000000000E+02      3.708801000000000E-01     -5.380077000000000E+01      4.062042000000000E-01     -1.537578000000000E+02      8.831787000000000E-01     -7.645702000000000E+01
4877000000.000000      8.838501000000000E-01     -1.656953000000000E+02      3.706512000000000E-01     -5.401757000000000E+01      4.076538000000000E-01     -1.540000000000000E+02      8.886414000000000E-01     -7.660937000000000E+01
4878000000.000000      8.887634000000000E-01     -1.658594000000000E+02      3.689117000000000E-01     -5.428515000000000E+01      4.076233000000000E-01     -1.540313000000000E+02      8.930054000000000E-01     -7.670312000000000E+01
4879000000.000000      8.922424000000000E-01     -1.656797000000000E+02      3.664093000000000E-01     -5.448242000000000E+01      4.068298000000000E-01     -1.542187000000000E+02      8.937378000000000E-01     -7.674218000000000E+01
4880000000.000000      8.902283000000000E-01     -1.657031000000000E+02      3.659973000000000E-01     -5.466406000000000E+01      4.081879000000000E-01     -1.543203000000000E+02      8.991394000000000E-01     -7.682812000000000E+01
4881000000.000000      8.969421000000000E-01     -1.654766000000000E+02      3.646088000000000E-01     -5.483398000000000E+01      4.087067000000000E-01     -1.545781000000000E+02      9.029846000000000E-01     -7.701172000000000E+01
4882000000.000000      8.927612000000000E-01     -1.653672000000000E+02      3.635101000000000E-01     -5.512304000000000E+01      4.080200000000000E-01     -1.546172000000000E+02      9.063416000000000E-01     -7.713672000000000E+01
