! Network Analyzer HP8722D
! Hewlett-Packard
! Data name: Linha & Wilkinson
! Saver's name: Rodrigo Anjos
! Comments: Teste da utilização de aquisição
continua pelo VNA HP8722D
! Time and date: 6/5/2025 13:15
!              Frequency                     S11                                                   S21                                                   S12                                                   S22
# HZ  S  MA R 50
4800000000.000000      9.039612000000000E-01      1.158125000000000E+02      3.201752000000000E-01     -1.705234000000000E+02      2.568970000000000E-01     -8.609766000000000E+01      9.840088000000000E-01     -4.749023000000000E+01
4801000000.000000      9.039307000000000E-01      1.161055000000000E+02      3.196259000000000E-01     -1.704453000000000E+02      2.565918000000000E-01     -8.611719000000000E+01      9.792786000000000E-01     -4.762695000000000E+01
4802000000.000000      9.012756000000000E-01      1.162891000000000E+02      3.195496000000000E-01     -1.702266000000000E+02      2.573700000000000E-01     -8.583984000000000E+01      9.770203000000000E-01     -4.755468000000000E+01
4803000000.000000      8.993530000000000E-01      1.166250000000000E+02      3.205872000000000E-01     -1.702734000000000E+02      2.566376000000000E-01     -8.567968000000000E+01      9.709778000000000E-01     -4.770117000000000E+01
4804000000.000000      8.982849000000000E-01      1.168672000000000E+02      3.208618000000000E-01     -1.702344000000000E+02      2.570953000000000E-01     -8.562891000000000E+01      9.654846000000000E-01     -4.771093000000000E+01
4805000000.000000      8.970642000000000E-01      1.168633000000000E+02      3.210449000000000E-01     -1.702734000000000E+02      2.564087000000000E-01     -8.526562000000000E+01      9.586182000000000E-01     -4.786523000000000E+01
4806000000.000000      8.937683000000000E-01      1.172539000000000E+02      3.214722000000000E-01     -1.701797000000000E+02      2.558594000000000E-01     -8.502733000000000E+01      9.531555000000000E-01     -4.798242000000000E+01
4807000000.000000      8.940735000000000E-01      1.174961000000000E+02      3.221741000000000E-01     -1.703906000000000E+02      2.567444000000000E-01     -8.492579000000000E+01      9.464722000000000E-01     -4.793359000000000E+01
4808000000.000000      8.906555000000000E-01      1.176406000000000E+02      3.225861000000000E-01     -1.701484000000000E+02      2.564850000000000E-01     -8.482031000000000E+01      9.418030000000000E-01     -4.807617000000000E+01
4809000000.000000      8.876343000000000E-01      1.179492000000000E+02      3.224335000000000E-01     -1.702812000000000E+02      2.569122000000000E-01     -8.449219000000000E+01      9.360657000000000E-01     -4.810351000000000E+01
4810000000.000000      8.854675000000000E-01      1.182070000000000E+02      3.236389000000000E-01     -1.701015000000000E+02      2.564697000000000E-01     -8.424219000000000E+01      9.315796000000000E-01     -4.821679000000000E+01
4811000000.000000      8.852844000000000E-01      1.184180000000000E+02      3.244934000000000E-01     -1.701953000000000E+02      2.576599000000000E-01     -8.395702000000000E+01      9.260864000000000E-01     -4.813477000000000E+01
4812000000.000000      8.820190000000000E-01      1.187734000000000E+02      3.243256000000000E-01     -1.701250000000000E+02      2.564392000000000E-01     -8.376562000000000E+01      9.198914000000000E-01     -4.825000000000000E+01
4813000000.000000      8.786621000000000E-01      1.190820000000000E+02      3.253937000000000E-01     -1.702031000000000E+02      2.565002000000000E-01     -8.346094000000000E+01      9.152527000000000E-01     -4.820507000000000E+01
4814000000.000000      8.746338000000000E-01      1.191953000000000E+02      3.253174000000000E-01     -1.702031000000000E+02      2.566223000000000E-01     -8.327343000000000E+01      9.104614000000000E-01     -4.833984000000000E+01
4815000000.000000      8.736877000000000E-01      1.195000000000000E+02      3.262329000000000E-01     -1.702031000000000E+02      2.564240000000000E-01     -8.291407000000000E+01      9.035645000000000E-01     -4.835938000000000E+01
4816000000.000000      8.720398000000000E-01      1.197578000000000E+02      3.274231000000000E-01     -1.702266000000000E+02      2.571564000000000E-01     -8.279688000000000E+01      8.986206000000000E-01     -4.855078000000000E+01
4817000000.000000      8.692627000000000E-01      1.199648000000000E+02      3.273468000000000E-01     -1.703906000000000E+02      2.565308000000000E-01     -8.240625000000000E+01      8.935547000000000E-01     -4.853516000000000E+01
4818000000.000000      8.643494000000000E-01      1.201094000000000E+02      3.280792000000000E-01     -1.703750000000000E+02      2.567749000000000E-01     -8.203905000000000E+01      8.868408000000000E-01     -4.861914000000000E+01
4819000000.000000      8.638000000000000E-01      1.203008000000000E+02      3.288422000000000E-01     -1.704766000000000E+02      2.559052000000000E-01     -8.183985000000000E+01      8.827209000000000E-01     -4.871094000000000E+01
4820000000.000000      8.568726000000000E-01      1.205625000000000E+02      3.289795000000000E-01     -1.704922000000000E+02      2.566528000000000E-01     -8.145311000000000E+01      8.782959000000000E-01     -4.871094000000000E+01
4821000000.000000      8.572083000000000E-01      1.207187000000000E+02      3.306427000000000E-01     -1.706250000000000E+02      2.566528000000000E-01     -8.126562000000000E+01      8.722534000000000E-01     -4.876171000000000E+01
4822000000.000000      8.543396000000000E-01      1.208711000000000E+02      3.308105000000000E-01     -1.708125000000000E+02      2.555695000000000E-01     -8.103125000000000E+01      8.672180000000000E-01     -4.898828000000000E+01
4823000000.000000      8.510437000000000E-01      1.212266000000000E+02      3.320618000000000E-01     -1.707344000000000E+02      2.559967000000000E-01     -8.052734000000000E+01      8.623352000000000E-01     -4.899219000000000E+01
4824000000.000000      8.472900000000000E-01      1.211641000000000E+02      3.315887000000000E-01     -1.711094000000000E+02      2.561646000000000E-01     -8.028515000000000E+01      8.568726000000000E-01     -4.893945000000000E+01
4825000000.000000      8.414307000000000E-01      1.213711000000000E+02      3.321381000000000E-01     -1.711953000000000E+02      2.564240000000000E-01     -7.998828000000000E+01      8.524475000000000E-01     -4.910351000000000E+01
4826000000.000000      8.397522000000000E-01      1.216133000000000E+02      3.339691000000000E-01     -1.713438000000000E+02      2.558594000000000E-01     -7.974999000000000E+01      8.477783000000000E-01     -4.920507000000000E+01
4827000000.000000      8.374634000000000E-01      1.217461000000000E+02      3.337555000000000E-01     -1.714219000000000E+02      2.559052000000000E-01     -7.933984000000000E+01      8.426208000000000E-01     -4.922656000000000E+01
4828000000.000000      8.327332000000000E-01      1.217383000000000E+02      3.347931000000000E-01     -1.715937000000000E+02      2.550812000000000E-01     -7.906640000000000E+01      8.385315000000000E-01     -4.935351000000000E+01
4829000000.000000      8.253174000000000E-01      1.221250000000000E+02      3.344421000000000E-01     -1.716797000000000E+02      2.566833000000000E-01     -7.874218000000000E+01      8.360291000000000E-01     -4.933594000000000E+01
4830000000.000000      8.233643000000000E-01      1.221836000000000E+02      3.350983000000000E-01     -1.719297000000000E+02      2.559814000000000E-01     -7.829687000000000E+01      8.287048000000000E-01     -4.945507000000000E+01
4831000000.000000      8.166809000000000E-01      1.221719000000000E+02      3.357086000000000E-01     -1.720859000000000E+02      2.562714000000000E-01     -7.789063000000000E+01      8.254700000000000E-01     -4.949219000000000E+01
4832000000.000000      8.135681000000000E-01      1.222695000000000E+02      3.361511000000000E-01     -1.723125000000000E+02      2.560577000000000E-01     -7.753906000000000E+01      8.196106000000000E-01     -4.954883000000000E+01
4833000000.000000      8.082581000000000E-01      1.224101000000000E+02      3.360138000000000E-01     -1.725234000000000E+02      2.560730000000000E-01     -7.730078000000000E+01      8.156738000000000E-01     -4.970898000000000E+01
4834000000.000000      8.051758000000000E-01      1.224258000000000E+02      3.367462000000000E-01     -1.726797000000000E+02      2.562561000000000E-01     -7.693359000000000E+01      8.117981000000000E-01     -4.966797000000000E+01
4835000000.000000      7.973938000000000E-01      1.223945000000000E+02      3.368683000000000E-01     -1.729375000000000E+02      2.565460000000000E-01     -7.647655000000000E+01      8.073425000000000E-01     -4.985352000000000E+01
4836000000.000000      7.958374000000000E-01      1.226601000000000E+02      3.367310000000000E-01     -1.732109000000000E+02      2.567139000000000E-01     -7.621875000000000E+01      8.040466000000000E-01     -4.981250000000000E+01
4837000000.000000      7.879944000000000E-01      1.226953000000000E+02      3.367157000000000E-01     -1.736172000000000E+02      2.569275000000000E-01     -7.588672000000000E+01      7.998962000000000E-01     -4.985352000000000E+01
4838000000.000000      7.833557000000000E-01      1.226680000000000E+02      3.378448000000000E-01     -1.735391000000000E+02      2.569275000000000E-01     -7.547656000000000E+01      7.966309000000000E-01     -4.989062000000000E+01
4839000000.000000      7.803345000000000E-01      1.227070000000000E+02      3.370819000000000E-01     -1.737734000000000E+02      2.569427000000000E-01     -7.531640000000000E+01      7.923889000000000E-01     -4.997851000000000E+01
4840000000.000000      7.723694000000000E-01      1.227266000000000E+02      3.371735000000000E-01     -1.739609000000000E+02      2.576294000000000E-01     -7.482031000000000E+01      7.885437000000000E-01     -5.007226000000000E+01
4841000000.000000      7.690735000000000E-01      1.226797000000000E+02      3.368988000000000E-01     -1.743359000000000E+02      2.581787000000000E-01     -7.456640000000000E+01      7.860107000000000E-01     -5.015429000000000E+01
4842000000.000000      7.636719000000000E-01      1.227383000000000E+02      3.372650000000000E-01     -1.745547000000000E+02      2.577209000000000E-01     -7.426952000000000E+01      7.829895000000000E-01     -5.006836000000000E+01
4843000000.000000      7.590942000000000E-01      1.226836000000000E+02      3.369904000000000E-01     -1.748203000000000E+02      2.577362000000000E-01     -7.393749000000000E+01      7.784424000000000E-01     -5.019531000000000E+01
4844000000.000000      7.542419000000000E-01      1.225781000000000E+02      3.367462000000000E-01     -1.750000000000000E+02      2.576141000000000E-01     -7.355859000000000E+01      7.752991000000000E-01     -5.028710000000000E+01
4845000000.000000      7.488403000000000E-01      1.225195000000000E+02      3.358917000000000E-01     -1.752500000000000E+02      2.585602000000000E-01     -7.323047000000000E+01      7.715454000000000E-01     -5.030468000000000E+01
4846000000.000000      7.421265000000000E-01      1.225664000000000E+02      3.360443000000000E-01     -1.755234000000000E+02      2.591400000000000E-01     -7.289063000000000E+01      7.675476000000000E-01     -5.040429000000000E+01
4847000000.000000      7.353210000000000E-01      1.225547000000000E+02      3.354492000000000E-01     -1.757031000000000E+02      2.590637000000000E-01     -7.262500000000000E+01      7.659912000000000E-01     -5.056250000000000E+01
4848000000.000000      7.320251000000000E-01      1.223594000000000E+02      3.348999000000000E-01     -1.760703000000000E+02      2.592926000000000E-01     -7.220312000000000E+01      7.605286000000000E-01     -5.062500000000000E+01
4849000000.000000      7.236938000000000E-01      1.221875000000000E+02      3.345032000000000E-01     -1.764609000000000E+02      2.597046000000000E-01     -7.184375000000000E+01      7.584534000000000E-01     -5.053711000000000E+01
4850000000.000000      7.178040000000000E-01      1.221641000000000E+02      3.339539000000000E-01     -1.765312000000000E+02      2.597656000000000E-01     -7.153125000000000E+01      7.556763000000000E-01     -5.065820000000000E+01
4851000000.000000      7.136230000000000E-01      1.221445000000000E+02      3.333435000000000E-01     -1.767344000000000E+02      2.605286000000000E-01     -7.130859000000000E+01      7.546692000000000E-01     -5.071875000000000E+01
4852000000.000000      7.067566000000000E-01      1.219414000000000E+02      3.328400000000000E-01     -1.769609000000000E+02      2.607422000000000E-01     -7.087109000000000E+01      7.507629000000000E-01     -5.077343000000000E+01
4853000000.000000      7.002869000000000E-01      1.217734000000000E+02      3.311005000000000E-01     -1.772891000000000E+02      2.612152000000000E-01     -7.065624000000000E+01      7.483521000000000E-01     -5.098827000000000E+01
4854000000.000000      6.951904000000000E-01      1.215469000000000E+02      3.309479000000000E-01     -1.775938000000000E+02      2.614288000000000E-01     -7.042187000000000E+01      7.457886000000000E-01     -5.092578000000000E+01
4855000000.000000      6.893005000000000E-01      1.213711000000000E+02      3.300171000000000E-01     -1.777031000000000E+02      2.619476000000000E-01     -6.996094000000000E+01      7.416687000000000E-01     -5.088085000000000E+01
4856000000.000000      6.836243000000000E-01      1.211445000000000E+02      3.293610000000000E-01     -1.779063000000000E+02      2.619781000000000E-01     -6.988281000000000E+01      7.403870000000000E-01     -5.099999000000000E+01
4857000000.000000      6.779175000000000E-01      1.209492000000000E+02      3.288422000000000E-01     -1.781094000000000E+02      2.622986000000000E-01     -6.957421000000000E+01      7.363586000000000E-01     -5.112890000000000E+01
4858000000.000000      6.690979000000000E-01      1.207031000000000E+02      3.271484000000000E-01     -1.784219000000000E+02      2.627258000000000E-01     -6.929296000000000E+01      7.336426000000000E-01     -5.120507000000000E+01
4859000000.000000      6.650696000000000E-01      1.202578000000000E+02      3.267059000000000E-01     -1.786797000000000E+02      2.632141000000000E-01     -6.910546000000000E+01      7.334900000000000E-01     -5.134960000000000E+01
4860000000.000000      6.589050000000000E-01      1.202422000000000E+02      3.252258000000000E-01     -1.787109000000000E+02      2.635345000000000E-01     -6.866405000000000E+01      7.297974000000000E-01     -5.122656000000000E+01
4861000000.000000      6.532593000000000E-01      1.199687000000000E+02      3.248596000000000E-01     -1.790703000000000E+02      2.640076000000000E-01     -6.858593000000000E+01      7.262878000000000E-01     -5.134766000000000E+01
4862000000.000000      6.443176000000000E-01      1.195586000000000E+02      3.241119000000000E-01     -1.791563000000000E+02      2.642517000000000E-01     -6.837500000000000E+01      7.256775000000000E-01     -5.132813000000000E+01
4863000000.000000      6.398621000000000E-01      1.193516000000000E+02      3.222198000000000E-01     -1.794688000000000E+02      2.650909000000000E-01     -6.813281000000000E+01      7.239990000000000E-01     -5.131445000000000E+01
4864000000.000000      6.343689000000000E-01      1.189063000000000E+02      3.219604000000000E-01     -1.794688000000000E+02      2.645874000000000E-01     -6.788280000000000E+01      7.202148000000000E-01     -5.142578000000000E+01
4865000000.000000      6.271362000000000E-01      1.185820000000000E+02      3.199921000000000E-01     -1.796328000000000E+02      2.652740000000000E-01     -6.771484000000000E+01      7.194519000000000E-01     -5.140820000000000E+01
4866000000.000000      6.205444000000000E-01      1.183437000000000E+02      3.183899000000000E-01     -1.799141000000000E+02      2.649231000000000E-01     -6.750781000000000E+01      7.166748000000000E-01     -5.147265000000000E+01
4867000000.000000      6.155090000000000E-01      1.178633000000000E+02      3.181763000000000E-01      1.798359000000000E+02      2.657471000000000E-01     -6.728516000000000E+01      7.160034000000000E-01     -5.156445000000000E+01
4868000000.000000      6.092224000000000E-01      1.174453000000000E+02      3.162689000000000E-01      1.796406000000000E+02      2.660522000000000E-01     -6.718359000000000E+01      7.114868000000000E-01     -5.150000000000000E+01
4869000000.000000      6.035156000000000E-01      1.172227000000000E+02      3.152618000000000E-01      1.795469000000000E+02      2.662964000000000E-01     -6.699219000000000E+01      7.102661000000000E-01     -5.174805000000000E+01
4870000000.000000      5.975952000000000E-01      1.167226000000000E+02      3.142090000000000E-01      1.795781000000000E+02      2.667389000000000E-01     -6.703515000000000E+01      7.087097000000000E-01     -5.158984000000000E+01
4871000000.000000      5.926514000000000E-01      1.161719000000000E+02      3.132172000000000E-01      1.792187000000000E+02      2.665863000000000E-01     -6.679688000000000E+01      7.051392000000000E-01     -5.178320000000000E+01
4872000000.000000      5.870056000000000E-01      1.158125000000000E+02      3.115540000000000E-01      1.792578000000000E+02      2.672729000000000E-01     -6.689453000000000E+01      7.050171000000000E-01     -5.166797000000000E+01
4873000000.000000      5.809326000000000E-01      1.155430000000000E+02      3.112335000000000E-01      1.789531000000000E+02      2.663879000000000E-01     -6.666406000000000E+01      7.022400000000000E-01     -5.186328000000000E+01
4874000000.000000      5.767517000000000E-01      1.148828000000000E+02      3.093567000000000E-01      1.788984000000000E+02      2.674103000000000E-01     -6.646484000000000E+01      6.995544000000000E-01     -5.162499000000000E+01
4875000000.000000      5.716858000000000E-01      1.145000000000000E+02      3.077087000000000E-01      1.788281000000000E+02      2.670593000000000E-01     -6.637500000000000E+01      6.977539000000000E-01     -5.179296000000000E+01
4876000000.000000      5.661926000000000E-01      1.141445000000000E+02      3.070831000000000E-01      1.786953000000000E+02      2.672272000000000E-01     -6.633203000000000E+01      6.962280000000000E-01     -5.185547000000000E+01
4877000000.000000      5.608521000000000E-01      1.135312000000000E+02      3.057861000000000E-01      1.785312000000000E+02      2.670898000000000E-01     -6.631640000000000E+01      6.947327000000000E-01     -5.186328000000000E+01
4878000000.000000      5.560608000000000E-01      1.130156000000000E+02      3.048401000000000E-01      1.785078000000000E+02      2.672882000000000E-01     -6.599218000000000E+01      6.931152000000000E-01     -5.188671000000000E+01
4879000000.000000      5.504761000000000E-01      1.125273000000000E+02      3.031158000000000E-01      1.782969000000000E+02      2.671204000000000E-01     -6.620703000000000E+01      6.900330000000000E-01     -5.180859000000000E+01
4880000000.000000      5.462036000000000E-01      1.119023000000000E+02      3.026428000000000E-01      1.782656000000000E+02      2.676849000000000E-01     -6.593359000000000E+01      6.882324000000000E-01     -5.173242000000000E+01
4881000000.000000      5.415344000000000E-01      1.115351000000000E+02      3.022614000000000E-01      1.783516000000000E+02      2.674713000000000E-01     -6.604297000000000E+01      6.856079000000000E-01     -5.176367000000000E+01
4882000000.000000      5.381165000000000E-01      1.108672000000000E+02      3.009644000000000E-01      1.781563000000000E+02      2.677307000000000E-01     -6.579296000000000E+01      6.823425000000000E-01     -5.180859000000000E+01
