! Network Analyzer HP8722D
! Hewlett-Packard
! Data name: Linha & Wilkinson
! Saver's name: Rodrigo Anjos
! Comments: Teste da utilização de aquisição
continua pelo VNA HP8722D
! Time and date: 6/5/2025 13:20
!              Frequency                     S11                                                   S21                                                   S12                                                   S22
# HZ  S  MA R 50
4800000000.000000      9.045105000000000E-01      1.158516000000000E+02      3.205414000000000E-01     -1.704844000000000E+02      2.567596000000000E-01     -8.610155000000000E+01      9.841309000000000E-01     -4.754102000000000E+01
4801000000.000000      9.049072000000000E-01      1.160000000000000E+02      3.196716000000000E-01     -1.704531000000000E+02      2.567444000000000E-01     -8.607813000000000E+01      9.803162000000000E-01     -4.760351000000000E+01
4802000000.000000      9.023132000000000E-01      1.161601000000000E+02      3.197784000000000E-01     -1.702500000000000E+02      2.573242000000000E-01     -8.588671000000000E+01      9.756165000000000E-01     -4.748828000000000E+01
4803000000.000000      8.990784000000000E-01      1.166289000000000E+02      3.209534000000000E-01     -1.702344000000000E+02      2.566223000000000E-01     -8.571093000000000E+01      9.693298000000000E-01     -4.777539000000000E+01
4804000000.000000      8.984375000000000E-01      1.169297000000000E+02      3.207397000000000E-01     -1.702109000000000E+02      2.566681000000000E-01     -8.565233000000000E+01      9.644165000000000E-01     -4.775781000000000E+01
4805000000.000000      8.988342000000000E-01      1.170195000000000E+02      3.209991000000000E-01     -1.701953000000000E+02      2.564240000000000E-01     -8.539454000000000E+01      9.584656000000000E-01     -4.782227000000000E+01
4806000000.000000      8.953552000000000E-01      1.171836000000000E+02      3.215027000000000E-01     -1.702422000000000E+02      2.556305000000000E-01     -8.506639000000000E+01      9.526367000000000E-01     -4.800781000000000E+01
4807000000.000000      8.963928000000000E-01      1.174219000000000E+02      3.221588000000000E-01     -1.702734000000000E+02      2.563477000000000E-01     -8.497656000000000E+01      9.472046000000000E-01     -4.787305000000000E+01
4808000000.000000      8.907166000000000E-01      1.175586000000000E+02      3.233185000000000E-01     -1.700547000000000E+02      2.564850000000000E-01     -8.477343000000000E+01      9.418640000000000E-01     -4.799414000000000E+01
4809000000.000000      8.882751000000000E-01      1.179531000000000E+02      3.228912000000000E-01     -1.703281000000000E+02      2.571259000000000E-01     -8.453125000000000E+01      9.366150000000000E-01     -4.803320000000000E+01
4810000000.000000      8.866882000000000E-01      1.182656000000000E+02      3.238831000000000E-01     -1.701250000000000E+02      2.562408000000000E-01     -8.426561000000000E+01      9.326172000000000E-01     -4.823242000000000E+01
4811000000.000000      8.857727000000000E-01      1.186133000000000E+02      3.245239000000000E-01     -1.702656000000000E+02      2.572021000000000E-01     -8.396484000000000E+01      9.258423000000000E-01     -4.811523000000000E+01
4812000000.000000      8.824158000000000E-01      1.188125000000000E+02      3.243256000000000E-01     -1.702500000000000E+02      2.564697000000000E-01     -8.375391000000000E+01      9.190063000000000E-01     -4.831836000000000E+01
4813000000.000000      8.802185000000000E-01      1.190312000000000E+02      3.246307000000000E-01     -1.701562000000000E+02      2.565918000000000E-01     -8.346094000000000E+01      9.150696000000000E-01     -4.829883000000000E+01
4814000000.000000      8.746643000000000E-01      1.192148000000000E+02      3.256073000000000E-01     -1.701719000000000E+02      2.565613000000000E-01     -8.329296000000000E+01      9.102783000000000E-01     -4.836719000000000E+01
4815000000.000000      8.726196000000000E-01      1.194805000000000E+02      3.262177000000000E-01     -1.702109000000000E+02      2.566223000000000E-01     -8.291407000000000E+01      9.050903000000000E-01     -4.841015000000000E+01
4816000000.000000      8.722839000000000E-01      1.196836000000000E+02      3.278961000000000E-01     -1.702031000000000E+02      2.571411000000000E-01     -8.280468000000000E+01      8.995972000000000E-01     -4.855273000000000E+01
4817000000.000000      8.689270000000000E-01      1.199141000000000E+02      3.279114000000000E-01     -1.703281000000000E+02      2.566833000000000E-01     -8.247656000000000E+01      8.929749000000000E-01     -4.853125000000000E+01
4818000000.000000      8.657532000000000E-01      1.202031000000000E+02      3.281403000000000E-01     -1.703750000000000E+02      2.566986000000000E-01     -8.204296000000000E+01      8.872681000000000E-01     -4.861328000000000E+01
4819000000.000000      8.631287000000000E-01      1.204570000000000E+02      3.292084000000000E-01     -1.704453000000000E+02      2.560730000000000E-01     -8.188280000000000E+01      8.828735000000000E-01     -4.879492000000000E+01
4820000000.000000      8.555603000000000E-01      1.205273000000000E+02      3.291779000000000E-01     -1.705156000000000E+02      2.567291000000000E-01     -8.155077000000000E+01      8.785400000000000E-01     -4.872656000000000E+01
4821000000.000000      8.583374000000000E-01      1.208555000000000E+02      3.307495000000000E-01     -1.705859000000000E+02      2.563934000000000E-01     -8.128124000000000E+01      8.717041000000000E-01     -4.880273000000000E+01
4822000000.000000      8.535767000000000E-01      1.207617000000000E+02      3.306274000000000E-01     -1.708125000000000E+02      2.558289000000000E-01     -8.105860000000000E+01      8.669434000000000E-01     -4.895702000000000E+01
4823000000.000000      8.497620000000000E-01      1.211133000000000E+02      3.315735000000000E-01     -1.708281000000000E+02      2.559509000000000E-01     -8.048437000000000E+01      8.607483000000000E-01     -4.897851000000000E+01
4824000000.000000      8.469543000000000E-01      1.211680000000000E+02      3.324280000000000E-01     -1.711172000000000E+02      2.563171000000000E-01     -8.027344000000000E+01      8.555298000000000E-01     -4.899219000000000E+01
4825000000.000000      8.439636000000000E-01      1.213359000000000E+02      3.321838000000000E-01     -1.711797000000000E+02      2.564240000000000E-01     -8.000000000000000E+01      8.525391000000000E-01     -4.916016000000000E+01
4826000000.000000      8.393555000000000E-01      1.216562000000000E+02      3.337097000000000E-01     -1.711562000000000E+02      2.557373000000000E-01     -7.976171000000000E+01      8.482666000000000E-01     -4.919335000000000E+01
4827000000.000000      8.375549000000000E-01      1.217266000000000E+02      3.338623000000000E-01     -1.713203000000000E+02      2.554321000000000E-01     -7.937109000000000E+01      8.433228000000000E-01     -4.921093000000000E+01
4828000000.000000      8.320923000000000E-01      1.217891000000000E+02      3.350220000000000E-01     -1.715469000000000E+02      2.552948000000000E-01     -7.910546000000000E+01      8.390808000000000E-01     -4.940430000000000E+01
4829000000.000000      8.259583000000000E-01      1.220469000000000E+02      3.348541000000000E-01     -1.716640000000000E+02      2.568512000000000E-01     -7.876171000000000E+01      8.353271000000000E-01     -4.938671000000000E+01
4830000000.000000      8.239746000000000E-01      1.221719000000000E+02      3.351288000000000E-01     -1.719297000000000E+02      2.559357000000000E-01     -7.835155000000000E+01      8.293457000000000E-01     -4.948828000000000E+01
4831000000.000000      8.154907000000000E-01      1.222187000000000E+02      3.355713000000000E-01     -1.721797000000000E+02      2.562408000000000E-01     -7.791797000000000E+01      8.254089000000000E-01     -4.954296000000000E+01
4832000000.000000      8.135986000000000E-01      1.223086000000000E+02      3.360901000000000E-01     -1.723516000000000E+02      2.560120000000000E-01     -7.767968000000000E+01      8.211060000000000E-01     -4.958008000000000E+01
4833000000.000000      8.065491000000000E-01      1.223125000000000E+02      3.366394000000000E-01     -1.724453000000000E+02      2.559204000000000E-01     -7.729687000000000E+01      8.159180000000000E-01     -4.962500000000000E+01
4834000000.000000      8.035278000000000E-01      1.224297000000000E+02      3.370514000000000E-01     -1.727187000000000E+02      2.561188000000000E-01     -7.703515000000000E+01      8.118591000000000E-01     -4.972461000000000E+01
4835000000.000000      7.994385000000000E-01      1.225977000000000E+02      3.368835000000000E-01     -1.729453000000000E+02      2.566528000000000E-01     -7.650000000000000E+01      8.080444000000000E-01     -4.975780000000000E+01
4836000000.000000      7.965698000000000E-01      1.226055000000000E+02      3.366852000000000E-01     -1.732734000000000E+02      2.565002000000000E-01     -7.621484000000000E+01      8.045044000000000E-01     -4.987695000000000E+01
4837000000.000000      7.912903000000000E-01      1.227773000000000E+02      3.370361000000000E-01     -1.735156000000000E+02      2.568512000000000E-01     -7.599218000000000E+01      7.992859000000000E-01     -4.985352000000000E+01
4838000000.000000      7.838440000000000E-01      1.227109000000000E+02      3.376160000000000E-01     -1.736562000000000E+02      2.566986000000000E-01     -7.545703000000000E+01      7.962036000000000E-01     -4.989452000000000E+01
4839000000.000000      7.815247000000000E-01      1.226914000000000E+02      3.370819000000000E-01     -1.737813000000000E+02      2.571564000000000E-01     -7.524609000000000E+01      7.925720000000000E-01     -5.004687000000000E+01
4840000000.000000      7.755127000000000E-01      1.228086000000000E+02      3.373718000000000E-01     -1.739922000000000E+02      2.576904000000000E-01     -7.484375000000000E+01      7.889709000000000E-01     -5.006054000000000E+01
4841000000.000000      7.723083000000000E-01      1.228086000000000E+02      3.376312000000000E-01     -1.744844000000000E+02      2.579346000000000E-01     -7.454687000000000E+01      7.862854000000000E-01     -5.014062000000000E+01
4842000000.000000      7.651062000000000E-01      1.228125000000000E+02      3.368835000000000E-01     -1.744688000000000E+02      2.574615000000000E-01     -7.422656000000000E+01      7.831116000000000E-01     -5.016015000000000E+01
4843000000.000000      7.584534000000000E-01      1.227344000000000E+02      3.369446000000000E-01     -1.748359000000000E+02      2.578278000000000E-01     -7.398828000000000E+01      7.785645000000000E-01     -5.023438000000000E+01
4844000000.000000      7.532043000000000E-01      1.225898000000000E+02      3.369446000000000E-01     -1.750078000000000E+02      2.580414000000000E-01     -7.356640000000000E+01      7.744446000000000E-01     -5.033008000000000E+01
4845000000.000000      7.476196000000000E-01      1.226797000000000E+02      3.364105000000000E-01     -1.753125000000000E+02      2.587891000000000E-01     -7.326562000000000E+01      7.719116000000000E-01     -5.032617000000000E+01
4846000000.000000      7.413330000000000E-01      1.225391000000000E+02      3.363342000000000E-01     -1.754922000000000E+02      2.588959000000000E-01     -7.293750000000000E+01      7.685547000000000E-01     -5.044726000000000E+01
4847000000.000000      7.374268000000000E-01      1.225117000000000E+02      3.360138000000000E-01     -1.756484000000000E+02      2.592621000000000E-01     -7.263281000000000E+01      7.651367000000000E-01     -5.058594000000000E+01
4848000000.000000      7.330322000000000E-01      1.223594000000000E+02      3.348389000000000E-01     -1.760469000000000E+02      2.591858000000000E-01     -7.226563000000000E+01      7.612000000000000E-01     -5.056641000000000E+01
4849000000.000000      7.239990000000000E-01      1.220781000000000E+02      3.347015000000000E-01     -1.763281000000000E+02      2.598419000000000E-01     -7.183203000000000E+01      7.586365000000000E-01     -5.057812000000000E+01
4850000000.000000      7.201233000000000E-01      1.221055000000000E+02      3.341980000000000E-01     -1.765625000000000E+02      2.597046000000000E-01     -7.154297000000000E+01      7.558289000000000E-01     -5.069530000000000E+01
4851000000.000000      7.126160000000000E-01      1.219453000000000E+02      3.343658000000000E-01     -1.767578000000000E+02      2.600555000000000E-01     -7.125781000000000E+01      7.544250000000000E-01     -5.073047000000000E+01
4852000000.000000      7.073975000000000E-01      1.216523000000000E+02      3.329773000000000E-01     -1.769844000000000E+02      2.606812000000000E-01     -7.096484000000000E+01      7.504272000000000E-01     -5.069921000000000E+01
4853000000.000000      7.035522000000000E-01      1.218828000000000E+02      3.314514000000000E-01     -1.772031000000000E+02      2.613983000000000E-01     -7.066796000000000E+01      7.473450000000000E-01     -5.094140000000000E+01
4854000000.000000      6.945496000000000E-01      1.213125000000000E+02      3.302765000000000E-01     -1.776016000000000E+02      2.617493000000000E-01     -7.051952000000000E+01      7.449341000000000E-01     -5.093359000000000E+01
4855000000.000000      6.886902000000000E-01      1.214492000000000E+02      3.298340000000000E-01     -1.777578000000000E+02      2.616577000000000E-01     -7.014062000000000E+01      7.408142000000000E-01     -5.096289000000000E+01
4856000000.000000      6.857300000000000E-01      1.211523000000000E+02      3.297424000000000E-01     -1.780000000000000E+02      2.619629000000000E-01     -6.990624000000000E+01      7.403259000000000E-01     -5.095117000000000E+01
4857000000.000000      6.775818000000000E-01      1.209727000000000E+02      3.290253000000000E-01     -1.781406000000000E+02      2.624664000000000E-01     -6.957031000000000E+01      7.368774000000000E-01     -5.109765000000000E+01
4858000000.000000      6.695251000000000E-01      1.205430000000000E+02      3.274689000000000E-01     -1.783359000000000E+02      2.627563000000000E-01     -6.928124000000000E+01      7.337036000000000E-01     -5.109570000000000E+01
4859000000.000000      6.647339000000000E-01      1.203320000000000E+02      3.271484000000000E-01     -1.786953000000000E+02      2.630157000000000E-01     -6.914453000000000E+01      7.333984000000000E-01     -5.133203000000000E+01
4860000000.000000      6.594849000000000E-01      1.201601000000000E+02      3.265839000000000E-01     -1.787109000000000E+02      2.628326000000000E-01     -6.881249000000000E+01      7.290039000000000E-01     -5.124609000000000E+01
4861000000.000000      6.509705000000000E-01      1.200156000000000E+02      3.243561000000000E-01     -1.791953000000000E+02      2.634125000000000E-01     -6.862109000000000E+01      7.272644000000000E-01     -5.131054000000000E+01
4862000000.000000      6.454163000000000E-01      1.196836000000000E+02      3.241882000000000E-01     -1.792266000000000E+02      2.645111000000000E-01     -6.832812000000000E+01      7.259827000000000E-01     -5.143945000000000E+01
4863000000.000000      6.381836000000000E-01      1.192851000000000E+02      3.216858000000000E-01     -1.794297000000000E+02      2.651367000000000E-01     -6.806250000000000E+01      7.246399000000000E-01     -5.138866000000000E+01
4864000000.000000      6.325378000000000E-01      1.191250000000000E+02      3.220520000000000E-01     -1.796094000000000E+02      2.645874000000000E-01     -6.787109000000000E+01      7.207031000000000E-01     -5.151562000000000E+01
4865000000.000000      6.252747000000000E-01      1.186484000000000E+02      3.199768000000000E-01     -1.797578000000000E+02      2.652893000000000E-01     -6.776562000000000E+01      7.198792000000000E-01     -5.143164000000000E+01
4866000000.000000      6.210632000000000E-01      1.183516000000000E+02      3.188019000000000E-01     -1.798750000000000E+02      2.647247000000000E-01     -6.770702000000000E+01      7.175293000000000E-01     -5.155078000000000E+01
4867000000.000000      6.134338000000000E-01      1.177539000000000E+02      3.180237000000000E-01      1.796328000000000E+02      2.662506000000000E-01     -6.743750000000000E+01      7.153320000000000E-01     -5.152929000000000E+01
4868000000.000000      6.095886000000000E-01      1.174336000000000E+02      3.171234000000000E-01      1.797500000000000E+02      2.664032000000000E-01     -6.718359000000000E+01      7.120972000000000E-01     -5.162109000000000E+01
4869000000.000000      6.021118000000000E-01      1.172578000000000E+02      3.149414000000000E-01      1.795234000000000E+02      2.665405000000000E-01     -6.700390000000000E+01      7.102966000000000E-01     -5.169531000000000E+01
4870000000.000000      5.983582000000000E-01      1.168516000000000E+02      3.143005000000000E-01      1.794531000000000E+02      2.667236000000000E-01     -6.698047000000000E+01      7.082825000000000E-01     -5.168945000000000E+01
4871000000.000000      5.923462000000000E-01      1.161211000000000E+02      3.134613000000000E-01      1.791016000000000E+02      2.667084000000000E-01     -6.682812000000000E+01      7.056274000000000E-01     -5.175390000000000E+01
4872000000.000000      5.877686000000000E-01      1.160312000000000E+02      3.118744000000000E-01      1.791875000000000E+02      2.669067000000000E-01     -6.685937000000000E+01      7.047119000000000E-01     -5.173242000000000E+01
4873000000.000000      5.803528000000000E-01      1.154414000000000E+02      3.111115000000000E-01      1.789453000000000E+02      2.668457000000000E-01     -6.655859000000000E+01      7.011719000000000E-01     -5.179101000000000E+01
4874000000.000000      5.769958000000000E-01      1.149219000000000E+02      3.091583000000000E-01      1.787891000000000E+02      2.675323000000000E-01     -6.650391000000000E+01      6.995544000000000E-01     -5.165234000000000E+01
4875000000.000000      5.707703000000000E-01      1.144922000000000E+02      3.081055000000000E-01      1.788281000000000E+02      2.680969000000000E-01     -6.645702000000000E+01      6.979065000000000E-01     -5.177929000000000E+01
4876000000.000000      5.655823000000000E-01      1.142031000000000E+02      3.071289000000000E-01      1.786562000000000E+02      2.671967000000000E-01     -6.630859000000000E+01      6.962280000000000E-01     -5.190820000000000E+01
4877000000.000000      5.614624000000000E-01      1.134414000000000E+02      3.062897000000000E-01      1.786641000000000E+02      2.678528000000000E-01     -6.631249000000000E+01      6.941223000000000E-01     -5.180664000000000E+01
4878000000.000000      5.549927000000000E-01      1.130078000000000E+02      3.049622000000000E-01      1.784453000000000E+02      2.674408000000000E-01     -6.613281000000000E+01      6.924438000000000E-01     -5.186913000000000E+01
4879000000.000000      5.521545000000000E-01      1.124805000000000E+02      3.030853000000000E-01      1.783984000000000E+02      2.673035000000000E-01     -6.615234000000000E+01      6.896057000000000E-01     -5.187500000000000E+01
4880000000.000000      5.454712000000000E-01      1.119492000000000E+02      3.028259000000000E-01      1.783750000000000E+02      2.678680000000000E-01     -6.600390000000000E+01      6.881714000000000E-01     -5.183203000000000E+01
4881000000.000000      5.426636000000000E-01      1.115430000000000E+02      3.021088000000000E-01      1.782031000000000E+02      2.682953000000000E-01     -6.613281000000000E+01      6.860962000000000E-01     -5.175976000000000E+01
4882000000.000000      5.381165000000000E-01      1.109766000000000E+02      3.008118000000000E-01      1.781406000000000E+02      2.678833000000000E-01     -6.594531000000000E+01      6.834106000000000E-01     -5.174999000000000E+01
