! Network Analyzer HP8722D
! Hewlett-Packard
! Data name: Linha & Wilkinson
! Saver's name: Rodrigo Anjos
! Comments: Teste da utilização de aquisição
continua pelo VNA HP8722D
! Time and date: 6/5/2025 14:30
!              Frequency                     S11                                                   S21                                                   S12                                                   S22
# HZ  S  MA R 50
4800000000.000000      4.966736000000000E-01     -1.682344000000000E+02      2.526245000000000E-01     -1.979492000000000E+01      2.492905000000000E-01     -1.410156000000000E+02      6.479187000000000E-01     -8.036327000000000E+01
4801000000.000000      4.983521000000000E-01     -1.683203000000000E+02      2.564392000000000E-01     -1.988965000000000E+01      2.525330000000000E-01     -1.410938000000000E+02      6.466370000000000E-01     -8.014843000000000E+01
4802000000.000000      4.995575000000000E-01     -1.683984000000000E+02      2.605743000000000E-01     -2.012890000000000E+01      2.570343000000000E-01     -1.409765000000000E+02      6.454773000000000E-01     -7.987499000000000E+01
4803000000.000000      5.011292000000000E-01     -1.684687000000000E+02      2.649231000000000E-01     -2.037012000000000E+01      2.596130000000000E-01     -1.411172000000000E+02      6.449890000000000E-01     -7.969921000000000E+01
4804000000.000000      5.033264000000000E-01     -1.684297000000000E+02      2.684326000000000E-01     -2.066699000000000E+01      2.637939000000000E-01     -1.413125000000000E+02      6.438293000000000E-01     -7.942187000000000E+01
4805000000.000000      5.058594000000000E-01     -1.684844000000000E+02      2.728271000000000E-01     -2.109961000000000E+01      2.676086000000000E-01     -1.412734000000000E+02      6.437073000000000E-01     -7.928515000000000E+01
4806000000.000000      5.073547000000000E-01     -1.683750000000000E+02      2.771454000000000E-01     -2.131152000000000E+01      2.702484000000000E-01     -1.412656000000000E+02      6.430664000000000E-01     -7.911718000000000E+01
4807000000.000000      5.108643000000000E-01     -1.685000000000000E+02      2.807312000000000E-01     -2.156641000000000E+01      2.744904000000000E-01     -1.414844000000000E+02      6.428223000000000E-01     -7.883203000000000E+01
4808000000.000000      5.132751000000000E-01     -1.683750000000000E+02      2.855530000000000E-01     -2.185254000000000E+01      2.774048000000000E-01     -1.416016000000000E+02      6.423645000000000E-01     -7.862109000000000E+01
4809000000.000000      5.155334000000000E-01     -1.684141000000000E+02      2.889404000000000E-01     -2.239160000000000E+01      2.814636000000000E-01     -1.418047000000000E+02      6.439819000000000E-01     -7.845703000000000E+01
4810000000.000000      5.184937000000000E-01     -1.684219000000000E+02      2.927551000000000E-01     -2.265039000000000E+01      2.846527000000000E-01     -1.418906000000000E+02      6.436157000000000E-01     -7.824609000000000E+01
4811000000.000000      5.218201000000000E-01     -1.683672000000000E+02      2.964783000000000E-01     -2.308594000000000E+01      2.888794000000000E-01     -1.419297000000000E+02      6.438293000000000E-01     -7.798828000000000E+01
4812000000.000000      5.256653000000000E-01     -1.683125000000000E+02      3.003693000000000E-01     -2.347558000000000E+01      2.922363000000000E-01     -1.419062000000000E+02      6.454468000000000E-01     -7.782421000000000E+01
4813000000.000000      5.283203000000000E-01     -1.682266000000000E+02      3.038177000000000E-01     -2.382031000000000E+01      2.949371000000000E-01     -1.422656000000000E+02      6.456299000000000E-01     -7.759375000000000E+01
4814000000.000000      5.310669000000000E-01     -1.683750000000000E+02      3.072510000000000E-01     -2.422949000000000E+01      2.980194000000000E-01     -1.424766000000000E+02      6.461182000000000E-01     -7.750390000000000E+01
4815000000.000000      5.347900000000000E-01     -1.681484000000000E+02      3.106995000000000E-01     -2.460546000000000E+01      3.012543000000000E-01     -1.425234000000000E+02      6.457214000000000E-01     -7.722656000000000E+01
4816000000.000000      5.391541000000000E-01     -1.680781000000000E+02      3.156433000000000E-01     -2.501758000000000E+01      3.058472000000000E-01     -1.426641000000000E+02      6.486816000000000E-01     -7.699609000000000E+01
4817000000.000000      5.435181000000000E-01     -1.680000000000000E+02      3.185730000000000E-01     -2.545605000000000E+01      3.075104000000000E-01     -1.429766000000000E+02      6.490784000000000E-01     -7.684375000000000E+01
4818000000.000000      5.474548000000000E-01     -1.679453000000000E+02      3.214417000000000E-01     -2.586914000000000E+01      3.112640000000000E-01     -1.430703000000000E+02      6.512146000000000E-01     -7.673437000000000E+01
4819000000.000000      5.526733000000000E-01     -1.678750000000000E+02      3.248749000000000E-01     -2.640625000000000E+01      3.137512000000000E-01     -1.432422000000000E+02      6.541748000000000E-01     -7.664063000000000E+01
4820000000.000000      5.545654000000000E-01     -1.678125000000000E+02      3.279419000000000E-01     -2.674805000000000E+01      3.169098000000000E-01     -1.434531000000000E+02      6.545715000000000E-01     -7.648828000000000E+01
4821000000.000000      5.613098000000000E-01     -1.676797000000000E+02      3.320465000000000E-01     -2.723828000000000E+01      3.197937000000000E-01     -1.436250000000000E+02      6.560059000000000E-01     -7.640625000000000E+01
4822000000.000000      5.672607000000000E-01     -1.676719000000000E+02      3.350525000000000E-01     -2.782324000000000E+01      3.217926000000000E-01     -1.438281000000000E+02      6.586609000000000E-01     -7.615624000000000E+01
4823000000.000000      5.710449000000000E-01     -1.675313000000000E+02      3.385925000000000E-01     -2.828320000000000E+01      3.247986000000000E-01     -1.438984000000000E+02      6.602478000000000E-01     -7.602344000000000E+01
4824000000.000000      5.778809000000000E-01     -1.675469000000000E+02      3.415527000000000E-01     -2.878906000000000E+01      3.285065000000000E-01     -1.442578000000000E+02      6.636353000000000E-01     -7.592187000000000E+01
4825000000.000000      5.820618000000000E-01     -1.674297000000000E+02      3.448181000000000E-01     -2.918554000000000E+01      3.314667000000000E-01     -1.443984000000000E+02      6.658020000000000E-01     -7.575781000000000E+01
4826000000.000000      5.876770000000000E-01     -1.672812000000000E+02      3.479309000000000E-01     -2.974414000000000E+01      3.335114000000000E-01     -1.445547000000000E+02      6.683655000000000E-01     -7.564062000000000E+01
4827000000.000000      5.938416000000000E-01     -1.671875000000000E+02      3.506165000000000E-01     -3.019629000000000E+01      3.357697000000000E-01     -1.446875000000000E+02      6.708679000000000E-01     -7.551171000000000E+01
4828000000.000000      6.002197000000000E-01     -1.671484000000000E+02      3.536224000000000E-01     -3.066015000000000E+01      3.378296000000000E-01     -1.449063000000000E+02      6.748047000000000E-01     -7.546093000000000E+01
4829000000.000000      6.039734000000000E-01     -1.669609000000000E+02      3.550568000000000E-01     -3.135644000000000E+01      3.409729000000000E-01     -1.451641000000000E+02      6.770325000000000E-01     -7.531250000000000E+01
4830000000.000000      6.114197000000000E-01     -1.669922000000000E+02      3.579865000000000E-01     -3.188965000000000E+01      3.440399000000000E-01     -1.453438000000000E+02      6.800842000000000E-01     -7.520312000000000E+01
4831000000.000000      6.161194000000000E-01     -1.668125000000000E+02      3.609314000000000E-01     -3.230859000000000E+01      3.467407000000000E-01     -1.454687000000000E+02      6.835327000000000E-01     -7.515625000000000E+01
4832000000.000000      6.257935000000000E-01     -1.667578000000000E+02      3.634949000000000E-01     -3.302929000000000E+01      3.480988000000000E-01     -1.457422000000000E+02      6.862183000000000E-01     -7.505859000000000E+01
4833000000.000000      6.311646000000000E-01     -1.668047000000000E+02      3.657684000000000E-01     -3.347461000000000E+01      3.508759000000000E-01     -1.459766000000000E+02      6.891479000000000E-01     -7.498437000000000E+01
4834000000.000000      6.369629000000000E-01     -1.666641000000000E+02      3.672638000000000E-01     -3.391992000000000E+01      3.532867000000000E-01     -1.462031000000000E+02      6.928101000000000E-01     -7.490624000000000E+01
4835000000.000000      6.435547000000000E-01     -1.665469000000000E+02      3.699951000000000E-01     -3.451367000000000E+01      3.560791000000000E-01     -1.462734000000000E+02      6.968994000000000E-01     -7.483984000000000E+01
4836000000.000000      6.523132000000000E-01     -1.664844000000000E+02      3.721466000000000E-01     -3.504297000000000E+01      3.569946000000000E-01     -1.465000000000000E+02      6.996155000000000E-01     -7.475390000000000E+01
4837000000.000000      6.583252000000000E-01     -1.663516000000000E+02      3.738098000000000E-01     -3.591211000000000E+01      3.594055000000000E-01     -1.468437000000000E+02      7.038574000000000E-01     -7.478125000000000E+01
4838000000.000000      6.655273000000000E-01     -1.664063000000000E+02      3.766174000000000E-01     -3.621094000000000E+01      3.618927000000000E-01     -1.468828000000000E+02      7.083130000000000E-01     -7.473437000000000E+01
4839000000.000000      6.724243000000000E-01     -1.662188000000000E+02      3.774109000000000E-01     -3.678711000000000E+01      3.630524000000000E-01     -1.471016000000000E+02      7.117004000000000E-01     -7.458984000000000E+01
4840000000.000000      6.777039000000000E-01     -1.662500000000000E+02      3.787079000000000E-01     -3.723242000000000E+01      3.651123000000000E-01     -1.474219000000000E+02      7.171021000000000E-01     -7.462891000000000E+01
4841000000.000000      6.864014000000000E-01     -1.662188000000000E+02      3.808594000000000E-01     -3.795703000000000E+01      3.679504000000000E-01     -1.475703000000000E+02      7.190552000000000E-01     -7.465234000000000E+01
4842000000.000000      6.935120000000000E-01     -1.661172000000000E+02      3.816681000000000E-01     -3.851953000000000E+01      3.688660000000000E-01     -1.478047000000000E+02      7.244568000000000E-01     -7.456640000000000E+01
4843000000.000000      6.997986000000000E-01     -1.661406000000000E+02      3.828735000000000E-01     -3.913867000000000E+01      3.715057000000000E-01     -1.478906000000000E+02      7.287292000000000E-01     -7.453125000000000E+01
4844000000.000000      7.062378000000000E-01     -1.660859000000000E+02      3.841248000000000E-01     -3.958008000000000E+01      3.726501000000000E-01     -1.480937000000000E+02      7.330322000000000E-01     -7.457031000000000E+01
4845000000.000000      7.133789000000000E-01     -1.660078000000000E+02      3.844147000000000E-01     -4.004492000000000E+01      3.747711000000000E-01     -1.482578000000000E+02      7.362671000000000E-01     -7.448437000000000E+01
4846000000.000000      7.203369000000000E-01     -1.659062000000000E+02      3.870544000000000E-01     -4.057813000000000E+01      3.765564000000000E-01     -1.484766000000000E+02      7.403564000000000E-01     -7.446094000000000E+01
4847000000.000000      7.285461000000000E-01     -1.659765000000000E+02      3.864136000000000E-01     -4.129296000000000E+01      3.784637000000000E-01     -1.486797000000000E+02      7.467651000000000E-01     -7.454296000000000E+01
4848000000.000000      7.356873000000000E-01     -1.658750000000000E+02      3.881989000000000E-01     -4.161523000000000E+01      3.806305000000000E-01     -1.487813000000000E+02      7.492676000000000E-01     -7.457421000000000E+01
4849000000.000000      7.428894000000000E-01     -1.661797000000000E+02      3.890381000000000E-01     -4.247460000000000E+01      3.814697000000000E-01     -1.490781000000000E+02      7.550354000000000E-01     -7.454687000000000E+01
4850000000.000000      7.494507000000000E-01     -1.659531000000000E+02      3.893280000000000E-01     -4.273828000000000E+01      3.831940000000000E-01     -1.490781000000000E+02      7.595520000000000E-01     -7.449219000000000E+01
4851000000.000000      7.570190000000000E-01     -1.659297000000000E+02      3.892670000000000E-01     -4.347461000000000E+01      3.843384000000000E-01     -1.493828000000000E+02      7.653198000000000E-01     -7.456249000000000E+01
4852000000.000000      7.641602000000000E-01     -1.659219000000000E+02      3.899231000000000E-01     -4.391406000000000E+01      3.861694000000000E-01     -1.495625000000000E+02      7.701721000000000E-01     -7.458593000000000E+01
4853000000.000000      7.705994000000000E-01     -1.659297000000000E+02      3.884277000000000E-01     -4.425781000000000E+01      3.881226000000000E-01     -1.497734000000000E+02      7.742004000000000E-01     -7.473437000000000E+01
4854000000.000000      7.773438000000000E-01     -1.659375000000000E+02      3.903961000000000E-01     -4.508594000000000E+01      3.894958000000000E-01     -1.499531000000000E+02      7.781982000000000E-01     -7.472656000000000E+01
4855000000.000000      7.829285000000000E-01     -1.659375000000000E+02      3.896027000000000E-01     -4.542578000000000E+01      3.903046000000000E-01     -1.499609000000000E+02      7.824097000000000E-01     -7.469140000000000E+01
4856000000.000000      7.901611000000000E-01     -1.658437000000000E+02      3.900757000000000E-01     -4.588476000000000E+01      3.915253000000000E-01     -1.502656000000000E+02      7.881775000000000E-01     -7.479687000000000E+01
4857000000.000000      7.956238000000000E-01     -1.659609000000000E+02      3.906708000000000E-01     -4.642968000000000E+01      3.917999000000000E-01     -1.503281000000000E+02      7.937622000000000E-01     -7.476953000000000E+01
4858000000.000000      8.007507000000000E-01     -1.659297000000000E+02      3.899536000000000E-01     -4.681445000000000E+01      3.936768000000000E-01     -1.505859000000000E+02      7.970276000000000E-01     -7.490624000000000E+01
4859000000.000000      8.087463000000000E-01     -1.660000000000000E+02      3.897858000000000E-01     -4.734961000000000E+01      3.952026000000000E-01     -1.508906000000000E+02      8.046265000000000E-01     -7.502343000000000E+01
4860000000.000000      8.129883000000000E-01     -1.659531000000000E+02      3.885498000000000E-01     -4.786718000000000E+01      3.960114000000000E-01     -1.508906000000000E+02      8.071594000000000E-01     -7.491405000000000E+01
4861000000.000000      8.204346000000000E-01     -1.657422000000000E+02      3.885040000000000E-01     -4.834765000000000E+01      3.973846000000000E-01     -1.511094000000000E+02      8.125610000000000E-01     -7.515625000000000E+01
4862000000.000000      8.244324000000000E-01     -1.658516000000000E+02      3.880005000000000E-01     -4.864062000000000E+01      3.986359000000000E-01     -1.512266000000000E+02      8.185730000000000E-01     -7.509766000000000E+01
4863000000.000000      8.315430000000000E-01     -1.659297000000000E+02      3.859406000000000E-01     -4.935937000000000E+01      3.998260000000000E-01     -1.513672000000000E+02      8.233337000000000E-01     -7.516406000000000E+01
4864000000.000000      8.367920000000000E-01     -1.658984000000000E+02      3.856659000000000E-01     -4.950781000000000E+01      3.995667000000000E-01     -1.515547000000000E+02      8.283997000000000E-01     -7.534374000000000E+01
4865000000.000000      8.402100000000000E-01     -1.661719000000000E+02      3.852844000000000E-01     -5.014257000000000E+01      4.009094000000000E-01     -1.518359000000000E+02      8.329163000000000E-01     -7.535156000000000E+01
4866000000.000000      8.430786000000000E-01     -1.658984000000000E+02      3.834839000000000E-01     -5.039063000000000E+01      4.021606000000000E-01     -1.519531000000000E+02      8.366699000000000E-01     -7.525000000000000E+01
4867000000.000000      8.508301000000000E-01     -1.658437000000000E+02      3.831024000000000E-01     -5.092773000000000E+01      4.032135000000000E-01     -1.520313000000000E+02      8.423157000000000E-01     -7.544531000000000E+01
4868000000.000000      8.540039000000000E-01     -1.660078000000000E+02      3.827667000000000E-01     -5.130468000000000E+01      4.038849000000000E-01     -1.522969000000000E+02      8.466492000000000E-01     -7.549218000000000E+01
4869000000.000000      8.563232000000000E-01     -1.659844000000000E+02      3.798065000000000E-01     -5.175781000000000E+01      4.043579000000000E-01     -1.525156000000000E+02      8.527527000000000E-01     -7.577343000000000E+01
4870000000.000000      8.619385000000000E-01     -1.658437000000000E+02      3.797607000000000E-01     -5.190430000000000E+01      4.046631000000000E-01     -1.526641000000000E+02      8.571472000000000E-01     -7.571875000000000E+01
4871000000.000000      8.663940000000000E-01     -1.660156000000000E+02      3.780212000000000E-01     -5.226563000000000E+01      4.046326000000000E-01     -1.528203000000000E+02      8.611145000000000E-01     -7.594531000000000E+01
4872000000.000000      8.673401000000000E-01     -1.658125000000000E+02      3.770599000000000E-01     -5.247070000000000E+01      4.054718000000000E-01     -1.531406000000000E+02      8.676147000000000E-01     -7.594921000000000E+01
4873000000.000000      8.715210000000000E-01     -1.658203000000000E+02      3.750153000000000E-01     -5.306445000000000E+01      4.055176000000000E-01     -1.531406000000000E+02      8.712158000000000E-01     -7.612109000000000E+01
4874000000.000000      8.756104000000000E-01     -1.658359000000000E+02      3.737183000000000E-01     -5.318945000000000E+01      4.068298000000000E-01     -1.532891000000000E+02      8.746338000000000E-01     -7.608203000000000E+01
4875000000.000000      8.780212000000000E-01     -1.658672000000000E+02      3.723297000000000E-01     -5.334179000000000E+01      4.071198000000000E-01     -1.536016000000000E+02      8.782959000000000E-01     -7.633594000000000E+01
4876000000.000000      8.787231000000000E-01     -1.657812000000000E+02      3.713074000000000E-01     -5.381054000000000E+01      4.064941000000000E-01     -1.536719000000000E+02      8.825989000000000E-01     -7.642968000000000E+01
4877000000.000000      8.837280000000000E-01     -1.656641000000000E+02      3.695831000000000E-01     -5.386132000000000E+01      4.077911000000000E-01     -1.539063000000000E+02      8.871155000000000E-01     -7.654687000000000E+01
4878000000.000000      8.868408000000000E-01     -1.655781000000000E+02      3.690338000000000E-01     -5.417773000000000E+01      4.076080000000000E-01     -1.539219000000000E+02      8.916016000000000E-01     -7.666797000000000E+01
4879000000.000000      8.904114000000000E-01     -1.656641000000000E+02      3.661194000000000E-01     -5.433788000000000E+01      4.077759000000000E-01     -1.541484000000000E+02      8.950500000000000E-01     -7.668750000000000E+01
4880000000.000000      8.934631000000000E-01     -1.655078000000000E+02      3.661804000000000E-01     -5.472070000000000E+01      4.080963000000000E-01     -1.543203000000000E+02      8.996582000000000E-01     -7.685937000000000E+01
4881000000.000000      8.955688000000000E-01     -1.653047000000000E+02      3.647766000000000E-01     -5.467578000000000E+01      4.085846000000000E-01     -1.544375000000000E+02      9.026794000000000E-01     -7.695703000000000E+01
4882000000.000000      8.937378000000000E-01     -1.653750000000000E+02      3.633728000000000E-01     -5.510742000000000E+01      4.076691000000000E-01     -1.545703000000000E+02      9.071655000000000E-01     -7.705859000000000E+01
