! Network Analyzer HP8722D
! Hewlett-Packard
! Data name: Linha & Wilkinson
! Saver's name: Rodrigo Anjos
! Comments: Teste da utilização de aquisição
continua pelo VNA HP8722D
! Time and date: 6/5/2025 13:56
!              Frequency                     S11                                                   S21                                                   S12                                                   S22
# HZ  S  MA R 50
4800000000.000000      4.975891000000000E-01     -1.683125000000000E+02      2.527771000000000E-01     -1.985937000000000E+01      2.498322000000000E-01     -1.410391000000000E+02      6.488953000000000E-01     -8.036718000000000E+01
4801000000.000000      4.988098000000000E-01     -1.683984000000000E+02      2.572632000000000E-01     -2.006152000000000E+01      2.527924000000000E-01     -1.411406000000000E+02      6.465759000000000E-01     -8.008984000000000E+01
4802000000.000000      5.001221000000000E-01     -1.685000000000000E+02      2.607117000000000E-01     -2.021679000000000E+01      2.569122000000000E-01     -1.411016000000000E+02      6.451111000000000E-01     -7.977734000000000E+01
4803000000.000000      5.017090000000000E-01     -1.685234000000000E+02      2.656403000000000E-01     -2.051465000000000E+01      2.600250000000000E-01     -1.413125000000000E+02      6.450806000000000E-01     -7.969531000000000E+01
4804000000.000000      5.043945000000000E-01     -1.684844000000000E+02      2.696075000000000E-01     -2.072168000000000E+01      2.640839000000000E-01     -1.414453000000000E+02      6.446533000000000E-01     -7.927343000000000E+01
4805000000.000000      5.065613000000000E-01     -1.685234000000000E+02      2.731323000000000E-01     -2.113965000000000E+01      2.677155000000000E-01     -1.413828000000000E+02      6.442566000000000E-01     -7.927734000000000E+01
4806000000.000000      5.084534000000000E-01     -1.685078000000000E+02      2.774658000000000E-01     -2.134863000000000E+01      2.704468000000000E-01     -1.414063000000000E+02      6.444092000000000E-01     -7.912499000000000E+01
4807000000.000000      5.115662000000000E-01     -1.685156000000000E+02      2.819519000000000E-01     -2.173535000000000E+01      2.745667000000000E-01     -1.416563000000000E+02      6.434326000000000E-01     -7.883984000000000E+01
4808000000.000000      5.137634000000000E-01     -1.684687000000000E+02      2.859344000000000E-01     -2.200293000000000E+01      2.778015000000000E-01     -1.417344000000000E+02      6.435242000000000E-01     -7.857422000000000E+01
4809000000.000000      5.160522000000000E-01     -1.685156000000000E+02      2.891083000000000E-01     -2.257910000000000E+01      2.818756000000000E-01     -1.418906000000000E+02      6.440125000000000E-01     -7.846874000000000E+01
4810000000.000000      5.189819000000000E-01     -1.685313000000000E+02      2.934723000000000E-01     -2.260449000000000E+01      2.857666000000000E-01     -1.420000000000000E+02      6.445923000000000E-01     -7.827343000000000E+01
4811000000.000000      5.223694000000000E-01     -1.684531000000000E+02      2.973633000000000E-01     -2.330371000000000E+01      2.898865000000000E-01     -1.421562000000000E+02      6.430969000000000E-01     -7.788671000000000E+01
4812000000.000000      5.264282000000000E-01     -1.683672000000000E+02      3.007965000000000E-01     -2.364258000000000E+01      2.924042000000000E-01     -1.421641000000000E+02      6.457825000000000E-01     -7.780859000000000E+01
4813000000.000000      5.288696000000000E-01     -1.683281000000000E+02      3.044891000000000E-01     -2.408398000000000E+01      2.955933000000000E-01     -1.422344000000000E+02      6.448364000000000E-01     -7.762500000000000E+01
4814000000.000000      5.314636000000000E-01     -1.683750000000000E+02      3.087311000000000E-01     -2.432031000000000E+01      2.986755000000000E-01     -1.426250000000000E+02      6.470947000000000E-01     -7.751171000000000E+01
4815000000.000000      5.359192000000000E-01     -1.682266000000000E+02      3.117828000000000E-01     -2.476465000000000E+01      3.017578000000000E-01     -1.427266000000000E+02      6.481018000000000E-01     -7.718750000000000E+01
4816000000.000000      5.404358000000000E-01     -1.681406000000000E+02      3.152618000000000E-01     -2.514453000000000E+01      3.057556000000000E-01     -1.427969000000000E+02      6.479187000000000E-01     -7.706249000000000E+01
4817000000.000000      5.446167000000000E-01     -1.680859000000000E+02      3.194122000000000E-01     -2.556250000000000E+01      3.082275000000000E-01     -1.431015000000000E+02      6.495972000000000E-01     -7.686718000000000E+01
4818000000.000000      5.483398000000000E-01     -1.680625000000000E+02      3.220673000000000E-01     -2.602734000000000E+01      3.120270000000000E-01     -1.431094000000000E+02      6.518860000000000E-01     -7.673828000000000E+01
4819000000.000000      5.531006000000000E-01     -1.679609000000000E+02      3.258972000000000E-01     -2.642383000000000E+01      3.134003000000000E-01     -1.433672000000000E+02      6.539001000000000E-01     -7.666016000000000E+01
4820000000.000000      5.559387000000000E-01     -1.678828000000000E+02      3.290100000000000E-01     -2.685254000000000E+01      3.175659000000000E-01     -1.435078000000000E+02      6.555176000000000E-01     -7.646874000000000E+01
4821000000.000000      5.622864000000000E-01     -1.678125000000000E+02      3.324890000000000E-01     -2.752441000000000E+01      3.202515000000000E-01     -1.437813000000000E+02      6.564636000000000E-01     -7.634766000000000E+01
4822000000.000000      5.684204000000000E-01     -1.677578000000000E+02      3.353424000000000E-01     -2.790039000000000E+01      3.220367000000000E-01     -1.439531000000000E+02      6.592712000000000E-01     -7.611718000000000E+01
4823000000.000000      5.716553000000000E-01     -1.676406000000000E+02      3.390350000000000E-01     -2.831347000000000E+01      3.255920000000000E-01     -1.440547000000000E+02      6.608276000000000E-01     -7.595312000000000E+01
4824000000.000000      5.786743000000000E-01     -1.675703000000000E+02      3.416443000000000E-01     -2.893555000000000E+01      3.291473000000000E-01     -1.442734000000000E+02      6.640625000000000E-01     -7.583593000000000E+01
4825000000.000000      5.828552000000000E-01     -1.675000000000000E+02      3.445587000000000E-01     -2.930664000000000E+01      3.320007000000000E-01     -1.444922000000000E+02      6.658936000000000E-01     -7.565624000000000E+01
4826000000.000000      5.898743000000000E-01     -1.673750000000000E+02      3.475952000000000E-01     -3.002930000000000E+01      3.335876000000000E-01     -1.448750000000000E+02      6.694336000000000E-01     -7.571484000000000E+01
4827000000.000000      5.951843000000000E-01     -1.672422000000000E+02      3.506012000000000E-01     -3.023730000000000E+01      3.364716000000000E-01     -1.449297000000000E+02      6.712952000000000E-01     -7.547656000000000E+01
4828000000.000000      6.015015000000000E-01     -1.671641000000000E+02      3.537750000000000E-01     -3.081738000000000E+01      3.386688000000000E-01     -1.451328000000000E+02      6.748047000000000E-01     -7.543750000000000E+01
4829000000.000000      6.047058000000000E-01     -1.670391000000000E+02      3.554382000000000E-01     -3.151758000000000E+01      3.419037000000000E-01     -1.452422000000000E+02      6.783447000000000E-01     -7.527344000000000E+01
4830000000.000000      6.128235000000000E-01     -1.670078000000000E+02      3.584290000000000E-01     -3.195996000000000E+01      3.434143000000000E-01     -1.454453000000000E+02      6.795349000000000E-01     -7.523046000000000E+01
4831000000.000000      6.173706000000000E-01     -1.669062000000000E+02      3.609772000000000E-01     -3.250000000000000E+01      3.462677000000000E-01     -1.455078000000000E+02      6.834412000000000E-01     -7.508984000000000E+01
4832000000.000000      6.259155000000000E-01     -1.667969000000000E+02      3.644104000000000E-01     -3.304883000000000E+01      3.484497000000000E-01     -1.458906000000000E+02      6.869507000000000E-01     -7.508203000000000E+01
4833000000.000000      6.326904000000000E-01     -1.668125000000000E+02      3.664856000000000E-01     -3.348633000000000E+01      3.506165000000000E-01     -1.461719000000000E+02      6.899719000000000E-01     -7.505077000000000E+01
4834000000.000000      6.383362000000000E-01     -1.667109000000000E+02      3.683014000000000E-01     -3.415820000000000E+01      3.532562000000000E-01     -1.462812000000000E+02      6.928711000000000E-01     -7.490234000000000E+01
4835000000.000000      6.450500000000000E-01     -1.666328000000000E+02      3.704834000000000E-01     -3.477539000000000E+01      3.554993000000000E-01     -1.464844000000000E+02      6.964111000000000E-01     -7.486718000000000E+01
4836000000.000000      6.525574000000000E-01     -1.665390000000000E+02      3.717499000000000E-01     -3.534180000000000E+01      3.574677000000000E-01     -1.466250000000000E+02      6.997375000000000E-01     -7.484765000000000E+01
4837000000.000000      6.591187000000000E-01     -1.663750000000000E+02      3.741913000000000E-01     -3.599023000000000E+01      3.598938000000000E-01     -1.469844000000000E+02      7.048645000000000E-01     -7.481640000000000E+01
4838000000.000000      6.664429000000000E-01     -1.664375000000000E+02      3.765717000000000E-01     -3.638281000000000E+01      3.621826000000000E-01     -1.471172000000000E+02      7.087402000000000E-01     -7.470312000000000E+01
4839000000.000000      6.741333000000000E-01     -1.662656000000000E+02      3.773804000000000E-01     -3.677539000000000E+01      3.639221000000000E-01     -1.473125000000000E+02      7.123413000000000E-01     -7.458984000000000E+01
4840000000.000000      6.784973000000000E-01     -1.663203000000000E+02      3.788147000000000E-01     -3.745312000000000E+01      3.663635000000000E-01     -1.475312000000000E+02      7.166138000000000E-01     -7.468359000000000E+01
4841000000.000000      6.865845000000000E-01     -1.662812000000000E+02      3.803101000000000E-01     -3.809961000000000E+01      3.683777000000000E-01     -1.476250000000000E+02      7.200928000000000E-01     -7.466406000000000E+01
4842000000.000000      6.941528000000000E-01     -1.662188000000000E+02      3.823090000000000E-01     -3.862695000000000E+01      3.693085000000000E-01     -1.478906000000000E+02      7.242432000000000E-01     -7.462109000000000E+01
4843000000.000000      7.007446000000000E-01     -1.662734000000000E+02      3.841400000000000E-01     -3.922070000000000E+01      3.714142000000000E-01     -1.480547000000000E+02      7.294006000000000E-01     -7.451562000000000E+01
4844000000.000000      7.070007000000000E-01     -1.661406000000000E+02      3.844757000000000E-01     -3.975586000000000E+01      3.725281000000000E-01     -1.482812000000000E+02      7.339783000000000E-01     -7.454687000000000E+01
4845000000.000000      7.143250000000000E-01     -1.661094000000000E+02      3.858032000000000E-01     -4.023242000000000E+01      3.746338000000000E-01     -1.483672000000000E+02      7.370300000000000E-01     -7.448047000000000E+01
4846000000.000000      7.211914000000000E-01     -1.659844000000000E+02      3.871002000000000E-01     -4.091016000000000E+01      3.770294000000000E-01     -1.484453000000000E+02      7.416687000000000E-01     -7.457031000000000E+01
4847000000.000000      7.302551000000000E-01     -1.660234000000000E+02      3.868256000000000E-01     -4.131445000000000E+01      3.789673000000000E-01     -1.488906000000000E+02      7.466125000000000E-01     -7.465625000000000E+01
4848000000.000000      7.372131000000000E-01     -1.660312000000000E+02      3.879700000000000E-01     -4.188867000000000E+01      3.805847000000000E-01     -1.489922000000000E+02      7.510986000000000E-01     -7.453515000000000E+01
4849000000.000000      7.436829000000000E-01     -1.662266000000000E+02      3.889923000000000E-01     -4.260547000000000E+01      3.815613000000000E-01     -1.491953000000000E+02      7.548828000000000E-01     -7.457421000000000E+01
4850000000.000000      7.511597000000000E-01     -1.659844000000000E+02      3.898621000000000E-01     -4.290625000000000E+01      3.827972000000000E-01     -1.492969000000000E+02      7.601013000000000E-01     -7.456640000000000E+01
4851000000.000000      7.575684000000000E-01     -1.659922000000000E+02      3.903351000000000E-01     -4.358984000000000E+01      3.847351000000000E-01     -1.495000000000000E+02      7.655029000000000E-01     -7.464453000000000E+01
4852000000.000000      7.646790000000000E-01     -1.660078000000000E+02      3.903351000000000E-01     -4.394727000000000E+01      3.860779000000000E-01     -1.496562000000000E+02      7.696533000000000E-01     -7.459765000000000E+01
4853000000.000000      7.714539000000000E-01     -1.659765000000000E+02      3.890686000000000E-01     -4.463476000000000E+01      3.880005000000000E-01     -1.499297000000000E+02      7.747498000000000E-01     -7.484375000000000E+01
4854000000.000000      7.787781000000000E-01     -1.660469000000000E+02      3.909760000000000E-01     -4.526953000000000E+01      3.887024000000000E-01     -1.500234000000000E+02      7.787476000000000E-01     -7.471484000000000E+01
4855000000.000000      7.828369000000000E-01     -1.660703000000000E+02      3.888092000000000E-01     -4.560351000000000E+01      3.898010000000000E-01     -1.501328000000000E+02      7.831421000000000E-01     -7.474609000000000E+01
4856000000.000000      7.907104000000000E-01     -1.659375000000000E+02      3.894043000000000E-01     -4.600976000000000E+01      3.912048000000000E-01     -1.503750000000000E+02      7.897949000000000E-01     -7.480859000000000E+01
4857000000.000000      7.970581000000000E-01     -1.660859000000000E+02      3.900604000000000E-01     -4.673633000000000E+01      3.927765000000000E-01     -1.505859000000000E+02      7.933044000000000E-01     -7.478125000000000E+01
4858000000.000000      8.000793000000000E-01     -1.660859000000000E+02      3.900757000000000E-01     -4.693359000000000E+01      3.933105000000000E-01     -1.507422000000000E+02      7.986755000000000E-01     -7.496875000000000E+01
4859000000.000000      8.070984000000000E-01     -1.660078000000000E+02      3.896790000000000E-01     -4.756836000000000E+01      3.950195000000000E-01     -1.510313000000000E+02      8.048096000000000E-01     -7.503124000000000E+01
4860000000.000000      8.160400000000000E-01     -1.661094000000000E+02      3.890381000000000E-01     -4.802148000000000E+01      3.957520000000000E-01     -1.510078000000000E+02      8.074646000000000E-01     -7.497656000000000E+01
4861000000.000000      8.222351000000000E-01     -1.659765000000000E+02      3.874969000000000E-01     -4.852734000000000E+01      3.973694000000000E-01     -1.512734000000000E+02      8.131104000000000E-01     -7.510156000000000E+01
4862000000.000000      8.257751000000000E-01     -1.660469000000000E+02      3.876648000000000E-01     -4.884375000000000E+01      3.984528000000000E-01     -1.513281000000000E+02      8.185120000000000E-01     -7.514062000000000E+01
4863000000.000000      8.293457000000000E-01     -1.660781000000000E+02      3.854370000000000E-01     -4.943945000000000E+01      3.996887000000000E-01     -1.515000000000000E+02      8.247070000000000E-01     -7.528515000000000E+01
4864000000.000000      8.349609000000000E-01     -1.660938000000000E+02      3.865204000000000E-01     -4.978516000000000E+01      3.998413000000000E-01     -1.517031000000000E+02      8.271179000000000E-01     -7.536718000000000E+01
4865000000.000000      8.423157000000000E-01     -1.661328000000000E+02      3.847961000000000E-01     -5.016211000000000E+01      4.008789000000000E-01     -1.518750000000000E+02      8.338928000000000E-01     -7.533593000000000E+01
4866000000.000000      8.439636000000000E-01     -1.659844000000000E+02      3.832092000000000E-01     -5.058398000000000E+01      4.015961000000000E-01     -1.520547000000000E+02      8.370667000000000E-01     -7.536718000000000E+01
4867000000.000000      8.489075000000000E-01     -1.660391000000000E+02      3.831177000000000E-01     -5.102344000000000E+01      4.031067000000000E-01     -1.522109000000000E+02      8.417053000000000E-01     -7.544531000000000E+01
4868000000.000000      8.552856000000000E-01     -1.661250000000000E+02      3.821869000000000E-01     -5.134766000000000E+01      4.035645000000000E-01     -1.523516000000000E+02      8.479614000000000E-01     -7.554296000000000E+01
4869000000.000000      8.579712000000000E-01     -1.659922000000000E+02      3.805847000000000E-01     -5.181054000000000E+01      4.041290000000000E-01     -1.525938000000000E+02      8.526306000000000E-01     -7.576953000000000E+01
4870000000.000000      8.620605000000000E-01     -1.659922000000000E+02      3.792419000000000E-01     -5.199219000000000E+01      4.045410000000000E-01     -1.527500000000000E+02      8.576965000000000E-01     -7.568359000000000E+01
4871000000.000000      8.691101000000000E-01     -1.660703000000000E+02      3.785248000000000E-01     -5.241211000000000E+01      4.046783000000000E-01     -1.530313000000000E+02      8.607483000000000E-01     -7.593359000000000E+01
4872000000.000000      8.710327000000000E-01     -1.660000000000000E+02      3.764648000000000E-01     -5.258007000000000E+01      4.058533000000000E-01     -1.532734000000000E+02      8.657837000000000E-01     -7.608203000000000E+01
4873000000.000000      8.729858000000000E-01     -1.657812000000000E+02      3.750916000000000E-01     -5.306054000000000E+01      4.053192000000000E-01     -1.532969000000000E+02      8.704834000000000E-01     -7.609765000000000E+01
4874000000.000000      8.766785000000000E-01     -1.658750000000000E+02      3.741302000000000E-01     -5.335938000000000E+01      4.069214000000000E-01     -1.533984000000000E+02      8.747559000000000E-01     -7.607812000000000E+01
4875000000.000000      8.809204000000000E-01     -1.659453000000000E+02      3.732910000000000E-01     -5.351757000000000E+01      4.073334000000000E-01     -1.537344000000000E+02      8.797913000000000E-01     -7.641406000000000E+01
4876000000.000000      8.804321000000000E-01     -1.658516000000000E+02      3.713379000000000E-01     -5.391796000000000E+01      4.062500000000000E-01     -1.538125000000000E+02      8.826904000000000E-01     -7.643749000000000E+01
4877000000.000000      8.846130000000000E-01     -1.657422000000000E+02      3.705902000000000E-01     -5.394726000000000E+01      4.079132000000000E-01     -1.540234000000000E+02      8.869934000000000E-01     -7.666406000000000E+01
4878000000.000000      8.874512000000000E-01     -1.656797000000000E+02      3.686371000000000E-01     -5.436718000000000E+01      4.076538000000000E-01     -1.540156000000000E+02      8.924866000000000E-01     -7.666797000000000E+01
4879000000.000000      8.904419000000000E-01     -1.657500000000000E+02      3.664246000000000E-01     -5.455859000000000E+01      4.071960000000000E-01     -1.543047000000000E+02      8.964844000000000E-01     -7.674218000000000E+01
4880000000.000000      8.913269000000000E-01     -1.656563000000000E+02      3.647003000000000E-01     -5.483788000000000E+01      4.084625000000000E-01     -1.543281000000000E+02      8.994751000000000E-01     -7.683594000000000E+01
4881000000.000000      8.946228000000000E-01     -1.655547000000000E+02      3.648682000000000E-01     -5.488086000000000E+01      4.083557000000000E-01     -1.546016000000000E+02      9.027100000000000E-01     -7.701953000000000E+01
4882000000.000000      8.956909000000000E-01     -1.654453000000000E+02      3.624420000000000E-01     -5.520508000000000E+01      4.080505000000000E-01     -1.546484000000000E+02      9.057312000000000E-01     -7.714844000000000E+01
