! Network Analyzer HP8722D
! Hewlett-Packard
! Data name: Linha & Wilkinson
! Saver's name: Rodrigo Anjos
! Comments: Teste da utilização de aquisição
continua pelo VNA HP8722D
! Time and date: 6/5/2025 13:22
!              Frequency                     S11                                                   S21                                                   S12                                                   S22
# HZ  S  MA R 50
4800000000.000000      9.067383000000000E-01      1.158672000000000E+02      3.202820000000000E-01     -1.703359000000000E+02      2.568359000000000E-01     -8.621485000000000E+01      9.844666000000000E-01     -4.750781000000000E+01
4801000000.000000      9.026794000000000E-01      1.160078000000000E+02      3.198242000000000E-01     -1.704531000000000E+02      2.566223000000000E-01     -8.610155000000000E+01      9.798584000000000E-01     -4.763672000000000E+01
4802000000.000000      9.002075000000000E-01      1.161797000000000E+02      3.198395000000000E-01     -1.702812000000000E+02      2.574310000000000E-01     -8.590235000000000E+01      9.757385000000000E-01     -4.754687000000000E+01
4803000000.000000      8.983765000000000E-01      1.165039000000000E+02      3.210449000000000E-01     -1.702109000000000E+02      2.567139000000000E-01     -8.574610000000000E+01      9.702148000000000E-01     -4.781054000000000E+01
4804000000.000000      9.001465000000000E-01      1.167812000000000E+02      3.209076000000000E-01     -1.701953000000000E+02      2.571411000000000E-01     -8.567968000000000E+01      9.650879000000000E-01     -4.776953000000000E+01
4805000000.000000      8.972778000000000E-01      1.169492000000000E+02      3.211212000000000E-01     -1.701328000000000E+02      2.564545000000000E-01     -8.527344000000000E+01      9.584351000000000E-01     -4.777148000000000E+01
4806000000.000000      8.939514000000000E-01      1.172734000000000E+02      3.215790000000000E-01     -1.701406000000000E+02      2.556152000000000E-01     -8.508204000000000E+01      9.526367000000000E-01     -4.798047000000000E+01
4807000000.000000      8.928833000000000E-01      1.173398000000000E+02      3.222504000000000E-01     -1.703750000000000E+02      2.565308000000000E-01     -8.494921000000000E+01      9.469604000000000E-01     -4.795312000000000E+01
4808000000.000000      8.920898000000000E-01      1.176563000000000E+02      3.233948000000000E-01     -1.700938000000000E+02      2.564850000000000E-01     -8.485155000000000E+01      9.422607000000000E-01     -4.807031000000000E+01
4809000000.000000      8.877869000000000E-01      1.179609000000000E+02      3.226166000000000E-01     -1.703203000000000E+02      2.570190000000000E-01     -8.457811000000000E+01      9.356384000000000E-01     -4.801562000000000E+01
4810000000.000000      8.868713000000000E-01      1.182695000000000E+02      3.239441000000000E-01     -1.700703000000000E+02      2.564087000000000E-01     -8.431250000000000E+01      9.324341000000000E-01     -4.825195000000000E+01
4811000000.000000      8.864136000000000E-01      1.184414000000000E+02      3.244324000000000E-01     -1.702031000000000E+02      2.576141000000000E-01     -8.398438000000000E+01      9.252930000000000E-01     -4.809570000000000E+01
4812000000.000000      8.825378000000000E-01      1.188281000000000E+02      3.243256000000000E-01     -1.701719000000000E+02      2.566681000000000E-01     -8.384766000000000E+01      9.195251000000000E-01     -4.829296000000000E+01
4813000000.000000      8.798828000000000E-01      1.190625000000000E+02      3.250275000000000E-01     -1.701484000000000E+02      2.564697000000000E-01     -8.351563000000000E+01      9.155273000000000E-01     -4.830273000000000E+01
4814000000.000000      8.746948000000000E-01      1.190625000000000E+02      3.260651000000000E-01     -1.701719000000000E+02      2.565460000000000E-01     -8.335155000000000E+01      9.099121000000000E-01     -4.846289000000000E+01
4815000000.000000      8.713074000000000E-01      1.194844000000000E+02      3.261261000000000E-01     -1.702734000000000E+02      2.568512000000000E-01     -8.294531000000000E+01      9.052734000000000E-01     -4.833398000000000E+01
4816000000.000000      8.711853000000000E-01      1.197969000000000E+02      3.277588000000000E-01     -1.702266000000000E+02      2.571716000000000E-01     -8.278515000000000E+01      8.991089000000000E-01     -4.854687000000000E+01
4817000000.000000      8.656006000000000E-01      1.198203000000000E+02      3.275604000000000E-01     -1.704219000000000E+02      2.567139000000000E-01     -8.240234000000000E+01      8.932190000000000E-01     -4.850780000000000E+01
4818000000.000000      8.641663000000000E-01      1.200586000000000E+02      3.286591000000000E-01     -1.703438000000000E+02      2.567596000000000E-01     -8.209375000000000E+01      8.876038000000000E-01     -4.864648000000000E+01
4819000000.000000      8.643188000000000E-01      1.204258000000000E+02      3.290100000000000E-01     -1.704531000000000E+02      2.559509000000000E-01     -8.188280000000000E+01      8.823242000000000E-01     -4.881249000000000E+01
4820000000.000000      8.566589000000000E-01      1.205039000000000E+02      3.288879000000000E-01     -1.704922000000000E+02      2.563324000000000E-01     -8.144531000000000E+01      8.777466000000000E-01     -4.872851000000000E+01
4821000000.000000      8.562317000000000E-01      1.208320000000000E+02      3.305969000000000E-01     -1.705859000000000E+02      2.566681000000000E-01     -8.132813000000000E+01      8.730469000000000E-01     -4.887109000000000E+01
4822000000.000000      8.525391000000000E-01      1.207070000000000E+02      3.305969000000000E-01     -1.708359000000000E+02      2.555695000000000E-01     -8.102343000000000E+01      8.684387000000000E-01     -4.891602000000000E+01
4823000000.000000      8.500671000000000E-01      1.211250000000000E+02      3.315735000000000E-01     -1.709219000000000E+02      2.559204000000000E-01     -8.045313000000000E+01      8.613281000000000E-01     -4.897070000000000E+01
4824000000.000000      8.460999000000000E-01      1.212109000000000E+02      3.319244000000000E-01     -1.710469000000000E+02      2.557678000000000E-01     -8.031250000000000E+01      8.568115000000000E-01     -4.900195000000000E+01
4825000000.000000      8.421021000000000E-01      1.213437000000000E+02      3.323975000000000E-01     -1.711719000000000E+02      2.565613000000000E-01     -8.003124000000000E+01      8.537598000000000E-01     -4.912499000000000E+01
4826000000.000000      8.384094000000000E-01      1.215664000000000E+02      3.338776000000000E-01     -1.713438000000000E+02      2.555695000000000E-01     -7.977734000000000E+01      8.482056000000000E-01     -4.911523000000000E+01
4827000000.000000      8.351135000000000E-01      1.217851000000000E+02      3.343964000000000E-01     -1.713438000000000E+02      2.558899000000000E-01     -7.938281000000000E+01      8.428345000000000E-01     -4.922265000000000E+01
4828000000.000000      8.338623000000000E-01      1.218398000000000E+02      3.350372000000000E-01     -1.715234000000000E+02      2.553864000000000E-01     -7.913280000000000E+01      8.383484000000000E-01     -4.942773000000000E+01
4829000000.000000      8.263550000000000E-01      1.222422000000000E+02      3.343048000000000E-01     -1.717031000000000E+02      2.566528000000000E-01     -7.881249000000000E+01      8.355103000000000E-01     -4.935741000000000E+01
4830000000.000000      8.230286000000000E-01      1.220039000000000E+02      3.355560000000000E-01     -1.720156000000000E+02      2.557831000000000E-01     -7.839453000000000E+01      8.295288000000000E-01     -4.940820000000000E+01
4831000000.000000      8.155212000000000E-01      1.221992000000000E+02      3.354492000000000E-01     -1.720703000000000E+02      2.564697000000000E-01     -7.790625000000000E+01      8.247986000000000E-01     -4.952734000000000E+01
4832000000.000000      8.147888000000000E-01      1.223047000000000E+02      3.358765000000000E-01     -1.723438000000000E+02      2.560730000000000E-01     -7.765625000000000E+01      8.208923000000000E-01     -4.956249000000000E+01
4833000000.000000      8.076477000000000E-01      1.222500000000000E+02      3.368683000000000E-01     -1.725312000000000E+02      2.561646000000000E-01     -7.729297000000000E+01      8.154907000000000E-01     -4.959570000000000E+01
4834000000.000000      8.042908000000000E-01      1.224062000000000E+02      3.368225000000000E-01     -1.727344000000000E+02      2.562408000000000E-01     -7.698437000000000E+01      8.116760000000000E-01     -4.966797000000000E+01
4835000000.000000      8.009949000000000E-01      1.225234000000000E+02      3.371277000000000E-01     -1.728750000000000E+02      2.568359000000000E-01     -7.662109000000000E+01      8.078613000000000E-01     -4.976171000000000E+01
4836000000.000000      7.958984000000000E-01      1.226758000000000E+02      3.367615000000000E-01     -1.732734000000000E+02      2.566071000000000E-01     -7.622656000000000E+01      8.043213000000000E-01     -4.980663000000000E+01
4837000000.000000      7.890930000000000E-01      1.228242000000000E+02      3.370361000000000E-01     -1.736641000000000E+02      2.570343000000000E-01     -7.594531000000000E+01      7.997131000000000E-01     -4.982616000000000E+01
4838000000.000000      7.853699000000000E-01      1.226367000000000E+02      3.374939000000000E-01     -1.736328000000000E+02      2.572327000000000E-01     -7.552734000000000E+01      7.960815000000000E-01     -4.991796000000000E+01
4839000000.000000      7.822266000000000E-01      1.228359000000000E+02      3.373260000000000E-01     -1.737266000000000E+02      2.568970000000000E-01     -7.533593000000000E+01      7.923279000000000E-01     -4.998241000000000E+01
4840000000.000000      7.731934000000000E-01      1.227461000000000E+02      3.377075000000000E-01     -1.738984000000000E+02      2.571716000000000E-01     -7.490624000000000E+01      7.883606000000000E-01     -5.010937000000000E+01
4841000000.000000      7.704163000000000E-01      1.226094000000000E+02      3.377380000000000E-01     -1.743672000000000E+02      2.578125000000000E-01     -7.460546000000000E+01      7.861023000000000E-01     -5.008984000000000E+01
4842000000.000000      7.646790000000000E-01      1.228242000000000E+02      3.370667000000000E-01     -1.744766000000000E+02      2.579041000000000E-01     -7.422265000000000E+01      7.834778000000000E-01     -5.018164000000000E+01
4843000000.000000      7.582092000000000E-01      1.226641000000000E+02      3.367615000000000E-01     -1.748047000000000E+02      2.578125000000000E-01     -7.391015000000000E+01      7.789307000000000E-01     -5.016992000000000E+01
4844000000.000000      7.537537000000000E-01      1.225352000000000E+02      3.369446000000000E-01     -1.749375000000000E+02      2.578125000000000E-01     -7.352344000000000E+01      7.742004000000000E-01     -5.029882000000000E+01
4845000000.000000      7.474365000000000E-01      1.226523000000000E+02      3.360291000000000E-01     -1.752422000000000E+02      2.585449000000000E-01     -7.323437000000000E+01      7.718811000000000E-01     -5.032227000000000E+01
4846000000.000000      7.438049000000000E-01      1.225273000000000E+02      3.358765000000000E-01     -1.753594000000000E+02      2.591248000000000E-01     -7.292969000000000E+01      7.687683000000000E-01     -5.042187000000000E+01
4847000000.000000      7.373962000000000E-01      1.225586000000000E+02      3.354797000000000E-01     -1.756172000000000E+02      2.591400000000000E-01     -7.268749000000000E+01      7.655029000000000E-01     -5.053905000000000E+01
4848000000.000000      7.318726000000000E-01      1.223711000000000E+02      3.344421000000000E-01     -1.759922000000000E+02      2.593842000000000E-01     -7.225780000000000E+01      7.618713000000000E-01     -5.057422000000000E+01
4849000000.000000      7.252808000000000E-01      1.221719000000000E+02      3.342133000000000E-01     -1.763750000000000E+02      2.597351000000000E-01     -7.188671000000000E+01      7.586365000000000E-01     -5.056641000000000E+01
4850000000.000000      7.195740000000000E-01      1.220703000000000E+02      3.341522000000000E-01     -1.766250000000000E+02      2.600250000000000E-01     -7.160156000000000E+01      7.557068000000000E-01     -5.066601000000000E+01
4851000000.000000      7.128601000000000E-01      1.221172000000000E+02      3.339844000000000E-01     -1.767031000000000E+02      2.599335000000000E-01     -7.133594000000000E+01      7.544556000000000E-01     -5.075000000000000E+01
4852000000.000000      7.075806000000000E-01      1.218203000000000E+02      3.327789000000000E-01     -1.770000000000000E+02      2.606201000000000E-01     -7.089453000000000E+01      7.504578000000000E-01     -5.072460000000000E+01
4853000000.000000      7.023621000000000E-01      1.217266000000000E+02      3.312836000000000E-01     -1.773125000000000E+02      2.614899000000000E-01     -7.073437000000000E+01      7.479553000000000E-01     -5.099218000000000E+01
4854000000.000000      6.956787000000000E-01      1.215273000000000E+02      3.309479000000000E-01     -1.776328000000000E+02      2.614136000000000E-01     -7.049999000000000E+01      7.456360000000000E-01     -5.100390000000000E+01
4855000000.000000      6.889954000000000E-01      1.212969000000000E+02      3.301239000000000E-01     -1.775781000000000E+02      2.614441000000000E-01     -7.006640000000000E+01      7.408447000000000E-01     -5.090429000000000E+01
4856000000.000000      6.835632000000000E-01      1.210820000000000E+02      3.291779000000000E-01     -1.779297000000000E+02      2.623291000000000E-01     -6.988281000000000E+01      7.403259000000000E-01     -5.104882000000000E+01
4857000000.000000      6.791687000000000E-01      1.210976000000000E+02      3.288422000000000E-01     -1.781172000000000E+02      2.623749000000000E-01     -6.946094000000000E+01      7.369080000000000E-01     -5.101563000000000E+01
4858000000.000000      6.698608000000000E-01      1.206250000000000E+02      3.278961000000000E-01     -1.783672000000000E+02      2.627563000000000E-01     -6.931641000000000E+01      7.343445000000000E-01     -5.129687000000000E+01
4859000000.000000      6.654358000000000E-01      1.206016000000000E+02      3.268585000000000E-01     -1.786406000000000E+02      2.634583000000000E-01     -6.908984000000000E+01      7.341003000000000E-01     -5.129883000000000E+01
4860000000.000000      6.585999000000000E-01      1.202422000000000E+02      3.258667000000000E-01     -1.789063000000000E+02      2.630920000000000E-01     -6.866405000000000E+01      7.294922000000000E-01     -5.122070000000000E+01
4861000000.000000      6.531677000000000E-01      1.197695000000000E+02      3.244934000000000E-01     -1.790859000000000E+02      2.642059000000000E-01     -6.851563000000000E+01      7.261658000000000E-01     -5.139843000000000E+01
4862000000.000000      6.450500000000000E-01      1.195078000000000E+02      3.235474000000000E-01     -1.792266000000000E+02      2.644348000000000E-01     -6.838672000000000E+01      7.253113000000000E-01     -5.137500000000000E+01
4863000000.000000      6.382141000000000E-01      1.194062000000000E+02      3.216095000000000E-01     -1.794765000000000E+02      2.648926000000000E-01     -6.810937000000000E+01      7.239380000000000E-01     -5.147461000000000E+01
4864000000.000000      6.347046000000000E-01      1.189258000000000E+02      3.221130000000000E-01     -1.796172000000000E+02      2.645569000000000E-01     -6.787109000000000E+01      7.202759000000000E-01     -5.151953000000000E+01
4865000000.000000      6.261597000000000E-01      1.186211000000000E+02      3.208008000000000E-01     -1.796406000000000E+02      2.651062000000000E-01     -6.774219000000000E+01      7.189331000000000E-01     -5.139453000000000E+01
4866000000.000000      6.209717000000000E-01      1.181602000000000E+02      3.195038000000000E-01     -1.799375000000000E+02      2.653656000000000E-01     -6.757813000000000E+01      7.172241000000000E-01     -5.149023000000000E+01
4867000000.000000      6.147766000000000E-01      1.179883000000000E+02      3.186035000000000E-01      1.797109000000000E+02      2.658844000000000E-01     -6.741405000000000E+01      7.149963000000000E-01     -5.154687000000000E+01
4868000000.000000      6.105347000000000E-01      1.175625000000000E+02      3.171692000000000E-01      1.797266000000000E+02      2.660065000000000E-01     -6.717578000000000E+01      7.117615000000000E-01     -5.159570000000000E+01
4869000000.000000      6.027527000000000E-01      1.171055000000000E+02      3.156433000000000E-01      1.795625000000000E+02      2.668610000000000E-01     -6.703515000000000E+01      7.102661000000000E-01     -5.173242000000000E+01
4870000000.000000      5.979919000000000E-01      1.166602000000000E+02      3.144684000000000E-01      1.795000000000000E+02      2.664795000000000E-01     -6.692968000000000E+01      7.084045000000000E-01     -5.165234000000000E+01
4871000000.000000      5.911865000000000E-01      1.162578000000000E+02      3.136749000000000E-01      1.791875000000000E+02      2.661438000000000E-01     -6.682031000000000E+01      7.058716000000000E-01     -5.179101000000000E+01
4872000000.000000      5.882263000000000E-01      1.159414000000000E+02      3.117218000000000E-01      1.793125000000000E+02      2.667389000000000E-01     -6.690234000000000E+01      7.049561000000000E-01     -5.164844000000000E+01
4873000000.000000      5.823669000000000E-01      1.154688000000000E+02      3.107300000000000E-01      1.790000000000000E+02      2.668152000000000E-01     -6.674609000000000E+01      7.012634000000000E-01     -5.181054000000000E+01
4874000000.000000      5.765076000000000E-01      1.149726000000000E+02      3.092957000000000E-01      1.789141000000000E+02      2.679901000000000E-01     -6.650781000000000E+01      6.991577000000000E-01     -5.166601000000000E+01
4875000000.000000      5.715027000000000E-01      1.143633000000000E+02      3.085327000000000E-01      1.787969000000000E+02      2.679443000000000E-01     -6.646874000000000E+01      6.977539000000000E-01     -5.186523000000000E+01
4876000000.000000      5.671082000000000E-01      1.140039000000000E+02      3.070831000000000E-01      1.786328000000000E+02      2.678223000000000E-01     -6.637109000000000E+01      6.969299000000000E-01     -5.190820000000000E+01
4877000000.000000      5.619202000000000E-01      1.133711000000000E+02      3.069763000000000E-01      1.785547000000000E+02      2.681732000000000E-01     -6.633984000000000E+01      6.943970000000000E-01     -5.184179000000000E+01
4878000000.000000      5.575867000000000E-01      1.129726000000000E+02      3.053284000000000E-01      1.784453000000000E+02      2.675629000000000E-01     -6.611718000000000E+01      6.921997000000000E-01     -5.187304000000000E+01
4879000000.000000      5.515747000000000E-01      1.124492000000000E+02      3.031921000000000E-01      1.783516000000000E+02      2.675018000000000E-01     -6.611328000000000E+01      6.903076000000000E-01     -5.182422000000000E+01
4880000000.000000      5.477600000000000E-01      1.118242000000000E+02      3.026886000000000E-01      1.783203000000000E+02      2.679596000000000E-01     -6.610937000000000E+01      6.882019000000000E-01     -5.178515000000000E+01
4881000000.000000      5.431824000000000E-01      1.114961000000000E+02      3.019714000000000E-01      1.783437000000000E+02      2.677917000000000E-01     -6.605469000000000E+01      6.855469000000000E-01     -5.177734000000000E+01
4882000000.000000      5.393372000000000E-01      1.108086000000000E+02      3.006439000000000E-01      1.781250000000000E+02      2.682190000000000E-01     -6.591406000000000E+01      6.840210000000000E-01     -5.182031000000000E+01
