! Network Analyzer HP8722D
! Hewlett-Packard
! Data name: Linha & Wilkinson
! Saver's name: Rodrigo Anjos
! Comments: Teste da utilização de aquisição
continua pelo VNA HP8722D
! Time and date: 6/5/2025 15:29
!              Frequency                     S11                                                   S21                                                   S12                                                   S22
# HZ  S  MA R 50
4800000000.000000      4.963074000000000E-01     -1.680859000000000E+02      2.517242000000000E-01     -1.944238000000000E+01      2.480927000000000E-01     -1.407812000000000E+02      6.474304000000000E-01     -8.041796000000000E+01
4801000000.000000      4.975739000000000E-01     -1.682344000000000E+02      2.560883000000000E-01     -1.969336000000000E+01      2.514648000000000E-01     -1.408828000000000E+02      6.469116000000000E-01     -8.008593000000000E+01
4802000000.000000      4.989166000000000E-01     -1.682812000000000E+02      2.594757000000000E-01     -1.990918000000000E+01      2.560120000000000E-01     -1.408281000000000E+02      6.449890000000000E-01     -7.978516000000000E+01
4803000000.000000      5.006104000000000E-01     -1.684062000000000E+02      2.639923000000000E-01     -2.020117000000000E+01      2.586975000000000E-01     -1.409141000000000E+02      6.453247000000000E-01     -7.973437000000000E+01
4804000000.000000      5.029297000000000E-01     -1.683047000000000E+02      2.677612000000000E-01     -2.046289000000000E+01      2.629242000000000E-01     -1.410703000000000E+02      6.442871000000000E-01     -7.941406000000000E+01
4805000000.000000      5.058289000000000E-01     -1.684062000000000E+02      2.716522000000000E-01     -2.088379000000000E+01      2.664337000000000E-01     -1.410391000000000E+02      6.430359000000000E-01     -7.920312000000000E+01
4806000000.000000      5.070190000000000E-01     -1.683437000000000E+02      2.759094000000000E-01     -2.104492000000000E+01      2.694397000000000E-01     -1.410781000000000E+02      6.437073000000000E-01     -7.910937000000000E+01
4807000000.000000      5.101013000000000E-01     -1.683437000000000E+02      2.802429000000000E-01     -2.143164000000000E+01      2.738647000000000E-01     -1.413516000000000E+02      6.427612000000000E-01     -7.885547000000000E+01
4808000000.000000      5.123901000000000E-01     -1.682969000000000E+02      2.845917000000000E-01     -2.156933000000000E+01      2.767792000000000E-01     -1.413125000000000E+02      6.436157000000000E-01     -7.855078000000000E+01
4809000000.000000      5.148926000000000E-01     -1.683359000000000E+02      2.883301000000000E-01     -2.219141000000000E+01      2.808838000000000E-01     -1.416016000000000E+02      6.424561000000000E-01     -7.849999000000000E+01
4810000000.000000      5.177002000000000E-01     -1.683437000000000E+02      2.923737000000000E-01     -2.238086000000000E+01      2.841949000000000E-01     -1.416250000000000E+02      6.437683000000000E-01     -7.833984000000000E+01
4811000000.000000      5.213013000000000E-01     -1.682578000000000E+02      2.955933000000000E-01     -2.283105000000000E+01      2.886047000000000E-01     -1.417500000000000E+02      6.432800000000000E-01     -7.793359000000000E+01
4812000000.000000      5.249329000000000E-01     -1.682500000000000E+02      2.994385000000000E-01     -2.322852000000000E+01      2.911682000000000E-01     -1.417891000000000E+02      6.443787000000000E-01     -7.780078000000000E+01
4813000000.000000      5.276794000000000E-01     -1.682031000000000E+02      3.039246000000000E-01     -2.367969000000000E+01      2.946167000000000E-01     -1.419766000000000E+02      6.453857000000000E-01     -7.762890000000000E+01
4814000000.000000      5.302734000000000E-01     -1.682109000000000E+02      3.070526000000000E-01     -2.397265000000000E+01      2.971039000000000E-01     -1.422188000000000E+02      6.457825000000000E-01     -7.748047000000000E+01
4815000000.000000      5.339661000000000E-01     -1.680859000000000E+02      3.104095000000000E-01     -2.440527000000000E+01      3.006897000000000E-01     -1.423672000000000E+02      6.468506000000000E-01     -7.716797000000000E+01
4816000000.000000      5.382080000000000E-01     -1.679688000000000E+02      3.148499000000000E-01     -2.464941000000000E+01      3.049469000000000E-01     -1.424531000000000E+02      6.481934000000000E-01     -7.698047000000000E+01
4817000000.000000      5.435181000000000E-01     -1.678906000000000E+02      3.181610000000000E-01     -2.544238000000000E+01      3.073425000000000E-01     -1.426641000000000E+02      6.492004000000000E-01     -7.694140000000000E+01
4818000000.000000      5.462952000000000E-01     -1.679141000000000E+02      3.213348000000000E-01     -2.566015000000000E+01      3.110046000000000E-01     -1.427656000000000E+02      6.498718000000000E-01     -7.670703000000000E+01
4819000000.000000      5.518188000000000E-01     -1.677422000000000E+02      3.245544000000000E-01     -2.612305000000000E+01      3.128967000000000E-01     -1.430078000000000E+02      6.527405000000000E-01     -7.664063000000000E+01
4820000000.000000      5.539551000000000E-01     -1.677422000000000E+02      3.273621000000000E-01     -2.648046000000000E+01      3.169403000000000E-01     -1.431562000000000E+02      6.535339000000000E-01     -7.642578000000000E+01
4821000000.000000      5.600891000000000E-01     -1.676719000000000E+02      3.318176000000000E-01     -2.700390000000000E+01      3.196411000000000E-01     -1.434297000000000E+02      6.556091000000000E-01     -7.631249000000000E+01
4822000000.000000      5.667419000000000E-01     -1.675781000000000E+02      3.349915000000000E-01     -2.755859000000000E+01      3.223724000000000E-01     -1.435859000000000E+02      6.576538000000000E-01     -7.618359000000000E+01
4823000000.000000      5.697937000000000E-01     -1.674531000000000E+02      3.368835000000000E-01     -2.795703000000000E+01      3.245239000000000E-01     -1.436328000000000E+02      6.591492000000000E-01     -7.591015000000000E+01
4824000000.000000      5.772095000000000E-01     -1.673906000000000E+02      3.407440000000000E-01     -2.854883000000000E+01      3.278351000000000E-01     -1.440625000000000E+02      6.625671000000000E-01     -7.582031000000000E+01
4825000000.000000      5.811157000000000E-01     -1.673359000000000E+02      3.437653000000000E-01     -2.904394000000000E+01      3.312073000000000E-01     -1.440547000000000E+02      6.653137000000000E-01     -7.565234000000000E+01
4826000000.000000      5.872803000000000E-01     -1.672344000000000E+02      3.473663000000000E-01     -2.956152000000000E+01      3.329163000000000E-01     -1.443672000000000E+02      6.679077000000000E-01     -7.559765000000000E+01
4827000000.000000      5.931702000000000E-01     -1.670703000000000E+02      3.502350000000000E-01     -2.991504000000000E+01      3.357544000000000E-01     -1.445078000000000E+02      6.708069000000000E-01     -7.547656000000000E+01
4828000000.000000      5.997009000000000E-01     -1.670078000000000E+02      3.533020000000000E-01     -3.056836000000000E+01      3.379059000000000E-01     -1.446797000000000E+02      6.738281000000000E-01     -7.535937000000000E+01
4829000000.000000      6.030579000000000E-01     -1.669062000000000E+02      3.553925000000000E-01     -3.108593000000000E+01      3.413086000000000E-01     -1.448516000000000E+02      6.768494000000000E-01     -7.525000000000000E+01
4830000000.000000      6.105957000000000E-01     -1.668047000000000E+02      3.581543000000000E-01     -3.160254000000000E+01      3.432770000000000E-01     -1.451328000000000E+02      6.785889000000000E-01     -7.520702000000000E+01
4831000000.000000      6.152954000000000E-01     -1.666875000000000E+02      3.601837000000000E-01     -3.219141000000000E+01      3.456421000000000E-01     -1.452734000000000E+02      6.829834000000000E-01     -7.516406000000000E+01
4832000000.000000      6.241455000000000E-01     -1.666641000000000E+02      3.632507000000000E-01     -3.266406000000000E+01      3.483276000000000E-01     -1.455234000000000E+02      6.866760000000000E-01     -7.503124000000000E+01
4833000000.000000      6.300354000000000E-01     -1.666797000000000E+02      3.657990000000000E-01     -3.316015000000000E+01      3.504181000000000E-01     -1.458125000000000E+02      6.889648000000000E-01     -7.496875000000000E+01
4834000000.000000      6.364136000000000E-01     -1.665313000000000E+02      3.675079000000000E-01     -3.382421000000000E+01      3.528442000000000E-01     -1.459766000000000E+02      6.924438000000000E-01     -7.483984000000000E+01
4835000000.000000      6.425171000000000E-01     -1.663750000000000E+02      3.699493000000000E-01     -3.439258000000000E+01      3.556976000000000E-01     -1.460234000000000E+02      6.956482000000000E-01     -7.491015000000000E+01
4836000000.000000      6.507568000000000E-01     -1.663359000000000E+02      3.719482000000000E-01     -3.484766000000000E+01      3.573761000000000E-01     -1.461406000000000E+02      6.987305000000000E-01     -7.477734000000000E+01
4837000000.000000      6.574707000000000E-01     -1.662188000000000E+02      3.732605000000000E-01     -3.569336000000000E+01      3.595428000000000E-01     -1.464219000000000E+02      7.034607000000000E-01     -7.468750000000000E+01
4838000000.000000      6.639404000000000E-01     -1.662656000000000E+02      3.764343000000000E-01     -3.596484000000000E+01      3.614807000000000E-01     -1.466172000000000E+02      7.069397000000000E-01     -7.458593000000000E+01
4839000000.000000      6.706543000000000E-01     -1.661172000000000E+02      3.767242000000000E-01     -3.641602000000000E+01      3.638153000000000E-01     -1.467969000000000E+02      7.122498000000000E-01     -7.451953000000000E+01
4840000000.000000      6.766052000000000E-01     -1.661172000000000E+02      3.790131000000000E-01     -3.693945000000000E+01      3.662109000000000E-01     -1.470234000000000E+02      7.151794000000000E-01     -7.453515000000000E+01
4841000000.000000      6.849365000000000E-01     -1.661016000000000E+02      3.794250000000000E-01     -3.776758000000000E+01      3.679352000000000E-01     -1.473125000000000E+02      7.195740000000000E-01     -7.448047000000000E+01
4842000000.000000      6.922607000000000E-01     -1.659922000000000E+02      3.815765000000000E-01     -3.828320000000000E+01      3.691864000000000E-01     -1.474688000000000E+02      7.235107000000000E-01     -7.446484000000000E+01
4843000000.000000      6.983643000000000E-01     -1.659844000000000E+02      3.835754000000000E-01     -3.876953000000000E+01      3.717041000000000E-01     -1.477031000000000E+02      7.270508000000000E-01     -7.442968000000000E+01
4844000000.000000      7.057800000000000E-01     -1.659453000000000E+02      3.843231000000000E-01     -3.935351000000000E+01      3.720703000000000E-01     -1.478672000000000E+02      7.320557000000000E-01     -7.451562000000000E+01
4845000000.000000      7.127075000000000E-01     -1.658516000000000E+02      3.858337000000000E-01     -3.994922000000000E+01      3.754120000000000E-01     -1.480703000000000E+02      7.356873000000000E-01     -7.446875000000000E+01
4846000000.000000      7.193604000000000E-01     -1.658594000000000E+02      3.856964000000000E-01     -4.035937000000000E+01      3.771820000000000E-01     -1.481094000000000E+02      7.411194000000000E-01     -7.449609000000000E+01
4847000000.000000      7.273254000000000E-01     -1.657812000000000E+02      3.867493000000000E-01     -4.089844000000000E+01      3.787537000000000E-01     -1.485391000000000E+02      7.453918000000000E-01     -7.449219000000000E+01
4848000000.000000      7.348022000000000E-01     -1.657969000000000E+02      3.876190000000000E-01     -4.143945000000000E+01      3.801270000000000E-01     -1.485625000000000E+02      7.500305000000000E-01     -7.454687000000000E+01
4849000000.000000      7.418518000000000E-01     -1.659688000000000E+02      3.888245000000000E-01     -4.227539000000000E+01      3.819733000000000E-01     -1.487578000000000E+02      7.544250000000000E-01     -7.449219000000000E+01
4850000000.000000      7.490540000000000E-01     -1.657344000000000E+02      3.895264000000000E-01     -4.259766000000000E+01      3.832245000000000E-01     -1.488906000000000E+02      7.587891000000000E-01     -7.445313000000000E+01
4851000000.000000      7.552185000000000E-01     -1.657344000000000E+02      3.902283000000000E-01     -4.332421000000000E+01      3.844604000000000E-01     -1.491484000000000E+02      7.649536000000000E-01     -7.450000000000000E+01
4852000000.000000      7.631531000000000E-01     -1.656953000000000E+02      3.903046000000000E-01     -4.372851000000000E+01      3.863983000000000E-01     -1.493281000000000E+02      7.690125000000000E-01     -7.448047000000000E+01
4853000000.000000      7.690735000000000E-01     -1.657891000000000E+02      3.891602000000000E-01     -4.436328000000000E+01      3.881836000000000E-01     -1.495547000000000E+02      7.738342000000000E-01     -7.468750000000000E+01
4854000000.000000      7.767639000000000E-01     -1.658047000000000E+02      3.900146000000000E-01     -4.495703000000000E+01      3.886871000000000E-01     -1.496953000000000E+02      7.781067000000000E-01     -7.458593000000000E+01
4855000000.000000      7.809143000000000E-01     -1.657578000000000E+02      3.899994000000000E-01     -4.525000000000000E+01      3.901367000000000E-01     -1.497109000000000E+02      7.820740000000000E-01     -7.458202000000000E+01
4856000000.000000      7.893372000000000E-01     -1.657031000000000E+02      3.902740000000000E-01     -4.565039000000000E+01      3.922882000000000E-01     -1.500625000000000E+02      7.877808000000000E-01     -7.475390000000000E+01
4857000000.000000      7.952881000000000E-01     -1.657812000000000E+02      3.909454000000000E-01     -4.618164000000000E+01      3.929138000000000E-01     -1.501250000000000E+02      7.922058000000000E-01     -7.472656000000000E+01
4858000000.000000      7.987366000000000E-01     -1.657812000000000E+02      3.898926000000000E-01     -4.674609000000000E+01      3.937378000000000E-01     -1.503359000000000E+02      7.981873000000000E-01     -7.475390000000000E+01
4859000000.000000      8.060913000000000E-01     -1.658437000000000E+02      3.900299000000000E-01     -4.722070000000000E+01      3.955994000000000E-01     -1.506406000000000E+02      8.034058000000000E-01     -7.492969000000000E+01
4860000000.000000      8.137207000000000E-01     -1.658828000000000E+02      3.893280000000000E-01     -4.763672000000000E+01      3.958588000000000E-01     -1.507031000000000E+02      8.074341000000000E-01     -7.484375000000000E+01
4861000000.000000      8.193054000000000E-01     -1.656328000000000E+02      3.883362000000000E-01     -4.819921000000000E+01      3.981018000000000E-01     -1.509063000000000E+02      8.128357000000000E-01     -7.499609000000000E+01
4862000000.000000      8.234558000000000E-01     -1.657656000000000E+02      3.883362000000000E-01     -4.860156000000000E+01      3.986664000000000E-01     -1.510859000000000E+02      8.181763000000000E-01     -7.502734000000000E+01
4863000000.000000      8.283081000000000E-01     -1.658437000000000E+02      3.861694000000000E-01     -4.917187000000000E+01      4.003754000000000E-01     -1.512109000000000E+02      8.231506000000000E-01     -7.503906000000000E+01
4864000000.000000      8.351135000000000E-01     -1.657969000000000E+02      3.862762000000000E-01     -4.930469000000000E+01      4.001160000000000E-01     -1.512969000000000E+02      8.265686000000000E-01     -7.516406000000000E+01
4865000000.000000      8.402100000000000E-01     -1.659688000000000E+02      3.846893000000000E-01     -4.987695000000000E+01      4.012909000000000E-01     -1.515547000000000E+02      8.322449000000000E-01     -7.512500000000000E+01
4866000000.000000      8.414917000000000E-01     -1.657734000000000E+02      3.845062000000000E-01     -5.026172000000000E+01      4.023743000000000E-01     -1.517109000000000E+02      8.371582000000000E-01     -7.525000000000000E+01
4867000000.000000      8.475037000000000E-01     -1.657812000000000E+02      3.838043000000000E-01     -5.068945000000000E+01      4.030151000000000E-01     -1.518828000000000E+02      8.425293000000000E-01     -7.539453000000000E+01
4868000000.000000      8.533630000000000E-01     -1.658750000000000E+02      3.813934000000000E-01     -5.104882000000000E+01      4.043121000000000E-01     -1.520313000000000E+02      8.477478000000000E-01     -7.538280000000000E+01
4869000000.000000      8.552246000000000E-01     -1.658828000000000E+02      3.805542000000000E-01     -5.154687000000000E+01      4.048615000000000E-01     -1.522891000000000E+02      8.523865000000000E-01     -7.558984000000000E+01
4870000000.000000      8.612061000000000E-01     -1.658906000000000E+02      3.808594000000000E-01     -5.161914000000000E+01      4.052124000000000E-01     -1.524453000000000E+02      8.570251000000000E-01     -7.555859000000000E+01
4871000000.000000      8.666382000000000E-01     -1.658828000000000E+02      3.788147000000000E-01     -5.211132000000000E+01      4.052124000000000E-01     -1.526094000000000E+02      8.600769000000000E-01     -7.587500000000000E+01
4872000000.000000      8.689270000000000E-01     -1.657422000000000E+02      3.772278000000000E-01     -5.227929000000000E+01      4.059906000000000E-01     -1.528906000000000E+02      8.656006000000000E-01     -7.586719000000000E+01
4873000000.000000      8.715820000000000E-01     -1.657500000000000E+02      3.751831000000000E-01     -5.274023000000000E+01      4.063416000000000E-01     -1.529531000000000E+02      8.698425000000000E-01     -7.603125000000000E+01
4874000000.000000      8.763428000000000E-01     -1.656328000000000E+02      3.744202000000000E-01     -5.303124000000000E+01      4.076996000000000E-01     -1.530859000000000E+02      8.736572000000000E-01     -7.584765000000000E+01
4875000000.000000      8.787231000000000E-01     -1.657187000000000E+02      3.731232000000000E-01     -5.325390000000000E+01      4.081421000000000E-01     -1.533984000000000E+02      8.769836000000000E-01     -7.612890000000000E+01
4876000000.000000      8.802185000000000E-01     -1.657578000000000E+02      3.717499000000000E-01     -5.360352000000000E+01      4.067841000000000E-01     -1.533984000000000E+02      8.824158000000000E-01     -7.634375000000000E+01
4877000000.000000      8.845520000000000E-01     -1.655937000000000E+02      3.709412000000000E-01     -5.376171000000000E+01      4.081268000000000E-01     -1.537422000000000E+02      8.873596000000000E-01     -7.644531000000000E+01
4878000000.000000      8.856506000000000E-01     -1.654766000000000E+02      3.695374000000000E-01     -5.401172000000000E+01      4.079742000000000E-01     -1.537266000000000E+02      8.916321000000000E-01     -7.657812000000000E+01
4879000000.000000      8.881836000000000E-01     -1.655078000000000E+02      3.669586000000000E-01     -5.412304000000000E+01      4.082184000000000E-01     -1.539922000000000E+02      8.937988000000000E-01     -7.655859000000000E+01
4880000000.000000      8.894348000000000E-01     -1.654531000000000E+02      3.659973000000000E-01     -5.447851000000000E+01      4.088898000000000E-01     -1.540859000000000E+02      8.981628000000000E-01     -7.666797000000000E+01
4881000000.000000      8.938904000000000E-01     -1.652969000000000E+02      3.655243000000000E-01     -5.446289000000000E+01      4.090424000000000E-01     -1.543359000000000E+02      9.039307000000000E-01     -7.688671000000000E+01
4882000000.000000      8.931274000000000E-01     -1.652031000000000E+02      3.628693000000000E-01     -5.480859000000000E+01      4.084930000000000E-01     -1.543672000000000E+02      9.071960000000000E-01     -7.693749000000000E+01
