! Network Analyzer HP8722D
! Hewlett-Packard
! Data name: Linha & Wilkinson
! Saver's name: Rodrigo Anjos
! Comments: Teste da utilização de aquisição
continua pelo VNA HP8722D
! Time and date: 6/5/2025 13:38
!              Frequency                     S11                                                   S21                                                   S12                                                   S22
# HZ  S  MA R 50
4800000000.000000      4.974213000000000E-01     -1.683047000000000E+02      2.529144000000000E-01     -1.989258000000000E+01      2.493896000000000E-01     -1.411406000000000E+02      6.480713000000000E-01     -8.027735000000000E+01
4801000000.000000      4.989929000000000E-01     -1.684141000000000E+02      2.571716000000000E-01     -2.011621000000000E+01      2.528381000000000E-01     -1.412578000000000E+02      6.472778000000000E-01     -8.019140000000000E+01
4802000000.000000      5.001831000000000E-01     -1.684844000000000E+02      2.612000000000000E-01     -2.032422000000000E+01      2.571106000000000E-01     -1.412266000000000E+02      6.456909000000000E-01     -7.979297000000000E+01
4803000000.000000      5.015259000000000E-01     -1.685390000000000E+02      2.657013000000000E-01     -2.056933000000000E+01      2.604065000000000E-01     -1.412734000000000E+02      6.448364000000000E-01     -7.962891000000000E+01
4804000000.000000      5.040894000000000E-01     -1.685156000000000E+02      2.694092000000000E-01     -2.084863000000000E+01      2.644501000000000E-01     -1.415000000000000E+02      6.434631000000000E-01     -7.937109000000000E+01
4805000000.000000      5.064392000000000E-01     -1.686172000000000E+02      2.732697000000000E-01     -2.111230000000000E+01      2.684479000000000E-01     -1.414141000000000E+02      6.450500000000000E-01     -7.920312000000000E+01
4806000000.000000      5.081482000000000E-01     -1.685000000000000E+02      2.778168000000000E-01     -2.147168000000000E+01      2.708435000000000E-01     -1.414844000000000E+02      6.433716000000000E-01     -7.909765000000000E+01
4807000000.000000      5.115356000000000E-01     -1.685625000000000E+02      2.814331000000000E-01     -2.166016000000000E+01      2.748413000000000E-01     -1.416797000000000E+02      6.435547000000000E-01     -7.881249000000000E+01
4808000000.000000      5.137939000000000E-01     -1.685234000000000E+02      2.858734000000000E-01     -2.197852000000000E+01      2.779541000000000E-01     -1.418984000000000E+02      6.431580000000000E-01     -7.861328000000000E+01
4809000000.000000      5.162659000000000E-01     -1.685156000000000E+02      2.894440000000000E-01     -2.267188000000000E+01      2.821198000000000E-01     -1.419844000000000E+02      6.435242000000000E-01     -7.839453000000000E+01
4810000000.000000      5.192261000000000E-01     -1.684844000000000E+02      2.941437000000000E-01     -2.278613000000000E+01      2.855377000000000E-01     -1.420938000000000E+02      6.442871000000000E-01     -7.825390000000000E+01
4811000000.000000      5.222778000000000E-01     -1.684766000000000E+02      2.975464000000000E-01     -2.328906000000000E+01      2.899780000000000E-01     -1.421562000000000E+02      6.441345000000000E-01     -7.798437000000000E+01
4812000000.000000      5.265503000000000E-01     -1.683984000000000E+02      3.007355000000000E-01     -2.371680000000000E+01      2.924042000000000E-01     -1.423047000000000E+02      6.451416000000000E-01     -7.778906000000000E+01
4813000000.000000      5.290527000000000E-01     -1.683203000000000E+02      3.043213000000000E-01     -2.405762000000000E+01      2.952881000000000E-01     -1.423047000000000E+02      6.455078000000000E-01     -7.751953000000000E+01
4814000000.000000      5.313416000000000E-01     -1.684141000000000E+02      3.081512000000000E-01     -2.433398000000000E+01      2.988434000000000E-01     -1.426172000000000E+02      6.472778000000000E-01     -7.748828000000000E+01
4815000000.000000      5.360107000000000E-01     -1.682578000000000E+02      3.118286000000000E-01     -2.478516000000000E+01      3.011627000000000E-01     -1.427969000000000E+02      6.463928000000000E-01     -7.719921000000000E+01
4816000000.000000      5.401611000000000E-01     -1.681875000000000E+02      3.159637000000000E-01     -2.509277000000000E+01      3.058319000000000E-01     -1.428281000000000E+02      6.487122000000000E-01     -7.696875000000000E+01
4817000000.000000      5.448303000000000E-01     -1.680703000000000E+02      3.197174000000000E-01     -2.566992000000000E+01      3.080597000000000E-01     -1.430859000000000E+02      6.490479000000000E-01     -7.690234000000000E+01
4818000000.000000      5.479736000000000E-01     -1.680859000000000E+02      3.222351000000000E-01     -2.607812000000000E+01      3.118286000000000E-01     -1.431797000000000E+02      6.524658000000000E-01     -7.679688000000000E+01
4819000000.000000      5.534363000000000E-01     -1.679453000000000E+02      3.265839000000000E-01     -2.647168000000000E+01      3.137512000000000E-01     -1.433750000000000E+02      6.540527000000000E-01     -7.660546000000000E+01
4820000000.000000      5.560303000000000E-01     -1.679297000000000E+02      3.291779000000000E-01     -2.704590000000000E+01      3.173981000000000E-01     -1.435078000000000E+02      6.552124000000000E-01     -7.645702000000000E+01
4821000000.000000      5.619812000000000E-01     -1.678125000000000E+02      3.327026000000000E-01     -2.752441000000000E+01      3.207245000000000E-01     -1.439609000000000E+02      6.569214000000000E-01     -7.627343000000000E+01
4822000000.000000      5.685730000000000E-01     -1.677813000000000E+02      3.355408000000000E-01     -2.800293000000000E+01      3.228760000000000E-01     -1.440000000000000E+02      6.597595000000000E-01     -7.616015000000000E+01
4823000000.000000      5.717773000000000E-01     -1.676328000000000E+02      3.385620000000000E-01     -2.844531000000000E+01      3.252106000000000E-01     -1.440391000000000E+02      6.613770000000000E-01     -7.604297000000000E+01
4824000000.000000      5.787659000000000E-01     -1.676094000000000E+02      3.427887000000000E-01     -2.905371000000000E+01      3.291016000000000E-01     -1.444922000000000E+02      6.644897000000000E-01     -7.591797000000000E+01
4825000000.000000      5.827637000000000E-01     -1.675078000000000E+02      3.449860000000000E-01     -2.936523000000000E+01      3.319397000000000E-01     -1.445469000000000E+02      6.663513000000000E-01     -7.572656000000000E+01
4826000000.000000      5.891113000000000E-01     -1.674062000000000E+02      3.480225000000000E-01     -2.997363000000000E+01      3.337097000000000E-01     -1.448203000000000E+02      6.690674000000000E-01     -7.574609000000000E+01
4827000000.000000      5.951843000000000E-01     -1.672422000000000E+02      3.509369000000000E-01     -3.044043000000000E+01      3.362732000000000E-01     -1.449297000000000E+02      6.715088000000000E-01     -7.548828000000000E+01
4828000000.000000      6.018677000000000E-01     -1.672031000000000E+02      3.543701000000000E-01     -3.097461000000000E+01      3.381500000000000E-01     -1.451250000000000E+02      6.748352000000000E-01     -7.541406000000000E+01
4829000000.000000      6.047363000000000E-01     -1.670469000000000E+02      3.553314000000000E-01     -3.150879000000000E+01      3.422394000000000E-01     -1.453203000000000E+02      6.779175000000000E-01     -7.522655000000000E+01
4830000000.000000      6.125183000000000E-01     -1.670547000000000E+02      3.585663000000000E-01     -3.206836000000000E+01      3.443756000000000E-01     -1.454922000000000E+02      6.804199000000000E-01     -7.527344000000000E+01
4831000000.000000      6.175537000000000E-01     -1.669141000000000E+02      3.613281000000000E-01     -3.260351000000000E+01      3.467407000000000E-01     -1.456563000000000E+02      6.835938000000000E-01     -7.518749000000000E+01
4832000000.000000      6.261292000000000E-01     -1.668047000000000E+02      3.639526000000000E-01     -3.310156000000000E+01      3.488007000000000E-01     -1.458828000000000E+02      6.872253000000000E-01     -7.508594000000000E+01
4833000000.000000      6.322937000000000E-01     -1.669141000000000E+02      3.663788000000000E-01     -3.367773000000000E+01      3.504486000000000E-01     -1.461484000000000E+02      6.889038000000000E-01     -7.496875000000000E+01
4834000000.000000      6.384888000000000E-01     -1.667266000000000E+02      3.684082000000000E-01     -3.428125000000000E+01      3.530273000000000E-01     -1.462891000000000E+02      6.937561000000000E-01     -7.490234000000000E+01
4835000000.000000      6.445618000000000E-01     -1.666875000000000E+02      3.711853000000000E-01     -3.480273000000000E+01      3.556213000000000E-01     -1.465000000000000E+02      6.972961000000000E-01     -7.494141000000000E+01
4836000000.000000      6.526794000000000E-01     -1.665625000000000E+02      3.719482000000000E-01     -3.528125000000000E+01      3.579102000000000E-01     -1.466953000000000E+02      7.010803000000000E-01     -7.479687000000000E+01
4837000000.000000      6.591187000000000E-01     -1.664141000000000E+02      3.741760000000000E-01     -3.604687000000000E+01      3.597260000000000E-01     -1.469922000000000E+02      7.045593000000000E-01     -7.477734000000000E+01
4838000000.000000      6.661072000000000E-01     -1.665156000000000E+02      3.768158000000000E-01     -3.638867000000000E+01      3.620300000000000E-01     -1.470312000000000E+02      7.088928000000000E-01     -7.472265000000000E+01
4839000000.000000      6.735840000000000E-01     -1.663359000000000E+02      3.777924000000000E-01     -3.691797000000000E+01      3.638306000000000E-01     -1.472812000000000E+02      7.125854000000000E-01     -7.468750000000000E+01
4840000000.000000      6.786804000000000E-01     -1.662812000000000E+02      3.789063000000000E-01     -3.746094000000000E+01      3.656158000000000E-01     -1.475781000000000E+02      7.164917000000000E-01     -7.471093000000000E+01
4841000000.000000      6.867371000000000E-01     -1.664063000000000E+02      3.805084000000000E-01     -3.828711000000000E+01      3.682098000000000E-01     -1.477500000000000E+02      7.205200000000000E-01     -7.463281000000000E+01
4842000000.000000      6.941833000000000E-01     -1.662266000000000E+02      3.818207000000000E-01     -3.870898000000000E+01      3.688965000000000E-01     -1.478594000000000E+02      7.255859000000000E-01     -7.459374000000000E+01
4843000000.000000      7.009888000000000E-01     -1.662734000000000E+02      3.831787000000000E-01     -3.925390000000000E+01      3.708954000000000E-01     -1.481172000000000E+02      7.294617000000000E-01     -7.457031000000000E+01
4844000000.000000      7.067871000000000E-01     -1.661641000000000E+02      3.843842000000000E-01     -3.974218000000000E+01      3.722229000000000E-01     -1.483203000000000E+02      7.336426000000000E-01     -7.457421000000000E+01
4845000000.000000      7.138062000000000E-01     -1.661562000000000E+02      3.842621000000000E-01     -4.034180000000000E+01      3.749542000000000E-01     -1.485000000000000E+02      7.371826000000000E-01     -7.461719000000000E+01
4846000000.000000      7.209778000000000E-01     -1.660625000000000E+02      3.864594000000000E-01     -4.080859000000000E+01      3.771057000000000E-01     -1.486719000000000E+02      7.419434000000000E-01     -7.456640000000000E+01
4847000000.000000      7.296448000000000E-01     -1.661484000000000E+02      3.873901000000000E-01     -4.146289000000000E+01      3.786621000000000E-01     -1.489844000000000E+02      7.478638000000000E-01     -7.469921000000000E+01
4848000000.000000      7.369385000000000E-01     -1.660234000000000E+02      3.876038000000000E-01     -4.185937000000000E+01      3.800964000000000E-01     -1.489844000000000E+02      7.503967000000000E-01     -7.458984000000000E+01
4849000000.000000      7.437439000000000E-01     -1.662266000000000E+02      3.888092000000000E-01     -4.248828000000000E+01      3.816986000000000E-01     -1.493047000000000E+02      7.560730000000000E-01     -7.455078000000000E+01
4850000000.000000      7.505798000000000E-01     -1.660391000000000E+02      3.896637000000000E-01     -4.303906000000000E+01      3.832092000000000E-01     -1.493359000000000E+02      7.598572000000000E-01     -7.457421000000000E+01
4851000000.000000      7.575989000000000E-01     -1.660781000000000E+02      3.903503000000000E-01     -4.374609000000000E+01      3.844147000000000E-01     -1.495078000000000E+02      7.659302000000000E-01     -7.463281000000000E+01
4852000000.000000      7.647705000000000E-01     -1.660234000000000E+02      3.906403000000000E-01     -4.415625000000000E+01      3.861542000000000E-01     -1.496406000000000E+02      7.694092000000000E-01     -7.462891000000000E+01
4853000000.000000      7.710876000000000E-01     -1.660234000000000E+02      3.891602000000000E-01     -4.453711000000000E+01      3.881378000000000E-01     -1.499297000000000E+02      7.752686000000000E-01     -7.476171000000000E+01
4854000000.000000      7.782898000000000E-01     -1.660625000000000E+02      3.903351000000000E-01     -4.532227000000000E+01      3.890686000000000E-01     -1.500937000000000E+02      7.798767000000000E-01     -7.481640000000000E+01
4855000000.000000      7.837830000000000E-01     -1.660547000000000E+02      3.895721000000000E-01     -4.561523000000000E+01      3.903503000000000E-01     -1.502734000000000E+02      7.824402000000000E-01     -7.480859000000000E+01
4856000000.000000      7.908020000000000E-01     -1.659688000000000E+02      3.904266000000000E-01     -4.612109000000000E+01      3.914948000000000E-01     -1.503828000000000E+02      7.887573000000000E-01     -7.480469000000000E+01
4857000000.000000      7.968750000000000E-01     -1.660469000000000E+02      3.903961000000000E-01     -4.663867000000000E+01      3.918762000000000E-01     -1.505547000000000E+02      7.939758000000000E-01     -7.483984000000000E+01
4858000000.000000      8.007813000000000E-01     -1.660625000000000E+02      3.893433000000000E-01     -4.705078000000000E+01      3.937225000000000E-01     -1.507422000000000E+02      7.979126000000000E-01     -7.500390000000000E+01
4859000000.000000      8.080444000000000E-01     -1.660547000000000E+02      3.887787000000000E-01     -4.773633000000000E+01      3.948517000000000E-01     -1.510234000000000E+02      8.049622000000000E-01     -7.504296000000000E+01
4860000000.000000      8.137207000000000E-01     -1.660938000000000E+02      3.890381000000000E-01     -4.806054000000000E+01      3.957825000000000E-01     -1.511094000000000E+02      8.078308000000000E-01     -7.502343000000000E+01
4861000000.000000      8.186951000000000E-01     -1.660312000000000E+02      3.873291000000000E-01     -4.865234000000000E+01      3.973694000000000E-01     -1.512734000000000E+02      8.122864000000000E-01     -7.517578000000000E+01
4862000000.000000      8.258667000000000E-01     -1.660469000000000E+02      3.884583000000000E-01     -4.890038000000000E+01      3.983459000000000E-01     -1.513906000000000E+02      8.194275000000000E-01     -7.510547000000000E+01
4863000000.000000      8.306274000000000E-01     -1.659844000000000E+02      3.851013000000000E-01     -4.958398000000000E+01      3.995209000000000E-01     -1.516016000000000E+02      8.245850000000000E-01     -7.519140000000000E+01
4864000000.000000      8.343201000000000E-01     -1.661172000000000E+02      3.858337000000000E-01     -4.979101000000000E+01      3.996582000000000E-01     -1.517422000000000E+02      8.280945000000000E-01     -7.531640000000000E+01
4865000000.000000      8.409424000000000E-01     -1.660938000000000E+02      3.848114000000000E-01     -5.014062000000000E+01      4.003448000000000E-01     -1.519140000000000E+02      8.338318000000000E-01     -7.525781000000000E+01
4866000000.000000      8.437805000000000E-01     -1.660703000000000E+02      3.833008000000000E-01     -5.056641000000000E+01      4.017639000000000E-01     -1.520391000000000E+02      8.369751000000000E-01     -7.537109000000000E+01
4867000000.000000      8.482361000000000E-01     -1.660859000000000E+02      3.823395000000000E-01     -5.110546000000000E+01      4.023438000000000E-01     -1.522656000000000E+02      8.431091000000000E-01     -7.559765000000000E+01
4868000000.000000      8.531494000000000E-01     -1.662266000000000E+02      3.824768000000000E-01     -5.149609000000000E+01      4.034576000000000E-01     -1.524219000000000E+02      8.470459000000000E-01     -7.564062000000000E+01
4869000000.000000      8.562622000000000E-01     -1.659765000000000E+02      3.795013000000000E-01     -5.178711000000000E+01      4.039154000000000E-01     -1.526172000000000E+02      8.524475000000000E-01     -7.582812000000000E+01
4870000000.000000      8.609619000000000E-01     -1.661562000000000E+02      3.795319000000000E-01     -5.198632000000000E+01      4.045258000000000E-01     -1.528125000000000E+02      8.578491000000000E-01     -7.576172000000000E+01
4871000000.000000      8.675232000000000E-01     -1.660469000000000E+02      3.786621000000000E-01     -5.245507000000000E+01      4.043427000000000E-01     -1.530156000000000E+02      8.598633000000000E-01     -7.592968000000000E+01
4872000000.000000      8.688965000000000E-01     -1.660938000000000E+02      3.759155000000000E-01     -5.253711000000000E+01      4.054718000000000E-01     -1.532969000000000E+02      8.664246000000000E-01     -7.605078000000000E+01
4873000000.000000      8.728333000000000E-01     -1.659062000000000E+02      3.755798000000000E-01     -5.313086000000000E+01      4.051514000000000E-01     -1.533359000000000E+02      8.702393000000000E-01     -7.615624000000000E+01
4874000000.000000      8.761902000000000E-01     -1.658828000000000E+02      3.736572000000000E-01     -5.343554000000000E+01      4.069061000000000E-01     -1.534062000000000E+02      8.730774000000000E-01     -7.606640000000000E+01
4875000000.000000      8.792419000000000E-01     -1.660234000000000E+02      3.728180000000000E-01     -5.353320000000000E+01      4.067993000000000E-01     -1.537109000000000E+02      8.790894000000000E-01     -7.637890000000000E+01
4876000000.000000      8.800049000000000E-01     -1.659922000000000E+02      3.715973000000000E-01     -5.389257000000000E+01      4.057159000000000E-01     -1.538437000000000E+02      8.836670000000000E-01     -7.660156000000000E+01
4877000000.000000      8.836060000000000E-01     -1.658672000000000E+02      3.697968000000000E-01     -5.407617000000000E+01      4.075317000000000E-01     -1.540313000000000E+02      8.863525000000000E-01     -7.660156000000000E+01
4878000000.000000      8.889160000000000E-01     -1.657578000000000E+02      3.687134000000000E-01     -5.438477000000000E+01      4.075928000000000E-01     -1.540781000000000E+02      8.923035000000000E-01     -7.674609000000000E+01
4879000000.000000      8.912659000000000E-01     -1.656484000000000E+02      3.663940000000000E-01     -5.457617000000000E+01      4.068146000000000E-01     -1.542812000000000E+02      8.949890000000000E-01     -7.672265000000000E+01
4880000000.000000      8.902283000000000E-01     -1.657109000000000E+02      3.656158000000000E-01     -5.482616000000000E+01      4.077301000000000E-01     -1.543750000000000E+02      8.986816000000000E-01     -7.680078000000000E+01
4881000000.000000      8.955383000000000E-01     -1.656563000000000E+02      3.642578000000000E-01     -5.484179000000000E+01      4.079285000000000E-01     -1.546562000000000E+02      9.025879000000000E-01     -7.701172000000000E+01
4882000000.000000      8.942566000000000E-01     -1.655156000000000E+02      3.625488000000000E-01     -5.517383000000000E+01      4.080048000000000E-01     -1.546797000000000E+02      9.041748000000000E-01     -7.709374000000000E+01
