! Network Analyzer HP8722D
! Hewlett-Packard
! Data name: Linha & Wilkinson
! Saver's name: Rodrigo Anjos
! Comments: Teste da utilização de aquisição
continua pelo VNA HP8722D
! Time and date: 6/5/2025 15:18
!              Frequency                     S11                                                   S21                                                   S12                                                   S22
# HZ  S  MA R 50
4800000000.000000      4.966278000000000E-01     -1.681250000000000E+02      2.517090000000000E-01     -1.969629000000000E+01      2.483902000000000E-01     -1.408047000000000E+02      6.478882000000000E-01     -8.037500000000000E+01
4801000000.000000      4.981232000000000E-01     -1.682422000000000E+02      2.557678000000000E-01     -1.977832000000000E+01      2.520752000000000E-01     -1.409062000000000E+02      6.465454000000000E-01     -8.012110000000000E+01
4802000000.000000      4.990845000000000E-01     -1.683672000000000E+02      2.595520000000000E-01     -1.993555000000000E+01      2.559509000000000E-01     -1.408672000000000E+02      6.457214000000000E-01     -7.982812000000000E+01
4803000000.000000      5.008545000000000E-01     -1.684141000000000E+02      2.647705000000000E-01     -2.018652000000000E+01      2.587585000000000E-01     -1.409609000000000E+02      6.452026000000000E-01     -7.964453000000000E+01
4804000000.000000      5.030518000000000E-01     -1.683359000000000E+02      2.677612000000000E-01     -2.049805000000000E+01      2.627869000000000E-01     -1.412109000000000E+02      6.452026000000000E-01     -7.937500000000000E+01
4805000000.000000      5.055847000000000E-01     -1.683906000000000E+02      2.722473000000000E-01     -2.084277000000000E+01      2.667542000000000E-01     -1.411172000000000E+02      6.442871000000000E-01     -7.930859000000000E+01
4806000000.000000      5.073547000000000E-01     -1.683672000000000E+02      2.762604000000000E-01     -2.108496000000000E+01      2.694855000000000E-01     -1.410859000000000E+02      6.443176000000000E-01     -7.914844000000000E+01
4807000000.000000      5.101929000000000E-01     -1.683203000000000E+02      2.802734000000000E-01     -2.146191000000000E+01      2.734833000000000E-01     -1.414375000000000E+02      6.428528000000000E-01     -7.887890000000000E+01
4808000000.000000      5.128479000000000E-01     -1.683281000000000E+02      2.849121000000000E-01     -2.145508000000000E+01      2.771301000000000E-01     -1.414453000000000E+02      6.436157000000000E-01     -7.859375000000000E+01
4809000000.000000      5.144653000000000E-01     -1.683516000000000E+02      2.884827000000000E-01     -2.221484000000000E+01      2.812042000000000E-01     -1.415469000000000E+02      6.434326000000000E-01     -7.839453000000000E+01
4810000000.000000      5.182190000000000E-01     -1.683828000000000E+02      2.924347000000000E-01     -2.242090000000000E+01      2.845001000000000E-01     -1.416641000000000E+02      6.436157000000000E-01     -7.824219000000000E+01
4811000000.000000      5.213318000000000E-01     -1.683203000000000E+02      2.958527000000000E-01     -2.301172000000000E+01      2.882385000000000E-01     -1.417187000000000E+02      6.422424000000000E-01     -7.791797000000000E+01
4812000000.000000      5.249634000000000E-01     -1.682344000000000E+02      3.003845000000000E-01     -2.326855000000000E+01      2.913208000000000E-01     -1.418516000000000E+02      6.449890000000000E-01     -7.777734000000000E+01
4813000000.000000      5.273438000000000E-01     -1.681875000000000E+02      3.034363000000000E-01     -2.359766000000000E+01      2.940979000000000E-01     -1.419766000000000E+02      6.448669000000000E-01     -7.759375000000000E+01
4814000000.000000      5.303955000000000E-01     -1.682500000000000E+02      3.070068000000000E-01     -2.406738000000000E+01      2.977295000000000E-01     -1.422344000000000E+02      6.448669000000000E-01     -7.739062000000000E+01
4815000000.000000      5.337524000000000E-01     -1.680781000000000E+02      3.101501000000000E-01     -2.440234000000000E+01      3.006592000000000E-01     -1.422891000000000E+02      6.463318000000000E-01     -7.716015000000000E+01
4816000000.000000      5.388489000000000E-01     -1.680156000000000E+02      3.143616000000000E-01     -2.470996000000000E+01      3.052063000000000E-01     -1.424844000000000E+02      6.486816000000000E-01     -7.696484000000000E+01
4817000000.000000      5.435181000000000E-01     -1.679141000000000E+02      3.184662000000000E-01     -2.544726000000000E+01      3.073425000000000E-01     -1.426875000000000E+02      6.475525000000000E-01     -7.694530000000000E+01
4818000000.000000      5.467224000000000E-01     -1.679219000000000E+02      3.214111000000000E-01     -2.569629000000000E+01      3.107910000000000E-01     -1.429062000000000E+02      6.510315000000000E-01     -7.673828000000000E+01
4819000000.000000      5.521240000000000E-01     -1.678359000000000E+02      3.252411000000000E-01     -2.616601000000000E+01      3.132172000000000E-01     -1.430859000000000E+02      6.532288000000000E-01     -7.666406000000000E+01
4820000000.000000      5.545044000000000E-01     -1.677656000000000E+02      3.278046000000000E-01     -2.655859000000000E+01      3.167419000000000E-01     -1.431406000000000E+02      6.540527000000000E-01     -7.648046000000000E+01
4821000000.000000      5.606689000000000E-01     -1.676953000000000E+02      3.321533000000000E-01     -2.709277000000000E+01      3.194427000000000E-01     -1.435000000000000E+02      6.550598000000000E-01     -7.632030000000000E+01
4822000000.000000      5.669250000000000E-01     -1.676172000000000E+02      3.346252000000000E-01     -2.757519000000000E+01      3.218231000000000E-01     -1.436719000000000E+02      6.586304000000000E-01     -7.610546000000000E+01
4823000000.000000      5.704041000000000E-01     -1.674219000000000E+02      3.380280000000000E-01     -2.802148000000000E+01      3.255310000000000E-01     -1.436563000000000E+02      6.608276000000000E-01     -7.596093000000000E+01
4824000000.000000      5.771484000000000E-01     -1.674687000000000E+02      3.414459000000000E-01     -2.865039000000000E+01      3.285980000000000E-01     -1.440391000000000E+02      6.630859000000000E-01     -7.593359000000000E+01
4825000000.000000      5.810852000000000E-01     -1.673672000000000E+02      3.438873000000000E-01     -2.917285000000000E+01      3.317719000000000E-01     -1.442344000000000E+02      6.651611000000000E-01     -7.565624000000000E+01
4826000000.000000      5.875549000000000E-01     -1.672578000000000E+02      3.467712000000000E-01     -2.961230000000000E+01      3.331451000000000E-01     -1.444766000000000E+02      6.683350000000000E-01     -7.565234000000000E+01
4827000000.000000      5.932922000000000E-01     -1.670781000000000E+02      3.501434000000000E-01     -2.991601000000000E+01      3.364716000000000E-01     -1.445859000000000E+02      6.705017000000000E-01     -7.545703000000000E+01
4828000000.000000      6.001282000000000E-01     -1.670469000000000E+02      3.526001000000000E-01     -3.050781000000000E+01      3.385620000000000E-01     -1.447891000000000E+02      6.734924000000000E-01     -7.542578000000000E+01
4829000000.000000      6.035461000000000E-01     -1.669062000000000E+02      3.548737000000000E-01     -3.110156000000000E+01      3.416901000000000E-01     -1.449375000000000E+02      6.768799000000000E-01     -7.523046000000000E+01
4830000000.000000      6.109619000000000E-01     -1.668516000000000E+02      3.580322000000000E-01     -3.166894000000000E+01      3.432922000000000E-01     -1.450391000000000E+02      6.791077000000000E-01     -7.525781000000000E+01
4831000000.000000      6.154785000000000E-01     -1.667656000000000E+02      3.600922000000000E-01     -3.224804000000000E+01      3.460541000000000E-01     -1.453125000000000E+02      6.828918000000000E-01     -7.508984000000000E+01
4832000000.000000      6.246643000000000E-01     -1.666875000000000E+02      3.639526000000000E-01     -3.268164000000000E+01      3.477325000000000E-01     -1.455156000000000E+02      6.862793000000000E-01     -7.502734000000000E+01
4833000000.000000      6.304626000000000E-01     -1.666563000000000E+02      3.651276000000000E-01     -3.324414000000000E+01      3.501740000000000E-01     -1.458281000000000E+02      6.894531000000000E-01     -7.498047000000000E+01
4834000000.000000      6.368103000000000E-01     -1.664844000000000E+02      3.676453000000000E-01     -3.370312000000000E+01      3.530426000000000E-01     -1.459063000000000E+02      6.916809000000000E-01     -7.487890000000000E+01
4835000000.000000      6.427917000000000E-01     -1.664531000000000E+02      3.697205000000000E-01     -3.436523000000000E+01      3.549500000000000E-01     -1.461641000000000E+02      6.960449000000000E-01     -7.487890000000000E+01
4836000000.000000      6.518250000000000E-01     -1.663359000000000E+02      3.717651000000000E-01     -3.500977000000000E+01      3.574524000000000E-01     -1.462969000000000E+02      7.002258000000000E-01     -7.474218000000000E+01
4837000000.000000      6.577148000000000E-01     -1.662422000000000E+02      3.733673000000000E-01     -3.564258000000000E+01      3.594208000000000E-01     -1.466328000000000E+02      7.037659000000000E-01     -7.469531000000000E+01
4838000000.000000      6.641846000000000E-01     -1.662656000000000E+02      3.761292000000000E-01     -3.607031000000000E+01      3.612671000000000E-01     -1.468047000000000E+02      7.081299000000000E-01     -7.466797000000000E+01
4839000000.000000      6.717224000000000E-01     -1.661484000000000E+02      3.772736000000000E-01     -3.651758000000000E+01      3.636932000000000E-01     -1.468750000000000E+02      7.116394000000000E-01     -7.455859000000000E+01
4840000000.000000      6.772156000000000E-01     -1.661484000000000E+02      3.779144000000000E-01     -3.699414000000000E+01      3.660736000000000E-01     -1.470547000000000E+02      7.149048000000000E-01     -7.460938000000000E+01
4841000000.000000      6.853027000000000E-01     -1.661797000000000E+02      3.801880000000000E-01     -3.783789000000000E+01      3.685303000000000E-01     -1.473594000000000E+02      7.202759000000000E-01     -7.453125000000000E+01
4842000000.000000      6.927490000000000E-01     -1.660000000000000E+02      3.822021000000000E-01     -3.825390000000000E+01      3.694000000000000E-01     -1.475000000000000E+02      7.247009000000000E-01     -7.455468000000000E+01
4843000000.000000      6.990662000000000E-01     -1.661094000000000E+02      3.829193000000000E-01     -3.883203000000000E+01      3.711548000000000E-01     -1.476953000000000E+02      7.276001000000000E-01     -7.452734000000000E+01
4844000000.000000      7.062683000000000E-01     -1.659688000000000E+02      3.840179000000000E-01     -3.940039000000000E+01      3.730469000000000E-01     -1.478906000000000E+02      7.319641000000000E-01     -7.455859000000000E+01
4845000000.000000      7.126160000000000E-01     -1.659219000000000E+02      3.854065000000000E-01     -3.988867000000000E+01      3.746796000000000E-01     -1.482344000000000E+02      7.358704000000000E-01     -7.444530000000000E+01
4846000000.000000      7.201538000000000E-01     -1.658437000000000E+02      3.866119000000000E-01     -4.044531000000000E+01      3.767853000000000E-01     -1.482578000000000E+02      7.410278000000000E-01     -7.446484000000000E+01
4847000000.000000      7.279663000000000E-01     -1.658750000000000E+02      3.877869000000000E-01     -4.092187000000000E+01      3.788147000000000E-01     -1.485312000000000E+02      7.462158000000000E-01     -7.452343000000000E+01
4848000000.000000      7.346802000000000E-01     -1.658047000000000E+02      3.877563000000000E-01     -4.146484000000000E+01      3.798676000000000E-01     -1.487031000000000E+02      7.502441000000000E-01     -7.446875000000000E+01
4849000000.000000      7.421875000000000E-01     -1.660000000000000E+02      3.887634000000000E-01     -4.222461000000000E+01      3.816528000000000E-01     -1.488828000000000E+02      7.553711000000000E-01     -7.450390000000000E+01
4850000000.000000      7.496338000000000E-01     -1.658047000000000E+02      3.895416000000000E-01     -4.265038000000000E+01      3.834839000000000E-01     -1.489297000000000E+02      7.596741000000000E-01     -7.449219000000000E+01
4851000000.000000      7.564697000000000E-01     -1.658125000000000E+02      3.896027000000000E-01     -4.317383000000000E+01      3.847351000000000E-01     -1.491641000000000E+02      7.653809000000000E-01     -7.453515000000000E+01
4852000000.000000      7.633972000000000E-01     -1.657812000000000E+02      3.907623000000000E-01     -4.373242000000000E+01      3.868103000000000E-01     -1.492812000000000E+02      7.682190000000000E-01     -7.460546000000000E+01
4853000000.000000      7.706299000000000E-01     -1.657422000000000E+02      3.894196000000000E-01     -4.423047000000000E+01      3.885651000000000E-01     -1.495703000000000E+02      7.738953000000000E-01     -7.464453000000000E+01
4854000000.000000      7.768860000000000E-01     -1.658281000000000E+02      3.903809000000000E-01     -4.489453000000000E+01      3.899536000000000E-01     -1.496953000000000E+02      7.781677000000000E-01     -7.466797000000000E+01
4855000000.000000      7.814026000000000E-01     -1.657578000000000E+02      3.900604000000000E-01     -4.526757000000000E+01      3.908234000000000E-01     -1.498281000000000E+02      7.818909000000000E-01     -7.462500000000000E+01
4856000000.000000      7.901611000000000E-01     -1.657500000000000E+02      3.901367000000000E-01     -4.574414000000000E+01      3.920593000000000E-01     -1.500469000000000E+02      7.881470000000000E-01     -7.469140000000000E+01
4857000000.000000      7.962952000000000E-01     -1.658281000000000E+02      3.899384000000000E-01     -4.631249000000000E+01      3.928223000000000E-01     -1.502109000000000E+02      7.929077000000000E-01     -7.478906000000000E+01
4858000000.000000      8.005066000000000E-01     -1.658359000000000E+02      3.902893000000000E-01     -4.675390000000000E+01      3.938904000000000E-01     -1.503672000000000E+02      7.979126000000000E-01     -7.482422000000000E+01
4859000000.000000      8.072205000000000E-01     -1.658437000000000E+02      3.891907000000000E-01     -4.721680000000000E+01      3.953552000000000E-01     -1.507266000000000E+02      8.038940000000000E-01     -7.501953000000000E+01
4860000000.000000      8.141174000000000E-01     -1.658516000000000E+02      3.894348000000000E-01     -4.761914000000000E+01      3.958740000000000E-01     -1.507656000000000E+02      8.067322000000000E-01     -7.482031000000000E+01
4861000000.000000      8.204956000000000E-01     -1.658437000000000E+02      3.876648000000000E-01     -4.819921000000000E+01      3.976288000000000E-01     -1.509375000000000E+02      8.122864000000000E-01     -7.499609000000000E+01
4862000000.000000      8.244324000000000E-01     -1.657500000000000E+02      3.879700000000000E-01     -4.857226000000000E+01      3.990173000000000E-01     -1.510391000000000E+02      8.182983000000000E-01     -7.500781000000000E+01
4863000000.000000      8.287964000000000E-01     -1.657578000000000E+02      3.865509000000000E-01     -4.915625000000000E+01      4.000702000000000E-01     -1.512109000000000E+02      8.235168000000000E-01     -7.510547000000000E+01
4864000000.000000      8.354492000000000E-01     -1.659609000000000E+02      3.861542000000000E-01     -4.940234000000000E+01      4.000092000000000E-01     -1.514297000000000E+02      8.277588000000000E-01     -7.523046000000000E+01
4865000000.000000      8.384399000000000E-01     -1.660156000000000E+02      3.847504000000000E-01     -4.985352000000000E+01      4.013519000000000E-01     -1.516406000000000E+02      8.337708000000000E-01     -7.517968000000000E+01
4866000000.000000      8.436279000000000E-01     -1.657734000000000E+02      3.842926000000000E-01     -5.022851000000000E+01      4.022064000000000E-01     -1.517969000000000E+02      8.368225000000000E-01     -7.522655000000000E+01
4867000000.000000      8.485718000000000E-01     -1.657891000000000E+02      3.837433000000000E-01     -5.074609000000000E+01      4.033661000000000E-01     -1.518437000000000E+02      8.425903000000000E-01     -7.543750000000000E+01
4868000000.000000      8.522644000000000E-01     -1.658672000000000E+02      3.825836000000000E-01     -5.112109000000000E+01      4.043732000000000E-01     -1.521094000000000E+02      8.474731000000000E-01     -7.549218000000000E+01
4869000000.000000      8.569031000000000E-01     -1.657422000000000E+02      3.809357000000000E-01     -5.149023000000000E+01      4.045868000000000E-01     -1.522578000000000E+02      8.521118000000000E-01     -7.569140000000000E+01
4870000000.000000      8.610229000000000E-01     -1.659688000000000E+02      3.798676000000000E-01     -5.170116000000000E+01      4.052582000000000E-01     -1.524765000000000E+02      8.567810000000000E-01     -7.559765000000000E+01
4871000000.000000      8.644104000000000E-01     -1.658203000000000E+02      3.786011000000000E-01     -5.209961000000000E+01      4.052124000000000E-01     -1.526406000000000E+02      8.606567000000000E-01     -7.587891000000000E+01
4872000000.000000      8.683777000000000E-01     -1.657344000000000E+02      3.768921000000000E-01     -5.237499000000000E+01      4.059906000000000E-01     -1.529922000000000E+02      8.654175000000000E-01     -7.583202000000000E+01
4873000000.000000      8.719788000000000E-01     -1.656328000000000E+02      3.757629000000000E-01     -5.272655000000000E+01      4.059143000000000E-01     -1.529453000000000E+02      8.701782000000000E-01     -7.608203000000000E+01
4874000000.000000      8.740234000000000E-01     -1.657109000000000E+02      3.744659000000000E-01     -5.304688000000000E+01      4.072876000000000E-01     -1.530703000000000E+02      8.738708000000000E-01     -7.601953000000000E+01
4875000000.000000      8.784180000000000E-01     -1.657578000000000E+02      3.731384000000000E-01     -5.326562000000000E+01      4.076080000000000E-01     -1.534219000000000E+02      8.780212000000000E-01     -7.619141000000000E+01
4876000000.000000      8.790283000000000E-01     -1.656563000000000E+02      3.721008000000000E-01     -5.354101000000000E+01      4.068756000000000E-01     -1.535547000000000E+02      8.836975000000000E-01     -7.635547000000000E+01
4877000000.000000      8.828735000000000E-01     -1.656328000000000E+02      3.703766000000000E-01     -5.371484000000000E+01      4.081421000000000E-01     -1.537188000000000E+02      8.879700000000000E-01     -7.650391000000000E+01
4878000000.000000      8.881836000000000E-01     -1.655469000000000E+02      3.688507000000000E-01     -5.407031000000000E+01      4.080353000000000E-01     -1.537891000000000E+02      8.925781000000000E-01     -7.648828000000000E+01
4879000000.000000      8.903198000000000E-01     -1.655234000000000E+02      3.669891000000000E-01     -5.404882000000000E+01      4.080811000000000E-01     -1.539844000000000E+02      8.951416000000000E-01     -7.665625000000000E+01
4880000000.000000      8.914185000000000E-01     -1.654844000000000E+02      3.663330000000000E-01     -5.456640000000000E+01      4.086914000000000E-01     -1.540547000000000E+02      8.995361000000000E-01     -7.672265000000000E+01
4881000000.000000      8.942566000000000E-01     -1.653203000000000E+02      3.656616000000000E-01     -5.457617000000000E+01      4.089813000000000E-01     -1.543359000000000E+02      9.041443000000000E-01     -7.694530000000000E+01
4882000000.000000      8.945923000000000E-01     -1.651875000000000E+02      3.635101000000000E-01     -5.474999000000000E+01      4.085999000000000E-01     -1.544141000000000E+02      9.063110000000000E-01     -7.702343000000000E+01
