! Network Analyzer HP8722D
! Hewlett-Packard
! Data name: Linha & Wilkinson
! Saver's name: Rodrigo Anjos
! Comments: Teste da utilização de aquisição
continua pelo VNA HP8722D
! Time and date: 6/5/2025 13:01
!              Frequency                     S11                                                   S21                                                   S12                                                   S22
# HZ  S  MA R 50
4800000000.000000      9.041748000000000E-01      1.158516000000000E+02      3.195648000000000E-01     -1.705078000000000E+02      2.566681000000000E-01     -8.600780000000000E+01      9.839478000000000E-01     -4.747070000000000E+01
4801000000.000000      9.036560000000000E-01      1.159922000000000E+02      3.193359000000000E-01     -1.705469000000000E+02      2.562714000000000E-01     -8.603516000000000E+01      9.791870000000000E-01     -4.758594000000000E+01
4802000000.000000      9.016724000000000E-01      1.162812000000000E+02      3.191833000000000E-01     -1.703203000000000E+02      2.570190000000000E-01     -8.572266000000000E+01      9.755249000000000E-01     -4.745313000000000E+01
4803000000.000000      8.968201000000000E-01      1.165703000000000E+02      3.196564000000000E-01     -1.701484000000000E+02      2.561035000000000E-01     -8.561327000000000E+01      9.692993000000000E-01     -4.773046000000000E+01
4804000000.000000      8.981323000000000E-01      1.167812000000000E+02      3.203735000000000E-01     -1.702109000000000E+02      2.566376000000000E-01     -8.546484000000000E+01      9.643555000000000E-01     -4.769336000000000E+01
4805000000.000000      8.985596000000000E-01      1.169570000000000E+02      3.204956000000000E-01     -1.702734000000000E+02      2.563782000000000E-01     -8.517578000000000E+01      9.570923000000000E-01     -4.784961000000000E+01
4806000000.000000      8.933716000000000E-01      1.172890000000000E+02      3.212891000000000E-01     -1.700859000000000E+02      2.550201000000000E-01     -8.488281000000000E+01      9.510193000000000E-01     -4.793945000000000E+01
4807000000.000000      8.934326000000000E-01      1.174766000000000E+02      3.215942000000000E-01     -1.702734000000000E+02      2.561188000000000E-01     -8.487499000000000E+01      9.469299000000000E-01     -4.784180000000000E+01
4808000000.000000      8.902893000000000E-01      1.177422000000000E+02      3.230591000000000E-01     -1.701797000000000E+02      2.561646000000000E-01     -8.458984000000000E+01      9.398193000000000E-01     -4.794726000000000E+01
4809000000.000000      8.853760000000000E-01      1.180586000000000E+02      3.221130000000000E-01     -1.702656000000000E+02      2.566071000000000E-01     -8.433594000000000E+01      9.367676000000000E-01     -4.795703000000000E+01
4810000000.000000      8.869629000000000E-01      1.181523000000000E+02      3.233948000000000E-01     -1.701328000000000E+02      2.559357000000000E-01     -8.411718000000000E+01      9.297180000000000E-01     -4.815624000000000E+01
4811000000.000000      8.862305000000000E-01      1.184883000000000E+02      3.240662000000000E-01     -1.702266000000000E+02      2.572021000000000E-01     -8.388281000000000E+01      9.251404000000000E-01     -4.801952000000000E+01
4812000000.000000      8.826294000000000E-01      1.186914000000000E+02      3.238373000000000E-01     -1.702109000000000E+02      2.563171000000000E-01     -8.359375000000000E+01      9.181824000000000E-01     -4.823047000000000E+01
4813000000.000000      8.797302000000000E-01      1.190312000000000E+02      3.244629000000000E-01     -1.701719000000000E+02      2.565613000000000E-01     -8.337891000000000E+01      9.144287000000000E-01     -4.825195000000000E+01
4814000000.000000      8.704529000000000E-01      1.191914000000000E+02      3.249207000000000E-01     -1.702422000000000E+02      2.562714000000000E-01     -8.311327000000000E+01      9.088745000000000E-01     -4.829296000000000E+01
4815000000.000000      8.720093000000000E-01      1.195156000000000E+02      3.252869000000000E-01     -1.702656000000000E+02      2.565460000000000E-01     -8.283983000000000E+01      9.022522000000000E-01     -4.836914000000000E+01
4816000000.000000      8.705750000000000E-01      1.195586000000000E+02      3.272247000000000E-01     -1.701719000000000E+02      2.574615000000000E-01     -8.259375000000000E+01      8.993835000000000E-01     -4.847851000000000E+01
4817000000.000000      8.677979000000000E-01      1.200664000000000E+02      3.270111000000000E-01     -1.704922000000000E+02      2.562714000000000E-01     -8.227734000000000E+01      8.927002000000000E-01     -4.848827000000000E+01
4818000000.000000      8.656616000000000E-01      1.202891000000000E+02      3.276215000000000E-01     -1.703672000000000E+02      2.564850000000000E-01     -8.193750000000000E+01      8.867188000000000E-01     -4.856054000000000E+01
4819000000.000000      8.630066000000000E-01      1.204570000000000E+02      3.280029000000000E-01     -1.704844000000000E+02      2.557220000000000E-01     -8.176172000000000E+01      8.811646000000000E-01     -4.875195000000000E+01
4820000000.000000      8.551025000000000E-01      1.205625000000000E+02      3.285828000000000E-01     -1.705234000000000E+02      2.563782000000000E-01     -8.130859000000000E+01      8.760986000000000E-01     -4.864452000000000E+01
4821000000.000000      8.570862000000000E-01      1.207187000000000E+02      3.298950000000000E-01     -1.707344000000000E+02      2.561188000000000E-01     -8.112890000000000E+01      8.724670000000000E-01     -4.866015000000000E+01
4822000000.000000      8.510742000000000E-01      1.207578000000000E+02      3.301544000000000E-01     -1.707891000000000E+02      2.556763000000000E-01     -8.092968000000000E+01      8.658447000000000E-01     -4.883007000000000E+01
4823000000.000000      8.480835000000000E-01      1.211680000000000E+02      3.311768000000000E-01     -1.708125000000000E+02      2.554932000000000E-01     -8.033203000000000E+01      8.607483000000000E-01     -4.887109000000000E+01
4824000000.000000      8.453064000000000E-01      1.211523000000000E+02      3.316650000000000E-01     -1.712265000000000E+02      2.559814000000000E-01     -8.013281000000000E+01      8.562317000000000E-01     -4.895117000000000E+01
4825000000.000000      8.406982000000000E-01      1.213203000000000E+02      3.316498000000000E-01     -1.712109000000000E+02      2.560883000000000E-01     -7.991405000000000E+01      8.523254000000000E-01     -4.902538000000000E+01
4826000000.000000      8.380127000000000E-01      1.217109000000000E+02      3.335876000000000E-01     -1.713984000000000E+02      2.556000000000000E-01     -7.960155000000000E+01      8.475952000000000E-01     -4.916210000000000E+01
4827000000.000000      8.330688000000000E-01      1.217812000000000E+02      3.333893000000000E-01     -1.713750000000000E+02      2.556610000000000E-01     -7.920703000000000E+01      8.414307000000000E-01     -4.913280000000000E+01
4828000000.000000      8.313599000000000E-01      1.219258000000000E+02      3.344421000000000E-01     -1.715703000000000E+02      2.550659000000000E-01     -7.899219000000000E+01      8.368530000000000E-01     -4.930469000000000E+01
4829000000.000000      8.237610000000000E-01      1.220781000000000E+02      3.337097000000000E-01     -1.716875000000000E+02      2.561951000000000E-01     -7.867188000000000E+01      8.350525000000000E-01     -4.930273000000000E+01
4830000000.000000      8.225098000000000E-01      1.220820000000000E+02      3.341675000000000E-01     -1.719141000000000E+02      2.556152000000000E-01     -7.808984000000000E+01      8.287659000000000E-01     -4.940820000000000E+01
4831000000.000000      8.150940000000000E-01      1.223008000000000E+02      3.348541000000000E-01     -1.720859000000000E+02      2.558289000000000E-01     -7.778125000000000E+01      8.242798000000000E-01     -4.940820000000000E+01
4832000000.000000      8.154297000000000E-01      1.223398000000000E+02      3.351898000000000E-01     -1.723438000000000E+02      2.556152000000000E-01     -7.750390000000000E+01      8.207092000000000E-01     -4.946875000000000E+01
4833000000.000000      8.078003000000000E-01      1.223125000000000E+02      3.357239000000000E-01     -1.725703000000000E+02      2.557831000000000E-01     -7.719531000000000E+01      8.152466000000000E-01     -4.958593000000000E+01
4834000000.000000      8.021545000000000E-01      1.225977000000000E+02      3.365784000000000E-01     -1.728203000000000E+02      2.563019000000000E-01     -7.679296000000000E+01      8.105164000000000E-01     -4.958593000000000E+01
4835000000.000000      7.991333000000000E-01      1.225742000000000E+02      3.366547000000000E-01     -1.729063000000000E+02      2.566528000000000E-01     -7.646093000000000E+01      8.067932000000000E-01     -4.979297000000000E+01
4836000000.000000      7.956543000000000E-01      1.226250000000000E+02      3.363953000000000E-01     -1.731797000000000E+02      2.563934000000000E-01     -7.608984000000000E+01      8.033752000000000E-01     -4.974023000000000E+01
4837000000.000000      7.900696000000000E-01      1.228516000000000E+02      3.361816000000000E-01     -1.735234000000000E+02      2.567749000000000E-01     -7.581249000000000E+01      7.996826000000000E-01     -4.977148000000000E+01
4838000000.000000      7.842407000000000E-01      1.226797000000000E+02      3.370209000000000E-01     -1.736875000000000E+02      2.565308000000000E-01     -7.530859000000000E+01      7.955017000000000E-01     -4.984961000000000E+01
4839000000.000000      7.800903000000000E-01      1.229023000000000E+02      3.362427000000000E-01     -1.737422000000000E+02      2.567596000000000E-01     -7.517187000000000E+01      7.912292000000000E-01     -4.993554000000000E+01
4840000000.000000      7.718811000000000E-01      1.228828000000000E+02      3.366852000000000E-01     -1.739063000000000E+02      2.574463000000000E-01     -7.480469000000000E+01      7.882996000000000E-01     -5.004101000000000E+01
4841000000.000000      7.687378000000000E-01      1.227344000000000E+02      3.370056000000000E-01     -1.744219000000000E+02      2.572937000000000E-01     -7.447266000000000E+01      7.856750000000000E-01     -5.006445000000000E+01
4842000000.000000      7.634277000000000E-01      1.228594000000000E+02      3.364868000000000E-01     -1.745781000000000E+02      2.570038000000000E-01     -7.406640000000000E+01      7.827148000000000E-01     -5.008789000000000E+01
4843000000.000000      7.578735000000000E-01      1.227500000000000E+02      3.360596000000000E-01     -1.747890000000000E+02      2.575073000000000E-01     -7.376562000000000E+01      7.783203000000000E-01     -5.013672000000000E+01
4844000000.000000      7.542419000000000E-01      1.225898000000000E+02      3.360138000000000E-01     -1.750937000000000E+02      2.575836000000000E-01     -7.339453000000000E+01      7.743225000000000E-01     -5.022265000000000E+01
4845000000.000000      7.452698000000000E-01      1.226641000000000E+02      3.354950000000000E-01     -1.752891000000000E+02      2.585449000000000E-01     -7.310547000000000E+01      7.709961000000000E-01     -5.025000000000000E+01
4846000000.000000      7.418213000000000E-01      1.225937000000000E+02      3.358154000000000E-01     -1.754297000000000E+02      2.589264000000000E-01     -7.274609000000000E+01      7.670593000000000E-01     -5.036327000000000E+01
4847000000.000000      7.359924000000000E-01      1.226914000000000E+02      3.354492000000000E-01     -1.756641000000000E+02      2.592316000000000E-01     -7.249218000000000E+01      7.643433000000000E-01     -5.051952000000000E+01
4848000000.000000      7.312012000000000E-01      1.222890000000000E+02      3.340607000000000E-01     -1.759531000000000E+02      2.592316000000000E-01     -7.206249000000000E+01      7.603455000000000E-01     -5.046484000000000E+01
4849000000.000000      7.247620000000000E-01      1.222734000000000E+02      3.339539000000000E-01     -1.763515000000000E+02      2.593536000000000E-01     -7.173828000000000E+01      7.576294000000000E-01     -5.052343000000000E+01
4850000000.000000      7.196655000000000E-01      1.222344000000000E+02      3.330688000000000E-01     -1.764766000000000E+02      2.595673000000000E-01     -7.149219000000000E+01      7.545471000000000E-01     -5.061718000000000E+01
4851000000.000000      7.117310000000000E-01      1.221445000000000E+02      3.331909000000000E-01     -1.767266000000000E+02      2.601166000000000E-01     -7.124218000000000E+01      7.534180000000000E-01     -5.064843000000000E+01
4852000000.000000      7.056885000000000E-01      1.218789000000000E+02      3.325348000000000E-01     -1.769687000000000E+02      2.605896000000000E-01     -7.069921000000000E+01      7.502441000000000E-01     -5.069140000000000E+01
4853000000.000000      7.010498000000000E-01      1.216758000000000E+02      3.308105000000000E-01     -1.771953000000000E+02      2.609863000000000E-01     -7.057812000000000E+01      7.471924000000000E-01     -5.082617000000000E+01
4854000000.000000      6.930542000000000E-01      1.215195000000000E+02      3.297882000000000E-01     -1.775625000000000E+02      2.613068000000000E-01     -7.031640000000000E+01      7.449341000000000E-01     -5.083398000000000E+01
4855000000.000000      6.889648000000000E-01      1.214453000000000E+02      3.289642000000000E-01     -1.777812000000000E+02      2.615356000000000E-01     -6.992578000000000E+01      7.401123000000000E-01     -5.089257000000000E+01
4856000000.000000      6.832886000000000E-01      1.212695000000000E+02      3.288574000000000E-01     -1.778125000000000E+02      2.616577000000000E-01     -6.980859000000000E+01      7.390442000000000E-01     -5.091601000000000E+01
4857000000.000000      6.761169000000000E-01      1.210156000000000E+02      3.282166000000000E-01     -1.782578000000000E+02      2.621460000000000E-01     -6.934765000000000E+01      7.355957000000000E-01     -5.100195000000000E+01
4858000000.000000      6.688538000000000E-01      1.205586000000000E+02      3.271027000000000E-01     -1.783281000000000E+02      2.623596000000000E-01     -6.911327000000000E+01      7.337646000000000E-01     -5.117188000000000E+01
4859000000.000000      6.649780000000000E-01      1.203398000000000E+02      3.264771000000000E-01     -1.786797000000000E+02      2.631073000000000E-01     -6.905468000000000E+01      7.327271000000000E-01     -5.124218000000000E+01
4860000000.000000      6.576538000000000E-01      1.203281000000000E+02      3.251038000000000E-01     -1.787344000000000E+02      2.629852000000000E-01     -6.862890000000000E+01      7.285156000000000E-01     -5.110742000000000E+01
4861000000.000000      6.513672000000000E-01      1.199219000000000E+02      3.243103000000000E-01     -1.791406000000000E+02      2.634277000000000E-01     -6.842968000000000E+01      7.263184000000000E-01     -5.128906000000000E+01
4862000000.000000      6.440430000000000E-01      1.196875000000000E+02      3.237000000000000E-01     -1.791953000000000E+02      2.641602000000000E-01     -6.816015000000000E+01      7.246704000000000E-01     -5.131054000000000E+01
4863000000.000000      6.364136000000000E-01      1.193203000000000E+02      3.214264000000000E-01     -1.794609000000000E+02      2.643585000000000E-01     -6.796484000000000E+01      7.228088000000000E-01     -5.128124000000000E+01
4864000000.000000      6.335754000000000E-01      1.190586000000000E+02      3.211670000000000E-01     -1.795625000000000E+02      2.643127000000000E-01     -6.774609000000000E+01      7.196655000000000E-01     -5.145508000000000E+01
4865000000.000000      6.253357000000000E-01      1.186562000000000E+02      3.193359000000000E-01     -1.796172000000000E+02      2.647705000000000E-01     -6.767578000000000E+01      7.188416000000000E-01     -5.132813000000000E+01
4866000000.000000      6.209412000000000E-01      1.182070000000000E+02      3.179016000000000E-01     -1.798906000000000E+02      2.647400000000000E-01     -6.751171000000000E+01      7.153015000000000E-01     -5.143555000000000E+01
4867000000.000000      6.148987000000000E-01      1.180039000000000E+02      3.180084000000000E-01      1.797344000000000E+02      2.654572000000000E-01     -6.719921000000000E+01      7.145996000000000E-01     -5.147851000000000E+01
4868000000.000000      6.088562000000000E-01      1.175508000000000E+02      3.163452000000000E-01      1.796641000000000E+02      2.661285000000000E-01     -6.713281000000000E+01      7.112427000000000E-01     -5.149414000000000E+01
4869000000.000000      6.035156000000000E-01      1.171484000000000E+02      3.144073000000000E-01      1.795547000000000E+02      2.656555000000000E-01     -6.699219000000000E+01      7.098083000000000E-01     -5.159765000000000E+01
4870000000.000000      5.983887000000000E-01      1.167578000000000E+02      3.141785000000000E-01      1.795547000000000E+02      2.664032000000000E-01     -6.682422000000000E+01      7.086792000000000E-01     -5.149609000000000E+01
4871000000.000000      5.930176000000000E-01      1.164570000000000E+02      3.126068000000000E-01      1.792812000000000E+02      2.667694000000000E-01     -6.675390000000000E+01      7.055969000000000E-01     -5.167578000000000E+01
4872000000.000000      5.887146000000000E-01      1.159297000000000E+02      3.115387000000000E-01      1.792578000000000E+02      2.661896000000000E-01     -6.666406000000000E+01      7.048645000000000E-01     -5.160351000000000E+01
4873000000.000000      5.797119000000000E-01      1.155000000000000E+02      3.102112000000000E-01      1.790078000000000E+02      2.665863000000000E-01     -6.650000000000000E+01      7.004700000000000E-01     -5.174609000000000E+01
4874000000.000000      5.756531000000000E-01      1.150117000000000E+02      3.091278000000000E-01      1.788984000000000E+02      2.674866000000000E-01     -6.640625000000000E+01      6.990051000000000E-01     -5.157812000000000E+01
4875000000.000000      5.713196000000000E-01      1.145273000000000E+02      3.077087000000000E-01      1.788516000000000E+02      2.674408000000000E-01     -6.630077000000000E+01      6.973877000000000E-01     -5.161133000000000E+01
4876000000.000000      5.657043000000000E-01      1.141211000000000E+02      3.072052000000000E-01      1.786562000000000E+02      2.671356000000000E-01     -6.621094000000000E+01      6.963501000000000E-01     -5.188671000000000E+01
4877000000.000000      5.602417000000000E-01      1.135586000000000E+02      3.063965000000000E-01      1.785469000000000E+02      2.675323000000000E-01     -6.623047000000000E+01      6.927185000000000E-01     -5.174999000000000E+01
4878000000.000000      5.543823000000000E-01      1.130586000000000E+02      3.043823000000000E-01      1.784609000000000E+02      2.674103000000000E-01     -6.594531000000000E+01      6.907349000000000E-01     -5.187890000000000E+01
4879000000.000000      5.507202000000000E-01      1.126250000000000E+02      3.024445000000000E-01      1.783906000000000E+02      2.669373000000000E-01     -6.596484000000000E+01      6.883850000000000E-01     -5.179688000000000E+01
4880000000.000000      5.463257000000000E-01      1.120586000000000E+02      3.025665000000000E-01      1.783125000000000E+02      2.676697000000000E-01     -6.586719000000000E+01      6.862793000000000E-01     -5.168554000000000E+01
4881000000.000000      5.409851000000000E-01      1.114883000000000E+02      3.010101000000000E-01      1.781953000000000E+02      2.675018000000000E-01     -6.592578000000000E+01      6.856384000000000E-01     -5.171679000000000E+01
4882000000.000000      5.379944000000000E-01      1.109727000000000E+02      2.996979000000000E-01      1.780937000000000E+02      2.676544000000000E-01     -6.583984000000000E+01      6.814575000000000E-01     -5.168554000000000E+01
