! Network Analyzer HP8722D
! Hewlett-Packard
! Data name: Linha & Wilkinson
! Saver's name: Rodrigo Anjos
! Comments: Teste da utilização de aquisição
continua pelo VNA HP8722D
! Time and date: 6/5/2025 13:23
!              Frequency                     S11                                                   S21                                                   S12                                                   S22
# HZ  S  MA R 50
4800000000.000000      9.071045000000000E-01      1.158555000000000E+02      3.202515000000000E-01     -1.704687000000000E+02      2.568970000000000E-01     -8.609766000000000E+01      9.833984000000000E-01     -4.754883000000000E+01
4801000000.000000      9.025574000000000E-01      1.159687000000000E+02      3.201141000000000E-01     -1.705078000000000E+02      2.564087000000000E-01     -8.617579000000000E+01      9.818726000000000E-01     -4.762304000000000E+01
4802000000.000000      9.001160000000000E-01      1.163281000000000E+02      3.201294000000000E-01     -1.703047000000000E+02      2.575836000000000E-01     -8.574610000000000E+01      9.750671000000000E-01     -4.761328000000000E+01
4803000000.000000      8.985596000000000E-01      1.164726000000000E+02      3.208008000000000E-01     -1.702656000000000E+02      2.567444000000000E-01     -8.569921000000000E+01      9.693604000000000E-01     -4.781250000000000E+01
4804000000.000000      8.972778000000000E-01      1.167070000000000E+02      3.208160000000000E-01     -1.701719000000000E+02      2.571564000000000E-01     -8.571875000000000E+01      9.645386000000000E-01     -4.771484000000000E+01
4805000000.000000      8.993530000000000E-01      1.170391000000000E+02      3.210907000000000E-01     -1.702500000000000E+02      2.567596000000000E-01     -8.532421000000000E+01      9.576721000000000E-01     -4.779492000000000E+01
4806000000.000000      8.944702000000000E-01      1.172031000000000E+02      3.218231000000000E-01     -1.701328000000000E+02      2.558289000000000E-01     -8.505077000000000E+01      9.527588000000000E-01     -4.801367000000000E+01
4807000000.000000      8.949585000000000E-01      1.173086000000000E+02      3.225403000000000E-01     -1.703359000000000E+02      2.563782000000000E-01     -8.500780000000000E+01      9.474792000000000E-01     -4.794531000000000E+01
4808000000.000000      8.907471000000000E-01      1.176875000000000E+02      3.234100000000000E-01     -1.700703000000000E+02      2.562256000000000E-01     -8.482422000000000E+01      9.411316000000000E-01     -4.806250000000000E+01
4809000000.000000      8.883362000000000E-01      1.179375000000000E+02      3.230438000000000E-01     -1.702891000000000E+02      2.566833000000000E-01     -8.458202000000000E+01      9.369812000000000E-01     -4.809960000000000E+01
4810000000.000000      8.868713000000000E-01      1.182422000000000E+02      3.235016000000000E-01     -1.701797000000000E+02      2.562561000000000E-01     -8.429688000000000E+01      9.328308000000000E-01     -4.817577000000000E+01
4811000000.000000      8.850098000000000E-01      1.185781000000000E+02      3.245697000000000E-01     -1.702734000000000E+02      2.575226000000000E-01     -8.404688000000000E+01      9.261780000000000E-01     -4.816992000000000E+01
4812000000.000000      8.827209000000000E-01      1.187383000000000E+02      3.239441000000000E-01     -1.701328000000000E+02      2.564697000000000E-01     -8.374609000000000E+01      9.199829000000000E-01     -4.827538000000000E+01
4813000000.000000      8.800354000000000E-01      1.191172000000000E+02      3.252106000000000E-01     -1.702188000000000E+02      2.562408000000000E-01     -8.352734000000000E+01      9.153748000000000E-01     -4.830468000000000E+01
4814000000.000000      8.744202000000000E-01      1.192500000000000E+02      3.255768000000000E-01     -1.702266000000000E+02      2.566986000000000E-01     -8.323828000000000E+01      9.097290000000000E-01     -4.840625000000000E+01
4815000000.000000      8.722229000000000E-01      1.194609000000000E+02      3.261719000000000E-01     -1.702578000000000E+02      2.566528000000000E-01     -8.293749000000000E+01      9.039307000000000E-01     -4.844531000000000E+01
4816000000.000000      8.716736000000000E-01      1.197461000000000E+02      3.276520000000000E-01     -1.702031000000000E+02      2.572784000000000E-01     -8.278124000000000E+01      8.997803000000000E-01     -4.853125000000000E+01
4817000000.000000      8.680725000000000E-01      1.198633000000000E+02      3.274078000000000E-01     -1.704297000000000E+02      2.567444000000000E-01     -8.242579000000000E+01      8.945923000000000E-01     -4.850586000000000E+01
4818000000.000000      8.649292000000000E-01      1.202266000000000E+02      3.284149000000000E-01     -1.704062000000000E+02      2.564697000000000E-01     -8.205858000000000E+01      8.870850000000000E-01     -4.858984000000000E+01
4819000000.000000      8.619080000000000E-01      1.203516000000000E+02      3.289490000000000E-01     -1.704375000000000E+02      2.559357000000000E-01     -8.193359000000000E+01      8.819885000000000E-01     -4.878906000000000E+01
4820000000.000000      8.569031000000000E-01      1.205898000000000E+02      3.292847000000000E-01     -1.704375000000000E+02      2.568665000000000E-01     -8.151171000000000E+01      8.786011000000000E-01     -4.877148000000000E+01
4821000000.000000      8.560181000000000E-01      1.209258000000000E+02      3.308105000000000E-01     -1.707187000000000E+02      2.566833000000000E-01     -8.135157000000000E+01      8.724670000000000E-01     -4.882421000000000E+01
4822000000.000000      8.540955000000000E-01      1.209101000000000E+02      3.305206000000000E-01     -1.708594000000000E+02      2.556458000000000E-01     -8.105078000000000E+01      8.674316000000000E-01     -4.899219000000000E+01
4823000000.000000      8.489990000000000E-01      1.209922000000000E+02      3.322601000000000E-01     -1.708203000000000E+02      2.560577000000000E-01     -8.052734000000000E+01      8.621216000000000E-01     -4.894726000000000E+01
4824000000.000000      8.453064000000000E-01      1.212070000000000E+02      3.321838000000000E-01     -1.712031000000000E+02      2.561798000000000E-01     -8.033594000000000E+01      8.576050000000000E-01     -4.898242000000000E+01
4825000000.000000      8.408508000000000E-01      1.214219000000000E+02      3.328552000000000E-01     -1.711094000000000E+02      2.564087000000000E-01     -8.007030000000000E+01      8.529358000000000E-01     -4.908593000000000E+01
4826000000.000000      8.372498000000000E-01      1.215469000000000E+02      3.342285000000000E-01     -1.714062000000000E+02      2.558746000000000E-01     -7.978125000000000E+01      8.491516000000000E-01     -4.919140000000000E+01
4827000000.000000      8.357544000000000E-01      1.217344000000000E+02      3.338470000000000E-01     -1.714062000000000E+02      2.555847000000000E-01     -7.946484000000000E+01      8.442383000000000E-01     -4.920898000000000E+01
4828000000.000000      8.329773000000000E-01      1.218437000000000E+02      3.348236000000000E-01     -1.716016000000000E+02      2.552490000000000E-01     -7.914844000000000E+01      8.395691000000000E-01     -4.941406000000000E+01
4829000000.000000      8.247986000000000E-01      1.220937000000000E+02      3.345642000000000E-01     -1.717891000000000E+02      2.568512000000000E-01     -7.878124000000000E+01      8.357239000000000E-01     -4.942187000000000E+01
4830000000.000000      8.235168000000000E-01      1.221016000000000E+02      3.356323000000000E-01     -1.720000000000000E+02      2.559204000000000E-01     -7.829296000000000E+01      8.296814000000000E-01     -4.949023000000000E+01
4831000000.000000      8.167419000000000E-01      1.222344000000000E+02      3.357697000000000E-01     -1.720937000000000E+02      2.561035000000000E-01     -7.792187000000000E+01      8.248291000000000E-01     -4.949219000000000E+01
4832000000.000000      8.140869000000000E-01      1.224180000000000E+02      3.357239000000000E-01     -1.722969000000000E+02      2.560730000000000E-01     -7.758594000000000E+01      8.204346000000000E-01     -4.956640000000000E+01
4833000000.000000      8.087158000000000E-01      1.223516000000000E+02      3.368530000000000E-01     -1.724688000000000E+02      2.556305000000000E-01     -7.730469000000000E+01      8.156738000000000E-01     -4.968945000000000E+01
4834000000.000000      8.056641000000000E-01      1.226211000000000E+02      3.365173000000000E-01     -1.728281000000000E+02      2.561951000000000E-01     -7.698828000000000E+01      8.123779000000000E-01     -4.971874000000000E+01
4835000000.000000      7.997131000000000E-01      1.225625000000000E+02      3.372040000000000E-01     -1.729453000000000E+02      2.566071000000000E-01     -7.660546000000000E+01      8.068848000000000E-01     -4.979492000000000E+01
4836000000.000000      7.967529000000000E-01      1.225352000000000E+02      3.366547000000000E-01     -1.732031000000000E+02      2.568817000000000E-01     -7.622656000000000E+01      8.042603000000000E-01     -4.977734000000000E+01
4837000000.000000      7.892456000000000E-01      1.226758000000000E+02      3.366852000000000E-01     -1.735859000000000E+02      2.568054000000000E-01     -7.602344000000000E+01      8.002014000000000E-01     -4.975195000000000E+01
4838000000.000000      7.838135000000000E-01      1.226563000000000E+02      3.380432000000000E-01     -1.736484000000000E+02      2.569733000000000E-01     -7.541406000000000E+01      7.956238000000000E-01     -4.996484000000000E+01
4839000000.000000      7.806396000000000E-01      1.228945000000000E+02      3.377228000000000E-01     -1.737734000000000E+02      2.573395000000000E-01     -7.532031000000000E+01      7.927856000000000E-01     -5.000586000000000E+01
4840000000.000000      7.747803000000000E-01      1.225937000000000E+02      3.371735000000000E-01     -1.739531000000000E+02      2.576904000000000E-01     -7.494531000000000E+01      7.887878000000000E-01     -4.998241000000000E+01
4841000000.000000      7.699585000000000E-01      1.226563000000000E+02      3.369598000000000E-01     -1.743594000000000E+02      2.580872000000000E-01     -7.451562000000000E+01      7.851563000000000E-01     -5.011719000000000E+01
4842000000.000000      7.655640000000000E-01      1.226914000000000E+02      3.372803000000000E-01     -1.744766000000000E+02      2.574768000000000E-01     -7.421484000000000E+01      7.835999000000000E-01     -5.020117000000000E+01
4843000000.000000      7.593384000000000E-01      1.226289000000000E+02      3.369293000000000E-01     -1.748437000000000E+02      2.580872000000000E-01     -7.395312000000000E+01      7.789001000000000E-01     -5.021289000000000E+01
4844000000.000000      7.540588000000000E-01      1.225430000000000E+02      3.369904000000000E-01     -1.750313000000000E+02      2.576599000000000E-01     -7.354687000000000E+01      7.752991000000000E-01     -5.030663000000000E+01
4845000000.000000      7.484436000000000E-01      1.228398000000000E+02      3.363647000000000E-01     -1.752812000000000E+02      2.585907000000000E-01     -7.332812000000000E+01      7.718506000000000E-01     -5.037695000000000E+01
4846000000.000000      7.448120000000000E-01      1.226836000000000E+02      3.363647000000000E-01     -1.754766000000000E+02      2.594299000000000E-01     -7.283593000000000E+01      7.678528000000000E-01     -5.037499000000000E+01
4847000000.000000      7.367859000000000E-01      1.227070000000000E+02      3.353424000000000E-01     -1.756406000000000E+02      2.592163000000000E-01     -7.267968000000000E+01      7.666321000000000E-01     -5.055273000000000E+01
4848000000.000000      7.330017000000000E-01      1.222070000000000E+02      3.345795000000000E-01     -1.759609000000000E+02      2.593231000000000E-01     -7.219140000000000E+01      7.617188000000000E-01     -5.054882000000000E+01
4849000000.000000      7.254944000000000E-01      1.220976000000000E+02      3.345490000000000E-01     -1.763125000000000E+02      2.597656000000000E-01     -7.190624000000000E+01      7.590332000000000E-01     -5.050390000000000E+01
4850000000.000000      7.192383000000000E-01      1.221289000000000E+02      3.340454000000000E-01     -1.765391000000000E+02      2.598724000000000E-01     -7.161327000000000E+01      7.556763000000000E-01     -5.062109000000000E+01
4851000000.000000      7.138367000000000E-01      1.221133000000000E+02      3.340302000000000E-01     -1.768516000000000E+02      2.605133000000000E-01     -7.136328000000000E+01      7.542114000000000E-01     -5.077538000000000E+01
4852000000.000000      7.065735000000000E-01      1.219609000000000E+02      3.330994000000000E-01     -1.770391000000000E+02      2.610321000000000E-01     -7.096874000000000E+01      7.508850000000000E-01     -5.075195000000000E+01
4853000000.000000      7.014771000000000E-01      1.216680000000000E+02      3.311768000000000E-01     -1.772187000000000E+02      2.613220000000000E-01     -7.064453000000000E+01      7.486267000000000E-01     -5.098633000000000E+01
4854000000.000000      6.943054000000000E-01      1.215273000000000E+02      3.309479000000000E-01     -1.776016000000000E+02      2.616119000000000E-01     -7.042969000000000E+01      7.463379000000000E-01     -5.094531000000000E+01
4855000000.000000      6.885986000000000E-01      1.214063000000000E+02      3.300171000000000E-01     -1.776953000000000E+02      2.618561000000000E-01     -7.012890000000000E+01      7.403870000000000E-01     -5.092187000000000E+01
4856000000.000000      6.841125000000000E-01      1.211680000000000E+02      3.297424000000000E-01     -1.779453000000000E+02      2.618408000000000E-01     -6.985937000000000E+01      7.402649000000000E-01     -5.097461000000000E+01
4857000000.000000      6.762085000000000E-01      1.209883000000000E+02      3.288269000000000E-01     -1.781406000000000E+02      2.629852000000000E-01     -6.947656000000000E+01      7.366028000000000E-01     -5.110742000000000E+01
4858000000.000000      6.700134000000000E-01      1.204648000000000E+02      3.282318000000000E-01     -1.784219000000000E+02      2.622070000000000E-01     -6.942968000000000E+01      7.344360000000000E-01     -5.117382000000000E+01
4859000000.000000      6.659851000000000E-01      1.203789000000000E+02      3.271790000000000E-01     -1.786094000000000E+02      2.630768000000000E-01     -6.919140000000000E+01      7.341309000000000E-01     -5.131054000000000E+01
4860000000.000000      6.596069000000000E-01      1.202031000000000E+02      3.259583000000000E-01     -1.788047000000000E+02      2.632904000000000E-01     -6.884375000000000E+01      7.291565000000000E-01     -5.119531000000000E+01
4861000000.000000      6.526489000000000E-01      1.199492000000000E+02      3.245239000000000E-01     -1.790469000000000E+02      2.641144000000000E-01     -6.852344000000000E+01      7.271729000000000E-01     -5.132813000000000E+01
4862000000.000000      6.450806000000000E-01      1.196562000000000E+02      3.240967000000000E-01     -1.791641000000000E+02      2.641907000000000E-01     -6.839453000000000E+01      7.257385000000000E-01     -5.139257000000000E+01
4863000000.000000      6.398315000000000E-01      1.193281000000000E+02      3.222809000000000E-01     -1.794922000000000E+02      2.648163000000000E-01     -6.817187000000000E+01      7.232971000000000E-01     -5.138866000000000E+01
4864000000.000000      6.344299000000000E-01      1.189844000000000E+02      3.221130000000000E-01     -1.794688000000000E+02      2.646179000000000E-01     -6.779687000000000E+01      7.206421000000000E-01     -5.136132000000000E+01
4865000000.000000      6.267090000000000E-01      1.185195000000000E+02      3.198395000000000E-01     -1.797656000000000E+02      2.650757000000000E-01     -6.770702000000000E+01      7.189941000000000E-01     -5.141992000000000E+01
4866000000.000000      6.207886000000000E-01      1.183476000000000E+02      3.187866000000000E-01     -1.798594000000000E+02      2.655487000000000E-01     -6.758984000000000E+01      7.161560000000000E-01     -5.156445000000000E+01
4867000000.000000      6.141052000000000E-01      1.179453000000000E+02      3.179169000000000E-01      1.797031000000000E+02      2.655334000000000E-01     -6.742969000000000E+01      7.150269000000000E-01     -5.154101000000000E+01
4868000000.000000      6.092529000000000E-01      1.175078000000000E+02      3.172913000000000E-01      1.796406000000000E+02      2.663879000000000E-01     -6.719140000000000E+01      7.117920000000000E-01     -5.155273000000000E+01
4869000000.000000      6.026611000000000E-01      1.171328000000000E+02      3.153076000000000E-01      1.794922000000000E+02      2.662201000000000E-01     -6.706640000000000E+01      7.105408000000000E-01     -5.172265000000000E+01
4870000000.000000      5.982666000000000E-01      1.168359000000000E+02      3.143463000000000E-01      1.794844000000000E+02      2.666779000000000E-01     -6.689062000000000E+01      7.087097000000000E-01     -5.153125000000000E+01
4871000000.000000      5.909119000000000E-01      1.161992000000000E+02      3.137665000000000E-01      1.791719000000000E+02      2.665558000000000E-01     -6.679688000000000E+01      7.064514000000000E-01     -5.179688000000000E+01
4872000000.000000      5.873413000000000E-01      1.158750000000000E+02      3.115540000000000E-01      1.792266000000000E+02      2.673187000000000E-01     -6.695703000000000E+01      7.054749000000000E-01     -5.176562000000000E+01
4873000000.000000      5.825806000000000E-01      1.154805000000000E+02      3.111267000000000E-01      1.790313000000000E+02      2.666168000000000E-01     -6.662109000000000E+01      7.020264000000000E-01     -5.177734000000000E+01
4874000000.000000      5.740356000000000E-01      1.149766000000000E+02      3.094635000000000E-01      1.788437000000000E+02      2.677155000000000E-01     -6.644921000000000E+01      6.999207000000000E-01     -5.169140000000000E+01
4875000000.000000      5.711365000000000E-01      1.144687000000000E+02      3.083954000000000E-01      1.786719000000000E+02      2.682648000000000E-01     -6.640234000000000E+01      6.983948000000000E-01     -5.172656000000000E+01
4876000000.000000      5.664368000000000E-01      1.140898000000000E+02      3.070221000000000E-01      1.786328000000000E+02      2.673340000000000E-01     -6.648046000000000E+01      6.972351000000000E-01     -5.190039000000000E+01
4877000000.000000      5.599670000000000E-01      1.135508000000000E+02      3.054810000000000E-01      1.785469000000000E+02      2.678528000000000E-01     -6.628124000000000E+01      6.943970000000000E-01     -5.185937000000000E+01
4878000000.000000      5.548096000000000E-01      1.130156000000000E+02      3.052521000000000E-01      1.784531000000000E+02      2.678833000000000E-01     -6.613281000000000E+01      6.927490000000000E-01     -5.192773000000000E+01
4879000000.000000      5.513916000000000E-01      1.125352000000000E+02      3.032532000000000E-01      1.784141000000000E+02      2.677460000000000E-01     -6.619531000000000E+01      6.903992000000000E-01     -5.187109000000000E+01
4880000000.000000      5.460815000000000E-01      1.118633000000000E+02      3.025055000000000E-01      1.783594000000000E+02      2.677460000000000E-01     -6.597265000000000E+01      6.884155000000000E-01     -5.175390000000000E+01
4881000000.000000      5.426025000000000E-01      1.113906000000000E+02      3.027344000000000E-01      1.782656000000000E+02      2.681122000000000E-01     -6.601563000000000E+01      6.855774000000000E-01     -5.174218000000000E+01
4882000000.000000      5.374146000000000E-01      1.111055000000000E+02      3.005066000000000E-01      1.781641000000000E+02      2.678986000000000E-01     -6.601953000000000E+01      6.830139000000000E-01     -5.178320000000000E+01
