! Network Analyzer HP8722D
! Hewlett-Packard
! Data name: Linha & Wilkinson
! Saver's name: Rodrigo Anjos
! Comments: Teste da utilização de aquisição
continua pelo VNA HP8722D
! Time and date: 6/5/2025 14:12
!              Frequency                     S11                                                   S21                                                   S12                                                   S22
# HZ  S  MA R 50
4800000000.000000      4.975281000000000E-01     -1.683125000000000E+02      2.528076000000000E-01     -1.988281000000000E+01      2.496948000000000E-01     -1.410156000000000E+02      6.474915000000000E-01     -8.036718000000000E+01
4801000000.000000      4.990692000000000E-01     -1.683359000000000E+02      2.567139000000000E-01     -2.002441000000000E+01      2.526855000000000E-01     -1.410938000000000E+02      6.465454000000000E-01     -8.008984000000000E+01
4802000000.000000      4.998474000000000E-01     -1.683984000000000E+02      2.606812000000000E-01     -2.019726000000000E+01      2.567291000000000E-01     -1.411484000000000E+02      6.446838000000000E-01     -7.971093000000000E+01
4803000000.000000      5.016479000000000E-01     -1.684375000000000E+02      2.654266000000000E-01     -2.040918000000000E+01      2.599182000000000E-01     -1.411406000000000E+02      6.452637000000000E-01     -7.962500000000000E+01
4804000000.000000      5.040283000000000E-01     -1.684844000000000E+02      2.688446000000000E-01     -2.066895000000000E+01      2.639465000000000E-01     -1.413437000000000E+02      6.445923000000000E-01     -7.942577000000000E+01
4805000000.000000      5.063171000000000E-01     -1.685469000000000E+02      2.726898000000000E-01     -2.102832000000000E+01      2.673645000000000E-01     -1.412969000000000E+02      6.442261000000000E-01     -7.929688000000000E+01
4806000000.000000      5.075073000000000E-01     -1.685234000000000E+02      2.773895000000000E-01     -2.135547000000000E+01      2.700195000000000E-01     -1.413672000000000E+02      6.429138000000000E-01     -7.911327000000000E+01
4807000000.000000      5.109253000000000E-01     -1.684844000000000E+02      2.810516000000000E-01     -2.159375000000000E+01      2.742157000000000E-01     -1.416016000000000E+02      6.432190000000000E-01     -7.885937000000000E+01
4808000000.000000      5.135803000000000E-01     -1.684219000000000E+02      2.853088000000000E-01     -2.185547000000000E+01      2.775269000000000E-01     -1.416797000000000E+02      6.424866000000000E-01     -7.858984000000000E+01
4809000000.000000      5.158081000000000E-01     -1.684297000000000E+02      2.891998000000000E-01     -2.239453000000000E+01      2.819366000000000E-01     -1.419297000000000E+02      6.429443000000000E-01     -7.845312000000000E+01
4810000000.000000      5.192261000000000E-01     -1.684922000000000E+02      2.933807000000000E-01     -2.266406000000000E+01      2.852325000000000E-01     -1.419531000000000E+02      6.448364000000000E-01     -7.831249000000000E+01
4811000000.000000      5.223083000000000E-01     -1.683828000000000E+02      2.969666000000000E-01     -2.312695000000000E+01      2.893829000000000E-01     -1.420156000000000E+02      6.441345000000000E-01     -7.796875000000000E+01
4812000000.000000      5.259094000000000E-01     -1.683516000000000E+02      3.010406000000000E-01     -2.349902000000000E+01      2.920685000000000E-01     -1.421719000000000E+02      6.447754000000000E-01     -7.781640000000000E+01
4813000000.000000      5.287781000000000E-01     -1.683203000000000E+02      3.035736000000000E-01     -2.380957000000000E+01      2.951355000000000E-01     -1.422656000000000E+02      6.453857000000000E-01     -7.757421000000000E+01
4814000000.000000      5.311584000000000E-01     -1.683594000000000E+02      3.078613000000000E-01     -2.430469000000000E+01      2.986298000000000E-01     -1.424375000000000E+02      6.456909000000000E-01     -7.744531000000000E+01
4815000000.000000      5.350037000000000E-01     -1.682109000000000E+02      3.111572000000000E-01     -2.460546000000000E+01      3.017273000000000E-01     -1.426406000000000E+02      6.477966000000000E-01     -7.724609000000000E+01
4816000000.000000      5.400085000000000E-01     -1.681094000000000E+02      3.153534000000000E-01     -2.485742000000000E+01      3.058319000000000E-01     -1.428047000000000E+02      6.491394000000000E-01     -7.701953000000000E+01
4817000000.000000      5.442505000000000E-01     -1.680000000000000E+02      3.188477000000000E-01     -2.558105000000000E+01      3.080444000000000E-01     -1.429766000000000E+02      6.494141000000000E-01     -7.696484000000000E+01
4818000000.000000      5.481873000000000E-01     -1.680312000000000E+02      3.221130000000000E-01     -2.593750000000000E+01      3.109894000000000E-01     -1.430781000000000E+02      6.504822000000000E-01     -7.671093000000000E+01
4819000000.000000      5.534668000000000E-01     -1.679219000000000E+02      3.250732000000000E-01     -2.641992000000000E+01      3.137054000000000E-01     -1.433438000000000E+02      6.534424000000000E-01     -7.660937000000000E+01
4820000000.000000      5.553894000000000E-01     -1.678437000000000E+02      3.281860000000000E-01     -2.679980000000000E+01      3.173828000000000E-01     -1.434766000000000E+02      6.551208000000000E-01     -7.634375000000000E+01
4821000000.000000      5.618896000000000E-01     -1.677891000000000E+02      3.322449000000000E-01     -2.729883000000000E+01      3.199921000000000E-01     -1.437734000000000E+02      6.556702000000000E-01     -7.634375000000000E+01
4822000000.000000      5.682373000000000E-01     -1.677344000000000E+02      3.354950000000000E-01     -2.781543000000000E+01      3.224487000000000E-01     -1.439375000000000E+02      6.595154000000000E-01     -7.614452000000000E+01
4823000000.000000      5.713501000000000E-01     -1.676328000000000E+02      3.384399000000000E-01     -2.825684000000000E+01      3.257599000000000E-01     -1.439922000000000E+02      6.604919000000000E-01     -7.599999000000000E+01
4824000000.000000      5.784607000000000E-01     -1.675781000000000E+02      3.412781000000000E-01     -2.901269000000000E+01      3.291168000000000E-01     -1.442500000000000E+02      6.636047000000000E-01     -7.591406000000000E+01
4825000000.000000      5.820618000000000E-01     -1.674766000000000E+02      3.444977000000000E-01     -2.937402000000000E+01      3.319702000000000E-01     -1.444375000000000E+02      6.659546000000000E-01     -7.572656000000000E+01
4826000000.000000      5.885620000000000E-01     -1.672969000000000E+02      3.475342000000000E-01     -2.984668000000000E+01      3.333740000000000E-01     -1.447109000000000E+02      6.684570000000000E-01     -7.560547000000000E+01
4827000000.000000      5.938416000000000E-01     -1.672266000000000E+02      3.509979000000000E-01     -3.013184000000000E+01      3.361206000000000E-01     -1.448516000000000E+02      6.701965000000000E-01     -7.550390000000000E+01
4828000000.000000      6.012268000000000E-01     -1.671328000000000E+02      3.536835000000000E-01     -3.068848000000000E+01      3.384857000000000E-01     -1.450391000000000E+02      6.751709000000000E-01     -7.535937000000000E+01
4829000000.000000      6.042480000000000E-01     -1.669844000000000E+02      3.554535000000000E-01     -3.142578000000000E+01      3.415070000000000E-01     -1.452031000000000E+02      6.770325000000000E-01     -7.526953000000000E+01
4830000000.000000      6.117859000000000E-01     -1.669922000000000E+02      3.580780000000000E-01     -3.197168000000000E+01      3.437500000000000E-01     -1.453359000000000E+02      6.795044000000000E-01     -7.529297000000000E+01
4831000000.000000      6.167603000000000E-01     -1.668906000000000E+02      3.607025000000000E-01     -3.246289000000000E+01      3.463440000000000E-01     -1.456172000000000E+02      6.840515000000000E-01     -7.511328000000000E+01
4832000000.000000      6.257324000000000E-01     -1.667656000000000E+02      3.637848000000000E-01     -3.309765000000000E+01      3.480530000000000E-01     -1.458359000000000E+02      6.857605000000000E-01     -7.516406000000000E+01
4833000000.000000      6.313171000000000E-01     -1.667812000000000E+02      3.656006000000000E-01     -3.350390000000000E+01      3.508301000000000E-01     -1.461016000000000E+02      6.890259000000000E-01     -7.507813000000000E+01
4834000000.000000      6.378479000000000E-01     -1.666797000000000E+02      3.679352000000000E-01     -3.404101000000000E+01      3.532562000000000E-01     -1.461875000000000E+02      6.927490000000000E-01     -7.500390000000000E+01
4835000000.000000      6.437378000000000E-01     -1.665859000000000E+02      3.701172000000000E-01     -3.462305000000000E+01      3.559113000000000E-01     -1.464141000000000E+02      6.962280000000000E-01     -7.491796000000000E+01
4836000000.000000      6.528320000000000E-01     -1.664922000000000E+02      3.720856000000000E-01     -3.516211000000000E+01      3.577271000000000E-01     -1.465859000000000E+02      7.015381000000000E-01     -7.480469000000000E+01
4837000000.000000      6.596985000000000E-01     -1.663594000000000E+02      3.740234000000000E-01     -3.590820000000000E+01      3.596497000000000E-01     -1.468906000000000E+02      7.037659000000000E-01     -7.473046000000000E+01
4838000000.000000      6.654663000000000E-01     -1.663828000000000E+02      3.766327000000000E-01     -3.636914000000000E+01      3.618011000000000E-01     -1.469453000000000E+02      7.081909000000000E-01     -7.470312000000000E+01
4839000000.000000      6.727295000000000E-01     -1.662344000000000E+02      3.773193000000000E-01     -3.674219000000000E+01      3.635559000000000E-01     -1.470469000000000E+02      7.123413000000000E-01     -7.457031000000000E+01
4840000000.000000      6.780396000000000E-01     -1.662734000000000E+02      3.788452000000000E-01     -3.732617000000000E+01      3.658600000000000E-01     -1.474531000000000E+02      7.160034000000000E-01     -7.470703000000000E+01
4841000000.000000      6.868591000000000E-01     -1.663047000000000E+02      3.805847000000000E-01     -3.809375000000000E+01      3.681030000000000E-01     -1.476797000000000E+02      7.202759000000000E-01     -7.461719000000000E+01
4842000000.000000      6.941833000000000E-01     -1.661641000000000E+02      3.824463000000000E-01     -3.851171000000000E+01      3.688812000000000E-01     -1.477656000000000E+02      7.255554000000000E-01     -7.457031000000000E+01
4843000000.000000      6.996460000000000E-01     -1.662266000000000E+02      3.835449000000000E-01     -3.919922000000000E+01      3.712769000000000E-01     -1.479922000000000E+02      7.288513000000000E-01     -7.459374000000000E+01
4844000000.000000      7.067871000000000E-01     -1.661562000000000E+02      3.842926000000000E-01     -3.965820000000000E+01      3.730011000000000E-01     -1.482031000000000E+02      7.328186000000000E-01     -7.458202000000000E+01
4845000000.000000      7.135925000000000E-01     -1.660859000000000E+02      3.849640000000000E-01     -4.023633000000000E+01      3.750305000000000E-01     -1.484141000000000E+02      7.364807000000000E-01     -7.457421000000000E+01
4846000000.000000      7.210999000000000E-01     -1.659765000000000E+02      3.865356000000000E-01     -4.067578000000000E+01      3.771667000000000E-01     -1.485703000000000E+02      7.417603000000000E-01     -7.456249000000000E+01
4847000000.000000      7.292175000000000E-01     -1.660469000000000E+02      3.870850000000000E-01     -4.127734000000000E+01      3.789520000000000E-01     -1.487578000000000E+02      7.469482000000000E-01     -7.460546000000000E+01
4848000000.000000      7.362976000000000E-01     -1.659922000000000E+02      3.874817000000000E-01     -4.177930000000000E+01      3.799744000000000E-01     -1.488750000000000E+02      7.498474000000000E-01     -7.460546000000000E+01
4849000000.000000      7.427979000000000E-01     -1.662344000000000E+02      3.892517000000000E-01     -4.246484000000000E+01      3.815918000000000E-01     -1.490937000000000E+02      7.548218000000000E-01     -7.449609000000000E+01
4850000000.000000      7.501831000000000E-01     -1.659375000000000E+02      3.894043000000000E-01     -4.280078000000000E+01      3.831635000000000E-01     -1.492031000000000E+02      7.602234000000000E-01     -7.456249000000000E+01
4851000000.000000      7.570190000000000E-01     -1.659609000000000E+02      3.908997000000000E-01     -4.362305000000000E+01      3.842621000000000E-01     -1.494375000000000E+02      7.643433000000000E-01     -7.462500000000000E+01
4852000000.000000      7.653503000000000E-01     -1.660547000000000E+02      3.895874000000000E-01     -4.398633000000000E+01      3.861084000000000E-01     -1.494844000000000E+02      7.694397000000000E-01     -7.465625000000000E+01
4853000000.000000      7.717590000000000E-01     -1.659609000000000E+02      3.891449000000000E-01     -4.447266000000000E+01      3.883057000000000E-01     -1.498281000000000E+02      7.745361000000000E-01     -7.477734000000000E+01
4854000000.000000      7.779541000000000E-01     -1.659609000000000E+02      3.904572000000000E-01     -4.519921000000000E+01      3.891754000000000E-01     -1.499219000000000E+02      7.799683000000000E-01     -7.474609000000000E+01
4855000000.000000      7.825317000000000E-01     -1.659765000000000E+02      3.897705000000000E-01     -4.550390000000000E+01      3.902283000000000E-01     -1.500859000000000E+02      7.835083000000000E-01     -7.470703000000000E+01
4856000000.000000      7.905273000000000E-01     -1.658984000000000E+02      3.898773000000000E-01     -4.597265000000000E+01      3.915100000000000E-01     -1.502969000000000E+02      7.886658000000000E-01     -7.479687000000000E+01
4857000000.000000      7.963562000000000E-01     -1.660000000000000E+02      3.893890000000000E-01     -4.650781000000000E+01      3.923798000000000E-01     -1.504219000000000E+02      7.929077000000000E-01     -7.479687000000000E+01
4858000000.000000      8.000183000000000E-01     -1.660156000000000E+02      3.895569000000000E-01     -4.695117000000000E+01      3.936462000000000E-01     -1.506797000000000E+02      7.977905000000000E-01     -7.493750000000000E+01
4859000000.000000      8.073730000000000E-01     -1.659062000000000E+02      3.886414000000000E-01     -4.757617000000000E+01      3.952942000000000E-01     -1.509844000000000E+02      8.046265000000000E-01     -7.501562000000000E+01
4860000000.000000      8.131104000000000E-01     -1.660078000000000E+02      3.887787000000000E-01     -4.793750000000000E+01      3.961639000000000E-01     -1.510156000000000E+02      8.075867000000000E-01     -7.498047000000000E+01
4861000000.000000      8.203735000000000E-01     -1.658750000000000E+02      3.880615000000000E-01     -4.854297000000000E+01      3.974457000000000E-01     -1.511328000000000E+02      8.117981000000000E-01     -7.507421000000000E+01
4862000000.000000      8.245239000000000E-01     -1.658203000000000E+02      3.878937000000000E-01     -4.879687000000000E+01      3.989716000000000E-01     -1.512812000000000E+02      8.190613000000000E-01     -7.511719000000000E+01
4863000000.000000      8.304443000000000E-01     -1.659688000000000E+02      3.866425000000000E-01     -4.943164000000000E+01      3.999023000000000E-01     -1.514453000000000E+02      8.227234000000000E-01     -7.511719000000000E+01
4864000000.000000      8.340759000000000E-01     -1.660078000000000E+02      3.861694000000000E-01     -4.954687000000000E+01      3.999786000000000E-01     -1.516016000000000E+02      8.264771000000000E-01     -7.529297000000000E+01
4865000000.000000      8.386841000000000E-01     -1.660781000000000E+02      3.850555000000000E-01     -4.999023000000000E+01      4.007721000000000E-01     -1.518359000000000E+02      8.332214000000000E-01     -7.519921000000000E+01
4866000000.000000      8.424377000000000E-01     -1.659688000000000E+02      3.833618000000000E-01     -5.053711000000000E+01      4.016266000000000E-01     -1.520625000000000E+02      8.376160000000000E-01     -7.537890000000000E+01
4867000000.000000      8.484497000000000E-01     -1.659765000000000E+02      3.835754000000000E-01     -5.089062000000000E+01      4.024506000000000E-01     -1.521953000000000E+02      8.426208000000000E-01     -7.552734000000000E+01
4868000000.000000      8.553162000000000E-01     -1.660469000000000E+02      3.820343000000000E-01     -5.140234000000000E+01      4.041901000000000E-01     -1.523047000000000E+02      8.464661000000000E-01     -7.547656000000000E+01
4869000000.000000      8.562927000000000E-01     -1.659531000000000E+02      3.802032000000000E-01     -5.169531000000000E+01      4.041595000000000E-01     -1.525547000000000E+02      8.527832000000000E-01     -7.570313000000000E+01
4870000000.000000      8.607483000000000E-01     -1.659219000000000E+02      3.798218000000000E-01     -5.177929000000000E+01      4.049530000000000E-01     -1.526484000000000E+02      8.575439000000000E-01     -7.573828000000000E+01
4871000000.000000      8.666687000000000E-01     -1.659375000000000E+02      3.787079000000000E-01     -5.244335000000000E+01      4.047394000000000E-01     -1.529063000000000E+02      8.605347000000000E-01     -7.592578000000000E+01
4872000000.000000      8.721313000000000E-01     -1.659375000000000E+02      3.764038000000000E-01     -5.231250000000000E+01      4.054260000000000E-01     -1.531875000000000E+02      8.659363000000000E-01     -7.599999000000000E+01
4873000000.000000      8.724976000000000E-01     -1.658906000000000E+02      3.743744000000000E-01     -5.304492000000000E+01      4.054413000000000E-01     -1.532187000000000E+02      8.703308000000000E-01     -7.607422000000000E+01
4874000000.000000      8.753357000000000E-01     -1.658437000000000E+02      3.741760000000000E-01     -5.336914000000000E+01      4.069519000000000E-01     -1.532969000000000E+02      8.741150000000000E-01     -7.612890000000000E+01
4875000000.000000      8.794861000000000E-01     -1.659297000000000E+02      3.725433000000000E-01     -5.352148000000000E+01      4.068146000000000E-01     -1.536094000000000E+02      8.789978000000000E-01     -7.627343000000000E+01
4876000000.000000      8.809204000000000E-01     -1.657031000000000E+02      3.706665000000000E-01     -5.375781000000000E+01      4.061432000000000E-01     -1.537578000000000E+02      8.822632000000000E-01     -7.639843000000000E+01
4877000000.000000      8.844299000000000E-01     -1.657422000000000E+02      3.697357000000000E-01     -5.390038000000000E+01      4.077301000000000E-01     -1.539453000000000E+02      8.866882000000000E-01     -7.659374000000000E+01
4878000000.000000      8.883362000000000E-01     -1.657266000000000E+02      3.694153000000000E-01     -5.434570000000000E+01      4.075012000000000E-01     -1.540000000000000E+02      8.914795000000000E-01     -7.674999000000000E+01
4879000000.000000      8.898926000000000E-01     -1.657734000000000E+02      3.667450000000000E-01     -5.447460000000000E+01      4.075165000000000E-01     -1.542109000000000E+02      8.939819000000000E-01     -7.675781000000000E+01
4880000000.000000      8.899536000000000E-01     -1.656797000000000E+02      3.659363000000000E-01     -5.472851000000000E+01      4.082489000000000E-01     -1.542656000000000E+02      8.990784000000000E-01     -7.676171000000000E+01
4881000000.000000      8.953857000000000E-01     -1.655703000000000E+02      3.649597000000000E-01     -5.482226000000000E+01      4.083557000000000E-01     -1.545547000000000E+02      9.028320000000000E-01     -7.699609000000000E+01
4882000000.000000      8.926697000000000E-01     -1.655000000000000E+02      3.627167000000000E-01     -5.496875000000000E+01      4.083252000000000E-01     -1.545938000000000E+02      9.063721000000000E-01     -7.709374000000000E+01
