! Network Analyzer HP8722D
! Hewlett-Packard
! Data name: Linha & Wilkinson
! Saver's name: Rodrigo Anjos
! Comments: Teste da utilização de aquisição
continua pelo VNA HP8722D
! Time and date: 6/5/2025 14:07
!              Frequency                     S11                                                   S21                                                   S12                                                   S22
# HZ  S  MA R 50
4800000000.000000      4.972382000000000E-01     -1.682500000000000E+02      2.525787000000000E-01     -1.981055000000000E+01      2.492905000000000E-01     -1.410312000000000E+02      6.483154000000000E-01     -8.035547000000000E+01
4801000000.000000      4.991302000000000E-01     -1.683594000000000E+02      2.567749000000000E-01     -1.993750000000000E+01      2.526398000000000E-01     -1.411172000000000E+02      6.459961000000000E-01     -8.008593000000000E+01
4802000000.000000      5.000610000000000E-01     -1.684062000000000E+02      2.606659000000000E-01     -2.015723000000000E+01      2.567749000000000E-01     -1.410938000000000E+02      6.459656000000000E-01     -7.982812000000000E+01
4803000000.000000      5.014648000000000E-01     -1.685000000000000E+02      2.652893000000000E-01     -2.038672000000000E+01      2.600098000000000E-01     -1.412109000000000E+02      6.452332000000000E-01     -7.969531000000000E+01
4804000000.000000      5.039673000000000E-01     -1.684687000000000E+02      2.687531000000000E-01     -2.078613000000000E+01      2.639923000000000E-01     -1.413437000000000E+02      6.442566000000000E-01     -7.938281000000000E+01
4805000000.000000      5.064087000000000E-01     -1.685313000000000E+02      2.735291000000000E-01     -2.105567000000000E+01      2.676392000000000E-01     -1.413750000000000E+02      6.446228000000000E-01     -7.921093000000000E+01
4806000000.000000      5.075989000000000E-01     -1.685078000000000E+02      2.772369000000000E-01     -2.126953000000000E+01      2.701263000000000E-01     -1.413203000000000E+02      6.438293000000000E-01     -7.912499000000000E+01
4807000000.000000      5.109558000000000E-01     -1.685390000000000E+02      2.812958000000000E-01     -2.175195000000000E+01      2.744141000000000E-01     -1.416250000000000E+02      6.433105000000000E-01     -7.892578000000000E+01
4808000000.000000      5.135193000000000E-01     -1.684375000000000E+02      2.850342000000000E-01     -2.185059000000000E+01      2.780914000000000E-01     -1.417734000000000E+02      6.430359000000000E-01     -7.857031000000000E+01
4809000000.000000      5.158997000000000E-01     -1.685000000000000E+02      2.892303000000000E-01     -2.247949000000000E+01      2.816010000000000E-01     -1.418516000000000E+02      6.431580000000000E-01     -7.848046000000000E+01
4810000000.000000      5.188904000000000E-01     -1.684687000000000E+02      2.929993000000000E-01     -2.276269000000000E+01      2.850342000000000E-01     -1.419297000000000E+02      6.444092000000000E-01     -7.830078000000000E+01
4811000000.000000      5.220642000000000E-01     -1.684453000000000E+02      2.973938000000000E-01     -2.318554000000000E+01      2.892914000000000E-01     -1.420547000000000E+02      6.440430000000000E-01     -7.795312000000000E+01
4812000000.000000      5.259399000000000E-01     -1.683437000000000E+02      3.002930000000000E-01     -2.346289000000000E+01      2.915649000000000E-01     -1.421250000000000E+02      6.445618000000000E-01     -7.788280000000000E+01
4813000000.000000      5.288696000000000E-01     -1.682422000000000E+02      3.048706000000000E-01     -2.390429000000000E+01      2.948151000000000E-01     -1.423047000000000E+02      6.456604000000000E-01     -7.754687000000000E+01
4814000000.000000      5.313416000000000E-01     -1.684141000000000E+02      3.080597000000000E-01     -2.432324000000000E+01      2.983093000000000E-01     -1.425313000000000E+02      6.463928000000000E-01     -7.749218000000000E+01
4815000000.000000      5.357056000000000E-01     -1.682266000000000E+02      3.115082000000000E-01     -2.474902000000000E+01      3.015442000000000E-01     -1.426641000000000E+02      6.471863000000000E-01     -7.721093000000000E+01
4816000000.000000      5.398865000000000E-01     -1.681250000000000E+02      3.152313000000000E-01     -2.506738000000000E+01      3.057404000000000E-01     -1.427266000000000E+02      6.482239000000000E-01     -7.699219000000000E+01
4817000000.000000      5.447388000000000E-01     -1.680312000000000E+02      3.193665000000000E-01     -2.551465000000000E+01      3.081360000000000E-01     -1.430312000000000E+02      6.490784000000000E-01     -7.688281000000000E+01
4818000000.000000      5.477600000000000E-01     -1.680234000000000E+02      3.215027000000000E-01     -2.588574000000000E+01      3.117676000000000E-01     -1.431797000000000E+02      6.508179000000000E-01     -7.671875000000000E+01
4819000000.000000      5.529175000000000E-01     -1.679688000000000E+02      3.250275000000000E-01     -2.642578000000000E+01      3.131714000000000E-01     -1.433359000000000E+02      6.539612000000000E-01     -7.668359000000000E+01
4820000000.000000      5.556641000000000E-01     -1.678594000000000E+02      3.283386000000000E-01     -2.688574000000000E+01      3.174438000000000E-01     -1.434141000000000E+02      6.548157000000000E-01     -7.641015000000000E+01
4821000000.000000      5.615845000000000E-01     -1.677969000000000E+02      3.322296000000000E-01     -2.739453000000000E+01      3.204041000000000E-01     -1.437813000000000E+02      6.561890000000000E-01     -7.632813000000000E+01
4822000000.000000      5.682678000000000E-01     -1.677031000000000E+02      3.349762000000000E-01     -2.784375000000000E+01      3.219299000000000E-01     -1.439687000000000E+02      6.593933000000000E-01     -7.609765000000000E+01
4823000000.000000      5.714417000000000E-01     -1.675781000000000E+02      3.385925000000000E-01     -2.822754000000000E+01      3.247986000000000E-01     -1.439609000000000E+02      6.615601000000000E-01     -7.603516000000000E+01
4824000000.000000      5.782471000000000E-01     -1.675625000000000E+02      3.422546000000000E-01     -2.890527000000000E+01      3.281403000000000E-01     -1.442969000000000E+02      6.625061000000000E-01     -7.589453000000000E+01
4825000000.000000      5.823059000000000E-01     -1.674531000000000E+02      3.446808000000000E-01     -2.945508000000000E+01      3.318176000000000E-01     -1.444219000000000E+02      6.660767000000000E-01     -7.573437000000000E+01
4826000000.000000      5.888367000000000E-01     -1.673359000000000E+02      3.484039000000000E-01     -2.984179000000000E+01      3.334351000000000E-01     -1.447031000000000E+02      6.689453000000000E-01     -7.567577000000000E+01
4827000000.000000      5.942688000000000E-01     -1.671875000000000E+02      3.511505000000000E-01     -3.031738000000000E+01      3.361359000000000E-01     -1.448437000000000E+02      6.719055000000000E-01     -7.553515000000000E+01
4828000000.000000      6.007385000000000E-01     -1.671797000000000E+02      3.537598000000000E-01     -3.076465000000000E+01      3.388824000000000E-01     -1.450156000000000E+02      6.752625000000000E-01     -7.540234000000000E+01
4829000000.000000      6.044922000000000E-01     -1.670391000000000E+02      3.556519000000000E-01     -3.138965000000000E+01      3.417664000000000E-01     -1.452500000000000E+02      6.772766000000000E-01     -7.525781000000000E+01
4830000000.000000      6.119080000000000E-01     -1.669922000000000E+02      3.583374000000000E-01     -3.196680000000000E+01      3.436432000000000E-01     -1.452969000000000E+02      6.793823000000000E-01     -7.527344000000000E+01
4831000000.000000      6.173096000000000E-01     -1.669141000000000E+02      3.609467000000000E-01     -3.254492000000000E+01      3.470917000000000E-01     -1.454609000000000E+02      6.842651000000000E-01     -7.510156000000000E+01
4832000000.000000      6.252747000000000E-01     -1.667891000000000E+02      3.635101000000000E-01     -3.303906000000000E+01      3.489685000000000E-01     -1.458203000000000E+02      6.866150000000000E-01     -7.508203000000000E+01
4833000000.000000      6.317444000000000E-01     -1.667656000000000E+02      3.659058000000000E-01     -3.350976000000000E+01      3.507385000000000E-01     -1.460312000000000E+02      6.900024000000000E-01     -7.498047000000000E+01
4834000000.000000      6.376038000000000E-01     -1.666953000000000E+02      3.682098000000000E-01     -3.396093000000000E+01      3.530426000000000E-01     -1.461953000000000E+02      6.932373000000000E-01     -7.496875000000000E+01
4835000000.000000      6.437683000000000E-01     -1.665937000000000E+02      3.702240000000000E-01     -3.481445000000000E+01      3.564301000000000E-01     -1.463984000000000E+02      6.977539000000000E-01     -7.497265000000000E+01
4836000000.000000      6.527100000000000E-01     -1.665000000000000E+02      3.714447000000000E-01     -3.519336000000000E+01      3.577423000000000E-01     -1.465625000000000E+02      7.007751000000000E-01     -7.475390000000000E+01
4837000000.000000      6.593323000000000E-01     -1.663906000000000E+02      3.745270000000000E-01     -3.598437000000000E+01      3.593140000000000E-01     -1.468984000000000E+02      7.040100000000000E-01     -7.476171000000000E+01
4838000000.000000      6.662903000000000E-01     -1.663984000000000E+02      3.773041000000000E-01     -3.621679000000000E+01      3.623810000000000E-01     -1.470000000000000E+02      7.078552000000000E-01     -7.478906000000000E+01
4839000000.000000      6.731873000000000E-01     -1.662812000000000E+02      3.777618000000000E-01     -3.685547000000000E+01      3.636017000000000E-01     -1.471641000000000E+02      7.118225000000000E-01     -7.457031000000000E+01
4840000000.000000      6.782532000000000E-01     -1.662578000000000E+02      3.789673000000000E-01     -3.733593000000000E+01      3.661499000000000E-01     -1.474766000000000E+02      7.163696000000000E-01     -7.465234000000000E+01
4841000000.000000      6.863708000000000E-01     -1.663047000000000E+02      3.798523000000000E-01     -3.812109000000000E+01      3.675079000000000E-01     -1.476641000000000E+02      7.204590000000000E-01     -7.460155000000000E+01
4842000000.000000      6.935425000000000E-01     -1.661719000000000E+02      3.817902000000000E-01     -3.852734000000000E+01      3.691101000000000E-01     -1.478750000000000E+02      7.249451000000000E-01     -7.464844000000000E+01
4843000000.000000      7.004395000000000E-01     -1.662422000000000E+02      3.834839000000000E-01     -3.923047000000000E+01      3.708649000000000E-01     -1.480234000000000E+02      7.285767000000000E-01     -7.455468000000000E+01
4844000000.000000      7.069397000000000E-01     -1.661484000000000E+02      3.837585000000000E-01     -3.970117000000000E+01      3.724670000000000E-01     -1.481719000000000E+02      7.327271000000000E-01     -7.457421000000000E+01
4845000000.000000      7.141418000000000E-01     -1.660234000000000E+02      3.851318000000000E-01     -4.021484000000000E+01      3.750610000000000E-01     -1.483594000000000E+02      7.377930000000000E-01     -7.457421000000000E+01
4846000000.000000      7.213745000000000E-01     -1.659844000000000E+02      3.867493000000000E-01     -4.071289000000000E+01      3.767242000000000E-01     -1.486094000000000E+02      7.418213000000000E-01     -7.451953000000000E+01
4847000000.000000      7.290649000000000E-01     -1.661016000000000E+02      3.870697000000000E-01     -4.122851000000000E+01      3.788452000000000E-01     -1.488281000000000E+02      7.470398000000000E-01     -7.462109000000000E+01
4848000000.000000      7.364807000000000E-01     -1.659297000000000E+02      3.881378000000000E-01     -4.175781000000000E+01      3.797760000000000E-01     -1.488984000000000E+02      7.507324000000000E-01     -7.452734000000000E+01
4849000000.000000      7.433777000000000E-01     -1.662266000000000E+02      3.883057000000000E-01     -4.247070000000000E+01      3.817139000000000E-01     -1.491094000000000E+02      7.549744000000000E-01     -7.457031000000000E+01
4850000000.000000      7.510071000000000E-01     -1.660000000000000E+02      3.894196000000000E-01     -4.285156000000000E+01      3.831329000000000E-01     -1.492656000000000E+02      7.592468000000000E-01     -7.452343000000000E+01
4851000000.000000      7.571716000000000E-01     -1.659609000000000E+02      3.897095000000000E-01     -4.359375000000000E+01      3.851929000000000E-01     -1.493594000000000E+02      7.650452000000000E-01     -7.460938000000000E+01
4852000000.000000      7.642822000000000E-01     -1.659609000000000E+02      3.899231000000000E-01     -4.395508000000000E+01      3.866425000000000E-01     -1.496484000000000E+02      7.697144000000000E-01     -7.467578000000000E+01
4853000000.000000      7.702637000000000E-01     -1.659219000000000E+02      3.893585000000000E-01     -4.452148000000000E+01      3.878784000000000E-01     -1.498672000000000E+02      7.746887000000000E-01     -7.482031000000000E+01
4854000000.000000      7.774658000000000E-01     -1.659844000000000E+02      3.902893000000000E-01     -4.520898000000000E+01      3.891449000000000E-01     -1.500547000000000E+02      7.798157000000000E-01     -7.480078000000000E+01
4855000000.000000      7.830811000000000E-01     -1.659688000000000E+02      3.900452000000000E-01     -4.544726000000000E+01      3.901367000000000E-01     -1.500391000000000E+02      7.828674000000000E-01     -7.469921000000000E+01
4856000000.000000      7.903442000000000E-01     -1.659375000000000E+02      3.895111000000000E-01     -4.599609000000000E+01      3.914795000000000E-01     -1.503672000000000E+02      7.893982000000000E-01     -7.489843000000000E+01
4857000000.000000      7.964172000000000E-01     -1.660000000000000E+02      3.904724000000000E-01     -4.650195000000000E+01      3.924561000000000E-01     -1.505156000000000E+02      7.930908000000000E-01     -7.485156000000000E+01
4858000000.000000      8.006897000000000E-01     -1.660000000000000E+02      3.898468000000000E-01     -4.705274000000000E+01      3.935699000000000E-01     -1.506016000000000E+02      7.970581000000000E-01     -7.488671000000000E+01
4859000000.000000      8.072510000000000E-01     -1.660078000000000E+02      3.894806000000000E-01     -4.736718000000000E+01      3.951874000000000E-01     -1.509453000000000E+02      8.048401000000000E-01     -7.497265000000000E+01
4860000000.000000      8.149109000000000E-01     -1.659531000000000E+02      3.893738000000000E-01     -4.795703000000000E+01      3.957214000000000E-01     -1.509687000000000E+02      8.084717000000000E-01     -7.489843000000000E+01
4861000000.000000      8.191528000000000E-01     -1.659922000000000E+02      3.883362000000000E-01     -4.853516000000000E+01      3.969574000000000E-01     -1.511641000000000E+02      8.127747000000000E-01     -7.512500000000000E+01
4862000000.000000      8.251953000000000E-01     -1.661328000000000E+02      3.879242000000000E-01     -4.881640000000000E+01      3.990021000000000E-01     -1.512891000000000E+02      8.188477000000000E-01     -7.512109000000000E+01
4863000000.000000      8.297424000000000E-01     -1.660469000000000E+02      3.861542000000000E-01     -4.936328000000000E+01      3.995972000000000E-01     -1.514688000000000E+02      8.227539000000000E-01     -7.517187000000000E+01
4864000000.000000      8.341980000000000E-01     -1.659922000000000E+02      3.864594000000000E-01     -4.957031000000000E+01      3.997955000000000E-01     -1.516094000000000E+02      8.272705000000000E-01     -7.526562000000000E+01
4865000000.000000      8.386841000000000E-01     -1.661797000000000E+02      3.847198000000000E-01     -5.009766000000000E+01      4.007263000000000E-01     -1.518281000000000E+02      8.325500000000000E-01     -7.529297000000000E+01
4866000000.000000      8.429260000000000E-01     -1.658594000000000E+02      3.837280000000000E-01     -5.053905000000000E+01      4.018402000000000E-01     -1.520234000000000E+02      8.380737000000000E-01     -7.533593000000000E+01
4867000000.000000      8.484497000000000E-01     -1.660234000000000E+02      3.829803000000000E-01     -5.103906000000000E+01      4.029541000000000E-01     -1.521875000000000E+02      8.428040000000000E-01     -7.551562000000000E+01
4868000000.000000      8.534546000000000E-01     -1.661094000000000E+02      3.816681000000000E-01     -5.145312000000000E+01      4.037628000000000E-01     -1.522344000000000E+02      8.467102000000000E-01     -7.557812000000000E+01
4869000000.000000      8.560486000000000E-01     -1.659844000000000E+02      3.805389000000000E-01     -5.183594000000000E+01      4.041443000000000E-01     -1.525156000000000E+02      8.526306000000000E-01     -7.575781000000000E+01
4870000000.000000      8.615112000000000E-01     -1.660547000000000E+02      3.795013000000000E-01     -5.197070000000000E+01      4.044342000000000E-01     -1.527031000000000E+02      8.570557000000000E-01     -7.577343000000000E+01
4871000000.000000      8.657227000000000E-01     -1.660078000000000E+02      3.784332000000000E-01     -5.237890000000000E+01      4.044800000000000E-01     -1.529453000000000E+02      8.601685000000000E-01     -7.594140000000000E+01
4872000000.000000      8.717041000000000E-01     -1.660000000000000E+02      3.769531000000000E-01     -5.246094000000000E+01      4.055481000000000E-01     -1.531875000000000E+02      8.663635000000000E-01     -7.598437000000000E+01
4873000000.000000      8.733215000000000E-01     -1.658750000000000E+02      3.747711000000000E-01     -5.300586000000000E+01      4.055328000000000E-01     -1.532109000000000E+02      8.701782000000000E-01     -7.603516000000000E+01
4874000000.000000      8.755493000000000E-01     -1.658359000000000E+02      3.736115000000000E-01     -5.338672000000000E+01      4.070892000000000E-01     -1.533437000000000E+02      8.742065000000000E-01     -7.605078000000000E+01
4875000000.000000      8.798523000000000E-01     -1.658984000000000E+02      3.729095000000000E-01     -5.348633000000000E+01      4.069977000000000E-01     -1.536641000000000E+02      8.787537000000000E-01     -7.621875000000000E+01
4876000000.000000      8.801575000000000E-01     -1.658828000000000E+02      3.714294000000000E-01     -5.386719000000000E+01      4.064941000000000E-01     -1.537422000000000E+02      8.827515000000000E-01     -7.646093000000000E+01
4877000000.000000      8.835144000000000E-01     -1.656875000000000E+02      3.702240000000000E-01     -5.392968000000000E+01      4.075775000000000E-01     -1.540156000000000E+02      8.879395000000000E-01     -7.668359000000000E+01
4878000000.000000      8.879700000000000E-01     -1.655703000000000E+02      3.690948000000000E-01     -5.424414000000000E+01      4.074707000000000E-01     -1.540078000000000E+02      8.930054000000000E-01     -7.670703000000000E+01
4879000000.000000      8.916321000000000E-01     -1.657344000000000E+02      3.670502000000000E-01     -5.442577000000000E+01      4.074249000000000E-01     -1.542344000000000E+02      8.949890000000000E-01     -7.667187000000000E+01
4880000000.000000      8.903198000000000E-01     -1.655469000000000E+02      3.658752000000000E-01     -5.473046000000000E+01      4.083099000000000E-01     -1.542734000000000E+02      9.001160000000000E-01     -7.679688000000000E+01
4881000000.000000      8.965149000000000E-01     -1.655703000000000E+02      3.652344000000000E-01     -5.479882000000000E+01      4.086456000000000E-01     -1.545703000000000E+02      9.035034000000000E-01     -7.697266000000000E+01
4882000000.000000      8.958435000000000E-01     -1.654844000000000E+02      3.636322000000000E-01     -5.494335000000000E+01      4.078827000000000E-01     -1.546406000000000E+02      9.051208000000000E-01     -7.707812000000000E+01
