! Network Analyzer HP8722D
! Hewlett-Packard
! Data name: Linha & Wilkinson
! Saver's name: Rodrigo Anjos
! Comments: Teste da utilização de aquisição
continua pelo VNA HP8722D
! Time and date: 6/5/2025 16:09
!              Frequency                     S11                                                   S21                                                   S12                                                   S22
# HZ  S  MA R 50
4800000000.000000      4.961548000000000E-01     -1.680000000000000E+02      2.520294000000000E-01     -1.965234000000000E+01      2.491837000000000E-01     -1.407578000000000E+02      6.486206000000000E-01     -8.038671000000000E+01
4801000000.000000      4.977264000000000E-01     -1.681406000000000E+02      2.565460000000000E-01     -1.975488000000000E+01      2.523651000000000E-01     -1.408516000000000E+02      6.468506000000000E-01     -8.006639000000000E+01
4802000000.000000      4.990234000000000E-01     -1.681406000000000E+02      2.597504000000000E-01     -2.010547000000000E+01      2.565765000000000E-01     -1.408203000000000E+02      6.448975000000000E-01     -7.985156000000000E+01
4803000000.000000      5.004272000000000E-01     -1.682422000000000E+02      2.648315000000000E-01     -2.019922000000000E+01      2.597656000000000E-01     -1.409531000000000E+02      6.457214000000000E-01     -7.964844000000000E+01
4804000000.000000      5.025635000000000E-01     -1.682734000000000E+02      2.685394000000000E-01     -2.059570000000000E+01      2.636566000000000E-01     -1.410781000000000E+02      6.442261000000000E-01     -7.939062000000000E+01
4805000000.000000      5.054321000000000E-01     -1.682500000000000E+02      2.725983000000000E-01     -2.076758000000000E+01      2.673798000000000E-01     -1.411016000000000E+02      6.446533000000000E-01     -7.930859000000000E+01
4806000000.000000      5.068359000000000E-01     -1.682188000000000E+02      2.762909000000000E-01     -2.111328000000000E+01      2.700043000000000E-01     -1.410781000000000E+02      6.430969000000000E-01     -7.920703000000000E+01
4807000000.000000      5.095215000000000E-01     -1.682500000000000E+02      2.801056000000000E-01     -2.145312000000000E+01      2.743530000000000E-01     -1.414141000000000E+02      6.430664000000000E-01     -7.887890000000000E+01
4808000000.000000      5.122375000000000E-01     -1.682109000000000E+02      2.851563000000000E-01     -2.173242000000000E+01      2.779694000000000E-01     -1.413750000000000E+02      6.419373000000000E-01     -7.862109000000000E+01
4809000000.000000      5.146484000000000E-01     -1.682109000000000E+02      2.886047000000000E-01     -2.211719000000000E+01      2.816315000000000E-01     -1.416172000000000E+02      6.438293000000000E-01     -7.845312000000000E+01
4810000000.000000      5.178833000000000E-01     -1.682578000000000E+02      2.928009000000000E-01     -2.245605000000000E+01      2.848358000000000E-01     -1.417500000000000E+02      6.437378000000000E-01     -7.822266000000000E+01
4811000000.000000      5.209045000000000E-01     -1.682031000000000E+02      2.967224000000000E-01     -2.296777000000000E+01      2.889404000000000E-01     -1.417344000000000E+02      6.447144000000000E-01     -7.796093000000000E+01
4812000000.000000      5.249023000000000E-01     -1.681172000000000E+02      3.001251000000000E-01     -2.335840000000000E+01      2.919617000000000E-01     -1.419062000000000E+02      6.450500000000000E-01     -7.780078000000000E+01
4813000000.000000      5.269775000000000E-01     -1.679922000000000E+02      3.035889000000000E-01     -2.362011000000000E+01      2.952118000000000E-01     -1.419688000000000E+02      6.445313000000000E-01     -7.762500000000000E+01
4814000000.000000      5.302429000000000E-01     -1.681406000000000E+02      3.074951000000000E-01     -2.401074000000000E+01      2.981262000000000E-01     -1.422734000000000E+02      6.467896000000000E-01     -7.743359000000000E+01
4815000000.000000      5.339661000000000E-01     -1.679219000000000E+02      3.108521000000000E-01     -2.433203000000000E+01      3.013458000000000E-01     -1.423125000000000E+02      6.472778000000000E-01     -7.706640000000000E+01
4816000000.000000      5.389709000000000E-01     -1.678672000000000E+02      3.151703000000000E-01     -2.477441000000000E+01      3.048859000000000E-01     -1.425078000000000E+02      6.477356000000000E-01     -7.704687000000000E+01
4817000000.000000      5.434265000000000E-01     -1.678203000000000E+02      3.178558000000000E-01     -2.529492000000000E+01      3.082123000000000E-01     -1.427813000000000E+02      6.492615000000000E-01     -7.683203000000000E+01
4818000000.000000      5.466003000000000E-01     -1.677656000000000E+02      3.211517000000000E-01     -2.587695000000000E+01      3.111725000000000E-01     -1.429141000000000E+02      6.511230000000000E-01     -7.671484000000000E+01
4819000000.000000      5.519409000000000E-01     -1.676875000000000E+02      3.246765000000000E-01     -2.606445000000000E+01      3.137054000000000E-01     -1.430859000000000E+02      6.546326000000000E-01     -7.663671000000000E+01
4820000000.000000      5.538635000000000E-01     -1.676641000000000E+02      3.277283000000000E-01     -2.663965000000000E+01      3.171692000000000E-01     -1.432109000000000E+02      6.556091000000000E-01     -7.632421000000000E+01
4821000000.000000      5.601807000000000E-01     -1.675703000000000E+02      3.309479000000000E-01     -2.705957000000000E+01      3.198700000000000E-01     -1.434453000000000E+02      6.557007000000000E-01     -7.632421000000000E+01
4822000000.000000      5.669861000000000E-01     -1.675313000000000E+02      3.354645000000000E-01     -2.748144000000000E+01      3.222351000000000E-01     -1.437656000000000E+02      6.593323000000000E-01     -7.611328000000000E+01
4823000000.000000      5.701599000000000E-01     -1.673594000000000E+02      3.388062000000000E-01     -2.803711000000000E+01      3.259125000000000E-01     -1.436719000000000E+02      6.599426000000000E-01     -7.599999000000000E+01
4824000000.000000      5.770874000000000E-01     -1.673750000000000E+02      3.417358000000000E-01     -2.862988000000000E+01      3.286285000000000E-01     -1.440391000000000E+02      6.631470000000000E-01     -7.582421000000000E+01
4825000000.000000      5.808411000000000E-01     -1.672266000000000E+02      3.445587000000000E-01     -2.912109000000000E+01      3.320618000000000E-01     -1.442266000000000E+02      6.658020000000000E-01     -7.573828000000000E+01
4826000000.000000      5.872803000000000E-01     -1.671484000000000E+02      3.473053000000000E-01     -2.968164000000000E+01      3.343964000000000E-01     -1.444687000000000E+02      6.671448000000000E-01     -7.563281000000000E+01
4827000000.000000      5.933228000000000E-01     -1.669375000000000E+02      3.503418000000000E-01     -2.995703000000000E+01      3.357391000000000E-01     -1.444922000000000E+02      6.722107000000000E-01     -7.549999000000000E+01
4828000000.000000      5.996094000000000E-01     -1.669297000000000E+02      3.535461000000000E-01     -3.058594000000000E+01      3.386841000000000E-01     -1.448047000000000E+02      6.746826000000000E-01     -7.541797000000000E+01
4829000000.000000      6.032715000000000E-01     -1.668125000000000E+02      3.557129000000000E-01     -3.120117000000000E+01      3.420868000000000E-01     -1.450469000000000E+02      6.772766000000000E-01     -7.526172000000000E+01
4830000000.000000      6.109009000000000E-01     -1.667500000000000E+02      3.583679000000000E-01     -3.166992000000000E+01      3.436432000000000E-01     -1.451484000000000E+02      6.802368000000000E-01     -7.517187000000000E+01
4831000000.000000      6.155090000000000E-01     -1.666328000000000E+02      3.600616000000000E-01     -3.235547000000000E+01      3.467560000000000E-01     -1.453828000000000E+02      6.842651000000000E-01     -7.507421000000000E+01
4832000000.000000      6.248779000000000E-01     -1.665390000000000E+02      3.643799000000000E-01     -3.269140000000000E+01      3.482056000000000E-01     -1.455234000000000E+02      6.854858000000000E-01     -7.507421000000000E+01
4833000000.000000      6.302490000000000E-01     -1.665547000000000E+02      3.660736000000000E-01     -3.316601000000000E+01      3.508453000000000E-01     -1.457578000000000E+02      6.894836000000000E-01     -7.491796000000000E+01
4834000000.000000      6.366882000000000E-01     -1.663828000000000E+02      3.681488000000000E-01     -3.386914000000000E+01      3.537598000000000E-01     -1.459141000000000E+02      6.919250000000000E-01     -7.492578000000000E+01
4835000000.000000      6.430359000000000E-01     -1.663672000000000E+02      3.698883000000000E-01     -3.435742000000000E+01      3.555908000000000E-01     -1.460391000000000E+02      6.965637000000000E-01     -7.490624000000000E+01
4836000000.000000      6.510620000000000E-01     -1.662578000000000E+02      3.719330000000000E-01     -3.498242000000000E+01      3.575592000000000E-01     -1.462734000000000E+02      7.004089000000000E-01     -7.476953000000000E+01
4837000000.000000      6.575317000000000E-01     -1.661406000000000E+02      3.734131000000000E-01     -3.571875000000000E+01      3.594971000000000E-01     -1.465625000000000E+02      7.044678000000000E-01     -7.469921000000000E+01
4838000000.000000      6.643066000000000E-01     -1.662422000000000E+02      3.772278000000000E-01     -3.598047000000000E+01      3.622284000000000E-01     -1.467734000000000E+02      7.080688000000000E-01     -7.463281000000000E+01
4839000000.000000      6.720886000000000E-01     -1.660078000000000E+02      3.775482000000000E-01     -3.655468000000000E+01      3.636932000000000E-01     -1.469063000000000E+02      7.124329000000000E-01     -7.460938000000000E+01
4840000000.000000      6.767883000000000E-01     -1.660312000000000E+02      3.787079000000000E-01     -3.716406000000000E+01      3.663177000000000E-01     -1.471484000000000E+02      7.155151000000000E-01     -7.463281000000000E+01
4841000000.000000      6.858521000000000E-01     -1.660547000000000E+02      3.810883000000000E-01     -3.783984000000000E+01      3.685455000000000E-01     -1.474297000000000E+02      7.201233000000000E-01     -7.464844000000000E+01
4842000000.000000      6.930237000000000E-01     -1.658594000000000E+02      3.823700000000000E-01     -3.830859000000000E+01      3.696594000000000E-01     -1.475000000000000E+02      7.250366000000000E-01     -7.453125000000000E+01
4843000000.000000      6.990662000000000E-01     -1.659765000000000E+02      3.833160000000000E-01     -3.897851000000000E+01      3.712769000000000E-01     -1.476484000000000E+02      7.281799000000000E-01     -7.452343000000000E+01
4844000000.000000      7.059937000000000E-01     -1.658594000000000E+02      3.843536000000000E-01     -3.942773000000000E+01      3.733978000000000E-01     -1.478359000000000E+02      7.331543000000000E-01     -7.452343000000000E+01
4845000000.000000      7.127380000000000E-01     -1.657969000000000E+02      3.854065000000000E-01     -3.986914000000000E+01      3.752289000000000E-01     -1.479922000000000E+02      7.363586000000000E-01     -7.446875000000000E+01
4846000000.000000      7.200317000000000E-01     -1.657734000000000E+02      3.859100000000000E-01     -4.046679000000000E+01      3.772583000000000E-01     -1.483203000000000E+02      7.411804000000000E-01     -7.452734000000000E+01
4847000000.000000      7.278748000000000E-01     -1.657266000000000E+02      3.876648000000000E-01     -4.108398000000000E+01      3.789520000000000E-01     -1.485547000000000E+02      7.471008000000000E-01     -7.457031000000000E+01
4848000000.000000      7.346191000000000E-01     -1.656641000000000E+02      3.878479000000000E-01     -4.145508000000000E+01      3.799744000000000E-01     -1.486250000000000E+02      7.502136000000000E-01     -7.455859000000000E+01
4849000000.000000      7.413025000000000E-01     -1.659375000000000E+02      3.888245000000000E-01     -4.219336000000000E+01      3.827362000000000E-01     -1.488359000000000E+02      7.553406000000000E-01     -7.447656000000000E+01
4850000000.000000      7.489929000000000E-01     -1.656875000000000E+02      3.894043000000000E-01     -4.257617000000000E+01      3.834534000000000E-01     -1.488828000000000E+02      7.598877000000000E-01     -7.453515000000000E+01
4851000000.000000      7.553406000000000E-01     -1.656797000000000E+02      3.903656000000000E-01     -4.327734000000000E+01      3.845673000000000E-01     -1.491016000000000E+02      7.655029000000000E-01     -7.456249000000000E+01
4852000000.000000      7.633362000000000E-01     -1.657344000000000E+02      3.904266000000000E-01     -4.368164000000000E+01      3.866425000000000E-01     -1.493515000000000E+02      7.682800000000000E-01     -7.459374000000000E+01
4853000000.000000      7.711487000000000E-01     -1.656797000000000E+02      3.888702000000000E-01     -4.420703000000000E+01      3.887787000000000E-01     -1.495625000000000E+02      7.742615000000000E-01     -7.471874000000000E+01
4854000000.000000      7.763672000000000E-01     -1.657344000000000E+02      3.904572000000000E-01     -4.502734000000000E+01      3.890839000000000E-01     -1.496797000000000E+02      7.795410000000000E-01     -7.468750000000000E+01
4855000000.000000      7.814941000000000E-01     -1.656797000000000E+02      3.899231000000000E-01     -4.536523000000000E+01      3.907166000000000E-01     -1.497969000000000E+02      7.827454000000000E-01     -7.464062000000000E+01
4856000000.000000      7.896729000000000E-01     -1.656094000000000E+02      3.895874000000000E-01     -4.575195000000000E+01      3.923950000000000E-01     -1.500078000000000E+02      7.887878000000000E-01     -7.475390000000000E+01
4857000000.000000      7.954712000000000E-01     -1.657109000000000E+02      3.905029000000000E-01     -4.627149000000000E+01      3.930206000000000E-01     -1.501797000000000E+02      7.929382000000000E-01     -7.473827000000000E+01
4858000000.000000      7.984314000000000E-01     -1.657656000000000E+02      3.897247000000000E-01     -4.678711000000000E+01      3.941345000000000E-01     -1.504297000000000E+02      7.979736000000000E-01     -7.490234000000000E+01
4859000000.000000      8.067322000000000E-01     -1.658281000000000E+02      3.896027000000000E-01     -4.739648000000000E+01      3.958435000000000E-01     -1.506016000000000E+02      8.041992000000000E-01     -7.500000000000000E+01
4860000000.000000      8.119812000000000E-01     -1.658828000000000E+02      3.889160000000000E-01     -4.763085000000000E+01      3.961639000000000E-01     -1.506719000000000E+02      8.088379000000000E-01     -7.491796000000000E+01
4861000000.000000      8.188782000000000E-01     -1.656641000000000E+02      3.885345000000000E-01     -4.823632000000000E+01      3.975372000000000E-01     -1.509375000000000E+02      8.118286000000000E-01     -7.500000000000000E+01
4862000000.000000      8.249817000000000E-01     -1.656719000000000E+02      3.884125000000000E-01     -4.862499000000000E+01      3.992920000000000E-01     -1.510391000000000E+02      8.191223000000000E-01     -7.505077000000000E+01
4863000000.000000      8.286133000000000E-01     -1.657812000000000E+02      3.869476000000000E-01     -4.910156000000000E+01      4.005432000000000E-01     -1.511328000000000E+02      8.229370000000000E-01     -7.514062000000000E+01
4864000000.000000      8.351135000000000E-01     -1.656797000000000E+02      3.871002000000000E-01     -4.932226000000000E+01      4.001617000000000E-01     -1.513984000000000E+02      8.272705000000000E-01     -7.520702000000000E+01
4865000000.000000      8.378296000000000E-01     -1.658594000000000E+02      3.849640000000000E-01     -4.988086000000000E+01      4.014435000000000E-01     -1.516016000000000E+02      8.332520000000000E-01     -7.519921000000000E+01
4866000000.000000      8.421326000000000E-01     -1.657344000000000E+02      3.836060000000000E-01     -5.024023000000000E+01      4.023590000000000E-01     -1.518281000000000E+02      8.383484000000000E-01     -7.526562000000000E+01
4867000000.000000      8.488770000000000E-01     -1.656797000000000E+02      3.830719000000000E-01     -5.081055000000000E+01      4.032440000000000E-01     -1.518750000000000E+02      8.441467000000000E-01     -7.540625000000000E+01
4868000000.000000      8.544006000000000E-01     -1.658906000000000E+02      3.822327000000000E-01     -5.095312000000000E+01      4.044952000000000E-01     -1.520625000000000E+02      8.457031000000000E-01     -7.536718000000000E+01
4869000000.000000      8.558044000000000E-01     -1.656953000000000E+02      3.797760000000000E-01     -5.149219000000000E+01      4.046173000000000E-01     -1.522344000000000E+02      8.516235000000000E-01     -7.577734000000000E+01
4870000000.000000      8.617554000000000E-01     -1.658047000000000E+02      3.795471000000000E-01     -5.170312000000000E+01      4.052124000000000E-01     -1.524688000000000E+02      8.578186000000000E-01     -7.561328000000000E+01
4871000000.000000      8.647156000000000E-01     -1.658047000000000E+02      3.789520000000000E-01     -5.213476000000000E+01      4.052734000000000E-01     -1.526719000000000E+02      8.621826000000000E-01     -7.584765000000000E+01
4872000000.000000      8.695984000000000E-01     -1.657031000000000E+02      3.769531000000000E-01     -5.229101000000000E+01      4.059143000000000E-01     -1.529687000000000E+02      8.662415000000000E-01     -7.592578000000000E+01
4873000000.000000      8.730774000000000E-01     -1.655937000000000E+02      3.753510000000000E-01     -5.289257000000000E+01      4.065399000000000E-01     -1.529140000000000E+02      8.699951000000000E-01     -7.605859000000000E+01
4874000000.000000      8.739014000000000E-01     -1.655781000000000E+02      3.742218000000000E-01     -5.314258000000000E+01      4.076233000000000E-01     -1.531328000000000E+02      8.754578000000000E-01     -7.599609000000000E+01
4875000000.000000      8.796082000000000E-01     -1.657031000000000E+02      3.724976000000000E-01     -5.325781000000000E+01      4.078064000000000E-01     -1.534062000000000E+02      8.787842000000000E-01     -7.623437000000000E+01
4876000000.000000      8.793945000000000E-01     -1.655937000000000E+02      3.718567000000000E-01     -5.360937000000000E+01      4.068604000000000E-01     -1.535156000000000E+02      8.835754000000000E-01     -7.632813000000000E+01
4877000000.000000      8.844299000000000E-01     -1.656484000000000E+02      3.701782000000000E-01     -5.380468000000000E+01      4.080353000000000E-01     -1.537500000000000E+02      8.876038000000000E-01     -7.655078000000000E+01
4878000000.000000      8.869934000000000E-01     -1.656406000000000E+02      3.701019000000000E-01     -5.407617000000000E+01      4.084625000000000E-01     -1.537422000000000E+02      8.923340000000000E-01     -7.661327000000000E+01
4879000000.000000      8.874817000000000E-01     -1.654687000000000E+02      3.665924000000000E-01     -5.427148000000000E+01      4.081268000000000E-01     -1.539922000000000E+02      8.963623000000000E-01     -7.660937000000000E+01
4880000000.000000      8.898010000000000E-01     -1.654219000000000E+02      3.658142000000000E-01     -5.446094000000000E+01      4.089813000000000E-01     -1.540937000000000E+02      9.003601000000000E-01     -7.668750000000000E+01
4881000000.000000      8.933105000000000E-01     -1.651172000000000E+02      3.646545000000000E-01     -5.475586000000000E+01      4.089508000000000E-01     -1.543281000000000E+02      9.037781000000000E-01     -7.692968000000000E+01
4882000000.000000      8.934021000000000E-01     -1.651094000000000E+02      3.628235000000000E-01     -5.491992000000000E+01      4.086609000000000E-01     -1.543750000000000E+02      9.055786000000000E-01     -7.700000000000000E+01
