! Network Analyzer HP8722D
! Hewlett-Packard
! Data name: Linha & Wilkinson
! Saver's name: Rodrigo Anjos
! Comments: Teste da utilização de aquisição
continua pelo VNA HP8722D
! Time and date: 6/5/2025 13:54
!              Frequency                     S11                                                   S21                                                   S12                                                   S22
# HZ  S  MA R 50
4800000000.000000      4.976196000000000E-01     -1.682656000000000E+02      2.532654000000000E-01     -1.978808000000000E+01      2.494888000000000E-01     -1.410703000000000E+02      6.484680000000000E-01     -8.037109000000000E+01
4801000000.000000      4.990387000000000E-01     -1.683594000000000E+02      2.571106000000000E-01     -2.012500000000000E+01      2.534027000000000E-01     -1.411797000000000E+02      6.477661000000000E-01     -8.010546000000000E+01
4802000000.000000      4.998474000000000E-01     -1.684375000000000E+02      2.610321000000000E-01     -2.021679000000000E+01      2.569122000000000E-01     -1.411797000000000E+02      6.449280000000000E-01     -7.978516000000000E+01
4803000000.000000      5.018616000000000E-01     -1.685390000000000E+02      2.657928000000000E-01     -2.062500000000000E+01      2.599640000000000E-01     -1.412500000000000E+02      6.455078000000000E-01     -7.976563000000000E+01
4804000000.000000      5.040894000000000E-01     -1.684922000000000E+02      2.688446000000000E-01     -2.070313000000000E+01      2.646484000000000E-01     -1.414531000000000E+02      6.458740000000000E-01     -7.941015000000000E+01
4805000000.000000      5.064392000000000E-01     -1.685625000000000E+02      2.734985000000000E-01     -2.112695000000000E+01      2.681732000000000E-01     -1.414375000000000E+02      6.441345000000000E-01     -7.932031000000000E+01
4806000000.000000      5.079346000000000E-01     -1.684687000000000E+02      2.772675000000000E-01     -2.138574000000000E+01      2.706299000000000E-01     -1.413828000000000E+02      6.437683000000000E-01     -7.913280000000000E+01
4807000000.000000      5.110168000000000E-01     -1.685547000000000E+02      2.814484000000000E-01     -2.173535000000000E+01      2.750854000000000E-01     -1.417500000000000E+02      6.429749000000000E-01     -7.886328000000000E+01
4808000000.000000      5.133972000000000E-01     -1.684375000000000E+02      2.859344000000000E-01     -2.190430000000000E+01      2.783051000000000E-01     -1.418906000000000E+02      6.432190000000000E-01     -7.869922000000000E+01
4809000000.000000      5.161438000000000E-01     -1.685000000000000E+02      2.894897000000000E-01     -2.249512000000000E+01      2.821503000000000E-01     -1.419844000000000E+02      6.439819000000000E-01     -7.841015000000000E+01
4810000000.000000      5.189209000000000E-01     -1.684844000000000E+02      2.931824000000000E-01     -2.266406000000000E+01      2.849579000000000E-01     -1.419531000000000E+02      6.451111000000000E-01     -7.819921000000000E+01
4811000000.000000      5.224915000000000E-01     -1.684375000000000E+02      2.970886000000000E-01     -2.322949000000000E+01      2.896423000000000E-01     -1.420391000000000E+02      6.435242000000000E-01     -7.794922000000000E+01
4812000000.000000      5.265808000000000E-01     -1.683437000000000E+02      3.008118000000000E-01     -2.356640000000000E+01      2.924347000000000E-01     -1.422500000000000E+02      6.452637000000000E-01     -7.776953000000000E+01
4813000000.000000      5.291443000000000E-01     -1.682969000000000E+02      3.045807000000000E-01     -2.394531000000000E+01      2.956390000000000E-01     -1.423437000000000E+02      6.451111000000000E-01     -7.759375000000000E+01
4814000000.000000      5.319519000000000E-01     -1.684219000000000E+02      3.082428000000000E-01     -2.435449000000000E+01      2.986298000000000E-01     -1.426719000000000E+02      6.466980000000000E-01     -7.741405000000000E+01
4815000000.000000      5.357361000000000E-01     -1.681953000000000E+02      3.113251000000000E-01     -2.479785000000000E+01      3.021088000000000E-01     -1.426406000000000E+02      6.469116000000000E-01     -7.720703000000000E+01
4816000000.000000      5.401001000000000E-01     -1.681015000000000E+02      3.159180000000000E-01     -2.503711000000000E+01      3.060455000000000E-01     -1.427969000000000E+02      6.487427000000000E-01     -7.696094000000000E+01
4817000000.000000      5.443420000000000E-01     -1.680703000000000E+02      3.194580000000000E-01     -2.571386000000000E+01      3.083649000000000E-01     -1.430859000000000E+02      6.495361000000000E-01     -7.687500000000000E+01
4818000000.000000      5.483093000000000E-01     -1.680469000000000E+02      3.221130000000000E-01     -2.608887000000000E+01      3.115540000000000E-01     -1.432031000000000E+02      6.506958000000000E-01     -7.675781000000000E+01
4819000000.000000      5.531616000000000E-01     -1.679922000000000E+02      3.253174000000000E-01     -2.646093000000000E+01      3.134613000000000E-01     -1.434297000000000E+02      6.535034000000000E-01     -7.660546000000000E+01
4820000000.000000      5.551453000000000E-01     -1.678984000000000E+02      3.285828000000000E-01     -2.700098000000000E+01      3.173981000000000E-01     -1.435391000000000E+02      6.547546000000000E-01     -7.646093000000000E+01
4821000000.000000      5.618896000000000E-01     -1.677969000000000E+02      3.325806000000000E-01     -2.746875000000000E+01      3.202820000000000E-01     -1.438516000000000E+02      6.557922000000000E-01     -7.634766000000000E+01
4822000000.000000      5.678406000000000E-01     -1.677109000000000E+02      3.353882000000000E-01     -2.795898000000000E+01      3.224030000000000E-01     -1.440547000000000E+02      6.597290000000000E-01     -7.620312000000000E+01
4823000000.000000      5.711060000000000E-01     -1.676406000000000E+02      3.385620000000000E-01     -2.832031000000000E+01      3.252869000000000E-01     -1.440703000000000E+02      6.611023000000000E-01     -7.604297000000000E+01
4824000000.000000      5.787048000000000E-01     -1.675625000000000E+02      3.418274000000000E-01     -2.902539000000000E+01      3.289948000000000E-01     -1.443516000000000E+02      6.635742000000000E-01     -7.589453000000000E+01
4825000000.000000      5.830078000000000E-01     -1.675000000000000E+02      3.445892000000000E-01     -2.935547000000000E+01      3.322754000000000E-01     -1.445469000000000E+02      6.664124000000000E-01     -7.576953000000000E+01
4826000000.000000      5.894165000000000E-01     -1.673437000000000E+02      3.480835000000000E-01     -3.003418000000000E+01      3.334198000000000E-01     -1.448203000000000E+02      6.688538000000000E-01     -7.567968000000000E+01
4827000000.000000      5.950012000000000E-01     -1.671875000000000E+02      3.514252000000000E-01     -3.021973000000000E+01      3.362427000000000E-01     -1.448984000000000E+02      6.712646000000000E-01     -7.545312000000000E+01
4828000000.000000      6.011353000000000E-01     -1.671797000000000E+02      3.542175000000000E-01     -3.091504000000000E+01      3.391724000000000E-01     -1.450547000000000E+02      6.744690000000000E-01     -7.539063000000000E+01
4829000000.000000      6.052551000000000E-01     -1.670234000000000E+02      3.556061000000000E-01     -3.124121000000000E+01      3.415527000000000E-01     -1.453047000000000E+02      6.772766000000000E-01     -7.522265000000000E+01
4830000000.000000      6.120300000000000E-01     -1.669922000000000E+02      3.582611000000000E-01     -3.191699000000000E+01      3.434753000000000E-01     -1.455078000000000E+02      6.800842000000000E-01     -7.523438000000000E+01
4831000000.000000      6.175537000000000E-01     -1.669297000000000E+02      3.607788000000000E-01     -3.261719000000000E+01      3.463745000000000E-01     -1.456094000000000E+02      6.845398000000000E-01     -7.514062000000000E+01
4832000000.000000      6.257019000000000E-01     -1.668437000000000E+02      3.640900000000000E-01     -3.305664000000000E+01      3.490143000000000E-01     -1.459844000000000E+02      6.869812000000000E-01     -7.512109000000000E+01
4833000000.000000      6.319580000000000E-01     -1.667969000000000E+02      3.660431000000000E-01     -3.356445000000000E+01      3.507843000000000E-01     -1.461641000000000E+02      6.896362000000000E-01     -7.496484000000000E+01
4834000000.000000      6.382751000000000E-01     -1.667266000000000E+02      3.674622000000000E-01     -3.426367000000000E+01      3.534851000000000E-01     -1.463359000000000E+02      6.940308000000000E-01     -7.491405000000000E+01
4835000000.000000      6.445923000000000E-01     -1.667031000000000E+02      3.705597000000000E-01     -3.464453000000000E+01      3.559570000000000E-01     -1.465156000000000E+02      6.970520000000000E-01     -7.491796000000000E+01
4836000000.000000      6.524353000000000E-01     -1.664844000000000E+02      3.721313000000000E-01     -3.524414000000000E+01      3.574524000000000E-01     -1.466719000000000E+02      7.007751000000000E-01     -7.475390000000000E+01
4837000000.000000      6.593628000000000E-01     -1.664063000000000E+02      3.744659000000000E-01     -3.602539000000000E+01      3.603210000000000E-01     -1.470078000000000E+02      7.048035000000000E-01     -7.478125000000000E+01
4838000000.000000      6.657715000000000E-01     -1.665000000000000E+02      3.772125000000000E-01     -3.640429000000000E+01      3.611755000000000E-01     -1.470781000000000E+02      7.091064000000000E-01     -7.467578000000000E+01
4839000000.000000      6.729431000000000E-01     -1.662578000000000E+02      3.776703000000000E-01     -3.681250000000000E+01      3.640442000000000E-01     -1.472422000000000E+02      7.131348000000000E-01     -7.465234000000000E+01
4840000000.000000      6.788940000000000E-01     -1.662812000000000E+02      3.789673000000000E-01     -3.744726000000000E+01      3.662109000000000E-01     -1.474766000000000E+02      7.162781000000000E-01     -7.469531000000000E+01
4841000000.000000      6.874390000000000E-01     -1.663828000000000E+02      3.815613000000000E-01     -3.816601000000000E+01      3.683014000000000E-01     -1.477031000000000E+02      7.203979000000000E-01     -7.465625000000000E+01
4842000000.000000      6.947632000000000E-01     -1.661875000000000E+02      3.816223000000000E-01     -3.854101000000000E+01      3.692627000000000E-01     -1.478281000000000E+02      7.245789000000000E-01     -7.460155000000000E+01
4843000000.000000      7.005615000000000E-01     -1.662422000000000E+02      3.835449000000000E-01     -3.923242000000000E+01      3.714752000000000E-01     -1.480625000000000E+02      7.282715000000000E-01     -7.454296000000000E+01
4844000000.000000      7.073059000000000E-01     -1.661562000000000E+02      3.847046000000000E-01     -3.966015000000000E+01      3.726349000000000E-01     -1.482969000000000E+02      7.337646000000000E-01     -7.457812000000000E+01
4845000000.000000      7.142029000000000E-01     -1.660781000000000E+02      3.855438000000000E-01     -4.025195000000000E+01      3.747101000000000E-01     -1.484375000000000E+02      7.375183000000000E-01     -7.458984000000000E+01
4846000000.000000      7.215881000000000E-01     -1.659922000000000E+02      3.872070000000000E-01     -4.082031000000000E+01      3.768616000000000E-01     -1.485859000000000E+02      7.422485000000000E-01     -7.452343000000000E+01
4847000000.000000      7.298279000000000E-01     -1.660469000000000E+02      3.872528000000000E-01     -4.133203000000000E+01      3.783569000000000E-01     -1.488437000000000E+02      7.467041000000000E-01     -7.462109000000000E+01
4848000000.000000      7.368164000000000E-01     -1.659844000000000E+02      3.876648000000000E-01     -4.179688000000000E+01      3.799896000000000E-01     -1.489297000000000E+02      7.514343000000000E-01     -7.457421000000000E+01
4849000000.000000      7.436218000000000E-01     -1.662344000000000E+02      3.894348000000000E-01     -4.249609000000000E+01      3.822174000000000E-01     -1.492031000000000E+02      7.561340000000000E-01     -7.457421000000000E+01
4850000000.000000      7.500305000000000E-01     -1.659765000000000E+02      3.894806000000000E-01     -4.301562000000000E+01      3.831024000000000E-01     -1.492969000000000E+02      7.602844000000000E-01     -7.462891000000000E+01
4851000000.000000      7.581787000000000E-01     -1.659062000000000E+02      3.904877000000000E-01     -4.352539000000000E+01      3.840637000000000E-01     -1.494453000000000E+02      7.656250000000000E-01     -7.464453000000000E+01
4852000000.000000      7.642517000000000E-01     -1.659922000000000E+02      3.903046000000000E-01     -4.401953000000000E+01      3.865051000000000E-01     -1.496484000000000E+02      7.700195000000000E-01     -7.460546000000000E+01
4853000000.000000      7.708130000000000E-01     -1.659844000000000E+02      3.889465000000000E-01     -4.444140000000000E+01      3.878632000000000E-01     -1.499219000000000E+02      7.749634000000000E-01     -7.482031000000000E+01
4854000000.000000      7.774048000000000E-01     -1.660078000000000E+02      3.905487000000000E-01     -4.528320000000000E+01      3.888397000000000E-01     -1.500937000000000E+02      7.790222000000000E-01     -7.479687000000000E+01
4855000000.000000      7.828979000000000E-01     -1.660625000000000E+02      3.898010000000000E-01     -4.554688000000000E+01      3.900452000000000E-01     -1.502109000000000E+02      7.821045000000000E-01     -7.473437000000000E+01
4856000000.000000      7.906799000000000E-01     -1.659297000000000E+02      3.895874000000000E-01     -4.608398000000000E+01      3.917236000000000E-01     -1.503125000000000E+02      7.893372000000000E-01     -7.480469000000000E+01
4857000000.000000      7.966309000000000E-01     -1.659765000000000E+02      3.898468000000000E-01     -4.661914000000000E+01      3.930206000000000E-01     -1.504219000000000E+02      7.941589000000000E-01     -7.484375000000000E+01
4858000000.000000      8.010254000000000E-01     -1.660703000000000E+02      3.896179000000000E-01     -4.691796000000000E+01      3.931885000000000E-01     -1.507344000000000E+02      7.979126000000000E-01     -7.493750000000000E+01
4859000000.000000      8.074951000000000E-01     -1.660859000000000E+02      3.894043000000000E-01     -4.754492000000000E+01      3.950043000000000E-01     -1.509531000000000E+02      8.048401000000000E-01     -7.512890000000000E+01
4860000000.000000      8.148499000000000E-01     -1.660469000000000E+02      3.889618000000000E-01     -4.799218000000000E+01      3.951721000000000E-01     -1.510703000000000E+02      8.073730000000000E-01     -7.491796000000000E+01
4861000000.000000      8.207397000000000E-01     -1.658828000000000E+02      3.882294000000000E-01     -4.856835000000000E+01      3.971558000000000E-01     -1.512500000000000E+02      8.132324000000000E-01     -7.515234000000000E+01
4862000000.000000      8.256531000000000E-01     -1.660391000000000E+02      3.880768000000000E-01     -4.887695000000000E+01      3.986359000000000E-01     -1.513594000000000E+02      8.191833000000000E-01     -7.512109000000000E+01
4863000000.000000      8.293457000000000E-01     -1.660156000000000E+02      3.862000000000000E-01     -4.937695000000000E+01      3.999786000000000E-01     -1.515312000000000E+02      8.240051000000000E-01     -7.525000000000000E+01
4864000000.000000      8.353577000000000E-01     -1.660234000000000E+02      3.862457000000000E-01     -4.972070000000000E+01      3.996735000000000E-01     -1.517109000000000E+02      8.282471000000000E-01     -7.532812000000000E+01
4865000000.000000      8.379517000000000E-01     -1.661562000000000E+02      3.847809000000000E-01     -5.024219000000000E+01      4.008179000000000E-01     -1.519687000000000E+02      8.329163000000000E-01     -7.533203000000000E+01
4866000000.000000      8.444214000000000E-01     -1.660547000000000E+02      3.832245000000000E-01     -5.066015000000000E+01      4.016876000000000E-01     -1.520234000000000E+02      8.375244000000000E-01     -7.533203000000000E+01
4867000000.000000      8.489990000000000E-01     -1.660859000000000E+02      3.837891000000000E-01     -5.113867000000000E+01      4.025879000000000E-01     -1.522578000000000E+02      8.414001000000000E-01     -7.559375000000000E+01
4868000000.000000      8.540039000000000E-01     -1.661094000000000E+02      3.815155000000000E-01     -5.135547000000000E+01      4.037323000000000E-01     -1.523359000000000E+02      8.459167000000000E-01     -7.562500000000000E+01
4869000000.000000      8.563538000000000E-01     -1.660859000000000E+02      3.794708000000000E-01     -5.174218000000000E+01      4.041901000000000E-01     -1.526016000000000E+02      8.524780000000000E-01     -7.581249000000000E+01
4870000000.000000      8.616943000000000E-01     -1.661484000000000E+02      3.796387000000000E-01     -5.197266000000000E+01      4.045715000000000E-01     -1.527812000000000E+02      8.576355000000000E-01     -7.578906000000000E+01
4871000000.000000      8.653564000000000E-01     -1.661719000000000E+02      3.784027000000000E-01     -5.250390000000000E+01      4.046021000000000E-01     -1.529453000000000E+02      8.598022000000000E-01     -7.595312000000000E+01
4872000000.000000      8.702698000000000E-01     -1.659688000000000E+02      3.760071000000000E-01     -5.247265000000000E+01      4.059448000000000E-01     -1.532578000000000E+02      8.659668000000000E-01     -7.609765000000000E+01
4873000000.000000      8.728943000000000E-01     -1.659375000000000E+02      3.752441000000000E-01     -5.312304000000000E+01      4.056244000000000E-01     -1.532734000000000E+02      8.697815000000000E-01     -7.617188000000000E+01
4874000000.000000      8.768005000000000E-01     -1.658750000000000E+02      3.739014000000000E-01     -5.332812000000000E+01      4.068604000000000E-01     -1.534062000000000E+02      8.743286000000000E-01     -7.607031000000000E+01
4875000000.000000      8.796082000000000E-01     -1.658281000000000E+02      3.721771000000000E-01     -5.350586000000000E+01      4.067688000000000E-01     -1.536875000000000E+02      8.782654000000000E-01     -7.636719000000000E+01
4876000000.000000      8.824768000000000E-01     -1.660156000000000E+02      3.708038000000000E-01     -5.383007000000000E+01      4.062347000000000E-01     -1.538047000000000E+02      8.832703000000000E-01     -7.648046000000000E+01
4877000000.000000      8.841858000000000E-01     -1.658281000000000E+02      3.695374000000000E-01     -5.395117000000000E+01      4.074707000000000E-01     -1.540547000000000E+02      8.873596000000000E-01     -7.655859000000000E+01
4878000000.000000      8.870850000000000E-01     -1.657422000000000E+02      3.687439000000000E-01     -5.416406000000000E+01      4.075012000000000E-01     -1.540859000000000E+02      8.916626000000000E-01     -7.671484000000000E+01
4879000000.000000      8.914490000000000E-01     -1.657500000000000E+02      3.674316000000000E-01     -5.458398000000000E+01      4.072723000000000E-01     -1.542500000000000E+02      8.947754000000000E-01     -7.671093000000000E+01
4880000000.000000      8.911743000000000E-01     -1.656406000000000E+02      3.654633000000000E-01     -5.481054000000000E+01      4.079742000000000E-01     -1.543281000000000E+02      8.998108000000000E-01     -7.683594000000000E+01
4881000000.000000      8.955994000000000E-01     -1.655625000000000E+02      3.649902000000000E-01     -5.477148000000000E+01      4.083862000000000E-01     -1.546406000000000E+02      9.035339000000000E-01     -7.707812000000000E+01
4882000000.000000      8.955383000000000E-01     -1.655937000000000E+02      3.631744000000000E-01     -5.511328000000000E+01      4.079437000000000E-01     -1.546484000000000E+02      9.058228000000000E-01     -7.708984000000000E+01
