! Network Analyzer HP8722D
! Hewlett-Packard
! Data name: Linha & Wilkinson
! Saver's name: Rodrigo Anjos
! Comments: Teste da utilização de aquisição
continua pelo VNA HP8722D
! Time and date: 6/5/2025 15:08
!              Frequency                     S11                                                   S21                                                   S12                                                   S22
# HZ  S  MA R 50
4800000000.000000      4.965973000000000E-01     -1.681875000000000E+02      2.517242000000000E-01     -1.959570000000000E+01      2.484512000000000E-01     -1.407422000000000E+02      6.481323000000000E-01     -8.029297000000000E+01
4801000000.000000      4.975433000000000E-01     -1.682891000000000E+02      2.553101000000000E-01     -1.977441000000000E+01      2.518158000000000E-01     -1.409219000000000E+02      6.469116000000000E-01     -8.008984000000000E+01
4802000000.000000      4.990082000000000E-01     -1.683516000000000E+02      2.594757000000000E-01     -1.998047000000000E+01      2.558899000000000E-01     -1.409297000000000E+02      6.450806000000000E-01     -7.978516000000000E+01
4803000000.000000      5.003662000000000E-01     -1.684141000000000E+02      2.641907000000000E-01     -2.028809000000000E+01      2.589722000000000E-01     -1.410078000000000E+02      6.443481000000000E-01     -7.967187000000000E+01
4804000000.000000      5.028381000000000E-01     -1.683594000000000E+02      2.682953000000000E-01     -2.059863000000000E+01      2.631073000000000E-01     -1.412031000000000E+02      6.445618000000000E-01     -7.937890000000000E+01
4805000000.000000      5.056152000000000E-01     -1.684062000000000E+02      2.721710000000000E-01     -2.087012000000000E+01      2.669067000000000E-01     -1.411406000000000E+02      6.435242000000000E-01     -7.925781000000000E+01
4806000000.000000      5.070801000000000E-01     -1.683359000000000E+02      2.764893000000000E-01     -2.102930000000000E+01      2.696228000000000E-01     -1.411406000000000E+02      6.434631000000000E-01     -7.915625000000000E+01
4807000000.000000      5.101929000000000E-01     -1.684062000000000E+02      2.802277000000000E-01     -2.154883000000000E+01      2.737732000000000E-01     -1.413203000000000E+02      6.430969000000000E-01     -7.901562000000000E+01
4808000000.000000      5.126648000000000E-01     -1.682891000000000E+02      2.847748000000000E-01     -2.166016000000000E+01      2.772064000000000E-01     -1.414453000000000E+02      6.439514000000000E-01     -7.866405000000000E+01
4809000000.000000      5.150146000000000E-01     -1.683125000000000E+02      2.881927000000000E-01     -2.226172000000000E+01      2.812653000000000E-01     -1.417109000000000E+02      6.434021000000000E-01     -7.847656000000000E+01
4810000000.000000      5.186768000000000E-01     -1.683906000000000E+02      2.921295000000000E-01     -2.244824000000000E+01      2.843170000000000E-01     -1.417500000000000E+02      6.444092000000000E-01     -7.824609000000000E+01
4811000000.000000      5.211182000000000E-01     -1.682812000000000E+02      2.964935000000000E-01     -2.295605000000000E+01      2.884369000000000E-01     -1.417969000000000E+02      6.440735000000000E-01     -7.800781000000000E+01
4812000000.000000      5.248108000000000E-01     -1.682578000000000E+02      2.998047000000000E-01     -2.325586000000000E+01      2.918701000000000E-01     -1.418672000000000E+02      6.448059000000000E-01     -7.771484000000000E+01
4813000000.000000      5.280151000000000E-01     -1.681797000000000E+02      3.032227000000000E-01     -2.365429000000000E+01      2.943420000000000E-01     -1.419609000000000E+02      6.449280000000000E-01     -7.758984000000000E+01
4814000000.000000      5.304260000000000E-01     -1.682812000000000E+02      3.072662000000000E-01     -2.413086000000000E+01      2.981720000000000E-01     -1.422656000000000E+02      6.459656000000000E-01     -7.750000000000000E+01
4815000000.000000      5.339966000000000E-01     -1.680781000000000E+02      3.104858000000000E-01     -2.445508000000000E+01      3.007813000000000E-01     -1.422656000000000E+02      6.462097000000000E-01     -7.716797000000000E+01
4816000000.000000      5.389709000000000E-01     -1.679844000000000E+02      3.147888000000000E-01     -2.482715000000000E+01      3.048096000000000E-01     -1.424766000000000E+02      6.482544000000000E-01     -7.699609000000000E+01
4817000000.000000      5.431213000000000E-01     -1.679375000000000E+02      3.181305000000000E-01     -2.537988000000000E+01      3.070679000000000E-01     -1.427734000000000E+02      6.487122000000000E-01     -7.690234000000000E+01
4818000000.000000      5.468750000000000E-01     -1.679219000000000E+02      3.212738000000000E-01     -2.577343000000000E+01      3.105774000000000E-01     -1.427187000000000E+02      6.502686000000000E-01     -7.680859000000000E+01
4819000000.000000      5.521240000000000E-01     -1.678828000000000E+02      3.244324000000000E-01     -2.619629000000000E+01      3.130951000000000E-01     -1.430469000000000E+02      6.535339000000000E-01     -7.660156000000000E+01
4820000000.000000      5.542297000000000E-01     -1.677813000000000E+02      3.281860000000000E-01     -2.660351000000000E+01      3.172607000000000E-01     -1.432578000000000E+02      6.544495000000000E-01     -7.640625000000000E+01
4821000000.000000      5.600891000000000E-01     -1.676641000000000E+02      3.315582000000000E-01     -2.712695000000000E+01      3.193970000000000E-01     -1.435547000000000E+02      6.560364000000000E-01     -7.629687000000000E+01
4822000000.000000      5.669556000000000E-01     -1.675937000000000E+02      3.347931000000000E-01     -2.767383000000000E+01      3.222046000000000E-01     -1.437266000000000E+02      6.578064000000000E-01     -7.607812000000000E+01
4823000000.000000      5.700684000000000E-01     -1.675000000000000E+02      3.374939000000000E-01     -2.798925000000000E+01      3.246460000000000E-01     -1.436719000000000E+02      6.606140000000000E-01     -7.601563000000000E+01
4824000000.000000      5.774231000000000E-01     -1.674219000000000E+02      3.414154000000000E-01     -2.867871000000000E+01      3.291016000000000E-01     -1.440078000000000E+02      6.634216000000000E-01     -7.589062000000000E+01
4825000000.000000      5.814514000000000E-01     -1.673203000000000E+02      3.439178000000000E-01     -2.902246000000000E+01      3.315582000000000E-01     -1.441328000000000E+02      6.649475000000000E-01     -7.567187000000000E+01
4826000000.000000      5.879517000000000E-01     -1.672344000000000E+02      3.473053000000000E-01     -2.966601000000000E+01      3.329773000000000E-01     -1.444375000000000E+02      6.680908000000000E-01     -7.564062000000000E+01
4827000000.000000      5.934448000000000E-01     -1.670938000000000E+02      3.496094000000000E-01     -2.993261000000000E+01      3.357239000000000E-01     -1.445391000000000E+02      6.704407000000000E-01     -7.553905000000000E+01
4828000000.000000      6.000671000000000E-01     -1.670547000000000E+02      3.529510000000000E-01     -3.061230000000000E+01      3.373566000000000E-01     -1.447500000000000E+02      6.744385000000000E-01     -7.538671000000000E+01
4829000000.000000      6.035156000000000E-01     -1.669141000000000E+02      3.547363000000000E-01     -3.111914000000000E+01      3.411102000000000E-01     -1.450312000000000E+02      6.770325000000000E-01     -7.523046000000000E+01
4830000000.000000      6.107178000000000E-01     -1.668359000000000E+02      3.577271000000000E-01     -3.175879000000000E+01      3.430634000000000E-01     -1.451484000000000E+02      6.791077000000000E-01     -7.517187000000000E+01
4831000000.000000      6.158142000000000E-01     -1.667344000000000E+02      3.600311000000000E-01     -3.221094000000000E+01      3.462982000000000E-01     -1.453047000000000E+02      6.828918000000000E-01     -7.507030000000000E+01
4832000000.000000      6.238708000000000E-01     -1.666875000000000E+02      3.630066000000000E-01     -3.278711000000000E+01      3.479919000000000E-01     -1.455312000000000E+02      6.849060000000000E-01     -7.498047000000000E+01
4833000000.000000      6.304626000000000E-01     -1.666953000000000E+02      3.654175000000000E-01     -3.331445000000000E+01      3.500519000000000E-01     -1.457813000000000E+02      6.889038000000000E-01     -7.492969000000000E+01
4834000000.000000      6.367798000000000E-01     -1.665625000000000E+02      3.675079000000000E-01     -3.393945000000000E+01      3.527832000000000E-01     -1.459609000000000E+02      6.931152000000000E-01     -7.486718000000000E+01
4835000000.000000      6.426392000000000E-01     -1.664687000000000E+02      3.698425000000000E-01     -3.438867000000000E+01      3.553162000000000E-01     -1.462109000000000E+02      6.965942000000000E-01     -7.492188000000000E+01
4836000000.000000      6.513672000000000E-01     -1.663437000000000E+02      3.718567000000000E-01     -3.491601000000000E+01      3.571167000000000E-01     -1.463359000000000E+02      6.990967000000000E-01     -7.473827000000000E+01
4837000000.000000      6.574402000000000E-01     -1.662578000000000E+02      3.737793000000000E-01     -3.576953000000000E+01      3.599701000000000E-01     -1.465859000000000E+02      7.030640000000000E-01     -7.475390000000000E+01
4838000000.000000      6.643066000000000E-01     -1.663203000000000E+02      3.758850000000000E-01     -3.609766000000000E+01      3.620300000000000E-01     -1.466563000000000E+02      7.080994000000000E-01     -7.463281000000000E+01
4839000000.000000      6.717224000000000E-01     -1.661406000000000E+02      3.771057000000000E-01     -3.655078000000000E+01      3.636932000000000E-01     -1.468828000000000E+02      7.117310000000000E-01     -7.452734000000000E+01
4840000000.000000      6.774292000000000E-01     -1.662109000000000E+02      3.783875000000000E-01     -3.698047000000000E+01      3.657837000000000E-01     -1.470781000000000E+02      7.160034000000000E-01     -7.466406000000000E+01
4841000000.000000      6.851501000000000E-01     -1.661484000000000E+02      3.807068000000000E-01     -3.766992000000000E+01      3.681946000000000E-01     -1.473359000000000E+02      7.195740000000000E-01     -7.454296000000000E+01
4842000000.000000      6.927490000000000E-01     -1.660469000000000E+02      3.818665000000000E-01     -3.830078000000000E+01      3.692780000000000E-01     -1.474844000000000E+02      7.242432000000000E-01     -7.449219000000000E+01
4843000000.000000      6.992493000000000E-01     -1.661016000000000E+02      3.830261000000000E-01     -3.886328000000000E+01      3.715057000000000E-01     -1.477187000000000E+02      7.279053000000000E-01     -7.446875000000000E+01
4844000000.000000      7.055054000000000E-01     -1.659844000000000E+02      3.846130000000000E-01     -3.925195000000000E+01      3.727112000000000E-01     -1.478750000000000E+02      7.333374000000000E-01     -7.454296000000000E+01
4845000000.000000      7.125244000000000E-01     -1.658984000000000E+02      3.849640000000000E-01     -4.011132000000000E+01      3.744965000000000E-01     -1.480937000000000E+02      7.357788000000000E-01     -7.443749000000000E+01
4846000000.000000      7.205200000000000E-01     -1.657969000000000E+02      3.856964000000000E-01     -4.045312000000000E+01      3.767395000000000E-01     -1.482578000000000E+02      7.410278000000000E-01     -7.446094000000000E+01
4847000000.000000      7.287292000000000E-01     -1.657891000000000E+02      3.871307000000000E-01     -4.096093000000000E+01      3.792419000000000E-01     -1.484688000000000E+02      7.456055000000000E-01     -7.455859000000000E+01
4848000000.000000      7.344666000000000E-01     -1.658203000000000E+02      3.873901000000000E-01     -4.142774000000000E+01      3.804779000000000E-01     -1.486484000000000E+02      7.494507000000000E-01     -7.454687000000000E+01
4849000000.000000      7.416992000000000E-01     -1.660703000000000E+02      3.886566000000000E-01     -4.230469000000000E+01      3.817596000000000E-01     -1.488281000000000E+02      7.547913000000000E-01     -7.447656000000000E+01
4850000000.000000      7.494507000000000E-01     -1.657891000000000E+02      3.894653000000000E-01     -4.269727000000000E+01      3.834991000000000E-01     -1.489766000000000E+02      7.590942000000000E-01     -7.443359000000000E+01
4851000000.000000      7.563171000000000E-01     -1.657812000000000E+02      3.904724000000000E-01     -4.333984000000000E+01      3.843994000000000E-01     -1.491484000000000E+02      7.640991000000000E-01     -7.444530000000000E+01
4852000000.000000      7.626953000000000E-01     -1.658750000000000E+02      3.902588000000000E-01     -4.377930000000000E+01      3.863068000000000E-01     -1.493281000000000E+02      7.688599000000000E-01     -7.457421000000000E+01
4853000000.000000      7.697449000000000E-01     -1.658437000000000E+02      3.892517000000000E-01     -4.431641000000000E+01      3.883667000000000E-01     -1.496094000000000E+02      7.731323000000000E-01     -7.467968000000000E+01
4854000000.000000      7.760315000000000E-01     -1.658125000000000E+02      3.903046000000000E-01     -4.497851000000000E+01      3.895874000000000E-01     -1.497890000000000E+02      7.785645000000000E-01     -7.461719000000000E+01
4855000000.000000      7.819824000000000E-01     -1.658281000000000E+02      3.893890000000000E-01     -4.512500000000000E+01      3.901062000000000E-01     -1.500078000000000E+02      7.819824000000000E-01     -7.467187000000000E+01
4856000000.000000      7.902832000000000E-01     -1.657344000000000E+02      3.906708000000000E-01     -4.568945000000000E+01      3.916168000000000E-01     -1.501328000000000E+02      7.885742000000000E-01     -7.468750000000000E+01
4857000000.000000      7.955017000000000E-01     -1.658359000000000E+02      3.903351000000000E-01     -4.623632000000000E+01      3.930817000000000E-01     -1.502187000000000E+02      7.929382000000000E-01     -7.484375000000000E+01
4858000000.000000      7.994080000000000E-01     -1.658828000000000E+02      3.898773000000000E-01     -4.666601000000000E+01      3.939667000000000E-01     -1.505078000000000E+02      7.968750000000000E-01     -7.481640000000000E+01
4859000000.000000      8.078003000000000E-01     -1.658359000000000E+02      3.897400000000000E-01     -4.717578000000000E+01      3.952484000000000E-01     -1.507031000000000E+02      8.028564000000000E-01     -7.492578000000000E+01
4860000000.000000      8.148193000000000E-01     -1.659062000000000E+02      3.890228000000000E-01     -4.768945000000000E+01      3.958130000000000E-01     -1.507813000000000E+02      8.069763000000000E-01     -7.484765000000000E+01
4861000000.000000      8.197021000000000E-01     -1.658750000000000E+02      3.882751000000000E-01     -4.814453000000000E+01      3.980408000000000E-01     -1.509453000000000E+02      8.114014000000000E-01     -7.507421000000000E+01
4862000000.000000      8.234558000000000E-01     -1.659297000000000E+02      3.887329000000000E-01     -4.870312000000000E+01      3.993530000000000E-01     -1.510703000000000E+02      8.185425000000000E-01     -7.496484000000000E+01
4863000000.000000      8.303833000000000E-01     -1.657578000000000E+02      3.868561000000000E-01     -4.929882000000000E+01      4.001007000000000E-01     -1.511875000000000E+02      8.229980000000000E-01     -7.512500000000000E+01
4864000000.000000      8.346558000000000E-01     -1.659531000000000E+02      3.872986000000000E-01     -4.942968000000000E+01      4.000549000000000E-01     -1.513672000000000E+02      8.283997000000000E-01     -7.528125000000000E+01
4865000000.000000      8.386230000000000E-01     -1.659688000000000E+02      3.850098000000000E-01     -4.990039000000000E+01      4.013977000000000E-01     -1.516719000000000E+02      8.333130000000000E-01     -7.514453000000000E+01
4866000000.000000      8.432922000000000E-01     -1.659141000000000E+02      3.834381000000000E-01     -5.023828000000000E+01      4.022827000000000E-01     -1.517969000000000E+02      8.377075000000000E-01     -7.524609000000000E+01
4867000000.000000      8.494263000000000E-01     -1.658047000000000E+02      3.842010000000000E-01     -5.075976000000000E+01      4.031067000000000E-01     -1.519609000000000E+02      8.424988000000000E-01     -7.542187000000000E+01
4868000000.000000      8.540955000000000E-01     -1.658516000000000E+02      3.827362000000000E-01     -5.120117000000000E+01      4.041138000000000E-01     -1.521406000000000E+02      8.457031000000000E-01     -7.546093000000000E+01
4869000000.000000      8.547974000000000E-01     -1.659062000000000E+02      3.811340000000000E-01     -5.150976000000000E+01      4.048004000000000E-01     -1.523359000000000E+02      8.519897000000000E-01     -7.569921000000000E+01
4870000000.000000      8.609009000000000E-01     -1.658672000000000E+02      3.798676000000000E-01     -5.171875000000000E+01      4.047241000000000E-01     -1.524922000000000E+02      8.572083000000000E-01     -7.563281000000000E+01
4871000000.000000      8.675842000000000E-01     -1.659062000000000E+02      3.784027000000000E-01     -5.224023000000000E+01      4.049072000000000E-01     -1.527187000000000E+02      8.611145000000000E-01     -7.587109000000000E+01
4872000000.000000      8.699951000000000E-01     -1.658516000000000E+02      3.767853000000000E-01     -5.225586000000000E+01      4.056091000000000E-01     -1.529531000000000E+02      8.675537000000000E-01     -7.591797000000000E+01
4873000000.000000      8.720093000000000E-01     -1.656953000000000E+02      3.754730000000000E-01     -5.282812000000000E+01      4.060059000000000E-01     -1.530469000000000E+02      8.694458000000000E-01     -7.608203000000000E+01
4874000000.000000      8.762512000000000E-01     -1.656953000000000E+02      3.747406000000000E-01     -5.308398000000000E+01      4.072876000000000E-01     -1.531328000000000E+02      8.730774000000000E-01     -7.594140000000000E+01
4875000000.000000      8.804321000000000E-01     -1.657500000000000E+02      3.729706000000000E-01     -5.321679000000000E+01      4.077606000000000E-01     -1.534219000000000E+02      8.784180000000000E-01     -7.624218000000000E+01
4876000000.000000      8.781738000000000E-01     -1.656016000000000E+02      3.704071000000000E-01     -5.375000000000000E+01      4.066772000000000E-01     -1.535469000000000E+02      8.836060000000000E-01     -7.633594000000000E+01
4877000000.000000      8.830872000000000E-01     -1.654297000000000E+02      3.701782000000000E-01     -5.380077000000000E+01      4.083557000000000E-01     -1.537891000000000E+02      8.882446000000000E-01     -7.644531000000000E+01
4878000000.000000      8.867188000000000E-01     -1.655469000000000E+02      3.690033000000000E-01     -5.421484000000000E+01      4.082642000000000E-01     -1.537969000000000E+02      8.923035000000000E-01     -7.660156000000000E+01
4879000000.000000      8.900452000000000E-01     -1.654766000000000E+02      3.674011000000000E-01     -5.416210000000000E+01      4.079895000000000E-01     -1.540234000000000E+02      8.954468000000000E-01     -7.655468000000000E+01
4880000000.000000      8.915710000000000E-01     -1.653984000000000E+02      3.659668000000000E-01     -5.455664000000000E+01      4.088135000000000E-01     -1.541328000000000E+02      8.988953000000000E-01     -7.670703000000000E+01
4881000000.000000      8.939819000000000E-01     -1.652891000000000E+02      3.647003000000000E-01     -5.462695000000000E+01      4.091034000000000E-01     -1.543906000000000E+02      9.029236000000000E-01     -7.685547000000000E+01
4882000000.000000      8.929138000000000E-01     -1.652109000000000E+02      3.633118000000000E-01     -5.493750000000000E+01      4.086761000000000E-01     -1.544219000000000E+02      9.054871000000000E-01     -7.707812000000000E+01
