! Network Analyzer HP8722D
! Hewlett-Packard
! Data name: Linha & Wilkinson
! Saver's name: Rodrigo Anjos
! Comments: Teste da utilização de aquisição
continua pelo VNA HP8722D
! Time and date: 6/5/2025 15:04
!              Frequency                     S11                                                   S21                                                   S12                                                   S22
# HZ  S  MA R 50
4800000000.000000      4.962158000000000E-01     -1.681797000000000E+02      2.520599000000000E-01     -1.971289000000000E+01      2.485809000000000E-01     -1.408828000000000E+02      6.472473000000000E-01     -8.036327000000000E+01
4801000000.000000      4.982605000000000E-01     -1.682578000000000E+02      2.562256000000000E-01     -1.983203000000000E+01      2.521667000000000E-01     -1.409297000000000E+02      6.478271000000000E-01     -8.003515000000000E+01
4802000000.000000      4.994354000000000E-01     -1.683125000000000E+02      2.593994000000000E-01     -2.006445000000000E+01      2.559814000000000E-01     -1.408984000000000E+02      6.443176000000000E-01     -7.979687000000000E+01
4803000000.000000      5.005493000000000E-01     -1.683594000000000E+02      2.643738000000000E-01     -2.021679000000000E+01      2.588959000000000E-01     -1.409453000000000E+02      6.449585000000000E-01     -7.964062000000000E+01
4804000000.000000      5.031738000000000E-01     -1.683828000000000E+02      2.683411000000000E-01     -2.047656000000000E+01      2.633972000000000E-01     -1.411406000000000E+02      6.441040000000000E-01     -7.942577000000000E+01
4805000000.000000      5.054321000000000E-01     -1.684375000000000E+02      2.726440000000000E-01     -2.093945000000000E+01      2.665405000000000E-01     -1.412188000000000E+02      6.443481000000000E-01     -7.930078000000000E+01
4806000000.000000      5.070801000000000E-01     -1.684219000000000E+02      2.760925000000000E-01     -2.111621000000000E+01      2.696381000000000E-01     -1.411641000000000E+02      6.430359000000000E-01     -7.912499000000000E+01
4807000000.000000      5.103760000000000E-01     -1.684375000000000E+02      2.806396000000000E-01     -2.139648000000000E+01      2.736664000000000E-01     -1.414063000000000E+02      6.429443000000000E-01     -7.885547000000000E+01
4808000000.000000      5.129700000000000E-01     -1.683594000000000E+02      2.847137000000000E-01     -2.171387000000000E+01      2.774963000000000E-01     -1.415078000000000E+02      6.428833000000000E-01     -7.861328000000000E+01
4809000000.000000      5.146790000000000E-01     -1.683750000000000E+02      2.881165000000000E-01     -2.220508000000000E+01      2.810211000000000E-01     -1.416641000000000E+02      6.429138000000000E-01     -7.849609000000000E+01
4810000000.000000      5.181274000000000E-01     -1.683984000000000E+02      2.925720000000000E-01     -2.248437000000000E+01      2.845764000000000E-01     -1.417422000000000E+02      6.439209000000000E-01     -7.826562000000000E+01
4811000000.000000      5.211487000000000E-01     -1.683359000000000E+02      2.966003000000000E-01     -2.296093000000000E+01      2.887726000000000E-01     -1.418594000000000E+02      6.437988000000000E-01     -7.787109000000000E+01
4812000000.000000      5.249939000000000E-01     -1.682500000000000E+02      2.994537000000000E-01     -2.322949000000000E+01      2.915192000000000E-01     -1.420234000000000E+02      6.439514000000000E-01     -7.778515000000000E+01
4813000000.000000      5.276489000000000E-01     -1.682344000000000E+02      3.037262000000000E-01     -2.367774000000000E+01      2.948151000000000E-01     -1.420156000000000E+02      6.445923000000000E-01     -7.757813000000000E+01
4814000000.000000      5.305481000000000E-01     -1.682656000000000E+02      3.072968000000000E-01     -2.418652000000000E+01      2.980652000000000E-01     -1.422500000000000E+02      6.466980000000000E-01     -7.749609000000000E+01
4815000000.000000      5.344238000000000E-01     -1.680859000000000E+02      3.111877000000000E-01     -2.452929000000000E+01      3.009796000000000E-01     -1.424297000000000E+02      6.457214000000000E-01     -7.717578000000000E+01
4816000000.000000      5.393066000000000E-01     -1.680234000000000E+02      3.149567000000000E-01     -2.483691000000000E+01      3.051758000000000E-01     -1.425781000000000E+02      6.475830000000000E-01     -7.705468000000000E+01
4817000000.000000      5.434570000000000E-01     -1.679297000000000E+02      3.181152000000000E-01     -2.549316000000000E+01      3.073730000000000E-01     -1.428281000000000E+02      6.486511000000000E-01     -7.680078000000000E+01
4818000000.000000      5.470581000000000E-01     -1.679062000000000E+02      3.209839000000000E-01     -2.584277000000000E+01      3.106079000000000E-01     -1.428203000000000E+02      6.510620000000000E-01     -7.670703000000000E+01
4819000000.000000      5.520935000000000E-01     -1.678516000000000E+02      3.246765000000000E-01     -2.619336000000000E+01      3.138428000000000E-01     -1.431953000000000E+02      6.534424000000000E-01     -7.663280000000000E+01
4820000000.000000      5.541687000000000E-01     -1.678047000000000E+02      3.282471000000000E-01     -2.656933000000000E+01      3.169861000000000E-01     -1.433203000000000E+02      6.542969000000000E-01     -7.639843000000000E+01
4821000000.000000      5.606079000000000E-01     -1.676797000000000E+02      3.320923000000000E-01     -2.708887000000000E+01      3.192444000000000E-01     -1.434766000000000E+02      6.551514000000000E-01     -7.639843000000000E+01
4822000000.000000      5.673828000000000E-01     -1.676328000000000E+02      3.349152000000000E-01     -2.752539000000000E+01      3.218079000000000E-01     -1.436016000000000E+02      6.580200000000000E-01     -7.611328000000000E+01
4823000000.000000      5.700378000000000E-01     -1.674609000000000E+02      3.380127000000000E-01     -2.803613000000000E+01      3.245392000000000E-01     -1.436484000000000E+02      6.606445000000000E-01     -7.604297000000000E+01
4824000000.000000      5.768738000000000E-01     -1.674297000000000E+02      3.416290000000000E-01     -2.871191000000000E+01      3.284607000000000E-01     -1.441250000000000E+02      6.629333000000000E-01     -7.585938000000000E+01
4825000000.000000      5.816956000000000E-01     -1.673828000000000E+02      3.439941000000000E-01     -2.899316000000000E+01      3.312073000000000E-01     -1.441719000000000E+02      6.648560000000000E-01     -7.565624000000000E+01
4826000000.000000      5.875244000000000E-01     -1.672422000000000E+02      3.471527000000000E-01     -2.966211000000000E+01      3.328552000000000E-01     -1.444687000000000E+02      6.677551000000000E-01     -7.557812000000000E+01
4827000000.000000      5.933228000000000E-01     -1.670547000000000E+02      3.501434000000000E-01     -3.001758000000000E+01      3.354340000000000E-01     -1.446406000000000E+02      6.699524000000000E-01     -7.550781000000000E+01
4828000000.000000      5.999756000000000E-01     -1.671094000000000E+02      3.530426000000000E-01     -3.045898000000000E+01      3.379669000000000E-01     -1.448672000000000E+02      6.734619000000000E-01     -7.542969000000000E+01
4829000000.000000      6.033325000000000E-01     -1.669609000000000E+02      3.552246000000000E-01     -3.117188000000000E+01      3.414764000000000E-01     -1.450078000000000E+02      6.768494000000000E-01     -7.524219000000000E+01
4830000000.000000      6.111145000000000E-01     -1.668437000000000E+02      3.580017000000000E-01     -3.170801000000000E+01      3.433380000000000E-01     -1.452109000000000E+02      6.796265000000000E-01     -7.525391000000000E+01
4831000000.000000      6.156921000000000E-01     -1.667578000000000E+02      3.609772000000000E-01     -3.223242000000000E+01      3.459473000000000E-01     -1.453594000000000E+02      6.830750000000000E-01     -7.510156000000000E+01
4832000000.000000      6.246948000000000E-01     -1.667109000000000E+02      3.630371000000000E-01     -3.278320000000000E+01      3.481903000000000E-01     -1.455547000000000E+02      6.852722000000000E-01     -7.494922000000000E+01
4833000000.000000      6.301575000000000E-01     -1.667031000000000E+02      3.652344000000000E-01     -3.324414000000000E+01      3.495483000000000E-01     -1.458437000000000E+02      6.891174000000000E-01     -7.500390000000000E+01
4834000000.000000      6.370239000000000E-01     -1.664844000000000E+02      3.674927000000000E-01     -3.382617000000000E+01      3.531494000000000E-01     -1.460234000000000E+02      6.916199000000000E-01     -7.496484000000000E+01
4835000000.000000      6.424561000000000E-01     -1.664844000000000E+02      3.697357000000000E-01     -3.436914000000000E+01      3.553925000000000E-01     -1.461875000000000E+02      6.960449000000000E-01     -7.485546000000000E+01
4836000000.000000      6.516113000000000E-01     -1.663281000000000E+02      3.721313000000000E-01     -3.484179000000000E+01      3.567505000000000E-01     -1.462891000000000E+02      6.994324000000000E-01     -7.476171000000000E+01
4837000000.000000      6.581116000000000E-01     -1.662266000000000E+02      3.736115000000000E-01     -3.577148000000000E+01      3.591156000000000E-01     -1.466875000000000E+02      7.037964000000000E-01     -7.473046000000000E+01
4838000000.000000      6.644592000000000E-01     -1.663281000000000E+02      3.760986000000000E-01     -3.612305000000000E+01      3.620148000000000E-01     -1.466953000000000E+02      7.080688000000000E-01     -7.466406000000000E+01
4839000000.000000      6.718140000000000E-01     -1.661797000000000E+02      3.773041000000000E-01     -3.658398000000000E+01      3.640900000000000E-01     -1.469531000000000E+02      7.109070000000000E-01     -7.460155000000000E+01
4840000000.000000      6.773071000000000E-01     -1.661172000000000E+02      3.793640000000000E-01     -3.709179000000000E+01      3.658295000000000E-01     -1.471953000000000E+02      7.151489000000000E-01     -7.448437000000000E+01
4841000000.000000      6.859131000000000E-01     -1.661406000000000E+02      3.806305000000000E-01     -3.779687000000000E+01      3.677979000000000E-01     -1.473516000000000E+02      7.201233000000000E-01     -7.459374000000000E+01
4842000000.000000      6.925964000000000E-01     -1.660469000000000E+02      3.820343000000000E-01     -3.829297000000000E+01      3.695221000000000E-01     -1.475937000000000E+02      7.239685000000000E-01     -7.462500000000000E+01
4843000000.000000      6.988220000000000E-01     -1.660312000000000E+02      3.824615000000000E-01     -3.892578000000000E+01      3.712006000000000E-01     -1.477500000000000E+02      7.281189000000000E-01     -7.447656000000000E+01
4844000000.000000      7.067871000000000E-01     -1.660469000000000E+02      3.848267000000000E-01     -3.948242000000000E+01      3.723297000000000E-01     -1.479297000000000E+02      7.327881000000000E-01     -7.450000000000000E+01
4845000000.000000      7.131042000000000E-01     -1.659688000000000E+02      3.847351000000000E-01     -4.011132000000000E+01      3.754425000000000E-01     -1.480703000000000E+02      7.361450000000000E-01     -7.444530000000000E+01
4846000000.000000      7.203979000000000E-01     -1.658359000000000E+02      3.863220000000000E-01     -4.052343000000000E+01      3.767700000000000E-01     -1.482734000000000E+02      7.413330000000000E-01     -7.448828000000000E+01
4847000000.000000      7.284241000000000E-01     -1.658828000000000E+02      3.871765000000000E-01     -4.100586000000000E+01      3.783722000000000E-01     -1.485469000000000E+02      7.460938000000000E-01     -7.457031000000000E+01
4848000000.000000      7.351074000000000E-01     -1.657656000000000E+02      3.879547000000000E-01     -4.150976000000000E+01      3.800201000000000E-01     -1.486641000000000E+02      7.500305000000000E-01     -7.445313000000000E+01
4849000000.000000      7.414246000000000E-01     -1.660391000000000E+02      3.888397000000000E-01     -4.218946000000000E+01      3.818054000000000E-01     -1.488828000000000E+02      7.544250000000000E-01     -7.448047000000000E+01
4850000000.000000      7.488098000000000E-01     -1.657734000000000E+02      3.903809000000000E-01     -4.270117000000000E+01      3.833313000000000E-01     -1.490625000000000E+02      7.594299000000000E-01     -7.448828000000000E+01
4851000000.000000      7.554321000000000E-01     -1.657812000000000E+02      3.897400000000000E-01     -4.337304000000000E+01      3.848572000000000E-01     -1.492344000000000E+02      7.629700000000000E-01     -7.454687000000000E+01
4852000000.000000      7.632141000000000E-01     -1.658516000000000E+02      3.897858000000000E-01     -4.370117000000000E+01      3.863220000000000E-01     -1.493906000000000E+02      7.692871000000000E-01     -7.453906000000000E+01
4853000000.000000      7.695923000000000E-01     -1.657969000000000E+02      3.888550000000000E-01     -4.425586000000000E+01      3.876038000000000E-01     -1.496094000000000E+02      7.743835000000000E-01     -7.470312000000000E+01
4854000000.000000      7.763062000000000E-01     -1.657734000000000E+02      3.900604000000000E-01     -4.501172000000000E+01      3.887787000000000E-01     -1.497344000000000E+02      7.785950000000000E-01     -7.473046000000000E+01
4855000000.000000      7.812805000000000E-01     -1.658437000000000E+02      3.895111000000000E-01     -4.538281000000000E+01      3.900146000000000E-01     -1.498437000000000E+02      7.809753000000000E-01     -7.463672000000000E+01
4856000000.000000      7.896423000000000E-01     -1.658281000000000E+02      3.897400000000000E-01     -4.584765000000000E+01      3.917542000000000E-01     -1.501250000000000E+02      7.881470000000000E-01     -7.471093000000000E+01
4857000000.000000      7.954102000000000E-01     -1.658594000000000E+02      3.900757000000000E-01     -4.623047000000000E+01      3.931427000000000E-01     -1.502891000000000E+02      7.920227000000000E-01     -7.465234000000000E+01
4858000000.000000      7.997742000000000E-01     -1.658672000000000E+02      3.897858000000000E-01     -4.677930000000000E+01      3.936462000000000E-01     -1.504297000000000E+02      7.982178000000000E-01     -7.487499000000000E+01
4859000000.000000      8.070679000000000E-01     -1.658906000000000E+02      3.894958000000000E-01     -4.730078000000000E+01      3.957214000000000E-01     -1.506641000000000E+02      8.032837000000000E-01     -7.494922000000000E+01
4860000000.000000      8.124390000000000E-01     -1.659062000000000E+02      3.883820000000000E-01     -4.774804000000000E+01      3.955231000000000E-01     -1.508281000000000E+02      8.075256000000000E-01     -7.492578000000000E+01
4861000000.000000      8.180847000000000E-01     -1.657422000000000E+02      3.878174000000000E-01     -4.831249000000000E+01      3.973999000000000E-01     -1.509922000000000E+02      8.122253000000000E-01     -7.506249000000000E+01
4862000000.000000      8.233948000000000E-01     -1.658516000000000E+02      3.882141000000000E-01     -4.863671000000000E+01      3.996582000000000E-01     -1.511094000000000E+02      8.181152000000000E-01     -7.512500000000000E+01
4863000000.000000      8.263550000000000E-01     -1.657734000000000E+02      3.864136000000000E-01     -4.913671000000000E+01      4.001617000000000E-01     -1.512266000000000E+02      8.226624000000000E-01     -7.508594000000000E+01
4864000000.000000      8.358765000000000E-01     -1.657969000000000E+02      3.863220000000000E-01     -4.939648000000000E+01      3.997040000000000E-01     -1.514766000000000E+02      8.279114000000000E-01     -7.523046000000000E+01
4865000000.000000      8.403931000000000E-01     -1.659844000000000E+02      3.844604000000000E-01     -4.997851000000000E+01      4.014130000000000E-01     -1.516641000000000E+02      8.322449000000000E-01     -7.513672000000000E+01
4866000000.000000      8.437805000000000E-01     -1.658437000000000E+02      3.838959000000000E-01     -5.016992000000000E+01      4.022064000000000E-01     -1.517578000000000E+02      8.370667000000000E-01     -7.532812000000000E+01
4867000000.000000      8.495178000000000E-01     -1.658047000000000E+02      3.842468000000000E-01     -5.080078000000000E+01      4.026947000000000E-01     -1.519609000000000E+02      8.432617000000000E-01     -7.537890000000000E+01
4868000000.000000      8.544006000000000E-01     -1.658672000000000E+02      3.822632000000000E-01     -5.116601000000000E+01      4.037323000000000E-01     -1.520781000000000E+02      8.457947000000000E-01     -7.547265000000000E+01
4869000000.000000      8.577576000000000E-01     -1.659141000000000E+02      3.805542000000000E-01     -5.153906000000000E+01      4.046783000000000E-01     -1.523281000000000E+02      8.518982000000000E-01     -7.571875000000000E+01
4870000000.000000      8.612061000000000E-01     -1.659375000000000E+02      3.798218000000000E-01     -5.173437000000000E+01      4.049835000000000E-01     -1.525547000000000E+02      8.557434000000000E-01     -7.558594000000000E+01
4871000000.000000      8.641357000000000E-01     -1.658594000000000E+02      3.784637000000000E-01     -5.213476000000000E+01      4.051208000000000E-01     -1.527344000000000E+02      8.601990000000000E-01     -7.573828000000000E+01
4872000000.000000      8.694458000000000E-01     -1.658203000000000E+02      3.766174000000000E-01     -5.254101000000000E+01      4.058228000000000E-01     -1.530391000000000E+02      8.659058000000000E-01     -7.589062000000000E+01
4873000000.000000      8.718567000000000E-01     -1.658281000000000E+02      3.758545000000000E-01     -5.280078000000000E+01      4.059448000000000E-01     -1.530234000000000E+02      8.693237000000000E-01     -7.603906000000000E+01
4874000000.000000      8.745422000000000E-01     -1.657422000000000E+02      3.744049000000000E-01     -5.308788000000000E+01      4.074554000000000E-01     -1.532031000000000E+02      8.734741000000000E-01     -7.609765000000000E+01
4875000000.000000      8.798523000000000E-01     -1.657344000000000E+02      3.736267000000000E-01     -5.345898000000000E+01      4.074097000000000E-01     -1.534609000000000E+02      8.784790000000000E-01     -7.612109000000000E+01
4876000000.000000      8.778076000000000E-01     -1.655937000000000E+02      3.713837000000000E-01     -5.365624000000000E+01      4.063568000000000E-01     -1.535938000000000E+02      8.833618000000000E-01     -7.637890000000000E+01
4877000000.000000      8.841858000000000E-01     -1.656094000000000E+02      3.703918000000000E-01     -5.382421000000000E+01      4.082642000000000E-01     -1.537969000000000E+02      8.878479000000000E-01     -7.642187000000000E+01
4878000000.000000      8.887939000000000E-01     -1.654844000000000E+02      3.694916000000000E-01     -5.412304000000000E+01      4.079132000000000E-01     -1.538672000000000E+02      8.928223000000000E-01     -7.664063000000000E+01
4879000000.000000      8.887939000000000E-01     -1.655781000000000E+02      3.670654000000000E-01     -5.424414000000000E+01      4.078827000000000E-01     -1.540547000000000E+02      8.945313000000000E-01     -7.664844000000000E+01
4880000000.000000      8.893738000000000E-01     -1.653828000000000E+02      3.657379000000000E-01     -5.456640000000000E+01      4.083862000000000E-01     -1.541094000000000E+02      8.988037000000000E-01     -7.671093000000000E+01
4881000000.000000      8.942261000000000E-01     -1.652578000000000E+02      3.647003000000000E-01     -5.465038000000000E+01      4.086914000000000E-01     -1.544219000000000E+02      9.035339000000000E-01     -7.692577000000000E+01
4882000000.000000      8.920593000000000E-01     -1.652422000000000E+02      3.631134000000000E-01     -5.498047000000000E+01      4.084320000000000E-01     -1.544297000000000E+02      9.063110000000000E-01     -7.702343000000000E+01
