! Network Analyzer HP8722D
! Hewlett-Packard
! Data name: Linha & Wilkinson
! Saver's name: Rodrigo Anjos
! Comments: Teste da utilização de aquisição
continua pelo VNA HP8722D
! Time and date: 6/5/2025 15:25
!              Frequency                     S11                                                   S21                                                   S12                                                   S22
# HZ  S  MA R 50
4800000000.000000      4.963531000000000E-01     -1.681328000000000E+02      2.516174000000000E-01     -1.954883000000000E+01      2.481461000000000E-01     -1.406641000000000E+02      6.480713000000000E-01     -8.033594000000000E+01
4801000000.000000      4.973907000000000E-01     -1.682188000000000E+02      2.553101000000000E-01     -1.984082000000000E+01      2.519989000000000E-01     -1.408750000000000E+02      6.470947000000000E-01     -8.014452000000000E+01
4802000000.000000      4.987030000000000E-01     -1.683594000000000E+02      2.596893000000000E-01     -1.990332000000000E+01      2.559052000000000E-01     -1.409219000000000E+02      6.452942000000000E-01     -7.977734000000000E+01
4803000000.000000      5.003967000000000E-01     -1.683359000000000E+02      2.644958000000000E-01     -2.025391000000000E+01      2.586212000000000E-01     -1.408516000000000E+02      6.460266000000000E-01     -7.971484000000000E+01
4804000000.000000      5.025024000000000E-01     -1.683281000000000E+02      2.679443000000000E-01     -2.051074000000000E+01      2.630157000000000E-01     -1.410547000000000E+02      6.445618000000000E-01     -7.946094000000000E+01
4805000000.000000      5.056763000000000E-01     -1.684141000000000E+02      2.718964000000000E-01     -2.078223000000000E+01      2.665405000000000E-01     -1.410625000000000E+02      6.441040000000000E-01     -7.920703000000000E+01
4806000000.000000      5.067444000000000E-01     -1.683281000000000E+02      2.760620000000000E-01     -2.102734000000000E+01      2.696991000000000E-01     -1.410156000000000E+02      6.441956000000000E-01     -7.911327000000000E+01
4807000000.000000      5.101013000000000E-01     -1.683672000000000E+02      2.805328000000000E-01     -2.145312000000000E+01      2.736206000000000E-01     -1.413516000000000E+02      6.433411000000000E-01     -7.889453000000000E+01
4808000000.000000      5.126038000000000E-01     -1.683437000000000E+02      2.846222000000000E-01     -2.157617000000000E+01      2.771606000000000E-01     -1.413906000000000E+02      6.428528000000000E-01     -7.864452000000000E+01
4809000000.000000      5.149231000000000E-01     -1.683047000000000E+02      2.880249000000000E-01     -2.221582000000000E+01      2.807617000000000E-01     -1.415000000000000E+02      6.438293000000000E-01     -7.844531000000000E+01
4810000000.000000      5.178223000000000E-01     -1.683594000000000E+02      2.922058000000000E-01     -2.238086000000000E+01      2.843170000000000E-01     -1.416797000000000E+02      6.435852000000000E-01     -7.826562000000000E+01
4811000000.000000      5.209656000000000E-01     -1.682969000000000E+02      2.963409000000000E-01     -2.299121000000000E+01      2.885437000000000E-01     -1.417109000000000E+02      6.435852000000000E-01     -7.800390000000000E+01
4812000000.000000      5.250549000000000E-01     -1.682344000000000E+02      2.998810000000000E-01     -2.317871000000000E+01      2.915497000000000E-01     -1.419141000000000E+02      6.450500000000000E-01     -7.790234000000000E+01
4813000000.000000      5.274963000000000E-01     -1.681641000000000E+02      3.034210000000000E-01     -2.361523000000000E+01      2.944031000000000E-01     -1.419766000000000E+02      6.448059000000000E-01     -7.755859000000000E+01
4814000000.000000      5.302124000000000E-01     -1.682422000000000E+02      3.075104000000000E-01     -2.407519000000000E+01      2.973633000000000E-01     -1.422266000000000E+02      6.459961000000000E-01     -7.745312000000000E+01
4815000000.000000      5.340881000000000E-01     -1.681172000000000E+02      3.105316000000000E-01     -2.456152000000000E+01      3.008575000000000E-01     -1.423203000000000E+02      6.458740000000000E-01     -7.714453000000000E+01
4816000000.000000      5.386047000000000E-01     -1.679766000000000E+02      3.140717000000000E-01     -2.479687000000000E+01      3.040771000000000E-01     -1.424453000000000E+02      6.473999000000000E-01     -7.704296000000000E+01
4817000000.000000      5.431213000000000E-01     -1.679453000000000E+02      3.179321000000000E-01     -2.535547000000000E+01      3.076935000000000E-01     -1.426484000000000E+02      6.490173000000000E-01     -7.692187000000000E+01
4818000000.000000      5.466003000000000E-01     -1.679141000000000E+02      3.207703000000000E-01     -2.565332000000000E+01      3.111267000000000E-01     -1.430078000000000E+02      6.507263000000000E-01     -7.671484000000000E+01
4819000000.000000      5.520020000000000E-01     -1.678047000000000E+02      3.247375000000000E-01     -2.612597000000000E+01      3.133392000000000E-01     -1.430000000000000E+02      6.532288000000000E-01     -7.665625000000000E+01
4820000000.000000      5.540771000000000E-01     -1.677344000000000E+02      3.280334000000000E-01     -2.659472000000000E+01      3.169556000000000E-01     -1.432266000000000E+02      6.544800000000000E-01     -7.642578000000000E+01
4821000000.000000      5.603943000000000E-01     -1.676328000000000E+02      3.317566000000000E-01     -2.710351000000000E+01      3.198242000000000E-01     -1.433984000000000E+02      6.556396000000000E-01     -7.628906000000000E+01
4822000000.000000      5.670776000000000E-01     -1.675781000000000E+02      3.342896000000000E-01     -2.756348000000000E+01      3.216705000000000E-01     -1.436016000000000E+02      6.580505000000000E-01     -7.608203000000000E+01
4823000000.000000      5.704346000000000E-01     -1.674375000000000E+02      3.376923000000000E-01     -2.805859000000000E+01      3.250732000000000E-01     -1.438203000000000E+02      6.590576000000000E-01     -7.593359000000000E+01
4824000000.000000      5.772400000000000E-01     -1.674609000000000E+02      3.410492000000000E-01     -2.871484000000000E+01      3.287659000000000E-01     -1.439844000000000E+02      6.628723000000000E-01     -7.588281000000000E+01
4825000000.000000      5.813293000000000E-01     -1.673203000000000E+02      3.435364000000000E-01     -2.898535000000000E+01      3.312073000000000E-01     -1.441719000000000E+02      6.654968000000000E-01     -7.562890000000000E+01
4826000000.000000      5.870972000000000E-01     -1.672500000000000E+02      3.469696000000000E-01     -2.955957000000000E+01      3.328094000000000E-01     -1.443359000000000E+02      6.674194000000000E-01     -7.550781000000000E+01
4827000000.000000      5.932922000000000E-01     -1.670625000000000E+02      3.502655000000000E-01     -3.001758000000000E+01      3.361206000000000E-01     -1.445156000000000E+02      6.707458000000000E-01     -7.546484000000000E+01
4828000000.000000      5.997925000000000E-01     -1.670625000000000E+02      3.534698000000000E-01     -3.060449000000000E+01      3.386688000000000E-01     -1.447500000000000E+02      6.728821000000000E-01     -7.538671000000000E+01
4829000000.000000      6.031799000000000E-01     -1.669219000000000E+02      3.548431000000000E-01     -3.115039000000000E+01      3.413239000000000E-01     -1.450078000000000E+02      6.773071000000000E-01     -7.521093000000000E+01
4830000000.000000      6.103821000000000E-01     -1.668125000000000E+02      3.576660000000000E-01     -3.161621000000000E+01      3.437195000000000E-01     -1.450547000000000E+02      6.795959000000000E-01     -7.519921000000000E+01
4831000000.000000      6.153870000000000E-01     -1.667500000000000E+02      3.600464000000000E-01     -3.216601000000000E+01      3.461609000000000E-01     -1.452734000000000E+02      6.824036000000000E-01     -7.504687000000000E+01
4832000000.000000      6.239014000000000E-01     -1.666406000000000E+02      3.630371000000000E-01     -3.265429000000000E+01      3.480225000000000E-01     -1.455156000000000E+02      6.854553000000000E-01     -7.496875000000000E+01
4833000000.000000      6.304016000000000E-01     -1.666641000000000E+02      3.652191000000000E-01     -3.328320000000000E+01      3.504028000000000E-01     -1.457578000000000E+02      6.886597000000000E-01     -7.491405000000000E+01
4834000000.000000      6.362610000000000E-01     -1.665390000000000E+02      3.676453000000000E-01     -3.371094000000000E+01      3.526001000000000E-01     -1.457578000000000E+02      6.925964000000000E-01     -7.484375000000000E+01
4835000000.000000      6.427307000000000E-01     -1.664375000000000E+02      3.702545000000000E-01     -3.423047000000000E+01      3.550415000000000E-01     -1.461094000000000E+02      6.958923000000000E-01     -7.482812000000000E+01
4836000000.000000      6.508789000000000E-01     -1.663281000000000E+02      3.714752000000000E-01     -3.486523000000000E+01      3.581238000000000E-01     -1.463047000000000E+02      6.994934000000000E-01     -7.473827000000000E+01
4837000000.000000      6.570740000000000E-01     -1.662109000000000E+02      3.735657000000000E-01     -3.575195000000000E+01      3.598175000000000E-01     -1.466250000000000E+02      7.036743000000000E-01     -7.466406000000000E+01
4838000000.000000      6.641541000000000E-01     -1.662500000000000E+02      3.766632000000000E-01     -3.598437000000000E+01      3.620758000000000E-01     -1.467031000000000E+02      7.077942000000000E-01     -7.465625000000000E+01
4839000000.000000      6.716614000000000E-01     -1.660859000000000E+02      3.767548000000000E-01     -3.652148000000000E+01      3.644714000000000E-01     -1.469219000000000E+02      7.108459000000000E-01     -7.453515000000000E+01
4840000000.000000      6.766968000000000E-01     -1.661094000000000E+02      3.786011000000000E-01     -3.704492000000000E+01      3.661194000000000E-01     -1.471484000000000E+02      7.165527000000000E-01     -7.458202000000000E+01
4841000000.000000      6.853333000000000E-01     -1.661562000000000E+02      3.804169000000000E-01     -3.777539000000000E+01      3.686218000000000E-01     -1.473672000000000E+02      7.191467000000000E-01     -7.458593000000000E+01
4842000000.000000      6.921082000000000E-01     -1.660312000000000E+02      3.819427000000000E-01     -3.820117000000000E+01      3.687134000000000E-01     -1.474844000000000E+02      7.241821000000000E-01     -7.452343000000000E+01
4843000000.000000      6.992188000000000E-01     -1.661250000000000E+02      3.827362000000000E-01     -3.890234000000000E+01      3.716888000000000E-01     -1.476328000000000E+02      7.279663000000000E-01     -7.449219000000000E+01
4844000000.000000      7.061768000000000E-01     -1.660000000000000E+02      3.851471000000000E-01     -3.942187000000000E+01      3.730011000000000E-01     -1.478672000000000E+02      7.319031000000000E-01     -7.451172000000000E+01
4845000000.000000      7.125244000000000E-01     -1.659062000000000E+02      3.852844000000000E-01     -3.992383000000000E+01      3.756256000000000E-01     -1.481250000000000E+02      7.362366000000000E-01     -7.445703000000000E+01
4846000000.000000      7.198486000000000E-01     -1.657812000000000E+02      3.867645000000000E-01     -4.039063000000000E+01      3.770294000000000E-01     -1.482031000000000E+02      7.406311000000000E-01     -7.448828000000000E+01
4847000000.000000      7.272339000000000E-01     -1.658750000000000E+02      3.872681000000000E-01     -4.106054000000000E+01      3.790436000000000E-01     -1.485703000000000E+02      7.458801000000000E-01     -7.450781000000000E+01
4848000000.000000      7.351074000000000E-01     -1.657891000000000E+02      3.872681000000000E-01     -4.140429000000000E+01      3.799591000000000E-01     -1.486484000000000E+02      7.498169000000000E-01     -7.451172000000000E+01
4849000000.000000      7.423096000000000E-01     -1.660078000000000E+02      3.896027000000000E-01     -4.213672000000000E+01      3.824615000000000E-01     -1.488203000000000E+02      7.546082000000000E-01     -7.445313000000000E+01
4850000000.000000      7.491455000000000E-01     -1.657656000000000E+02      3.887482000000000E-01     -4.272070000000000E+01      3.827209000000000E-01     -1.489687000000000E+02      7.598267000000000E-01     -7.447266000000000E+01
4851000000.000000      7.561035000000000E-01     -1.658047000000000E+02      3.902435000000000E-01     -4.328906000000000E+01      3.849792000000000E-01     -1.490781000000000E+02      7.649231000000000E-01     -7.455468000000000E+01
4852000000.000000      7.632446000000000E-01     -1.657969000000000E+02      3.897858000000000E-01     -4.372851000000000E+01      3.866882000000000E-01     -1.493359000000000E+02      7.692261000000000E-01     -7.457812000000000E+01
4853000000.000000      7.691650000000000E-01     -1.657422000000000E+02      3.892517000000000E-01     -4.423242000000000E+01      3.883820000000000E-01     -1.495625000000000E+02      7.739868000000000E-01     -7.467968000000000E+01
4854000000.000000      7.763367000000000E-01     -1.657344000000000E+02      3.903503000000000E-01     -4.494336000000000E+01      3.890686000000000E-01     -1.497187000000000E+02      7.785645000000000E-01     -7.465234000000000E+01
4855000000.000000      7.807922000000000E-01     -1.657344000000000E+02      3.898468000000000E-01     -4.523828000000000E+01      3.902130000000000E-01     -1.498047000000000E+02      7.826233000000000E-01     -7.455468000000000E+01
4856000000.000000      7.902222000000000E-01     -1.657500000000000E+02      3.902435000000000E-01     -4.572851000000000E+01      3.922272000000000E-01     -1.500078000000000E+02      7.875366000000000E-01     -7.467968000000000E+01
4857000000.000000      7.956848000000000E-01     -1.657812000000000E+02      3.902893000000000E-01     -4.623437000000000E+01      3.928986000000000E-01     -1.501719000000000E+02      7.936096000000000E-01     -7.469140000000000E+01
4858000000.000000      7.991638000000000E-01     -1.658437000000000E+02      3.899689000000000E-01     -4.675390000000000E+01      3.942566000000000E-01     -1.503672000000000E+02      7.973022000000000E-01     -7.479687000000000E+01
4859000000.000000      8.063965000000000E-01     -1.658828000000000E+02      3.894348000000000E-01     -4.723633000000000E+01      3.952026000000000E-01     -1.506250000000000E+02      8.048401000000000E-01     -7.488671000000000E+01
4860000000.000000      8.140259000000000E-01     -1.658828000000000E+02      3.887329000000000E-01     -4.765821000000000E+01      3.962097000000000E-01     -1.506953000000000E+02      8.062744000000000E-01     -7.485937000000000E+01
4861000000.000000      8.197327000000000E-01     -1.658672000000000E+02      3.883820000000000E-01     -4.821875000000000E+01      3.974915000000000E-01     -1.508516000000000E+02      8.129578000000000E-01     -7.499218000000000E+01
4862000000.000000      8.249512000000000E-01     -1.656953000000000E+02      3.882751000000000E-01     -4.857226000000000E+01      3.992767000000000E-01     -1.510781000000000E+02      8.180847000000000E-01     -7.503515000000000E+01
4863000000.000000      8.279724000000000E-01     -1.657500000000000E+02      3.862457000000000E-01     -4.920507000000000E+01      4.003601000000000E-01     -1.511562000000000E+02      8.226013000000000E-01     -7.507030000000000E+01
4864000000.000000      8.348999000000000E-01     -1.657812000000000E+02      3.869324000000000E-01     -4.947070000000000E+01      3.998413000000000E-01     -1.513906000000000E+02      8.270569000000000E-01     -7.519531000000000E+01
4865000000.000000      8.384094000000000E-01     -1.659062000000000E+02      3.848724000000000E-01     -4.980859000000000E+01      4.014740000000000E-01     -1.516094000000000E+02      8.335571000000000E-01     -7.512109000000000E+01
4866000000.000000      8.444519000000000E-01     -1.658359000000000E+02      3.829803000000000E-01     -5.015038000000000E+01      4.022827000000000E-01     -1.517812000000000E+02      8.364258000000000E-01     -7.519531000000000E+01
4867000000.000000      8.479919000000000E-01     -1.656641000000000E+02      3.836670000000000E-01     -5.064843000000000E+01      4.031677000000000E-01     -1.519063000000000E+02      8.419800000000000E-01     -7.536327000000000E+01
4868000000.000000      8.539429000000000E-01     -1.658359000000000E+02      3.827362000000000E-01     -5.117969000000000E+01      4.040527000000000E-01     -1.520703000000000E+02      8.464661000000000E-01     -7.547656000000000E+01
4869000000.000000      8.550110000000000E-01     -1.657734000000000E+02      3.804169000000000E-01     -5.148046000000000E+01      4.048615000000000E-01     -1.522031000000000E+02      8.515625000000000E-01     -7.557422000000000E+01
4870000000.000000      8.621521000000000E-01     -1.657344000000000E+02      3.801880000000000E-01     -5.151953000000000E+01      4.054871000000000E-01     -1.525078000000000E+02      8.554688000000000E-01     -7.558203000000000E+01
4871000000.000000      8.654480000000000E-01     -1.658281000000000E+02      3.783112000000000E-01     -5.213867000000000E+01      4.053955000000000E-01     -1.526172000000000E+02      8.596802000000000E-01     -7.580078000000000E+01
4872000000.000000      8.713379000000000E-01     -1.657187000000000E+02      3.763275000000000E-01     -5.238281000000000E+01      4.061890000000000E-01     -1.529140000000000E+02      8.659058000000000E-01     -7.585938000000000E+01
4873000000.000000      8.712158000000000E-01     -1.657734000000000E+02      3.759460000000000E-01     -5.274219000000000E+01      4.059601000000000E-01     -1.529766000000000E+02      8.698120000000000E-01     -7.597265000000000E+01
4874000000.000000      8.757629000000000E-01     -1.655703000000000E+02      3.749084000000000E-01     -5.311328000000000E+01      4.077301000000000E-01     -1.531250000000000E+02      8.748474000000000E-01     -7.596484000000000E+01
4875000000.000000      8.802185000000000E-01     -1.656406000000000E+02      3.728638000000000E-01     -5.326562000000000E+01      4.077301000000000E-01     -1.534219000000000E+02      8.785400000000000E-01     -7.622265000000000E+01
4876000000.000000      8.795471000000000E-01     -1.656172000000000E+02      3.720398000000000E-01     -5.356250000000000E+01      4.070129000000000E-01     -1.534531000000000E+02      8.837280000000000E-01     -7.635937000000000E+01
4877000000.000000      8.865051000000000E-01     -1.655234000000000E+02      3.702545000000000E-01     -5.368554000000000E+01      4.082184000000000E-01     -1.537578000000000E+02      8.888245000000000E-01     -7.648046000000000E+01
4878000000.000000      8.886719000000000E-01     -1.655625000000000E+02      3.690643000000000E-01     -5.410742000000000E+01      4.083252000000000E-01     -1.537422000000000E+02      8.927917000000000E-01     -7.657031000000000E+01
4879000000.000000      8.884583000000000E-01     -1.654453000000000E+02      3.673096000000000E-01     -5.427539000000000E+01      4.078369000000000E-01     -1.539531000000000E+02      8.948975000000000E-01     -7.648046000000000E+01
4880000000.000000      8.910217000000000E-01     -1.654531000000000E+02      3.656616000000000E-01     -5.448242000000000E+01      4.092102000000000E-01     -1.540469000000000E+02      8.982849000000000E-01     -7.671484000000000E+01
4881000000.000000      8.930054000000000E-01     -1.652969000000000E+02      3.651428000000000E-01     -5.457226000000000E+01      4.091339000000000E-01     -1.543672000000000E+02      9.022217000000000E-01     -7.689453000000000E+01
4882000000.000000      8.937683000000000E-01     -1.652344000000000E+02      3.636627000000000E-01     -5.492578000000000E+01      4.082489000000000E-01     -1.543750000000000E+02      9.054260000000000E-01     -7.697656000000000E+01
