! Network Analyzer HP8722D
! Hewlett-Packard
! Data name: Linha & Wilkinson
! Saver's name: Rodrigo Anjos
! Comments: Teste da utilização de aquisição
continua pelo VNA HP8722D
! Time and date: 6/5/2025 14:27
!              Frequency                     S11                                                   S21                                                   S12                                                   S22
# HZ  S  MA R 50
4800000000.000000      4.971161000000000E-01     -1.682266000000000E+02      2.525024000000000E-01     -1.976074000000000E+01      2.493134000000000E-01     -1.410391000000000E+02      6.481323000000000E-01     -8.037889000000000E+01
4801000000.000000      4.984283000000000E-01     -1.683125000000000E+02      2.563477000000000E-01     -1.994922000000000E+01      2.524719000000000E-01     -1.409844000000000E+02      6.472473000000000E-01     -8.016796000000000E+01
4802000000.000000      4.997559000000000E-01     -1.684219000000000E+02      2.600098000000000E-01     -2.010254000000000E+01      2.570801000000000E-01     -1.410781000000000E+02      6.445618000000000E-01     -7.979687000000000E+01
4803000000.000000      5.012207000000000E-01     -1.684531000000000E+02      2.654266000000000E-01     -2.051465000000000E+01      2.596741000000000E-01     -1.411641000000000E+02      6.451721000000000E-01     -7.961328000000000E+01
4804000000.000000      5.034790000000000E-01     -1.684297000000000E+02      2.684174000000000E-01     -2.063965000000000E+01      2.638397000000000E-01     -1.412500000000000E+02      6.446228000000000E-01     -7.940234000000000E+01
4805000000.000000      5.058899000000000E-01     -1.685234000000000E+02      2.729187000000000E-01     -2.098145000000000E+01      2.673645000000000E-01     -1.412266000000000E+02      6.437378000000000E-01     -7.932422000000000E+01
4806000000.000000      5.075989000000000E-01     -1.684531000000000E+02      2.771454000000000E-01     -2.134375000000000E+01      2.703247000000000E-01     -1.412734000000000E+02      6.442566000000000E-01     -7.911327000000000E+01
4807000000.000000      5.103149000000000E-01     -1.684453000000000E+02      2.813110000000000E-01     -2.168750000000000E+01      2.740936000000000E-01     -1.415313000000000E+02      6.434937000000000E-01     -7.878515000000000E+01
4808000000.000000      5.130615000000000E-01     -1.683906000000000E+02      2.852936000000000E-01     -2.183984000000000E+01      2.773895000000000E-01     -1.416016000000000E+02      6.425171000000000E-01     -7.865624000000000E+01
4809000000.000000      5.153198000000000E-01     -1.684453000000000E+02      2.887726000000000E-01     -2.239746000000000E+01      2.812500000000000E-01     -1.418125000000000E+02      6.435852000000000E-01     -7.842187000000000E+01
4810000000.000000      5.185852000000000E-01     -1.685000000000000E+02      2.930145000000000E-01     -2.262988000000000E+01      2.851257000000000E-01     -1.419219000000000E+02      6.446228000000000E-01     -7.828125000000000E+01
4811000000.000000      5.216675000000000E-01     -1.683516000000000E+02      2.972565000000000E-01     -2.306347000000000E+01      2.890778000000000E-01     -1.419844000000000E+02      6.440125000000000E-01     -7.797265000000000E+01
4812000000.000000      5.257263000000000E-01     -1.683203000000000E+02      3.003387000000000E-01     -2.347558000000000E+01      2.924500000000000E-01     -1.420938000000000E+02      6.437683000000000E-01     -7.778515000000000E+01
4813000000.000000      5.281067000000000E-01     -1.682422000000000E+02      3.041840000000000E-01     -2.383984000000000E+01      2.950134000000000E-01     -1.422031000000000E+02      6.455994000000000E-01     -7.758984000000000E+01
4814000000.000000      5.310669000000000E-01     -1.683125000000000E+02      3.072510000000000E-01     -2.418164000000000E+01      2.980652000000000E-01     -1.424062000000000E+02      6.451416000000000E-01     -7.748828000000000E+01
4815000000.000000      5.348206000000000E-01     -1.682031000000000E+02      3.112640000000000E-01     -2.463281000000000E+01      3.008575000000000E-01     -1.425781000000000E+02      6.465759000000000E-01     -7.721484000000000E+01
4816000000.000000      5.395203000000000E-01     -1.680938000000000E+02      3.152771000000000E-01     -2.488183000000000E+01      3.057861000000000E-01     -1.427187000000000E+02      6.483765000000000E-01     -7.703515000000000E+01
4817000000.000000      5.438843000000000E-01     -1.680469000000000E+02      3.185425000000000E-01     -2.557812000000000E+01      3.079529000000000E-01     -1.429453000000000E+02      6.485291000000000E-01     -7.692968000000000E+01
4818000000.000000      5.473938000000000E-01     -1.679609000000000E+02      3.213806000000000E-01     -2.594629000000000E+01      3.115540000000000E-01     -1.430234000000000E+02      6.512451000000000E-01     -7.666016000000000E+01
4819000000.000000      5.526123000000000E-01     -1.678984000000000E+02      3.247528000000000E-01     -2.640722000000000E+01      3.135223000000000E-01     -1.433047000000000E+02      6.527405000000000E-01     -7.667578000000000E+01
4820000000.000000      5.551453000000000E-01     -1.678281000000000E+02      3.285217000000000E-01     -2.681250000000000E+01      3.176880000000000E-01     -1.434219000000000E+02      6.544800000000000E-01     -7.647655000000000E+01
4821000000.000000      5.611267000000000E-01     -1.676953000000000E+02      3.322601000000000E-01     -2.726953000000000E+01      3.202209000000000E-01     -1.437813000000000E+02      6.563110000000000E-01     -7.635547000000000E+01
4822000000.000000      5.675354000000000E-01     -1.676563000000000E+02      3.353729000000000E-01     -2.772851000000000E+01      3.229675000000000E-01     -1.438984000000000E+02      6.586609000000000E-01     -7.612499000000000E+01
4823000000.000000      5.710449000000000E-01     -1.675313000000000E+02      3.385925000000000E-01     -2.821777000000000E+01      3.252411000000000E-01     -1.438594000000000E+02      6.609802000000000E-01     -7.595312000000000E+01
4824000000.000000      5.778198000000000E-01     -1.675469000000000E+02      3.417664000000000E-01     -2.891504000000000E+01      3.285370000000000E-01     -1.442969000000000E+02      6.632080000000000E-01     -7.589844000000000E+01
4825000000.000000      5.816345000000000E-01     -1.673906000000000E+02      3.443298000000000E-01     -2.923340000000000E+01      3.314819000000000E-01     -1.444062000000000E+02      6.661072000000000E-01     -7.568359000000000E+01
4826000000.000000      5.882568000000000E-01     -1.673516000000000E+02      3.477936000000000E-01     -2.988574000000000E+01      3.337097000000000E-01     -1.445391000000000E+02      6.680908000000000E-01     -7.564843000000000E+01
4827000000.000000      5.936279000000000E-01     -1.671719000000000E+02      3.503113000000000E-01     -3.019043000000000E+01      3.360596000000000E-01     -1.447109000000000E+02      6.711731000000000E-01     -7.553124000000000E+01
4828000000.000000      6.003418000000000E-01     -1.671562000000000E+02      3.540802000000000E-01     -3.063769000000000E+01      3.387299000000000E-01     -1.449766000000000E+02      6.747742000000000E-01     -7.537109000000000E+01
4829000000.000000      6.040344000000000E-01     -1.669922000000000E+02      3.553314000000000E-01     -3.132910000000000E+01      3.415527000000000E-01     -1.452891000000000E+02      6.785583000000000E-01     -7.524219000000000E+01
4830000000.000000      6.120300000000000E-01     -1.669531000000000E+02      3.581543000000000E-01     -3.193359000000000E+01      3.434753000000000E-01     -1.452031000000000E+02      6.799622000000000E-01     -7.524219000000000E+01
4831000000.000000      6.164856000000000E-01     -1.668594000000000E+02      3.605042000000000E-01     -3.238086000000000E+01      3.458405000000000E-01     -1.455391000000000E+02      6.839600000000000E-01     -7.521874000000000E+01
4832000000.000000      6.246948000000000E-01     -1.667500000000000E+02      3.634644000000000E-01     -3.287500000000000E+01      3.482971000000000E-01     -1.457109000000000E+02      6.864624000000000E-01     -7.512890000000000E+01
4833000000.000000      6.312866000000000E-01     -1.667578000000000E+02      3.666077000000000E-01     -3.343750000000000E+01      3.506775000000000E-01     -1.460781000000000E+02      6.896667000000000E-01     -7.500781000000000E+01
4834000000.000000      6.373901000000000E-01     -1.666641000000000E+02      3.680420000000000E-01     -3.390234000000000E+01      3.534088000000000E-01     -1.461562000000000E+02      6.933899000000000E-01     -7.492188000000000E+01
4835000000.000000      6.440125000000000E-01     -1.666250000000000E+02      3.698120000000000E-01     -3.454102000000000E+01      3.557892000000000E-01     -1.464062000000000E+02      6.970215000000000E-01     -7.494922000000000E+01
4836000000.000000      6.521301000000000E-01     -1.664766000000000E+02      3.719940000000000E-01     -3.504492000000000E+01      3.571777000000000E-01     -1.465312000000000E+02      7.003479000000000E-01     -7.487890000000000E+01
4837000000.000000      6.580200000000000E-01     -1.663672000000000E+02      3.746490000000000E-01     -3.588672000000000E+01      3.597412000000000E-01     -1.468359000000000E+02      7.045288000000000E-01     -7.476953000000000E+01
4838000000.000000      6.652222000000000E-01     -1.663906000000000E+02      3.765106000000000E-01     -3.629101000000000E+01      3.614960000000000E-01     -1.470000000000000E+02      7.080688000000000E-01     -7.469531000000000E+01
4839000000.000000      6.722717000000000E-01     -1.662344000000000E+02      3.767853000000000E-01     -3.670312000000000E+01      3.634033000000000E-01     -1.470859000000000E+02      7.123413000000000E-01     -7.460155000000000E+01
4840000000.000000      6.776733000000000E-01     -1.661875000000000E+02      3.792419000000000E-01     -3.721289000000000E+01      3.658142000000000E-01     -1.472656000000000E+02      7.153320000000000E-01     -7.469531000000000E+01
4841000000.000000      6.862183000000000E-01     -1.662812000000000E+02      3.807983000000000E-01     -3.799805000000000E+01      3.673248000000000E-01     -1.474297000000000E+02      7.207031000000000E-01     -7.464844000000000E+01
4842000000.000000      6.932983000000000E-01     -1.660938000000000E+02      3.827972000000000E-01     -3.848828000000000E+01      3.695374000000000E-01     -1.476797000000000E+02      7.251892000000000E-01     -7.454296000000000E+01
4843000000.000000      6.995850000000000E-01     -1.661875000000000E+02      3.829803000000000E-01     -3.911328000000000E+01      3.712463000000000E-01     -1.479375000000000E+02      7.279663000000000E-01     -7.450781000000000E+01
4844000000.000000      7.066956000000000E-01     -1.660781000000000E+02      3.842010000000000E-01     -3.965039000000000E+01      3.729248000000000E-01     -1.481094000000000E+02      7.327271000000000E-01     -7.459374000000000E+01
4845000000.000000      7.132874000000000E-01     -1.660078000000000E+02      3.849945000000000E-01     -4.018555000000000E+01      3.748322000000000E-01     -1.483359000000000E+02      7.367249000000000E-01     -7.449219000000000E+01
4846000000.000000      7.208557000000000E-01     -1.659688000000000E+02      3.863525000000000E-01     -4.066992000000000E+01      3.766327000000000E-01     -1.484453000000000E+02      7.416382000000000E-01     -7.453906000000000E+01
4847000000.000000      7.282104000000000E-01     -1.659531000000000E+02      3.871002000000000E-01     -4.120117000000000E+01      3.793182000000000E-01     -1.487266000000000E+02      7.473145000000000E-01     -7.463281000000000E+01
4848000000.000000      7.362366000000000E-01     -1.658906000000000E+02      3.873749000000000E-01     -4.163476000000000E+01      3.803406000000000E-01     -1.488047000000000E+02      7.499695000000000E-01     -7.449219000000000E+01
4849000000.000000      7.426147000000000E-01     -1.661484000000000E+02      3.891296000000000E-01     -4.244336000000000E+01      3.816986000000000E-01     -1.490234000000000E+02      7.550354000000000E-01     -7.457421000000000E+01
4850000000.000000      7.494202000000000E-01     -1.658516000000000E+02      3.896942000000000E-01     -4.286914000000000E+01      3.828735000000000E-01     -1.491719000000000E+02      7.591553000000000E-01     -7.451562000000000E+01
4851000000.000000      7.563171000000000E-01     -1.659375000000000E+02      3.898773000000000E-01     -4.349218000000000E+01      3.840179000000000E-01     -1.493906000000000E+02      7.649231000000000E-01     -7.460155000000000E+01
4852000000.000000      7.640381000000000E-01     -1.658984000000000E+02      3.903198000000000E-01     -4.405078000000000E+01      3.863373000000000E-01     -1.496094000000000E+02      7.688293000000000E-01     -7.462891000000000E+01
4853000000.000000      7.708435000000000E-01     -1.659765000000000E+02      3.892517000000000E-01     -4.434960000000000E+01      3.884277000000000E-01     -1.497578000000000E+02      7.749023000000000E-01     -7.476953000000000E+01
4854000000.000000      7.776489000000000E-01     -1.659765000000000E+02      3.907471000000000E-01     -4.506836000000000E+01      3.889160000000000E-01     -1.499687000000000E+02      7.792358000000000E-01     -7.467578000000000E+01
4855000000.000000      7.815552000000000E-01     -1.659141000000000E+02      3.896027000000000E-01     -4.558007000000000E+01      3.906097000000000E-01     -1.500391000000000E+02      7.834167000000000E-01     -7.477734000000000E+01
4856000000.000000      7.901611000000000E-01     -1.658594000000000E+02      3.895111000000000E-01     -4.590820000000000E+01      3.913727000000000E-01     -1.502656000000000E+02      7.890625000000000E-01     -7.473046000000000E+01
4857000000.000000      7.959290000000000E-01     -1.659609000000000E+02      3.900146000000000E-01     -4.646874000000000E+01      3.929291000000000E-01     -1.503594000000000E+02      7.928467000000000E-01     -7.482031000000000E+01
4858000000.000000      8.001709000000000E-01     -1.659297000000000E+02      3.891602000000000E-01     -4.695898000000000E+01      3.933868000000000E-01     -1.506250000000000E+02      7.980957000000000E-01     -7.492578000000000E+01
4859000000.000000      8.070068000000000E-01     -1.660000000000000E+02      3.890991000000000E-01     -4.755468000000000E+01      3.949127000000000E-01     -1.508906000000000E+02      8.038940000000000E-01     -7.503124000000000E+01
4860000000.000000      8.149109000000000E-01     -1.659688000000000E+02      3.882141000000000E-01     -4.775000000000000E+01      3.960419000000000E-01     -1.508594000000000E+02      8.084717000000000E-01     -7.496484000000000E+01
4861000000.000000      8.204956000000000E-01     -1.658984000000000E+02      3.886261000000000E-01     -4.847656000000000E+01      3.973999000000000E-01     -1.510469000000000E+02      8.120117000000000E-01     -7.511719000000000E+01
4862000000.000000      8.253479000000000E-01     -1.658984000000000E+02      3.885040000000000E-01     -4.870703000000000E+01      3.985748000000000E-01     -1.512266000000000E+02      8.183289000000000E-01     -7.513672000000000E+01
4863000000.000000      8.290405000000000E-01     -1.660234000000000E+02      3.862915000000000E-01     -4.932617000000000E+01      3.993835000000000E-01     -1.514062000000000E+02      8.233643000000000E-01     -7.517968000000000E+01
4864000000.000000      8.341980000000000E-01     -1.658828000000000E+02      3.865051000000000E-01     -4.955664000000000E+01      3.999329000000000E-01     -1.515234000000000E+02      8.271790000000000E-01     -7.539844000000000E+01
4865000000.000000      8.391113000000000E-01     -1.661094000000000E+02      3.851318000000000E-01     -5.002734000000000E+01      4.007416000000000E-01     -1.518047000000000E+02      8.332214000000000E-01     -7.523046000000000E+01
4866000000.000000      8.430176000000000E-01     -1.659297000000000E+02      3.837280000000000E-01     -5.039063000000000E+01      4.020081000000000E-01     -1.519609000000000E+02      8.376465000000000E-01     -7.528515000000000E+01
4867000000.000000      8.491516000000000E-01     -1.659765000000000E+02      3.827515000000000E-01     -5.094531000000000E+01      4.028320000000000E-01     -1.521328000000000E+02      8.433228000000000E-01     -7.547656000000000E+01
4868000000.000000      8.506165000000000E-01     -1.660547000000000E+02      3.825378000000000E-01     -5.134766000000000E+01      4.040375000000000E-01     -1.522422000000000E+02      8.472900000000000E-01     -7.557031000000000E+01
4869000000.000000      8.578491000000000E-01     -1.659922000000000E+02      3.799591000000000E-01     -5.162695000000000E+01      4.044952000000000E-01     -1.524922000000000E+02      8.522034000000000E-01     -7.572656000000000E+01
4870000000.000000      8.608093000000000E-01     -1.659375000000000E+02      3.795471000000000E-01     -5.180469000000000E+01      4.047089000000000E-01     -1.526797000000000E+02      8.570557000000000E-01     -7.565624000000000E+01
4871000000.000000      8.652954000000000E-01     -1.660312000000000E+02      3.783875000000000E-01     -5.227344000000000E+01      4.045410000000000E-01     -1.528672000000000E+02      8.603821000000000E-01     -7.589844000000000E+01
4872000000.000000      8.698730000000000E-01     -1.657734000000000E+02      3.774414000000000E-01     -5.244922000000000E+01      4.057159000000000E-01     -1.531328000000000E+02      8.661499000000000E-01     -7.595703000000000E+01
4873000000.000000      8.726807000000000E-01     -1.657266000000000E+02      3.753967000000000E-01     -5.287890000000000E+01      4.057007000000000E-01     -1.531406000000000E+02      8.693848000000000E-01     -7.606250000000000E+01
4874000000.000000      8.751221000000000E-01     -1.658047000000000E+02      3.735352000000000E-01     -5.321094000000000E+01      4.070587000000000E-01     -1.532812000000000E+02      8.750305000000000E-01     -7.607812000000000E+01
4875000000.000000      8.791504000000000E-01     -1.658203000000000E+02      3.723755000000000E-01     -5.341601000000000E+01      4.069366000000000E-01     -1.535781000000000E+02      8.786316000000000E-01     -7.629687000000000E+01
4876000000.000000      8.810425000000000E-01     -1.658203000000000E+02      3.712311000000000E-01     -5.378906000000000E+01      4.061279000000000E-01     -1.536484000000000E+02      8.829956000000000E-01     -7.645702000000000E+01
4877000000.000000      8.831482000000000E-01     -1.658125000000000E+02      3.705139000000000E-01     -5.383007000000000E+01      4.076538000000000E-01     -1.538828000000000E+02      8.877258000000000E-01     -7.655859000000000E+01
4878000000.000000      8.857727000000000E-01     -1.657187000000000E+02      3.689423000000000E-01     -5.427343000000000E+01      4.077148000000000E-01     -1.539453000000000E+02      8.924255000000000E-01     -7.663280000000000E+01
4879000000.000000      8.901062000000000E-01     -1.655156000000000E+02      3.663788000000000E-01     -5.444530000000000E+01      4.075317000000000E-01     -1.541328000000000E+02      8.951721000000000E-01     -7.664063000000000E+01
4880000000.000000      8.911438000000000E-01     -1.655313000000000E+02      3.652954000000000E-01     -5.465820000000000E+01      4.078522000000000E-01     -1.542422000000000E+02      9.001160000000000E-01     -7.683594000000000E+01
4881000000.000000      8.943176000000000E-01     -1.653750000000000E+02      3.649445000000000E-01     -5.465625000000000E+01      4.082336000000000E-01     -1.544922000000000E+02      9.028320000000000E-01     -7.695313000000000E+01
4882000000.000000      8.931580000000000E-01     -1.653516000000000E+02      3.629608000000000E-01     -5.505273000000000E+01      4.079437000000000E-01     -1.545859000000000E+02      9.071045000000000E-01     -7.705859000000000E+01
