! Network Analyzer HP8722D
! Hewlett-Packard
! Data name: Linha & Wilkinson
! Saver's name: Rodrigo Anjos
! Comments: Teste da utilização de aquisição
continua pelo VNA HP8722D
! Time and date: 6/5/2025 16:03
!              Frequency                     S11                                                   S21                                                   S12                                                   S22
# HZ  S  MA R 50
4800000000.000000      4.960632000000000E-01     -1.680547000000000E+02      2.516937000000000E-01     -1.943262000000000E+01      2.481232000000000E-01     -1.406328000000000E+02      6.480713000000000E-01     -8.036718000000000E+01
4801000000.000000      4.976807000000000E-01     -1.681406000000000E+02      2.555847000000000E-01     -1.973047000000000E+01      2.515106000000000E-01     -1.407656000000000E+02      6.469727000000000E-01     -8.014843000000000E+01
4802000000.000000      4.985809000000000E-01     -1.682109000000000E+02      2.587891000000000E-01     -1.990625000000000E+01      2.559814000000000E-01     -1.407656000000000E+02      6.448364000000000E-01     -7.980078000000000E+01
4803000000.000000      5.002747000000000E-01     -1.683281000000000E+02      2.639923000000000E-01     -2.007813000000000E+01      2.593842000000000E-01     -1.408203000000000E+02      6.444092000000000E-01     -7.971093000000000E+01
4804000000.000000      5.027466000000000E-01     -1.682891000000000E+02      2.677002000000000E-01     -2.030273000000000E+01      2.631683000000000E-01     -1.410938000000000E+02      6.439819000000000E-01     -7.943359000000000E+01
4805000000.000000      5.054626000000000E-01     -1.683437000000000E+02      2.716827000000000E-01     -2.070996000000000E+01      2.666321000000000E-01     -1.409844000000000E+02      6.437378000000000E-01     -7.923437000000000E+01
4806000000.000000      5.068665000000000E-01     -1.682422000000000E+02      2.759552000000000E-01     -2.103906000000000E+01      2.695923000000000E-01     -1.409531000000000E+02      6.436768000000000E-01     -7.916016000000000E+01
4807000000.000000      5.099487000000000E-01     -1.683047000000000E+02      2.799530000000000E-01     -2.139746000000000E+01      2.733154000000000E-01     -1.412656000000000E+02      6.426392000000000E-01     -7.891406000000000E+01
4808000000.000000      5.122986000000000E-01     -1.682578000000000E+02      2.842255000000000E-01     -2.150586000000000E+01      2.769928000000000E-01     -1.413359000000000E+02      6.429443000000000E-01     -7.859765000000000E+01
4809000000.000000      5.145874000000000E-01     -1.682891000000000E+02      2.879028000000000E-01     -2.216015000000000E+01      2.811584000000000E-01     -1.415000000000000E+02      6.429138000000000E-01     -7.846093000000000E+01
4810000000.000000      5.179138000000000E-01     -1.683281000000000E+02      2.920532000000000E-01     -2.228027000000000E+01      2.840576000000000E-01     -1.415390000000000E+02      6.449280000000000E-01     -7.829687000000000E+01
4811000000.000000      5.209351000000000E-01     -1.682188000000000E+02      2.956848000000000E-01     -2.280566000000000E+01      2.882080000000000E-01     -1.415937000000000E+02      6.426392000000000E-01     -7.791797000000000E+01
4812000000.000000      5.249939000000000E-01     -1.681797000000000E+02      2.995758000000000E-01     -2.312109000000000E+01      2.914581000000000E-01     -1.417969000000000E+02      6.451416000000000E-01     -7.778515000000000E+01
4813000000.000000      5.267334000000000E-01     -1.681094000000000E+02      3.034821000000000E-01     -2.356640000000000E+01      2.940674000000000E-01     -1.418203000000000E+02      6.442871000000000E-01     -7.753124000000000E+01
4814000000.000000      5.298462000000000E-01     -1.681953000000000E+02      3.065643000000000E-01     -2.391211000000000E+01      2.981720000000000E-01     -1.421484000000000E+02      6.459351000000000E-01     -7.737499000000000E+01
4815000000.000000      5.339050000000000E-01     -1.680469000000000E+02      3.098755000000000E-01     -2.426367000000000E+01      3.008728000000000E-01     -1.422656000000000E+02      6.470337000000000E-01     -7.718750000000000E+01
4816000000.000000      5.388489000000000E-01     -1.678984000000000E+02      3.139648000000000E-01     -2.464258000000000E+01      3.052368000000000E-01     -1.423437000000000E+02      6.480103000000000E-01     -7.705859000000000E+01
4817000000.000000      5.430298000000000E-01     -1.678672000000000E+02      3.179932000000000E-01     -2.529004000000000E+01      3.070831000000000E-01     -1.426406000000000E+02      6.483459000000000E-01     -7.688281000000000E+01
4818000000.000000      5.466614000000000E-01     -1.678203000000000E+02      3.211823000000000E-01     -2.555078000000000E+01      3.108063000000000E-01     -1.426719000000000E+02      6.493835000000000E-01     -7.672265000000000E+01
4819000000.000000      5.514221000000000E-01     -1.677031000000000E+02      3.240814000000000E-01     -2.610352000000000E+01      3.125610000000000E-01     -1.428906000000000E+02      6.530457000000000E-01     -7.663671000000000E+01
4820000000.000000      5.540771000000000E-01     -1.676797000000000E+02      3.280029000000000E-01     -2.648730000000000E+01      3.173218000000000E-01     -1.430938000000000E+02      6.541748000000000E-01     -7.641406000000000E+01
4821000000.000000      5.599365000000000E-01     -1.676016000000000E+02      3.312836000000000E-01     -2.703808000000000E+01      3.193512000000000E-01     -1.433594000000000E+02      6.547241000000000E-01     -7.626953000000000E+01
4822000000.000000      5.661621000000000E-01     -1.675625000000000E+02      3.343048000000000E-01     -2.749414000000000E+01      3.221130000000000E-01     -1.435000000000000E+02      6.582336000000000E-01     -7.602734000000000E+01
4823000000.000000      5.694580000000000E-01     -1.673516000000000E+02      3.376465000000000E-01     -2.798437000000000E+01      3.246613000000000E-01     -1.435859000000000E+02      6.602783000000000E-01     -7.601563000000000E+01
4824000000.000000      5.764465000000000E-01     -1.673594000000000E+02      3.410797000000000E-01     -2.852832000000000E+01      3.279266000000000E-01     -1.438906000000000E+02      6.624756000000000E-01     -7.583984000000000E+01
4825000000.000000      5.803833000000000E-01     -1.672656000000000E+02      3.438416000000000E-01     -2.879395000000000E+01      3.317719000000000E-01     -1.440547000000000E+02      6.646423000000000E-01     -7.561718000000000E+01
4826000000.000000      5.870972000000000E-01     -1.671250000000000E+02      3.470459000000000E-01     -2.952051000000000E+01      3.331909000000000E-01     -1.442969000000000E+02      6.674805000000000E-01     -7.561718000000000E+01
4827000000.000000      5.925293000000000E-01     -1.669531000000000E+02      3.496246000000000E-01     -2.980078000000000E+01      3.362122000000000E-01     -1.444297000000000E+02      6.701355000000000E-01     -7.552343000000000E+01
4828000000.000000      5.990906000000000E-01     -1.669765000000000E+02      3.529358000000000E-01     -3.037402000000000E+01      3.385315000000000E-01     -1.446094000000000E+02      6.741333000000000E-01     -7.535937000000000E+01
4829000000.000000      6.030273000000000E-01     -1.667891000000000E+02      3.541107000000000E-01     -3.103027000000000E+01      3.410339000000000E-01     -1.448359000000000E+02      6.767883000000000E-01     -7.521093000000000E+01
4830000000.000000      6.102295000000000E-01     -1.667656000000000E+02      3.575439000000000E-01     -3.154199000000000E+01      3.437195000000000E-01     -1.449844000000000E+02      6.787415000000000E-01     -7.523438000000000E+01
4831000000.000000      6.157227000000000E-01     -1.666875000000000E+02      3.603821000000000E-01     -3.214258000000000E+01      3.460083000000000E-01     -1.451562000000000E+02      6.829529000000000E-01     -7.508203000000000E+01
4832000000.000000      6.240234000000000E-01     -1.665625000000000E+02      3.629913000000000E-01     -3.263867000000000E+01      3.474579000000000E-01     -1.453438000000000E+02      6.861267000000000E-01     -7.511328000000000E+01
4833000000.000000      6.301270000000000E-01     -1.665937000000000E+02      3.649750000000000E-01     -3.309375000000000E+01      3.504028000000000E-01     -1.456484000000000E+02      6.889343000000000E-01     -7.500000000000000E+01
4834000000.000000      6.359558000000000E-01     -1.664609000000000E+02      3.673401000000000E-01     -3.368750000000000E+01      3.536987000000000E-01     -1.458281000000000E+02      6.924438000000000E-01     -7.488671000000000E+01
4835000000.000000      6.423950000000000E-01     -1.663672000000000E+02      3.699188000000000E-01     -3.426172000000000E+01      3.553009000000000E-01     -1.460938000000000E+02      6.965942000000000E-01     -7.483984000000000E+01
4836000000.000000      6.508789000000000E-01     -1.662891000000000E+02      3.716125000000000E-01     -3.476953000000000E+01      3.572540000000000E-01     -1.460859000000000E+02      6.994629000000000E-01     -7.480859000000000E+01
4837000000.000000      6.573181000000000E-01     -1.661641000000000E+02      3.734894000000000E-01     -3.561132000000000E+01      3.594666000000000E-01     -1.464844000000000E+02      7.028503000000000E-01     -7.473437000000000E+01
4838000000.000000      6.643372000000000E-01     -1.662422000000000E+02      3.760834000000000E-01     -3.583789000000000E+01      3.620911000000000E-01     -1.466641000000000E+02      7.067871000000000E-01     -7.458593000000000E+01
4839000000.000000      6.709900000000000E-01     -1.659922000000000E+02      3.769836000000000E-01     -3.633398000000000E+01      3.634186000000000E-01     -1.467891000000000E+02      7.114868000000000E-01     -7.456640000000000E+01
4840000000.000000      6.764221000000000E-01     -1.660469000000000E+02      3.788910000000000E-01     -3.696680000000000E+01      3.657990000000000E-01     -1.470234000000000E+02      7.146912000000000E-01     -7.464062000000000E+01
4841000000.000000      6.847534000000000E-01     -1.660625000000000E+02      3.802643000000000E-01     -3.768359000000000E+01      3.679352000000000E-01     -1.472656000000000E+02      7.206421000000000E-01     -7.457031000000000E+01
4842000000.000000      6.923828000000000E-01     -1.658984000000000E+02      3.810577000000000E-01     -3.817773000000000E+01      3.695221000000000E-01     -1.473594000000000E+02      7.247314000000000E-01     -7.451172000000000E+01
4843000000.000000      6.991882000000000E-01     -1.660078000000000E+02      3.829651000000000E-01     -3.874218000000000E+01      3.707886000000000E-01     -1.476172000000000E+02      7.276611000000000E-01     -7.450000000000000E+01
4844000000.000000      7.051086000000000E-01     -1.658516000000000E+02      3.839111000000000E-01     -3.928320000000000E+01      3.726349000000000E-01     -1.477734000000000E+02      7.326050000000000E-01     -7.442187000000000E+01
4845000000.000000      7.124634000000000E-01     -1.657891000000000E+02      3.853912000000000E-01     -3.980078000000000E+01      3.751068000000000E-01     -1.480000000000000E+02      7.357788000000000E-01     -7.448828000000000E+01
4846000000.000000      7.195129000000000E-01     -1.657812000000000E+02      3.867645000000000E-01     -4.030078000000000E+01      3.777466000000000E-01     -1.481406000000000E+02      7.414551000000000E-01     -7.447266000000000E+01
4847000000.000000      7.273865000000000E-01     -1.657344000000000E+02      3.870392000000000E-01     -4.081640000000000E+01      3.788910000000000E-01     -1.483516000000000E+02      7.458496000000000E-01     -7.454296000000000E+01
4848000000.000000      7.343750000000000E-01     -1.656953000000000E+02      3.874664000000000E-01     -4.141797000000000E+01      3.801117000000000E-01     -1.485000000000000E+02      7.496338000000000E-01     -7.455468000000000E+01
4849000000.000000      7.418213000000000E-01     -1.659297000000000E+02      3.891449000000000E-01     -4.207812000000000E+01      3.818817000000000E-01     -1.487656000000000E+02      7.552185000000000E-01     -7.449219000000000E+01
4850000000.000000      7.483215000000000E-01     -1.656719000000000E+02      3.888397000000000E-01     -4.248828000000000E+01      3.838501000000000E-01     -1.489141000000000E+02      7.597656000000000E-01     -7.447656000000000E+01
4851000000.000000      7.554016000000000E-01     -1.657031000000000E+02      3.885498000000000E-01     -4.333398000000000E+01      3.845978000000000E-01     -1.490703000000000E+02      7.654724000000000E-01     -7.449219000000000E+01
4852000000.000000      7.624817000000000E-01     -1.657266000000000E+02      3.906403000000000E-01     -4.360156000000000E+01      3.867340000000000E-01     -1.491875000000000E+02      7.699585000000000E-01     -7.450000000000000E+01
4853000000.000000      7.699585000000000E-01     -1.657109000000000E+02      3.897095000000000E-01     -4.415625000000000E+01      3.886719000000000E-01     -1.494531000000000E+02      7.734070000000000E-01     -7.463281000000000E+01
4854000000.000000      7.764587000000000E-01     -1.657500000000000E+02      3.898468000000000E-01     -4.467578000000000E+01      3.893433000000000E-01     -1.496250000000000E+02      7.792358000000000E-01     -7.459374000000000E+01
4855000000.000000      7.805786000000000E-01     -1.657109000000000E+02      3.899536000000000E-01     -4.522656000000000E+01      3.901672000000000E-01     -1.497031000000000E+02      7.821655000000000E-01     -7.458593000000000E+01
4856000000.000000      7.891846000000000E-01     -1.656328000000000E+02      3.897552000000000E-01     -4.550390000000000E+01      3.916321000000000E-01     -1.499453000000000E+02      7.883606000000000E-01     -7.463281000000000E+01
4857000000.000000      7.943726000000000E-01     -1.657109000000000E+02      3.909454000000000E-01     -4.616796000000000E+01      3.927917000000000E-01     -1.500547000000000E+02      7.921448000000000E-01     -7.476563000000000E+01
4858000000.000000      7.994080000000000E-01     -1.657578000000000E+02      3.898468000000000E-01     -4.669141000000000E+01      3.939514000000000E-01     -1.503828000000000E+02      7.978210000000000E-01     -7.474609000000000E+01
4859000000.000000      8.056030000000000E-01     -1.658203000000000E+02      3.897705000000000E-01     -4.710546000000000E+01      3.955383000000000E-01     -1.505703000000000E+02      8.032837000000000E-01     -7.496094000000000E+01
4860000000.000000      8.135986000000000E-01     -1.658047000000000E+02      3.890381000000000E-01     -4.755078000000000E+01      3.963623000000000E-01     -1.506250000000000E+02      8.074646000000000E-01     -7.480469000000000E+01
4861000000.000000      8.180542000000000E-01     -1.657266000000000E+02      3.883362000000000E-01     -4.818359000000000E+01      3.974152000000000E-01     -1.507891000000000E+02      8.118286000000000E-01     -7.497265000000000E+01
4862000000.000000      8.239136000000000E-01     -1.656563000000000E+02      3.888245000000000E-01     -4.842968000000000E+01      3.989868000000000E-01     -1.509609000000000E+02      8.175964000000000E-01     -7.494531000000000E+01
4863000000.000000      8.288574000000000E-01     -1.658359000000000E+02      3.863220000000000E-01     -4.901172000000000E+01      4.003906000000000E-01     -1.510859000000000E+02      8.224487000000000E-01     -7.503515000000000E+01
4864000000.000000      8.342285000000000E-01     -1.657344000000000E+02      3.854218000000000E-01     -4.935937000000000E+01      4.001465000000000E-01     -1.511953000000000E+02      8.268433000000000E-01     -7.518359000000000E+01
4865000000.000000      8.365479000000000E-01     -1.659141000000000E+02      3.847809000000000E-01     -4.977734000000000E+01      4.015198000000000E-01     -1.515469000000000E+02      8.324585000000000E-01     -7.510156000000000E+01
4866000000.000000      8.442078000000000E-01     -1.657656000000000E+02      3.842163000000000E-01     -5.017773000000000E+01      4.026184000000000E-01     -1.516562000000000E+02      8.378296000000000E-01     -7.529297000000000E+01
4867000000.000000      8.490906000000000E-01     -1.657891000000000E+02      3.840637000000000E-01     -5.060937000000000E+01      4.029694000000000E-01     -1.518594000000000E+02      8.419495000000000E-01     -7.525781000000000E+01
4868000000.000000      8.524780000000000E-01     -1.657812000000000E+02      3.818665000000000E-01     -5.100780000000000E+01      4.041748000000000E-01     -1.519375000000000E+02      8.459167000000000E-01     -7.542578000000000E+01
4869000000.000000      8.568726000000000E-01     -1.656016000000000E+02      3.805847000000000E-01     -5.138281000000000E+01      4.052429000000000E-01     -1.521172000000000E+02      8.519897000000000E-01     -7.555078000000000E+01
4870000000.000000      8.617859000000000E-01     -1.658359000000000E+02      3.795471000000000E-01     -5.171679000000000E+01      4.054108000000000E-01     -1.523672000000000E+02      8.571472000000000E-01     -7.563281000000000E+01
4871000000.000000      8.647766000000000E-01     -1.657891000000000E+02      3.791656000000000E-01     -5.218554000000000E+01      4.055176000000000E-01     -1.525938000000000E+02      8.598938000000000E-01     -7.577734000000000E+01
4872000000.000000      8.704224000000000E-01     -1.656484000000000E+02      3.774719000000000E-01     -5.217578000000000E+01      4.059906000000000E-01     -1.528359000000000E+02      8.670959000000000E-01     -7.580859000000000E+01
4873000000.000000      8.731995000000000E-01     -1.655859000000000E+02      3.761902000000000E-01     -5.251758000000000E+01      4.059601000000000E-01     -1.528906000000000E+02      8.694458000000000E-01     -7.600390000000000E+01
4874000000.000000      8.750610000000000E-01     -1.656094000000000E+02      3.752899000000000E-01     -5.308788000000000E+01      4.077148000000000E-01     -1.530391000000000E+02      8.741150000000000E-01     -7.582421000000000E+01
4875000000.000000      8.789978000000000E-01     -1.658281000000000E+02      3.733368000000000E-01     -5.316406000000000E+01      4.075317000000000E-01     -1.533281000000000E+02      8.789063000000000E-01     -7.612109000000000E+01
4876000000.000000      8.804321000000000E-01     -1.655703000000000E+02      3.722076000000000E-01     -5.352539000000000E+01      4.072418000000000E-01     -1.534531000000000E+02      8.826294000000000E-01     -7.635547000000000E+01
4877000000.000000      8.819275000000000E-01     -1.654375000000000E+02      3.708649000000000E-01     -5.373828000000000E+01      4.080963000000000E-01     -1.536797000000000E+02      8.879700000000000E-01     -7.647265000000000E+01
4878000000.000000      8.877563000000000E-01     -1.655234000000000E+02      3.694153000000000E-01     -5.382617000000000E+01      4.082184000000000E-01     -1.536719000000000E+02      8.923950000000000E-01     -7.650781000000000E+01
4879000000.000000      8.872986000000000E-01     -1.653047000000000E+02      3.675995000000000E-01     -5.413867000000000E+01      4.082947000000000E-01     -1.538750000000000E+02      8.943481000000000E-01     -7.664063000000000E+01
4880000000.000000      8.901978000000000E-01     -1.653516000000000E+02      3.664246000000000E-01     -5.446679000000000E+01      4.085236000000000E-01     -1.539375000000000E+02      8.991089000000000E-01     -7.660156000000000E+01
4881000000.000000      8.942261000000000E-01     -1.652187000000000E+02      3.654938000000000E-01     -5.456249000000000E+01      4.091644000000000E-01     -1.542812000000000E+02      9.035339000000000E-01     -7.684375000000000E+01
4882000000.000000      8.940125000000000E-01     -1.651484000000000E+02      3.631439000000000E-01     -5.481835000000000E+01      4.085846000000000E-01     -1.542656000000000E+02      9.056702000000000E-01     -7.695703000000000E+01
