! Network Analyzer HP8722D
! Hewlett-Packard
! Data name: Linha & Wilkinson
! Saver's name: Rodrigo Anjos
! Comments: Teste da utilização de aquisição
continua pelo VNA HP8722D
! Time and date: 6/5/2025 12:51
!              Frequency                     S11                                                   S21                                                   S12                                                   S22
# HZ  S  MA R 50
4800000000.000000      6.129761000000000E-01     -4.779101000000000E+01      4.144745000000000E-01     -2.208887000000000E+01      4.837799000000000E-01     -1.759453000000000E+02      4.932556000000000E-01      1.798828000000000E+02
4801000000.000000      6.137085000000000E-01     -4.832031000000000E+01      4.151001000000000E-01     -2.243066000000000E+01      4.874268000000000E-01     -1.760781000000000E+02      4.923401000000000E-01      1.793203000000000E+02
4802000000.000000      6.164551000000000E-01     -4.890234000000000E+01      4.169922000000000E-01     -2.290430000000000E+01      4.899750000000000E-01     -1.763515000000000E+02      4.936218000000000E-01      1.788437000000000E+02
4803000000.000000      6.181641000000000E-01     -4.946094000000000E+01      4.172363000000000E-01     -2.337695000000000E+01      4.913330000000000E-01     -1.764453000000000E+02      4.953613000000000E-01      1.787031000000000E+02
4804000000.000000      6.207581000000000E-01     -5.002343000000000E+01      4.210205000000000E-01     -2.388379000000000E+01      4.943390000000000E-01     -1.767812000000000E+02      4.982147000000000E-01      1.782187000000000E+02
4805000000.000000      6.244812000000000E-01     -5.059765000000000E+01      4.190216000000000E-01     -2.459179000000000E+01      4.986420000000000E-01     -1.772500000000000E+02      5.004272000000000E-01      1.773906000000000E+02
4806000000.000000      6.253052000000000E-01     -5.116211000000000E+01      4.200592000000000E-01     -2.485156000000000E+01      5.011292000000000E-01     -1.773906000000000E+02      5.051270000000000E-01      1.775547000000000E+02
4807000000.000000      6.285400000000000E-01     -5.172852000000000E+01      4.219971000000000E-01     -2.548437000000000E+01      5.031128000000000E-01     -1.780000000000000E+02      5.054932000000000E-01      1.768125000000000E+02
4808000000.000000      6.291199000000000E-01     -5.224218000000000E+01      4.215546000000000E-01     -2.576660000000000E+01      5.061340000000000E-01     -1.781172000000000E+02      5.053711000000000E-01      1.765625000000000E+02
4809000000.000000      6.325073000000000E-01     -5.279882000000000E+01      4.214172000000000E-01     -2.631543000000000E+01      5.095520000000000E-01     -1.785625000000000E+02      5.090637000000000E-01      1.765000000000000E+02
4810000000.000000      6.334534000000000E-01     -5.346484000000000E+01      4.231110000000000E-01     -2.695019000000000E+01      5.129700000000000E-01     -1.785938000000000E+02      5.121155000000000E-01      1.757891000000000E+02
4811000000.000000      6.367493000000000E-01     -5.383203000000000E+01      4.223938000000000E-01     -2.746094000000000E+01      5.156860000000000E-01     -1.790156000000000E+02      5.118408000000000E-01      1.755234000000000E+02
4812000000.000000      6.383362000000000E-01     -5.416797000000000E+01      4.241486000000000E-01     -2.793066000000000E+01      5.197754000000000E-01     -1.794453000000000E+02      5.146179000000000E-01      1.749844000000000E+02
4813000000.000000      6.395264000000000E-01     -5.484765000000000E+01      4.227600000000000E-01     -2.865429000000000E+01      5.226746000000000E-01     -1.794922000000000E+02      5.205383000000000E-01      1.747422000000000E+02
4814000000.000000      6.407776000000000E-01     -5.545898000000000E+01      4.240265000000000E-01     -2.905762000000000E+01      5.256958000000000E-01      1.799062000000000E+02      5.191345000000000E-01      1.742734000000000E+02
4815000000.000000      6.426392000000000E-01     -5.574609000000000E+01      4.226990000000000E-01     -2.926953000000000E+01      5.261841000000000E-01      1.795234000000000E+02      5.192566000000000E-01      1.737813000000000E+02
4816000000.000000      6.470947000000000E-01     -5.618945000000000E+01      4.234009000000000E-01     -2.991308000000000E+01      5.314941000000000E-01      1.792656000000000E+02      5.244751000000000E-01      1.734609000000000E+02
4817000000.000000      6.470947000000000E-01     -5.683594000000000E+01      4.240723000000000E-01     -3.043262000000000E+01      5.326538000000000E-01      1.787031000000000E+02      5.255737000000000E-01      1.729687000000000E+02
4818000000.000000      6.491089000000000E-01     -5.730469000000000E+01      4.227142000000000E-01     -3.094629000000000E+01      5.359192000000000E-01      1.782656000000000E+02      5.274963000000000E-01      1.723594000000000E+02
4819000000.000000      6.497192000000000E-01     -5.781836000000000E+01      4.229889000000000E-01     -3.155762000000000E+01      5.392761000000000E-01      1.778125000000000E+02      5.289917000000000E-01      1.723984000000000E+02
4820000000.000000      6.497192000000000E-01     -5.804101000000000E+01      4.219208000000000E-01     -3.200781000000000E+01      5.429688000000000E-01      1.773516000000000E+02      5.306091000000000E-01      1.718281000000000E+02
4821000000.000000      6.513367000000000E-01     -5.849999000000000E+01      4.216919000000000E-01     -3.275391000000000E+01      5.423889000000000E-01      1.766953000000000E+02      5.295410000000000E-01      1.708672000000000E+02
4822000000.000000      6.519470000000000E-01     -5.875977000000000E+01      4.204559000000000E-01     -3.321484000000000E+01      5.465698000000000E-01      1.761016000000000E+02      5.322876000000000E-01      1.705234000000000E+02
4823000000.000000      6.547546000000000E-01     -5.943749000000000E+01      4.203796000000000E-01     -3.369531000000000E+01      5.484314000000000E-01      1.758125000000000E+02      5.322266000000000E-01      1.700938000000000E+02
4824000000.000000      6.566467000000000E-01     -5.949219000000000E+01      4.187927000000000E-01     -3.394140000000000E+01      5.525208000000000E-01      1.750625000000000E+02      5.335999000000000E-01      1.694062000000000E+02
4825000000.000000      6.554871000000000E-01     -5.993750000000000E+01      4.186859000000000E-01     -3.463867000000000E+01      5.531311000000000E-01      1.747890000000000E+02      5.328674000000000E-01      1.690312000000000E+02
4826000000.000000      6.575928000000000E-01     -6.041992000000000E+01      4.186249000000000E-01     -3.534180000000000E+01      5.537109000000000E-01      1.741484000000000E+02      5.321655000000000E-01      1.687187000000000E+02
4827000000.000000      6.593018000000000E-01     -6.063086000000000E+01      4.185486000000000E-01     -3.542578000000000E+01      5.559082000000000E-01      1.735156000000000E+02      5.322571000000000E-01      1.680234000000000E+02
4828000000.000000      6.600647000000000E-01     -6.057617000000000E+01      4.171143000000000E-01     -3.614648000000000E+01      5.586853000000000E-01      1.730156000000000E+02      5.324402000000000E-01      1.676953000000000E+02
4829000000.000000      6.606750000000000E-01     -6.082031000000000E+01      4.175720000000000E-01     -3.690234000000000E+01      5.569458000000000E-01      1.725703000000000E+02      5.298157000000000E-01      1.670781000000000E+02
4830000000.000000      6.612549000000000E-01     -6.096874000000000E+01      4.154053000000000E-01     -3.714648000000000E+01      5.608521000000000E-01      1.718594000000000E+02      5.288696000000000E-01      1.665937000000000E+02
4831000000.000000      6.596069000000000E-01     -6.142773000000000E+01      4.122009000000000E-01     -3.793750000000000E+01      5.631714000000000E-01      1.713281000000000E+02      5.284729000000000E-01      1.662109000000000E+02
4832000000.000000      6.610413000000000E-01     -6.136328000000000E+01      4.140320000000000E-01     -3.794726000000000E+01      5.611877000000000E-01      1.706328000000000E+02      5.260315000000000E-01      1.654219000000000E+02
4833000000.000000      6.613159000000000E-01     -6.161133000000000E+01      4.116669000000000E-01     -3.847656000000000E+01      5.621338000000000E-01      1.698594000000000E+02      5.226440000000000E-01      1.650781000000000E+02
4834000000.000000      6.613464000000000E-01     -6.167187000000000E+01      4.099579000000000E-01     -3.899414000000000E+01      5.640564000000000E-01      1.692266000000000E+02      5.207214000000000E-01      1.644922000000000E+02
4835000000.000000      6.631470000000000E-01     -6.177343000000000E+01      4.087372000000000E-01     -3.952539000000000E+01      5.634460000000000E-01      1.686797000000000E+02      5.152588000000000E-01      1.640078000000000E+02
4836000000.000000      6.641541000000000E-01     -6.154687000000000E+01      4.073944000000000E-01     -3.978320000000000E+01      5.609436000000000E-01      1.681953000000000E+02      5.109558000000000E-01      1.638047000000000E+02
4837000000.000000      6.625977000000000E-01     -6.179296000000000E+01      4.063416000000000E-01     -4.040235000000000E+01      5.594482000000000E-01      1.674531000000000E+02      5.074768000000000E-01      1.628203000000000E+02
4838000000.000000      6.624756000000000E-01     -6.183007000000000E+01      4.060059000000000E-01     -4.069726000000000E+01      5.598450000000000E-01      1.667187000000000E+02      5.039063000000000E-01      1.627969000000000E+02
4839000000.000000      6.651001000000000E-01     -6.177929000000000E+01      4.037323000000000E-01     -4.105859000000000E+01      5.605774000000000E-01      1.661094000000000E+02      4.992676000000000E-01      1.622031000000000E+02
4840000000.000000      6.652222000000000E-01     -6.174218000000000E+01      4.040680000000000E-01     -4.154101000000000E+01      5.581055000000000E-01      1.654609000000000E+02      4.925690000000000E-01      1.619531000000000E+02
4841000000.000000      6.659546000000000E-01     -6.162499000000000E+01      4.017944000000000E-01     -4.219531000000000E+01      5.556335000000000E-01      1.646641000000000E+02      4.859161000000000E-01      1.611250000000000E+02
4842000000.000000      6.654358000000000E-01     -6.157617000000000E+01      4.001465000000000E-01     -4.265038000000000E+01      5.524902000000000E-01      1.642656000000000E+02      4.815063000000000E-01      1.608203000000000E+02
4843000000.000000      6.665039000000000E-01     -6.147851000000000E+01      4.002075000000000E-01     -4.310351000000000E+01      5.527649000000000E-01      1.635781000000000E+02      4.761047000000000E-01      1.607031000000000E+02
4844000000.000000      6.634521000000000E-01     -6.130664000000000E+01      3.989410000000000E-01     -4.334570000000000E+01      5.503235000000000E-01      1.628594000000000E+02      4.692993000000000E-01      1.598906000000000E+02
4845000000.000000      6.656799000000000E-01     -6.099609000000000E+01      3.958588000000000E-01     -4.390038000000000E+01      5.474548000000000E-01      1.623125000000000E+02      4.609070000000000E-01      1.597969000000000E+02
4846000000.000000      6.661987000000000E-01     -6.095312000000000E+01      3.959351000000000E-01     -4.420898000000000E+01      5.463562000000000E-01      1.613984000000000E+02      4.528961000000000E-01      1.595859000000000E+02
4847000000.000000      6.675415000000000E-01     -6.064258000000000E+01      3.947601000000000E-01     -4.458203000000000E+01      5.432129000000000E-01      1.609453000000000E+02      4.441681000000000E-01      1.591406000000000E+02
4848000000.000000      6.683350000000000E-01     -6.056445000000000E+01      3.919830000000000E-01     -4.480469000000000E+01      5.408936000000000E-01      1.602813000000000E+02      4.376678000000000E-01      1.590469000000000E+02
4849000000.000000      6.671753000000000E-01     -6.046484000000000E+01      3.925323000000000E-01     -4.556054000000000E+01      5.366211000000000E-01      1.596094000000000E+02      4.296722000000000E-01      1.590469000000000E+02
4850000000.000000      6.694336000000000E-01     -6.009179000000000E+01      3.916931000000000E-01     -4.571679000000000E+01      5.343323000000000E-01      1.590000000000000E+02      4.223633000000000E-01      1.587500000000000E+02
4851000000.000000      6.694031000000000E-01     -5.986523000000000E+01      3.916016000000000E-01     -4.653710000000000E+01      5.306702000000000E-01      1.585703000000000E+02      4.124908000000000E-01      1.588047000000000E+02
4852000000.000000      6.669006000000000E-01     -5.954102000000000E+01      3.894348000000000E-01     -4.663867000000000E+01      5.253601000000000E-01      1.580469000000000E+02      4.045563000000000E-01      1.589609000000000E+02
4853000000.000000      6.698303000000000E-01     -5.946094000000000E+01      3.873901000000000E-01     -4.729101000000000E+01      5.233154000000000E-01      1.573047000000000E+02      3.939362000000000E-01      1.583359000000000E+02
4854000000.000000      6.704712000000000E-01     -5.895508000000000E+01      3.862915000000000E-01     -4.777148000000000E+01      5.187073000000000E-01      1.569297000000000E+02      3.841553000000000E-01      1.586484000000000E+02
4855000000.000000      6.708984000000000E-01     -5.870703000000000E+01      3.846588000000000E-01     -4.826366000000000E+01      5.140076000000000E-01      1.561875000000000E+02      3.771210000000000E-01      1.589687000000000E+02
4856000000.000000      6.713562000000000E-01     -5.860156000000000E+01      3.852234000000000E-01     -4.855859000000000E+01      5.086060000000000E-01      1.557656000000000E+02      3.685303000000000E-01      1.589687000000000E+02
4857000000.000000      6.728516000000000E-01     -5.816015000000000E+01      3.847504000000000E-01     -4.889257000000000E+01      5.057373000000000E-01      1.550547000000000E+02      3.597717000000000E-01      1.592813000000000E+02
4858000000.000000      6.722412000000000E-01     -5.791797000000000E+01      3.821411000000000E-01     -4.947460000000000E+01      5.018311000000000E-01      1.547422000000000E+02      3.514252000000000E-01      1.598125000000000E+02
4859000000.000000      6.734619000000000E-01     -5.768555000000000E+01      3.809052000000000E-01     -4.977539000000000E+01      4.965515000000000E-01      1.541953000000000E+02      3.418274000000000E-01      1.600312000000000E+02
4860000000.000000      6.735535000000000E-01     -5.732422000000000E+01      3.794708000000000E-01     -5.033593000000000E+01      4.916229000000000E-01      1.536719000000000E+02      3.339844000000000E-01      1.605781000000000E+02
4861000000.000000      6.751404000000000E-01     -5.689843000000000E+01      3.783569000000000E-01     -5.102344000000000E+01      4.886932000000000E-01      1.533437000000000E+02      3.249969000000000E-01      1.611641000000000E+02
4862000000.000000      6.748352000000000E-01     -5.658593000000000E+01      3.780823000000000E-01     -5.118945000000000E+01      4.830322000000000E-01      1.527422000000000E+02      3.158112000000000E-01      1.619062000000000E+02
4863000000.000000      6.782227000000000E-01     -5.625586000000000E+01      3.753204000000000E-01     -5.189843000000000E+01      4.788361000000000E-01      1.522578000000000E+02      3.061829000000000E-01      1.625703000000000E+02
4864000000.000000      6.791992000000000E-01     -5.590234000000000E+01      3.738403000000000E-01     -5.236328000000000E+01      4.736176000000000E-01      1.520156000000000E+02      2.984161000000000E-01      1.633672000000000E+02
4865000000.000000      6.787415000000000E-01     -5.580664000000000E+01      3.733215000000000E-01     -5.275585000000000E+01      4.703064000000000E-01      1.515078000000000E+02      2.897034000000000E-01      1.645625000000000E+02
4866000000.000000      6.793213000000000E-01     -5.531640000000000E+01      3.697510000000000E-01     -5.342578000000000E+01      4.667358000000000E-01      1.511406000000000E+02      2.827148000000000E-01      1.650000000000000E+02
4867000000.000000      6.802063000000000E-01     -5.497851000000000E+01      3.691864000000000E-01     -5.392578000000000E+01      4.595490000000000E-01      1.507266000000000E+02      2.746277000000000E-01      1.663906000000000E+02
4868000000.000000      6.797180000000000E-01     -5.454883000000000E+01      3.686523000000000E-01     -5.447266000000000E+01      4.546204000000000E-01      1.502109000000000E+02      2.666779000000000E-01      1.675078000000000E+02
4869000000.000000      6.796875000000000E-01     -5.424218000000000E+01      3.660889000000000E-01     -5.487109000000000E+01      4.508820000000000E-01      1.499766000000000E+02      2.598267000000000E-01      1.687500000000000E+02
4870000000.000000      6.817932000000000E-01     -5.388672000000000E+01      3.637085000000000E-01     -5.542382000000000E+01      4.458008000000000E-01      1.495547000000000E+02      2.537994000000000E-01      1.703125000000000E+02
4871000000.000000      6.827698000000000E-01     -5.364258000000000E+01      3.638611000000000E-01     -5.607226000000000E+01      4.407043000000000E-01      1.492422000000000E+02      2.477875000000000E-01      1.715781000000000E+02
4872000000.000000      6.834412000000000E-01     -5.322460000000000E+01      3.600616000000000E-01     -5.636328000000000E+01      4.345551000000000E-01      1.487734000000000E+02      2.416611000000000E-01      1.732109000000000E+02
4873000000.000000      6.831970000000000E-01     -5.288280000000000E+01      3.584747000000000E-01     -5.699609000000000E+01      4.312286000000000E-01      1.484453000000000E+02      2.360306000000000E-01      1.748672000000000E+02
4874000000.000000      6.831055000000000E-01     -5.254101000000000E+01      3.559570000000000E-01     -5.783398000000000E+01      4.283905000000000E-01      1.479609000000000E+02      2.310257000000000E-01      1.764062000000000E+02
4875000000.000000      6.828003000000000E-01     -5.233007000000000E+01      3.548279000000000E-01     -5.806054000000000E+01      4.230499000000000E-01      1.477187000000000E+02      2.269287000000000E-01      1.787734000000000E+02
4876000000.000000      6.846008000000000E-01     -5.201172000000000E+01      3.542328000000000E-01     -5.868554000000000E+01      4.190521000000000E-01      1.474141000000000E+02      2.230835000000000E-01     -1.795859000000000E+02
4877000000.000000      6.846619000000000E-01     -5.159180000000000E+01      3.493500000000000E-01     -5.918750000000000E+01      4.137726000000000E-01      1.470391000000000E+02      2.195358000000000E-01     -1.773125000000000E+02
4878000000.000000      6.846619000000000E-01     -5.128711000000000E+01      3.481750000000000E-01     -5.954687000000000E+01      4.096985000000000E-01      1.470000000000000E+02      2.152100000000000E-01     -1.755781000000000E+02
4879000000.000000      6.861877000000000E-01     -5.081249000000000E+01      3.452454000000000E-01     -6.026953000000000E+01      4.060974000000000E-01      1.465156000000000E+02      2.118530000000000E-01     -1.730078000000000E+02
4880000000.000000      6.850586000000000E-01     -5.068945000000000E+01      3.439026000000000E-01     -6.073632000000000E+01      3.996124000000000E-01      1.461641000000000E+02      2.100220000000000E-01     -1.713438000000000E+02
4881000000.000000      6.846008000000000E-01     -5.014843000000000E+01      3.415375000000000E-01     -6.102929000000000E+01      3.969879000000000E-01      1.456640000000000E+02      2.089539000000000E-01     -1.689531000000000E+02
4882000000.000000      6.839600000000000E-01     -4.986914000000000E+01      3.404388000000000E-01     -6.175390000000000E+01      3.940125000000000E-01      1.454375000000000E+02      2.076263000000000E-01     -1.671406000000000E+02
