! Network Analyzer HP8722D
! Hewlett-Packard
! Data name: Linha & Wilkinson
! Saver's name: Rodrigo Anjos
! Comments: Teste da utilização de aquisição
continua pelo VNA HP8722D
! Time and date: 6/5/2025 14:46
!              Frequency                     S11                                                   S21                                                   S12                                                   S22
# HZ  S  MA R 50
4800000000.000000      4.964905000000000E-01     -1.682344000000000E+02      2.525177000000000E-01     -1.973437000000000E+01      2.486877000000000E-01     -1.408594000000000E+02      6.475830000000000E-01     -8.036718000000000E+01
4801000000.000000      4.978943000000000E-01     -1.682891000000000E+02      2.561646000000000E-01     -1.985547000000000E+01      2.521973000000000E-01     -1.409922000000000E+02      6.463623000000000E-01     -8.005468000000000E+01
4802000000.000000      4.997864000000000E-01     -1.683750000000000E+02      2.601013000000000E-01     -2.018359000000000E+01      2.563629000000000E-01     -1.409375000000000E+02      6.447144000000000E-01     -7.980078000000000E+01
4803000000.000000      5.010376000000000E-01     -1.684141000000000E+02      2.649231000000000E-01     -2.034961000000000E+01      2.592468000000000E-01     -1.410547000000000E+02      6.450195000000000E-01     -7.955078000000000E+01
4804000000.000000      5.032349000000000E-01     -1.684141000000000E+02      2.685242000000000E-01     -2.069043000000000E+01      2.632446000000000E-01     -1.412734000000000E+02      6.443481000000000E-01     -7.938281000000000E+01
4805000000.000000      5.057983000000000E-01     -1.684687000000000E+02      2.723999000000000E-01     -2.085547000000000E+01      2.675934000000000E-01     -1.411250000000000E+02      6.442871000000000E-01     -7.933594000000000E+01
4806000000.000000      5.077515000000000E-01     -1.684297000000000E+02      2.765503000000000E-01     -2.120117000000000E+01      2.695465000000000E-01     -1.412109000000000E+02      6.439819000000000E-01     -7.911718000000000E+01
4807000000.000000      5.101929000000000E-01     -1.684375000000000E+02      2.808228000000000E-01     -2.156152000000000E+01      2.741089000000000E-01     -1.414687000000000E+02      6.432495000000000E-01     -7.883594000000000E+01
4808000000.000000      5.130005000000000E-01     -1.683828000000000E+02      2.857513000000000E-01     -2.172754000000000E+01      2.774200000000000E-01     -1.415313000000000E+02      6.427002000000000E-01     -7.870312000000000E+01
4809000000.000000      5.154724000000000E-01     -1.684219000000000E+02      2.885895000000000E-01     -2.236621000000000E+01      2.813721000000000E-01     -1.417109000000000E+02      6.434631000000000E-01     -7.845312000000000E+01
4810000000.000000      5.181885000000000E-01     -1.684609000000000E+02      2.928925000000000E-01     -2.261328000000000E+01      2.846985000000000E-01     -1.418906000000000E+02      6.447144000000000E-01     -7.825000000000000E+01
4811000000.000000      5.212402000000000E-01     -1.683828000000000E+02      2.964630000000000E-01     -2.304590000000000E+01      2.892151000000000E-01     -1.418906000000000E+02      6.437683000000000E-01     -7.796484000000000E+01
4812000000.000000      5.257263000000000E-01     -1.682969000000000E+02      3.003540000000000E-01     -2.340430000000000E+01      2.917480000000000E-01     -1.419219000000000E+02      6.443481000000000E-01     -7.783203000000000E+01
4813000000.000000      5.279541000000000E-01     -1.682578000000000E+02      3.039093000000000E-01     -2.359473000000000E+01      2.952423000000000E-01     -1.420078000000000E+02      6.451721000000000E-01     -7.754296000000000E+01
4814000000.000000      5.307922000000000E-01     -1.683203000000000E+02      3.072510000000000E-01     -2.408105000000000E+01      2.976837000000000E-01     -1.423750000000000E+02      6.457825000000000E-01     -7.750000000000000E+01
4815000000.000000      5.347900000000000E-01     -1.681719000000000E+02      3.105011000000000E-01     -2.454297000000000E+01      3.014526000000000E-01     -1.425000000000000E+02      6.463013000000000E-01     -7.722265000000000E+01
4816000000.000000      5.393982000000000E-01     -1.680312000000000E+02      3.155518000000000E-01     -2.486230000000000E+01      3.052673000000000E-01     -1.425078000000000E+02      6.476746000000000E-01     -7.701562000000000E+01
4817000000.000000      5.434265000000000E-01     -1.680000000000000E+02      3.180695000000000E-01     -2.550293000000000E+01      3.079071000000000E-01     -1.428828000000000E+02      6.488953000000000E-01     -7.687109000000000E+01
4818000000.000000      5.468750000000000E-01     -1.679531000000000E+02      3.213196000000000E-01     -2.581836000000000E+01      3.107605000000000E-01     -1.429375000000000E+02      6.504517000000000E-01     -7.683203000000000E+01
4819000000.000000      5.525818000000000E-01     -1.678359000000000E+02      3.250122000000000E-01     -2.632129000000000E+01      3.128357000000000E-01     -1.431641000000000E+02      6.532593000000000E-01     -7.662109000000000E+01
4820000000.000000      5.545959000000000E-01     -1.677734000000000E+02      3.282166000000000E-01     -2.673828000000000E+01      3.168488000000000E-01     -1.433281000000000E+02      6.549072000000000E-01     -7.640625000000000E+01
4821000000.000000      5.607605000000000E-01     -1.676797000000000E+02      3.316650000000000E-01     -2.717382000000000E+01      3.196106000000000E-01     -1.435703000000000E+02      6.555786000000000E-01     -7.633594000000000E+01
4822000000.000000      5.673218000000000E-01     -1.676172000000000E+02      3.350220000000000E-01     -2.765820000000000E+01      3.217773000000000E-01     -1.438203000000000E+02      6.586304000000000E-01     -7.613671000000000E+01
4823000000.000000      5.709229000000000E-01     -1.675390000000000E+02      3.381195000000000E-01     -2.818066000000000E+01      3.251190000000000E-01     -1.438047000000000E+02      6.603699000000000E-01     -7.601171000000000E+01
4824000000.000000      5.776062000000000E-01     -1.674531000000000E+02      3.407745000000000E-01     -2.871094000000000E+01      3.283386000000000E-01     -1.441641000000000E+02      6.633606000000000E-01     -7.587500000000000E+01
4825000000.000000      5.812683000000000E-01     -1.673828000000000E+02      3.440552000000000E-01     -2.917871000000000E+01      3.316498000000000E-01     -1.443281000000000E+02      6.651917000000000E-01     -7.561328000000000E+01
4826000000.000000      5.876465000000000E-01     -1.672812000000000E+02      3.471069000000000E-01     -2.979785000000000E+01      3.331909000000000E-01     -1.444375000000000E+02      6.680908000000000E-01     -7.560156000000000E+01
4827000000.000000      5.938110000000000E-01     -1.671641000000000E+02      3.504333000000000E-01     -3.003808000000000E+01      3.362579000000000E-01     -1.445937000000000E+02      6.709595000000000E-01     -7.553515000000000E+01
4828000000.000000      6.004333000000000E-01     -1.671250000000000E+02      3.538971000000000E-01     -3.066308000000000E+01      3.386841000000000E-01     -1.447891000000000E+02      6.741028000000000E-01     -7.548437000000000E+01
4829000000.000000      6.037292000000000E-01     -1.669141000000000E+02      3.550415000000000E-01     -3.119726000000000E+01      3.412476000000000E-01     -1.451406000000000E+02      6.764526000000000E-01     -7.525000000000000E+01
4830000000.000000      6.110840000000000E-01     -1.668750000000000E+02      3.573608000000000E-01     -3.172852000000000E+01      3.437500000000000E-01     -1.452422000000000E+02      6.791687000000000E-01     -7.514453000000000E+01
4831000000.000000      6.163635000000000E-01     -1.668594000000000E+02      3.606567000000000E-01     -3.232812000000000E+01      3.466644000000000E-01     -1.453203000000000E+02      6.831055000000000E-01     -7.517578000000000E+01
4832000000.000000      6.250305000000000E-01     -1.667187000000000E+02      3.634338000000000E-01     -3.290430000000000E+01      3.480377000000000E-01     -1.456094000000000E+02      6.864319000000000E-01     -7.503515000000000E+01
4833000000.000000      6.301575000000000E-01     -1.667187000000000E+02      3.647461000000000E-01     -3.326953000000000E+01      3.505554000000000E-01     -1.458906000000000E+02      6.894531000000000E-01     -7.502734000000000E+01
4834000000.000000      6.365662000000000E-01     -1.665859000000000E+02      3.674622000000000E-01     -3.380664000000000E+01      3.527069000000000E-01     -1.460781000000000E+02      6.919556000000000E-01     -7.494141000000000E+01
4835000000.000000      6.429749000000000E-01     -1.665313000000000E+02      3.696289000000000E-01     -3.456055000000000E+01      3.551331000000000E-01     -1.462734000000000E+02      6.969604000000000E-01     -7.491015000000000E+01
4836000000.000000      6.516418000000000E-01     -1.664375000000000E+02      3.713837000000000E-01     -3.504101000000000E+01      3.576355000000000E-01     -1.463516000000000E+02      7.004089000000000E-01     -7.476953000000000E+01
4837000000.000000      6.575317000000000E-01     -1.663047000000000E+02      3.738708000000000E-01     -3.576367000000000E+01      3.595123000000000E-01     -1.467578000000000E+02      7.034302000000000E-01     -7.467187000000000E+01
4838000000.000000      6.649475000000000E-01     -1.663516000000000E+02      3.768616000000000E-01     -3.605078000000000E+01      3.613739000000000E-01     -1.468906000000000E+02      7.077637000000000E-01     -7.463672000000000E+01
4839000000.000000      6.721802000000000E-01     -1.661641000000000E+02      3.770447000000000E-01     -3.665820000000000E+01      3.636780000000000E-01     -1.470781000000000E+02      7.109680000000000E-01     -7.457421000000000E+01
4840000000.000000      6.772156000000000E-01     -1.661875000000000E+02      3.786926000000000E-01     -3.719141000000000E+01      3.659821000000000E-01     -1.471875000000000E+02      7.148743000000000E-01     -7.469921000000000E+01
4841000000.000000      6.855164000000000E-01     -1.662344000000000E+02      3.814392000000000E-01     -3.791797000000000E+01      3.676910000000000E-01     -1.474766000000000E+02      7.194214000000000E-01     -7.458593000000000E+01
4842000000.000000      6.927185000000000E-01     -1.660703000000000E+02      3.818054000000000E-01     -3.837500000000000E+01      3.698730000000000E-01     -1.476641000000000E+02      7.240601000000000E-01     -7.449219000000000E+01
4843000000.000000      6.992798000000000E-01     -1.661328000000000E+02      3.832855000000000E-01     -3.903125000000000E+01      3.711395000000000E-01     -1.478672000000000E+02      7.288208000000000E-01     -7.453125000000000E+01
4844000000.000000      7.065125000000000E-01     -1.660469000000000E+02      3.840485000000000E-01     -3.947656000000000E+01      3.719940000000000E-01     -1.479609000000000E+02      7.330017000000000E-01     -7.452343000000000E+01
4845000000.000000      7.131958000000000E-01     -1.659844000000000E+02      3.856964000000000E-01     -4.000586000000000E+01      3.751678000000000E-01     -1.481562000000000E+02      7.358093000000000E-01     -7.452734000000000E+01
4846000000.000000      7.195129000000000E-01     -1.658984000000000E+02      3.862915000000000E-01     -4.063477000000000E+01      3.769836000000000E-01     -1.483750000000000E+02      7.399597000000000E-01     -7.452734000000000E+01
4847000000.000000      7.285156000000000E-01     -1.659297000000000E+02      3.873596000000000E-01     -4.103711000000000E+01      3.792419000000000E-01     -1.486875000000000E+02      7.463989000000000E-01     -7.462500000000000E+01
4848000000.000000      7.356873000000000E-01     -1.658437000000000E+02      3.871155000000000E-01     -4.157227000000000E+01      3.800507000000000E-01     -1.487578000000000E+02      7.504883000000000E-01     -7.460155000000000E+01
4849000000.000000      7.424011000000000E-01     -1.661172000000000E+02      3.884277000000000E-01     -4.239258000000000E+01      3.814392000000000E-01     -1.490000000000000E+02      7.549133000000000E-01     -7.451953000000000E+01
4850000000.000000      7.495728000000000E-01     -1.658437000000000E+02      3.891449000000000E-01     -4.277148000000000E+01      3.831329000000000E-01     -1.490469000000000E+02      7.601013000000000E-01     -7.451562000000000E+01
4851000000.000000      7.562256000000000E-01     -1.659453000000000E+02      3.898468000000000E-01     -4.339648000000000E+01      3.842316000000000E-01     -1.493125000000000E+02      7.656250000000000E-01     -7.450000000000000E+01
4852000000.000000      7.634888000000000E-01     -1.658828000000000E+02      3.903503000000000E-01     -4.378515000000000E+01      3.865662000000000E-01     -1.494609000000000E+02      7.684937000000000E-01     -7.462500000000000E+01
4853000000.000000      7.704773000000000E-01     -1.658750000000000E+02      3.891907000000000E-01     -4.442773000000000E+01      3.883362000000000E-01     -1.497187000000000E+02      7.741699000000000E-01     -7.480859000000000E+01
4854000000.000000      7.767029000000000E-01     -1.658750000000000E+02      3.908539000000000E-01     -4.508008000000000E+01      3.885193000000000E-01     -1.498359000000000E+02      7.785339000000000E-01     -7.475390000000000E+01
4855000000.000000      7.820740000000000E-01     -1.658828000000000E+02      3.892822000000000E-01     -4.536914000000000E+01      3.898621000000000E-01     -1.499844000000000E+02      7.829285000000000E-01     -7.467187000000000E+01
4856000000.000000      7.898560000000000E-01     -1.658203000000000E+02      3.899536000000000E-01     -4.577344000000000E+01      3.919678000000000E-01     -1.501562000000000E+02      7.882385000000000E-01     -7.474999000000000E+01
4857000000.000000      7.958069000000000E-01     -1.659453000000000E+02      3.898010000000000E-01     -4.635938000000000E+01      3.926849000000000E-01     -1.503515000000000E+02      7.933655000000000E-01     -7.473046000000000E+01
4858000000.000000      8.001099000000000E-01     -1.659141000000000E+02      3.895416000000000E-01     -4.685547000000000E+01      3.936615000000000E-01     -1.505469000000000E+02      7.975464000000000E-01     -7.488281000000000E+01
4859000000.000000      8.065796000000000E-01     -1.658359000000000E+02      3.893280000000000E-01     -4.738281000000000E+01      3.950043000000000E-01     -1.507656000000000E+02      8.039551000000000E-01     -7.493359000000000E+01
4860000000.000000      8.141785000000000E-01     -1.659844000000000E+02      3.884583000000000E-01     -4.770703000000000E+01      3.957672000000000E-01     -1.508359000000000E+02      8.069763000000000E-01     -7.498828000000000E+01
4861000000.000000      8.200073000000000E-01     -1.656875000000000E+02      3.880310000000000E-01     -4.848046000000000E+01      3.968811000000000E-01     -1.509687000000000E+02      8.122253000000000E-01     -7.509766000000000E+01
4862000000.000000      8.240356000000000E-01     -1.659141000000000E+02      3.885345000000000E-01     -4.853906000000000E+01      3.983612000000000E-01     -1.512187000000000E+02      8.184509000000000E-01     -7.507421000000000E+01
4863000000.000000      8.280945000000000E-01     -1.658594000000000E+02      3.862762000000000E-01     -4.927734000000000E+01      4.004059000000000E-01     -1.513984000000000E+02      8.238220000000000E-01     -7.507813000000000E+01
4864000000.000000      8.366699000000000E-01     -1.658828000000000E+02      3.856049000000000E-01     -4.952343000000000E+01      3.997803000000000E-01     -1.514609000000000E+02      8.269348000000000E-01     -7.526562000000000E+01
4865000000.000000      8.395386000000000E-01     -1.659531000000000E+02      3.857422000000000E-01     -4.998437000000000E+01      4.012604000000000E-01     -1.517656000000000E+02      8.328857000000000E-01     -7.522655000000000E+01
4866000000.000000      8.445740000000000E-01     -1.658047000000000E+02      3.841553000000000E-01     -5.042187000000000E+01      4.019165000000000E-01     -1.518750000000000E+02      8.378296000000000E-01     -7.535937000000000E+01
4867000000.000000      8.492432000000000E-01     -1.657969000000000E+02      3.830414000000000E-01     -5.086328000000000E+01      4.028473000000000E-01     -1.520313000000000E+02      8.426514000000000E-01     -7.543359000000000E+01
4868000000.000000      8.524475000000000E-01     -1.658750000000000E+02      3.824310000000000E-01     -5.116211000000000E+01      4.040680000000000E-01     -1.522187000000000E+02      8.459167000000000E-01     -7.546484000000000E+01
4869000000.000000      8.544617000000000E-01     -1.658750000000000E+02      3.801880000000000E-01     -5.168945000000000E+01      4.044495000000000E-01     -1.523984000000000E+02      8.525391000000000E-01     -7.571484000000000E+01
4870000000.000000      8.599548000000000E-01     -1.659375000000000E+02      3.791962000000000E-01     -5.175390000000000E+01      4.047241000000000E-01     -1.525781000000000E+02      8.571167000000000E-01     -7.571094000000000E+01
4871000000.000000      8.658447000000000E-01     -1.659219000000000E+02      3.784485000000000E-01     -5.237305000000000E+01      4.046478000000000E-01     -1.528281000000000E+02      8.596191000000000E-01     -7.592187000000000E+01
4872000000.000000      8.692627000000000E-01     -1.658672000000000E+02      3.765564000000000E-01     -5.243359000000000E+01      4.055939000000000E-01     -1.530703000000000E+02      8.671875000000000E-01     -7.591015000000000E+01
4873000000.000000      8.720398000000000E-01     -1.657031000000000E+02      3.746490000000000E-01     -5.286133000000000E+01      4.054565000000000E-01     -1.530703000000000E+02      8.705750000000000E-01     -7.601953000000000E+01
4874000000.000000      8.750610000000000E-01     -1.657578000000000E+02      3.735352000000000E-01     -5.317968000000000E+01      4.071655000000000E-01     -1.532500000000000E+02      8.734131000000000E-01     -7.598437000000000E+01
4875000000.000000      8.798523000000000E-01     -1.657812000000000E+02      3.730621000000000E-01     -5.318945000000000E+01      4.073029000000000E-01     -1.535078000000000E+02      8.774719000000000E-01     -7.629296000000000E+01
4876000000.000000      8.810730000000000E-01     -1.658203000000000E+02      3.717041000000000E-01     -5.367969000000000E+01      4.063721000000000E-01     -1.536484000000000E+02      8.831787000000000E-01     -7.637500000000000E+01
4877000000.000000      8.835144000000000E-01     -1.655859000000000E+02      3.698273000000000E-01     -5.383984000000000E+01      4.076538000000000E-01     -1.538672000000000E+02      8.886719000000000E-01     -7.648828000000000E+01
4878000000.000000      8.875427000000000E-01     -1.655625000000000E+02      3.686066000000000E-01     -5.415039000000000E+01      4.081116000000000E-01     -1.538984000000000E+02      8.907166000000000E-01     -7.666797000000000E+01
4879000000.000000      8.898010000000000E-01     -1.655313000000000E+02      3.661346000000000E-01     -5.428711000000000E+01      4.076996000000000E-01     -1.541250000000000E+02      8.945618000000000E-01     -7.667578000000000E+01
4880000000.000000      8.906860000000000E-01     -1.655313000000000E+02      3.655701000000000E-01     -5.457226000000000E+01      4.082642000000000E-01     -1.541484000000000E+02      8.971252000000000E-01     -7.677343000000000E+01
4881000000.000000      8.944397000000000E-01     -1.652891000000000E+02      3.646393000000000E-01     -5.461914000000000E+01      4.082031000000000E-01     -1.544609000000000E+02      9.040527000000000E-01     -7.693749000000000E+01
4882000000.000000      8.951416000000000E-01     -1.652578000000000E+02      3.629303000000000E-01     -5.505273000000000E+01      4.082794000000000E-01     -1.544922000000000E+02      9.069214000000000E-01     -7.701172000000000E+01
