! Network Analyzer HP8722D
! Hewlett-Packard
! Data name: Linha & Wilkinson
! Saver's name: Rodrigo Anjos
! Comments: Teste da utilização de aquisição
continua pelo VNA HP8722D
! Time and date: 6/5/2025 12:58
!              Frequency                     S11                                                   S21                                                   S12                                                   S22
# HZ  S  MA R 50
4800000000.000000      9.050598000000000E-01      1.157500000000000E+02      3.194122000000000E-01     -1.704687000000000E+02      2.564850000000000E-01     -8.587500000000000E+01      9.830322000000000E-01     -4.747656000000000E+01
4801000000.000000      9.025269000000000E-01      1.161445000000000E+02      3.193207000000000E-01     -1.705078000000000E+02      2.561646000000000E-01     -8.592188000000000E+01      9.782104000000000E-01     -4.758789000000000E+01
4802000000.000000      8.995056000000000E-01      1.163203000000000E+02      3.194580000000000E-01     -1.702656000000000E+02      2.568970000000000E-01     -8.559374000000000E+01      9.743652000000000E-01     -4.745898000000000E+01
4803000000.000000      9.003296000000000E-01      1.165703000000000E+02      3.201904000000000E-01     -1.702734000000000E+02      2.563171000000000E-01     -8.550781000000000E+01      9.679871000000000E-01     -4.770898000000000E+01
4804000000.000000      8.962708000000000E-01      1.168281000000000E+02      3.200684000000000E-01     -1.702031000000000E+02      2.569122000000000E-01     -8.545313000000000E+01      9.631653000000000E-01     -4.759375000000000E+01
4805000000.000000      8.966064000000000E-01      1.170742000000000E+02      3.205872000000000E-01     -1.701406000000000E+02      2.561340000000000E-01     -8.509766000000000E+01      9.571838000000000E-01     -4.773046000000000E+01
4806000000.000000      8.942566000000000E-01      1.173828000000000E+02      3.208313000000000E-01     -1.701172000000000E+02      2.554016000000000E-01     -8.488672000000000E+01      9.523621000000000E-01     -4.794922000000000E+01
4807000000.000000      8.918762000000000E-01      1.174141000000000E+02      3.220367000000000E-01     -1.702734000000000E+02      2.559052000000000E-01     -8.479687000000000E+01      9.461365000000000E-01     -4.791601000000000E+01
4808000000.000000      8.899841000000000E-01      1.176328000000000E+02      3.222809000000000E-01     -1.700156000000000E+02      2.564545000000000E-01     -8.458593000000000E+01      9.401550000000000E-01     -4.799414000000000E+01
4809000000.000000      8.856506000000000E-01      1.180937000000000E+02      3.221130000000000E-01     -1.702656000000000E+02      2.567291000000000E-01     -8.439453000000000E+01      9.364624000000000E-01     -4.804882000000000E+01
4810000000.000000      8.833313000000000E-01      1.181523000000000E+02      3.234711000000000E-01     -1.701328000000000E+02      2.560730000000000E-01     -8.410936000000000E+01      9.309998000000000E-01     -4.820117000000000E+01
4811000000.000000      8.818054000000000E-01      1.185703000000000E+02      3.236694000000000E-01     -1.702578000000000E+02      2.570801000000000E-01     -8.374218000000000E+01      9.255676000000000E-01     -4.801758000000000E+01
4812000000.000000      8.811951000000000E-01      1.188125000000000E+02      3.235474000000000E-01     -1.701953000000000E+02      2.562561000000000E-01     -8.363281000000000E+01      9.187622000000000E-01     -4.826562000000000E+01
4813000000.000000      8.778992000000000E-01      1.190898000000000E+02      3.247070000000000E-01     -1.701406000000000E+02      2.563934000000000E-01     -8.340235000000000E+01      9.138794000000000E-01     -4.822070000000000E+01
4814000000.000000      8.748169000000000E-01      1.192148000000000E+02      3.249054000000000E-01     -1.701875000000000E+02      2.565155000000000E-01     -8.307032000000000E+01      9.094543000000000E-01     -4.836719000000000E+01
4815000000.000000      8.715210000000000E-01      1.194765000000000E+02      3.257751000000000E-01     -1.701797000000000E+02      2.561646000000000E-01     -8.276562000000000E+01      9.038391000000000E-01     -4.833398000000000E+01
4816000000.000000      8.706970000000000E-01      1.197656000000000E+02      3.270111000000000E-01     -1.702031000000000E+02      2.569733000000000E-01     -8.250391000000000E+01      8.986206000000000E-01     -4.842578000000000E+01
4817000000.000000      8.673401000000000E-01      1.198672000000000E+02      3.272552000000000E-01     -1.704609000000000E+02      2.563019000000000E-01     -8.224218000000000E+01      8.914795000000000E-01     -4.840625000000000E+01
4818000000.000000      8.615417000000000E-01      1.201211000000000E+02      3.271484000000000E-01     -1.703672000000000E+02      2.562714000000000E-01     -8.187500000000000E+01      8.866272000000000E-01     -4.850976000000000E+01
4819000000.000000      8.620300000000000E-01      1.202656000000000E+02      3.280945000000000E-01     -1.705078000000000E+02      2.553711000000000E-01     -8.167969000000000E+01      8.806763000000000E-01     -4.876171000000000E+01
4820000000.000000      8.541870000000000E-01      1.206797000000000E+02      3.282776000000000E-01     -1.703906000000000E+02      2.564697000000000E-01     -8.129686000000000E+01      8.766174000000000E-01     -4.865039000000000E+01
4821000000.000000      8.527832000000000E-01      1.207969000000000E+02      3.301544000000000E-01     -1.705859000000000E+02      2.562408000000000E-01     -8.109766000000000E+01      8.713684000000000E-01     -4.865820000000000E+01
4822000000.000000      8.543091000000000E-01      1.208047000000000E+02      3.304138000000000E-01     -1.708281000000000E+02      2.555542000000000E-01     -8.087109000000000E+01      8.655396000000000E-01     -4.890429000000000E+01
4823000000.000000      8.484192000000000E-01      1.212422000000000E+02      3.308716000000000E-01     -1.708359000000000E+02      2.557526000000000E-01     -8.026953000000000E+01      8.605652000000000E-01     -4.883789000000000E+01
4824000000.000000      8.442688000000000E-01      1.213906000000000E+02      3.310242000000000E-01     -1.712188000000000E+02      2.558594000000000E-01     -8.015234000000000E+01      8.553467000000000E-01     -4.897070000000000E+01
4825000000.000000      8.394775000000000E-01      1.213594000000000E+02      3.313599000000000E-01     -1.711641000000000E+02      2.561035000000000E-01     -7.986328000000000E+01      8.521118000000000E-01     -4.901562000000000E+01
4826000000.000000      8.384399000000000E-01      1.215430000000000E+02      3.336182000000000E-01     -1.712891000000000E+02      2.556000000000000E-01     -7.951953000000000E+01      8.475647000000000E-01     -4.908593000000000E+01
4827000000.000000      8.331299000000000E-01      1.217969000000000E+02      3.328094000000000E-01     -1.713438000000000E+02      2.550812000000000E-01     -7.918750000000000E+01      8.419800000000000E-01     -4.918750000000000E+01
4828000000.000000      8.317871000000000E-01      1.218945000000000E+02      3.340607000000000E-01     -1.715547000000000E+02      2.550201000000000E-01     -7.891015000000000E+01      8.368530000000000E-01     -4.930859000000000E+01
4829000000.000000      8.232117000000000E-01      1.221133000000000E+02      3.337860000000000E-01     -1.716640000000000E+02      2.561951000000000E-01     -7.848827000000000E+01      8.356628000000000E-01     -4.921484000000000E+01
4830000000.000000      8.207397000000000E-01      1.221562000000000E+02      3.341217000000000E-01     -1.720312000000000E+02      2.557526000000000E-01     -7.809765000000000E+01      8.286438000000000E-01     -4.941796000000000E+01
4831000000.000000      8.136902000000000E-01      1.223203000000000E+02      3.348999000000000E-01     -1.721328000000000E+02      2.560272000000000E-01     -7.760156000000000E+01      8.237305000000000E-01     -4.939843000000000E+01
4832000000.000000      8.125000000000000E-01      1.223594000000000E+02      3.354340000000000E-01     -1.723516000000000E+02      2.555847000000000E-01     -7.744531000000000E+01      8.194580000000000E-01     -4.939843000000000E+01
4833000000.000000      8.076477000000000E-01      1.224531000000000E+02      3.353424000000000E-01     -1.725234000000000E+02      2.557373000000000E-01     -7.711719000000000E+01      8.143921000000000E-01     -4.948828000000000E+01
4834000000.000000      8.037720000000000E-01      1.224297000000000E+02      3.359375000000000E-01     -1.727656000000000E+02      2.559204000000000E-01     -7.676171000000000E+01      8.109436000000000E-01     -4.969727000000000E+01
4835000000.000000      7.989807000000000E-01      1.226641000000000E+02      3.364105000000000E-01     -1.730000000000000E+02      2.564392000000000E-01     -7.642187000000000E+01      8.066406000000000E-01     -4.964062000000000E+01
4836000000.000000      7.944336000000000E-01      1.225703000000000E+02      3.362274000000000E-01     -1.732265000000000E+02      2.564240000000000E-01     -7.602344000000000E+01      8.031006000000000E-01     -4.972656000000000E+01
4837000000.000000      7.889709000000000E-01      1.227773000000000E+02      3.361206000000000E-01     -1.736250000000000E+02      2.566223000000000E-01     -7.577343000000000E+01      7.998962000000000E-01     -4.975195000000000E+01
4838000000.000000      7.835083000000000E-01      1.226992000000000E+02      3.367615000000000E-01     -1.736094000000000E+02      2.565460000000000E-01     -7.534374000000000E+01      7.950745000000000E-01     -4.980663000000000E+01
4839000000.000000      7.808228000000000E-01      1.227695000000000E+02      3.361816000000000E-01     -1.737813000000000E+02      2.569427000000000E-01     -7.512109000000000E+01      7.914734000000000E-01     -4.998241000000000E+01
4840000000.000000      7.733765000000000E-01      1.228242000000000E+02      3.367920000000000E-01     -1.739531000000000E+02      2.570343000000000E-01     -7.478906000000000E+01      7.883911000000000E-01     -5.000977000000000E+01
4841000000.000000      7.701721000000000E-01      1.227109000000000E+02      3.361206000000000E-01     -1.744297000000000E+02      2.572784000000000E-01     -7.439843000000000E+01      7.851257000000000E-01     -4.999218000000000E+01
4842000000.000000      7.626038000000000E-01      1.228125000000000E+02      3.362885000000000E-01     -1.745859000000000E+02      2.572937000000000E-01     -7.402344000000000E+01      7.822266000000000E-01     -5.009179000000000E+01
4843000000.000000      7.589111000000000E-01      1.226992000000000E+02      3.365021000000000E-01     -1.748203000000000E+02      2.574005000000000E-01     -7.364062000000000E+01      7.775269000000000E-01     -5.010742000000000E+01
4844000000.000000      7.521667000000000E-01      1.226719000000000E+02      3.359528000000000E-01     -1.749922000000000E+02      2.576447000000000E-01     -7.340625000000000E+01      7.735291000000000E-01     -5.025976000000000E+01
4845000000.000000      7.469482000000000E-01      1.228711000000000E+02      3.353271000000000E-01     -1.752500000000000E+02      2.583313000000000E-01     -7.301952000000000E+01      7.705994000000000E-01     -5.024609000000000E+01
4846000000.000000      7.418518000000000E-01      1.225859000000000E+02      3.357391000000000E-01     -1.754922000000000E+02      2.590179000000000E-01     -7.271484000000000E+01      7.681274000000000E-01     -5.026953000000000E+01
4847000000.000000      7.350159000000000E-01      1.225156000000000E+02      3.349152000000000E-01     -1.756953000000000E+02      2.587585000000000E-01     -7.246875000000000E+01      7.648926000000000E-01     -5.049218000000000E+01
4848000000.000000      7.293091000000000E-01      1.225039000000000E+02      3.333130000000000E-01     -1.758750000000000E+02      2.586517000000000E-01     -7.209374000000000E+01      7.595825000000000E-01     -5.050195000000000E+01
4849000000.000000      7.232361000000000E-01      1.222266000000000E+02      3.337708000000000E-01     -1.763359000000000E+02      2.592926000000000E-01     -7.171093000000000E+01      7.581177000000000E-01     -5.049609000000000E+01
4850000000.000000      7.187805000000000E-01      1.221836000000000E+02      3.328857000000000E-01     -1.765469000000000E+02      2.597504000000000E-01     -7.142578000000000E+01      7.557068000000000E-01     -5.055664000000000E+01
4851000000.000000      7.132568000000000E-01      1.220859000000000E+02      3.330078000000000E-01     -1.768047000000000E+02      2.596130000000000E-01     -7.117188000000000E+01      7.526550000000000E-01     -5.068749000000000E+01
4852000000.000000      7.058716000000000E-01      1.218828000000000E+02      3.317413000000000E-01     -1.770000000000000E+02      2.607117000000000E-01     -7.085155000000000E+01      7.500610000000000E-01     -5.071484000000000E+01
4853000000.000000      7.008362000000000E-01      1.217461000000000E+02      3.302612000000000E-01     -1.771484000000000E+02      2.612305000000000E-01     -7.050781000000000E+01      7.470703000000000E-01     -5.079883000000000E+01
4854000000.000000      6.929932000000000E-01      1.215312000000000E+02      3.298187000000000E-01     -1.776016000000000E+02      2.609863000000000E-01     -7.038671000000000E+01      7.450562000000000E-01     -5.085742000000000E+01
4855000000.000000      6.889343000000000E-01      1.213125000000000E+02      3.293304000000000E-01     -1.777422000000000E+02      2.613831000000000E-01     -6.994922000000000E+01      7.398682000000000E-01     -5.086328000000000E+01
4856000000.000000      6.831665000000000E-01      1.213242000000000E+02      3.282776000000000E-01     -1.779375000000000E+02      2.611084000000000E-01     -6.965625000000000E+01      7.392883000000000E-01     -5.093945000000000E+01
4857000000.000000      6.742249000000000E-01      1.209570000000000E+02      3.283081000000000E-01     -1.781641000000000E+02      2.622070000000000E-01     -6.932031000000000E+01      7.357788000000000E-01     -5.094727000000000E+01
4858000000.000000      6.694641000000000E-01      1.207031000000000E+02      3.267670000000000E-01     -1.783594000000000E+02      2.618713000000000E-01     -6.921093000000000E+01      7.341309000000000E-01     -5.113671000000000E+01
4859000000.000000      6.623840000000000E-01      1.203672000000000E+02      3.262024000000000E-01     -1.786953000000000E+02      2.629547000000000E-01     -6.903515000000000E+01      7.323914000000000E-01     -5.119531000000000E+01
4860000000.000000      6.575928000000000E-01      1.202734000000000E+02      3.250885000000000E-01     -1.787578000000000E+02      2.623901000000000E-01     -6.857812000000000E+01      7.282410000000000E-01     -5.114648000000000E+01
4861000000.000000      6.501160000000000E-01      1.200625000000000E+02      3.244934000000000E-01     -1.789687000000000E+02      2.633820000000000E-01     -6.833202000000000E+01      7.262573000000000E-01     -5.129296000000000E+01
4862000000.000000      6.436157000000000E-01      1.197383000000000E+02      3.235931000000000E-01     -1.792187000000000E+02      2.640076000000000E-01     -6.820313000000000E+01      7.248535000000000E-01     -5.130859000000000E+01
4863000000.000000      6.376343000000000E-01      1.193125000000000E+02      3.214111000000000E-01     -1.795156000000000E+02      2.642822000000000E-01     -6.790234000000000E+01      7.227173000000000E-01     -5.134766000000000E+01
4864000000.000000      6.322327000000000E-01      1.189570000000000E+02      3.212891000000000E-01     -1.795469000000000E+02      2.641754000000000E-01     -6.774219000000000E+01      7.192383000000000E-01     -5.144726000000000E+01
4865000000.000000      6.260986000000000E-01      1.186562000000000E+02      3.191071000000000E-01     -1.796562000000000E+02      2.648926000000000E-01     -6.753124000000000E+01      7.187805000000000E-01     -5.136328000000000E+01
4866000000.000000      6.195984000000000E-01      1.183086000000000E+02      3.178406000000000E-01     -1.799297000000000E+02      2.648163000000000E-01     -6.749218000000000E+01      7.160950000000000E-01     -5.146874000000000E+01
4867000000.000000      6.138306000000000E-01      1.179570000000000E+02      3.172455000000000E-01      1.797344000000000E+02      2.657318000000000E-01     -6.715625000000000E+01      7.142944000000000E-01     -5.141211000000000E+01
4868000000.000000      6.087952000000000E-01      1.176015000000000E+02      3.158875000000000E-01      1.795859000000000E+02      2.660828000000000E-01     -6.694140000000000E+01      7.107544000000000E-01     -5.143555000000000E+01
4869000000.000000      6.019592000000000E-01      1.172227000000000E+02      3.144531000000000E-01      1.795469000000000E+02      2.662506000000000E-01     -6.693359000000000E+01      7.098694000000000E-01     -5.169335000000000E+01
4870000000.000000      5.949707000000000E-01      1.167344000000000E+02      3.137207000000000E-01      1.796484000000000E+02      2.658386000000000E-01     -6.686328000000000E+01      7.080383000000000E-01     -5.159570000000000E+01
4871000000.000000      5.898132000000000E-01      1.163633000000000E+02      3.121185000000000E-01      1.791875000000000E+02      2.664337000000000E-01     -6.661327000000000E+01      7.055054000000000E-01     -5.162304000000000E+01
4872000000.000000      5.866089000000000E-01      1.158555000000000E+02      3.107758000000000E-01      1.793047000000000E+02      2.663116000000000E-01     -6.674609000000000E+01      7.038879000000000E-01     -5.171679000000000E+01
4873000000.000000      5.804749000000000E-01      1.155898000000000E+02      3.098297000000000E-01      1.789766000000000E+02      2.658844000000000E-01     -6.627343000000000E+01      7.003174000000000E-01     -5.169531000000000E+01
4874000000.000000      5.736389000000000E-01      1.150781000000000E+02      3.087006000000000E-01      1.788125000000000E+02      2.672424000000000E-01     -6.632030000000000E+01      6.994934000000000E-01     -5.161523000000000E+01
4875000000.000000      5.688477000000000E-01      1.144609000000000E+02      3.073273000000000E-01      1.787109000000000E+02      2.671967000000000E-01     -6.620703000000000E+01      6.967163000000000E-01     -5.177734000000000E+01
4876000000.000000      5.642090000000000E-01      1.141562000000000E+02      3.070221000000000E-01      1.786641000000000E+02      2.668610000000000E-01     -6.613281000000000E+01      6.952209000000000E-01     -5.178905000000000E+01
4877000000.000000      5.592651000000000E-01      1.134609000000000E+02      3.058472000000000E-01      1.785469000000000E+02      2.673187000000000E-01     -6.610156000000000E+01      6.936340000000000E-01     -5.173242000000000E+01
4878000000.000000      5.547180000000000E-01      1.129805000000000E+02      3.041840000000000E-01      1.784219000000000E+02      2.673340000000000E-01     -6.587500000000000E+01      6.910706000000000E-01     -5.177734000000000E+01
4879000000.000000      5.499878000000000E-01      1.124766000000000E+02      3.024445000000000E-01      1.784531000000000E+02      2.671204000000000E-01     -6.599218000000000E+01      6.881409000000000E-01     -5.179101000000000E+01
4880000000.000000      5.455017000000000E-01      1.119844000000000E+02      3.017273000000000E-01      1.783125000000000E+02      2.669830000000000E-01     -6.581249000000000E+01      6.866760000000000E-01     -5.177734000000000E+01
4881000000.000000      5.412598000000000E-01      1.115742000000000E+02      3.018799000000000E-01      1.782891000000000E+02      2.673950000000000E-01     -6.584765000000000E+01      6.847839000000000E-01     -5.167969000000000E+01
4882000000.000000      5.372314000000000E-01      1.110195000000000E+02      3.002777000000000E-01      1.780234000000000E+02      2.675476000000000E-01     -6.577734000000000E+01      6.822205000000000E-01     -5.165820000000000E+01
