! Network Analyzer HP8722D
! Hewlett-Packard
! Data name: Linha & Wilkinson
! Saver's name: Rodrigo Anjos
! Comments: Teste da utilização de aquisição
continua pelo VNA HP8722D
! Time and date: 6/5/2025 13:53
!              Frequency                     S11                                                   S21                                                   S12                                                   S22
# HZ  S  MA R 50
4800000000.000000      4.976807000000000E-01     -1.682812000000000E+02      2.532196000000000E-01     -1.999316000000000E+01      2.495422000000000E-01     -1.410938000000000E+02      6.484680000000000E-01     -8.023438000000000E+01
4801000000.000000      4.991913000000000E-01     -1.683750000000000E+02      2.572021000000000E-01     -2.008887000000000E+01      2.529907000000000E-01     -1.411406000000000E+02      6.458435000000000E-01     -8.003515000000000E+01
4802000000.000000      5.004883000000000E-01     -1.685078000000000E+02      2.610168000000000E-01     -2.020020000000000E+01      2.573395000000000E-01     -1.411719000000000E+02      6.458740000000000E-01     -7.975390000000000E+01
4803000000.000000      5.014648000000000E-01     -1.685547000000000E+02      2.656860000000000E-01     -2.037598000000000E+01      2.602234000000000E-01     -1.413281000000000E+02      6.454163000000000E-01     -7.968359000000000E+01
4804000000.000000      5.037231000000000E-01     -1.684375000000000E+02      2.693329000000000E-01     -2.075098000000000E+01      2.646027000000000E-01     -1.413906000000000E+02      6.441956000000000E-01     -7.940234000000000E+01
4805000000.000000      5.062256000000000E-01     -1.685469000000000E+02      2.735443000000000E-01     -2.110938000000000E+01      2.682800000000000E-01     -1.413750000000000E+02      6.446533000000000E-01     -7.928515000000000E+01
4806000000.000000      5.078125000000000E-01     -1.684531000000000E+02      2.773590000000000E-01     -2.129981000000000E+01      2.705536000000000E-01     -1.414141000000000E+02      6.439819000000000E-01     -7.914063000000000E+01
4807000000.000000      5.109558000000000E-01     -1.685390000000000E+02      2.816162000000000E-01     -2.181641000000000E+01      2.747650000000000E-01     -1.417187000000000E+02      6.433411000000000E-01     -7.876953000000000E+01
4808000000.000000      5.137024000000000E-01     -1.684609000000000E+02      2.859039000000000E-01     -2.197070000000000E+01      2.782135000000000E-01     -1.417187000000000E+02      6.433411000000000E-01     -7.852734000000000E+01
4809000000.000000      5.160217000000000E-01     -1.684687000000000E+02      2.890625000000000E-01     -2.258984000000000E+01      2.818909000000000E-01     -1.419375000000000E+02      6.435242000000000E-01     -7.850780000000000E+01
4810000000.000000      5.193176000000000E-01     -1.685156000000000E+02      2.936859000000000E-01     -2.266211000000000E+01      2.855835000000000E-01     -1.420469000000000E+02      6.438293000000000E-01     -7.834374000000000E+01
4811000000.000000      5.224304000000000E-01     -1.683984000000000E+02      2.973022000000000E-01     -2.325684000000000E+01      2.891998000000000E-01     -1.421797000000000E+02      6.438904000000000E-01     -7.794531000000000E+01
4812000000.000000      5.265808000000000E-01     -1.683516000000000E+02      3.012238000000000E-01     -2.360742000000000E+01      2.927856000000000E-01     -1.422109000000000E+02      6.459961000000000E-01     -7.782031000000000E+01
4813000000.000000      5.290527000000000E-01     -1.683047000000000E+02      3.044128000000000E-01     -2.409375000000000E+01      2.955322000000000E-01     -1.422656000000000E+02      6.453552000000000E-01     -7.755077000000000E+01
4814000000.000000      5.314331000000000E-01     -1.683984000000000E+02      3.079834000000000E-01     -2.430176000000000E+01      2.984924000000000E-01     -1.426328000000000E+02      6.466370000000000E-01     -7.746875000000000E+01
4815000000.000000      5.357666000000000E-01     -1.682031000000000E+02      3.119202000000000E-01     -2.480664000000000E+01      3.017120000000000E-01     -1.425859000000000E+02      6.471252000000000E-01     -7.719921000000000E+01
4816000000.000000      5.401917000000000E-01     -1.681172000000000E+02      3.158875000000000E-01     -2.507226000000000E+01      3.060455000000000E-01     -1.427656000000000E+02      6.480713000000000E-01     -7.695703000000000E+01
4817000000.000000      5.445251000000000E-01     -1.680312000000000E+02      3.191986000000000E-01     -2.560840000000000E+01      3.080750000000000E-01     -1.430156000000000E+02      6.495972000000000E-01     -7.696875000000000E+01
4818000000.000000      5.482178000000000E-01     -1.680078000000000E+02      3.224182000000000E-01     -2.610644000000000E+01      3.117981000000000E-01     -1.431250000000000E+02      6.513672000000000E-01     -7.673437000000000E+01
4819000000.000000      5.534668000000000E-01     -1.679922000000000E+02      3.253479000000000E-01     -2.643652000000000E+01      3.134766000000000E-01     -1.434375000000000E+02      6.534424000000000E-01     -7.664453000000000E+01
4820000000.000000      5.557861000000000E-01     -1.679375000000000E+02      3.287048000000000E-01     -2.700488000000000E+01      3.174896000000000E-01     -1.435234000000000E+02      6.549072000000000E-01     -7.648046000000000E+01
4821000000.000000      5.618896000000000E-01     -1.678125000000000E+02      3.326111000000000E-01     -2.739453000000000E+01      3.202209000000000E-01     -1.437734000000000E+02      6.566772000000000E-01     -7.632421000000000E+01
4822000000.000000      5.679321000000000E-01     -1.677109000000000E+02      3.360748000000000E-01     -2.794922000000000E+01      3.227386000000000E-01     -1.439922000000000E+02      6.586914000000000E-01     -7.611718000000000E+01
4823000000.000000      5.716858000000000E-01     -1.676172000000000E+02      3.383789000000000E-01     -2.834765000000000E+01      3.260651000000000E-01     -1.440234000000000E+02      6.612244000000000E-01     -7.598827000000000E+01
4824000000.000000      5.783997000000000E-01     -1.675937000000000E+02      3.424530000000000E-01     -2.892383000000000E+01      3.285370000000000E-01     -1.444453000000000E+02      6.635437000000000E-01     -7.588281000000000E+01
4825000000.000000      5.826721000000000E-01     -1.674687000000000E+02      3.446045000000000E-01     -2.932324000000000E+01      3.323822000000000E-01     -1.445391000000000E+02      6.659851000000000E-01     -7.577734000000000E+01
4826000000.000000      5.891113000000000E-01     -1.673516000000000E+02      3.475189000000000E-01     -2.993847000000000E+01      3.334808000000000E-01     -1.447656000000000E+02      6.690674000000000E-01     -7.570703000000000E+01
4827000000.000000      5.950012000000000E-01     -1.672422000000000E+02      3.505859000000000E-01     -3.033691000000000E+01      3.365173000000000E-01     -1.449375000000000E+02      6.719055000000000E-01     -7.549218000000000E+01
4828000000.000000      6.016846000000000E-01     -1.672188000000000E+02      3.539886000000000E-01     -3.087305000000000E+01      3.386841000000000E-01     -1.451016000000000E+02      6.753235000000000E-01     -7.536718000000000E+01
4829000000.000000      6.052246000000000E-01     -1.670156000000000E+02      3.551483000000000E-01     -3.140039000000000E+01      3.417664000000000E-01     -1.453750000000000E+02      6.773071000000000E-01     -7.530078000000000E+01
4830000000.000000      6.124268000000000E-01     -1.670391000000000E+02      3.584290000000000E-01     -3.196972000000000E+01      3.438721000000000E-01     -1.454219000000000E+02      6.804810000000000E-01     -7.528125000000000E+01
4831000000.000000      6.175232000000000E-01     -1.669062000000000E+02      3.600616000000000E-01     -3.263086000000000E+01      3.456573000000000E-01     -1.456172000000000E+02      6.842651000000000E-01     -7.513672000000000E+01
4832000000.000000      6.258240000000000E-01     -1.668437000000000E+02      3.629303000000000E-01     -3.311914000000000E+01      3.487396000000000E-01     -1.458828000000000E+02      6.860962000000000E-01     -7.510547000000000E+01
4833000000.000000      6.320190000000000E-01     -1.668437000000000E+02      3.657074000000000E-01     -3.357031000000000E+01      3.504944000000000E-01     -1.462265000000000E+02      6.908875000000000E-01     -7.495312000000000E+01
4834000000.000000      6.383057000000000E-01     -1.667031000000000E+02      3.680878000000000E-01     -3.414844000000000E+01      3.536377000000000E-01     -1.461250000000000E+02      6.934509000000000E-01     -7.493750000000000E+01
4835000000.000000      6.441040000000000E-01     -1.666563000000000E+02      3.702698000000000E-01     -3.470703000000000E+01      3.558197000000000E-01     -1.465781000000000E+02      6.967468000000000E-01     -7.497656000000000E+01
4836000000.000000      6.524048000000000E-01     -1.664687000000000E+02      3.721619000000000E-01     -3.526367000000000E+01      3.578491000000000E-01     -1.467187000000000E+02      7.020569000000000E-01     -7.480859000000000E+01
4837000000.000000      6.595764000000000E-01     -1.663437000000000E+02      3.737640000000000E-01     -3.604492000000000E+01      3.591461000000000E-01     -1.470000000000000E+02      7.048645000000000E-01     -7.479687000000000E+01
4838000000.000000      6.655273000000000E-01     -1.664453000000000E+02      3.771820000000000E-01     -3.635547000000000E+01      3.616180000000000E-01     -1.470703000000000E+02      7.084351000000000E-01     -7.470703000000000E+01
4839000000.000000      6.735229000000000E-01     -1.662969000000000E+02      3.775787000000000E-01     -3.684179000000000E+01      3.634491000000000E-01     -1.472578000000000E+02      7.129822000000000E-01     -7.459765000000000E+01
4840000000.000000      6.784973000000000E-01     -1.662969000000000E+02      3.791351000000000E-01     -3.748242000000000E+01      3.658600000000000E-01     -1.475469000000000E+02      7.170105000000000E-01     -7.464062000000000E+01
4841000000.000000      6.866760000000000E-01     -1.662969000000000E+02      3.811493000000000E-01     -3.818750000000000E+01      3.684387000000000E-01     -1.477734000000000E+02      7.208862000000000E-01     -7.466406000000000E+01
4842000000.000000      6.941833000000000E-01     -1.661875000000000E+02      3.828888000000000E-01     -3.881640000000000E+01      3.685608000000000E-01     -1.478437000000000E+02      7.249756000000000E-01     -7.462109000000000E+01
4843000000.000000      7.003784000000000E-01     -1.662734000000000E+02      3.832397000000000E-01     -3.930078000000000E+01      3.713837000000000E-01     -1.480000000000000E+02      7.285156000000000E-01     -7.457812000000000E+01
4844000000.000000      7.078857000000000E-01     -1.661797000000000E+02      3.842773000000000E-01     -3.967382000000000E+01      3.727722000000000E-01     -1.482109000000000E+02      7.348938000000000E-01     -7.468750000000000E+01
4845000000.000000      7.139893000000000E-01     -1.661094000000000E+02      3.851166000000000E-01     -4.019727000000000E+01      3.746490000000000E-01     -1.484609000000000E+02      7.373047000000000E-01     -7.455468000000000E+01
4846000000.000000      7.212524000000000E-01     -1.660625000000000E+02      3.860779000000000E-01     -4.086328000000000E+01      3.777313000000000E-01     -1.486094000000000E+02      7.429810000000000E-01     -7.455078000000000E+01
4847000000.000000      7.297058000000000E-01     -1.660391000000000E+02      3.867493000000000E-01     -4.144140000000000E+01      3.787384000000000E-01     -1.488984000000000E+02      7.470398000000000E-01     -7.466797000000000E+01
4848000000.000000      7.364807000000000E-01     -1.660469000000000E+02      3.877106000000000E-01     -4.186328000000000E+01      3.800201000000000E-01     -1.489453000000000E+02      7.504272000000000E-01     -7.463281000000000E+01
4849000000.000000      7.438660000000000E-01     -1.662031000000000E+02      3.888855000000000E-01     -4.255078000000000E+01      3.822937000000000E-01     -1.491719000000000E+02      7.550354000000000E-01     -7.455078000000000E+01
4850000000.000000      7.508545000000000E-01     -1.660234000000000E+02      3.892059000000000E-01     -4.297852000000000E+01      3.829956000000000E-01     -1.493750000000000E+02      7.598267000000000E-01     -7.458984000000000E+01
4851000000.000000      7.567444000000000E-01     -1.659765000000000E+02      3.898315000000000E-01     -4.360937000000000E+01      3.846283000000000E-01     -1.495547000000000E+02      7.648926000000000E-01     -7.463672000000000E+01
4852000000.000000      7.646790000000000E-01     -1.660156000000000E+02      3.902283000000000E-01     -4.409961000000000E+01      3.861237000000000E-01     -1.496953000000000E+02      7.692871000000000E-01     -7.464062000000000E+01
4853000000.000000      7.716064000000000E-01     -1.660391000000000E+02      3.884277000000000E-01     -4.470508000000000E+01      3.879242000000000E-01     -1.498984000000000E+02      7.733765000000000E-01     -7.477344000000000E+01
4854000000.000000      7.777100000000000E-01     -1.659844000000000E+02      3.905487000000000E-01     -4.529687000000000E+01      3.892059000000000E-01     -1.500859000000000E+02      7.786255000000000E-01     -7.472656000000000E+01
4855000000.000000      7.827759000000000E-01     -1.660234000000000E+02      3.898468000000000E-01     -4.568359000000000E+01      3.898621000000000E-01     -1.500859000000000E+02      7.830811000000000E-01     -7.476953000000000E+01
4856000000.000000      7.913208000000000E-01     -1.659844000000000E+02      3.896637000000000E-01     -4.605078000000000E+01      3.911591000000000E-01     -1.503672000000000E+02      7.886963000000000E-01     -7.475390000000000E+01
4857000000.000000      7.965088000000000E-01     -1.660781000000000E+02      3.899994000000000E-01     -4.662109000000000E+01      3.921356000000000E-01     -1.504766000000000E+02      7.931213000000000E-01     -7.485546000000000E+01
4858000000.000000      7.996826000000000E-01     -1.660703000000000E+02      3.890686000000000E-01     -4.698632000000000E+01      3.934784000000000E-01     -1.507422000000000E+02      7.976990000000000E-01     -7.495703000000000E+01
4859000000.000000      8.071899000000000E-01     -1.661016000000000E+02      3.886414000000000E-01     -4.757226000000000E+01      3.941193000000000E-01     -1.509531000000000E+02      8.038025000000000E-01     -7.509375000000000E+01
4860000000.000000      8.146057000000000E-01     -1.661250000000000E+02      3.890686000000000E-01     -4.803515000000000E+01      3.960419000000000E-01     -1.510469000000000E+02      8.084106000000000E-01     -7.496484000000000E+01
4861000000.000000      8.207703000000000E-01     -1.660312000000000E+02      3.885345000000000E-01     -4.850195000000000E+01      3.971100000000000E-01     -1.512578000000000E+02      8.132935000000000E-01     -7.517187000000000E+01
4862000000.000000      8.240356000000000E-01     -1.660156000000000E+02      3.882751000000000E-01     -4.896093000000000E+01      3.984680000000000E-01     -1.513984000000000E+02      8.186035000000000E-01     -7.511719000000000E+01
4863000000.000000      8.315735000000000E-01     -1.661641000000000E+02      3.862915000000000E-01     -4.945313000000000E+01      4.005890000000000E-01     -1.515391000000000E+02      8.235779000000000E-01     -7.523438000000000E+01
4864000000.000000      8.370972000000000E-01     -1.661328000000000E+02      3.863068000000000E-01     -4.965429000000000E+01      3.998718000000000E-01     -1.516953000000000E+02      8.272705000000000E-01     -7.536327000000000E+01
4865000000.000000      8.411865000000000E-01     -1.661094000000000E+02      3.846436000000000E-01     -5.021679000000000E+01      4.007111000000000E-01     -1.519687000000000E+02      8.326416000000000E-01     -7.529687000000000E+01
4866000000.000000      8.439026000000000E-01     -1.660859000000000E+02      3.829803000000000E-01     -5.056641000000000E+01      4.014587000000000E-01     -1.521406000000000E+02      8.376465000000000E-01     -7.539844000000000E+01
4867000000.000000      8.497314000000000E-01     -1.660625000000000E+02      3.828278000000000E-01     -5.104687000000000E+01      4.022064000000000E-01     -1.522422000000000E+02      8.432312000000000E-01     -7.548046000000000E+01
4868000000.000000      8.545532000000000E-01     -1.661328000000000E+02      3.821411000000000E-01     -5.139062000000000E+01      4.035645000000000E-01     -1.524141000000000E+02      8.467712000000000E-01     -7.558984000000000E+01
4869000000.000000      8.563232000000000E-01     -1.660859000000000E+02      3.800507000000000E-01     -5.187109000000000E+01      4.040833000000000E-01     -1.526484000000000E+02      8.524475000000000E-01     -7.576562000000000E+01
4870000000.000000      8.607788000000000E-01     -1.660703000000000E+02      3.796539000000000E-01     -5.192187000000000E+01      4.046326000000000E-01     -1.527344000000000E+02      8.575134000000000E-01     -7.576562000000000E+01
4871000000.000000      8.666687000000000E-01     -1.661406000000000E+02      3.784180000000000E-01     -5.245312000000000E+01      4.043732000000000E-01     -1.529297000000000E+02      8.611755000000000E-01     -7.599999000000000E+01
4872000000.000000      8.708496000000000E-01     -1.658906000000000E+02      3.766479000000000E-01     -5.260156000000000E+01      4.055328000000000E-01     -1.532500000000000E+02      8.661804000000000E-01     -7.600390000000000E+01
4873000000.000000      8.730164000000000E-01     -1.659922000000000E+02      3.751984000000000E-01     -5.299414000000000E+01      4.053497000000000E-01     -1.532266000000000E+02      8.708191000000000E-01     -7.615234000000000E+01
4874000000.000000      8.761597000000000E-01     -1.659219000000000E+02      3.741150000000000E-01     -5.333398000000000E+01      4.066162000000000E-01     -1.533672000000000E+02      8.731384000000000E-01     -7.607812000000000E+01
4875000000.000000      8.802795000000000E-01     -1.659141000000000E+02      3.724365000000000E-01     -5.356640000000000E+01      4.072876000000000E-01     -1.537188000000000E+02      8.792419000000000E-01     -7.630859000000000E+01
4876000000.000000      8.807983000000000E-01     -1.657969000000000E+02      3.707123000000000E-01     -5.387304000000000E+01      4.061432000000000E-01     -1.537812000000000E+02      8.830566000000000E-01     -7.642578000000000E+01
4877000000.000000      8.827820000000000E-01     -1.659219000000000E+02      3.696899000000000E-01     -5.396093000000000E+01      4.074097000000000E-01     -1.540313000000000E+02      8.878784000000000E-01     -7.662890000000000E+01
4878000000.000000      8.854065000000000E-01     -1.658125000000000E+02      3.686829000000000E-01     -5.432812000000000E+01      4.079895000000000E-01     -1.540313000000000E+02      8.931274000000000E-01     -7.673437000000000E+01
4879000000.000000      8.917847000000000E-01     -1.657422000000000E+02      3.661041000000000E-01     -5.440430000000000E+01      4.070282000000000E-01     -1.542891000000000E+02      8.948364000000000E-01     -7.671875000000000E+01
4880000000.000000      8.916626000000000E-01     -1.656875000000000E+02      3.652344000000000E-01     -5.469531000000000E+01      4.081116000000000E-01     -1.543281000000000E+02      8.997192000000000E-01     -7.685937000000000E+01
4881000000.000000      8.942566000000000E-01     -1.654063000000000E+02      3.648682000000000E-01     -5.484961000000000E+01      4.085083000000000E-01     -1.546406000000000E+02      9.037476000000000E-01     -7.704296000000000E+01
4882000000.000000      8.928528000000000E-01     -1.655234000000000E+02      3.623962000000000E-01     -5.514062000000000E+01      4.078064000000000E-01     -1.546641000000000E+02      9.072876000000000E-01     -7.711719000000000E+01
