! Network Analyzer HP8722D
! Hewlett-Packard
! Data name: Linha & Wilkinson
! Saver's name: Rodrigo Anjos
! Comments: Teste da utilização de aquisição
continua pelo VNA HP8722D
! Time and date: 6/5/2025 13:26
!              Frequency                     S11                                                   S21                                                   S12                                                   S22
# HZ  S  MA R 50
4800000000.000000      9.057922000000000E-01      1.157969000000000E+02      3.203430000000000E-01     -1.705234000000000E+02      2.571564000000000E-01     -8.607422000000000E+01      9.839478000000000E-01     -4.748047000000000E+01
4801000000.000000      9.043884000000000E-01      1.160469000000000E+02      3.197327000000000E-01     -1.704844000000000E+02      2.566376000000000E-01     -8.608593000000000E+01      9.792480000000000E-01     -4.775195000000000E+01
4802000000.000000      9.006653000000000E-01      1.163555000000000E+02      3.200989000000000E-01     -1.702656000000000E+02      2.572937000000000E-01     -8.591015000000000E+01      9.747620000000000E-01     -4.754102000000000E+01
4803000000.000000      8.991089000000000E-01      1.165625000000000E+02      3.207855000000000E-01     -1.702266000000000E+02      2.567749000000000E-01     -8.578905000000000E+01      9.710388000000000E-01     -4.784765000000000E+01
4804000000.000000      8.981934000000000E-01      1.167969000000000E+02      3.211212000000000E-01     -1.701641000000000E+02      2.569275000000000E-01     -8.567577000000000E+01      9.636536000000000E-01     -4.772070000000000E+01
4805000000.000000      8.988342000000000E-01      1.170039000000000E+02      3.211365000000000E-01     -1.702422000000000E+02      2.565308000000000E-01     -8.533983000000000E+01      9.590454000000000E-01     -4.778710000000000E+01
4806000000.000000      8.959656000000000E-01      1.172773000000000E+02      3.217163000000000E-01     -1.701562000000000E+02      2.554779000000000E-01     -8.515625000000000E+01      9.525757000000000E-01     -4.800390000000000E+01
4807000000.000000      8.949280000000000E-01      1.174922000000000E+02      3.225098000000000E-01     -1.702656000000000E+02      2.565308000000000E-01     -8.503906000000000E+01      9.476318000000000E-01     -4.792382000000000E+01
4808000000.000000      8.914185000000000E-01      1.175977000000000E+02      3.232117000000000E-01     -1.701562000000000E+02      2.563782000000000E-01     -8.484375000000000E+01      9.428406000000000E-01     -4.799805000000000E+01
4809000000.000000      8.864441000000000E-01      1.180234000000000E+02      3.230896000000000E-01     -1.703359000000000E+02      2.568359000000000E-01     -8.461718000000000E+01      9.373779000000000E-01     -4.811132000000000E+01
4810000000.000000      8.870239000000000E-01      1.181758000000000E+02      3.238678000000000E-01     -1.701172000000000E+02      2.564545000000000E-01     -8.428125000000000E+01      9.331055000000000E-01     -4.830468000000000E+01
4811000000.000000      8.857422000000000E-01      1.186172000000000E+02      3.244476000000000E-01     -1.702344000000000E+02      2.571411000000000E-01     -8.402344000000000E+01      9.274902000000000E-01     -4.816015000000000E+01
4812000000.000000      8.815002000000000E-01      1.187461000000000E+02      3.248444000000000E-01     -1.702500000000000E+02      2.565765000000000E-01     -8.380468000000000E+01      9.195862000000000E-01     -4.838476000000000E+01
4813000000.000000      8.790283000000000E-01      1.190273000000000E+02      3.253784000000000E-01     -1.702344000000000E+02      2.565460000000000E-01     -8.355469000000000E+01      9.165955000000000E-01     -4.833593000000000E+01
4814000000.000000      8.749695000000000E-01      1.193164000000000E+02      3.260193000000000E-01     -1.701328000000000E+02      2.565155000000000E-01     -8.329296000000000E+01      9.114380000000000E-01     -4.840038000000000E+01
4815000000.000000      8.738708000000000E-01      1.195117000000000E+02      3.262177000000000E-01     -1.702188000000000E+02      2.565308000000000E-01     -8.295313000000000E+01      9.043884000000000E-01     -4.833202000000000E+01
4816000000.000000      8.710327000000000E-01      1.196250000000000E+02      3.273773000000000E-01     -1.702344000000000E+02      2.571869000000000E-01     -8.279688000000000E+01      8.999329000000000E-01     -4.854882000000000E+01
4817000000.000000      8.676758000000000E-01      1.199922000000000E+02      3.274841000000000E-01     -1.703906000000000E+02      2.565155000000000E-01     -8.245703000000000E+01      8.942566000000000E-01     -4.855859000000000E+01
4818000000.000000      8.671875000000000E-01      1.201015000000000E+02      3.279266000000000E-01     -1.703047000000000E+02      2.567749000000000E-01     -8.213671000000000E+01      8.876953000000000E-01     -4.851563000000000E+01
4819000000.000000      8.631287000000000E-01      1.203711000000000E+02      3.291016000000000E-01     -1.704609000000000E+02      2.556000000000000E-01     -8.196875000000000E+01      8.831482000000000E-01     -4.879296000000000E+01
4820000000.000000      8.566284000000000E-01      1.206055000000000E+02      3.290100000000000E-01     -1.704219000000000E+02      2.566833000000000E-01     -8.155077000000000E+01      8.782654000000000E-01     -4.862305000000000E+01
4821000000.000000      8.577576000000000E-01      1.207187000000000E+02      3.307495000000000E-01     -1.706484000000000E+02      2.565308000000000E-01     -8.137110000000000E+01      8.721924000000000E-01     -4.877930000000000E+01
4822000000.000000      8.527222000000000E-01      1.207695000000000E+02      3.311005000000000E-01     -1.708047000000000E+02      2.556000000000000E-01     -8.105469000000000E+01      8.677368000000000E-01     -4.888281000000000E+01
4823000000.000000      8.497009000000000E-01      1.210859000000000E+02      3.317871000000000E-01     -1.708594000000000E+02      2.560120000000000E-01     -8.053905000000000E+01      8.619080000000000E-01     -4.900000000000000E+01
4824000000.000000      8.462830000000000E-01      1.210469000000000E+02      3.326416000000000E-01     -1.711797000000000E+02      2.562714000000000E-01     -8.028124000000000E+01      8.566895000000000E-01     -4.895312000000000E+01
4825000000.000000      8.413086000000000E-01      1.214336000000000E+02      3.324127000000000E-01     -1.712500000000000E+02      2.564087000000000E-01     -8.007030000000000E+01      8.525391000000000E-01     -4.907617000000000E+01
4826000000.000000      8.387146000000000E-01      1.215937000000000E+02      3.339539000000000E-01     -1.713672000000000E+02      2.557983000000000E-01     -7.977734000000000E+01      8.490906000000000E-01     -4.917969000000000E+01
4827000000.000000      8.345947000000000E-01      1.217422000000000E+02      3.342133000000000E-01     -1.713516000000000E+02      2.556458000000000E-01     -7.932031000000000E+01      8.423157000000000E-01     -4.924805000000000E+01
4828000000.000000      8.319092000000000E-01      1.219023000000000E+02      3.350677000000000E-01     -1.716719000000000E+02      2.553406000000000E-01     -7.914844000000000E+01      8.374634000000000E-01     -4.941015000000000E+01
4829000000.000000      8.246765000000000E-01      1.221523000000000E+02      3.348999000000000E-01     -1.717266000000000E+02      2.567596000000000E-01     -7.872656000000000E+01      8.372192000000000E-01     -4.936328000000000E+01
4830000000.000000      8.219604000000000E-01      1.222187000000000E+02      3.353271000000000E-01     -1.719609000000000E+02      2.557220000000000E-01     -7.832031000000000E+01      8.290405000000000E-01     -4.948632000000000E+01
4831000000.000000      8.168335000000000E-01      1.223203000000000E+02      3.359680000000000E-01     -1.720781000000000E+02      2.561493000000000E-01     -7.790234000000000E+01      8.259583000000000E-01     -4.949804000000000E+01
4832000000.000000      8.139648000000000E-01      1.223320000000000E+02      3.357544000000000E-01     -1.722578000000000E+02      2.560883000000000E-01     -7.764453000000000E+01      8.209534000000000E-01     -4.950390000000000E+01
4833000000.000000      8.106079000000000E-01      1.224336000000000E+02      3.363037000000000E-01     -1.724375000000000E+02      2.562408000000000E-01     -7.730469000000000E+01      8.157349000000000E-01     -4.973633000000000E+01
4834000000.000000      8.058167000000000E-01      1.224922000000000E+02      3.368835000000000E-01     -1.726719000000000E+02      2.565155000000000E-01     -7.695313000000000E+01      8.124390000000000E-01     -4.973046000000000E+01
4835000000.000000      7.987976000000000E-01      1.224961000000000E+02      3.369141000000000E-01     -1.729141000000000E+02      2.565155000000000E-01     -7.661327000000000E+01      8.078613000000000E-01     -4.978320000000000E+01
4836000000.000000      7.955322000000000E-01      1.227031000000000E+02      3.368683000000000E-01     -1.732422000000000E+02      2.566376000000000E-01     -7.623437000000000E+01      8.039551000000000E-01     -4.975195000000000E+01
4837000000.000000      7.910461000000000E-01      1.227930000000000E+02      3.370056000000000E-01     -1.736172000000000E+02      2.568207000000000E-01     -7.605078000000000E+01      7.996521000000000E-01     -4.979687000000000E+01
4838000000.000000      7.838135000000000E-01      1.226133000000000E+02      3.373718000000000E-01     -1.735703000000000E+02      2.568970000000000E-01     -7.551562000000000E+01      7.962341000000000E-01     -4.989452000000000E+01
4839000000.000000      7.803345000000000E-01      1.228633000000000E+02      3.365936000000000E-01     -1.736641000000000E+02      2.570953000000000E-01     -7.533593000000000E+01      7.930298000000000E-01     -4.999804000000000E+01
4840000000.000000      7.749634000000000E-01      1.227031000000000E+02      3.370667000000000E-01     -1.739375000000000E+02      2.575836000000000E-01     -7.497265000000000E+01      7.879333000000000E-01     -5.009766000000000E+01
4841000000.000000      7.708740000000000E-01      1.226992000000000E+02      3.368683000000000E-01     -1.743438000000000E+02      2.578430000000000E-01     -7.457812000000000E+01      7.855835000000000E-01     -5.011523000000000E+01
4842000000.000000      7.649841000000000E-01      1.228242000000000E+02      3.373413000000000E-01     -1.744922000000000E+02      2.576904000000000E-01     -7.428905000000000E+01      7.835999000000000E-01     -5.011328000000000E+01
4843000000.000000      7.602234000000000E-01      1.226719000000000E+02      3.372650000000000E-01     -1.748125000000000E+02      2.579651000000000E-01     -7.389062000000000E+01      7.791138000000000E-01     -5.020117000000000E+01
4844000000.000000      7.546692000000000E-01      1.226133000000000E+02      3.366394000000000E-01     -1.750391000000000E+02      2.579956000000000E-01     -7.353906000000000E+01      7.752380000000000E-01     -5.029297000000000E+01
4845000000.000000      7.478638000000000E-01      1.227031000000000E+02      3.360748000000000E-01     -1.752578000000000E+02      2.587891000000000E-01     -7.327734000000000E+01      7.714539000000000E-01     -5.039844000000000E+01
4846000000.000000      7.434998000000000E-01      1.226836000000000E+02      3.363495000000000E-01     -1.754609000000000E+02      2.591705000000000E-01     -7.293750000000000E+01      7.688599000000000E-01     -5.041210000000000E+01
4847000000.000000      7.367859000000000E-01      1.225547000000000E+02      3.359528000000000E-01     -1.755781000000000E+02      2.594452000000000E-01     -7.260937000000000E+01      7.657776000000000E-01     -5.055664000000000E+01
4848000000.000000      7.304077000000000E-01      1.221875000000000E+02      3.345947000000000E-01     -1.760078000000000E+02      2.592926000000000E-01     -7.230859000000000E+01      7.617188000000000E-01     -5.063477000000000E+01
4849000000.000000      7.249146000000000E-01      1.222266000000000E+02      3.343658000000000E-01     -1.763281000000000E+02      2.597656000000000E-01     -7.194530000000000E+01      7.595215000000000E-01     -5.050586000000000E+01
4850000000.000000      7.203064000000000E-01      1.219844000000000E+02      3.338776000000000E-01     -1.765703000000000E+02      2.603302000000000E-01     -7.156640000000000E+01      7.554932000000000E-01     -5.064843000000000E+01
4851000000.000000      7.127991000000000E-01      1.219844000000000E+02      3.338776000000000E-01     -1.768125000000000E+02      2.603455000000000E-01     -7.133594000000000E+01      7.547302000000000E-01     -5.077343000000000E+01
4852000000.000000      7.063599000000000E-01      1.219687000000000E+02      3.329010000000000E-01     -1.770078000000000E+02      2.612152000000000E-01     -7.106250000000000E+01      7.509155000000000E-01     -5.081640000000000E+01
4853000000.000000      7.025146000000000E-01      1.218398000000000E+02      3.310394000000000E-01     -1.772344000000000E+02      2.614136000000000E-01     -7.074219000000000E+01      7.480469000000000E-01     -5.095703000000000E+01
4854000000.000000      6.946411000000000E-01      1.214101000000000E+02      3.312073000000000E-01     -1.776719000000000E+02      2.613220000000000E-01     -7.035937000000000E+01      7.460327000000000E-01     -5.096289000000000E+01
4855000000.000000      6.908264000000000E-01      1.213008000000000E+02      3.300018000000000E-01     -1.776250000000000E+02      2.617950000000000E-01     -7.015234000000000E+01      7.415161000000000E-01     -5.095117000000000E+01
4856000000.000000      6.839905000000000E-01      1.211289000000000E+02      3.296509000000000E-01     -1.778672000000000E+02      2.622375000000000E-01     -6.987890000000000E+01      7.403259000000000E-01     -5.104297000000000E+01
4857000000.000000      6.769409000000000E-01      1.209961000000000E+02      3.290558000000000E-01     -1.781016000000000E+02      2.626801000000000E-01     -6.951953000000000E+01      7.362366000000000E-01     -5.103906000000000E+01
4858000000.000000      6.701965000000000E-01      1.207070000000000E+02      3.278961000000000E-01     -1.782500000000000E+02      2.626495000000000E-01     -6.934765000000000E+01      7.344055000000000E-01     -5.124023000000000E+01
4859000000.000000      6.650085000000000E-01      1.204375000000000E+02      3.264771000000000E-01     -1.785312000000000E+02      2.633972000000000E-01     -6.914063000000000E+01      7.328491000000000E-01     -5.126367000000000E+01
4860000000.000000      6.588135000000000E-01      1.200937000000000E+02      3.256989000000000E-01     -1.788281000000000E+02      2.627258000000000E-01     -6.874609000000000E+01      7.292786000000000E-01     -5.119922000000000E+01
4861000000.000000      6.522827000000000E-01      1.198906000000000E+02      3.248596000000000E-01     -1.791484000000000E+02      2.636261000000000E-01     -6.854687000000000E+01      7.267456000000000E-01     -5.137500000000000E+01
4862000000.000000      6.455383000000000E-01      1.195351000000000E+02      3.245392000000000E-01     -1.792422000000000E+02      2.641144000000000E-01     -6.837500000000000E+01      7.261658000000000E-01     -5.137500000000000E+01
4863000000.000000      6.392212000000000E-01      1.192148000000000E+02      3.227234000000000E-01     -1.795781000000000E+02      2.656250000000000E-01     -6.811718000000000E+01      7.234497000000000E-01     -5.138281000000000E+01
4864000000.000000      6.331787000000000E-01      1.189805000000000E+02      3.220825000000000E-01     -1.793984000000000E+02      2.643433000000000E-01     -6.775781000000000E+01      7.199707000000000E-01     -5.148242000000000E+01
4865000000.000000      6.275024000000000E-01      1.185195000000000E+02      3.200684000000000E-01     -1.797344000000000E+02      2.653961000000000E-01     -6.776953000000000E+01      7.195435000000000E-01     -5.141992000000000E+01
4866000000.000000      6.210022000000000E-01      1.181602000000000E+02      3.189545000000000E-01     -1.799687000000000E+02      2.653351000000000E-01     -6.766015000000000E+01      7.175293000000000E-01     -5.156640000000000E+01
4867000000.000000      6.142883000000000E-01      1.178359000000000E+02      3.177185000000000E-01      1.798437000000000E+02      2.654266000000000E-01     -6.741015000000000E+01      7.147522000000000E-01     -5.156445000000000E+01
4868000000.000000      6.106262000000000E-01      1.173516000000000E+02      3.169861000000000E-01      1.796406000000000E+02      2.662048000000000E-01     -6.719140000000000E+01      7.124023000000000E-01     -5.161133000000000E+01
4869000000.000000      6.034241000000000E-01      1.172031000000000E+02      3.155212000000000E-01      1.795391000000000E+02      2.667542000000000E-01     -6.703125000000000E+01      7.111206000000000E-01     -5.170312000000000E+01
4870000000.000000      5.974426000000000E-01      1.166992000000000E+02      3.144531000000000E-01      1.795000000000000E+02      2.666321000000000E-01     -6.698828000000000E+01      7.095947000000000E-01     -5.154297000000000E+01
4871000000.000000      5.919495000000000E-01      1.161328000000000E+02      3.135681000000000E-01      1.791563000000000E+02      2.662506000000000E-01     -6.678124000000000E+01      7.060852000000000E-01     -5.180469000000000E+01
4872000000.000000      5.873413000000000E-01      1.158906000000000E+02      3.118134000000000E-01      1.793594000000000E+02      2.667542000000000E-01     -6.685156000000000E+01      7.047729000000000E-01     -5.175781000000000E+01
4873000000.000000      5.805054000000000E-01      1.154492000000000E+02      3.105469000000000E-01      1.789375000000000E+02      2.667236000000000E-01     -6.673828000000000E+01      7.014160000000000E-01     -5.184179000000000E+01
4874000000.000000      5.758057000000000E-01      1.150195000000000E+02      3.094177000000000E-01      1.787734000000000E+02      2.675629000000000E-01     -6.650391000000000E+01      6.992188000000000E-01     -5.175976000000000E+01
4875000000.000000      5.711060000000000E-01      1.145391000000000E+02      3.083649000000000E-01      1.788516000000000E+02      2.680359000000000E-01     -6.651562000000000E+01      6.980591000000000E-01     -5.178515000000000E+01
4876000000.000000      5.641785000000000E-01      1.141289000000000E+02      3.076324000000000E-01      1.786641000000000E+02      2.675781000000000E-01     -6.638281000000000E+01      6.958008000000000E-01     -5.190624000000000E+01
4877000000.000000      5.609436000000000E-01      1.135898000000000E+02      3.064117000000000E-01      1.786016000000000E+02      2.681427000000000E-01     -6.632421000000000E+01      6.940613000000000E-01     -5.182031000000000E+01
4878000000.000000      5.547485000000000E-01      1.129375000000000E+02      3.053436000000000E-01      1.783594000000000E+02      2.674561000000000E-01     -6.610937000000000E+01      6.917419000000000E-01     -5.192577000000000E+01
4879000000.000000      5.503845000000000E-01      1.126250000000000E+02      3.037415000000000E-01      1.784375000000000E+02      2.679596000000000E-01     -6.625781000000000E+01      6.897888000000000E-01     -5.180078000000000E+01
4880000000.000000      5.463867000000000E-01      1.121445000000000E+02      3.032074000000000E-01      1.783203000000000E+02      2.679291000000000E-01     -6.598046000000000E+01      6.886597000000000E-01     -5.179688000000000E+01
4881000000.000000      5.414734000000000E-01      1.115820000000000E+02      3.020935000000000E-01      1.783047000000000E+02      2.678223000000000E-01     -6.601953000000000E+01      6.867676000000000E-01     -5.175586000000000E+01
4882000000.000000      5.363159000000000E-01      1.110390000000000E+02      3.009338000000000E-01      1.781797000000000E+02      2.682190000000000E-01     -6.600390000000000E+01      6.840515000000000E-01     -5.176758000000000E+01
