! Network Analyzer HP8722D
! Hewlett-Packard
! Data name: Linha & Wilkinson
! Saver's name: Rodrigo Anjos
! Comments: Teste da utilização de aquisição
continua pelo VNA HP8722D
! Time and date: 6/5/2025 15:17
!              Frequency                     S11                                                   S21                                                   S12                                                   S22
# HZ  S  MA R 50
4800000000.000000      4.961243000000000E-01     -1.681172000000000E+02      2.515869000000000E-01     -1.958887000000000E+01      2.484055000000000E-01     -1.408281000000000E+02      6.482544000000000E-01     -8.038671000000000E+01
4801000000.000000      4.975281000000000E-01     -1.682578000000000E+02      2.555237000000000E-01     -1.979785000000000E+01      2.516785000000000E-01     -1.409375000000000E+02      6.469421000000000E-01     -8.009766000000000E+01
4802000000.000000      4.990692000000000E-01     -1.683594000000000E+02      2.597961000000000E-01     -1.983398000000000E+01      2.559967000000000E-01     -1.410312000000000E+02      6.450500000000000E-01     -7.978516000000000E+01
4803000000.000000      5.009460000000000E-01     -1.683672000000000E+02      2.645569000000000E-01     -2.022070000000000E+01      2.592316000000000E-01     -1.409062000000000E+02      6.444092000000000E-01     -7.960938000000000E+01
4804000000.000000      5.029297000000000E-01     -1.683437000000000E+02      2.681580000000000E-01     -2.045801000000000E+01      2.628632000000000E-01     -1.410078000000000E+02      6.434326000000000E-01     -7.946484000000000E+01
4805000000.000000      5.056763000000000E-01     -1.684141000000000E+02      2.724762000000000E-01     -2.080176000000000E+01      2.667694000000000E-01     -1.411250000000000E+02      6.441956000000000E-01     -7.932812000000000E+01
4806000000.000000      5.069580000000000E-01     -1.683359000000000E+02      2.761078000000000E-01     -2.112402000000000E+01      2.692719000000000E-01     -1.411016000000000E+02      6.442871000000000E-01     -7.911327000000000E+01
4807000000.000000      5.100708000000000E-01     -1.683750000000000E+02      2.803497000000000E-01     -2.140039000000000E+01      2.740326000000000E-01     -1.413750000000000E+02      6.427307000000000E-01     -7.875000000000000E+01
4808000000.000000      5.130615000000000E-01     -1.682891000000000E+02      2.843781000000000E-01     -2.163574000000000E+01      2.770996000000000E-01     -1.414453000000000E+02      6.422424000000000E-01     -7.858203000000000E+01
4809000000.000000      5.150146000000000E-01     -1.683359000000000E+02      2.880402000000000E-01     -2.217383000000000E+01      2.814178000000000E-01     -1.417109000000000E+02      6.431885000000000E-01     -7.849609000000000E+01
4810000000.000000      5.177307000000000E-01     -1.683828000000000E+02      2.926025000000000E-01     -2.241406000000000E+01      2.841339000000000E-01     -1.416797000000000E+02      6.432800000000000E-01     -7.827734000000000E+01
4811000000.000000      5.213318000000000E-01     -1.683125000000000E+02      2.963104000000000E-01     -2.294824000000000E+01      2.888336000000000E-01     -1.418047000000000E+02      6.429138000000000E-01     -7.800390000000000E+01
4812000000.000000      5.252380000000000E-01     -1.682500000000000E+02      2.995911000000000E-01     -2.335644000000000E+01      2.916870000000000E-01     -1.418750000000000E+02      6.443481000000000E-01     -7.787109000000000E+01
4813000000.000000      5.276489000000000E-01     -1.682109000000000E+02      3.031311000000000E-01     -2.368555000000000E+01      2.944489000000000E-01     -1.419844000000000E+02      6.450500000000000E-01     -7.757813000000000E+01
4814000000.000000      5.307312000000000E-01     -1.682656000000000E+02      3.069916000000000E-01     -2.401269000000000E+01      2.974396000000000E-01     -1.421406000000000E+02      6.461792000000000E-01     -7.748437000000000E+01
4815000000.000000      5.339355000000000E-01     -1.681406000000000E+02      3.104706000000000E-01     -2.443652000000000E+01      3.013000000000000E-01     -1.423359000000000E+02      6.467285000000000E-01     -7.718750000000000E+01
4816000000.000000      5.390625000000000E-01     -1.679922000000000E+02      3.150787000000000E-01     -2.477344000000000E+01      3.049622000000000E-01     -1.425234000000000E+02      6.477661000000000E-01     -7.698437000000000E+01
4817000000.000000      5.433960000000000E-01     -1.679219000000000E+02      3.182068000000000E-01     -2.536523000000000E+01      3.076019000000000E-01     -1.427266000000000E+02      6.482544000000000E-01     -7.699609000000000E+01
4818000000.000000      5.470581000000000E-01     -1.679297000000000E+02      3.212738000000000E-01     -2.578418000000000E+01      3.108521000000000E-01     -1.428203000000000E+02      6.502686000000000E-01     -7.672656000000000E+01
4819000000.000000      5.522156000000000E-01     -1.678125000000000E+02      3.247070000000000E-01     -2.614746000000000E+01      3.132172000000000E-01     -1.430312000000000E+02      6.536255000000000E-01     -7.667578000000000E+01
4820000000.000000      5.544434000000000E-01     -1.677734000000000E+02      3.276520000000000E-01     -2.660645000000000E+01      3.173218000000000E-01     -1.431641000000000E+02      6.537476000000000E-01     -7.641015000000000E+01
4821000000.000000      5.601501000000000E-01     -1.676641000000000E+02      3.313751000000000E-01     -2.711621000000000E+01      3.195038000000000E-01     -1.434219000000000E+02      6.550903000000000E-01     -7.635156000000000E+01
4822000000.000000      5.671387000000000E-01     -1.676328000000000E+02      3.348236000000000E-01     -2.752441000000000E+01      3.219757000000000E-01     -1.436953000000000E+02      6.577759000000000E-01     -7.612499000000000E+01
4823000000.000000      5.699158000000000E-01     -1.674766000000000E+02      3.376923000000000E-01     -2.801562000000000E+01      3.256531000000000E-01     -1.437500000000000E+02      6.603699000000000E-01     -7.594921000000000E+01
4824000000.000000      5.772400000000000E-01     -1.675000000000000E+02      3.414001000000000E-01     -2.863379000000000E+01      3.284912000000000E-01     -1.441015000000000E+02      6.629944000000000E-01     -7.588281000000000E+01
4825000000.000000      5.810242000000000E-01     -1.673984000000000E+02      3.436737000000000E-01     -2.909375000000000E+01      3.315887000000000E-01     -1.441953000000000E+02      6.654053000000000E-01     -7.565624000000000E+01
4826000000.000000      5.872498000000000E-01     -1.672422000000000E+02      3.471375000000000E-01     -2.968554000000000E+01      3.335724000000000E-01     -1.443984000000000E+02      6.676025000000000E-01     -7.558594000000000E+01
4827000000.000000      5.931091000000000E-01     -1.671250000000000E+02      3.498383000000000E-01     -2.997070000000000E+01      3.355408000000000E-01     -1.446328000000000E+02      6.704407000000000E-01     -7.545703000000000E+01
4828000000.000000      6.003418000000000E-01     -1.670547000000000E+02      3.534546000000000E-01     -3.052734000000000E+01      3.387146000000000E-01     -1.447813000000000E+02      6.748962000000000E-01     -7.547656000000000E+01
4829000000.000000      6.034241000000000E-01     -1.668750000000000E+02      3.543549000000000E-01     -3.112597000000000E+01      3.410034000000000E-01     -1.449609000000000E+02      6.768799000000000E-01     -7.524609000000000E+01
4830000000.000000      6.106567000000000E-01     -1.668594000000000E+02      3.577118000000000E-01     -3.163183000000000E+01      3.438568000000000E-01     -1.451641000000000E+02      6.792297000000000E-01     -7.523438000000000E+01
4831000000.000000      6.152344000000000E-01     -1.667500000000000E+02      3.604889000000000E-01     -3.218359000000000E+01      3.462982000000000E-01     -1.452734000000000E+02      6.834717000000000E-01     -7.511719000000000E+01
4832000000.000000      6.240540000000000E-01     -1.666563000000000E+02      3.632202000000000E-01     -3.274023000000000E+01      3.478088000000000E-01     -1.456094000000000E+02      6.856079000000000E-01     -7.504296000000000E+01
4833000000.000000      6.306458000000000E-01     -1.666953000000000E+02      3.656616000000000E-01     -3.332422000000000E+01      3.500671000000000E-01     -1.458359000000000E+02      6.894531000000000E-01     -7.490624000000000E+01
4834000000.000000      6.363525000000000E-01     -1.665859000000000E+02      3.672791000000000E-01     -3.376953000000000E+01      3.536224000000000E-01     -1.459844000000000E+02      6.920776000000000E-01     -7.494531000000000E+01
4835000000.000000      6.432495000000000E-01     -1.664453000000000E+02      3.699799000000000E-01     -3.438086000000000E+01      3.557892000000000E-01     -1.461562000000000E+02      6.962585000000000E-01     -7.491015000000000E+01
4836000000.000000      6.511230000000000E-01     -1.662891000000000E+02      3.721466000000000E-01     -3.486719000000000E+01      3.576660000000000E-01     -1.463516000000000E+02      6.997375000000000E-01     -7.472656000000000E+01
4837000000.000000      6.580811000000000E-01     -1.662734000000000E+02      3.735657000000000E-01     -3.568359000000000E+01      3.598022000000000E-01     -1.466406000000000E+02      7.036133000000000E-01     -7.474218000000000E+01
4838000000.000000      6.647034000000000E-01     -1.663203000000000E+02      3.765411000000000E-01     -3.601758000000000E+01      3.623199000000000E-01     -1.466875000000000E+02      7.075195000000000E-01     -7.464453000000000E+01
4839000000.000000      6.719360000000000E-01     -1.661484000000000E+02      3.776398000000000E-01     -3.648438000000000E+01      3.642426000000000E-01     -1.468906000000000E+02      7.120361000000000E-01     -7.465234000000000E+01
4840000000.000000      6.771240000000000E-01     -1.661562000000000E+02      3.784332000000000E-01     -3.698437000000000E+01      3.661041000000000E-01     -1.471484000000000E+02      7.154541000000000E-01     -7.461719000000000E+01
4841000000.000000      6.855469000000000E-01     -1.661484000000000E+02      3.802948000000000E-01     -3.786523000000000E+01      3.672943000000000E-01     -1.473516000000000E+02      7.195129000000000E-01     -7.464062000000000E+01
4842000000.000000      6.923218000000000E-01     -1.660234000000000E+02      3.813629000000000E-01     -3.819921000000000E+01      3.686371000000000E-01     -1.474609000000000E+02      7.245178000000000E-01     -7.453906000000000E+01
4843000000.000000      6.984558000000000E-01     -1.660938000000000E+02      3.837738000000000E-01     -3.882421000000000E+01      3.713226000000000E-01     -1.478203000000000E+02      7.273560000000000E-01     -7.457812000000000E+01
4844000000.000000      7.057190000000000E-01     -1.659765000000000E+02      3.848419000000000E-01     -3.937109000000000E+01      3.720703000000000E-01     -1.479297000000000E+02      7.322388000000000E-01     -7.450390000000000E+01
4845000000.000000      7.127075000000000E-01     -1.658984000000000E+02      3.854980000000000E-01     -4.003320000000000E+01      3.747559000000000E-01     -1.480937000000000E+02      7.360535000000000E-01     -7.444921000000000E+01
4846000000.000000      7.201233000000000E-01     -1.658359000000000E+02      3.864136000000000E-01     -4.042773000000000E+01      3.772888000000000E-01     -1.481641000000000E+02      7.411499000000000E-01     -7.442577000000000E+01
4847000000.000000      7.282410000000000E-01     -1.658984000000000E+02      3.875732000000000E-01     -4.092773000000000E+01      3.787842000000000E-01     -1.485078000000000E+02      7.465820000000000E-01     -7.457812000000000E+01
4848000000.000000      7.354126000000000E-01     -1.657578000000000E+02      3.879700000000000E-01     -4.142578000000000E+01      3.798828000000000E-01     -1.486484000000000E+02      7.494812000000000E-01     -7.448828000000000E+01
4849000000.000000      7.413025000000000E-01     -1.660625000000000E+02      3.892975000000000E-01     -4.221680000000000E+01      3.821259000000000E-01     -1.489063000000000E+02      7.544861000000000E-01     -7.447266000000000E+01
4850000000.000000      7.491150000000000E-01     -1.658359000000000E+02      3.885803000000000E-01     -4.263281000000000E+01      3.826447000000000E-01     -1.489531000000000E+02      7.593079000000000E-01     -7.452734000000000E+01
4851000000.000000      7.555237000000000E-01     -1.658281000000000E+02      3.907166000000000E-01     -4.325781000000000E+01      3.843842000000000E-01     -1.491641000000000E+02      7.644348000000000E-01     -7.453125000000000E+01
4852000000.000000      7.631531000000000E-01     -1.657656000000000E+02      3.908691000000000E-01     -4.383985000000000E+01      3.869019000000000E-01     -1.493047000000000E+02      7.688293000000000E-01     -7.451562000000000E+01
4853000000.000000      7.696838000000000E-01     -1.658047000000000E+02      3.890991000000000E-01     -4.415039000000000E+01      3.878479000000000E-01     -1.495391000000000E+02      7.740784000000000E-01     -7.473827000000000E+01
4854000000.000000      7.758789000000000E-01     -1.658281000000000E+02      3.902435000000000E-01     -4.485547000000000E+01      3.891602000000000E-01     -1.497890000000000E+02      7.791138000000000E-01     -7.459765000000000E+01
4855000000.000000      7.814941000000000E-01     -1.658594000000000E+02      3.899384000000000E-01     -4.523242000000000E+01      3.907776000000000E-01     -1.498437000000000E+02      7.814941000000000E-01     -7.466406000000000E+01
4856000000.000000      7.898560000000000E-01     -1.657500000000000E+02      3.901672000000000E-01     -4.570313000000000E+01      3.919373000000000E-01     -1.500234000000000E+02      7.884521000000000E-01     -7.471874000000000E+01
4857000000.000000      7.960205000000000E-01     -1.658594000000000E+02      3.896027000000000E-01     -4.624609000000000E+01      3.933716000000000E-01     -1.501719000000000E+02      7.915344000000000E-01     -7.474609000000000E+01
4858000000.000000      7.991638000000000E-01     -1.659297000000000E+02      3.901520000000000E-01     -4.680078000000000E+01      3.935852000000000E-01     -1.504453000000000E+02      7.971191000000000E-01     -7.482812000000000E+01
4859000000.000000      8.065491000000000E-01     -1.658906000000000E+02      3.892365000000000E-01     -4.735937000000000E+01      3.954010000000000E-01     -1.506641000000000E+02      8.034363000000000E-01     -7.496094000000000E+01
4860000000.000000      8.121948000000000E-01     -1.659375000000000E+02      3.887634000000000E-01     -4.768750000000000E+01      3.960266000000000E-01     -1.507266000000000E+02      8.066101000000000E-01     -7.481250000000000E+01
4861000000.000000      8.210144000000000E-01     -1.657344000000000E+02      3.892822000000000E-01     -4.822851000000000E+01      3.979645000000000E-01     -1.509375000000000E+02      8.121948000000000E-01     -7.499609000000000E+01
4862000000.000000      8.231506000000000E-01     -1.657578000000000E+02      3.879089000000000E-01     -4.849414000000000E+01      3.988342000000000E-01     -1.510937000000000E+02      8.180237000000000E-01     -7.502343000000000E+01
4863000000.000000      8.278503000000000E-01     -1.657656000000000E+02      3.862915000000000E-01     -4.911914000000000E+01      4.005432000000000E-01     -1.512031000000000E+02      8.230286000000000E-01     -7.514843000000000E+01
4864000000.000000      8.338623000000000E-01     -1.657734000000000E+02      3.866730000000000E-01     -4.941406000000000E+01      4.002991000000000E-01     -1.514453000000000E+02      8.270874000000000E-01     -7.525391000000000E+01
4865000000.000000      8.369446000000000E-01     -1.659531000000000E+02      3.851776000000000E-01     -4.988476000000000E+01      4.017181000000000E-01     -1.516172000000000E+02      8.320313000000000E-01     -7.519140000000000E+01
4866000000.000000      8.429260000000000E-01     -1.656875000000000E+02      3.839569000000000E-01     -5.037695000000000E+01      4.023438000000000E-01     -1.517656000000000E+02      8.373108000000000E-01     -7.524219000000000E+01
4867000000.000000      8.497009000000000E-01     -1.658281000000000E+02      3.838348000000000E-01     -5.077148000000000E+01      4.027710000000000E-01     -1.519219000000000E+02      8.436584000000000E-01     -7.542187000000000E+01
4868000000.000000      8.535156000000000E-01     -1.658047000000000E+02      3.826141000000000E-01     -5.109570000000000E+01      4.041443000000000E-01     -1.520937000000000E+02      8.475342000000000E-01     -7.541406000000000E+01
4869000000.000000      8.562622000000000E-01     -1.658281000000000E+02      3.801117000000000E-01     -5.149219000000000E+01      4.049988000000000E-01     -1.523359000000000E+02      8.526611000000000E-01     -7.566796000000000E+01
4870000000.000000      8.609314000000000E-01     -1.657812000000000E+02      3.801727000000000E-01     -5.174023000000000E+01      4.051666000000000E-01     -1.525078000000000E+02      8.562622000000000E-01     -7.569921000000000E+01
4871000000.000000      8.663025000000000E-01     -1.659297000000000E+02      3.786926000000000E-01     -5.221680000000000E+01      4.051666000000000E-01     -1.527031000000000E+02      8.605957000000000E-01     -7.585938000000000E+01
4872000000.000000      8.710022000000000E-01     -1.656641000000000E+02      3.771667000000000E-01     -5.224999000000000E+01      4.058533000000000E-01     -1.529609000000000E+02      8.652954000000000E-01     -7.594140000000000E+01
4873000000.000000      8.719788000000000E-01     -1.657812000000000E+02      3.754272000000000E-01     -5.264843000000000E+01      4.060364000000000E-01     -1.529766000000000E+02      8.684998000000000E-01     -7.598437000000000E+01
4874000000.000000      8.746033000000000E-01     -1.658047000000000E+02      3.738251000000000E-01     -5.309570000000000E+01      4.074860000000000E-01     -1.531953000000000E+02      8.735657000000000E-01     -7.591797000000000E+01
4875000000.000000      8.799133000000000E-01     -1.656875000000000E+02      3.727570000000000E-01     -5.336523000000000E+01      4.078827000000000E-01     -1.534141000000000E+02      8.789368000000000E-01     -7.623047000000000E+01
4876000000.000000      8.807983000000000E-01     -1.656875000000000E+02      3.715973000000000E-01     -5.360937000000000E+01      4.069824000000000E-01     -1.535703000000000E+02      8.842773000000000E-01     -7.634375000000000E+01
4877000000.000000      8.822937000000000E-01     -1.657266000000000E+02      3.704834000000000E-01     -5.375000000000000E+01      4.083099000000000E-01     -1.537344000000000E+02      8.879395000000000E-01     -7.649609000000000E+01
4878000000.000000      8.858643000000000E-01     -1.655234000000000E+02      3.693695000000000E-01     -5.398828000000000E+01      4.081421000000000E-01     -1.537969000000000E+02      8.910522000000000E-01     -7.657031000000000E+01
4879000000.000000      8.896484000000000E-01     -1.655000000000000E+02      3.674469000000000E-01     -5.418359000000000E+01      4.078979000000000E-01     -1.540000000000000E+02      8.934631000000000E-01     -7.659765000000000E+01
4880000000.000000      8.916016000000000E-01     -1.654531000000000E+02      3.665619000000000E-01     -5.456640000000000E+01      4.087219000000000E-01     -1.540859000000000E+02      8.985596000000000E-01     -7.667578000000000E+01
4881000000.000000      8.945618000000000E-01     -1.652891000000000E+02      3.649139000000000E-01     -5.458202000000000E+01      4.086761000000000E-01     -1.543437000000000E+02      9.044495000000000E-01     -7.682812000000000E+01
4882000000.000000      8.925171000000000E-01     -1.652344000000000E+02      3.633423000000000E-01     -5.497070000000000E+01      4.087677000000000E-01     -1.544062000000000E+02      9.068604000000000E-01     -7.701172000000000E+01
