! Network Analyzer HP8722D
! Hewlett-Packard
! Data name: Linha & Wilkinson
! Saver's name: Rodrigo Anjos
! Comments: Teste da utilização de aquisição
continua pelo VNA HP8722D
! Time and date: 6/5/2025 14:33
!              Frequency                     S11                                                   S21                                                   S12                                                   S22
# HZ  S  MA R 50
4800000000.000000      4.968109000000000E-01     -1.682500000000000E+02      2.523804000000000E-01     -1.970410000000000E+01      2.491226000000000E-01     -1.409531000000000E+02      6.482544000000000E-01     -8.030859000000000E+01
4801000000.000000      4.978790000000000E-01     -1.683437000000000E+02      2.565155000000000E-01     -1.997754000000000E+01      2.520752000000000E-01     -1.410391000000000E+02      6.466370000000000E-01     -8.007030000000000E+01
4802000000.000000      4.994354000000000E-01     -1.683828000000000E+02      2.603760000000000E-01     -2.012207000000000E+01      2.567444000000000E-01     -1.410078000000000E+02      6.452332000000000E-01     -7.976953000000000E+01
4803000000.000000      5.009155000000000E-01     -1.684453000000000E+02      2.647705000000000E-01     -2.045996000000000E+01      2.591705000000000E-01     -1.411484000000000E+02      6.450806000000000E-01     -7.962500000000000E+01
4804000000.000000      5.032349000000000E-01     -1.683906000000000E+02      2.684021000000000E-01     -2.056152000000000E+01      2.632141000000000E-01     -1.412734000000000E+02      6.445923000000000E-01     -7.939843000000000E+01
4805000000.000000      5.059509000000000E-01     -1.684687000000000E+02      2.729797000000000E-01     -2.096680000000000E+01      2.674255000000000E-01     -1.412734000000000E+02      6.439819000000000E-01     -7.927734000000000E+01
4806000000.000000      5.073547000000000E-01     -1.683594000000000E+02      2.766876000000000E-01     -2.120410000000000E+01      2.701263000000000E-01     -1.412812000000000E+02      6.443787000000000E-01     -7.917578000000000E+01
4807000000.000000      5.105591000000000E-01     -1.684922000000000E+02      2.805481000000000E-01     -2.171191000000000E+01      2.743378000000000E-01     -1.415469000000000E+02      6.433411000000000E-01     -7.883984000000000E+01
4808000000.000000      5.128479000000000E-01     -1.683359000000000E+02      2.856140000000000E-01     -2.181543000000000E+01      2.777557000000000E-01     -1.416797000000000E+02      6.431885000000000E-01     -7.858984000000000E+01
4809000000.000000      5.153503000000000E-01     -1.684062000000000E+02      2.886658000000000E-01     -2.234375000000000E+01      2.815857000000000E-01     -1.417422000000000E+02      6.437073000000000E-01     -7.846484000000000E+01
4810000000.000000      5.186157000000000E-01     -1.684531000000000E+02      2.927856000000000E-01     -2.260937000000000E+01      2.845154000000000E-01     -1.418906000000000E+02      6.436462000000000E-01     -7.821875000000000E+01
4811000000.000000      5.216370000000000E-01     -1.683906000000000E+02      2.966461000000000E-01     -2.313379000000000E+01      2.887726000000000E-01     -1.419531000000000E+02      6.445618000000000E-01     -7.801562000000000E+01
4812000000.000000      5.254517000000000E-01     -1.683203000000000E+02      3.000183000000000E-01     -2.344141000000000E+01      2.916718000000000E-01     -1.421172000000000E+02      6.456909000000000E-01     -7.775000000000000E+01
4813000000.000000      5.280151000000000E-01     -1.682266000000000E+02      3.035431000000000E-01     -2.381836000000000E+01      2.941895000000000E-01     -1.421875000000000E+02      6.456299000000000E-01     -7.756249000000000E+01
4814000000.000000      5.307007000000000E-01     -1.683359000000000E+02      3.082581000000000E-01     -2.420312000000000E+01      2.982635000000000E-01     -1.424297000000000E+02      6.462097000000000E-01     -7.742188000000000E+01
4815000000.000000      5.344238000000000E-01     -1.681797000000000E+02      3.110352000000000E-01     -2.459473000000000E+01      3.017731000000000E-01     -1.425547000000000E+02      6.473083000000000E-01     -7.717578000000000E+01
4816000000.000000      5.391846000000000E-01     -1.680625000000000E+02      3.152161000000000E-01     -2.496679000000000E+01      3.054047000000000E-01     -1.427109000000000E+02      6.481323000000000E-01     -7.705078000000000E+01
4817000000.000000      5.437012000000000E-01     -1.680469000000000E+02      3.188934000000000E-01     -2.540527000000000E+01      3.074341000000000E-01     -1.429766000000000E+02      6.493835000000000E-01     -7.685156000000000E+01
4818000000.000000      5.476379000000000E-01     -1.679844000000000E+02      3.212738000000000E-01     -2.589160000000000E+01      3.115387000000000E-01     -1.429844000000000E+02      6.501465000000000E-01     -7.671484000000000E+01
4819000000.000000      5.523987000000000E-01     -1.679375000000000E+02      3.250732000000000E-01     -2.640918000000000E+01      3.132172000000000E-01     -1.432734000000000E+02      6.533203000000000E-01     -7.666016000000000E+01
4820000000.000000      5.545349000000000E-01     -1.678516000000000E+02      3.285675000000000E-01     -2.671875000000000E+01      3.173523000000000E-01     -1.433438000000000E+02      6.554871000000000E-01     -7.639453000000000E+01
4821000000.000000      5.611572000000000E-01     -1.677422000000000E+02      3.314056000000000E-01     -2.720703000000000E+01      3.198700000000000E-01     -1.436563000000000E+02      6.551208000000000E-01     -7.627734000000000E+01
4822000000.000000      5.672607000000000E-01     -1.677187000000000E+02      3.351135000000000E-01     -2.770410000000000E+01      3.222046000000000E-01     -1.437734000000000E+02      6.583862000000000E-01     -7.613671000000000E+01
4823000000.000000      5.710144000000000E-01     -1.675234000000000E+02      3.391418000000000E-01     -2.829394000000000E+01      3.250275000000000E-01     -1.438359000000000E+02      6.603394000000000E-01     -7.594921000000000E+01
4824000000.000000      5.777893000000000E-01     -1.675469000000000E+02      3.416290000000000E-01     -2.881640000000000E+01      3.290710000000000E-01     -1.441797000000000E+02      6.629639000000000E-01     -7.583202000000000E+01
4825000000.000000      5.816040000000000E-01     -1.674141000000000E+02      3.442688000000000E-01     -2.921679000000000E+01      3.313293000000000E-01     -1.443438000000000E+02      6.663513000000000E-01     -7.565234000000000E+01
4826000000.000000      5.884399000000000E-01     -1.672656000000000E+02      3.474121000000000E-01     -2.984863000000000E+01      3.329315000000000E-01     -1.447656000000000E+02      6.683960000000000E-01     -7.569530000000000E+01
4827000000.000000      5.937805000000000E-01     -1.671562000000000E+02      3.507233000000000E-01     -3.008398000000000E+01      3.358307000000000E-01     -1.446328000000000E+02      6.712646000000000E-01     -7.547265000000000E+01
4828000000.000000      6.003113000000000E-01     -1.671328000000000E+02      3.532562000000000E-01     -3.063477000000000E+01      3.381653000000000E-01     -1.448906000000000E+02      6.742249000000000E-01     -7.545703000000000E+01
4829000000.000000      6.037598000000000E-01     -1.669688000000000E+02      3.558502000000000E-01     -3.130762000000000E+01      3.413849000000000E-01     -1.452109000000000E+02      6.773682000000000E-01     -7.522655000000000E+01
4830000000.000000      6.119995000000000E-01     -1.669141000000000E+02      3.574829000000000E-01     -3.186035000000000E+01      3.434601000000000E-01     -1.452031000000000E+02      6.798096000000000E-01     -7.519140000000000E+01
4831000000.000000      6.165466000000000E-01     -1.668672000000000E+02      3.607788000000000E-01     -3.239062000000000E+01      3.461304000000000E-01     -1.454062000000000E+02      6.822815000000000E-01     -7.512109000000000E+01
4832000000.000000      6.246033000000000E-01     -1.667187000000000E+02      3.630219000000000E-01     -3.296484000000000E+01      3.481750000000000E-01     -1.457656000000000E+02      6.857910000000000E-01     -7.505468000000000E+01
4833000000.000000      6.310730000000000E-01     -1.667578000000000E+02      3.658447000000000E-01     -3.338086000000000E+01      3.504944000000000E-01     -1.460000000000000E+02      6.887207000000000E-01     -7.496484000000000E+01
4834000000.000000      6.372986000000000E-01     -1.666563000000000E+02      3.681488000000000E-01     -3.391406000000000E+01      3.531342000000000E-01     -1.460859000000000E+02      6.930847000000000E-01     -7.484765000000000E+01
4835000000.000000      6.434631000000000E-01     -1.665859000000000E+02      3.703003000000000E-01     -3.462695000000000E+01      3.557587000000000E-01     -1.462812000000000E+02      6.968079000000000E-01     -7.490624000000000E+01
4836000000.000000      6.523438000000000E-01     -1.664609000000000E+02      3.720245000000000E-01     -3.497070000000000E+01      3.575439000000000E-01     -1.464609000000000E+02      7.002258000000000E-01     -7.475390000000000E+01
4837000000.000000      6.581421000000000E-01     -1.663047000000000E+02      3.737335000000000E-01     -3.584179000000000E+01      3.598022000000000E-01     -1.469063000000000E+02      7.032776000000000E-01     -7.474999000000000E+01
4838000000.000000      6.647949000000000E-01     -1.663672000000000E+02      3.756561000000000E-01     -3.627344000000000E+01      3.617401000000000E-01     -1.467969000000000E+02      7.087402000000000E-01     -7.466406000000000E+01
4839000000.000000      6.716614000000000E-01     -1.661641000000000E+02      3.772125000000000E-01     -3.668164000000000E+01      3.638916000000000E-01     -1.470469000000000E+02      7.124939000000000E-01     -7.465625000000000E+01
4840000000.000000      6.774902000000000E-01     -1.662031000000000E+02      3.784332000000000E-01     -3.725976000000000E+01      3.655090000000000E-01     -1.472812000000000E+02      7.152100000000000E-01     -7.462109000000000E+01
4841000000.000000      6.858215000000000E-01     -1.662266000000000E+02      3.808441000000000E-01     -3.802343000000000E+01      3.681946000000000E-01     -1.475625000000000E+02      7.198181000000000E-01     -7.467187000000000E+01
4842000000.000000      6.931458000000000E-01     -1.661406000000000E+02      3.821259000000000E-01     -3.848242000000000E+01      3.695984000000000E-01     -1.477813000000000E+02      7.247620000000000E-01     -7.452343000000000E+01
4843000000.000000      6.998291000000000E-01     -1.662031000000000E+02      3.839111000000000E-01     -3.912695000000000E+01      3.706818000000000E-01     -1.478828000000000E+02      7.286072000000000E-01     -7.453515000000000E+01
4844000000.000000      7.066040000000000E-01     -1.660625000000000E+02      3.843079000000000E-01     -3.949219000000000E+01      3.728027000000000E-01     -1.480703000000000E+02      7.325439000000000E-01     -7.456249000000000E+01
4845000000.000000      7.131653000000000E-01     -1.660312000000000E+02      3.853302000000000E-01     -4.002734000000000E+01      3.745117000000000E-01     -1.483438000000000E+02      7.357483000000000E-01     -7.446875000000000E+01
4846000000.000000      7.207031000000000E-01     -1.659375000000000E+02      3.866882000000000E-01     -4.060351000000000E+01      3.776550000000000E-01     -1.484688000000000E+02      7.416382000000000E-01     -7.448047000000000E+01
4847000000.000000      7.282715000000000E-01     -1.659609000000000E+02      3.871002000000000E-01     -4.125390000000000E+01      3.788757000000000E-01     -1.487187000000000E+02      7.461853000000000E-01     -7.457031000000000E+01
4848000000.000000      7.355652000000000E-01     -1.658828000000000E+02      3.875732000000000E-01     -4.167578000000000E+01      3.801880000000000E-01     -1.488594000000000E+02      7.495117000000000E-01     -7.455078000000000E+01
4849000000.000000      7.426758000000000E-01     -1.661562000000000E+02      3.883057000000000E-01     -4.233203000000000E+01      3.814392000000000E-01     -1.490469000000000E+02      7.546997000000000E-01     -7.453515000000000E+01
4850000000.000000      7.498169000000000E-01     -1.659219000000000E+02      3.891754000000000E-01     -4.272265000000000E+01      3.832855000000000E-01     -1.491484000000000E+02      7.603760000000000E-01     -7.449219000000000E+01
4851000000.000000      7.568054000000000E-01     -1.658828000000000E+02      3.900299000000000E-01     -4.335351000000000E+01      3.847046000000000E-01     -1.494062000000000E+02      7.649536000000000E-01     -7.457031000000000E+01
4852000000.000000      7.632141000000000E-01     -1.658984000000000E+02      3.901672000000000E-01     -4.388085000000000E+01      3.866730000000000E-01     -1.495391000000000E+02      7.691650000000000E-01     -7.461328000000000E+01
4853000000.000000      7.707520000000000E-01     -1.658906000000000E+02      3.884888000000000E-01     -4.437304000000000E+01      3.881683000000000E-01     -1.496797000000000E+02      7.738342000000000E-01     -7.475390000000000E+01
4854000000.000000      7.770691000000000E-01     -1.659531000000000E+02      3.909912000000000E-01     -4.517968000000000E+01      3.887787000000000E-01     -1.498906000000000E+02      7.785645000000000E-01     -7.466406000000000E+01
4855000000.000000      7.812500000000000E-01     -1.658984000000000E+02      3.896179000000000E-01     -4.544531000000000E+01      3.898926000000000E-01     -1.500469000000000E+02      7.825623000000000E-01     -7.475390000000000E+01
4856000000.000000      7.902527000000000E-01     -1.658516000000000E+02      3.896027000000000E-01     -4.595899000000000E+01      3.919678000000000E-01     -1.501797000000000E+02      7.887268000000000E-01     -7.473046000000000E+01
4857000000.000000      7.958374000000000E-01     -1.659375000000000E+02      3.898315000000000E-01     -4.641992000000000E+01      3.928833000000000E-01     -1.502969000000000E+02      7.926025000000000E-01     -7.474999000000000E+01
4858000000.000000      7.999268000000000E-01     -1.659453000000000E+02      3.895111000000000E-01     -4.685742000000000E+01      3.935852000000000E-01     -1.505938000000000E+02      7.967529000000000E-01     -7.483984000000000E+01
4859000000.000000      8.072815000000000E-01     -1.660234000000000E+02      3.884583000000000E-01     -4.729492000000000E+01      3.951569000000000E-01     -1.507891000000000E+02      8.043518000000000E-01     -7.502734000000000E+01
4860000000.000000      8.145447000000000E-01     -1.659062000000000E+02      3.883667000000000E-01     -4.779101000000000E+01      3.958130000000000E-01     -1.508906000000000E+02      8.072205000000000E-01     -7.494531000000000E+01
4861000000.000000      8.191528000000000E-01     -1.658906000000000E+02      3.885040000000000E-01     -4.842578000000000E+01      3.978424000000000E-01     -1.510781000000000E+02      8.122864000000000E-01     -7.514843000000000E+01
4862000000.000000      8.237000000000000E-01     -1.658281000000000E+02      3.877563000000000E-01     -4.870312000000000E+01      3.989258000000000E-01     -1.512656000000000E+02      8.185730000000000E-01     -7.507030000000000E+01
4863000000.000000      8.302917000000000E-01     -1.659531000000000E+02      3.861389000000000E-01     -4.927929000000000E+01      3.996582000000000E-01     -1.513750000000000E+02      8.225098000000000E-01     -7.511719000000000E+01
4864000000.000000      8.353882000000000E-01     -1.660156000000000E+02      3.867493000000000E-01     -4.951562000000000E+01      3.996887000000000E-01     -1.515312000000000E+02      8.267517000000000E-01     -7.525391000000000E+01
4865000000.000000      8.376770000000000E-01     -1.660703000000000E+02      3.849487000000000E-01     -5.006054000000000E+01      4.011078000000000E-01     -1.517812000000000E+02      8.334656000000000E-01     -7.528125000000000E+01
4866000000.000000      8.418579000000000E-01     -1.658594000000000E+02      3.841553000000000E-01     -5.044922000000000E+01      4.018402000000000E-01     -1.519219000000000E+02      8.378601000000000E-01     -7.531640000000000E+01
4867000000.000000      8.484192000000000E-01     -1.660156000000000E+02      3.830261000000000E-01     -5.075585000000000E+01      4.028625000000000E-01     -1.521016000000000E+02      8.428650000000000E-01     -7.546093000000000E+01
4868000000.000000      8.536987000000000E-01     -1.660078000000000E+02      3.820953000000000E-01     -5.117578000000000E+01      4.039459000000000E-01     -1.522578000000000E+02      8.460999000000000E-01     -7.553515000000000E+01
4869000000.000000      8.552246000000000E-01     -1.658906000000000E+02      3.800659000000000E-01     -5.159570000000000E+01      4.040070000000000E-01     -1.524219000000000E+02      8.523865000000000E-01     -7.572656000000000E+01
4870000000.000000      8.626709000000000E-01     -1.658828000000000E+02      3.796844000000000E-01     -5.184179000000000E+01      4.043427000000000E-01     -1.526562000000000E+02      8.565674000000000E-01     -7.575390000000000E+01
4871000000.000000      8.659668000000000E-01     -1.659062000000000E+02      3.784790000000000E-01     -5.224999000000000E+01      4.051208000000000E-01     -1.527734000000000E+02      8.597717000000000E-01     -7.594140000000000E+01
4872000000.000000      8.692932000000000E-01     -1.659062000000000E+02      3.763580000000000E-01     -5.238867000000000E+01      4.054718000000000E-01     -1.531328000000000E+02      8.663635000000000E-01     -7.591797000000000E+01
4873000000.000000      8.709412000000000E-01     -1.658359000000000E+02      3.751373000000000E-01     -5.291992000000000E+01      4.057922000000000E-01     -1.531406000000000E+02      8.692017000000000E-01     -7.610937000000000E+01
4874000000.000000      8.753052000000000E-01     -1.657734000000000E+02      3.738251000000000E-01     -5.328320000000000E+01      4.074097000000000E-01     -1.532031000000000E+02      8.746948000000000E-01     -7.607812000000000E+01
4875000000.000000      8.823853000000000E-01     -1.659062000000000E+02      3.722382000000000E-01     -5.337304000000000E+01      4.074097000000000E-01     -1.535703000000000E+02      8.791199000000000E-01     -7.628124000000000E+01
4876000000.000000      8.807983000000000E-01     -1.657500000000000E+02      3.712006000000000E-01     -5.372656000000000E+01      4.066162000000000E-01     -1.536719000000000E+02      8.831177000000000E-01     -7.642968000000000E+01
4877000000.000000      8.846436000000000E-01     -1.656719000000000E+02      3.694916000000000E-01     -5.384179000000000E+01      4.075012000000000E-01     -1.538750000000000E+02      8.872986000000000E-01     -7.659374000000000E+01
4878000000.000000      8.874512000000000E-01     -1.656797000000000E+02      3.688507000000000E-01     -5.426952000000000E+01      4.075165000000000E-01     -1.539063000000000E+02      8.916016000000000E-01     -7.658984000000000E+01
4879000000.000000      8.901672000000000E-01     -1.656094000000000E+02      3.669891000000000E-01     -5.429882000000000E+01      4.075165000000000E-01     -1.540937000000000E+02      8.938904000000000E-01     -7.669922000000000E+01
4880000000.000000      8.908691000000000E-01     -1.655625000000000E+02      3.655243000000000E-01     -5.462695000000000E+01      4.081268000000000E-01     -1.542187000000000E+02      8.983765000000000E-01     -7.674218000000000E+01
4881000000.000000      8.938293000000000E-01     -1.653906000000000E+02      3.646545000000000E-01     -5.468945000000000E+01      4.082947000000000E-01     -1.544844000000000E+02      9.040833000000000E-01     -7.694921000000000E+01
4882000000.000000      8.929443000000000E-01     -1.653125000000000E+02      3.632965000000000E-01     -5.496875000000000E+01      4.081726000000000E-01     -1.545000000000000E+02      9.065857000000000E-01     -7.706640000000000E+01
