! Network Analyzer HP8722D
! Hewlett-Packard
! Data name: Linha & Wilkinson
! Saver's name: Rodrigo Anjos
! Comments: Teste da utilização de aquisição
continua pelo VNA HP8722D
! Time and date: 6/5/2025 15:43
!              Frequency                     S11                                                   S21                                                   S12                                                   S22
# HZ  S  MA R 50
4800000000.000000      4.960022000000000E-01     -1.681406000000000E+02      2.512817000000000E-01     -1.955859000000000E+01      2.478256000000000E-01     -1.406719000000000E+02      6.479187000000000E-01     -8.038280000000000E+01
4801000000.000000      4.978943000000000E-01     -1.682031000000000E+02      2.552948000000000E-01     -1.974805000000000E+01      2.513428000000000E-01     -1.407734000000000E+02      6.465759000000000E-01     -8.013281000000000E+01
4802000000.000000      4.984894000000000E-01     -1.682812000000000E+02      2.593536000000000E-01     -1.978711000000000E+01      2.549286000000000E-01     -1.407969000000000E+02      6.451721000000000E-01     -7.976171000000000E+01
4803000000.000000      5.003357000000000E-01     -1.683906000000000E+02      2.639923000000000E-01     -2.011328000000000E+01      2.588959000000000E-01     -1.408047000000000E+02      6.450806000000000E-01     -7.973827000000000E+01
4804000000.000000      5.025635000000000E-01     -1.683203000000000E+02      2.679138000000000E-01     -2.041406000000000E+01      2.628479000000000E-01     -1.409844000000000E+02      6.445923000000000E-01     -7.940624000000000E+01
4805000000.000000      5.055542000000000E-01     -1.684062000000000E+02      2.719116000000000E-01     -2.077734000000000E+01      2.662201000000000E-01     -1.410312000000000E+02      6.436768000000000E-01     -7.930078000000000E+01
4806000000.000000      5.068054000000000E-01     -1.682969000000000E+02      2.756958000000000E-01     -2.101172000000000E+01      2.694092000000000E-01     -1.409297000000000E+02      6.443787000000000E-01     -7.921093000000000E+01
4807000000.000000      5.097961000000000E-01     -1.682812000000000E+02      2.800751000000000E-01     -2.141797000000000E+01      2.734985000000000E-01     -1.413359000000000E+02      6.423645000000000E-01     -7.889843000000000E+01
4808000000.000000      5.124207000000000E-01     -1.682344000000000E+02      2.841339000000000E-01     -2.152539000000000E+01      2.764435000000000E-01     -1.413281000000000E+02      6.427612000000000E-01     -7.864452000000000E+01
4809000000.000000      5.146484000000000E-01     -1.683203000000000E+02      2.876282000000000E-01     -2.214355000000000E+01      2.808990000000000E-01     -1.415078000000000E+02      6.425476000000000E-01     -7.843359000000000E+01
4810000000.000000      5.172729000000000E-01     -1.683672000000000E+02      2.915649000000000E-01     -2.239746000000000E+01      2.839050000000000E-01     -1.415313000000000E+02      6.439209000000000E-01     -7.833202000000000E+01
4811000000.000000      5.210571000000000E-01     -1.682969000000000E+02      2.955322000000000E-01     -2.287109000000000E+01      2.877960000000000E-01     -1.417422000000000E+02      6.427612000000000E-01     -7.800390000000000E+01
4812000000.000000      5.248108000000000E-01     -1.681953000000000E+02      2.989349000000000E-01     -2.319922000000000E+01      2.915192000000000E-01     -1.417422000000000E+02      6.441956000000000E-01     -7.779297000000000E+01
4813000000.000000      5.272827000000000E-01     -1.681094000000000E+02      3.028717000000000E-01     -2.349902000000000E+01      2.943268000000000E-01     -1.417969000000000E+02      6.449585000000000E-01     -7.759766000000000E+01
4814000000.000000      5.302124000000000E-01     -1.682266000000000E+02      3.064880000000000E-01     -2.392578000000000E+01      2.977142000000000E-01     -1.421484000000000E+02      6.456604000000000E-01     -7.745703000000000E+01
4815000000.000000      5.338135000000000E-01     -1.680312000000000E+02      3.097076000000000E-01     -2.441797000000000E+01      3.009338000000000E-01     -1.421797000000000E+02      6.473999000000000E-01     -7.722265000000000E+01
4816000000.000000      5.385437000000000E-01     -1.679766000000000E+02      3.142853000000000E-01     -2.467968000000000E+01      3.050690000000000E-01     -1.424141000000000E+02      6.479187000000000E-01     -7.707421000000000E+01
4817000000.000000      5.426331000000000E-01     -1.678516000000000E+02      3.175354000000000E-01     -2.515918000000000E+01      3.075256000000000E-01     -1.425859000000000E+02      6.479797000000000E-01     -7.688281000000000E+01
4818000000.000000      5.462952000000000E-01     -1.678437000000000E+02      3.209229000000000E-01     -2.567578000000000E+01      3.107452000000000E-01     -1.426719000000000E+02      6.503296000000000E-01     -7.671875000000000E+01
4819000000.000000      5.519409000000000E-01     -1.677969000000000E+02      3.242645000000000E-01     -2.606445000000000E+01      3.133087000000000E-01     -1.429453000000000E+02      6.518555000000000E-01     -7.662890000000000E+01
4820000000.000000      5.538635000000000E-01     -1.676875000000000E+02      3.271179000000000E-01     -2.646484000000000E+01      3.167725000000000E-01     -1.431484000000000E+02      6.547241000000000E-01     -7.638281000000000E+01
4821000000.000000      5.599976000000000E-01     -1.676094000000000E+02      3.312225000000000E-01     -2.704297000000000E+01      3.196259000000000E-01     -1.434062000000000E+02      6.560059000000000E-01     -7.621484000000000E+01
4822000000.000000      5.662537000000000E-01     -1.676094000000000E+02      3.345337000000000E-01     -2.748926000000000E+01      3.217163000000000E-01     -1.435469000000000E+02      6.582642000000000E-01     -7.605859000000000E+01
4823000000.000000      5.699768000000000E-01     -1.674219000000000E+02      3.374176000000000E-01     -2.785254000000000E+01      3.244476000000000E-01     -1.436172000000000E+02      6.598206000000000E-01     -7.598046000000000E+01
4824000000.000000      5.765686000000000E-01     -1.673906000000000E+02      3.408051000000000E-01     -2.853613000000000E+01      3.287048000000000E-01     -1.439141000000000E+02      6.626892000000000E-01     -7.585938000000000E+01
4825000000.000000      5.807190000000000E-01     -1.673281000000000E+02      3.437195000000000E-01     -2.894629000000000E+01      3.313599000000000E-01     -1.440000000000000E+02      6.651611000000000E-01     -7.569530000000000E+01
4826000000.000000      5.870361000000000E-01     -1.671797000000000E+02      3.470612000000000E-01     -2.946680000000000E+01      3.330078000000000E-01     -1.443516000000000E+02      6.679993000000000E-01     -7.567577000000000E+01
4827000000.000000      5.921326000000000E-01     -1.670234000000000E+02      3.497772000000000E-01     -2.980078000000000E+01      3.356628000000000E-01     -1.443750000000000E+02      6.708374000000000E-01     -7.546484000000000E+01
4828000000.000000      5.993652000000000E-01     -1.670156000000000E+02      3.526611000000000E-01     -3.040527000000000E+01      3.380890000000000E-01     -1.446719000000000E+02      6.734009000000000E-01     -7.539844000000000E+01
4829000000.000000      6.031799000000000E-01     -1.668594000000000E+02      3.553772000000000E-01     -3.098633000000000E+01      3.409424000000000E-01     -1.447734000000000E+02      6.755371000000000E-01     -7.520702000000000E+01
4830000000.000000      6.101685000000000E-01     -1.667656000000000E+02      3.581848000000000E-01     -3.154199000000000E+01      3.435516000000000E-01     -1.450000000000000E+02      6.783142000000000E-01     -7.519921000000000E+01
4831000000.000000      6.154785000000000E-01     -1.667266000000000E+02      3.597412000000000E-01     -3.216406000000000E+01      3.462372000000000E-01     -1.452031000000000E+02      6.821289000000000E-01     -7.508984000000000E+01
4832000000.000000      6.240234000000000E-01     -1.666641000000000E+02      3.633881000000000E-01     -3.255859000000000E+01      3.481598000000000E-01     -1.453906000000000E+02      6.853943000000000E-01     -7.507030000000000E+01
4833000000.000000      6.294250000000000E-01     -1.665625000000000E+02      3.652649000000000E-01     -3.307617000000000E+01      3.506470000000000E-01     -1.456328000000000E+02      6.880798000000000E-01     -7.493750000000000E+01
4834000000.000000      6.361694000000000E-01     -1.664766000000000E+02      3.676453000000000E-01     -3.364258000000000E+01      3.525848000000000E-01     -1.458281000000000E+02      6.920471000000000E-01     -7.494922000000000E+01
4835000000.000000      6.418152000000000E-01     -1.664063000000000E+02      3.692322000000000E-01     -3.425195000000000E+01      3.557892000000000E-01     -1.460703000000000E+02      6.956787000000000E-01     -7.488281000000000E+01
4836000000.000000      6.502380000000000E-01     -1.663125000000000E+02      3.712311000000000E-01     -3.482031000000000E+01      3.578491000000000E-01     -1.461797000000000E+02      6.994324000000000E-01     -7.471874000000000E+01
4837000000.000000      6.569824000000000E-01     -1.662109000000000E+02      3.735352000000000E-01     -3.562500000000000E+01      3.592224000000000E-01     -1.464609000000000E+02      7.039795000000000E-01     -7.470703000000000E+01
4838000000.000000      6.643677000000000E-01     -1.662422000000000E+02      3.760223000000000E-01     -3.587695000000000E+01      3.613892000000000E-01     -1.466250000000000E+02      7.061157000000000E-01     -7.466406000000000E+01
4839000000.000000      6.714478000000000E-01     -1.660547000000000E+02      3.773499000000000E-01     -3.647070000000000E+01      3.638458000000000E-01     -1.468906000000000E+02      7.107544000000000E-01     -7.451953000000000E+01
4840000000.000000      6.771545000000000E-01     -1.661094000000000E+02      3.784790000000000E-01     -3.695117000000000E+01      3.653107000000000E-01     -1.470469000000000E+02      7.145691000000000E-01     -7.461719000000000E+01
4841000000.000000      6.851196000000000E-01     -1.661250000000000E+02      3.798370000000000E-01     -3.775781000000000E+01      3.675842000000000E-01     -1.472500000000000E+02      7.200012000000000E-01     -7.448437000000000E+01
4842000000.000000      6.918335000000000E-01     -1.659453000000000E+02      3.819427000000000E-01     -3.816797000000000E+01      3.692169000000000E-01     -1.474062000000000E+02      7.243347000000000E-01     -7.456640000000000E+01
4843000000.000000      6.984558000000000E-01     -1.660312000000000E+02      3.828735000000000E-01     -3.875391000000000E+01      3.711700000000000E-01     -1.475469000000000E+02      7.273560000000000E-01     -7.448437000000000E+01
4844000000.000000      7.055969000000000E-01     -1.658594000000000E+02      3.846741000000000E-01     -3.936914000000000E+01      3.726196000000000E-01     -1.477813000000000E+02      7.316589000000000E-01     -7.451562000000000E+01
4845000000.000000      7.122498000000000E-01     -1.658203000000000E+02      3.850250000000000E-01     -3.978906000000000E+01      3.750763000000000E-01     -1.480234000000000E+02      7.361145000000000E-01     -7.440624000000000E+01
4846000000.000000      7.198181000000000E-01     -1.657578000000000E+02      3.852386000000000E-01     -4.027539000000000E+01      3.769989000000000E-01     -1.481094000000000E+02      7.416382000000000E-01     -7.448047000000000E+01
4847000000.000000      7.277527000000000E-01     -1.658203000000000E+02      3.871307000000000E-01     -4.093946000000000E+01      3.786011000000000E-01     -1.483438000000000E+02      7.455750000000000E-01     -7.453515000000000E+01
4848000000.000000      7.350159000000000E-01     -1.657344000000000E+02      3.875885000000000E-01     -4.143945000000000E+01      3.801270000000000E-01     -1.485469000000000E+02      7.496338000000000E-01     -7.442187000000000E+01
4849000000.000000      7.409363000000000E-01     -1.659531000000000E+02      3.888550000000000E-01     -4.207617000000000E+01      3.822784000000000E-01     -1.487109000000000E+02      7.534790000000000E-01     -7.446875000000000E+01
4850000000.000000      7.481689000000000E-01     -1.657109000000000E+02      3.883820000000000E-01     -4.249804000000000E+01      3.837738000000000E-01     -1.488281000000000E+02      7.592773000000000E-01     -7.444140000000000E+01
4851000000.000000      7.556763000000000E-01     -1.656953000000000E+02      3.903198000000000E-01     -4.315625000000000E+01      3.848267000000000E-01     -1.491016000000000E+02      7.647095000000000E-01     -7.454687000000000E+01
4852000000.000000      7.631531000000000E-01     -1.657734000000000E+02      3.906097000000000E-01     -4.366015000000000E+01      3.861237000000000E-01     -1.492734000000000E+02      7.677307000000000E-01     -7.441406000000000E+01
4853000000.000000      7.705688000000000E-01     -1.657422000000000E+02      3.893127000000000E-01     -4.424609000000000E+01      3.880920000000000E-01     -1.494688000000000E+02      7.728882000000000E-01     -7.464844000000000E+01
4854000000.000000      7.765198000000000E-01     -1.657344000000000E+02      3.905487000000000E-01     -4.479688000000000E+01      3.894501000000000E-01     -1.496094000000000E+02      7.791138000000000E-01     -7.459765000000000E+01
4855000000.000000      7.813110000000000E-01     -1.658281000000000E+02      3.896332000000000E-01     -4.514062000000000E+01      3.901825000000000E-01     -1.497344000000000E+02      7.820435000000000E-01     -7.458593000000000E+01
4856000000.000000      7.896729000000000E-01     -1.656797000000000E+02      3.895569000000000E-01     -4.559766000000000E+01      3.919067000000000E-01     -1.499297000000000E+02      7.878723000000000E-01     -7.467187000000000E+01
4857000000.000000      7.952576000000000E-01     -1.657578000000000E+02      3.905640000000000E-01     -4.611718000000000E+01      3.928375000000000E-01     -1.501797000000000E+02      7.920532000000000E-01     -7.469531000000000E+01
4858000000.000000      7.984924000000000E-01     -1.657812000000000E+02      3.894196000000000E-01     -4.679492000000000E+01      3.938293000000000E-01     -1.503203000000000E+02      7.967529000000000E-01     -7.484375000000000E+01
4859000000.000000      8.064880000000000E-01     -1.658047000000000E+02      3.892670000000000E-01     -4.702538000000000E+01      3.949738000000000E-01     -1.505859000000000E+02      8.032837000000000E-01     -7.484375000000000E+01
4860000000.000000      8.140869000000000E-01     -1.656797000000000E+02      3.885956000000000E-01     -4.760938000000000E+01      3.959503000000000E-01     -1.506953000000000E+02      8.065491000000000E-01     -7.487890000000000E+01
4861000000.000000      8.167114000000000E-01     -1.656406000000000E+02      3.885803000000000E-01     -4.821094000000000E+01      3.976135000000000E-01     -1.509063000000000E+02      8.117371000000000E-01     -7.490624000000000E+01
4862000000.000000      8.235168000000000E-01     -1.658047000000000E+02      3.886261000000000E-01     -4.833008000000000E+01      3.990631000000000E-01     -1.510156000000000E+02      8.173523000000000E-01     -7.491405000000000E+01
4863000000.000000      8.280640000000000E-01     -1.657109000000000E+02      3.859100000000000E-01     -4.923828000000000E+01      4.002838000000000E-01     -1.511328000000000E+02      8.210449000000000E-01     -7.507813000000000E+01
4864000000.000000      8.354492000000000E-01     -1.657187000000000E+02      3.862762000000000E-01     -4.927539000000000E+01      4.003143000000000E-01     -1.513203000000000E+02      8.272095000000000E-01     -7.514453000000000E+01
4865000000.000000      8.394470000000000E-01     -1.658125000000000E+02      3.842773000000000E-01     -4.980273000000000E+01      4.011383000000000E-01     -1.514844000000000E+02      8.317566000000000E-01     -7.516796000000000E+01
4866000000.000000      8.423462000000000E-01     -1.658125000000000E+02      3.842468000000000E-01     -5.009766000000000E+01      4.026642000000000E-01     -1.517031000000000E+02      8.371887000000000E-01     -7.524609000000000E+01
4867000000.000000      8.486328000000000E-01     -1.657266000000000E+02      3.835144000000000E-01     -5.062109000000000E+01      4.029694000000000E-01     -1.518125000000000E+02      8.417969000000000E-01     -7.532031000000000E+01
4868000000.000000      8.525085000000000E-01     -1.658047000000000E+02      3.827515000000000E-01     -5.113867000000000E+01      4.042816000000000E-01     -1.519922000000000E+02      8.468933000000000E-01     -7.542187000000000E+01
4869000000.000000      8.553162000000000E-01     -1.657969000000000E+02      3.795776000000000E-01     -5.144140000000000E+01      4.049072000000000E-01     -1.521719000000000E+02      8.518982000000000E-01     -7.569921000000000E+01
4870000000.000000      8.610535000000000E-01     -1.656328000000000E+02      3.807068000000000E-01     -5.152148000000000E+01      4.054718000000000E-01     -1.524219000000000E+02      8.562317000000000E-01     -7.560547000000000E+01
4871000000.000000      8.644409000000000E-01     -1.657812000000000E+02      3.784180000000000E-01     -5.203515000000000E+01      4.052734000000000E-01     -1.525703000000000E+02      8.601685000000000E-01     -7.587891000000000E+01
4872000000.000000      8.695068000000000E-01     -1.658203000000000E+02      3.768463000000000E-01     -5.218554000000000E+01      4.060211000000000E-01     -1.528828000000000E+02      8.664246000000000E-01     -7.582421000000000E+01
4873000000.000000      8.698120000000000E-01     -1.656563000000000E+02      3.761597000000000E-01     -5.263281000000000E+01      4.065247000000000E-01     -1.529063000000000E+02      8.686523000000000E-01     -7.596093000000000E+01
4874000000.000000      8.740234000000000E-01     -1.656953000000000E+02      3.746643000000000E-01     -5.289648000000000E+01      4.079895000000000E-01     -1.530234000000000E+02      8.731689000000000E-01     -7.585938000000000E+01
4875000000.000000      8.792725000000000E-01     -1.655937000000000E+02      3.731842000000000E-01     -5.325585000000000E+01      4.075928000000000E-01     -1.533516000000000E+02      8.782043000000000E-01     -7.613281000000000E+01
4876000000.000000      8.813782000000000E-01     -1.657266000000000E+02      3.717499000000000E-01     -5.357422000000000E+01      4.068756000000000E-01     -1.534531000000000E+02      8.833313000000000E-01     -7.632421000000000E+01
4877000000.000000      8.822021000000000E-01     -1.654453000000000E+02      3.702698000000000E-01     -5.367969000000000E+01      4.080200000000000E-01     -1.536641000000000E+02      8.870239000000000E-01     -7.646484000000000E+01
4878000000.000000      8.857727000000000E-01     -1.653047000000000E+02      3.697968000000000E-01     -5.390625000000000E+01      4.084930000000000E-01     -1.536562000000000E+02      8.906860000000000E-01     -7.653515000000000E+01
4879000000.000000      8.903198000000000E-01     -1.655547000000000E+02      3.672180000000000E-01     -5.414063000000000E+01      4.085083000000000E-01     -1.539219000000000E+02      8.948364000000000E-01     -7.662890000000000E+01
4880000000.000000      8.893433000000000E-01     -1.654297000000000E+02      3.663635000000000E-01     -5.455859000000000E+01      4.087219000000000E-01     -1.540469000000000E+02      8.986511000000000E-01     -7.668359000000000E+01
4881000000.000000      8.942566000000000E-01     -1.653281000000000E+02      3.652344000000000E-01     -5.453320000000000E+01      4.091492000000000E-01     -1.542422000000000E+02      9.036560000000000E-01     -7.685937000000000E+01
4882000000.000000      8.947754000000000E-01     -1.652187000000000E+02      3.628387000000000E-01     -5.476171000000000E+01      4.085999000000000E-01     -1.543516000000000E+02      9.057922000000000E-01     -7.687890000000000E+01
