! Network Analyzer HP8722D
! Hewlett-Packard
! Data name: Linha & Wilkinson
! Saver's name: Rodrigo Anjos
! Comments: Teste da utilização de aquisição
continua pelo VNA HP8722D
! Time and date: 6/5/2025 14:34
!              Frequency                     S11                                                   S21                                                   S12                                                   S22
# HZ  S  MA R 50
4800000000.000000      4.970398000000000E-01     -1.682422000000000E+02      2.526245000000000E-01     -1.966699000000000E+01      2.485504000000000E-01     -1.409609000000000E+02      6.476135000000000E-01     -8.037109000000000E+01
4801000000.000000      4.978485000000000E-01     -1.682969000000000E+02      2.565613000000000E-01     -2.001758000000000E+01      2.522125000000000E-01     -1.410156000000000E+02      6.463623000000000E-01     -8.007813000000000E+01
4802000000.000000      4.991760000000000E-01     -1.683984000000000E+02      2.601013000000000E-01     -2.017285000000000E+01      2.562561000000000E-01     -1.409219000000000E+02      6.448059000000000E-01     -7.983593000000000E+01
4803000000.000000      5.008240000000000E-01     -1.685078000000000E+02      2.649689000000000E-01     -2.041699000000000E+01      2.593689000000000E-01     -1.410781000000000E+02      6.452332000000000E-01     -7.965234000000000E+01
4804000000.000000      5.034790000000000E-01     -1.683594000000000E+02      2.689209000000000E-01     -2.070410000000000E+01      2.632751000000000E-01     -1.412500000000000E+02      6.449280000000000E-01     -7.941796000000000E+01
4805000000.000000      5.062866000000000E-01     -1.685078000000000E+02      2.732086000000000E-01     -2.087988000000000E+01      2.672882000000000E-01     -1.412500000000000E+02      6.449280000000000E-01     -7.923437000000000E+01
4806000000.000000      5.071716000000000E-01     -1.684219000000000E+02      2.765656000000000E-01     -2.114258000000000E+01      2.695465000000000E-01     -1.412578000000000E+02      6.456299000000000E-01     -7.918359000000000E+01
4807000000.000000      5.104675000000000E-01     -1.684922000000000E+02      2.810364000000000E-01     -2.166797000000000E+01      2.746887000000000E-01     -1.415469000000000E+02      6.424255000000000E-01     -7.882030000000000E+01
4808000000.000000      5.130005000000000E-01     -1.684062000000000E+02      2.855835000000000E-01     -2.180957000000000E+01      2.775726000000000E-01     -1.416172000000000E+02      6.430359000000000E-01     -7.859765000000000E+01
4809000000.000000      5.153809000000000E-01     -1.684375000000000E+02      2.889862000000000E-01     -2.241113000000000E+01      2.816315000000000E-01     -1.417891000000000E+02      6.438599000000000E-01     -7.849999000000000E+01
4810000000.000000      5.184326000000000E-01     -1.684609000000000E+02      2.927246000000000E-01     -2.257910000000000E+01      2.851563000000000E-01     -1.418750000000000E+02      6.439514000000000E-01     -7.833202000000000E+01
4811000000.000000      5.213013000000000E-01     -1.683516000000000E+02      2.968140000000000E-01     -2.309375000000000E+01      2.888031000000000E-01     -1.419766000000000E+02      6.441040000000000E-01     -7.795312000000000E+01
4812000000.000000      5.252380000000000E-01     -1.683359000000000E+02      3.003387000000000E-01     -2.354394000000000E+01      2.923126000000000E-01     -1.420625000000000E+02      6.443787000000000E-01     -7.779297000000000E+01
4813000000.000000      5.281067000000000E-01     -1.682109000000000E+02      3.036804000000000E-01     -2.379687000000000E+01      2.943878000000000E-01     -1.420938000000000E+02      6.455078000000000E-01     -7.757813000000000E+01
4814000000.000000      5.311584000000000E-01     -1.683516000000000E+02      3.075714000000000E-01     -2.422949000000000E+01      2.982178000000000E-01     -1.423984000000000E+02      6.460571000000000E-01     -7.750781000000000E+01
4815000000.000000      5.350342000000000E-01     -1.681562000000000E+02      3.111115000000000E-01     -2.459082000000000E+01      3.015900000000000E-01     -1.425547000000000E+02      6.466675000000000E-01     -7.723827000000000E+01
4816000000.000000      5.392151000000000E-01     -1.681172000000000E+02      3.147736000000000E-01     -2.490918000000000E+01      3.057861000000000E-01     -1.426484000000000E+02      6.477661000000000E-01     -7.701172000000000E+01
4817000000.000000      5.438232000000000E-01     -1.680078000000000E+02      3.186798000000000E-01     -2.543066000000000E+01      3.080139000000000E-01     -1.429219000000000E+02      6.489868000000000E-01     -7.691796000000000E+01
4818000000.000000      5.477600000000000E-01     -1.679766000000000E+02      3.216553000000000E-01     -2.579394000000000E+01      3.114319000000000E-01     -1.430547000000000E+02      6.507263000000000E-01     -7.675781000000000E+01
4819000000.000000      5.523376000000000E-01     -1.679062000000000E+02      3.247681000000000E-01     -2.634570000000000E+01      3.140411000000000E-01     -1.432500000000000E+02      6.536865000000000E-01     -7.664063000000000E+01
4820000000.000000      5.546570000000000E-01     -1.678203000000000E+02      3.284149000000000E-01     -2.656641000000000E+01      3.169098000000000E-01     -1.433594000000000E+02      6.541138000000000E-01     -7.640625000000000E+01
4821000000.000000      5.613403000000000E-01     -1.677109000000000E+02      3.318787000000000E-01     -2.730469000000000E+01      3.199463000000000E-01     -1.435781000000000E+02      6.552124000000000E-01     -7.632030000000000E+01
4822000000.000000      5.677795000000000E-01     -1.677344000000000E+02      3.350830000000000E-01     -2.765039000000000E+01      3.219452000000000E-01     -1.438203000000000E+02      6.579590000000000E-01     -7.612109000000000E+01
4823000000.000000      5.707397000000000E-01     -1.675313000000000E+02      3.376617000000000E-01     -2.820215000000000E+01      3.252258000000000E-01     -1.438437000000000E+02      6.601868000000000E-01     -7.604297000000000E+01
4824000000.000000      5.775452000000000E-01     -1.675625000000000E+02      3.414612000000000E-01     -2.872168000000000E+01      3.284149000000000E-01     -1.442891000000000E+02      6.632996000000000E-01     -7.579687000000000E+01
4825000000.000000      5.816345000000000E-01     -1.673984000000000E+02      3.441925000000000E-01     -2.910058000000000E+01      3.316040000000000E-01     -1.443750000000000E+02      6.652222000000000E-01     -7.569921000000000E+01
4826000000.000000      5.882874000000000E-01     -1.672656000000000E+02      3.471069000000000E-01     -2.974707000000000E+01      3.334961000000000E-01     -1.446094000000000E+02      6.685791000000000E-01     -7.567968000000000E+01
4827000000.000000      5.942688000000000E-01     -1.671172000000000E+02      3.503418000000000E-01     -3.012402000000000E+01      3.363800000000000E-01     -1.446484000000000E+02      6.714478000000000E-01     -7.545312000000000E+01
4828000000.000000      6.013489000000000E-01     -1.671328000000000E+02      3.535004000000000E-01     -3.069629000000000E+01      3.386383000000000E-01     -1.449141000000000E+02      6.746521000000000E-01     -7.544922000000000E+01
4829000000.000000      6.040955000000000E-01     -1.669453000000000E+02      3.553009000000000E-01     -3.125293000000000E+01      3.415375000000000E-01     -1.452734000000000E+02      6.774597000000000E-01     -7.524609000000000E+01
4830000000.000000      6.112061000000000E-01     -1.669297000000000E+02      3.578186000000000E-01     -3.173047000000000E+01      3.439941000000000E-01     -1.452578000000000E+02      6.791382000000000E-01     -7.518749000000000E+01
4831000000.000000      6.164246000000000E-01     -1.668516000000000E+02      3.605194000000000E-01     -3.237109000000000E+01      3.465118000000000E-01     -1.453516000000000E+02      6.827087000000000E-01     -7.515625000000000E+01
4832000000.000000      6.245117000000000E-01     -1.667578000000000E+02      3.630829000000000E-01     -3.291797000000000E+01      3.481903000000000E-01     -1.457891000000000E+02      6.860352000000000E-01     -7.504687000000000E+01
4833000000.000000      6.308899000000000E-01     -1.667891000000000E+02      3.661957000000000E-01     -3.341992000000000E+01      3.505707000000000E-01     -1.458984000000000E+02      6.903381000000000E-01     -7.499218000000000E+01
4834000000.000000      6.375122000000000E-01     -1.665937000000000E+02      3.673248000000000E-01     -3.404687000000000E+01      3.526001000000000E-01     -1.461484000000000E+02      6.927490000000000E-01     -7.492578000000000E+01
4835000000.000000      6.432800000000000E-01     -1.665625000000000E+02      3.695984000000000E-01     -3.451172000000000E+01      3.559265000000000E-01     -1.462656000000000E+02      6.966858000000000E-01     -7.492188000000000E+01
4836000000.000000      6.513977000000000E-01     -1.664297000000000E+02      3.720093000000000E-01     -3.513281000000000E+01      3.577271000000000E-01     -1.465156000000000E+02      6.998596000000000E-01     -7.472265000000000E+01
4837000000.000000      6.584473000000000E-01     -1.662812000000000E+02      3.739777000000000E-01     -3.582812000000000E+01      3.592529000000000E-01     -1.467969000000000E+02      7.033081000000000E-01     -7.469921000000000E+01
4838000000.000000      6.654358000000000E-01     -1.664063000000000E+02      3.767853000000000E-01     -3.623437000000000E+01      3.613586000000000E-01     -1.468828000000000E+02      7.070313000000000E-01     -7.464844000000000E+01
4839000000.000000      6.725159000000000E-01     -1.662109000000000E+02      3.763428000000000E-01     -3.670312000000000E+01      3.640289000000000E-01     -1.470469000000000E+02      7.115173000000000E-01     -7.457031000000000E+01
4840000000.000000      6.773987000000000E-01     -1.662109000000000E+02      3.781891000000000E-01     -3.727734000000000E+01      3.653412000000000E-01     -1.473047000000000E+02      7.151489000000000E-01     -7.464062000000000E+01
4841000000.000000      6.865540000000000E-01     -1.662891000000000E+02      3.814850000000000E-01     -3.791797000000000E+01      3.680725000000000E-01     -1.475312000000000E+02      7.202759000000000E-01     -7.457031000000000E+01
4842000000.000000      6.928711000000000E-01     -1.660781000000000E+02      3.823547000000000E-01     -3.837695000000000E+01      3.686523000000000E-01     -1.477109000000000E+02      7.253418000000000E-01     -7.455859000000000E+01
4843000000.000000      6.996460000000000E-01     -1.661562000000000E+02      3.829956000000000E-01     -3.913671000000000E+01      3.717804000000000E-01     -1.478594000000000E+02      7.283630000000000E-01     -7.455078000000000E+01
4844000000.000000      7.068481000000000E-01     -1.660391000000000E+02      3.848114000000000E-01     -3.951172000000000E+01      3.722076000000000E-01     -1.480625000000000E+02      7.331848000000000E-01     -7.455078000000000E+01
4845000000.000000      7.129211000000000E-01     -1.659922000000000E+02      3.844910000000000E-01     -4.015429000000000E+01      3.748169000000000E-01     -1.483203000000000E+02      7.367554000000000E-01     -7.454296000000000E+01
4846000000.000000      7.208862000000000E-01     -1.660000000000000E+02      3.868561000000000E-01     -4.062890000000000E+01      3.774567000000000E-01     -1.484844000000000E+02      7.409973000000000E-01     -7.451562000000000E+01
4847000000.000000      7.292480000000000E-01     -1.658906000000000E+02      3.877411000000000E-01     -4.141211000000000E+01      3.780823000000000E-01     -1.486562000000000E+02      7.465210000000000E-01     -7.459374000000000E+01
4848000000.000000      7.360535000000000E-01     -1.659219000000000E+02      3.873291000000000E-01     -4.164258000000000E+01      3.801270000000000E-01     -1.487734000000000E+02      7.502441000000000E-01     -7.457421000000000E+01
4849000000.000000      7.430420000000000E-01     -1.661406000000000E+02      3.881989000000000E-01     -4.242383000000000E+01      3.812866000000000E-01     -1.490000000000000E+02      7.550659000000000E-01     -7.442577000000000E+01
4850000000.000000      7.498169000000000E-01     -1.659375000000000E+02      3.898315000000000E-01     -4.271093000000000E+01      3.835144000000000E-01     -1.491875000000000E+02      7.596436000000000E-01     -7.457812000000000E+01
4851000000.000000      7.568970000000000E-01     -1.658828000000000E+02      3.905487000000000E-01     -4.346093000000000E+01      3.844452000000000E-01     -1.493828000000000E+02      7.652283000000000E-01     -7.462109000000000E+01
4852000000.000000      7.640686000000000E-01     -1.658437000000000E+02      3.900757000000000E-01     -4.390821000000000E+01      3.866425000000000E-01     -1.494766000000000E+02      7.698364000000000E-01     -7.457421000000000E+01
4853000000.000000      7.699585000000000E-01     -1.659141000000000E+02      3.889465000000000E-01     -4.439453000000000E+01      3.878937000000000E-01     -1.497187000000000E+02      7.739258000000000E-01     -7.471874000000000E+01
4854000000.000000      7.769165000000000E-01     -1.658750000000000E+02      3.899689000000000E-01     -4.507226000000000E+01      3.886871000000000E-01     -1.498672000000000E+02      7.789001000000000E-01     -7.464062000000000E+01
4855000000.000000      7.813110000000000E-01     -1.659375000000000E+02      3.899231000000000E-01     -4.532227000000000E+01      3.900909000000000E-01     -1.499453000000000E+02      7.828064000000000E-01     -7.470703000000000E+01
4856000000.000000      7.898560000000000E-01     -1.658750000000000E+02      3.897858000000000E-01     -4.593554000000000E+01      3.916779000000000E-01     -1.501797000000000E+02      7.895813000000000E-01     -7.474999000000000E+01
4857000000.000000      7.958069000000000E-01     -1.659062000000000E+02      3.899078000000000E-01     -4.639453000000000E+01      3.929749000000000E-01     -1.502656000000000E+02      7.928772000000000E-01     -7.472265000000000E+01
4858000000.000000      7.994995000000000E-01     -1.660156000000000E+02      3.895264000000000E-01     -4.690625000000000E+01      3.936920000000000E-01     -1.505859000000000E+02      7.968445000000000E-01     -7.487499000000000E+01
4859000000.000000      8.070984000000000E-01     -1.659844000000000E+02      3.892365000000000E-01     -4.737890000000000E+01      3.951416000000000E-01     -1.507813000000000E+02      8.031006000000000E-01     -7.488671000000000E+01
4860000000.000000      8.144836000000000E-01     -1.660156000000000E+02      3.893280000000000E-01     -4.768945000000000E+01      3.959961000000000E-01     -1.509297000000000E+02      8.075867000000000E-01     -7.494141000000000E+01
4861000000.000000      8.183594000000000E-01     -1.658672000000000E+02      3.878326000000000E-01     -4.837891000000000E+01      3.977051000000000E-01     -1.510313000000000E+02      8.118591000000000E-01     -7.506249000000000E+01
4862000000.000000      8.238220000000000E-01     -1.659375000000000E+02      3.880463000000000E-01     -4.881054000000000E+01      3.986816000000000E-01     -1.511953000000000E+02      8.187866000000000E-01     -7.516015000000000E+01
4863000000.000000      8.293762000000000E-01     -1.659297000000000E+02      3.864136000000000E-01     -4.936718000000000E+01      3.997650000000000E-01     -1.513750000000000E+02      8.236389000000000E-01     -7.518359000000000E+01
4864000000.000000      8.361206000000000E-01     -1.659844000000000E+02      3.857269000000000E-01     -4.956640000000000E+01      3.996735000000000E-01     -1.515156000000000E+02      8.271484000000000E-01     -7.530859000000000E+01
4865000000.000000      8.406372000000000E-01     -1.660547000000000E+02      3.846436000000000E-01     -5.000977000000000E+01      4.006348000000000E-01     -1.518359000000000E+02      8.335571000000000E-01     -7.523828000000000E+01
4866000000.000000      8.419189000000000E-01     -1.658594000000000E+02      3.834686000000000E-01     -5.032617000000000E+01      4.018860000000000E-01     -1.519063000000000E+02      8.370056000000000E-01     -7.531250000000000E+01
4867000000.000000      8.498840000000000E-01     -1.658281000000000E+02      3.835297000000000E-01     -5.085351000000000E+01      4.026794000000000E-01     -1.520703000000000E+02      8.442688000000000E-01     -7.550390000000000E+01
4868000000.000000      8.515015000000000E-01     -1.660078000000000E+02      3.820801000000000E-01     -5.129296000000000E+01      4.043274000000000E-01     -1.522422000000000E+02      8.465576000000000E-01     -7.555859000000000E+01
4869000000.000000      8.548584000000000E-01     -1.658828000000000E+02      3.809204000000000E-01     -5.169335000000000E+01      4.045258000000000E-01     -1.524141000000000E+02      8.518372000000000E-01     -7.575390000000000E+01
4870000000.000000      8.620911000000000E-01     -1.659297000000000E+02      3.798218000000000E-01     -5.188281000000000E+01      4.043274000000000E-01     -1.526250000000000E+02      8.573303000000000E-01     -7.567187000000000E+01
4871000000.000000      8.653870000000000E-01     -1.659765000000000E+02      3.784637000000000E-01     -5.224999000000000E+01      4.047852000000000E-01     -1.528203000000000E+02      8.607178000000000E-01     -7.583593000000000E+01
4872000000.000000      8.707886000000000E-01     -1.658203000000000E+02      3.768158000000000E-01     -5.241992000000000E+01      4.057007000000000E-01     -1.531172000000000E+02      8.670349000000000E-01     -7.596093000000000E+01
4873000000.000000      8.721924000000000E-01     -1.658359000000000E+02      3.757172000000000E-01     -5.284180000000000E+01      4.054260000000000E-01     -1.531563000000000E+02      8.692017000000000E-01     -7.609765000000000E+01
4874000000.000000      8.742371000000000E-01     -1.657266000000000E+02      3.738556000000000E-01     -5.324804000000000E+01      4.067841000000000E-01     -1.532812000000000E+02      8.743896000000000E-01     -7.599609000000000E+01
4875000000.000000      8.793335000000000E-01     -1.659531000000000E+02      3.723755000000000E-01     -5.339453000000000E+01      4.072723000000000E-01     -1.535547000000000E+02      8.779297000000000E-01     -7.625390000000000E+01
4876000000.000000      8.805847000000000E-01     -1.657109000000000E+02      3.711243000000000E-01     -5.375977000000000E+01      4.062805000000000E-01     -1.537031000000000E+02      8.816833000000000E-01     -7.635937000000000E+01
4877000000.000000      8.834534000000000E-01     -1.657109000000000E+02      3.704834000000000E-01     -5.392383000000000E+01      4.077911000000000E-01     -1.539063000000000E+02      8.877563000000000E-01     -7.661718000000000E+01
4878000000.000000      8.857117000000000E-01     -1.656875000000000E+02      3.690643000000000E-01     -5.426562000000000E+01      4.080658000000000E-01     -1.539219000000000E+02      8.907166000000000E-01     -7.664063000000000E+01
4879000000.000000      8.909607000000000E-01     -1.656484000000000E+02      3.658295000000000E-01     -5.432031000000000E+01      4.075165000000000E-01     -1.541016000000000E+02      8.940430000000000E-01     -7.666016000000000E+01
4880000000.000000      8.897095000000000E-01     -1.655391000000000E+02      3.653717000000000E-01     -5.458789000000000E+01      4.080353000000000E-01     -1.541797000000000E+02      8.995361000000000E-01     -7.678905000000000E+01
4881000000.000000      8.942871000000000E-01     -1.655547000000000E+02      3.647919000000000E-01     -5.474804000000000E+01      4.086609000000000E-01     -1.545312000000000E+02      9.035645000000000E-01     -7.700390000000000E+01
4882000000.000000      8.944092000000000E-01     -1.654297000000000E+02      3.632507000000000E-01     -5.495507000000000E+01      4.080658000000000E-01     -1.545469000000000E+02      9.066162000000000E-01     -7.699219000000000E+01
