! Network Analyzer HP8722D
! Hewlett-Packard
! Data name: Linha & Wilkinson
! Saver's name: Rodrigo Anjos
! Comments: Teste da utilização de aquisição
continua pelo VNA HP8722D
! Time and date: 6/5/2025 15:31
!              Frequency                     S11                                                   S21                                                   S12                                                   S22
# HZ  S  MA R 50
4800000000.000000      4.963074000000000E-01     -1.680938000000000E+02      2.515411000000000E-01     -1.959961000000000E+01      2.484818000000000E-01     -1.407422000000000E+02      6.478577000000000E-01     -8.035547000000000E+01
4801000000.000000      4.980011000000000E-01     -1.682031000000000E+02      2.555695000000000E-01     -1.976855000000000E+01      2.517548000000000E-01     -1.407344000000000E+02      6.471863000000000E-01     -8.012499000000000E+01
4802000000.000000      4.989014000000000E-01     -1.682578000000000E+02      2.592468000000000E-01     -1.989648000000000E+01      2.558441000000000E-01     -1.408047000000000E+02      6.455383000000000E-01     -7.981640000000000E+01
4803000000.000000      5.003662000000000E-01     -1.683672000000000E+02      2.642822000000000E-01     -2.013672000000000E+01      2.587738000000000E-01     -1.409453000000000E+02      6.441956000000000E-01     -7.972265000000000E+01
4804000000.000000      5.032349000000000E-01     -1.683437000000000E+02      2.678223000000000E-01     -2.050000000000000E+01      2.626648000000000E-01     -1.410391000000000E+02      6.444702000000000E-01     -7.940234000000000E+01
4805000000.000000      5.057068000000000E-01     -1.683828000000000E+02      2.720947000000000E-01     -2.080469000000000E+01      2.668610000000000E-01     -1.410859000000000E+02      6.446838000000000E-01     -7.933984000000000E+01
4806000000.000000      5.065308000000000E-01     -1.683672000000000E+02      2.757568000000000E-01     -2.104980000000000E+01      2.693787000000000E-01     -1.410625000000000E+02      6.438904000000000E-01     -7.910937000000000E+01
4807000000.000000      5.096436000000000E-01     -1.683906000000000E+02      2.802429000000000E-01     -2.142285000000000E+01      2.734680000000000E-01     -1.413359000000000E+02      6.427307000000000E-01     -7.883984000000000E+01
4808000000.000000      5.125427000000000E-01     -1.683047000000000E+02      2.842865000000000E-01     -2.158984000000000E+01      2.764893000000000E-01     -1.414453000000000E+02      6.418152000000000E-01     -7.857031000000000E+01
4809000000.000000      5.150146000000000E-01     -1.683437000000000E+02      2.875824000000000E-01     -2.210059000000000E+01      2.806854000000000E-01     -1.415469000000000E+02      6.434326000000000E-01     -7.843359000000000E+01
4810000000.000000      5.180359000000000E-01     -1.683828000000000E+02      2.924957000000000E-01     -2.241211000000000E+01      2.841339000000000E-01     -1.416406000000000E+02      6.434631000000000E-01     -7.826953000000000E+01
4811000000.000000      5.209351000000000E-01     -1.682422000000000E+02      2.960052000000000E-01     -2.297852000000000E+01      2.886810000000000E-01     -1.417969000000000E+02      6.434631000000000E-01     -7.793750000000000E+01
4812000000.000000      5.252991000000000E-01     -1.682578000000000E+02      2.993469000000000E-01     -2.323828000000000E+01      2.910004000000000E-01     -1.418516000000000E+02      6.446228000000000E-01     -7.788671000000000E+01
4813000000.000000      5.278320000000000E-01     -1.681406000000000E+02      3.036957000000000E-01     -2.358789000000000E+01      2.943268000000000E-01     -1.419766000000000E+02      6.460571000000000E-01     -7.756640000000000E+01
4814000000.000000      5.301514000000000E-01     -1.682188000000000E+02      3.070221000000000E-01     -2.388867000000000E+01      2.975922000000000E-01     -1.421953000000000E+02      6.457825000000000E-01     -7.740624000000000E+01
4815000000.000000      5.335693000000000E-01     -1.680781000000000E+02      3.098755000000000E-01     -2.442578000000000E+01      3.004761000000000E-01     -1.422656000000000E+02      6.457825000000000E-01     -7.712891000000000E+01
4816000000.000000      5.386353000000000E-01     -1.680000000000000E+02      3.145752000000000E-01     -2.469629000000000E+01      3.047638000000000E-01     -1.424062000000000E+02      6.476440000000000E-01     -7.696875000000000E+01
4817000000.000000      5.427856000000000E-01     -1.679453000000000E+02      3.187408000000000E-01     -2.534961000000000E+01      3.077698000000000E-01     -1.427109000000000E+02      6.485901000000000E-01     -7.687500000000000E+01
4818000000.000000      5.466309000000000E-01     -1.679141000000000E+02      3.212585000000000E-01     -2.573339000000000E+01      3.105927000000000E-01     -1.427266000000000E+02      6.499634000000000E-01     -7.674609000000000E+01
4819000000.000000      5.514832000000000E-01     -1.678125000000000E+02      3.246460000000000E-01     -2.612988000000000E+01      3.131409000000000E-01     -1.429844000000000E+02      6.530457000000000E-01     -7.674609000000000E+01
4820000000.000000      5.538940000000000E-01     -1.677891000000000E+02      3.281403000000000E-01     -2.657227000000000E+01      3.165131000000000E-01     -1.430938000000000E+02      6.542053000000000E-01     -7.637500000000000E+01
4821000000.000000      5.601807000000000E-01     -1.676406000000000E+02      3.314209000000000E-01     -2.695410000000000E+01      3.194427000000000E-01     -1.434297000000000E+02      6.555481000000000E-01     -7.627343000000000E+01
4822000000.000000      5.668335000000000E-01     -1.676094000000000E+02      3.340912000000000E-01     -2.742188000000000E+01      3.216858000000000E-01     -1.435703000000000E+02      6.586304000000000E-01     -7.615624000000000E+01
4823000000.000000      5.697632000000000E-01     -1.674531000000000E+02      3.383331000000000E-01     -2.790136000000000E+01      3.249359000000000E-01     -1.436563000000000E+02      6.602478000000000E-01     -7.598437000000000E+01
4824000000.000000      5.772705000000000E-01     -1.674141000000000E+02      3.414459000000000E-01     -2.853906000000000E+01      3.287354000000000E-01     -1.439297000000000E+02      6.630554000000000E-01     -7.581640000000000E+01
4825000000.000000      5.812073000000000E-01     -1.673203000000000E+02      3.441010000000000E-01     -2.902734000000000E+01      3.315277000000000E-01     -1.441406000000000E+02      6.647034000000000E-01     -7.570313000000000E+01
4826000000.000000      5.874023000000000E-01     -1.671719000000000E+02      3.470459000000000E-01     -2.956055000000000E+01      3.335266000000000E-01     -1.444141000000000E+02      6.685486000000000E-01     -7.550390000000000E+01
4827000000.000000      5.932007000000000E-01     -1.670547000000000E+02      3.499146000000000E-01     -2.985742000000000E+01      3.347473000000000E-01     -1.445469000000000E+02      6.701355000000000E-01     -7.548046000000000E+01
4828000000.000000      5.995789000000000E-01     -1.670078000000000E+02      3.529205000000000E-01     -3.050586000000000E+01      3.378448000000000E-01     -1.446640000000000E+02      6.740417000000000E-01     -7.539844000000000E+01
4829000000.000000      6.029663000000000E-01     -1.668828000000000E+02      3.548584000000000E-01     -3.095898000000000E+01      3.409729000000000E-01     -1.448203000000000E+02      6.759949000000000E-01     -7.521874000000000E+01
4830000000.000000      6.105652000000000E-01     -1.668125000000000E+02      3.576355000000000E-01     -3.157227000000000E+01      3.434143000000000E-01     -1.450781000000000E+02      6.786804000000000E-01     -7.524609000000000E+01
4831000000.000000      6.154175000000000E-01     -1.667578000000000E+02      3.602448000000000E-01     -3.227148000000000E+01      3.455811000000000E-01     -1.452188000000000E+02      6.829834000000000E-01     -7.511328000000000E+01
4832000000.000000      6.238403000000000E-01     -1.666406000000000E+02      3.629150000000000E-01     -3.266406000000000E+01      3.486786000000000E-01     -1.453828000000000E+02      6.856079000000000E-01     -7.506249000000000E+01
4833000000.000000      6.301575000000000E-01     -1.666797000000000E+02      3.657379000000000E-01     -3.323437000000000E+01      3.506165000000000E-01     -1.457187000000000E+02      6.886902000000000E-01     -7.494531000000000E+01
4834000000.000000      6.365662000000000E-01     -1.665078000000000E+02      3.672180000000000E-01     -3.373437000000000E+01      3.525391000000000E-01     -1.458828000000000E+02      6.919250000000000E-01     -7.491796000000000E+01
4835000000.000000      6.424866000000000E-01     -1.664297000000000E+02      3.691406000000000E-01     -3.434961000000000E+01      3.560638000000000E-01     -1.461797000000000E+02      6.955261000000000E-01     -7.485937000000000E+01
4836000000.000000      6.509094000000000E-01     -1.663047000000000E+02      3.716888000000000E-01     -3.476171000000000E+01      3.565369000000000E-01     -1.461719000000000E+02      6.986389000000000E-01     -7.478125000000000E+01
4837000000.000000      6.571960000000000E-01     -1.661875000000000E+02      3.732300000000000E-01     -3.573633000000000E+01      3.601074000000000E-01     -1.465391000000000E+02      7.031860000000000E-01     -7.467578000000000E+01
4838000000.000000      6.641541000000000E-01     -1.662656000000000E+02      3.756409000000000E-01     -3.604687000000000E+01      3.617401000000000E-01     -1.467187000000000E+02      7.070313000000000E-01     -7.467968000000000E+01
4839000000.000000      6.711426000000000E-01     -1.660703000000000E+02      3.769836000000000E-01     -3.646484000000000E+01      3.630981000000000E-01     -1.467578000000000E+02      7.118225000000000E-01     -7.459765000000000E+01
4840000000.000000      6.769104000000000E-01     -1.661016000000000E+02      3.783417000000000E-01     -3.708008000000000E+01      3.662720000000000E-01     -1.471562000000000E+02      7.154236000000000E-01     -7.460155000000000E+01
4841000000.000000      6.851501000000000E-01     -1.661406000000000E+02      3.808899000000000E-01     -3.779297000000000E+01      3.674622000000000E-01     -1.473359000000000E+02      7.196350000000000E-01     -7.461328000000000E+01
4842000000.000000      6.918945000000000E-01     -1.659375000000000E+02      3.817902000000000E-01     -3.816015000000000E+01      3.687134000000000E-01     -1.475469000000000E+02      7.245789000000000E-01     -7.445313000000000E+01
4843000000.000000      6.987000000000000E-01     -1.660000000000000E+02      3.834076000000000E-01     -3.893164000000000E+01      3.710938000000000E-01     -1.477109000000000E+02      7.280884000000000E-01     -7.445313000000000E+01
4844000000.000000      7.054443000000000E-01     -1.660078000000000E+02      3.843231000000000E-01     -3.936132000000000E+01      3.725586000000000E-01     -1.478594000000000E+02      7.322388000000000E-01     -7.448828000000000E+01
4845000000.000000      7.127075000000000E-01     -1.658047000000000E+02      3.851013000000000E-01     -3.981640000000000E+01      3.747406000000000E-01     -1.480703000000000E+02      7.368774000000000E-01     -7.442187000000000E+01
4846000000.000000      7.196655000000000E-01     -1.657734000000000E+02      3.861237000000000E-01     -4.037499000000000E+01      3.771973000000000E-01     -1.481797000000000E+02      7.416382000000000E-01     -7.445313000000000E+01
4847000000.000000      7.275391000000000E-01     -1.658047000000000E+02      3.873138000000000E-01     -4.094727000000000E+01      3.785858000000000E-01     -1.484844000000000E+02      7.471008000000000E-01     -7.454687000000000E+01
4848000000.000000      7.350159000000000E-01     -1.657500000000000E+02      3.876648000000000E-01     -4.138867000000000E+01      3.802948000000000E-01     -1.485547000000000E+02      7.502136000000000E-01     -7.450000000000000E+01
4849000000.000000      7.420654000000000E-01     -1.660000000000000E+02      3.881378000000000E-01     -4.212110000000000E+01      3.818665000000000E-01     -1.487969000000000E+02      7.550354000000000E-01     -7.439062000000000E+01
4850000000.000000      7.491455000000000E-01     -1.657422000000000E+02      3.890228000000000E-01     -4.259179000000000E+01      3.834534000000000E-01     -1.489609000000000E+02      7.593689000000000E-01     -7.446094000000000E+01
4851000000.000000      7.558899000000000E-01     -1.657812000000000E+02      3.903656000000000E-01     -4.311913000000000E+01      3.845978000000000E-01     -1.490781000000000E+02      7.651062000000000E-01     -7.448828000000000E+01
4852000000.000000      7.632141000000000E-01     -1.657344000000000E+02      3.899231000000000E-01     -4.361718000000000E+01      3.864136000000000E-01     -1.493203000000000E+02      7.691650000000000E-01     -7.452734000000000E+01
4853000000.000000      7.701111000000000E-01     -1.657266000000000E+02      3.892212000000000E-01     -4.426758000000000E+01      3.878326000000000E-01     -1.495078000000000E+02      7.740784000000000E-01     -7.464453000000000E+01
4854000000.000000      7.764587000000000E-01     -1.657500000000000E+02      3.903503000000000E-01     -4.484961000000000E+01      3.890839000000000E-01     -1.496875000000000E+02      7.783813000000000E-01     -7.472656000000000E+01
4855000000.000000      7.812805000000000E-01     -1.657812000000000E+02      3.890381000000000E-01     -4.512695000000000E+01      3.905792000000000E-01     -1.497734000000000E+02      7.822571000000000E-01     -7.465625000000000E+01
4856000000.000000      7.894897000000000E-01     -1.656953000000000E+02      3.897247000000000E-01     -4.569726000000000E+01      3.922577000000000E-01     -1.499844000000000E+02      7.873840000000000E-01     -7.470703000000000E+01
4857000000.000000      7.947998000000000E-01     -1.658203000000000E+02      3.899689000000000E-01     -4.622266000000000E+01      3.929901000000000E-01     -1.501328000000000E+02      7.925110000000000E-01     -7.471484000000000E+01
4858000000.000000      7.987671000000000E-01     -1.657266000000000E+02      3.895874000000000E-01     -4.667773000000000E+01      3.937988000000000E-01     -1.503828000000000E+02      7.976990000000000E-01     -7.486718000000000E+01
4859000000.000000      8.089905000000000E-01     -1.657969000000000E+02      3.898010000000000E-01     -4.711328000000000E+01      3.951416000000000E-01     -1.506094000000000E+02      8.037109000000000E-01     -7.488671000000000E+01
4860000000.000000      8.142395000000000E-01     -1.657344000000000E+02      3.888245000000000E-01     -4.748047000000000E+01      3.961945000000000E-01     -1.507344000000000E+02      8.080750000000000E-01     -7.483984000000000E+01
4861000000.000000      8.198242000000000E-01     -1.656016000000000E+02      3.876801000000000E-01     -4.831249000000000E+01      3.974457000000000E-01     -1.509140000000000E+02      8.117065000000000E-01     -7.508203000000000E+01
4862000000.000000      8.227539000000000E-01     -1.657578000000000E+02      3.876648000000000E-01     -4.856250000000000E+01      3.989868000000000E-01     -1.510859000000000E+02      8.181152000000000E-01     -7.496484000000000E+01
4863000000.000000      8.285217000000000E-01     -1.658750000000000E+02      3.865662000000000E-01     -4.910742000000000E+01      4.003448000000000E-01     -1.510859000000000E+02      8.230286000000000E-01     -7.508984000000000E+01
4864000000.000000      8.363647000000000E-01     -1.657578000000000E+02      3.859100000000000E-01     -4.934765000000000E+01      4.002838000000000E-01     -1.513125000000000E+02      8.265381000000000E-01     -7.516796000000000E+01
4865000000.000000      8.380127000000000E-01     -1.659297000000000E+02      3.848572000000000E-01     -4.968750000000000E+01      4.013367000000000E-01     -1.515781000000000E+02      8.323669000000000E-01     -7.514843000000000E+01
4866000000.000000      8.424683000000000E-01     -1.657969000000000E+02      3.840332000000000E-01     -5.015038000000000E+01      4.024353000000000E-01     -1.517656000000000E+02      8.359375000000000E-01     -7.524609000000000E+01
4867000000.000000      8.485718000000000E-01     -1.658594000000000E+02      3.833771000000000E-01     -5.071679000000000E+01      4.031525000000000E-01     -1.518437000000000E+02      8.427124000000000E-01     -7.529687000000000E+01
4868000000.000000      8.534241000000000E-01     -1.658750000000000E+02      3.817596000000000E-01     -5.113086000000000E+01      4.042511000000000E-01     -1.520156000000000E+02      8.457336000000000E-01     -7.542578000000000E+01
4869000000.000000      8.550110000000000E-01     -1.657422000000000E+02      3.807220000000000E-01     -5.143555000000000E+01      4.048004000000000E-01     -1.522891000000000E+02      8.517761000000000E-01     -7.572266000000000E+01
4870000000.000000      8.608704000000000E-01     -1.658281000000000E+02      3.800812000000000E-01     -5.150976000000000E+01      4.049683000000000E-01     -1.524297000000000E+02      8.562012000000000E-01     -7.553905000000000E+01
4871000000.000000      8.644104000000000E-01     -1.657656000000000E+02      3.794861000000000E-01     -5.202343000000000E+01      4.049988000000000E-01     -1.526250000000000E+02      8.605347000000000E-01     -7.580468000000000E+01
4872000000.000000      8.678589000000000E-01     -1.657109000000000E+02      3.769989000000000E-01     -5.231640000000000E+01      4.056702000000000E-01     -1.529063000000000E+02      8.665466000000000E-01     -7.591797000000000E+01
4873000000.000000      8.709106000000000E-01     -1.656875000000000E+02      3.760223000000000E-01     -5.262500000000000E+01      4.064331000000000E-01     -1.529844000000000E+02      8.689880000000000E-01     -7.592187000000000E+01
4874000000.000000      8.742676000000000E-01     -1.656172000000000E+02      3.741913000000000E-01     -5.294726000000000E+01      4.075928000000000E-01     -1.530547000000000E+02      8.735962000000000E-01     -7.592187000000000E+01
4875000000.000000      8.791199000000000E-01     -1.656953000000000E+02      3.731537000000000E-01     -5.324804000000000E+01      4.077759000000000E-01     -1.533828000000000E+02      8.780823000000000E-01     -7.623047000000000E+01
4876000000.000000      8.811035000000000E-01     -1.655469000000000E+02      3.713074000000000E-01     -5.349609000000000E+01      4.069672000000000E-01     -1.534531000000000E+02      8.832397000000000E-01     -7.643359000000000E+01
4877000000.000000      8.843689000000000E-01     -1.655937000000000E+02      3.703613000000000E-01     -5.373437000000000E+01      4.082489000000000E-01     -1.537344000000000E+02      8.876343000000000E-01     -7.635937000000000E+01
4878000000.000000      8.874512000000000E-01     -1.654453000000000E+02      3.696899000000000E-01     -5.392383000000000E+01      4.079895000000000E-01     -1.537422000000000E+02      8.926392000000000E-01     -7.651953000000000E+01
4879000000.000000      8.879395000000000E-01     -1.655078000000000E+02      3.672333000000000E-01     -5.432422000000000E+01      4.079132000000000E-01     -1.539453000000000E+02      8.959045000000000E-01     -7.656250000000000E+01
4880000000.000000      8.894958000000000E-01     -1.654297000000000E+02      3.660889000000000E-01     -5.440430000000000E+01      4.087067000000000E-01     -1.540547000000000E+02      8.996582000000000E-01     -7.671875000000000E+01
4881000000.000000      8.935547000000000E-01     -1.652109000000000E+02      3.657837000000000E-01     -5.457812000000000E+01      4.091187000000000E-01     -1.542734000000000E+02      9.045410000000000E-01     -7.691015000000000E+01
4882000000.000000      8.945007000000000E-01     -1.652656000000000E+02      3.633881000000000E-01     -5.490429000000000E+01      4.086609000000000E-01     -1.543828000000000E+02      9.070435000000000E-01     -7.691015000000000E+01
