! Network Analyzer HP8722D
! Hewlett-Packard
! Data name: Linha & Wilkinson
! Saver's name: Rodrigo Anjos
! Comments: Teste da utilização de aquisição
continua pelo VNA HP8722D
! Time and date: 6/5/2025 12:58
!              Frequency                     S11                                                   S21                                                   S12                                                   S22
# HZ  S  MA R 50
4800000000.000000      9.045715000000000E-01      1.158555000000000E+02      3.200684000000000E-01     -1.704766000000000E+02      2.563934000000000E-01     -8.592968000000000E+01      9.834595000000000E-01     -4.747070000000000E+01
4801000000.000000      9.020996000000000E-01      1.160820000000000E+02      3.188477000000000E-01     -1.703438000000000E+02      2.564697000000000E-01     -8.591406000000000E+01      9.783325000000000E-01     -4.757813000000000E+01
4802000000.000000      8.997192000000000E-01      1.162578000000000E+02      3.185577000000000E-01     -1.702344000000000E+02      2.569122000000000E-01     -8.566406000000000E+01      9.746704000000000E-01     -4.750586000000000E+01
4803000000.000000      8.981323000000000E-01      1.164336000000000E+02      3.201752000000000E-01     -1.702266000000000E+02      2.562103000000000E-01     -8.549608000000000E+01      9.681091000000000E-01     -4.769531000000000E+01
4804000000.000000      8.960876000000000E-01      1.168281000000000E+02      3.201904000000000E-01     -1.701719000000000E+02      2.565918000000000E-01     -8.544922000000000E+01      9.628601000000000E-01     -4.765429000000000E+01
4805000000.000000      8.958130000000000E-01      1.171016000000000E+02      3.206329000000000E-01     -1.702578000000000E+02      2.562103000000000E-01     -8.518749000000000E+01      9.568481000000000E-01     -4.768359000000000E+01
4806000000.000000      8.949280000000000E-01      1.174141000000000E+02      3.205719000000000E-01     -1.701562000000000E+02      2.554474000000000E-01     -8.486328000000000E+01      9.501648000000000E-01     -4.794922000000000E+01
4807000000.000000      8.909912000000000E-01      1.175234000000000E+02      3.217163000000000E-01     -1.703438000000000E+02      2.562866000000000E-01     -8.477343000000000E+01      9.467468000000000E-01     -4.786914000000000E+01
4808000000.000000      8.906860000000000E-01      1.178203000000000E+02      3.222351000000000E-01     -1.701094000000000E+02      2.562256000000000E-01     -8.463282000000000E+01      9.403687000000000E-01     -4.801562000000000E+01
4809000000.000000      8.858643000000000E-01      1.180312000000000E+02      3.221436000000000E-01     -1.702188000000000E+02      2.566986000000000E-01     -8.439062000000000E+01      9.365540000000000E-01     -4.802734000000000E+01
4810000000.000000      8.837585000000000E-01      1.182773000000000E+02      3.229370000000000E-01     -1.700156000000000E+02      2.559662000000000E-01     -8.407030000000000E+01      9.294739000000000E-01     -4.817383000000000E+01
4811000000.000000      8.842163000000000E-01      1.185390000000000E+02      3.236084000000000E-01     -1.703516000000000E+02      2.571869000000000E-01     -8.383593000000000E+01      9.250183000000000E-01     -4.806054000000000E+01
4812000000.000000      8.804626000000000E-01      1.188477000000000E+02      3.235931000000000E-01     -1.702344000000000E+02      2.563477000000000E-01     -8.361328000000000E+01      9.177551000000000E-01     -4.823047000000000E+01
4813000000.000000      8.776855000000000E-01      1.189570000000000E+02      3.246613000000000E-01     -1.701797000000000E+02      2.561646000000000E-01     -8.335938000000000E+01      9.143982000000000E-01     -4.820703000000000E+01
4814000000.000000      8.721924000000000E-01      1.191953000000000E+02      3.251190000000000E-01     -1.701875000000000E+02      2.565918000000000E-01     -8.306250000000000E+01      9.091797000000000E-01     -4.835155000000000E+01
4815000000.000000      8.703308000000000E-01      1.196250000000000E+02      3.254395000000000E-01     -1.702422000000000E+02      2.563019000000000E-01     -8.278515000000000E+01      9.037170000000000E-01     -4.830273000000000E+01
4816000000.000000      8.712463000000000E-01      1.197383000000000E+02      3.269958000000000E-01     -1.702734000000000E+02      2.570496000000000E-01     -8.256250000000000E+01      8.984680000000000E-01     -4.840234000000000E+01
4817000000.000000      8.674622000000000E-01      1.200664000000000E+02      3.273773000000000E-01     -1.703906000000000E+02      2.565002000000000E-01     -8.228516000000000E+01      8.925476000000000E-01     -4.847851000000000E+01
4818000000.000000      8.638306000000000E-01      1.201211000000000E+02      3.272095000000000E-01     -1.704062000000000E+02      2.565460000000000E-01     -8.186327000000000E+01      8.864136000000000E-01     -4.847461000000000E+01
4819000000.000000      8.625488000000000E-01      1.203516000000000E+02      3.278351000000000E-01     -1.704687000000000E+02      2.555389000000000E-01     -8.173437000000000E+01      8.808594000000000E-01     -4.876171000000000E+01
4820000000.000000      8.536987000000000E-01      1.207344000000000E+02      3.284912000000000E-01     -1.704453000000000E+02      2.561646000000000E-01     -8.126953000000000E+01      8.778687000000000E-01     -4.862305000000000E+01
4821000000.000000      8.557434000000000E-01      1.207773000000000E+02      3.299713000000000E-01     -1.706094000000000E+02      2.564697000000000E-01     -8.112890000000000E+01      8.711548000000000E-01     -4.865039000000000E+01
4822000000.000000      8.529663000000000E-01      1.207813000000000E+02      3.300781000000000E-01     -1.707422000000000E+02      2.554321000000000E-01     -8.089844000000000E+01      8.671570000000000E-01     -4.884570000000000E+01
4823000000.000000      8.470459000000000E-01      1.211055000000000E+02      3.312836000000000E-01     -1.707109000000000E+02      2.557068000000000E-01     -8.032421000000000E+01      8.614197000000000E-01     -4.878711000000000E+01
4824000000.000000      8.461304000000000E-01      1.212148000000000E+02      3.314819000000000E-01     -1.712344000000000E+02      2.557220000000000E-01     -8.014063000000000E+01      8.562317000000000E-01     -4.889648000000000E+01
4825000000.000000      8.418884000000000E-01      1.214492000000000E+02      3.320007000000000E-01     -1.712031000000000E+02      2.559814000000000E-01     -7.988671000000000E+01      8.519592000000000E-01     -4.909765000000000E+01
4826000000.000000      8.375244000000000E-01      1.216406000000000E+02      3.329773000000000E-01     -1.712578000000000E+02      2.552643000000000E-01     -7.958984000000000E+01      8.466492000000000E-01     -4.908593000000000E+01
4827000000.000000      8.334351000000000E-01      1.217812000000000E+02      3.330994000000000E-01     -1.713516000000000E+02      2.556915000000000E-01     -7.921093000000000E+01      8.416748000000000E-01     -4.916797000000000E+01
4828000000.000000      8.299866000000000E-01      1.218750000000000E+02      3.345032000000000E-01     -1.716016000000000E+02      2.553101000000000E-01     -7.893359000000000E+01      8.379822000000000E-01     -4.940430000000000E+01
4829000000.000000      8.233643000000000E-01      1.221680000000000E+02      3.336792000000000E-01     -1.717891000000000E+02      2.563629000000000E-01     -7.862109000000000E+01      8.347168000000000E-01     -4.930664000000000E+01
4830000000.000000      8.210144000000000E-01      1.221914000000000E+02      3.348846000000000E-01     -1.719297000000000E+02      2.556152000000000E-01     -7.807812000000000E+01      8.282166000000000E-01     -4.939062000000000E+01
4831000000.000000      8.148804000000000E-01      1.222734000000000E+02      3.345337000000000E-01     -1.720625000000000E+02      2.558136000000000E-01     -7.773046000000000E+01      8.241577000000000E-01     -4.940430000000000E+01
4832000000.000000      8.107605000000000E-01      1.223789000000000E+02      3.354034000000000E-01     -1.723516000000000E+02      2.551727000000000E-01     -7.738671000000000E+01      8.190002000000000E-01     -4.944140000000000E+01
4833000000.000000      8.077393000000000E-01      1.224062000000000E+02      3.359985000000000E-01     -1.725781000000000E+02      2.554016000000000E-01     -7.707812000000000E+01      8.150940000000000E-01     -4.952538000000000E+01
4834000000.000000      8.035889000000000E-01      1.225156000000000E+02      3.360748000000000E-01     -1.727500000000000E+02      2.560883000000000E-01     -7.678905000000000E+01      8.097839000000000E-01     -4.961719000000000E+01
4835000000.000000      7.988281000000000E-01      1.225352000000000E+02      3.358459000000000E-01     -1.728828000000000E+02      2.563324000000000E-01     -7.648438000000000E+01      8.055725000000000E-01     -4.974609000000000E+01
4836000000.000000      7.962341000000000E-01      1.226406000000000E+02      3.356323000000000E-01     -1.731953000000000E+02      2.562256000000000E-01     -7.610937000000000E+01      8.035278000000000E-01     -4.970312000000000E+01
4837000000.000000      7.904663000000000E-01      1.228594000000000E+02      3.366394000000000E-01     -1.736328000000000E+02      2.565002000000000E-01     -7.583593000000000E+01      7.985535000000000E-01     -4.968750000000000E+01
4838000000.000000      7.833557000000000E-01      1.225742000000000E+02      3.370056000000000E-01     -1.736250000000000E+02      2.566223000000000E-01     -7.528125000000000E+01      7.945557000000000E-01     -4.983007000000000E+01
4839000000.000000      7.794495000000000E-01      1.228984000000000E+02      3.362122000000000E-01     -1.736641000000000E+02      2.563934000000000E-01     -7.514843000000000E+01      7.916565000000000E-01     -4.990820000000000E+01
4840000000.000000      7.735901000000000E-01      1.227851000000000E+02      3.361664000000000E-01     -1.739531000000000E+02      2.571259000000000E-01     -7.476953000000000E+01      7.879028000000000E-01     -5.010742000000000E+01
4841000000.000000      7.682800000000000E-01      1.227578000000000E+02      3.359070000000000E-01     -1.743750000000000E+02      2.573242000000000E-01     -7.440624000000000E+01      7.852783000000000E-01     -5.004296000000000E+01
4842000000.000000      7.646484000000000E-01      1.227539000000000E+02      3.358917000000000E-01     -1.745469000000000E+02      2.571411000000000E-01     -7.405078000000000E+01      7.824402000000000E-01     -5.012500000000000E+01
4843000000.000000      7.575684000000000E-01      1.226289000000000E+02      3.360901000000000E-01     -1.747890000000000E+02      2.575684000000000E-01     -7.370703000000000E+01      7.777405000000000E-01     -5.009766000000000E+01
4844000000.000000      7.514343000000000E-01      1.226563000000000E+02      3.359528000000000E-01     -1.751016000000000E+02      2.575989000000000E-01     -7.329687000000000E+01      7.738037000000000E-01     -5.026562000000000E+01
4845000000.000000      7.460632000000000E-01      1.226992000000000E+02      3.355560000000000E-01     -1.751953000000000E+02      2.582397000000000E-01     -7.302734000000000E+01      7.703552000000000E-01     -5.026367000000000E+01
4846000000.000000      7.415466000000000E-01      1.227891000000000E+02      3.352509000000000E-01     -1.755234000000000E+02      2.591858000000000E-01     -7.275781000000000E+01      7.677917000000000E-01     -5.031445000000000E+01
4847000000.000000      7.328491000000000E-01      1.226172000000000E+02      3.350067000000000E-01     -1.757187000000000E+02      2.590179000000000E-01     -7.249218000000000E+01      7.646790000000000E-01     -5.045116000000000E+01
4848000000.000000      7.299194000000000E-01      1.223242000000000E+02      3.342285000000000E-01     -1.760313000000000E+02      2.591400000000000E-01     -7.208202000000000E+01      7.598267000000000E-01     -5.052343000000000E+01
4849000000.000000      7.234802000000000E-01      1.222461000000000E+02      3.331757000000000E-01     -1.763594000000000E+02      2.592010000000000E-01     -7.167578000000000E+01      7.572632000000000E-01     -5.045898000000000E+01
4850000000.000000      7.196045000000000E-01      1.222383000000000E+02      3.332825000000000E-01     -1.765703000000000E+02      2.593689000000000E-01     -7.146484000000000E+01      7.545166000000000E-01     -5.055664000000000E+01
4851000000.000000      7.123108000000000E-01      1.220976000000000E+02      3.330078000000000E-01     -1.768125000000000E+02      2.600250000000000E-01     -7.117188000000000E+01      7.533875000000000E-01     -5.068554000000000E+01
4852000000.000000      7.066040000000000E-01      1.218945000000000E+02      3.316650000000000E-01     -1.770078000000000E+02      2.605438000000000E-01     -7.085546000000000E+01      7.493286000000000E-01     -5.070898000000000E+01
4853000000.000000      7.020874000000000E-01      1.216914000000000E+02      3.307190000000000E-01     -1.772734000000000E+02      2.608337000000000E-01     -7.052734000000000E+01      7.463684000000000E-01     -5.083008000000000E+01
4854000000.000000      6.947937000000000E-01      1.216523000000000E+02      3.303986000000000E-01     -1.776797000000000E+02      2.612000000000000E-01     -7.026953000000000E+01      7.447510000000000E-01     -5.085742000000000E+01
4855000000.000000      6.878967000000000E-01      1.213203000000000E+02      3.294830000000000E-01     -1.777578000000000E+02      2.614899000000000E-01     -6.985937000000000E+01      7.398071000000000E-01     -5.083398000000000E+01
4856000000.000000      6.834106000000000E-01      1.212226000000000E+02      3.285522000000000E-01     -1.779375000000000E+02      2.612762000000000E-01     -6.969531000000000E+01      7.386169000000000E-01     -5.091015000000000E+01
4857000000.000000      6.763611000000000E-01      1.210039000000000E+02      3.275146000000000E-01     -1.781172000000000E+02      2.619629000000000E-01     -6.929296000000000E+01      7.358704000000000E-01     -5.092187000000000E+01
4858000000.000000      6.689453000000000E-01      1.207422000000000E+02      3.272095000000000E-01     -1.783047000000000E+02      2.618866000000000E-01     -6.912890000000000E+01      7.325745000000000E-01     -5.113281000000000E+01
4859000000.000000      6.633911000000000E-01      1.204453000000000E+02      3.265076000000000E-01     -1.786094000000000E+02      2.626343000000000E-01     -6.903906000000000E+01      7.327271000000000E-01     -5.120898000000000E+01
4860000000.000000      6.574097000000000E-01      1.202930000000000E+02      3.254852000000000E-01     -1.787266000000000E+02      2.626801000000000E-01     -6.860937000000000E+01      7.281494000000000E-01     -5.110156000000000E+01
4861000000.000000      6.511841000000000E-01      1.200937000000000E+02      3.238220000000000E-01     -1.790469000000000E+02      2.636108000000000E-01     -6.837500000000000E+01      7.254333000000000E-01     -5.130468000000000E+01
4862000000.000000      6.452637000000000E-01      1.196406000000000E+02      3.232727000000000E-01     -1.792109000000000E+02      2.639313000000000E-01     -6.808594000000000E+01      7.248535000000000E-01     -5.136913000000000E+01
4863000000.000000      6.394958000000000E-01      1.194609000000000E+02      3.212433000000000E-01     -1.795391000000000E+02      2.644958000000000E-01     -6.794531000000000E+01      7.219849000000000E-01     -5.132813000000000E+01
4864000000.000000      6.327820000000000E-01      1.189961000000000E+02      3.216248000000000E-01     -1.795938000000000E+02      2.646179000000000E-01     -6.770702000000000E+01      7.194519000000000E-01     -5.141406000000000E+01
4865000000.000000      6.253967000000000E-01      1.185664000000000E+02      3.191986000000000E-01     -1.796641000000000E+02      2.648621000000000E-01     -6.760156000000000E+01      7.185669000000000E-01     -5.140234000000000E+01
4866000000.000000      6.192322000000000E-01      1.183398000000000E+02      3.182220000000000E-01     -1.799766000000000E+02      2.652283000000000E-01     -6.748437000000000E+01      7.156982000000000E-01     -5.142383000000000E+01
4867000000.000000      6.132202000000000E-01      1.179258000000000E+02      3.176727000000000E-01      1.797344000000000E+02      2.652588000000000E-01     -6.718750000000000E+01      7.141113000000000E-01     -5.139843000000000E+01
4868000000.000000      6.083679000000000E-01      1.175937000000000E+02      3.161316000000000E-01      1.797344000000000E+02      2.657776000000000E-01     -6.705859000000000E+01      7.115784000000000E-01     -5.142968000000000E+01
4869000000.000000      6.025085000000000E-01      1.171406000000000E+02      3.146973000000000E-01      1.794453000000000E+02      2.658844000000000E-01     -6.686718000000000E+01      7.090759000000000E-01     -5.163671000000000E+01
4870000000.000000      5.957642000000000E-01      1.166875000000000E+02      3.137054000000000E-01      1.796016000000000E+02      2.663727000000000E-01     -6.678905000000000E+01      7.084351000000000E-01     -5.156836000000000E+01
4871000000.000000      5.911255000000000E-01      1.162461000000000E+02      3.129883000000000E-01      1.792266000000000E+02      2.662659000000000E-01     -6.653515000000000E+01      7.051086000000000E-01     -5.170898000000000E+01
4872000000.000000      5.865479000000000E-01      1.159375000000000E+02      3.110504000000000E-01      1.792734000000000E+02      2.664185000000000E-01     -6.666797000000000E+01      7.033386000000000E-01     -5.166210000000000E+01
4873000000.000000      5.806580000000000E-01      1.155195000000000E+02      3.101501000000000E-01      1.789766000000000E+02      2.662506000000000E-01     -6.642968000000000E+01      7.006531000000000E-01     -5.173828000000000E+01
4874000000.000000      5.751648000000000E-01      1.149883000000000E+02      3.085175000000000E-01      1.787656000000000E+02      2.669830000000000E-01     -6.635547000000000E+01      6.981506000000000E-01     -5.151953000000000E+01
4875000000.000000      5.699463000000000E-01      1.144687000000000E+02      3.072815000000000E-01      1.787500000000000E+02      2.670135000000000E-01     -6.615624000000000E+01      6.966553000000000E-01     -5.159765000000000E+01
4876000000.000000      5.642090000000000E-01      1.141016000000000E+02      3.063202000000000E-01      1.785703000000000E+02      2.671356000000000E-01     -6.623828000000000E+01      6.961060000000000E-01     -5.187500000000000E+01
4877000000.000000      5.596008000000000E-01      1.135273000000000E+02      3.053741000000000E-01      1.786094000000000E+02      2.667999000000000E-01     -6.605859000000000E+01      6.925049000000000E-01     -5.177734000000000E+01
4878000000.000000      5.556641000000000E-01      1.130273000000000E+02      3.049622000000000E-01      1.785078000000000E+02      2.670135000000000E-01     -6.598046000000000E+01      6.917725000000000E-01     -5.185741000000000E+01
4879000000.000000      5.494690000000000E-01      1.125898000000000E+02      3.023834000000000E-01      1.785234000000000E+02      2.671204000000000E-01     -6.600390000000000E+01      6.888123000000000E-01     -5.169335000000000E+01
4880000000.000000      5.453186000000000E-01      1.119922000000000E+02      3.020020000000000E-01      1.782734000000000E+02      2.674255000000000E-01     -6.587500000000000E+01      6.856689000000000E-01     -5.164844000000000E+01
4881000000.000000      5.410767000000000E-01      1.115508000000000E+02      3.012085000000000E-01      1.781797000000000E+02      2.673492000000000E-01     -6.583984000000000E+01      6.853027000000000E-01     -5.169726000000000E+01
4882000000.000000      5.360413000000000E-01      1.109219000000000E+02      3.006897000000000E-01      1.781484000000000E+02      2.672729000000000E-01     -6.569921000000000E+01      6.817627000000000E-01     -5.166601000000000E+01
