! Network Analyzer HP8722D
! Hewlett-Packard
! Data name: Linha & Wilkinson
! Saver's name: Rodrigo Anjos
! Comments: Teste da utilização de aquisição
continua pelo VNA HP8722D
! Time and date: 6/5/2025 15:49
!              Frequency                     S11                                                   S21                                                   S12                                                   S22
# HZ  S  MA R 50
4800000000.000000      4.960632000000000E-01     -1.680938000000000E+02      2.513580000000000E-01     -1.942285000000000E+01      2.481537000000000E-01     -1.407031000000000E+02      6.466064000000000E-01     -8.027735000000000E+01
4801000000.000000      4.975586000000000E-01     -1.681875000000000E+02      2.554474000000000E-01     -1.973437000000000E+01      2.511749000000000E-01     -1.407031000000000E+02      6.471558000000000E-01     -8.008204000000000E+01
4802000000.000000      4.988403000000000E-01     -1.682969000000000E+02      2.590179000000000E-01     -1.992188000000000E+01      2.551575000000000E-01     -1.408125000000000E+02      6.452332000000000E-01     -7.975390000000000E+01
4803000000.000000      4.998932000000000E-01     -1.683281000000000E+02      2.641907000000000E-01     -2.009472000000000E+01      2.584991000000000E-01     -1.408281000000000E+02      6.446533000000000E-01     -7.967578000000000E+01
4804000000.000000      5.026550000000000E-01     -1.683047000000000E+02      2.672577000000000E-01     -2.034180000000000E+01      2.625885000000000E-01     -1.410156000000000E+02      6.436768000000000E-01     -7.934375000000000E+01
4805000000.000000      5.050964000000000E-01     -1.683672000000000E+02      2.713013000000000E-01     -2.080176000000000E+01      2.665710000000000E-01     -1.411016000000000E+02      6.437988000000000E-01     -7.931250000000000E+01
4806000000.000000      5.063477000000000E-01     -1.683047000000000E+02      2.750854000000000E-01     -2.091406000000000E+01      2.691498000000000E-01     -1.409765000000000E+02      6.433105000000000E-01     -7.908593000000000E+01
4807000000.000000      5.097351000000000E-01     -1.683672000000000E+02      2.799988000000000E-01     -2.138574000000000E+01      2.736969000000000E-01     -1.412422000000000E+02      6.433105000000000E-01     -7.880859000000000E+01
4808000000.000000      5.121460000000000E-01     -1.682891000000000E+02      2.845001000000000E-01     -2.151074000000000E+01      2.768250000000000E-01     -1.412656000000000E+02      6.423645000000000E-01     -7.853125000000000E+01
4809000000.000000      5.142517000000000E-01     -1.683203000000000E+02      2.877502000000000E-01     -2.205566000000000E+01      2.803650000000000E-01     -1.415313000000000E+02      6.439514000000000E-01     -7.843750000000000E+01
4810000000.000000      5.169373000000000E-01     -1.683516000000000E+02      2.917328000000000E-01     -2.231543000000000E+01      2.841644000000000E-01     -1.415469000000000E+02      6.439514000000000E-01     -7.832031000000000E+01
4811000000.000000      5.207214000000000E-01     -1.682344000000000E+02      2.962341000000000E-01     -2.278223000000000E+01      2.877808000000000E-01     -1.416563000000000E+02      6.424255000000000E-01     -7.786718000000000E+01
4812000000.000000      5.244751000000000E-01     -1.681641000000000E+02      2.994690000000000E-01     -2.328906000000000E+01      2.911072000000000E-01     -1.417813000000000E+02      6.449890000000000E-01     -7.773828000000000E+01
4813000000.000000      5.268555000000000E-01     -1.681172000000000E+02      3.026581000000000E-01     -2.354590000000000E+01      2.938080000000000E-01     -1.417500000000000E+02      6.448669000000000E-01     -7.761719000000000E+01
4814000000.000000      5.299072000000000E-01     -1.682734000000000E+02      3.068695000000000E-01     -2.393164000000000E+01      2.973938000000000E-01     -1.421172000000000E+02      6.456604000000000E-01     -7.742578000000000E+01
4815000000.000000      5.335693000000000E-01     -1.680312000000000E+02      3.098145000000000E-01     -2.438183000000000E+01      3.004608000000000E-01     -1.422188000000000E+02      6.460266000000000E-01     -7.721484000000000E+01
4816000000.000000      5.383911000000000E-01     -1.679375000000000E+02      3.143921000000000E-01     -2.470605000000000E+01      3.044434000000000E-01     -1.424062000000000E+02      6.476440000000000E-01     -7.704296000000000E+01
4817000000.000000      5.427856000000000E-01     -1.678594000000000E+02      3.173676000000000E-01     -2.514551000000000E+01      3.070374000000000E-01     -1.425859000000000E+02      6.481323000000000E-01     -7.694140000000000E+01
4818000000.000000      5.459900000000000E-01     -1.678594000000000E+02      3.204041000000000E-01     -2.555566000000000E+01      3.100739000000000E-01     -1.427031000000000E+02      6.488342000000000E-01     -7.673828000000000E+01
4819000000.000000      5.512390000000000E-01     -1.677891000000000E+02      3.245850000000000E-01     -2.600390000000000E+01      3.120728000000000E-01     -1.429375000000000E+02      6.520691000000000E-01     -7.654687000000000E+01
4820000000.000000      5.536499000000000E-01     -1.676875000000000E+02      3.272552000000000E-01     -2.644629000000000E+01      3.162689000000000E-01     -1.430312000000000E+02      6.547852000000000E-01     -7.642578000000000E+01
4821000000.000000      5.598450000000000E-01     -1.675859000000000E+02      3.310089000000000E-01     -2.687891000000000E+01      3.189087000000000E-01     -1.433438000000000E+02      6.550903000000000E-01     -7.628515000000000E+01
4822000000.000000      5.660400000000000E-01     -1.675781000000000E+02      3.336639000000000E-01     -2.746582000000000E+01      3.220520000000000E-01     -1.435391000000000E+02      6.584778000000000E-01     -7.604297000000000E+01
4823000000.000000      5.693970000000000E-01     -1.674219000000000E+02      3.372040000000000E-01     -2.788769000000000E+01      3.246918000000000E-01     -1.434844000000000E+02      6.593323000000000E-01     -7.589844000000000E+01
4824000000.000000      5.765991000000000E-01     -1.674062000000000E+02      3.406677000000000E-01     -2.854883000000000E+01      3.277435000000000E-01     -1.438047000000000E+02      6.633911000000000E-01     -7.578125000000000E+01
4825000000.000000      5.806580000000000E-01     -1.672578000000000E+02      3.440857000000000E-01     -2.892187000000000E+01      3.313599000000000E-01     -1.440703000000000E+02      6.642151000000000E-01     -7.568749000000000E+01
4826000000.000000      5.870361000000000E-01     -1.671484000000000E+02      3.476563000000000E-01     -2.942968000000000E+01      3.332672000000000E-01     -1.443203000000000E+02      6.673889000000000E-01     -7.559765000000000E+01
4827000000.000000      5.926208000000000E-01     -1.670391000000000E+02      3.498230000000000E-01     -2.981738000000000E+01      3.356781000000000E-01     -1.443594000000000E+02      6.701660000000000E-01     -7.547656000000000E+01
4828000000.000000      5.995789000000000E-01     -1.669844000000000E+02      3.524933000000000E-01     -3.029394000000000E+01      3.379211000000000E-01     -1.445547000000000E+02      6.741638000000000E-01     -7.539453000000000E+01
4829000000.000000      6.026001000000000E-01     -1.668437000000000E+02      3.545990000000000E-01     -3.098340000000000E+01      3.409119000000000E-01     -1.448047000000000E+02      6.763306000000000E-01     -7.516015000000000E+01
4830000000.000000      6.103821000000000E-01     -1.668203000000000E+02      3.575897000000000E-01     -3.148633000000000E+01      3.442841000000000E-01     -1.450156000000000E+02      6.794128000000000E-01     -7.511719000000000E+01
4831000000.000000      6.148071000000000E-01     -1.667031000000000E+02      3.599701000000000E-01     -3.209961000000000E+01      3.459625000000000E-01     -1.451094000000000E+02      6.825867000000000E-01     -7.514453000000000E+01
4832000000.000000      6.237488000000000E-01     -1.666172000000000E+02      3.625031000000000E-01     -3.252539000000000E+01      3.484192000000000E-01     -1.454609000000000E+02      6.853333000000000E-01     -7.499609000000000E+01
4833000000.000000      6.299438000000000E-01     -1.666250000000000E+02      3.650208000000000E-01     -3.302929000000000E+01      3.500824000000000E-01     -1.456016000000000E+02      6.884460000000000E-01     -7.494531000000000E+01
4834000000.000000      6.356812000000000E-01     -1.664766000000000E+02      3.675232000000000E-01     -3.364258000000000E+01      3.523407000000000E-01     -1.457969000000000E+02      6.926270000000000E-01     -7.483203000000000E+01
4835000000.000000      6.423645000000000E-01     -1.664063000000000E+02      3.698578000000000E-01     -3.420312000000000E+01      3.553925000000000E-01     -1.460703000000000E+02      6.951599000000000E-01     -7.485156000000000E+01
4836000000.000000      6.503906000000000E-01     -1.663125000000000E+02      3.707123000000000E-01     -3.494922000000000E+01      3.578491000000000E-01     -1.462500000000000E+02      6.993103000000000E-01     -7.478516000000000E+01
4837000000.000000      6.571655000000000E-01     -1.661406000000000E+02      3.729248000000000E-01     -3.556445000000000E+01      3.591156000000000E-01     -1.464219000000000E+02      7.031250000000000E-01     -7.467968000000000E+01
4838000000.000000      6.636353000000000E-01     -1.662031000000000E+02      3.756714000000000E-01     -3.589844000000000E+01      3.621216000000000E-01     -1.466719000000000E+02      7.073059000000000E-01     -7.466797000000000E+01
4839000000.000000      6.712646000000000E-01     -1.660781000000000E+02      3.772888000000000E-01     -3.631836000000000E+01      3.635712000000000E-01     -1.467344000000000E+02      7.110291000000000E-01     -7.452343000000000E+01
4840000000.000000      6.761475000000000E-01     -1.661016000000000E+02      3.784485000000000E-01     -3.701953000000000E+01      3.661957000000000E-01     -1.470625000000000E+02      7.145386000000000E-01     -7.458984000000000E+01
4841000000.000000      6.841736000000000E-01     -1.660938000000000E+02      3.806152000000000E-01     -3.766797000000000E+01      3.677673000000000E-01     -1.471719000000000E+02      7.195740000000000E-01     -7.460546000000000E+01
4842000000.000000      6.919861000000000E-01     -1.659531000000000E+02      3.815155000000000E-01     -3.815234000000000E+01      3.690796000000000E-01     -1.473594000000000E+02      7.242126000000000E-01     -7.448437000000000E+01
4843000000.000000      6.983337000000000E-01     -1.659844000000000E+02      3.825989000000000E-01     -3.880078000000000E+01      3.706970000000000E-01     -1.475156000000000E+02      7.275085000000000E-01     -7.440234000000000E+01
4844000000.000000      7.048035000000000E-01     -1.658594000000000E+02      3.841858000000000E-01     -3.922266000000000E+01      3.726959000000000E-01     -1.478516000000000E+02      7.315979000000000E-01     -7.449219000000000E+01
4845000000.000000      7.120361000000000E-01     -1.658281000000000E+02      3.853149000000000E-01     -3.981445000000000E+01      3.751678000000000E-01     -1.479922000000000E+02      7.360535000000000E-01     -7.441015000000000E+01
4846000000.000000      7.197571000000000E-01     -1.657187000000000E+02      3.865051000000000E-01     -4.020312000000000E+01      3.774414000000000E-01     -1.480781000000000E+02      7.400208000000000E-01     -7.445313000000000E+01
4847000000.000000      7.270813000000000E-01     -1.657812000000000E+02      3.865204000000000E-01     -4.090820000000000E+01      3.794098000000000E-01     -1.483594000000000E+02      7.461548000000000E-01     -7.448047000000000E+01
4848000000.000000      7.348328000000000E-01     -1.657578000000000E+02      3.875580000000000E-01     -4.136523000000000E+01      3.797913000000000E-01     -1.485547000000000E+02      7.496033000000000E-01     -7.452343000000000E+01
4849000000.000000      7.413330000000000E-01     -1.659062000000000E+02      3.888092000000000E-01     -4.198438000000000E+01      3.819885000000000E-01     -1.486719000000000E+02      7.534485000000000E-01     -7.440234000000000E+01
4850000000.000000      7.484131000000000E-01     -1.657500000000000E+02      3.896942000000000E-01     -4.245703000000000E+01      3.838196000000000E-01     -1.488203000000000E+02      7.590027000000000E-01     -7.446484000000000E+01
4851000000.000000      7.547607000000000E-01     -1.657187000000000E+02      3.895721000000000E-01     -4.304492000000000E+01      3.849182000000000E-01     -1.490625000000000E+02      7.645874000000000E-01     -7.434765000000000E+01
4852000000.000000      7.630310000000000E-01     -1.657578000000000E+02      3.897705000000000E-01     -4.365039000000000E+01      3.861847000000000E-01     -1.491016000000000E+02      7.691956000000000E-01     -7.451172000000000E+01
4853000000.000000      7.692261000000000E-01     -1.657266000000000E+02      3.890533000000000E-01     -4.403710000000000E+01      3.882904000000000E-01     -1.494688000000000E+02      7.737427000000000E-01     -7.464844000000000E+01
4854000000.000000      7.763977000000000E-01     -1.657266000000000E+02      3.903961000000000E-01     -4.477539000000000E+01      3.887634000000000E-01     -1.496406000000000E+02      7.788086000000000E-01     -7.459765000000000E+01
4855000000.000000      7.810364000000000E-01     -1.657266000000000E+02      3.890533000000000E-01     -4.519531000000000E+01      3.902130000000000E-01     -1.497031000000000E+02      7.812805000000000E-01     -7.450390000000000E+01
4856000000.000000      7.884827000000000E-01     -1.656875000000000E+02      3.898621000000000E-01     -4.557226000000000E+01      3.924103000000000E-01     -1.499063000000000E+02      7.879639000000000E-01     -7.466797000000000E+01
4857000000.000000      7.946472000000000E-01     -1.657187000000000E+02      3.904114000000000E-01     -4.624023000000000E+01      3.936920000000000E-01     -1.501094000000000E+02      7.922974000000000E-01     -7.470703000000000E+01
4858000000.000000      7.979431000000000E-01     -1.657812000000000E+02      3.899231000000000E-01     -4.660156000000000E+01      3.937073000000000E-01     -1.502578000000000E+02      7.974548000000000E-01     -7.479297000000000E+01
4859000000.000000      8.061218000000000E-01     -1.658203000000000E+02      3.892670000000000E-01     -4.716797000000000E+01      3.948975000000000E-01     -1.505703000000000E+02      8.031006000000000E-01     -7.492578000000000E+01
4860000000.000000      8.151550000000000E-01     -1.656406000000000E+02      3.889923000000000E-01     -4.755664000000000E+01      3.960724000000000E-01     -1.506016000000000E+02      8.070374000000000E-01     -7.483984000000000E+01
4861000000.000000      8.195496000000000E-01     -1.655469000000000E+02      3.885040000000000E-01     -4.815039000000000E+01      3.979950000000000E-01     -1.508281000000000E+02      8.117676000000000E-01     -7.499218000000000E+01
4862000000.000000      8.237610000000000E-01     -1.656250000000000E+02      3.887787000000000E-01     -4.842773000000000E+01      3.991241000000000E-01     -1.508906000000000E+02      8.185120000000000E-01     -7.496094000000000E+01
4863000000.000000      8.276978000000000E-01     -1.655703000000000E+02      3.865204000000000E-01     -4.900195000000000E+01      4.003754000000000E-01     -1.511406000000000E+02      8.236389000000000E-01     -7.504687000000000E+01
4864000000.000000      8.341370000000000E-01     -1.656797000000000E+02      3.860474000000000E-01     -4.929296000000000E+01      4.001465000000000E-01     -1.512891000000000E+02      8.264160000000000E-01     -7.508984000000000E+01
4865000000.000000      8.394165000000000E-01     -1.657734000000000E+02      3.857574000000000E-01     -4.983984000000000E+01      4.014282000000000E-01     -1.515234000000000E+02      8.321228000000000E-01     -7.513672000000000E+01
4866000000.000000      8.414612000000000E-01     -1.656406000000000E+02      3.834076000000000E-01     -5.010937000000000E+01      4.023132000000000E-01     -1.516641000000000E+02      8.376160000000000E-01     -7.527344000000000E+01
4867000000.000000      8.469238000000000E-01     -1.657578000000000E+02      3.840027000000000E-01     -5.078320000000000E+01      4.032593000000000E-01     -1.518437000000000E+02      8.425903000000000E-01     -7.532812000000000E+01
4868000000.000000      8.504639000000000E-01     -1.658437000000000E+02      3.827057000000000E-01     -5.099609000000000E+01      4.044189000000000E-01     -1.519375000000000E+02      8.469849000000000E-01     -7.541797000000000E+01
4869000000.000000      8.571777000000000E-01     -1.656719000000000E+02      3.811340000000000E-01     -5.130468000000000E+01      4.045410000000000E-01     -1.521953000000000E+02      8.522339000000000E-01     -7.564062000000000E+01
4870000000.000000      8.608093000000000E-01     -1.656484000000000E+02      3.800659000000000E-01     -5.145898000000000E+01      4.054565000000000E-01     -1.523750000000000E+02      8.559875000000000E-01     -7.560156000000000E+01
4871000000.000000      8.652649000000000E-01     -1.658516000000000E+02      3.787384000000000E-01     -5.206249000000000E+01      4.050293000000000E-01     -1.525391000000000E+02      8.600769000000000E-01     -7.577343000000000E+01
4872000000.000000      8.699951000000000E-01     -1.657344000000000E+02      3.773956000000000E-01     -5.213672000000000E+01      4.059906000000000E-01     -1.528516000000000E+02      8.661804000000000E-01     -7.582421000000000E+01
4873000000.000000      8.708191000000000E-01     -1.656250000000000E+02      3.753510000000000E-01     -5.260742000000000E+01      4.061432000000000E-01     -1.528984000000000E+02      8.688965000000000E-01     -7.592578000000000E+01
4874000000.000000      8.740540000000000E-01     -1.656328000000000E+02      3.746338000000000E-01     -5.292578000000000E+01      4.075165000000000E-01     -1.530000000000000E+02      8.729858000000000E-01     -7.590234000000000E+01
4875000000.000000      8.787231000000000E-01     -1.656484000000000E+02      3.728943000000000E-01     -5.317187000000000E+01      4.071503000000000E-01     -1.533516000000000E+02      8.773499000000000E-01     -7.621484000000000E+01
4876000000.000000      8.799438000000000E-01     -1.656016000000000E+02      3.719330000000000E-01     -5.353516000000000E+01      4.068146000000000E-01     -1.534297000000000E+02      8.819275000000000E-01     -7.629687000000000E+01
4877000000.000000      8.793335000000000E-01     -1.655469000000000E+02      3.699036000000000E-01     -5.369335000000000E+01      4.083862000000000E-01     -1.536250000000000E+02      8.871460000000000E-01     -7.639843000000000E+01
4878000000.000000      8.876343000000000E-01     -1.653516000000000E+02      3.702087000000000E-01     -5.392968000000000E+01      4.083099000000000E-01     -1.536953000000000E+02      8.907471000000000E-01     -7.660546000000000E+01
4879000000.000000      8.903809000000000E-01     -1.653672000000000E+02      3.667755000000000E-01     -5.414844000000000E+01      4.082794000000000E-01     -1.539375000000000E+02      8.946228000000000E-01     -7.653515000000000E+01
4880000000.000000      8.887024000000000E-01     -1.653359000000000E+02      3.662872000000000E-01     -5.449023000000000E+01      4.090271000000000E-01     -1.540000000000000E+02      9.000244000000000E-01     -7.664453000000000E+01
4881000000.000000      8.920593000000000E-01     -1.652266000000000E+02      3.651581000000000E-01     -5.449219000000000E+01      4.091644000000000E-01     -1.542187000000000E+02      9.036865000000000E-01     -7.680078000000000E+01
4882000000.000000      8.937073000000000E-01     -1.651562000000000E+02      3.633575000000000E-01     -5.477148000000000E+01      4.087830000000000E-01     -1.543437000000000E+02      9.063721000000000E-01     -7.687109000000000E+01
