! Network Analyzer HP8722D
! Hewlett-Packard
! Data name: Linha & Wilkinson
! Saver's name: Rodrigo Anjos
! Comments: Teste da utilização de aquisição
continua pelo VNA HP8722D
! Time and date: 6/5/2025 13:37
!              Frequency                     S11                                                   S21                                                   S12                                                   S22
# HZ  S  MA R 50
4800000000.000000      4.979553000000000E-01     -1.683203000000000E+02      2.534332000000000E-01     -1.991601000000000E+01      2.494812000000000E-01     -1.410938000000000E+02      6.484070000000000E-01     -8.038671000000000E+01
4801000000.000000      4.991760000000000E-01     -1.684297000000000E+02      2.572327000000000E-01     -2.006836000000000E+01      2.530670000000000E-01     -1.411875000000000E+02      6.470947000000000E-01     -8.007813000000000E+01
4802000000.000000      5.000305000000000E-01     -1.685078000000000E+02      2.616730000000000E-01     -2.026074000000000E+01      2.570496000000000E-01     -1.411797000000000E+02      6.446838000000000E-01     -7.986718000000000E+01
4803000000.000000      5.018311000000000E-01     -1.685547000000000E+02      2.658386000000000E-01     -2.056152000000000E+01      2.606201000000000E-01     -1.413047000000000E+02      6.454163000000000E-01     -7.968359000000000E+01
4804000000.000000      5.040894000000000E-01     -1.685313000000000E+02      2.694397000000000E-01     -2.079785000000000E+01      2.642365000000000E-01     -1.414531000000000E+02      6.446838000000000E-01     -7.946094000000000E+01
4805000000.000000      5.070496000000000E-01     -1.686094000000000E+02      2.736206000000000E-01     -2.125195000000000E+01      2.682648000000000E-01     -1.414063000000000E+02      6.445618000000000E-01     -7.922265000000000E+01
4806000000.000000      5.083008000000000E-01     -1.685390000000000E+02      2.772522000000000E-01     -2.140039000000000E+01      2.706604000000000E-01     -1.414766000000000E+02      6.443787000000000E-01     -7.912109000000000E+01
4807000000.000000      5.118408000000000E-01     -1.685390000000000E+02      2.816315000000000E-01     -2.183594000000000E+01      2.746582000000000E-01     -1.418047000000000E+02      6.433411000000000E-01     -7.884766000000000E+01
4808000000.000000      5.137939000000000E-01     -1.684766000000000E+02      2.861328000000000E-01     -2.197070000000000E+01      2.786102000000000E-01     -1.419062000000000E+02      6.434326000000000E-01     -7.868359000000000E+01
4809000000.000000      5.166321000000000E-01     -1.684766000000000E+02      2.899170000000000E-01     -2.261621000000000E+01      2.819519000000000E-01     -1.419688000000000E+02      6.438293000000000E-01     -7.841015000000000E+01
4810000000.000000      5.196533000000000E-01     -1.685156000000000E+02      2.935181000000000E-01     -2.284082000000000E+01      2.850342000000000E-01     -1.420781000000000E+02      6.450195000000000E-01     -7.827343000000000E+01
4811000000.000000      5.227051000000000E-01     -1.684453000000000E+02      2.972565000000000E-01     -2.330957000000000E+01      2.897797000000000E-01     -1.421797000000000E+02      6.442566000000000E-01     -7.792578000000000E+01
4812000000.000000      5.267944000000000E-01     -1.683984000000000E+02      3.010864000000000E-01     -2.363183000000000E+01      2.925110000000000E-01     -1.422891000000000E+02      6.454773000000000E-01     -7.782421000000000E+01
4813000000.000000      5.291748000000000E-01     -1.683359000000000E+02      3.045502000000000E-01     -2.398535000000000E+01      2.956085000000000E-01     -1.423516000000000E+02      6.460266000000000E-01     -7.754687000000000E+01
4814000000.000000      5.317993000000000E-01     -1.683984000000000E+02      3.083191000000000E-01     -2.433203000000000E+01      2.994537000000000E-01     -1.425547000000000E+02      6.466064000000000E-01     -7.748828000000000E+01
4815000000.000000      5.359192000000000E-01     -1.682656000000000E+02      3.116608000000000E-01     -2.475683000000000E+01      3.018799000000000E-01     -1.427422000000000E+02      6.477661000000000E-01     -7.719140000000000E+01
4816000000.000000      5.405579000000000E-01     -1.682109000000000E+02      3.157501000000000E-01     -2.524316000000000E+01      3.057709000000000E-01     -1.428984000000000E+02      6.489258000000000E-01     -7.702343000000000E+01
4817000000.000000      5.447083000000000E-01     -1.680547000000000E+02      3.191528000000000E-01     -2.571582000000000E+01      3.079376000000000E-01     -1.431094000000000E+02      6.501465000000000E-01     -7.691796000000000E+01
4818000000.000000      5.482483000000000E-01     -1.681094000000000E+02      3.216553000000000E-01     -2.607519000000000E+01      3.116150000000000E-01     -1.431797000000000E+02      6.506958000000000E-01     -7.672656000000000E+01
4819000000.000000      5.531616000000000E-01     -1.680078000000000E+02      3.258514000000000E-01     -2.663867000000000E+01      3.140106000000000E-01     -1.435156000000000E+02      6.544495000000000E-01     -7.659765000000000E+01
4820000000.000000      5.559998000000000E-01     -1.679219000000000E+02      3.292236000000000E-01     -2.694433000000000E+01      3.175049000000000E-01     -1.435937000000000E+02      6.546936000000000E-01     -7.645312000000000E+01
4821000000.000000      5.621033000000000E-01     -1.678516000000000E+02      3.325500000000000E-01     -2.751562000000000E+01      3.202362000000000E-01     -1.438984000000000E+02      6.563721000000000E-01     -7.635937000000000E+01
4822000000.000000      5.685120000000000E-01     -1.677813000000000E+02      3.352814000000000E-01     -2.793848000000000E+01      3.226776000000000E-01     -1.441015000000000E+02      6.584778000000000E-01     -7.601171000000000E+01
4823000000.000000      5.718384000000000E-01     -1.676484000000000E+02      3.385620000000000E-01     -2.841015000000000E+01      3.256378000000000E-01     -1.440547000000000E+02      6.610413000000000E-01     -7.595703000000000E+01
4824000000.000000      5.787964000000000E-01     -1.675937000000000E+02      3.415680000000000E-01     -2.901855000000000E+01      3.291779000000000E-01     -1.444687000000000E+02      6.636963000000000E-01     -7.583593000000000E+01
4825000000.000000      5.827637000000000E-01     -1.675390000000000E+02      3.450470000000000E-01     -2.940722000000000E+01      3.319855000000000E-01     -1.445469000000000E+02      6.663513000000000E-01     -7.576562000000000E+01
4826000000.000000      5.888977000000000E-01     -1.674531000000000E+02      3.482056000000000E-01     -3.001269000000000E+01      3.335724000000000E-01     -1.448672000000000E+02      6.696777000000000E-01     -7.563671000000000E+01
4827000000.000000      5.955200000000000E-01     -1.672344000000000E+02      3.505249000000000E-01     -3.037500000000000E+01      3.364410000000000E-01     -1.450156000000000E+02      6.717224000000000E-01     -7.548828000000000E+01
4828000000.000000      6.017456000000000E-01     -1.672422000000000E+02      3.541107000000000E-01     -3.095312000000000E+01      3.389435000000000E-01     -1.451250000000000E+02      6.747437000000000E-01     -7.545312000000000E+01
4829000000.000000      6.053467000000000E-01     -1.670938000000000E+02      3.554993000000000E-01     -3.158496000000000E+01      3.416443000000000E-01     -1.454375000000000E+02      6.784668000000000E-01     -7.528906000000000E+01
4830000000.000000      6.126709000000000E-01     -1.670234000000000E+02      3.583374000000000E-01     -3.205664000000000E+01      3.443604000000000E-01     -1.455469000000000E+02      6.806641000000000E-01     -7.526953000000000E+01
4831000000.000000      6.176758000000000E-01     -1.669219000000000E+02      3.611145000000000E-01     -3.267773000000000E+01      3.462677000000000E-01     -1.456875000000000E+02      6.847534000000000E-01     -7.516796000000000E+01
4832000000.000000      6.267395000000000E-01     -1.668437000000000E+02      3.638000000000000E-01     -3.314453000000000E+01      3.489990000000000E-01     -1.460156000000000E+02      6.868591000000000E-01     -7.506249000000000E+01
4833000000.000000      6.323853000000000E-01     -1.668359000000000E+02      3.661957000000000E-01     -3.368750000000000E+01      3.511810000000000E-01     -1.462500000000000E+02      6.898499000000000E-01     -7.503124000000000E+01
4834000000.000000      6.383667000000000E-01     -1.667578000000000E+02      3.679962000000000E-01     -3.427148000000000E+01      3.529053000000000E-01     -1.463516000000000E+02      6.933289000000000E-01     -7.496094000000000E+01
4835000000.000000      6.452026000000000E-01     -1.666797000000000E+02      3.699799000000000E-01     -3.484179000000000E+01      3.562927000000000E-01     -1.465547000000000E+02      6.988220000000000E-01     -7.496875000000000E+01
4836000000.000000      6.527405000000000E-01     -1.665469000000000E+02      3.727570000000000E-01     -3.529687000000000E+01      3.577271000000000E-01     -1.466406000000000E+02      7.012939000000000E-01     -7.478125000000000E+01
4837000000.000000      6.599121000000000E-01     -1.664375000000000E+02      3.736725000000000E-01     -3.606250000000000E+01      3.590851000000000E-01     -1.470234000000000E+02      7.052307000000000E-01     -7.476563000000000E+01
4838000000.000000      6.661987000000000E-01     -1.665156000000000E+02      3.769989000000000E-01     -3.647461000000000E+01      3.621674000000000E-01     -1.471562000000000E+02      7.080383000000000E-01     -7.465234000000000E+01
4839000000.000000      6.741638000000000E-01     -1.662812000000000E+02      3.773041000000000E-01     -3.703320000000000E+01      3.636322000000000E-01     -1.473047000000000E+02      7.128296000000000E-01     -7.459765000000000E+01
4840000000.000000      6.789856000000000E-01     -1.663203000000000E+02      3.791351000000000E-01     -3.756250000000000E+01      3.656311000000000E-01     -1.475391000000000E+02      7.161255000000000E-01     -7.469140000000000E+01
4841000000.000000      6.866455000000000E-01     -1.663828000000000E+02      3.807678000000000E-01     -3.812695000000000E+01      3.680115000000000E-01     -1.478281000000000E+02      7.208862000000000E-01     -7.467968000000000E+01
4842000000.000000      6.946411000000000E-01     -1.662266000000000E+02      3.825989000000000E-01     -3.867383000000000E+01      3.690491000000000E-01     -1.479922000000000E+02      7.254028000000000E-01     -7.455468000000000E+01
4843000000.000000      7.008057000000000E-01     -1.663047000000000E+02      3.834686000000000E-01     -3.921484000000000E+01      3.717194000000000E-01     -1.481172000000000E+02      7.291565000000000E-01     -7.453906000000000E+01
4844000000.000000      7.080383000000000E-01     -1.661875000000000E+02      3.844757000000000E-01     -3.980078000000000E+01      3.728638000000000E-01     -1.482969000000000E+02      7.333069000000000E-01     -7.461328000000000E+01
4845000000.000000      7.138977000000000E-01     -1.661562000000000E+02      3.851166000000000E-01     -4.023046000000000E+01      3.742218000000000E-01     -1.484922000000000E+02      7.367554000000000E-01     -7.451562000000000E+01
4846000000.000000      7.219849000000000E-01     -1.660859000000000E+02      3.871002000000000E-01     -4.097265000000000E+01      3.775787000000000E-01     -1.485859000000000E+02      7.420654000000000E-01     -7.454296000000000E+01
4847000000.000000      7.291260000000000E-01     -1.660859000000000E+02      3.873901000000000E-01     -4.147265000000000E+01      3.787231000000000E-01     -1.488437000000000E+02      7.470703000000000E-01     -7.469531000000000E+01
4848000000.000000      7.374268000000000E-01     -1.660312000000000E+02      3.876190000000000E-01     -4.185351000000000E+01      3.797760000000000E-01     -1.490156000000000E+02      7.509155000000000E-01     -7.460155000000000E+01
4849000000.000000      7.434082000000000E-01     -1.662578000000000E+02      3.880310000000000E-01     -4.249219000000000E+01      3.815155000000000E-01     -1.492578000000000E+02      7.564697000000000E-01     -7.453906000000000E+01
4850000000.000000      7.505798000000000E-01     -1.660703000000000E+02      3.888092000000000E-01     -4.299609000000000E+01      3.829803000000000E-01     -1.494062000000000E+02      7.611694000000000E-01     -7.459765000000000E+01
4851000000.000000      7.584839000000000E-01     -1.659765000000000E+02      3.900299000000000E-01     -4.363671000000000E+01      3.843079000000000E-01     -1.496641000000000E+02      7.658997000000000E-01     -7.463672000000000E+01
4852000000.000000      7.648010000000000E-01     -1.660469000000000E+02      3.901367000000000E-01     -4.412499000000000E+01      3.862000000000000E-01     -1.497422000000000E+02      7.695313000000000E-01     -7.455468000000000E+01
4853000000.000000      7.718506000000000E-01     -1.660234000000000E+02      3.891296000000000E-01     -4.473437000000000E+01      3.887177000000000E-01     -1.499453000000000E+02      7.736816000000000E-01     -7.478125000000000E+01
4854000000.000000      7.772827000000000E-01     -1.660469000000000E+02      3.904877000000000E-01     -4.532422000000000E+01      3.884583000000000E-01     -1.500703000000000E+02      7.792358000000000E-01     -7.476953000000000E+01
4855000000.000000      7.837219000000000E-01     -1.660859000000000E+02      3.900757000000000E-01     -4.561523000000000E+01      3.899231000000000E-01     -1.501562000000000E+02      7.832031000000000E-01     -7.474609000000000E+01
4856000000.000000      7.915344000000000E-01     -1.660078000000000E+02      3.899689000000000E-01     -4.598437000000000E+01      3.919373000000000E-01     -1.503906000000000E+02      7.883911000000000E-01     -7.480859000000000E+01
4857000000.000000      7.967834000000000E-01     -1.661094000000000E+02      3.899689000000000E-01     -4.665039000000000E+01      3.927917000000000E-01     -1.505625000000000E+02      7.935181000000000E-01     -7.486328000000000E+01
4858000000.000000      8.011475000000000E-01     -1.661016000000000E+02      3.895569000000000E-01     -4.717969000000000E+01      3.934937000000000E-01     -1.507187000000000E+02      7.981567000000000E-01     -7.485156000000000E+01
4859000000.000000      8.079224000000000E-01     -1.661875000000000E+02      3.892517000000000E-01     -4.765429000000000E+01      3.950806000000000E-01     -1.510391000000000E+02      8.039856000000000E-01     -7.506640000000000E+01
4860000000.000000      8.138428000000000E-01     -1.660938000000000E+02      3.883820000000000E-01     -4.806250000000000E+01      3.955688000000000E-01     -1.511406000000000E+02      8.087463000000000E-01     -7.505468000000000E+01
4861000000.000000      8.211975000000000E-01     -1.660312000000000E+02      3.880005000000000E-01     -4.863476000000000E+01      3.971405000000000E-01     -1.512422000000000E+02      8.132019000000000E-01     -7.511719000000000E+01
4862000000.000000      8.241577000000000E-01     -1.659141000000000E+02      3.879395000000000E-01     -4.899609000000000E+01      3.982849000000000E-01     -1.513203000000000E+02      8.186340000000000E-01     -7.517578000000000E+01
4863000000.000000      8.297119000000000E-01     -1.660703000000000E+02      3.861847000000000E-01     -4.952734000000000E+01      3.995209000000000E-01     -1.516016000000000E+02      8.241577000000000E-01     -7.530468000000000E+01
4864000000.000000      8.367310000000000E-01     -1.660391000000000E+02      3.862152000000000E-01     -4.979297000000000E+01      3.997803000000000E-01     -1.517109000000000E+02      8.262939000000000E-01     -7.534374000000000E+01
4865000000.000000      8.403625000000000E-01     -1.661250000000000E+02      3.841248000000000E-01     -5.028320000000000E+01      4.009399000000000E-01     -1.519687000000000E+02      8.328552000000000E-01     -7.531640000000000E+01
4866000000.000000      8.442383000000000E-01     -1.660625000000000E+02      3.835907000000000E-01     -5.067968000000000E+01      4.013977000000000E-01     -1.520859000000000E+02      8.371277000000000E-01     -7.539453000000000E+01
4867000000.000000      8.493347000000000E-01     -1.660312000000000E+02      3.831329000000000E-01     -5.111133000000000E+01      4.022369000000000E-01     -1.522578000000000E+02      8.433228000000000E-01     -7.549218000000000E+01
4868000000.000000      8.552551000000000E-01     -1.661797000000000E+02      3.817902000000000E-01     -5.141015000000000E+01      4.037781000000000E-01     -1.524453000000000E+02      8.475647000000000E-01     -7.559375000000000E+01
4869000000.000000      8.573608000000000E-01     -1.661250000000000E+02      3.798828000000000E-01     -5.184960000000000E+01      4.040833000000000E-01     -1.526406000000000E+02      8.527222000000000E-01     -7.577343000000000E+01
4870000000.000000      8.629456000000000E-01     -1.660859000000000E+02      3.797607000000000E-01     -5.204102000000000E+01      4.044800000000000E-01     -1.528203000000000E+02      8.563538000000000E-01     -7.572266000000000E+01
4871000000.000000      8.652954000000000E-01     -1.661562000000000E+02      3.782196000000000E-01     -5.255468000000000E+01      4.044647000000000E-01     -1.530000000000000E+02      8.602295000000000E-01     -7.603516000000000E+01
4872000000.000000      8.708496000000000E-01     -1.659922000000000E+02      3.766022000000000E-01     -5.265429000000000E+01      4.054871000000000E-01     -1.532500000000000E+02      8.659973000000000E-01     -7.606250000000000E+01
4873000000.000000      8.739319000000000E-01     -1.659141000000000E+02      3.751831000000000E-01     -5.303515000000000E+01      4.054413000000000E-01     -1.532969000000000E+02      8.695679000000000E-01     -7.623047000000000E+01
4874000000.000000      8.756714000000000E-01     -1.660312000000000E+02      3.736572000000000E-01     -5.350390000000000E+01      4.065094000000000E-01     -1.534219000000000E+02      8.746948000000000E-01     -7.616405000000000E+01
4875000000.000000      8.809814000000000E-01     -1.659141000000000E+02      3.728027000000000E-01     -5.353516000000000E+01      4.065399000000000E-01     -1.537266000000000E+02      8.783569000000000E-01     -7.633984000000000E+01
4876000000.000000      8.817444000000000E-01     -1.658203000000000E+02      3.707581000000000E-01     -5.380273000000000E+01      4.062347000000000E-01     -1.538516000000000E+02      8.834229000000000E-01     -7.651562000000000E+01
4877000000.000000      8.831482000000000E-01     -1.658750000000000E+02      3.693542000000000E-01     -5.414453000000000E+01      4.073334000000000E-01     -1.540703000000000E+02      8.875427000000000E-01     -7.671093000000000E+01
4878000000.000000      8.864746000000000E-01     -1.658125000000000E+02      3.685303000000000E-01     -5.441992000000000E+01      4.076080000000000E-01     -1.540703000000000E+02      8.914185000000000E-01     -7.669922000000000E+01
4879000000.000000      8.889465000000000E-01     -1.658437000000000E+02      3.666229000000000E-01     -5.458593000000000E+01      4.073639000000000E-01     -1.543203000000000E+02      8.944092000000000E-01     -7.682812000000000E+01
4880000000.000000      8.903503000000000E-01     -1.657422000000000E+02      3.656616000000000E-01     -5.485742000000000E+01      4.078827000000000E-01     -1.543359000000000E+02      8.985596000000000E-01     -7.693359000000000E+01
4881000000.000000      8.948975000000000E-01     -1.655937000000000E+02      3.643494000000000E-01     -5.482226000000000E+01      4.079742000000000E-01     -1.546562000000000E+02      9.041138000000000E-01     -7.707812000000000E+01
4882000000.000000      8.950195000000000E-01     -1.655078000000000E+02      3.627319000000000E-01     -5.511328000000000E+01      4.074554000000000E-01     -1.547109000000000E+02      9.058533000000000E-01     -7.714844000000000E+01
