! Network Analyzer HP8722D
! Hewlett-Packard
! Data name: Linha & Wilkinson
! Saver's name: Rodrigo Anjos
! Comments: Teste da utilização de aquisição
continua pelo VNA HP8722D
! Time and date: 6/5/2025 12:57
!              Frequency                     S11                                                   S21                                                   S12                                                   S22
# HZ  S  MA R 50
4800000000.000000      9.051514000000000E-01      1.158125000000000E+02      3.195190000000000E-01     -1.704922000000000E+02      2.563477000000000E-01     -8.593359000000000E+01      9.834595000000000E-01     -4.741992000000000E+01
4801000000.000000      9.027100000000000E-01      1.161680000000000E+02      3.192291000000000E-01     -1.704297000000000E+02      2.561493000000000E-01     -8.591015000000000E+01      9.784241000000000E-01     -4.754492000000000E+01
4802000000.000000      8.993225000000000E-01      1.163359000000000E+02      3.192139000000000E-01     -1.702266000000000E+02      2.572632000000000E-01     -8.560156000000000E+01      9.738464000000000E-01     -4.745313000000000E+01
4803000000.000000      8.962402000000000E-01      1.165351000000000E+02      3.200531000000000E-01     -1.702578000000000E+02      2.562866000000000E-01     -8.549608000000000E+01      9.687195000000000E-01     -4.771484000000000E+01
4804000000.000000      8.975525000000000E-01      1.167500000000000E+02      3.199463000000000E-01     -1.701719000000000E+02      2.568054000000000E-01     -8.543749000000000E+01      9.625854000000000E-01     -4.764648000000000E+01
4805000000.000000      8.965149000000000E-01      1.169844000000000E+02      3.204651000000000E-01     -1.701797000000000E+02      2.561188000000000E-01     -8.508204000000000E+01      9.582825000000000E-01     -4.774219000000000E+01
4806000000.000000      8.941956000000000E-01      1.172969000000000E+02      3.207855000000000E-01     -1.701875000000000E+02      2.554169000000000E-01     -8.483593000000000E+01      9.512939000000000E-01     -4.798437000000000E+01
4807000000.000000      8.931274000000000E-01      1.174844000000000E+02      3.216400000000000E-01     -1.703203000000000E+02      2.560730000000000E-01     -8.476563000000000E+01      9.446716000000000E-01     -4.785937000000000E+01
4808000000.000000      8.892822000000000E-01      1.178477000000000E+02      3.227692000000000E-01     -1.701641000000000E+02      2.561493000000000E-01     -8.457811000000000E+01      9.404602000000000E-01     -4.794335000000000E+01
4809000000.000000      8.853455000000000E-01      1.179648000000000E+02      3.223572000000000E-01     -1.703594000000000E+02      2.567444000000000E-01     -8.427343000000000E+01      9.360962000000000E-01     -4.800390000000000E+01
4810000000.000000      8.862915000000000E-01      1.183281000000000E+02      3.233795000000000E-01     -1.700547000000000E+02      2.559967000000000E-01     -8.409765000000000E+01      9.316711000000000E-01     -4.806445000000000E+01
4811000000.000000      8.801880000000000E-01      1.184062000000000E+02      3.240814000000000E-01     -1.702656000000000E+02      2.573853000000000E-01     -8.380859000000000E+01      9.251709000000000E-01     -4.802148000000000E+01
4812000000.000000      8.817139000000000E-01      1.188555000000000E+02      3.236389000000000E-01     -1.701250000000000E+02      2.563171000000000E-01     -8.346874000000000E+01      9.189148000000000E-01     -4.823828000000000E+01
4813000000.000000      8.770752000000000E-01      1.190312000000000E+02      3.242798000000000E-01     -1.702188000000000E+02      2.559662000000000E-01     -8.332422000000000E+01      9.147034000000000E-01     -4.817187000000000E+01
4814000000.000000      8.707581000000000E-01      1.192383000000000E+02      3.251953000000000E-01     -1.702344000000000E+02      2.562714000000000E-01     -8.304296000000000E+01      9.089355000000000E-01     -4.825781000000000E+01
4815000000.000000      8.706970000000000E-01      1.194023000000000E+02      3.253479000000000E-01     -1.702109000000000E+02      2.562256000000000E-01     -8.270311000000000E+01      9.042358000000000E-01     -4.831249000000000E+01
4816000000.000000      8.720398000000000E-01      1.197539000000000E+02      3.270111000000000E-01     -1.702656000000000E+02      2.568970000000000E-01     -8.258984000000000E+01      8.984985000000000E-01     -4.846093000000000E+01
4817000000.000000      8.672791000000000E-01      1.199258000000000E+02      3.266754000000000E-01     -1.704141000000000E+02      2.564697000000000E-01     -8.218359000000000E+01      8.928223000000000E-01     -4.845117000000000E+01
4818000000.000000      8.627625000000000E-01      1.201289000000000E+02      3.273621000000000E-01     -1.703750000000000E+02      2.562866000000000E-01     -8.183594000000000E+01      8.862000000000000E-01     -4.844727000000000E+01
4819000000.000000      8.640442000000000E-01      1.204844000000000E+02      3.276367000000000E-01     -1.705391000000000E+02      2.555695000000000E-01     -8.171093000000000E+01      8.817749000000000E-01     -4.867578000000000E+01
4820000000.000000      8.551331000000000E-01      1.205820000000000E+02      3.282776000000000E-01     -1.704922000000000E+02      2.562866000000000E-01     -8.125000000000000E+01      8.766785000000000E-01     -4.867382000000000E+01
4821000000.000000      8.556824000000000E-01      1.207461000000000E+02      3.301086000000000E-01     -1.706094000000000E+02      2.559967000000000E-01     -8.107813000000000E+01      8.717041000000000E-01     -4.862109000000000E+01
4822000000.000000      8.516541000000000E-01      1.209180000000000E+02      3.299408000000000E-01     -1.708437000000000E+02      2.550964000000000E-01     -8.084375000000000E+01      8.661194000000000E-01     -4.885742000000000E+01
4823000000.000000      8.485413000000000E-01      1.211836000000000E+02      3.306427000000000E-01     -1.708281000000000E+02      2.552948000000000E-01     -8.034765000000000E+01      8.619690000000000E-01     -4.884570000000000E+01
4824000000.000000      8.436584000000000E-01      1.212305000000000E+02      3.309021000000000E-01     -1.711484000000000E+02      2.555542000000000E-01     -8.012110000000000E+01      8.550415000000000E-01     -4.889648000000000E+01
4825000000.000000      8.389282000000000E-01      1.215273000000000E+02      3.318481000000000E-01     -1.710938000000000E+02      2.560425000000000E-01     -7.982422000000000E+01      8.525696000000000E-01     -4.895508000000000E+01
4826000000.000000      8.379822000000000E-01      1.215430000000000E+02      3.332214000000000E-01     -1.713906000000000E+02      2.552185000000000E-01     -7.955078000000000E+01      8.470154000000000E-01     -4.913086000000000E+01
4827000000.000000      8.347778000000000E-01      1.217617000000000E+02      3.332825000000000E-01     -1.715078000000000E+02      2.555084000000000E-01     -7.916797000000000E+01      8.415222000000000E-01     -4.908789000000000E+01
4828000000.000000      8.315430000000000E-01      1.218711000000000E+02      3.339996000000000E-01     -1.715625000000000E+02      2.550812000000000E-01     -7.884766000000000E+01      8.372803000000000E-01     -4.932617000000000E+01
4829000000.000000      8.255310000000000E-01      1.221797000000000E+02      3.342133000000000E-01     -1.717813000000000E+02      2.562256000000000E-01     -7.861328000000000E+01      8.346252000000000E-01     -4.927734000000000E+01
4830000000.000000      8.213501000000000E-01      1.221406000000000E+02      3.343506000000000E-01     -1.719844000000000E+02      2.554474000000000E-01     -7.812109000000000E+01      8.285828000000000E-01     -4.930664000000000E+01
4831000000.000000      8.158264000000000E-01      1.223008000000000E+02      3.346710000000000E-01     -1.721953000000000E+02      2.557831000000000E-01     -7.772655000000000E+01      8.240662000000000E-01     -4.936328000000000E+01
4832000000.000000      8.111267000000000E-01      1.223828000000000E+02      3.351593000000000E-01     -1.723438000000000E+02      2.556915000000000E-01     -7.742188000000000E+01      8.193359000000000E-01     -4.948828000000000E+01
4833000000.000000      8.080139000000000E-01      1.223438000000000E+02      3.353729000000000E-01     -1.725078000000000E+02      2.554016000000000E-01     -7.716797000000000E+01      8.146362000000000E-01     -4.948828000000000E+01
4834000000.000000      8.046265000000000E-01      1.225547000000000E+02      3.363342000000000E-01     -1.727344000000000E+02      2.560120000000000E-01     -7.668359000000000E+01      8.105164000000000E-01     -4.964062000000000E+01
4835000000.000000      7.973328000000000E-01      1.225781000000000E+02      3.366852000000000E-01     -1.729375000000000E+02      2.557983000000000E-01     -7.642968000000000E+01      8.065491000000000E-01     -4.964257000000000E+01
4836000000.000000      7.944641000000000E-01      1.227344000000000E+02      3.356628000000000E-01     -1.732109000000000E+02      2.563629000000000E-01     -7.603906000000000E+01      8.039551000000000E-01     -4.974414000000000E+01
4837000000.000000      7.888794000000000E-01      1.228047000000000E+02      3.365631000000000E-01     -1.736875000000000E+02      2.562256000000000E-01     -7.573437000000000E+01      7.988586000000000E-01     -4.976953000000000E+01
4838000000.000000      7.819824000000000E-01      1.227031000000000E+02      3.370514000000000E-01     -1.735937000000000E+02      2.566528000000000E-01     -7.535156000000000E+01      7.964478000000000E-01     -4.973827000000000E+01
4839000000.000000      7.793274000000000E-01      1.228125000000000E+02      3.360291000000000E-01     -1.738828000000000E+02      2.564697000000000E-01     -7.512109000000000E+01      7.918701000000000E-01     -4.987499000000000E+01
4840000000.000000      7.742920000000000E-01      1.227930000000000E+02      3.365631000000000E-01     -1.740391000000000E+02      2.572327000000000E-01     -7.476953000000000E+01      7.876892000000000E-01     -4.999218000000000E+01
4841000000.000000      7.680359000000000E-01      1.227539000000000E+02      3.363190000000000E-01     -1.744922000000000E+02      2.575378000000000E-01     -7.433203000000000E+01      7.848511000000000E-01     -5.001562000000000E+01
4842000000.000000      7.642212000000000E-01      1.228398000000000E+02      3.360443000000000E-01     -1.744922000000000E+02      2.573395000000000E-01     -7.405078000000000E+01      7.831116000000000E-01     -5.006054000000000E+01
4843000000.000000      7.579651000000000E-01      1.226992000000000E+02      3.363495000000000E-01     -1.748672000000000E+02      2.574158000000000E-01     -7.372265000000000E+01      7.771606000000000E-01     -5.012109000000000E+01
4844000000.000000      7.532349000000000E-01      1.226601000000000E+02      3.358765000000000E-01     -1.750156000000000E+02      2.574005000000000E-01     -7.328125000000000E+01      7.736511000000000E-01     -5.015820000000000E+01
4845000000.000000      7.451782000000000E-01      1.226797000000000E+02      3.350525000000000E-01     -1.752422000000000E+02      2.581787000000000E-01     -7.310937000000000E+01      7.699280000000000E-01     -5.024609000000000E+01
4846000000.000000      7.420044000000000E-01      1.225352000000000E+02      3.353119000000000E-01     -1.755156000000000E+02      2.588959000000000E-01     -7.274219000000000E+01      7.674561000000000E-01     -5.033789000000000E+01
4847000000.000000      7.362671000000000E-01      1.225547000000000E+02      3.344727000000000E-01     -1.757109000000000E+02      2.590942000000000E-01     -7.241796000000000E+01      7.637939000000000E-01     -5.041601000000000E+01
4848000000.000000      7.280273000000000E-01      1.223672000000000E+02      3.338318000000000E-01     -1.760313000000000E+02      2.586670000000000E-01     -7.203515000000000E+01      7.604065000000000E-01     -5.055078000000000E+01
4849000000.000000      7.205505000000000E-01      1.221914000000000E+02      3.339539000000000E-01     -1.763281000000000E+02      2.595520000000000E-01     -7.169531000000000E+01      7.571411000000000E-01     -5.047070000000000E+01
4850000000.000000      7.174072000000000E-01      1.221680000000000E+02      3.330688000000000E-01     -1.765703000000000E+02      2.595367000000000E-01     -7.131640000000000E+01      7.547302000000000E-01     -5.052343000000000E+01
4851000000.000000      7.105103000000000E-01      1.221133000000000E+02      3.328857000000000E-01     -1.767344000000000E+02      2.600861000000000E-01     -7.115624000000000E+01      7.527466000000000E-01     -5.060741000000000E+01
4852000000.000000      7.056885000000000E-01      1.218750000000000E+02      3.316956000000000E-01     -1.770156000000000E+02      2.602692000000000E-01     -7.077734000000000E+01      7.498779000000000E-01     -5.072266000000000E+01
4853000000.000000      7.011414000000000E-01      1.218633000000000E+02      3.299866000000000E-01     -1.772812000000000E+02      2.610626000000000E-01     -7.051171000000000E+01      7.472534000000000E-01     -5.083593000000000E+01
4854000000.000000      6.958923000000000E-01      1.215898000000000E+02      3.295746000000000E-01     -1.776328000000000E+02      2.607574000000000E-01     -7.032812000000000E+01      7.449341000000000E-01     -5.087109000000000E+01
4855000000.000000      6.864014000000000E-01      1.214844000000000E+02      3.297424000000000E-01     -1.776641000000000E+02      2.612610000000000E-01     -6.994141000000000E+01      7.398682000000000E-01     -5.082031000000000E+01
4856000000.000000      6.829529000000000E-01      1.212578000000000E+02      3.285065000000000E-01     -1.780156000000000E+02      2.619019000000000E-01     -6.960155000000000E+01      7.395935000000000E-01     -5.092773000000000E+01
4857000000.000000      6.747742000000000E-01      1.209648000000000E+02      3.277588000000000E-01     -1.781719000000000E+02      2.616577000000000E-01     -6.937500000000000E+01      7.353210000000000E-01     -5.099218000000000E+01
4858000000.000000      6.673584000000000E-01      1.207070000000000E+02      3.270416000000000E-01     -1.784062000000000E+02      2.618256000000000E-01     -6.916406000000000E+01      7.332458000000000E-01     -5.111328000000000E+01
4859000000.000000      6.626282000000000E-01      1.203516000000000E+02      3.261261000000000E-01     -1.786797000000000E+02      2.632751000000000E-01     -6.901953000000000E+01      7.329712000000000E-01     -5.127148000000000E+01
4860000000.000000      6.579285000000000E-01      1.203047000000000E+02      3.251953000000000E-01     -1.787656000000000E+02      2.625427000000000E-01     -6.867969000000000E+01      7.278137000000000E-01     -5.107226000000000E+01
4861000000.000000      6.527710000000000E-01      1.201641000000000E+02      3.235626000000000E-01     -1.790547000000000E+02      2.633362000000000E-01     -6.835938000000000E+01      7.248230000000000E-01     -5.128515000000000E+01
4862000000.000000      6.433716000000000E-01      1.196875000000000E+02      3.237305000000000E-01     -1.792187000000000E+02      2.641754000000000E-01     -6.822656000000000E+01      7.239990000000000E-01     -5.126953000000000E+01
4863000000.000000      6.362305000000000E-01      1.194922000000000E+02      3.207245000000000E-01     -1.795469000000000E+02      2.642975000000000E-01     -6.794140000000000E+01      7.224121000000000E-01     -5.126367000000000E+01
4864000000.000000      6.314697000000000E-01      1.190312000000000E+02      3.207855000000000E-01     -1.795000000000000E+02      2.641907000000000E-01     -6.764843000000000E+01      7.197266000000000E-01     -5.133789000000000E+01
4865000000.000000      6.259460000000000E-01      1.185390000000000E+02      3.194275000000000E-01     -1.797422000000000E+02      2.648010000000000E-01     -6.760937000000000E+01      7.179871000000000E-01     -5.134375000000000E+01
4866000000.000000      6.207581000000000E-01      1.183828000000000E+02      3.182831000000000E-01     -1.798437000000000E+02      2.649078000000000E-01     -6.734375000000000E+01      7.156372000000000E-01     -5.141992000000000E+01
4867000000.000000      6.140442000000000E-01      1.179492000000000E+02      3.171997000000000E-01      1.797656000000000E+02      2.650909000000000E-01     -6.717578000000000E+01      7.142334000000000E-01     -5.151172000000000E+01
4868000000.000000      6.075134000000000E-01      1.177109000000000E+02      3.157043000000000E-01      1.796172000000000E+02      2.661133000000000E-01     -6.700390000000000E+01      7.106934000000000E-01     -5.136719000000000E+01
4869000000.000000      6.026611000000000E-01      1.171719000000000E+02      3.143768000000000E-01      1.795312000000000E+02      2.659149000000000E-01     -6.689843000000000E+01      7.093201000000000E-01     -5.173242000000000E+01
4870000000.000000      5.967712000000000E-01      1.167969000000000E+02      3.136139000000000E-01      1.796328000000000E+02      2.660675000000000E-01     -6.672265000000000E+01      7.077026000000000E-01     -5.152344000000000E+01
4871000000.000000      5.914307000000000E-01      1.163828000000000E+02      3.125305000000000E-01      1.791641000000000E+02      2.663727000000000E-01     -6.665234000000000E+01      7.047119000000000E-01     -5.168945000000000E+01
4872000000.000000      5.867920000000000E-01      1.158359000000000E+02      3.112946000000000E-01      1.792969000000000E+02      2.667694000000000E-01     -6.670703000000000E+01      7.040710000000000E-01     -5.155663000000000E+01
4873000000.000000      5.811157000000000E-01      1.155391000000000E+02      3.107147000000000E-01      1.790078000000000E+02      2.659149000000000E-01     -6.642968000000000E+01      7.006836000000000E-01     -5.174023000000000E+01
4874000000.000000      5.742798000000000E-01      1.150937000000000E+02      3.085785000000000E-01      1.788281000000000E+02      2.670441000000000E-01     -6.623437000000000E+01      6.986389000000000E-01     -5.163476000000000E+01
4875000000.000000      5.693054000000000E-01      1.144805000000000E+02      3.068848000000000E-01      1.787969000000000E+02      2.675781000000000E-01     -6.628515000000000E+01      6.965027000000000E-01     -5.169335000000000E+01
4876000000.000000      5.640869000000000E-01      1.142266000000000E+02      3.063202000000000E-01      1.786719000000000E+02      2.671509000000000E-01     -6.617578000000000E+01      6.958618000000000E-01     -5.178124000000000E+01
4877000000.000000      5.599670000000000E-01      1.135039000000000E+02      3.052826000000000E-01      1.785312000000000E+02      2.673645000000000E-01     -6.619922000000000E+01      6.939087000000000E-01     -5.176367000000000E+01
4878000000.000000      5.543518000000000E-01      1.129414000000000E+02      3.042755000000000E-01      1.784844000000000E+02      2.667084000000000E-01     -6.586328000000000E+01      6.898804000000000E-01     -5.182812000000000E+01
4879000000.000000      5.505371000000000E-01      1.125625000000000E+02      3.026581000000000E-01      1.783594000000000E+02      2.672729000000000E-01     -6.596874000000000E+01      6.890564000000000E-01     -5.166601000000000E+01
4880000000.000000      5.442505000000000E-01      1.120000000000000E+02      3.023224000000000E-01      1.782500000000000E+02      2.670898000000000E-01     -6.587891000000000E+01      6.863708000000000E-01     -5.163280000000000E+01
4881000000.000000      5.396423000000000E-01      1.115156000000000E+02      3.015137000000000E-01      1.782109000000000E+02      2.676086000000000E-01     -6.586328000000000E+01      6.843262000000000E-01     -5.160546000000000E+01
4882000000.000000      5.357971000000000E-01      1.111250000000000E+02      2.997437000000000E-01      1.781250000000000E+02      2.673187000000000E-01     -6.575000000000000E+01      6.829224000000000E-01     -5.164648000000000E+01
