! Network Analyzer HP8722D
! Hewlett-Packard
! Data name: Linha & Wilkinson
! Saver's name: Rodrigo Anjos
! Comments: Teste da utilização de aquisição
continua pelo VNA HP8722D
! Time and date: 6/5/2025 14:55
!              Frequency                     S11                                                   S21                                                   S12                                                   S22
# HZ  S  MA R 50
4800000000.000000      4.964752000000000E-01     -1.682031000000000E+02      2.517242000000000E-01     -1.962207000000000E+01      2.486725000000000E-01     -1.408281000000000E+02      6.485291000000000E-01     -8.031641000000000E+01
4801000000.000000      4.977875000000000E-01     -1.683125000000000E+02      2.561951000000000E-01     -1.988574000000000E+01      2.520752000000000E-01     -1.408750000000000E+02      6.468506000000000E-01     -8.016796000000000E+01
4802000000.000000      4.994507000000000E-01     -1.683516000000000E+02      2.597504000000000E-01     -2.009082000000000E+01      2.559357000000000E-01     -1.409453000000000E+02      6.453552000000000E-01     -7.986718000000000E+01
4803000000.000000      5.008545000000000E-01     -1.684687000000000E+02      2.644501000000000E-01     -2.034570000000000E+01      2.592621000000000E-01     -1.410391000000000E+02      6.446533000000000E-01     -7.959765000000000E+01
4804000000.000000      5.029297000000000E-01     -1.683672000000000E+02      2.682648000000000E-01     -2.057910000000000E+01      2.632294000000000E-01     -1.412266000000000E+02      6.441650000000000E-01     -7.944921000000000E+01
4805000000.000000      5.056763000000000E-01     -1.684609000000000E+02      2.721710000000000E-01     -2.083301000000000E+01      2.668152000000000E-01     -1.411016000000000E+02      6.445313000000000E-01     -7.928515000000000E+01
4806000000.000000      5.071411000000000E-01     -1.683281000000000E+02      2.763824000000000E-01     -2.121094000000000E+01      2.695160000000000E-01     -1.411484000000000E+02      6.443176000000000E-01     -7.911327000000000E+01
4807000000.000000      5.103760000000000E-01     -1.684219000000000E+02      2.800293000000000E-01     -2.147851000000000E+01      2.738953000000000E-01     -1.415156000000000E+02      6.431274000000000E-01     -7.881249000000000E+01
4808000000.000000      5.127258000000000E-01     -1.683672000000000E+02      2.850647000000000E-01     -2.176074000000000E+01      2.772827000000000E-01     -1.415078000000000E+02      6.429749000000000E-01     -7.850390000000000E+01
4809000000.000000      5.150757000000000E-01     -1.683594000000000E+02      2.885590000000000E-01     -2.233691000000000E+01      2.811737000000000E-01     -1.417031000000000E+02      6.437073000000000E-01     -7.851171000000000E+01
4810000000.000000      5.184021000000000E-01     -1.683906000000000E+02      2.930145000000000E-01     -2.258399000000000E+01      2.842407000000000E-01     -1.417813000000000E+02      6.441040000000000E-01     -7.826562000000000E+01
4811000000.000000      5.213318000000000E-01     -1.683437000000000E+02      2.964020000000000E-01     -2.301856000000000E+01      2.883911000000000E-01     -1.418125000000000E+02      6.440430000000000E-01     -7.794531000000000E+01
4812000000.000000      5.251465000000000E-01     -1.682422000000000E+02      3.002014000000000E-01     -2.338086000000000E+01      2.920074000000000E-01     -1.420469000000000E+02      6.442261000000000E-01     -7.781250000000000E+01
4813000000.000000      5.276489000000000E-01     -1.682109000000000E+02      3.037872000000000E-01     -2.376953000000000E+01      2.946320000000000E-01     -1.420469000000000E+02      6.451111000000000E-01     -7.752343000000000E+01
4814000000.000000      5.306702000000000E-01     -1.682891000000000E+02      3.074646000000000E-01     -2.414160000000000E+01      2.975159000000000E-01     -1.423750000000000E+02      6.461182000000000E-01     -7.747265000000000E+01
4815000000.000000      5.342407000000000E-01     -1.681250000000000E+02      3.106232000000000E-01     -2.452051000000000E+01      3.014526000000000E-01     -1.424453000000000E+02      6.459045000000000E-01     -7.717968000000000E+01
4816000000.000000      5.389099000000000E-01     -1.680156000000000E+02      3.150940000000000E-01     -2.491211000000000E+01      3.049622000000000E-01     -1.425469000000000E+02      6.483154000000000E-01     -7.715625000000000E+01
4817000000.000000      5.436401000000000E-01     -1.679297000000000E+02      3.183899000000000E-01     -2.546582000000000E+01      3.075867000000000E-01     -1.427422000000000E+02      6.492310000000000E-01     -7.681250000000000E+01
4818000000.000000      5.468445000000000E-01     -1.679766000000000E+02      3.212433000000000E-01     -2.575390000000000E+01      3.109436000000000E-01     -1.429141000000000E+02      6.502686000000000E-01     -7.673828000000000E+01
4819000000.000000      5.521545000000000E-01     -1.678672000000000E+02      3.239899000000000E-01     -2.633496000000000E+01      3.132324000000000E-01     -1.430781000000000E+02      6.530151000000000E-01     -7.660546000000000E+01
4820000000.000000      5.543213000000000E-01     -1.677813000000000E+02      3.278961000000000E-01     -2.666308000000000E+01      3.170166000000000E-01     -1.432969000000000E+02      6.545410000000000E-01     -7.641015000000000E+01
4821000000.000000      5.607605000000000E-01     -1.677031000000000E+02      3.319244000000000E-01     -2.720117000000000E+01      3.194885000000000E-01     -1.436094000000000E+02      6.555176000000000E-01     -7.623047000000000E+01
4822000000.000000      5.673523000000000E-01     -1.676172000000000E+02      3.349915000000000E-01     -2.767675000000000E+01      3.217621000000000E-01     -1.438203000000000E+02      6.580811000000000E-01     -7.614452000000000E+01
4823000000.000000      5.704041000000000E-01     -1.675234000000000E+02      3.380127000000000E-01     -2.804883000000000E+01      3.252411000000000E-01     -1.437109000000000E+02      6.599426000000000E-01     -7.600780000000000E+01
4824000000.000000      5.774536000000000E-01     -1.674687000000000E+02      3.411102000000000E-01     -2.872168000000000E+01      3.287811000000000E-01     -1.442188000000000E+02      6.629944000000000E-01     -7.586328000000000E+01
4825000000.000000      5.815430000000000E-01     -1.673750000000000E+02      3.443451000000000E-01     -2.915430000000000E+01      3.309326000000000E-01     -1.442188000000000E+02      6.646729000000000E-01     -7.568749000000000E+01
4826000000.000000      5.878906000000000E-01     -1.672734000000000E+02      3.476105000000000E-01     -2.970703000000000E+01      3.334961000000000E-01     -1.445625000000000E+02      6.676941000000000E-01     -7.568359000000000E+01
4827000000.000000      5.934753000000000E-01     -1.671172000000000E+02      3.500671000000000E-01     -2.999414000000000E+01      3.361053000000000E-01     -1.446640000000000E+02      6.707764000000000E-01     -7.549218000000000E+01
4828000000.000000      5.999756000000000E-01     -1.670547000000000E+02      3.540344000000000E-01     -3.061621000000000E+01      3.383026000000000E-01     -1.447891000000000E+02      6.739197000000000E-01     -7.534374000000000E+01
4829000000.000000      6.036682000000000E-01     -1.669375000000000E+02      3.550568000000000E-01     -3.117676000000000E+01      3.415070000000000E-01     -1.450859000000000E+02      6.766968000000000E-01     -7.515625000000000E+01
4830000000.000000      6.106873000000000E-01     -1.668984000000000E+02      3.579254000000000E-01     -3.181641000000000E+01      3.433380000000000E-01     -1.451953000000000E+02      6.791687000000000E-01     -7.520702000000000E+01
4831000000.000000      6.159973000000000E-01     -1.667734000000000E+02      3.602600000000000E-01     -3.230664000000000E+01      3.467407000000000E-01     -1.453984000000000E+02      6.828003000000000E-01     -7.505468000000000E+01
4832000000.000000      6.244507000000000E-01     -1.667500000000000E+02      3.639679000000000E-01     -3.282227000000000E+01      3.484497000000000E-01     -1.456250000000000E+02      6.858826000000000E-01     -7.500781000000000E+01
4833000000.000000      6.305542000000000E-01     -1.667266000000000E+02      3.656311000000000E-01     -3.336133000000000E+01      3.504639000000000E-01     -1.459063000000000E+02      6.892090000000000E-01     -7.494922000000000E+01
4834000000.000000      6.365051000000000E-01     -1.665937000000000E+02      3.677521000000000E-01     -3.378125000000000E+01      3.532867000000000E-01     -1.460312000000000E+02      6.925964000000000E-01     -7.487890000000000E+01
4835000000.000000      6.423035000000000E-01     -1.665313000000000E+02      3.696594000000000E-01     -3.449414000000000E+01      3.554077000000000E-01     -1.461406000000000E+02      6.962891000000000E-01     -7.495703000000000E+01
4836000000.000000      6.513367000000000E-01     -1.663984000000000E+02      3.722076000000000E-01     -3.497070000000000E+01      3.576050000000000E-01     -1.463516000000000E+02      6.999817000000000E-01     -7.475390000000000E+01
4837000000.000000      6.578064000000000E-01     -1.662578000000000E+02      3.736267000000000E-01     -3.567578000000000E+01      3.589325000000000E-01     -1.466172000000000E+02      7.025452000000000E-01     -7.463672000000000E+01
4838000000.000000      6.643372000000000E-01     -1.663516000000000E+02      3.765106000000000E-01     -3.613086000000000E+01      3.623352000000000E-01     -1.467422000000000E+02      7.074585000000000E-01     -7.469140000000000E+01
4839000000.000000      6.725159000000000E-01     -1.661328000000000E+02      3.769989000000000E-01     -3.673828000000000E+01      3.635712000000000E-01     -1.469922000000000E+02      7.115479000000000E-01     -7.460546000000000E+01
4840000000.000000      6.766968000000000E-01     -1.661641000000000E+02      3.779449000000000E-01     -3.711914000000000E+01      3.662415000000000E-01     -1.472188000000000E+02      7.150574000000000E-01     -7.462891000000000E+01
4841000000.000000      6.857910000000000E-01     -1.662109000000000E+02      3.811493000000000E-01     -3.791601000000000E+01      3.681335000000000E-01     -1.474531000000000E+02      7.196960000000000E-01     -7.460546000000000E+01
4842000000.000000      6.924744000000000E-01     -1.660547000000000E+02      3.813019000000000E-01     -3.833203000000000E+01      3.697662000000000E-01     -1.476406000000000E+02      7.243958000000000E-01     -7.450390000000000E+01
4843000000.000000      6.988220000000000E-01     -1.661016000000000E+02      3.828278000000000E-01     -3.898633000000000E+01      3.712311000000000E-01     -1.477813000000000E+02      7.282410000000000E-01     -7.451953000000000E+01
4844000000.000000      7.060242000000000E-01     -1.660156000000000E+02      3.841705000000000E-01     -3.943164000000000E+01      3.726807000000000E-01     -1.480078000000000E+02      7.326965000000000E-01     -7.451953000000000E+01
4845000000.000000      7.129822000000000E-01     -1.659609000000000E+02      3.856812000000000E-01     -4.006055000000000E+01      3.747253000000000E-01     -1.482031000000000E+02      7.355347000000000E-01     -7.450000000000000E+01
4846000000.000000      7.196350000000000E-01     -1.658672000000000E+02      3.865204000000000E-01     -4.042188000000000E+01      3.768768000000000E-01     -1.483047000000000E+02      7.413940000000000E-01     -7.441796000000000E+01
4847000000.000000      7.283020000000000E-01     -1.658594000000000E+02      3.877106000000000E-01     -4.099609000000000E+01      3.790283000000000E-01     -1.485312000000000E+02      7.467041000000000E-01     -7.456640000000000E+01
4848000000.000000      7.351990000000000E-01     -1.659219000000000E+02      3.880920000000000E-01     -4.156250000000000E+01      3.801270000000000E-01     -1.487187000000000E+02      7.493591000000000E-01     -7.455078000000000E+01
4849000000.000000      7.421265000000000E-01     -1.660469000000000E+02      3.888702000000000E-01     -4.232812000000000E+01      3.816376000000000E-01     -1.489297000000000E+02      7.546387000000000E-01     -7.452734000000000E+01
4850000000.000000      7.488403000000000E-01     -1.658516000000000E+02      3.896790000000000E-01     -4.259375000000000E+01      3.831635000000000E-01     -1.490625000000000E+02      7.591858000000000E-01     -7.443359000000000E+01
4851000000.000000      7.563171000000000E-01     -1.657812000000000E+02      3.901978000000000E-01     -4.328906000000000E+01      3.850250000000000E-01     -1.492422000000000E+02      7.643738000000000E-01     -7.452734000000000E+01
4852000000.000000      7.635193000000000E-01     -1.658516000000000E+02      3.905792000000000E-01     -4.389453000000000E+01      3.863983000000000E-01     -1.493672000000000E+02      7.688599000000000E-01     -7.457812000000000E+01
4853000000.000000      7.699280000000000E-01     -1.658828000000000E+02      3.884583000000000E-01     -4.437696000000000E+01      3.888855000000000E-01     -1.496406000000000E+02      7.742920000000000E-01     -7.470703000000000E+01
4854000000.000000      7.763367000000000E-01     -1.658828000000000E+02      3.904266000000000E-01     -4.500196000000000E+01      3.889008000000000E-01     -1.498906000000000E+02      7.786865000000000E-01     -7.458984000000000E+01
4855000000.000000      7.809143000000000E-01     -1.658828000000000E+02      3.894958000000000E-01     -4.527344000000000E+01      3.897858000000000E-01     -1.499141000000000E+02      7.814331000000000E-01     -7.465234000000000E+01
4856000000.000000      7.893066000000000E-01     -1.657422000000000E+02      3.896790000000000E-01     -4.571289000000000E+01      3.911438000000000E-01     -1.501797000000000E+02      7.878723000000000E-01     -7.479687000000000E+01
4857000000.000000      7.964172000000000E-01     -1.658750000000000E+02      3.898773000000000E-01     -4.631445000000000E+01      3.928375000000000E-01     -1.503125000000000E+02      7.923584000000000E-01     -7.469531000000000E+01
4858000000.000000      7.993164000000000E-01     -1.659219000000000E+02      3.898621000000000E-01     -4.679101000000000E+01      3.939209000000000E-01     -1.504922000000000E+02      7.970581000000000E-01     -7.487499000000000E+01
4859000000.000000      8.070679000000000E-01     -1.658516000000000E+02      3.895569000000000E-01     -4.737500000000000E+01      3.950500000000000E-01     -1.507266000000000E+02      8.034058000000000E-01     -7.500390000000000E+01
4860000000.000000      8.146057000000000E-01     -1.657500000000000E+02      3.891907000000000E-01     -4.779101000000000E+01      3.963776000000000E-01     -1.507813000000000E+02      8.064880000000000E-01     -7.493750000000000E+01
4861000000.000000      8.197937000000000E-01     -1.656797000000000E+02      3.883057000000000E-01     -4.837304000000000E+01      3.975220000000000E-01     -1.510313000000000E+02      8.116455000000000E-01     -7.503124000000000E+01
4862000000.000000      8.245239000000000E-01     -1.658125000000000E+02      3.881073000000000E-01     -4.868554000000000E+01      3.988495000000000E-01     -1.511406000000000E+02      8.185425000000000E-01     -7.511328000000000E+01
4863000000.000000      8.277588000000000E-01     -1.658750000000000E+02      3.860474000000000E-01     -4.931641000000000E+01      3.997955000000000E-01     -1.512109000000000E+02      8.225403000000000E-01     -7.513672000000000E+01
4864000000.000000      8.349609000000000E-01     -1.657500000000000E+02      3.861084000000000E-01     -4.956055000000000E+01      3.997345000000000E-01     -1.514609000000000E+02      8.269043000000000E-01     -7.534374000000000E+01
4865000000.000000      8.404846000000000E-01     -1.659688000000000E+02      3.852539000000000E-01     -4.988476000000000E+01      4.008484000000000E-01     -1.516953000000000E+02      8.331299000000000E-01     -7.528515000000000E+01
4866000000.000000      8.443298000000000E-01     -1.658828000000000E+02      3.835297000000000E-01     -5.038280000000000E+01      4.022675000000000E-01     -1.518594000000000E+02      8.370056000000000E-01     -7.534765000000000E+01
4867000000.000000      8.496094000000000E-01     -1.659375000000000E+02      3.839417000000000E-01     -5.073828000000000E+01      4.032593000000000E-01     -1.519609000000000E+02      8.420715000000000E-01     -7.535546000000000E+01
4868000000.000000      8.534546000000000E-01     -1.657812000000000E+02      3.823547000000000E-01     -5.126758000000000E+01      4.043579000000000E-01     -1.521406000000000E+02      8.468933000000000E-01     -7.544531000000000E+01
4869000000.000000      8.562622000000000E-01     -1.658437000000000E+02      3.802338000000000E-01     -5.148046000000000E+01      4.046326000000000E-01     -1.523828000000000E+02      8.519287000000000E-01     -7.569921000000000E+01
4870000000.000000      8.602600000000000E-01     -1.658594000000000E+02      3.798676000000000E-01     -5.157227000000000E+01      4.050751000000000E-01     -1.526172000000000E+02      8.577271000000000E-01     -7.567968000000000E+01
4871000000.000000      8.648071000000000E-01     -1.658672000000000E+02      3.781281000000000E-01     -5.221680000000000E+01      4.047852000000000E-01     -1.527812000000000E+02      8.598938000000000E-01     -7.583984000000000E+01
4872000000.000000      8.703308000000000E-01     -1.658281000000000E+02      3.765259000000000E-01     -5.228516000000000E+01      4.057922000000000E-01     -1.530313000000000E+02      8.657227000000000E-01     -7.592578000000000E+01
4873000000.000000      8.715515000000000E-01     -1.657656000000000E+02      3.748779000000000E-01     -5.282617000000000E+01      4.058838000000000E-01     -1.530547000000000E+02      8.691711000000000E-01     -7.597656000000000E+01
4874000000.000000      8.748169000000000E-01     -1.656484000000000E+02      3.738708000000000E-01     -5.315820000000000E+01      4.073486000000000E-01     -1.531953000000000E+02      8.740845000000000E-01     -7.594921000000000E+01
4875000000.000000      8.800354000000000E-01     -1.657812000000000E+02      3.712616000000000E-01     -5.318945000000000E+01      4.074554000000000E-01     -1.535000000000000E+02      8.788452000000000E-01     -7.628515000000000E+01
4876000000.000000      8.799133000000000E-01     -1.657734000000000E+02      3.715820000000000E-01     -5.371288000000000E+01      4.069672000000000E-01     -1.536250000000000E+02      8.829346000000000E-01     -7.635156000000000E+01
4877000000.000000      8.831177000000000E-01     -1.657109000000000E+02      3.703766000000000E-01     -5.378906000000000E+01      4.078522000000000E-01     -1.538359000000000E+02      8.873291000000000E-01     -7.657421000000000E+01
4878000000.000000      8.855591000000000E-01     -1.655391000000000E+02      3.693695000000000E-01     -5.411718000000000E+01      4.076233000000000E-01     -1.538203000000000E+02      8.933105000000000E-01     -7.663671000000000E+01
4879000000.000000      8.904419000000000E-01     -1.656484000000000E+02      3.666382000000000E-01     -5.437304000000000E+01      4.077148000000000E-01     -1.540937000000000E+02      8.944092000000000E-01     -7.662890000000000E+01
4880000000.000000      8.897705000000000E-01     -1.655391000000000E+02      3.659058000000000E-01     -5.460742000000000E+01      4.083710000000000E-01     -1.541406000000000E+02      8.991394000000000E-01     -7.670703000000000E+01
4881000000.000000      8.950806000000000E-01     -1.652969000000000E+02      3.650055000000000E-01     -5.465429000000000E+01      4.085083000000000E-01     -1.543828000000000E+02      9.042664000000000E-01     -7.694530000000000E+01
4882000000.000000      8.948364000000000E-01     -1.651875000000000E+02      3.629913000000000E-01     -5.487695000000000E+01      4.082184000000000E-01     -1.544765000000000E+02      9.059143000000000E-01     -7.701562000000000E+01
