! Network Analyzer HP8722D
! Hewlett-Packard
! Data name: Linha & Wilkinson
! Saver's name: Rodrigo Anjos
! Comments: Teste da utilização de aquisição
continua pelo VNA HP8722D
! Time and date: 6/5/2025 14:40
!              Frequency                     S11                                                   S21                                                   S12                                                   S22
# HZ  S  MA R 50
4800000000.000000      4.969177000000000E-01     -1.682344000000000E+02      2.517090000000000E-01     -1.954199000000000E+01      2.487335000000000E-01     -1.408828000000000E+02      6.478577000000000E-01     -8.039843000000000E+01
4801000000.000000      4.980927000000000E-01     -1.683359000000000E+02      2.558289000000000E-01     -1.984961000000000E+01      2.524872000000000E-01     -1.410859000000000E+02      6.470032000000000E-01     -8.006639000000000E+01
4802000000.000000      4.991913000000000E-01     -1.683906000000000E+02      2.600861000000000E-01     -2.003906000000000E+01      2.561493000000000E-01     -1.409688000000000E+02      6.449585000000000E-01     -7.974609000000000E+01
4803000000.000000      5.010986000000000E-01     -1.684844000000000E+02      2.652893000000000E-01     -2.031738000000000E+01      2.591400000000000E-01     -1.410078000000000E+02      6.448059000000000E-01     -7.966797000000000E+01
4804000000.000000      5.032349000000000E-01     -1.684297000000000E+02      2.682953000000000E-01     -2.064941000000000E+01      2.631989000000000E-01     -1.412500000000000E+02      6.451721000000000E-01     -7.942577000000000E+01
4805000000.000000      5.060120000000000E-01     -1.685000000000000E+02      2.725830000000000E-01     -2.086719000000000E+01      2.674713000000000E-01     -1.413125000000000E+02      6.438293000000000E-01     -7.922656000000000E+01
4806000000.000000      5.071411000000000E-01     -1.684297000000000E+02      2.767334000000000E-01     -2.119043000000000E+01      2.699127000000000E-01     -1.411719000000000E+02      6.439819000000000E-01     -7.920312000000000E+01
4807000000.000000      5.108337000000000E-01     -1.684297000000000E+02      2.806854000000000E-01     -2.165430000000000E+01      2.740326000000000E-01     -1.414219000000000E+02      6.424561000000000E-01     -7.877343000000000E+01
4808000000.000000      5.126038000000000E-01     -1.683984000000000E+02      2.850037000000000E-01     -2.187109000000000E+01      2.775269000000000E-01     -1.415937000000000E+02      6.428223000000000E-01     -7.855469000000000E+01
4809000000.000000      5.152893000000000E-01     -1.684062000000000E+02      2.882996000000000E-01     -2.225586000000000E+01      2.815399000000000E-01     -1.417656000000000E+02      6.438904000000000E-01     -7.851563000000000E+01
4810000000.000000      5.182495000000000E-01     -1.683672000000000E+02      2.924805000000000E-01     -2.254590000000000E+01      2.846985000000000E-01     -1.417813000000000E+02      6.444702000000000E-01     -7.817187000000000E+01
4811000000.000000      5.213623000000000E-01     -1.683672000000000E+02      2.967072000000000E-01     -2.304394000000000E+01      2.892151000000000E-01     -1.419219000000000E+02      6.441345000000000E-01     -7.795312000000000E+01
4812000000.000000      5.258484000000000E-01     -1.683359000000000E+02      2.998505000000000E-01     -2.340918000000000E+01      2.917328000000000E-01     -1.420078000000000E+02      6.444397000000000E-01     -7.783593000000000E+01
4813000000.000000      5.280457000000000E-01     -1.682578000000000E+02      3.041077000000000E-01     -2.379687000000000E+01      2.944183000000000E-01     -1.421250000000000E+02      6.451111000000000E-01     -7.752343000000000E+01
4814000000.000000      5.305786000000000E-01     -1.683203000000000E+02      3.074951000000000E-01     -2.423925000000000E+01      2.980804000000000E-01     -1.424531000000000E+02      6.470337000000000E-01     -7.747656000000000E+01
4815000000.000000      5.343933000000000E-01     -1.681641000000000E+02      3.111267000000000E-01     -2.455469000000000E+01      3.010864000000000E-01     -1.424844000000000E+02      6.467590000000000E-01     -7.715625000000000E+01
4816000000.000000      5.397644000000000E-01     -1.680703000000000E+02      3.150177000000000E-01     -2.488183000000000E+01      3.051605000000000E-01     -1.425937000000000E+02      6.485596000000000E-01     -7.697656000000000E+01
4817000000.000000      5.437622000000000E-01     -1.679922000000000E+02      3.187561000000000E-01     -2.538574000000000E+01      3.073883000000000E-01     -1.428516000000000E+02      6.488953000000000E-01     -7.683203000000000E+01
4818000000.000000      5.472107000000000E-01     -1.679766000000000E+02      3.211212000000000E-01     -2.582422000000000E+01      3.107758000000000E-01     -1.430000000000000E+02      6.513367000000000E-01     -7.677343000000000E+01
4819000000.000000      5.522766000000000E-01     -1.679219000000000E+02      3.251648000000000E-01     -2.636719000000000E+01      3.135834000000000E-01     -1.431953000000000E+02      6.535339000000000E-01     -7.667578000000000E+01
4820000000.000000      5.550232000000000E-01     -1.678437000000000E+02      3.283386000000000E-01     -2.673535000000000E+01      3.163605000000000E-01     -1.433125000000000E+02      6.545410000000000E-01     -7.641015000000000E+01
4821000000.000000      5.601807000000000E-01     -1.677422000000000E+02      3.318939000000000E-01     -2.729785000000000E+01      3.199768000000000E-01     -1.436094000000000E+02      6.548767000000000E-01     -7.628515000000000E+01
4822000000.000000      5.669861000000000E-01     -1.677031000000000E+02      3.343353000000000E-01     -2.766308000000000E+01      3.219452000000000E-01     -1.438359000000000E+02      6.590881000000000E-01     -7.619531000000000E+01
4823000000.000000      5.705566000000000E-01     -1.675625000000000E+02      3.383636000000000E-01     -2.814648000000000E+01      3.251190000000000E-01     -1.438047000000000E+02      6.593323000000000E-01     -7.590234000000000E+01
4824000000.000000      5.776978000000000E-01     -1.675234000000000E+02      3.416443000000000E-01     -2.862695000000000E+01      3.286438000000000E-01     -1.441562000000000E+02      6.638489000000000E-01     -7.576953000000000E+01
4825000000.000000      5.821228000000000E-01     -1.674687000000000E+02      3.437195000000000E-01     -2.915234000000000E+01      3.321991000000000E-01     -1.442422000000000E+02      6.656494000000000E-01     -7.568359000000000E+01
4826000000.000000      5.882263000000000E-01     -1.672734000000000E+02      3.473206000000000E-01     -2.967968000000000E+01      3.331604000000000E-01     -1.445859000000000E+02      6.675415000000000E-01     -7.564453000000000E+01
4827000000.000000      5.937805000000000E-01     -1.671953000000000E+02      3.501282000000000E-01     -3.005468000000000E+01      3.361053000000000E-01     -1.446328000000000E+02      6.708984000000000E-01     -7.546484000000000E+01
4828000000.000000      6.005249000000000E-01     -1.671328000000000E+02      3.530273000000000E-01     -3.074023000000000E+01      3.385773000000000E-01     -1.450234000000000E+02      6.744080000000000E-01     -7.542969000000000E+01
4829000000.000000      6.036987000000000E-01     -1.669609000000000E+02      3.553772000000000E-01     -3.111523000000000E+01      3.416443000000000E-01     -1.451484000000000E+02      6.769104000000000E-01     -7.527344000000000E+01
4830000000.000000      6.119385000000000E-01     -1.669219000000000E+02      3.575745000000000E-01     -3.185254000000000E+01      3.440399000000000E-01     -1.451953000000000E+02      6.789551000000000E-01     -7.521484000000000E+01
4831000000.000000      6.165466000000000E-01     -1.668437000000000E+02      3.601837000000000E-01     -3.234570000000000E+01      3.457794000000000E-01     -1.454609000000000E+02      6.837158000000000E-01     -7.511719000000000E+01
4832000000.000000      6.251831000000000E-01     -1.666953000000000E+02      3.628998000000000E-01     -3.284961000000000E+01      3.482056000000000E-01     -1.456172000000000E+02      6.864929000000000E-01     -7.507030000000000E+01
4833000000.000000      6.311035000000000E-01     -1.667344000000000E+02      3.651581000000000E-01     -3.343164000000000E+01      3.503723000000000E-01     -1.459375000000000E+02      6.895752000000000E-01     -7.503515000000000E+01
4834000000.000000      6.364441000000000E-01     -1.666172000000000E+02      3.681183000000000E-01     -3.389062000000000E+01      3.528900000000000E-01     -1.461484000000000E+02      6.922302000000000E-01     -7.496094000000000E+01
4835000000.000000      6.435852000000000E-01     -1.665469000000000E+02      3.697205000000000E-01     -3.459179000000000E+01      3.549957000000000E-01     -1.461875000000000E+02      6.959839000000000E-01     -7.492188000000000E+01
4836000000.000000      6.519775000000000E-01     -1.664453000000000E+02      3.716125000000000E-01     -3.505468000000000E+01      3.573151000000000E-01     -1.465156000000000E+02      6.997375000000000E-01     -7.474609000000000E+01
4837000000.000000      6.577454000000000E-01     -1.663359000000000E+02      3.742065000000000E-01     -3.584375000000000E+01      3.589478000000000E-01     -1.468203000000000E+02      7.041321000000000E-01     -7.474609000000000E+01
4838000000.000000      6.651611000000000E-01     -1.664063000000000E+02      3.764191000000000E-01     -3.620117000000000E+01      3.614197000000000E-01     -1.467500000000000E+02      7.076416000000000E-01     -7.469140000000000E+01
4839000000.000000      6.718140000000000E-01     -1.661953000000000E+02      3.769226000000000E-01     -3.666992000000000E+01      3.636169000000000E-01     -1.470000000000000E+02      7.120361000000000E-01     -7.455078000000000E+01
4840000000.000000      6.778870000000000E-01     -1.662188000000000E+02      3.788147000000000E-01     -3.721484000000000E+01      3.653107000000000E-01     -1.473281000000000E+02      7.155762000000000E-01     -7.459765000000000E+01
4841000000.000000      6.857300000000000E-01     -1.662734000000000E+02      3.803406000000000E-01     -3.795703000000000E+01      3.669586000000000E-01     -1.476172000000000E+02      7.201233000000000E-01     -7.458593000000000E+01
4842000000.000000      6.927185000000000E-01     -1.661328000000000E+02      3.826294000000000E-01     -3.830859000000000E+01      3.691864000000000E-01     -1.476953000000000E+02      7.248535000000000E-01     -7.455468000000000E+01
4843000000.000000      6.998596000000000E-01     -1.661406000000000E+02      3.835449000000000E-01     -3.899609000000000E+01      3.710175000000000E-01     -1.478828000000000E+02      7.282410000000000E-01     -7.444921000000000E+01
4844000000.000000      7.064514000000000E-01     -1.660859000000000E+02      3.834686000000000E-01     -3.959570000000000E+01      3.725433000000000E-01     -1.480156000000000E+02      7.330933000000000E-01     -7.460546000000000E+01
4845000000.000000      7.132874000000000E-01     -1.659609000000000E+02      3.844147000000000E-01     -4.008985000000000E+01      3.747253000000000E-01     -1.481953000000000E+02      7.367859000000000E-01     -7.450000000000000E+01
4846000000.000000      7.200317000000000E-01     -1.658906000000000E+02      3.869476000000000E-01     -4.067578000000000E+01      3.772278000000000E-01     -1.484297000000000E+02      7.418518000000000E-01     -7.449609000000000E+01
4847000000.000000      7.281799000000000E-01     -1.659844000000000E+02      3.876648000000000E-01     -4.113281000000000E+01      3.784943000000000E-01     -1.486172000000000E+02      7.467041000000000E-01     -7.452343000000000E+01
4848000000.000000      7.359009000000000E-01     -1.659688000000000E+02      3.871918000000000E-01     -4.167969000000000E+01      3.802185000000000E-01     -1.487578000000000E+02      7.496033000000000E-01     -7.455468000000000E+01
4849000000.000000      7.425232000000000E-01     -1.661016000000000E+02      3.886261000000000E-01     -4.245117000000000E+01      3.819122000000000E-01     -1.490156000000000E+02      7.546387000000000E-01     -7.449609000000000E+01
4850000000.000000      7.498169000000000E-01     -1.659062000000000E+02      3.890686000000000E-01     -4.269140000000000E+01      3.832397000000000E-01     -1.490234000000000E+02      7.593384000000000E-01     -7.448437000000000E+01
4851000000.000000      7.567444000000000E-01     -1.658437000000000E+02      3.900757000000000E-01     -4.344336000000000E+01      3.843384000000000E-01     -1.492578000000000E+02      7.642212000000000E-01     -7.451562000000000E+01
4852000000.000000      7.633057000000000E-01     -1.658906000000000E+02      3.899689000000000E-01     -4.395898000000000E+01      3.861847000000000E-01     -1.494688000000000E+02      7.694397000000000E-01     -7.459374000000000E+01
4853000000.000000      7.702026000000000E-01     -1.658984000000000E+02      3.892059000000000E-01     -4.441015000000000E+01      3.880463000000000E-01     -1.496719000000000E+02      7.733765000000000E-01     -7.478516000000000E+01
4854000000.000000      7.770691000000000E-01     -1.659219000000000E+02      3.900146000000000E-01     -4.498437000000000E+01      3.890839000000000E-01     -1.498281000000000E+02      7.782288000000000E-01     -7.467187000000000E+01
4855000000.000000      7.816162000000000E-01     -1.658828000000000E+02      3.892059000000000E-01     -4.547265000000000E+01      3.900757000000000E-01     -1.498984000000000E+02      7.817688000000000E-01     -7.469140000000000E+01
4856000000.000000      7.902527000000000E-01     -1.657969000000000E+02      3.895569000000000E-01     -4.585742000000000E+01      3.910370000000000E-01     -1.501328000000000E+02      7.866821000000000E-01     -7.473827000000000E+01
4857000000.000000      7.956238000000000E-01     -1.659453000000000E+02      3.908234000000000E-01     -4.641211000000000E+01      3.929138000000000E-01     -1.503047000000000E+02      7.925720000000000E-01     -7.472265000000000E+01
4858000000.000000      7.995300000000000E-01     -1.659219000000000E+02      3.898773000000000E-01     -4.681445000000000E+01      3.938751000000000E-01     -1.506250000000000E+02      7.972107000000000E-01     -7.488281000000000E+01
4859000000.000000      8.055420000000000E-01     -1.659297000000000E+02      3.891602000000000E-01     -4.746875000000000E+01      3.952789000000000E-01     -1.507656000000000E+02      8.031006000000000E-01     -7.505077000000000E+01
4860000000.000000      8.148804000000000E-01     -1.658906000000000E+02      3.881378000000000E-01     -4.766992000000000E+01      3.955994000000000E-01     -1.508906000000000E+02      8.070679000000000E-01     -7.498437000000000E+01
4861000000.000000      8.210144000000000E-01     -1.658594000000000E+02      3.876495000000000E-01     -4.846874000000000E+01      3.975067000000000E-01     -1.510391000000000E+02      8.119812000000000E-01     -7.505468000000000E+01
4862000000.000000      8.253784000000000E-01     -1.658047000000000E+02      3.877411000000000E-01     -4.869922000000000E+01      3.984528000000000E-01     -1.512187000000000E+02      8.184509000000000E-01     -7.506249000000000E+01
4863000000.000000      8.280945000000000E-01     -1.658594000000000E+02      3.864136000000000E-01     -4.930664000000000E+01      3.997040000000000E-01     -1.513672000000000E+02      8.243713000000000E-01     -7.508594000000000E+01
4864000000.000000      8.363647000000000E-01     -1.659297000000000E+02      3.870239000000000E-01     -4.965820000000000E+01      3.996887000000000E-01     -1.514688000000000E+02      8.262024000000000E-01     -7.524609000000000E+01
4865000000.000000      8.374329000000000E-01     -1.660938000000000E+02      3.847809000000000E-01     -4.989258000000000E+01      4.004669000000000E-01     -1.517344000000000E+02      8.332520000000000E-01     -7.520702000000000E+01
4866000000.000000      8.425293000000000E-01     -1.659531000000000E+02      3.837585000000000E-01     -5.033008000000000E+01      4.019318000000000E-01     -1.518750000000000E+02      8.373108000000000E-01     -7.529297000000000E+01
4867000000.000000      8.476563000000000E-01     -1.657891000000000E+02      3.838806000000000E-01     -5.080078000000000E+01      4.031982000000000E-01     -1.520391000000000E+02      8.425293000000000E-01     -7.537890000000000E+01
4868000000.000000      8.538513000000000E-01     -1.659844000000000E+02      3.822174000000000E-01     -5.110742000000000E+01      4.040833000000000E-01     -1.521875000000000E+02      8.466492000000000E-01     -7.551952000000000E+01
4869000000.000000      8.546448000000000E-01     -1.658750000000000E+02      3.793030000000000E-01     -5.150000000000000E+01      4.046173000000000E-01     -1.524141000000000E+02      8.517761000000000E-01     -7.572266000000000E+01
4870000000.000000      8.598633000000000E-01     -1.658828000000000E+02      3.800812000000000E-01     -5.185547000000000E+01      4.046478000000000E-01     -1.525938000000000E+02      8.557739000000000E-01     -7.562109000000000E+01
4871000000.000000      8.637695000000000E-01     -1.660938000000000E+02      3.777771000000000E-01     -5.231835000000000E+01      4.047699000000000E-01     -1.528125000000000E+02      8.609314000000000E-01     -7.585546000000000E+01
4872000000.000000      8.713989000000000E-01     -1.659141000000000E+02      3.768158000000000E-01     -5.241992000000000E+01      4.055786000000000E-01     -1.530781000000000E+02      8.672180000000000E-01     -7.589062000000000E+01
4873000000.000000      8.731079000000000E-01     -1.658203000000000E+02      3.755188000000000E-01     -5.291406000000000E+01      4.054108000000000E-01     -1.530859000000000E+02      8.692627000000000E-01     -7.607812000000000E+01
4874000000.000000      8.756104000000000E-01     -1.657969000000000E+02      3.741302000000000E-01     -5.317577000000000E+01      4.071350000000000E-01     -1.532344000000000E+02      8.727417000000000E-01     -7.595703000000000E+01
4875000000.000000      8.795776000000000E-01     -1.657891000000000E+02      3.731384000000000E-01     -5.340038000000000E+01      4.074249000000000E-01     -1.535781000000000E+02      8.784485000000000E-01     -7.628124000000000E+01
4876000000.000000      8.818359000000000E-01     -1.657734000000000E+02      3.725739000000000E-01     -5.373241000000000E+01      4.062805000000000E-01     -1.536328000000000E+02      8.840027000000000E-01     -7.645312000000000E+01
4877000000.000000      8.842773000000000E-01     -1.656406000000000E+02      3.696136000000000E-01     -5.382813000000000E+01      4.076080000000000E-01     -1.538750000000000E+02      8.862915000000000E-01     -7.653906000000000E+01
4878000000.000000      8.857727000000000E-01     -1.655469000000000E+02      3.687286000000000E-01     -5.403710000000000E+01      4.076385000000000E-01     -1.538984000000000E+02      8.906860000000000E-01     -7.660937000000000E+01
4879000000.000000      8.909607000000000E-01     -1.654766000000000E+02      3.669128000000000E-01     -5.437304000000000E+01      4.076080000000000E-01     -1.540937000000000E+02      8.944702000000000E-01     -7.671484000000000E+01
4880000000.000000      8.900452000000000E-01     -1.655859000000000E+02      3.663177000000000E-01     -5.474218000000000E+01      4.081268000000000E-01     -1.541719000000000E+02      8.998718000000000E-01     -7.678124000000000E+01
4881000000.000000      8.950500000000000E-01     -1.652891000000000E+02      3.650208000000000E-01     -5.471484000000000E+01      4.083862000000000E-01     -1.544844000000000E+02      9.028931000000000E-01     -7.689453000000000E+01
4882000000.000000      8.938293000000000E-01     -1.652500000000000E+02      3.626404000000000E-01     -5.488086000000000E+01      4.077759000000000E-01     -1.545234000000000E+02      9.052734000000000E-01     -7.701562000000000E+01
