! Network Analyzer HP8722D
! Hewlett-Packard
! Data name: Linha & Wilkinson
! Saver's name: Rodrigo Anjos
! Comments: Teste da utilização de aquisição
continua pelo VNA HP8722D
! Time and date: 6/5/2025 15:42
!              Frequency                     S11                                                   S21                                                   S12                                                   S22
# HZ  S  MA R 50
4800000000.000000      4.965057000000000E-01     -1.681172000000000E+02      2.508392000000000E-01     -1.950781000000000E+01      2.478333000000000E-01     -1.407422000000000E+02      6.479797000000000E-01     -8.033203000000000E+01
4801000000.000000      4.974518000000000E-01     -1.682344000000000E+02      2.555389000000000E-01     -1.970996000000000E+01      2.512817000000000E-01     -1.409062000000000E+02      6.456604000000000E-01     -8.011328000000000E+01
4802000000.000000      4.989319000000000E-01     -1.682969000000000E+02      2.593231000000000E-01     -1.988965000000000E+01      2.555542000000000E-01     -1.407656000000000E+02      6.446838000000000E-01     -7.988281000000000E+01
4803000000.000000      5.003357000000000E-01     -1.683672000000000E+02      2.638092000000000E-01     -2.015332000000000E+01      2.586517000000000E-01     -1.408203000000000E+02      6.442566000000000E-01     -7.967968000000000E+01
4804000000.000000      5.024109000000000E-01     -1.682812000000000E+02      2.677917000000000E-01     -2.036231000000000E+01      2.630920000000000E-01     -1.409922000000000E+02      6.437988000000000E-01     -7.948437000000000E+01
4805000000.000000      5.054321000000000E-01     -1.684062000000000E+02      2.716064000000000E-01     -2.078516000000000E+01      2.660828000000000E-01     -1.410469000000000E+02      6.444702000000000E-01     -7.939453000000000E+01
4806000000.000000      5.069275000000000E-01     -1.683437000000000E+02      2.758484000000000E-01     -2.096972000000000E+01      2.689209000000000E-01     -1.410078000000000E+02      6.435547000000000E-01     -7.910937000000000E+01
4807000000.000000      5.095215000000000E-01     -1.683594000000000E+02      2.803345000000000E-01     -2.139355000000000E+01      2.736664000000000E-01     -1.412422000000000E+02      6.432800000000000E-01     -7.877734000000000E+01
4808000000.000000      5.123901000000000E-01     -1.682891000000000E+02      2.839661000000000E-01     -2.156250000000000E+01      2.769165000000000E-01     -1.412578000000000E+02      6.426086000000000E-01     -7.858203000000000E+01
4809000000.000000      5.149536000000000E-01     -1.683203000000000E+02      2.879639000000000E-01     -2.209668000000000E+01      2.806396000000000E-01     -1.415625000000000E+02      6.432495000000000E-01     -7.849609000000000E+01
4810000000.000000      5.172729000000000E-01     -1.683672000000000E+02      2.916718000000000E-01     -2.233984000000000E+01      2.838898000000000E-01     -1.416016000000000E+02      6.437073000000000E-01     -7.826172000000000E+01
4811000000.000000      5.208740000000000E-01     -1.683281000000000E+02      2.961578000000000E-01     -2.295898000000000E+01      2.877960000000000E-01     -1.416328000000000E+02      6.435547000000000E-01     -7.791797000000000E+01
4812000000.000000      5.249634000000000E-01     -1.681562000000000E+02      2.995911000000000E-01     -2.324707000000000E+01      2.912140000000000E-01     -1.417813000000000E+02      6.445923000000000E-01     -7.776953000000000E+01
4813000000.000000      5.273743000000000E-01     -1.681641000000000E+02      3.031158000000000E-01     -2.352637000000000E+01      2.940063000000000E-01     -1.418984000000000E+02      6.441345000000000E-01     -7.756640000000000E+01
4814000000.000000      5.297852000000000E-01     -1.682422000000000E+02      3.067474000000000E-01     -2.384863000000000E+01      2.980194000000000E-01     -1.420859000000000E+02      6.464844000000000E-01     -7.739452000000000E+01
4815000000.000000      5.335388000000000E-01     -1.680547000000000E+02      3.102875000000000E-01     -2.441797000000000E+01      3.006134000000000E-01     -1.422344000000000E+02      6.460571000000000E-01     -7.711328000000000E+01
4816000000.000000      5.381470000000000E-01     -1.679375000000000E+02      3.148193000000000E-01     -2.458398000000000E+01      3.045807000000000E-01     -1.423281000000000E+02      6.485596000000000E-01     -7.700000000000000E+01
4817000000.000000      5.425415000000000E-01     -1.678516000000000E+02      3.177185000000000E-01     -2.518945000000000E+01      3.071594000000000E-01     -1.425937000000000E+02      6.487427000000000E-01     -7.689843000000000E+01
4818000000.000000      5.465698000000000E-01     -1.679062000000000E+02      3.205414000000000E-01     -2.554199000000000E+01      3.107300000000000E-01     -1.426406000000000E+02      6.494141000000000E-01     -7.678124000000000E+01
4819000000.000000      5.512085000000000E-01     -1.678203000000000E+02      3.241425000000000E-01     -2.608301000000000E+01      3.130341000000000E-01     -1.429375000000000E+02      6.530151000000000E-01     -7.661718000000000E+01
4820000000.000000      5.539856000000000E-01     -1.676953000000000E+02      3.268433000000000E-01     -2.658984000000000E+01      3.164063000000000E-01     -1.431719000000000E+02      6.542358000000000E-01     -7.638672000000000E+01
4821000000.000000      5.599060000000000E-01     -1.676172000000000E+02      3.309784000000000E-01     -2.693457000000000E+01      3.193817000000000E-01     -1.434609000000000E+02      6.545715000000000E-01     -7.625781000000000E+01
4822000000.000000      5.664673000000000E-01     -1.675547000000000E+02      3.342438000000000E-01     -2.746387000000000E+01      3.217163000000000E-01     -1.435469000000000E+02      6.577454000000000E-01     -7.612499000000000E+01
4823000000.000000      5.702209000000000E-01     -1.674844000000000E+02      3.374481000000000E-01     -2.776562000000000E+01      3.246613000000000E-01     -1.436016000000000E+02      6.598511000000000E-01     -7.598827000000000E+01
4824000000.000000      5.766907000000000E-01     -1.674062000000000E+02      3.408661000000000E-01     -2.849512000000000E+01      3.282166000000000E-01     -1.440000000000000E+02      6.627197000000000E-01     -7.584765000000000E+01
4825000000.000000      5.809021000000000E-01     -1.673047000000000E+02      3.435516000000000E-01     -2.888379000000000E+01      3.321686000000000E-01     -1.439609000000000E+02      6.647644000000000E-01     -7.565624000000000E+01
4826000000.000000      5.871887000000000E-01     -1.671797000000000E+02      3.473511000000000E-01     -2.948339000000000E+01      3.331146000000000E-01     -1.443047000000000E+02      6.674805000000000E-01     -7.564062000000000E+01
4827000000.000000      5.930481000000000E-01     -1.670391000000000E+02      3.502045000000000E-01     -2.988574000000000E+01      3.354950000000000E-01     -1.444922000000000E+02      6.710815000000000E-01     -7.545312000000000E+01
4828000000.000000      5.997009000000000E-01     -1.670312000000000E+02      3.525543000000000E-01     -3.052637000000000E+01      3.383026000000000E-01     -1.446406000000000E+02      6.741028000000000E-01     -7.539844000000000E+01
4829000000.000000      6.034546000000000E-01     -1.668906000000000E+02      3.550262000000000E-01     -3.097265000000000E+01      3.416138000000000E-01     -1.449531000000000E+02      6.771240000000000E-01     -7.518359000000000E+01
4830000000.000000      6.106567000000000E-01     -1.668125000000000E+02      3.577271000000000E-01     -3.146387000000000E+01      3.436432000000000E-01     -1.450000000000000E+02      6.788025000000000E-01     -7.517187000000000E+01
4831000000.000000      6.147156000000000E-01     -1.667109000000000E+02      3.598480000000000E-01     -3.213672000000000E+01      3.460083000000000E-01     -1.451797000000000E+02      6.826782000000000E-01     -7.507813000000000E+01
4832000000.000000      6.237793000000000E-01     -1.666172000000000E+02      3.630066000000000E-01     -3.264257000000000E+01      3.483124000000000E-01     -1.453594000000000E+02      6.855164000000000E-01     -7.500781000000000E+01
4833000000.000000      6.300964000000000E-01     -1.665781000000000E+02      3.650208000000000E-01     -3.306641000000000E+01      3.506470000000000E-01     -1.457031000000000E+02      6.890259000000000E-01     -7.495312000000000E+01
4834000000.000000      6.357727000000000E-01     -1.665234000000000E+02      3.668365000000000E-01     -3.366796000000000E+01      3.527222000000000E-01     -1.458359000000000E+02      6.918640000000000E-01     -7.486718000000000E+01
4835000000.000000      6.426697000000000E-01     -1.664375000000000E+02      3.699341000000000E-01     -3.432422000000000E+01      3.555603000000000E-01     -1.459844000000000E+02      6.968079000000000E-01     -7.488281000000000E+01
4836000000.000000      6.511536000000000E-01     -1.662969000000000E+02      3.715820000000000E-01     -3.479297000000000E+01      3.573914000000000E-01     -1.461172000000000E+02      6.995850000000000E-01     -7.464844000000000E+01
4837000000.000000      6.572266000000000E-01     -1.661641000000000E+02      3.734131000000000E-01     -3.555469000000000E+01      3.598175000000000E-01     -1.465391000000000E+02      7.035217000000000E-01     -7.466406000000000E+01
4838000000.000000      6.638184000000000E-01     -1.662656000000000E+02      3.757629000000000E-01     -3.601171000000000E+01      3.621826000000000E-01     -1.466172000000000E+02      7.074280000000000E-01     -7.457421000000000E+01
4839000000.000000      6.711121000000000E-01     -1.661094000000000E+02      3.766937000000000E-01     -3.640820000000000E+01      3.633423000000000E-01     -1.467969000000000E+02      7.106934000000000E-01     -7.453906000000000E+01
4840000000.000000      6.767883000000000E-01     -1.660859000000000E+02      3.780518000000000E-01     -3.686914000000000E+01      3.658142000000000E-01     -1.471250000000000E+02      7.150879000000000E-01     -7.453906000000000E+01
4841000000.000000      6.847839000000000E-01     -1.661094000000000E+02      3.806763000000000E-01     -3.758008000000000E+01      3.679962000000000E-01     -1.472109000000000E+02      7.192383000000000E-01     -7.452343000000000E+01
4842000000.000000      6.920166000000000E-01     -1.659688000000000E+02      3.817444000000000E-01     -3.813086000000000E+01      3.694611000000000E-01     -1.472812000000000E+02      7.239380000000000E-01     -7.453906000000000E+01
4843000000.000000      6.981506000000000E-01     -1.660000000000000E+02      3.828735000000000E-01     -3.876953000000000E+01      3.712463000000000E-01     -1.476094000000000E+02      7.269592000000000E-01     -7.448047000000000E+01
4844000000.000000      7.050171000000000E-01     -1.659141000000000E+02      3.839111000000000E-01     -3.925976000000000E+01      3.729706000000000E-01     -1.477187000000000E+02      7.327576000000000E-01     -7.453125000000000E+01
4845000000.000000      7.119446000000000E-01     -1.658750000000000E+02      3.849335000000000E-01     -3.987500000000000E+01      3.748016000000000E-01     -1.480078000000000E+02      7.365112000000000E-01     -7.439062000000000E+01
4846000000.000000      7.192078000000000E-01     -1.657969000000000E+02      3.855438000000000E-01     -4.042969000000000E+01      3.772278000000000E-01     -1.481328000000000E+02      7.405396000000000E-01     -7.447656000000000E+01
4847000000.000000      7.276917000000000E-01     -1.657969000000000E+02      3.874817000000000E-01     -4.091601000000000E+01      3.787689000000000E-01     -1.483906000000000E+02      7.468872000000000E-01     -7.453125000000000E+01
4848000000.000000      7.348633000000000E-01     -1.657266000000000E+02      3.874359000000000E-01     -4.128711000000000E+01      3.804321000000000E-01     -1.485078000000000E+02      7.497864000000000E-01     -7.449219000000000E+01
4849000000.000000      7.414551000000000E-01     -1.659375000000000E+02      3.891602000000000E-01     -4.213086000000000E+01      3.818665000000000E-01     -1.487578000000000E+02      7.551880000000000E-01     -7.440624000000000E+01
4850000000.000000      7.498169000000000E-01     -1.657500000000000E+02      3.890381000000000E-01     -4.248437000000000E+01      3.833923000000000E-01     -1.488750000000000E+02      7.586365000000000E-01     -7.437500000000000E+01
4851000000.000000      7.554321000000000E-01     -1.657109000000000E+02      3.903046000000000E-01     -4.317968000000000E+01      3.849792000000000E-01     -1.490859000000000E+02      7.640991000000000E-01     -7.448437000000000E+01
4852000000.000000      7.625122000000000E-01     -1.657969000000000E+02      3.908539000000000E-01     -4.366796000000000E+01      3.865204000000000E-01     -1.493203000000000E+02      7.688904000000000E-01     -7.449219000000000E+01
4853000000.000000      7.704773000000000E-01     -1.657422000000000E+02      3.890839000000000E-01     -4.405859000000000E+01      3.880920000000000E-01     -1.494531000000000E+02      7.731934000000000E-01     -7.459765000000000E+01
4854000000.000000      7.758789000000000E-01     -1.657578000000000E+02      3.910675000000000E-01     -4.472656000000000E+01      3.889313000000000E-01     -1.496641000000000E+02      7.787781000000000E-01     -7.466797000000000E+01
4855000000.000000      7.810974000000000E-01     -1.657578000000000E+02      3.891754000000000E-01     -4.526367000000000E+01      3.904572000000000E-01     -1.497031000000000E+02      7.819519000000000E-01     -7.457421000000000E+01
4856000000.000000      7.892761000000000E-01     -1.656641000000000E+02      3.901062000000000E-01     -4.562304000000000E+01      3.917694000000000E-01     -1.499687000000000E+02      7.893066000000000E-01     -7.478906000000000E+01
4857000000.000000      7.954712000000000E-01     -1.657891000000000E+02      3.908386000000000E-01     -4.608203000000000E+01      3.932190000000000E-01     -1.501016000000000E+02      7.927246000000000E-01     -7.469921000000000E+01
4858000000.000000      7.981262000000000E-01     -1.657812000000000E+02      3.900604000000000E-01     -4.666211000000000E+01      3.940887000000000E-01     -1.503203000000000E+02      7.970886000000000E-01     -7.476953000000000E+01
4859000000.000000      8.058167000000000E-01     -1.658359000000000E+02      3.893433000000000E-01     -4.714257000000000E+01      3.949127000000000E-01     -1.505938000000000E+02      8.028259000000000E-01     -7.489062000000000E+01
4860000000.000000      8.138428000000000E-01     -1.657812000000000E+02      3.888245000000000E-01     -4.745507000000000E+01      3.959961000000000E-01     -1.506094000000000E+02      8.076172000000000E-01     -7.482422000000000E+01
4861000000.000000      8.190002000000000E-01     -1.657891000000000E+02      3.873901000000000E-01     -4.812109000000000E+01      3.974304000000000E-01     -1.508672000000000E+02      8.121948000000000E-01     -7.496875000000000E+01
4862000000.000000      8.236389000000000E-01     -1.656406000000000E+02      3.886414000000000E-01     -4.842968000000000E+01      3.993988000000000E-01     -1.510703000000000E+02      8.191833000000000E-01     -7.498437000000000E+01
4863000000.000000      8.275757000000000E-01     -1.656484000000000E+02      3.861694000000000E-01     -4.898828000000000E+01      4.001312000000000E-01     -1.511875000000000E+02      8.238220000000000E-01     -7.501953000000000E+01
4864000000.000000      8.345947000000000E-01     -1.657109000000000E+02      3.865662000000000E-01     -4.943749000000000E+01      4.002380000000000E-01     -1.512891000000000E+02      8.263855000000000E-01     -7.512500000000000E+01
4865000000.000000      8.384705000000000E-01     -1.658516000000000E+02      3.854523000000000E-01     -4.963672000000000E+01      4.016724000000000E-01     -1.515156000000000E+02      8.329163000000000E-01     -7.515625000000000E+01
4866000000.000000      8.435669000000000E-01     -1.656172000000000E+02      3.840179000000000E-01     -5.026367000000000E+01      4.022522000000000E-01     -1.516875000000000E+02      8.377991000000000E-01     -7.525391000000000E+01
4867000000.000000      8.467407000000000E-01     -1.656094000000000E+02      3.844604000000000E-01     -5.072266000000000E+01      4.030609000000000E-01     -1.518281000000000E+02      8.426514000000000E-01     -7.526172000000000E+01
4868000000.000000      8.533325000000000E-01     -1.658203000000000E+02      3.824005000000000E-01     -5.094921000000000E+01      4.044647000000000E-01     -1.519609000000000E+02      8.470764000000000E-01     -7.541406000000000E+01
4869000000.000000      8.542175000000000E-01     -1.657031000000000E+02      3.809967000000000E-01     -5.129101000000000E+01      4.044952000000000E-01     -1.521875000000000E+02      8.508301000000000E-01     -7.558203000000000E+01
4870000000.000000      8.583984000000000E-01     -1.657969000000000E+02      3.803406000000000E-01     -5.154687000000000E+01      4.053650000000000E-01     -1.523672000000000E+02      8.569946000000000E-01     -7.560547000000000E+01
4871000000.000000      8.641357000000000E-01     -1.656641000000000E+02      3.783722000000000E-01     -5.215234000000000E+01      4.053650000000000E-01     -1.525625000000000E+02      8.610229000000000E-01     -7.581249000000000E+01
4872000000.000000      8.701782000000000E-01     -1.656484000000000E+02      3.764496000000000E-01     -5.218163000000000E+01      4.057007000000000E-01     -1.528516000000000E+02      8.645630000000000E-01     -7.581640000000000E+01
4873000000.000000      8.727112000000000E-01     -1.655937000000000E+02      3.757935000000000E-01     -5.258789000000000E+01      4.058838000000000E-01     -1.529297000000000E+02      8.691711000000000E-01     -7.601171000000000E+01
4874000000.000000      8.733826000000000E-01     -1.654063000000000E+02      3.742523000000000E-01     -5.294335000000000E+01      4.074707000000000E-01     -1.530469000000000E+02      8.733826000000000E-01     -7.588281000000000E+01
4875000000.000000      8.770752000000000E-01     -1.655937000000000E+02      3.730164000000000E-01     -5.313867000000000E+01      4.079132000000000E-01     -1.533359000000000E+02      8.784180000000000E-01     -7.614843000000000E+01
4876000000.000000      8.805542000000000E-01     -1.655625000000000E+02      3.719177000000000E-01     -5.356445000000000E+01      4.070587000000000E-01     -1.534375000000000E+02      8.833313000000000E-01     -7.633594000000000E+01
4877000000.000000      8.838196000000000E-01     -1.653828000000000E+02      3.707428000000000E-01     -5.365429000000000E+01      4.083710000000000E-01     -1.536719000000000E+02      8.880615000000000E-01     -7.647265000000000E+01
4878000000.000000      8.866882000000000E-01     -1.654219000000000E+02      3.694153000000000E-01     -5.392773000000000E+01      4.081879000000000E-01     -1.537031000000000E+02      8.915100000000000E-01     -7.645702000000000E+01
4879000000.000000      8.902588000000000E-01     -1.655547000000000E+02      3.671112000000000E-01     -5.418750000000000E+01      4.084320000000000E-01     -1.539297000000000E+02      8.953857000000000E-01     -7.656640000000000E+01
4880000000.000000      8.906250000000000E-01     -1.654063000000000E+02      3.659973000000000E-01     -5.457226000000000E+01      4.086761000000000E-01     -1.539844000000000E+02      9.003296000000000E-01     -7.660937000000000E+01
4881000000.000000      8.939209000000000E-01     -1.652578000000000E+02      3.656921000000000E-01     -5.443164000000000E+01      4.088745000000000E-01     -1.542422000000000E+02      9.034119000000000E-01     -7.685937000000000E+01
4882000000.000000      8.949890000000000E-01     -1.652031000000000E+02      3.640442000000000E-01     -5.475780000000000E+01      4.085999000000000E-01     -1.543281000000000E+02      9.059753000000000E-01     -7.691015000000000E+01
