! Network Analyzer HP8722D
! Hewlett-Packard
! Data name: Linha & Wilkinson
! Saver's name: Rodrigo Anjos
! Comments: Teste da utilização de aquisição
continua pelo VNA HP8722D
! Time and date: 6/5/2025 16:04
!              Frequency                     S11                                                   S21                                                   S12                                                   S22
# HZ  S  MA R 50
4800000000.000000      4.963684000000000E-01     -1.680938000000000E+02      2.515564000000000E-01     -1.956543000000000E+01      2.482605000000000E-01     -1.406875000000000E+02      6.484680000000000E-01     -8.040625000000000E+01
4801000000.000000      4.976807000000000E-01     -1.681641000000000E+02      2.556915000000000E-01     -1.964648000000000E+01      2.517090000000000E-01     -1.407109000000000E+02      6.480408000000000E-01     -8.012890000000000E+01
4802000000.000000      4.989319000000000E-01     -1.682109000000000E+02      2.593231000000000E-01     -1.996582000000000E+01      2.557526000000000E-01     -1.407422000000000E+02      6.449890000000000E-01     -7.985156000000000E+01
4803000000.000000      5.004883000000000E-01     -1.683203000000000E+02      2.642670000000000E-01     -2.021777000000000E+01      2.590790000000000E-01     -1.407734000000000E+02      6.451416000000000E-01     -7.976953000000000E+01
4804000000.000000      5.022583000000000E-01     -1.682109000000000E+02      2.678528000000000E-01     -2.041699000000000E+01      2.631226000000000E-01     -1.409765000000000E+02      6.437683000000000E-01     -7.939062000000000E+01
4805000000.000000      5.053101000000000E-01     -1.683437000000000E+02      2.721252000000000E-01     -2.079199000000000E+01      2.666473000000000E-01     -1.409844000000000E+02      6.449280000000000E-01     -7.929688000000000E+01
4806000000.000000      5.065613000000000E-01     -1.682500000000000E+02      2.758789000000000E-01     -2.106543000000000E+01      2.693024000000000E-01     -1.410078000000000E+02      6.434326000000000E-01     -7.913280000000000E+01
4807000000.000000      5.097961000000000E-01     -1.682891000000000E+02      2.799835000000000E-01     -2.142285000000000E+01      2.736664000000000E-01     -1.412344000000000E+02      6.428223000000000E-01     -7.886719000000000E+01
4808000000.000000      5.119934000000000E-01     -1.682109000000000E+02      2.845306000000000E-01     -2.148926000000000E+01      2.774658000000000E-01     -1.412969000000000E+02      6.424561000000000E-01     -7.858203000000000E+01
4809000000.000000      5.147095000000000E-01     -1.682188000000000E+02      2.882080000000000E-01     -2.223437000000000E+01      2.809296000000000E-01     -1.416484000000000E+02      6.433716000000000E-01     -7.843359000000000E+01
4810000000.000000      5.177002000000000E-01     -1.683047000000000E+02      2.922058000000000E-01     -2.236719000000000E+01      2.841644000000000E-01     -1.415469000000000E+02      6.442261000000000E-01     -7.831249000000000E+01
4811000000.000000      5.209045000000000E-01     -1.681797000000000E+02      2.957611000000000E-01     -2.279395000000000E+01      2.885742000000000E-01     -1.416328000000000E+02      6.435242000000000E-01     -7.786327000000000E+01
4812000000.000000      5.247498000000000E-01     -1.681328000000000E+02      2.997894000000000E-01     -2.316504000000000E+01      2.920685000000000E-01     -1.418672000000000E+02      6.444092000000000E-01     -7.785546000000000E+01
4813000000.000000      5.272522000000000E-01     -1.680859000000000E+02      3.032990000000000E-01     -2.359082000000000E+01      2.940674000000000E-01     -1.419141000000000E+02      6.452942000000000E-01     -7.757813000000000E+01
4814000000.000000      5.298157000000000E-01     -1.682031000000000E+02      3.069458000000000E-01     -2.392578000000000E+01      2.979279000000000E-01     -1.422266000000000E+02      6.450500000000000E-01     -7.749609000000000E+01
4815000000.000000      5.337524000000000E-01     -1.679922000000000E+02      3.103790000000000E-01     -2.439844000000000E+01      3.013153000000000E-01     -1.422734000000000E+02      6.467590000000000E-01     -7.717187000000000E+01
4816000000.000000      5.384216000000000E-01     -1.679297000000000E+02      3.142242000000000E-01     -2.458203000000000E+01      3.055573000000000E-01     -1.425156000000000E+02      6.481323000000000E-01     -7.704296000000000E+01
4817000000.000000      5.434265000000000E-01     -1.678281000000000E+02      3.177185000000000E-01     -2.528515000000000E+01      3.072052000000000E-01     -1.426563000000000E+02      6.488342000000000E-01     -7.692968000000000E+01
4818000000.000000      5.465088000000000E-01     -1.678359000000000E+02      3.206329000000000E-01     -2.572363000000000E+01      3.106995000000000E-01     -1.426484000000000E+02      6.500854000000000E-01     -7.673828000000000E+01
4819000000.000000      5.516663000000000E-01     -1.677500000000000E+02      3.242493000000000E-01     -2.600390000000000E+01      3.129883000000000E-01     -1.429297000000000E+02      6.526184000000000E-01     -7.658593000000000E+01
4820000000.000000      5.540161000000000E-01     -1.676484000000000E+02      3.275452000000000E-01     -2.644629000000000E+01      3.170624000000000E-01     -1.431484000000000E+02      6.544800000000000E-01     -7.641796000000000E+01
4821000000.000000      5.598450000000000E-01     -1.675859000000000E+02      3.313293000000000E-01     -2.704297000000000E+01      3.194580000000000E-01     -1.433672000000000E+02      6.555176000000000E-01     -7.629687000000000E+01
4822000000.000000      5.663147000000000E-01     -1.675156000000000E+02      3.345032000000000E-01     -2.755273000000000E+01      3.217926000000000E-01     -1.435625000000000E+02      6.581421000000000E-01     -7.607031000000000E+01
4823000000.000000      5.693970000000000E-01     -1.673906000000000E+02      3.376312000000000E-01     -2.794140000000000E+01      3.246155000000000E-01     -1.435625000000000E+02      6.598511000000000E-01     -7.598827000000000E+01
4824000000.000000      5.772705000000000E-01     -1.673437000000000E+02      3.406525000000000E-01     -2.860058000000000E+01      3.280334000000000E-01     -1.439141000000000E+02      6.625366000000000E-01     -7.585938000000000E+01
4825000000.000000      5.802917000000000E-01     -1.672266000000000E+02      3.437347000000000E-01     -2.887012000000000E+01      3.314362000000000E-01     -1.441015000000000E+02      6.652832000000000E-01     -7.570703000000000E+01
4826000000.000000      5.873108000000000E-01     -1.671250000000000E+02      3.463745000000000E-01     -2.948339000000000E+01      3.333588000000000E-01     -1.443750000000000E+02      6.680603000000000E-01     -7.562109000000000E+01
4827000000.000000      5.925598000000000E-01     -1.669609000000000E+02      3.500061000000000E-01     -2.978027000000000E+01      3.358917000000000E-01     -1.443594000000000E+02      6.706238000000000E-01     -7.546484000000000E+01
4828000000.000000      5.995483000000000E-01     -1.669375000000000E+02      3.533325000000000E-01     -3.045996000000000E+01      3.384705000000000E-01     -1.447422000000000E+02      6.743164000000000E-01     -7.532421000000000E+01
4829000000.000000      6.031189000000000E-01     -1.667891000000000E+02      3.542786000000000E-01     -3.106445000000000E+01      3.413086000000000E-01     -1.447891000000000E+02      6.767883000000000E-01     -7.520702000000000E+01
4830000000.000000      6.107178000000000E-01     -1.667266000000000E+02      3.577576000000000E-01     -3.158984000000000E+01      3.435364000000000E-01     -1.450078000000000E+02      6.791687000000000E-01     -7.525000000000000E+01
4831000000.000000      6.155396000000000E-01     -1.666641000000000E+02      3.605347000000000E-01     -3.214648000000000E+01      3.461761000000000E-01     -1.452734000000000E+02      6.828918000000000E-01     -7.509766000000000E+01
4832000000.000000      6.239319000000000E-01     -1.665781000000000E+02      3.630981000000000E-01     -3.275195000000000E+01      3.480682000000000E-01     -1.454766000000000E+02      6.861877000000000E-01     -7.497656000000000E+01
4833000000.000000      6.302185000000000E-01     -1.666016000000000E+02      3.658295000000000E-01     -3.310937000000000E+01      3.506927000000000E-01     -1.456719000000000E+02      6.898193000000000E-01     -7.494141000000000E+01
4834000000.000000      6.363220000000000E-01     -1.664609000000000E+02      3.679504000000000E-01     -3.375195000000000E+01      3.528595000000000E-01     -1.459063000000000E+02      6.927185000000000E-01     -7.489843000000000E+01
4835000000.000000      6.419678000000000E-01     -1.663594000000000E+02      3.696899000000000E-01     -3.419922000000000E+01      3.556671000000000E-01     -1.460703000000000E+02      6.964111000000000E-01     -7.489843000000000E+01
4836000000.000000      6.513977000000000E-01     -1.662812000000000E+02      3.714600000000000E-01     -3.484961000000000E+01      3.577271000000000E-01     -1.461641000000000E+02      7.002258000000000E-01     -7.479687000000000E+01
4837000000.000000      6.579895000000000E-01     -1.661641000000000E+02      3.734283000000000E-01     -3.550781000000000E+01      3.600006000000000E-01     -1.464688000000000E+02      7.035217000000000E-01     -7.462500000000000E+01
4838000000.000000      6.641846000000000E-01     -1.662188000000000E+02      3.757935000000000E-01     -3.592578000000000E+01      3.614197000000000E-01     -1.464688000000000E+02      7.083435000000000E-01     -7.465625000000000E+01
4839000000.000000      6.711731000000000E-01     -1.660312000000000E+02      3.766785000000000E-01     -3.649609000000000E+01      3.636017000000000E-01     -1.467969000000000E+02      7.115784000000000E-01     -7.457812000000000E+01
4840000000.000000      6.760864000000000E-01     -1.660625000000000E+02      3.780823000000000E-01     -3.697461000000000E+01      3.662872000000000E-01     -1.470625000000000E+02      7.151489000000000E-01     -7.458593000000000E+01
4841000000.000000      6.848755000000000E-01     -1.660781000000000E+02      3.810425000000000E-01     -3.767578000000000E+01      3.683929000000000E-01     -1.473203000000000E+02      7.195129000000000E-01     -7.459374000000000E+01
4842000000.000000      6.919861000000000E-01     -1.659219000000000E+02      3.823395000000000E-01     -3.817383000000000E+01      3.696289000000000E-01     -1.474141000000000E+02      7.239685000000000E-01     -7.455078000000000E+01
4843000000.000000      6.984863000000000E-01     -1.659688000000000E+02      3.831635000000000E-01     -3.881640000000000E+01      3.716431000000000E-01     -1.476328000000000E+02      7.274780000000000E-01     -7.445313000000000E+01
4844000000.000000      7.055359000000000E-01     -1.658984000000000E+02      3.838806000000000E-01     -3.931055000000000E+01      3.728333000000000E-01     -1.478047000000000E+02      7.326355000000000E-01     -7.447266000000000E+01
4845000000.000000      7.122192000000000E-01     -1.657812000000000E+02      3.853912000000000E-01     -3.984570000000000E+01      3.747711000000000E-01     -1.480156000000000E+02      7.359619000000000E-01     -7.443749000000000E+01
4846000000.000000      7.192383000000000E-01     -1.657266000000000E+02      3.856201000000000E-01     -4.032031000000000E+01      3.779144000000000E-01     -1.483438000000000E+02      7.411499000000000E-01     -7.446094000000000E+01
4847000000.000000      7.278442000000000E-01     -1.657266000000000E+02      3.870697000000000E-01     -4.087500000000000E+01      3.794403000000000E-01     -1.485000000000000E+02      7.470703000000000E-01     -7.457031000000000E+01
4848000000.000000      7.353210000000000E-01     -1.657109000000000E+02      3.870087000000000E-01     -4.136523000000000E+01      3.804321000000000E-01     -1.486172000000000E+02      7.500000000000000E-01     -7.448047000000000E+01
4849000000.000000      7.419739000000000E-01     -1.659141000000000E+02      3.890076000000000E-01     -4.220703000000000E+01      3.818359000000000E-01     -1.487969000000000E+02      7.548218000000000E-01     -7.437500000000000E+01
4850000000.000000      7.487488000000000E-01     -1.656953000000000E+02      3.887634000000000E-01     -4.248242000000000E+01      3.832092000000000E-01     -1.488672000000000E+02      7.593079000000000E-01     -7.450000000000000E+01
4851000000.000000      7.562256000000000E-01     -1.657500000000000E+02      3.908844000000000E-01     -4.322070000000000E+01      3.854980000000000E-01     -1.491094000000000E+02      7.651367000000000E-01     -7.445313000000000E+01
4852000000.000000      7.633667000000000E-01     -1.657266000000000E+02      3.905487000000000E-01     -4.356445000000000E+01      3.870850000000000E-01     -1.492188000000000E+02      7.690125000000000E-01     -7.455859000000000E+01
4853000000.000000      7.698975000000000E-01     -1.656953000000000E+02      3.892975000000000E-01     -4.408203000000000E+01      3.879242000000000E-01     -1.494844000000000E+02      7.744751000000000E-01     -7.469921000000000E+01
4854000000.000000      7.760315000000000E-01     -1.657266000000000E+02      3.907318000000000E-01     -4.486133000000000E+01      3.895874000000000E-01     -1.496250000000000E+02      7.785645000000000E-01     -7.460546000000000E+01
4855000000.000000      7.805786000000000E-01     -1.657266000000000E+02      3.900757000000000E-01     -4.516602000000000E+01      3.907623000000000E-01     -1.497266000000000E+02      7.818604000000000E-01     -7.463672000000000E+01
4856000000.000000      7.890625000000000E-01     -1.656484000000000E+02      3.896332000000000E-01     -4.575195000000000E+01      3.921814000000000E-01     -1.499687000000000E+02      7.875366000000000E-01     -7.467578000000000E+01
4857000000.000000      7.950439000000000E-01     -1.656953000000000E+02      3.898926000000000E-01     -4.626758000000000E+01      3.928833000000000E-01     -1.500391000000000E+02      7.928467000000000E-01     -7.474218000000000E+01
4858000000.000000      7.990723000000000E-01     -1.657266000000000E+02      3.893738000000000E-01     -4.658984000000000E+01      3.936768000000000E-01     -1.503281000000000E+02      7.968750000000000E-01     -7.480469000000000E+01
4859000000.000000      8.063354000000000E-01     -1.657656000000000E+02      3.894501000000000E-01     -4.709180000000000E+01      3.955231000000000E-01     -1.505859000000000E+02      8.035889000000000E-01     -7.493750000000000E+01
4860000000.000000      8.142090000000000E-01     -1.657422000000000E+02      3.892822000000000E-01     -4.758594000000000E+01      3.961487000000000E-01     -1.506641000000000E+02      8.083801000000000E-01     -7.484375000000000E+01
4861000000.000000      8.184814000000000E-01     -1.656563000000000E+02      3.885498000000000E-01     -4.810156000000000E+01      3.980103000000000E-01     -1.508203000000000E+02      8.120422000000000E-01     -7.503124000000000E+01
4862000000.000000      8.242188000000000E-01     -1.657422000000000E+02      3.886719000000000E-01     -4.859375000000000E+01      3.989563000000000E-01     -1.509922000000000E+02      8.182983000000000E-01     -7.500781000000000E+01
4863000000.000000      8.280640000000000E-01     -1.657266000000000E+02      3.862457000000000E-01     -4.897851000000000E+01      4.005280000000000E-01     -1.511406000000000E+02      8.221436000000000E-01     -7.506249000000000E+01
4864000000.000000      8.338623000000000E-01     -1.656797000000000E+02      3.862000000000000E-01     -4.925195000000000E+01      3.998718000000000E-01     -1.513047000000000E+02      8.275452000000000E-01     -7.516406000000000E+01
4865000000.000000      8.375854000000000E-01     -1.658516000000000E+02      3.849792000000000E-01     -4.995117000000000E+01      4.016266000000000E-01     -1.514453000000000E+02      8.339233000000000E-01     -7.519140000000000E+01
4866000000.000000      8.419189000000000E-01     -1.657734000000000E+02      3.833771000000000E-01     -5.011523000000000E+01      4.024353000000000E-01     -1.516172000000000E+02      8.382568000000000E-01     -7.528515000000000E+01
4867000000.000000      8.489685000000000E-01     -1.657734000000000E+02      3.837891000000000E-01     -5.065820000000000E+01      4.034729000000000E-01     -1.518594000000000E+02      8.429565000000000E-01     -7.535546000000000E+01
4868000000.000000      8.525391000000000E-01     -1.658281000000000E+02      3.824768000000000E-01     -5.116015000000000E+01      4.044189000000000E-01     -1.519766000000000E+02      8.469238000000000E-01     -7.545312000000000E+01
4869000000.000000      8.543701000000000E-01     -1.658281000000000E+02      3.801270000000000E-01     -5.140234000000000E+01      4.046783000000000E-01     -1.522187000000000E+02      8.525085000000000E-01     -7.562500000000000E+01
4870000000.000000      8.603210000000000E-01     -1.657266000000000E+02      3.802948000000000E-01     -5.154491000000000E+01      4.055939000000000E-01     -1.524219000000000E+02      8.579102000000000E-01     -7.558984000000000E+01
4871000000.000000      8.638306000000000E-01     -1.655937000000000E+02      3.790283000000000E-01     -5.208398000000000E+01      4.053802000000000E-01     -1.526250000000000E+02      8.615417000000000E-01     -7.582421000000000E+01
4872000000.000000      8.704224000000000E-01     -1.657266000000000E+02      3.769836000000000E-01     -5.223242000000000E+01      4.060974000000000E-01     -1.528750000000000E+02      8.647766000000000E-01     -7.587500000000000E+01
4873000000.000000      8.719177000000000E-01     -1.657031000000000E+02      3.753967000000000E-01     -5.266015000000000E+01      4.060211000000000E-01     -1.529063000000000E+02      8.699646000000000E-01     -7.601563000000000E+01
4874000000.000000      8.747864000000000E-01     -1.656328000000000E+02      3.748169000000000E-01     -5.295116000000000E+01      4.077148000000000E-01     -1.529687000000000E+02      8.744507000000000E-01     -7.592578000000000E+01
4875000000.000000      8.802490000000000E-01     -1.656797000000000E+02      3.732910000000000E-01     -5.316796000000000E+01      4.081268000000000E-01     -1.533203000000000E+02      8.773499000000000E-01     -7.620312000000000E+01
4876000000.000000      8.816528000000000E-01     -1.655781000000000E+02      3.719025000000000E-01     -5.359765000000000E+01      4.071655000000000E-01     -1.534453000000000E+02      8.833313000000000E-01     -7.637500000000000E+01
4877000000.000000      8.847046000000000E-01     -1.654766000000000E+02      3.705292000000000E-01     -5.375390000000000E+01      4.085693000000000E-01     -1.536406000000000E+02      8.877869000000000E-01     -7.653125000000000E+01
4878000000.000000      8.887634000000000E-01     -1.654609000000000E+02      3.699799000000000E-01     -5.389257000000000E+01      4.084473000000000E-01     -1.536875000000000E+02      8.924255000000000E-01     -7.666016000000000E+01
4879000000.000000      8.903809000000000E-01     -1.655859000000000E+02      3.676758000000000E-01     -5.410546000000000E+01      4.080048000000000E-01     -1.538828000000000E+02      8.959961000000000E-01     -7.655859000000000E+01
4880000000.000000      8.918457000000000E-01     -1.654297000000000E+02      3.658295000000000E-01     -5.443749000000000E+01      4.090424000000000E-01     -1.539687000000000E+02      8.988647000000000E-01     -7.662499000000000E+01
4881000000.000000      8.942566000000000E-01     -1.652031000000000E+02      3.653870000000000E-01     -5.459961000000000E+01      4.096832000000000E-01     -1.542578000000000E+02      9.044189000000000E-01     -7.696094000000000E+01
4882000000.000000      8.935852000000000E-01     -1.652344000000000E+02      3.628540000000000E-01     -5.464844000000000E+01      4.086761000000000E-01     -1.543203000000000E+02      9.064941000000000E-01     -7.697266000000000E+01
