! Network Analyzer HP8722D
! Hewlett-Packard
! Data name: Linha & Wilkinson
! Saver's name: Rodrigo Anjos
! Comments: Teste da utilização de aquisição
continua pelo VNA HP8722D
! Time and date: 6/5/2025 13:41
!              Frequency                     S11                                                   S21                                                   S12                                                   S22
# HZ  S  MA R 50
4800000000.000000      4.975586000000000E-01     -1.682734000000000E+02      2.528687000000000E-01     -1.993359000000000E+01      2.496719000000000E-01     -1.410000000000000E+02      6.494751000000000E-01     -8.030077000000000E+01
4801000000.000000      4.993744000000000E-01     -1.684297000000000E+02      2.571106000000000E-01     -2.004492000000000E+01      2.528381000000000E-01     -1.412344000000000E+02      6.467285000000000E-01     -8.011719000000000E+01
4802000000.000000      4.996948000000000E-01     -1.684609000000000E+02      2.606964000000000E-01     -2.033789000000000E+01      2.571411000000000E-01     -1.412266000000000E+02      6.449280000000000E-01     -7.979687000000000E+01
4803000000.000000      5.015564000000000E-01     -1.685234000000000E+02      2.659912000000000E-01     -2.060156000000000E+01      2.604370000000000E-01     -1.411562000000000E+02      6.445923000000000E-01     -7.973046000000000E+01
4804000000.000000      5.041504000000000E-01     -1.684922000000000E+02      2.694092000000000E-01     -2.085938000000000E+01      2.639771000000000E-01     -1.414453000000000E+02      6.437988000000000E-01     -7.941015000000000E+01
4805000000.000000      5.063782000000000E-01     -1.685859000000000E+02      2.733459000000000E-01     -2.121192000000000E+01      2.676239000000000E-01     -1.413828000000000E+02      6.440735000000000E-01     -7.921484000000000E+01
4806000000.000000      5.078735000000000E-01     -1.685156000000000E+02      2.772980000000000E-01     -2.139941000000000E+01      2.705078000000000E-01     -1.414531000000000E+02      6.436157000000000E-01     -7.914844000000000E+01
4807000000.000000      5.114136000000000E-01     -1.685469000000000E+02      2.819214000000000E-01     -2.180176000000000E+01      2.745514000000000E-01     -1.417422000000000E+02      6.436462000000000E-01     -7.883594000000000E+01
4808000000.000000      5.135803000000000E-01     -1.684453000000000E+02      2.852173000000000E-01     -2.182617000000000E+01      2.780151000000000E-01     -1.418437000000000E+02      6.438293000000000E-01     -7.856250000000000E+01
4809000000.000000      5.162048000000000E-01     -1.685313000000000E+02      2.896881000000000E-01     -2.261817000000000E+01      2.821198000000000E-01     -1.419062000000000E+02      6.427002000000000E-01     -7.835155000000000E+01
4810000000.000000      5.191956000000000E-01     -1.685234000000000E+02      2.935638000000000E-01     -2.282422000000000E+01      2.850800000000000E-01     -1.420234000000000E+02      6.436462000000000E-01     -7.826953000000000E+01
4811000000.000000      5.224609000000000E-01     -1.684609000000000E+02      2.971497000000000E-01     -2.337891000000000E+01      2.893982000000000E-01     -1.421016000000000E+02      6.441040000000000E-01     -7.791797000000000E+01
4812000000.000000      5.264893000000000E-01     -1.683750000000000E+02      3.008881000000000E-01     -2.371192000000000E+01      2.922974000000000E-01     -1.421250000000000E+02      6.455688000000000E-01     -7.790625000000000E+01
4813000000.000000      5.288391000000000E-01     -1.682812000000000E+02      3.040924000000000E-01     -2.393555000000000E+01      2.955475000000000E-01     -1.423906000000000E+02      6.454468000000000E-01     -7.757813000000000E+01
4814000000.000000      5.312500000000000E-01     -1.684219000000000E+02      3.080139000000000E-01     -2.440820000000000E+01      2.985992000000000E-01     -1.426953000000000E+02      6.462402000000000E-01     -7.739843000000000E+01
4815000000.000000      5.354309000000000E-01     -1.682578000000000E+02      3.114777000000000E-01     -2.482031000000000E+01      3.016205000000000E-01     -1.427031000000000E+02      6.459656000000000E-01     -7.719140000000000E+01
4816000000.000000      5.403442000000000E-01     -1.681641000000000E+02      3.160553000000000E-01     -2.518066000000000E+01      3.058777000000000E-01     -1.427969000000000E+02      6.486206000000000E-01     -7.702734000000000E+01
4817000000.000000      5.444641000000000E-01     -1.680391000000000E+02      3.187561000000000E-01     -2.563183000000000E+01      3.081360000000000E-01     -1.430859000000000E+02      6.500854000000000E-01     -7.686718000000000E+01
4818000000.000000      5.479431000000000E-01     -1.680469000000000E+02      3.222198000000000E-01     -2.616699000000000E+01      3.119049000000000E-01     -1.432500000000000E+02      6.510010000000000E-01     -7.675781000000000E+01
4819000000.000000      5.532532000000000E-01     -1.679688000000000E+02      3.254395000000000E-01     -2.660840000000000E+01      3.135529000000000E-01     -1.435078000000000E+02      6.539001000000000E-01     -7.672656000000000E+01
4820000000.000000      5.554810000000000E-01     -1.679375000000000E+02      3.289490000000000E-01     -2.693457000000000E+01      3.176880000000000E-01     -1.436172000000000E+02      6.552734000000000E-01     -7.642578000000000E+01
4821000000.000000      5.615845000000000E-01     -1.678437000000000E+02      3.323364000000000E-01     -2.743750000000000E+01      3.200836000000000E-01     -1.438750000000000E+02      6.566772000000000E-01     -7.637109000000000E+01
4822000000.000000      5.687561000000000E-01     -1.677734000000000E+02      3.359985000000000E-01     -2.782324000000000E+01      3.229523000000000E-01     -1.440469000000000E+02      6.587830000000000E-01     -7.621875000000000E+01
4823000000.000000      5.716553000000000E-01     -1.676094000000000E+02      3.388519000000000E-01     -2.842773000000000E+01      3.249207000000000E-01     -1.440156000000000E+02      6.603088000000000E-01     -7.603516000000000E+01
4824000000.000000      5.784607000000000E-01     -1.675937000000000E+02      3.425903000000000E-01     -2.901660000000000E+01      3.285370000000000E-01     -1.443516000000000E+02      6.620789000000000E-01     -7.586719000000000E+01
4825000000.000000      5.833130000000000E-01     -1.674766000000000E+02      3.444519000000000E-01     -2.940918000000000E+01      3.322754000000000E-01     -1.445703000000000E+02      6.654053000000000E-01     -7.575390000000000E+01
4826000000.000000      5.888672000000000E-01     -1.674219000000000E+02      3.483887000000000E-01     -3.003808000000000E+01      3.337555000000000E-01     -1.447500000000000E+02      6.692505000000000E-01     -7.560937000000000E+01
4827000000.000000      5.950012000000000E-01     -1.672422000000000E+02      3.506927000000000E-01     -3.029297000000000E+01      3.363037000000000E-01     -1.448516000000000E+02      6.713867000000000E-01     -7.549609000000000E+01
4828000000.000000      6.017151000000000E-01     -1.671875000000000E+02      3.537292000000000E-01     -3.095019000000000E+01      3.381042000000000E-01     -1.451328000000000E+02      6.754456000000000E-01     -7.539844000000000E+01
4829000000.000000      6.050110000000000E-01     -1.670781000000000E+02      3.556061000000000E-01     -3.154590000000000E+01      3.407745000000000E-01     -1.453594000000000E+02      6.772461000000000E-01     -7.533984000000000E+01
4830000000.000000      6.122131000000000E-01     -1.670234000000000E+02      3.582153000000000E-01     -3.205273000000000E+01      3.440704000000000E-01     -1.454141000000000E+02      6.795349000000000E-01     -7.525391000000000E+01
4831000000.000000      6.175842000000000E-01     -1.669062000000000E+02      3.613129000000000E-01     -3.270703000000000E+01      3.470306000000000E-01     -1.456172000000000E+02      6.842957000000000E-01     -7.516015000000000E+01
4832000000.000000      6.257324000000000E-01     -1.668437000000000E+02      3.634338000000000E-01     -3.319140000000000E+01      3.481598000000000E-01     -1.458672000000000E+02      6.868286000000000E-01     -7.505859000000000E+01
4833000000.000000      6.317444000000000E-01     -1.668594000000000E+02      3.661499000000000E-01     -3.363281000000000E+01      3.509521000000000E-01     -1.461719000000000E+02      6.899719000000000E-01     -7.500000000000000E+01
4834000000.000000      6.381836000000000E-01     -1.667266000000000E+02      3.674774000000000E-01     -3.420898000000000E+01      3.531342000000000E-01     -1.462656000000000E+02      6.939697000000000E-01     -7.492578000000000E+01
4835000000.000000      6.441040000000000E-01     -1.666016000000000E+02      3.701019000000000E-01     -3.476953000000000E+01      3.559265000000000E-01     -1.465234000000000E+02      6.973572000000000E-01     -7.495703000000000E+01
4836000000.000000      6.524658000000000E-01     -1.665390000000000E+02      3.716125000000000E-01     -3.529101000000000E+01      3.573914000000000E-01     -1.467266000000000E+02      7.009583000000000E-01     -7.479297000000000E+01
4837000000.000000      6.586914000000000E-01     -1.664063000000000E+02      3.734436000000000E-01     -3.614062000000000E+01      3.593445000000000E-01     -1.470156000000000E+02      7.050171000000000E-01     -7.476953000000000E+01
4838000000.000000      6.661682000000000E-01     -1.665000000000000E+02      3.766479000000000E-01     -3.646093000000000E+01      3.611755000000000E-01     -1.470234000000000E+02      7.087097000000000E-01     -7.471484000000000E+01
4839000000.000000      6.733398000000000E-01     -1.662891000000000E+02      3.772430000000000E-01     -3.690039000000000E+01      3.635712000000000E-01     -1.473516000000000E+02      7.135010000000000E-01     -7.461719000000000E+01
4840000000.000000      6.786804000000000E-01     -1.663594000000000E+02      3.788757000000000E-01     -3.755468000000000E+01      3.661346000000000E-01     -1.475156000000000E+02      7.163696000000000E-01     -7.461328000000000E+01
4841000000.000000      6.872864000000000E-01     -1.663828000000000E+02      3.809204000000000E-01     -3.817578000000000E+01      3.681793000000000E-01     -1.477500000000000E+02      7.202148000000000E-01     -7.472265000000000E+01
4842000000.000000      6.939697000000000E-01     -1.661953000000000E+02      3.820190000000000E-01     -3.875586000000000E+01      3.686676000000000E-01     -1.478828000000000E+02      7.252502000000000E-01     -7.461328000000000E+01
4843000000.000000      6.998596000000000E-01     -1.662812000000000E+02      3.834076000000000E-01     -3.936718000000000E+01      3.711700000000000E-01     -1.480313000000000E+02      7.289734000000000E-01     -7.457421000000000E+01
4844000000.000000      7.072144000000000E-01     -1.661875000000000E+02      3.844147000000000E-01     -3.983593000000000E+01      3.735199000000000E-01     -1.482500000000000E+02      7.333984000000000E-01     -7.464062000000000E+01
4845000000.000000      7.143250000000000E-01     -1.660859000000000E+02      3.851471000000000E-01     -4.034180000000000E+01      3.751526000000000E-01     -1.485469000000000E+02      7.379761000000000E-01     -7.454687000000000E+01
4846000000.000000      7.218018000000000E-01     -1.660625000000000E+02      3.863373000000000E-01     -4.081445000000000E+01      3.764801000000000E-01     -1.486641000000000E+02      7.420959000000000E-01     -7.455468000000000E+01
4847000000.000000      7.293091000000000E-01     -1.660703000000000E+02      3.866425000000000E-01     -4.134179000000000E+01      3.777313000000000E-01     -1.489531000000000E+02      7.471008000000000E-01     -7.464062000000000E+01
4848000000.000000      7.362671000000000E-01     -1.660312000000000E+02      3.873596000000000E-01     -4.197656000000000E+01      3.800201000000000E-01     -1.490391000000000E+02      7.497864000000000E-01     -7.460155000000000E+01
4849000000.000000      7.431641000000000E-01     -1.661875000000000E+02      3.886719000000000E-01     -4.258594000000000E+01      3.813629000000000E-01     -1.491797000000000E+02      7.549438000000000E-01     -7.448828000000000E+01
4850000000.000000      7.512512000000000E-01     -1.660781000000000E+02      3.890533000000000E-01     -4.304492000000000E+01      3.830109000000000E-01     -1.493594000000000E+02      7.607422000000000E-01     -7.457421000000000E+01
4851000000.000000      7.569885000000000E-01     -1.660078000000000E+02      3.893738000000000E-01     -4.365820000000000E+01      3.843689000000000E-01     -1.495547000000000E+02      7.669373000000000E-01     -7.461719000000000E+01
4852000000.000000      7.642517000000000E-01     -1.660469000000000E+02      3.907013000000000E-01     -4.402929000000000E+01      3.860168000000000E-01     -1.496562000000000E+02      7.701111000000000E-01     -7.471874000000000E+01
4853000000.000000      7.712708000000000E-01     -1.660469000000000E+02      3.891144000000000E-01     -4.453125000000000E+01      3.879242000000000E-01     -1.499141000000000E+02      7.748108000000000E-01     -7.477734000000000E+01
4854000000.000000      7.767944000000000E-01     -1.660000000000000E+02      3.897858000000000E-01     -4.536133000000000E+01      3.889313000000000E-01     -1.501484000000000E+02      7.793579000000000E-01     -7.480469000000000E+01
4855000000.000000      7.832336000000000E-01     -1.660703000000000E+02      3.894348000000000E-01     -4.565820000000000E+01      3.898773000000000E-01     -1.502031000000000E+02      7.826843000000000E-01     -7.475390000000000E+01
4856000000.000000      7.913513000000000E-01     -1.660234000000000E+02      3.892365000000000E-01     -4.602344000000000E+01      3.913269000000000E-01     -1.504219000000000E+02      7.892456000000000E-01     -7.476563000000000E+01
4857000000.000000      7.962036000000000E-01     -1.660781000000000E+02      3.895264000000000E-01     -4.670507000000000E+01      3.925781000000000E-01     -1.505312000000000E+02      7.936401000000000E-01     -7.481640000000000E+01
4858000000.000000      7.999573000000000E-01     -1.660469000000000E+02      3.889160000000000E-01     -4.702734000000000E+01      3.934326000000000E-01     -1.506719000000000E+02      7.979431000000000E-01     -7.498828000000000E+01
4859000000.000000      8.071899000000000E-01     -1.661797000000000E+02      3.887939000000000E-01     -4.764062000000000E+01      3.948364000000000E-01     -1.510156000000000E+02      8.041992000000000E-01     -7.507813000000000E+01
4860000000.000000      8.157043000000000E-01     -1.660312000000000E+02      3.888245000000000E-01     -4.801171000000000E+01      3.952942000000000E-01     -1.510469000000000E+02      8.079224000000000E-01     -7.500000000000000E+01
4861000000.000000      8.212585000000000E-01     -1.660938000000000E+02      3.879700000000000E-01     -4.859961000000000E+01      3.972321000000000E-01     -1.512187000000000E+02      8.116760000000000E-01     -7.519140000000000E+01
4862000000.000000      8.246155000000000E-01     -1.659219000000000E+02      3.881683000000000E-01     -4.895898000000000E+01      3.988037000000000E-01     -1.514297000000000E+02      8.182373000000000E-01     -7.517968000000000E+01
4863000000.000000      8.292236000000000E-01     -1.661328000000000E+02      3.860931000000000E-01     -4.957031000000000E+01      4.002533000000000E-01     -1.515469000000000E+02      8.226929000000000E-01     -7.520702000000000E+01
4864000000.000000      8.377075000000000E-01     -1.660469000000000E+02      3.860321000000000E-01     -4.970312000000000E+01      3.992615000000000E-01     -1.517734000000000E+02      8.284302000000000E-01     -7.526562000000000E+01
4865000000.000000      8.402100000000000E-01     -1.661484000000000E+02      3.848114000000000E-01     -5.015038000000000E+01      4.007416000000000E-01     -1.519375000000000E+02      8.326721000000000E-01     -7.533203000000000E+01
4866000000.000000      8.435974000000000E-01     -1.661250000000000E+02      3.838654000000000E-01     -5.063086000000000E+01      4.018097000000000E-01     -1.521016000000000E+02      8.378601000000000E-01     -7.541797000000000E+01
4867000000.000000      8.487244000000000E-01     -1.660391000000000E+02      3.828278000000000E-01     -5.109961000000000E+01      4.022369000000000E-01     -1.523047000000000E+02      8.433838000000000E-01     -7.549609000000000E+01
4868000000.000000      8.525696000000000E-01     -1.660938000000000E+02      3.818054000000000E-01     -5.147461000000000E+01      4.040070000000000E-01     -1.523359000000000E+02      8.470459000000000E-01     -7.549218000000000E+01
4869000000.000000      8.572083000000000E-01     -1.661016000000000E+02      3.797455000000000E-01     -5.180859000000000E+01      4.036407000000000E-01     -1.525938000000000E+02      8.529358000000000E-01     -7.579296000000000E+01
4870000000.000000      8.613586000000000E-01     -1.660625000000000E+02      3.797455000000000E-01     -5.203906000000000E+01      4.047546000000000E-01     -1.527812000000000E+02      8.579407000000000E-01     -7.577734000000000E+01
4871000000.000000      8.658752000000000E-01     -1.660312000000000E+02      3.781128000000000E-01     -5.244922000000000E+01      4.043274000000000E-01     -1.530156000000000E+02      8.605347000000000E-01     -7.593359000000000E+01
4872000000.000000      8.702393000000000E-01     -1.659922000000000E+02      3.766785000000000E-01     -5.263085000000000E+01      4.054413000000000E-01     -1.532812000000000E+02      8.667603000000000E-01     -7.610937000000000E+01
4873000000.000000      8.731384000000000E-01     -1.659844000000000E+02      3.752747000000000E-01     -5.311913000000000E+01      4.053955000000000E-01     -1.532812000000000E+02      8.703918000000000E-01     -7.618750000000000E+01
4874000000.000000      8.780518000000000E-01     -1.659375000000000E+02      3.745270000000000E-01     -5.335546000000000E+01      4.069824000000000E-01     -1.533984000000000E+02      8.745117000000000E-01     -7.608593000000000E+01
4875000000.000000      8.809509000000000E-01     -1.659922000000000E+02      3.722229000000000E-01     -5.350586000000000E+01      4.067841000000000E-01     -1.537344000000000E+02      8.783264000000000E-01     -7.632421000000000E+01
4876000000.000000      8.797607000000000E-01     -1.658203000000000E+02      3.714294000000000E-01     -5.400781000000000E+01      4.057312000000000E-01     -1.538359000000000E+02      8.833923000000000E-01     -7.651953000000000E+01
4877000000.000000      8.841248000000000E-01     -1.657187000000000E+02      3.696747000000000E-01     -5.413671000000000E+01      4.074097000000000E-01     -1.540625000000000E+02      8.881226000000000E-01     -7.669140000000000E+01
4878000000.000000      8.876343000000000E-01     -1.657969000000000E+02      3.692017000000000E-01     -5.427734000000000E+01      4.074249000000000E-01     -1.540625000000000E+02      8.926086000000000E-01     -7.678124000000000E+01
4879000000.000000      8.907166000000000E-01     -1.657891000000000E+02      3.663025000000000E-01     -5.461328000000000E+01      4.070282000000000E-01     -1.542734000000000E+02      8.955383000000000E-01     -7.673046000000000E+01
4880000000.000000      8.912354000000000E-01     -1.656641000000000E+02      3.657379000000000E-01     -5.482226000000000E+01      4.077606000000000E-01     -1.543828000000000E+02      8.997498000000000E-01     -7.680078000000000E+01
4881000000.000000      8.934631000000000E-01     -1.655547000000000E+02      3.651581000000000E-01     -5.484375000000000E+01      4.080200000000000E-01     -1.546797000000000E+02      9.035645000000000E-01     -7.701953000000000E+01
4882000000.000000      8.944092000000000E-01     -1.654922000000000E+02      3.628082000000000E-01     -5.516992000000000E+01      4.077759000000000E-01     -1.546953000000000E+02      9.068909000000000E-01     -7.719531000000000E+01
