! Network Analyzer HP8722D
! Hewlett-Packard
! Data name: Linha & Wilkinson
! Saver's name: Rodrigo Anjos
! Comments: Teste da utilização de aquisição
continua pelo VNA HP8722D
! Time and date: 6/5/2025 15:37
!              Frequency                     S11                                                   S21                                                   S12                                                   S22
# HZ  S  MA R 50
4800000000.000000      4.962006000000000E-01     -1.681641000000000E+02      2.515259000000000E-01     -1.962305000000000E+01      2.478714000000000E-01     -1.407344000000000E+02      6.477051000000000E-01     -8.034374000000000E+01
4801000000.000000      4.976501000000000E-01     -1.682344000000000E+02      2.552643000000000E-01     -1.980078000000000E+01      2.518311000000000E-01     -1.408828000000000E+02      6.473694000000000E-01     -8.013281000000000E+01
4802000000.000000      4.991760000000000E-01     -1.682656000000000E+02      2.589264000000000E-01     -1.988672000000000E+01      2.559204000000000E-01     -1.407422000000000E+02      6.454163000000000E-01     -7.985546000000000E+01
4803000000.000000      5.006714000000000E-01     -1.683437000000000E+02      2.635345000000000E-01     -2.023633000000000E+01      2.589417000000000E-01     -1.408672000000000E+02      6.450500000000000E-01     -7.965234000000000E+01
4804000000.000000      5.025330000000000E-01     -1.682891000000000E+02      2.679749000000000E-01     -2.039941000000000E+01      2.632599000000000E-01     -1.410000000000000E+02      6.442871000000000E-01     -7.938281000000000E+01
4805000000.000000      5.054626000000000E-01     -1.683906000000000E+02      2.714539000000000E-01     -2.083496000000000E+01      2.665405000000000E-01     -1.411562000000000E+02      6.447144000000000E-01     -7.933594000000000E+01
4806000000.000000      5.065918000000000E-01     -1.682969000000000E+02      2.756042000000000E-01     -2.091406000000000E+01      2.694397000000000E-01     -1.410312000000000E+02      6.442566000000000E-01     -7.910546000000000E+01
4807000000.000000      5.101013000000000E-01     -1.683828000000000E+02      2.798462000000000E-01     -2.130566000000000E+01      2.736053000000000E-01     -1.412812000000000E+02      6.427612000000000E-01     -7.882421000000000E+01
4808000000.000000      5.122681000000000E-01     -1.683125000000000E+02      2.842255000000000E-01     -2.157910000000000E+01      2.772522000000000E-01     -1.414219000000000E+02      6.429138000000000E-01     -7.855859000000000E+01
4809000000.000000      5.147400000000000E-01     -1.682969000000000E+02      2.882385000000000E-01     -2.222168000000000E+01      2.809143000000000E-01     -1.415547000000000E+02      6.433411000000000E-01     -7.849609000000000E+01
4810000000.000000      5.174255000000000E-01     -1.683594000000000E+02      2.918854000000000E-01     -2.233398000000000E+01      2.840576000000000E-01     -1.416875000000000E+02      6.438904000000000E-01     -7.827343000000000E+01
4811000000.000000      5.209961000000000E-01     -1.682734000000000E+02      2.958221000000000E-01     -2.282617000000000E+01      2.884674000000000E-01     -1.416797000000000E+02      6.440125000000000E-01     -7.796484000000000E+01
4812000000.000000      5.247498000000000E-01     -1.681953000000000E+02      2.996216000000000E-01     -2.316895000000000E+01      2.914124000000000E-01     -1.418750000000000E+02      6.454163000000000E-01     -7.779297000000000E+01
4813000000.000000      5.273743000000000E-01     -1.681719000000000E+02      3.031921000000000E-01     -2.360742000000000E+01      2.940521000000000E-01     -1.418125000000000E+02      6.448975000000000E-01     -7.759375000000000E+01
4814000000.000000      5.298462000000000E-01     -1.682344000000000E+02      3.067017000000000E-01     -2.394336000000000E+01      2.974548000000000E-01     -1.422812000000000E+02      6.466980000000000E-01     -7.747656000000000E+01
4815000000.000000      5.340271000000000E-01     -1.680391000000000E+02      3.106079000000000E-01     -2.444336000000000E+01      3.002014000000000E-01     -1.422656000000000E+02      6.459961000000000E-01     -7.720312000000000E+01
4816000000.000000      5.382996000000000E-01     -1.679453000000000E+02      3.145294000000000E-01     -2.462597000000000E+01      3.050537000000000E-01     -1.424219000000000E+02      6.474915000000000E-01     -7.706249000000000E+01
4817000000.000000      5.428467000000000E-01     -1.678594000000000E+02      3.178864000000000E-01     -2.537500000000000E+01      3.072662000000000E-01     -1.426328000000000E+02      6.487122000000000E-01     -7.685937000000000E+01
4818000000.000000      5.462341000000000E-01     -1.678828000000000E+02      3.208313000000000E-01     -2.576465000000000E+01      3.106995000000000E-01     -1.427969000000000E+02      6.501160000000000E-01     -7.675781000000000E+01
4819000000.000000      5.519104000000000E-01     -1.678047000000000E+02      3.243408000000000E-01     -2.621094000000000E+01      3.132782000000000E-01     -1.429531000000000E+02      6.523743000000000E-01     -7.660937000000000E+01
4820000000.000000      5.534973000000000E-01     -1.677422000000000E+02      3.276672000000000E-01     -2.647656000000000E+01      3.164673000000000E-01     -1.431328000000000E+02      6.542664000000000E-01     -7.635937000000000E+01
4821000000.000000      5.602722000000000E-01     -1.676563000000000E+02      3.315125000000000E-01     -2.696094000000000E+01      3.195190000000000E-01     -1.432969000000000E+02      6.547241000000000E-01     -7.635937000000000E+01
4822000000.000000      5.666504000000000E-01     -1.676094000000000E+02      3.343964000000000E-01     -2.750097000000000E+01      3.216705000000000E-01     -1.436016000000000E+02      6.582336000000000E-01     -7.601171000000000E+01
4823000000.000000      5.699768000000000E-01     -1.674844000000000E+02      3.377533000000000E-01     -2.807910000000000E+01      3.246460000000000E-01     -1.435234000000000E+02      6.600037000000000E-01     -7.600780000000000E+01
4824000000.000000      5.769348000000000E-01     -1.674375000000000E+02      3.410034000000000E-01     -2.850879000000000E+01      3.280029000000000E-01     -1.439297000000000E+02      6.633606000000000E-01     -7.567187000000000E+01
4825000000.000000      5.813293000000000E-01     -1.673047000000000E+02      3.437195000000000E-01     -2.895215000000000E+01      3.312531000000000E-01     -1.441719000000000E+02      6.648560000000000E-01     -7.567577000000000E+01
4826000000.000000      5.870056000000000E-01     -1.672344000000000E+02      3.468323000000000E-01     -2.951367000000000E+01      3.324738000000000E-01     -1.443359000000000E+02      6.673889000000000E-01     -7.559765000000000E+01
4827000000.000000      5.927734000000000E-01     -1.670547000000000E+02      3.499908000000000E-01     -2.986523000000000E+01      3.360443000000000E-01     -1.444062000000000E+02      6.700439000000000E-01     -7.540234000000000E+01
4828000000.000000      5.999451000000000E-01     -1.670078000000000E+02      3.534851000000000E-01     -3.047656000000000E+01      3.383942000000000E-01     -1.446797000000000E+02      6.747742000000000E-01     -7.537499000000000E+01
4829000000.000000      6.022339000000000E-01     -1.668594000000000E+02      3.542938000000000E-01     -3.104883000000000E+01      3.411407000000000E-01     -1.448125000000000E+02      6.773376000000000E-01     -7.523046000000000E+01
4830000000.000000      6.098938000000000E-01     -1.668359000000000E+02      3.570099000000000E-01     -3.158594000000000E+01      3.437347000000000E-01     -1.450234000000000E+02      6.780701000000000E-01     -7.523438000000000E+01
4831000000.000000      6.155090000000000E-01     -1.667344000000000E+02      3.603210000000000E-01     -3.218945000000000E+01      3.459473000000000E-01     -1.451328000000000E+02      6.831970000000000E-01     -7.507813000000000E+01
4832000000.000000      6.240540000000000E-01     -1.666250000000000E+02      3.627319000000000E-01     -3.273242000000000E+01      3.480377000000000E-01     -1.454766000000000E+02      6.855164000000000E-01     -7.506249000000000E+01
4833000000.000000      6.301270000000000E-01     -1.666250000000000E+02      3.652191000000000E-01     -3.315430000000000E+01      3.505249000000000E-01     -1.457187000000000E+02      6.885681000000000E-01     -7.495312000000000E+01
4834000000.000000      6.365051000000000E-01     -1.664531000000000E+02      3.675537000000000E-01     -3.383398000000000E+01      3.527679000000000E-01     -1.459297000000000E+02      6.919250000000000E-01     -7.482422000000000E+01
4835000000.000000      6.424255000000000E-01     -1.664609000000000E+02      3.700867000000000E-01     -3.425586000000000E+01      3.547058000000000E-01     -1.460703000000000E+02      6.956787000000000E-01     -7.481250000000000E+01
4836000000.000000      6.507568000000000E-01     -1.663125000000000E+02      3.715363000000000E-01     -3.479297000000000E+01      3.573151000000000E-01     -1.461875000000000E+02      6.986389000000000E-01     -7.480078000000000E+01
4837000000.000000      6.569824000000000E-01     -1.662109000000000E+02      3.731995000000000E-01     -3.557422000000000E+01      3.596344000000000E-01     -1.465859000000000E+02      7.029419000000000E-01     -7.465234000000000E+01
4838000000.000000      6.643982000000000E-01     -1.662656000000000E+02      3.762665000000000E-01     -3.589453000000000E+01      3.617249000000000E-01     -1.466563000000000E+02      7.074280000000000E-01     -7.462891000000000E+01
4839000000.000000      6.709900000000000E-01     -1.660625000000000E+02      3.769531000000000E-01     -3.654882000000000E+01      3.641968000000000E-01     -1.468125000000000E+02      7.115784000000000E-01     -7.448828000000000E+01
4840000000.000000      6.770325000000000E-01     -1.661172000000000E+02      3.787994000000000E-01     -3.702539000000000E+01      3.653259000000000E-01     -1.471172000000000E+02      7.151184000000000E-01     -7.461719000000000E+01
4841000000.000000      6.848450000000000E-01     -1.660859000000000E+02      3.803864000000000E-01     -3.772070000000000E+01      3.676910000000000E-01     -1.473125000000000E+02      7.196960000000000E-01     -7.451953000000000E+01
4842000000.000000      6.918640000000000E-01     -1.659688000000000E+02      3.815308000000000E-01     -3.817773000000000E+01      3.690491000000000E-01     -1.474453000000000E+02      7.237549000000000E-01     -7.454296000000000E+01
4843000000.000000      6.979980000000000E-01     -1.659922000000000E+02      3.835144000000000E-01     -3.876562000000000E+01      3.708801000000000E-01     -1.476484000000000E+02      7.273560000000000E-01     -7.447266000000000E+01
4844000000.000000      7.057800000000000E-01     -1.659062000000000E+02      3.842163000000000E-01     -3.939453000000000E+01      3.725891000000000E-01     -1.477578000000000E+02      7.322998000000000E-01     -7.448828000000000E+01
4845000000.000000      7.128296000000000E-01     -1.658437000000000E+02      3.846130000000000E-01     -3.975390000000000E+01      3.750763000000000E-01     -1.480625000000000E+02      7.364197000000000E-01     -7.435937000000000E+01
4846000000.000000      7.192993000000000E-01     -1.657656000000000E+02      3.860779000000000E-01     -4.032422000000000E+01      3.769226000000000E-01     -1.481562000000000E+02      7.419739000000000E-01     -7.454687000000000E+01
4847000000.000000      7.278137000000000E-01     -1.658281000000000E+02      3.873291000000000E-01     -4.083593000000000E+01      3.786621000000000E-01     -1.483984000000000E+02      7.451172000000000E-01     -7.451953000000000E+01
4848000000.000000      7.347107000000000E-01     -1.657031000000000E+02      3.879852000000000E-01     -4.143359000000000E+01      3.802185000000000E-01     -1.486016000000000E+02      7.499695000000000E-01     -7.442187000000000E+01
4849000000.000000      7.412415000000000E-01     -1.659844000000000E+02      3.891449000000000E-01     -4.216797000000000E+01      3.816223000000000E-01     -1.487266000000000E+02      7.546387000000000E-01     -7.448828000000000E+01
4850000000.000000      7.489319000000000E-01     -1.657656000000000E+02      3.891602000000000E-01     -4.263867000000000E+01      3.833923000000000E-01     -1.489141000000000E+02      7.586365000000000E-01     -7.446094000000000E+01
4851000000.000000      7.554626000000000E-01     -1.657031000000000E+02      3.907013000000000E-01     -4.311913000000000E+01      3.843384000000000E-01     -1.490313000000000E+02      7.642517000000000E-01     -7.450390000000000E+01
4852000000.000000      7.628174000000000E-01     -1.657578000000000E+02      3.901215000000000E-01     -4.357226000000000E+01      3.869019000000000E-01     -1.492109000000000E+02      7.684631000000000E-01     -7.442187000000000E+01
4853000000.000000      7.699890000000000E-01     -1.657344000000000E+02      3.893585000000000E-01     -4.410546000000000E+01      3.879242000000000E-01     -1.495000000000000E+02      7.734375000000000E-01     -7.460546000000000E+01
4854000000.000000      7.761841000000000E-01     -1.657734000000000E+02      3.907928000000000E-01     -4.480664000000000E+01      3.891602000000000E-01     -1.496562000000000E+02      7.780151000000000E-01     -7.463281000000000E+01
4855000000.000000      7.812500000000000E-01     -1.657344000000000E+02      3.896027000000000E-01     -4.518555000000000E+01      3.905792000000000E-01     -1.497969000000000E+02      7.829895000000000E-01     -7.460155000000000E+01
4856000000.000000      7.894897000000000E-01     -1.657109000000000E+02      3.893127000000000E-01     -4.560351000000000E+01      3.918457000000000E-01     -1.499766000000000E+02      7.871704000000000E-01     -7.465234000000000E+01
4857000000.000000      7.948303000000000E-01     -1.657734000000000E+02      3.904266000000000E-01     -4.615430000000000E+01      3.929291000000000E-01     -1.501250000000000E+02      7.925720000000000E-01     -7.469140000000000E+01
4858000000.000000      7.994080000000000E-01     -1.658516000000000E+02      3.895569000000000E-01     -4.668359000000000E+01      3.939209000000000E-01     -1.503203000000000E+02      7.966309000000000E-01     -7.484375000000000E+01
4859000000.000000      8.072205000000000E-01     -1.658984000000000E+02      3.890839000000000E-01     -4.722461000000000E+01      3.954773000000000E-01     -1.506094000000000E+02      8.033447000000000E-01     -7.489843000000000E+01
4860000000.000000      8.134155000000000E-01     -1.657656000000000E+02      3.891602000000000E-01     -4.756445000000000E+01      3.963013000000000E-01     -1.506250000000000E+02      8.064575000000000E-01     -7.486718000000000E+01
4861000000.000000      8.182373000000000E-01     -1.657422000000000E+02      3.881531000000000E-01     -4.817187000000000E+01      3.979645000000000E-01     -1.508906000000000E+02      8.125610000000000E-01     -7.498047000000000E+01
4862000000.000000      8.244629000000000E-01     -1.657656000000000E+02      3.881226000000000E-01     -4.844727000000000E+01      3.988647000000000E-01     -1.510156000000000E+02      8.188477000000000E-01     -7.494141000000000E+01
4863000000.000000      8.293457000000000E-01     -1.658047000000000E+02      3.863373000000000E-01     -4.904297000000000E+01      4.000549000000000E-01     -1.511562000000000E+02      8.233032000000000E-01     -7.507421000000000E+01
4864000000.000000      8.367615000000000E-01     -1.658047000000000E+02      3.863678000000000E-01     -4.944921000000000E+01      4.006348000000000E-01     -1.512812000000000E+02      8.270264000000000E-01     -7.521484000000000E+01
4865000000.000000      8.388977000000000E-01     -1.659297000000000E+02      3.853149000000000E-01     -4.967773000000000E+01      4.012146000000000E-01     -1.515391000000000E+02      8.324585000000000E-01     -7.510547000000000E+01
4866000000.000000      8.439331000000000E-01     -1.657187000000000E+02      3.837738000000000E-01     -5.006054000000000E+01      4.025421000000000E-01     -1.516797000000000E+02      8.377075000000000E-01     -7.519140000000000E+01
4867000000.000000      8.487549000000000E-01     -1.657578000000000E+02      3.836975000000000E-01     -5.066796000000000E+01      4.031830000000000E-01     -1.518281000000000E+02      8.442078000000000E-01     -7.532031000000000E+01
4868000000.000000      8.542480000000000E-01     -1.658984000000000E+02      3.821259000000000E-01     -5.108398000000000E+01      4.043121000000000E-01     -1.519922000000000E+02      8.467102000000000E-01     -7.542969000000000E+01
4869000000.000000      8.558960000000000E-01     -1.657266000000000E+02      3.802643000000000E-01     -5.153906000000000E+01      4.049225000000000E-01     -1.522422000000000E+02      8.513489000000000E-01     -7.554688000000000E+01
4870000000.000000      8.619385000000000E-01     -1.658125000000000E+02      3.804016000000000E-01     -5.180664000000000E+01      4.050293000000000E-01     -1.524141000000000E+02      8.564453000000000E-01     -7.556641000000000E+01
4871000000.000000      8.651123000000000E-01     -1.658359000000000E+02      3.774872000000000E-01     -5.209570000000000E+01      4.054565000000000E-01     -1.526484000000000E+02      8.601990000000000E-01     -7.580078000000000E+01
4872000000.000000      8.699036000000000E-01     -1.657344000000000E+02      3.772125000000000E-01     -5.230469000000000E+01      4.064636000000000E-01     -1.529140000000000E+02      8.651428000000000E-01     -7.579296000000000E+01
4873000000.000000      8.712158000000000E-01     -1.656250000000000E+02      3.757477000000000E-01     -5.266602000000000E+01      4.066010000000000E-01     -1.529453000000000E+02      8.688965000000000E-01     -7.595703000000000E+01
4874000000.000000      8.742065000000000E-01     -1.656094000000000E+02      3.750763000000000E-01     -5.302148000000000E+01      4.075928000000000E-01     -1.530313000000000E+02      8.737793000000000E-01     -7.592578000000000E+01
4875000000.000000      8.796692000000000E-01     -1.656563000000000E+02      3.731689000000000E-01     -5.319530000000000E+01      4.075165000000000E-01     -1.533359000000000E+02      8.787231000000000E-01     -7.612890000000000E+01
4876000000.000000      8.806763000000000E-01     -1.656016000000000E+02      3.711700000000000E-01     -5.350780000000000E+01      4.068451000000000E-01     -1.535000000000000E+02      8.825073000000000E-01     -7.639062000000000E+01
4877000000.000000      8.853760000000000E-01     -1.654375000000000E+02      3.705139000000000E-01     -5.368554000000000E+01      4.085236000000000E-01     -1.536562000000000E+02      8.881836000000000E-01     -7.641406000000000E+01
4878000000.000000      8.887329000000000E-01     -1.654844000000000E+02      3.695068000000000E-01     -5.396679000000000E+01      4.085999000000000E-01     -1.536953000000000E+02      8.902283000000000E-01     -7.657031000000000E+01
4879000000.000000      8.912354000000000E-01     -1.654375000000000E+02      3.677216000000000E-01     -5.414648000000000E+01      4.081726000000000E-01     -1.539297000000000E+02      8.955688000000000E-01     -7.655468000000000E+01
4880000000.000000      8.909607000000000E-01     -1.653047000000000E+02      3.663483000000000E-01     -5.448437000000000E+01      4.087830000000000E-01     -1.540390000000000E+02      8.996887000000000E-01     -7.671484000000000E+01
4881000000.000000      8.936462000000000E-01     -1.652422000000000E+02      3.650055000000000E-01     -5.446484000000000E+01      4.092865000000000E-01     -1.542891000000000E+02      9.023438000000000E-01     -7.682812000000000E+01
4882000000.000000      8.940735000000000E-01     -1.651797000000000E+02      3.630676000000000E-01     -5.485156000000000E+01      4.088135000000000E-01     -1.543125000000000E+02      9.067993000000000E-01     -7.697266000000000E+01
