! Network Analyzer HP8722D
! Hewlett-Packard
! Data name: Linha & Wilkinson
! Saver's name: Rodrigo Anjos
! Comments: Teste da utilização de aquisição
continua pelo VNA HP8722D
! Time and date: 6/5/2025 16:08
!              Frequency                     S11                                                   S21                                                   S12                                                   S22
# HZ  S  MA R 50
4800000000.000000      4.958496000000000E-01     -1.680156000000000E+02      2.527313000000000E-01     -1.955469000000000E+01      2.487030000000000E-01     -1.407969000000000E+02      6.475830000000000E-01     -8.038280000000000E+01
4801000000.000000      4.977722000000000E-01     -1.681250000000000E+02      2.565308000000000E-01     -1.975683000000000E+01      2.519989000000000E-01     -1.408359000000000E+02      6.480713000000000E-01     -7.998437000000000E+01
4802000000.000000      4.990387000000000E-01     -1.682188000000000E+02      2.596893000000000E-01     -1.992383000000000E+01      2.565155000000000E-01     -1.408281000000000E+02      6.457214000000000E-01     -7.984765000000000E+01
4803000000.000000      5.001221000000000E-01     -1.682344000000000E+02      2.642212000000000E-01     -2.022265000000000E+01      2.595825000000000E-01     -1.409375000000000E+02      6.449890000000000E-01     -7.974609000000000E+01
4804000000.000000      5.021667000000000E-01     -1.681953000000000E+02      2.688446000000000E-01     -2.051465000000000E+01      2.640228000000000E-01     -1.411641000000000E+02      6.445618000000000E-01     -7.937109000000000E+01
4805000000.000000      5.054016000000000E-01     -1.682812000000000E+02      2.726135000000000E-01     -2.077246000000000E+01      2.674561000000000E-01     -1.410469000000000E+02      6.444702000000000E-01     -7.931250000000000E+01
4806000000.000000      5.068970000000000E-01     -1.682266000000000E+02      2.766724000000000E-01     -2.098145000000000E+01      2.702942000000000E-01     -1.411250000000000E+02      6.437683000000000E-01     -7.917969000000000E+01
4807000000.000000      5.097961000000000E-01     -1.682266000000000E+02      2.805939000000000E-01     -2.144726000000000E+01      2.744598000000000E-01     -1.413516000000000E+02      6.432800000000000E-01     -7.884375000000000E+01
4808000000.000000      5.121155000000000E-01     -1.681406000000000E+02      2.853546000000000E-01     -2.163379000000000E+01      2.775269000000000E-01     -1.414219000000000E+02      6.434631000000000E-01     -7.861328000000000E+01
4809000000.000000      5.141296000000000E-01     -1.682500000000000E+02      2.883759000000000E-01     -2.226172000000000E+01      2.814484000000000E-01     -1.416250000000000E+02      6.441345000000000E-01     -7.846093000000000E+01
4810000000.000000      5.172119000000000E-01     -1.682266000000000E+02      2.927399000000000E-01     -2.245410000000000E+01      2.849121000000000E-01     -1.416719000000000E+02      6.436462000000000E-01     -7.827343000000000E+01
4811000000.000000      5.208435000000000E-01     -1.682031000000000E+02      2.960358000000000E-01     -2.296484000000000E+01      2.884064000000000E-01     -1.417422000000000E+02      6.431580000000000E-01     -7.801171000000000E+01
4812000000.000000      5.246887000000000E-01     -1.681328000000000E+02      3.002014000000000E-01     -2.326660000000000E+01      2.920990000000000E-01     -1.418359000000000E+02      6.456909000000000E-01     -7.782031000000000E+01
4813000000.000000      5.268860000000000E-01     -1.680938000000000E+02      3.037872000000000E-01     -2.370996000000000E+01      2.947235000000000E-01     -1.420156000000000E+02      6.458130000000000E-01     -7.755468000000000E+01
4814000000.000000      5.298157000000000E-01     -1.681797000000000E+02      3.075714000000000E-01     -2.404785000000000E+01      2.984924000000000E-01     -1.421953000000000E+02      6.458435000000000E-01     -7.750781000000000E+01
4815000000.000000      5.341492000000000E-01     -1.679688000000000E+02      3.106384000000000E-01     -2.446972000000000E+01      3.013306000000000E-01     -1.423906000000000E+02      6.466980000000000E-01     -7.721874000000000E+01
4816000000.000000      5.384827000000000E-01     -1.679141000000000E+02      3.150787000000000E-01     -2.471289000000000E+01      3.051758000000000E-01     -1.424609000000000E+02      6.488647000000000E-01     -7.699219000000000E+01
4817000000.000000      5.427551000000000E-01     -1.678281000000000E+02      3.187561000000000E-01     -2.530371000000000E+01      3.078613000000000E-01     -1.426250000000000E+02      6.490784000000000E-01     -7.682812000000000E+01
4818000000.000000      5.460815000000000E-01     -1.677734000000000E+02      3.215942000000000E-01     -2.571386000000000E+01      3.113861000000000E-01     -1.428281000000000E+02      6.505737000000000E-01     -7.677343000000000E+01
4819000000.000000      5.515747000000000E-01     -1.677656000000000E+02      3.248901000000000E-01     -2.611914000000000E+01      3.138275000000000E-01     -1.430078000000000E+02      6.534424000000000E-01     -7.664844000000000E+01
4820000000.000000      5.540161000000000E-01     -1.676016000000000E+02      3.291321000000000E-01     -2.664648000000000E+01      3.174744000000000E-01     -1.431797000000000E+02      6.543579000000000E-01     -7.646093000000000E+01
4821000000.000000      5.600891000000000E-01     -1.675234000000000E+02      3.319397000000000E-01     -2.700098000000000E+01      3.202209000000000E-01     -1.435469000000000E+02      6.557922000000000E-01     -7.626953000000000E+01
4822000000.000000      5.666809000000000E-01     -1.675156000000000E+02      3.347931000000000E-01     -2.755957000000000E+01      3.223419000000000E-01     -1.437031000000000E+02      6.598511000000000E-01     -7.615624000000000E+01
4823000000.000000      5.697021000000000E-01     -1.673672000000000E+02      3.380890000000000E-01     -2.806347000000000E+01      3.246002000000000E-01     -1.436172000000000E+02      6.608582000000000E-01     -7.605859000000000E+01
4824000000.000000      5.766907000000000E-01     -1.673359000000000E+02      3.417664000000000E-01     -2.862402000000000E+01      3.286743000000000E-01     -1.440234000000000E+02      6.633911000000000E-01     -7.585155000000000E+01
4825000000.000000      5.808105000000000E-01     -1.672266000000000E+02      3.435211000000000E-01     -2.900586000000000E+01      3.318329000000000E-01     -1.440781000000000E+02      6.657104000000000E-01     -7.557422000000000E+01
4826000000.000000      5.874023000000000E-01     -1.671094000000000E+02      3.471985000000000E-01     -2.956738000000000E+01      3.334351000000000E-01     -1.444375000000000E+02      6.681519000000000E-01     -7.562500000000000E+01
4827000000.000000      5.931702000000000E-01     -1.669453000000000E+02      3.505096000000000E-01     -2.999023000000000E+01      3.362885000000000E-01     -1.445078000000000E+02      6.705933000000000E-01     -7.556641000000000E+01
4828000000.000000      5.999451000000000E-01     -1.668906000000000E+02      3.533936000000000E-01     -3.055371000000000E+01      3.386230000000000E-01     -1.448047000000000E+02      6.746216000000000E-01     -7.539453000000000E+01
4829000000.000000      6.033020000000000E-01     -1.667656000000000E+02      3.547668000000000E-01     -3.110547000000000E+01      3.417053000000000E-01     -1.449297000000000E+02      6.772461000000000E-01     -7.520702000000000E+01
4830000000.000000      6.100464000000000E-01     -1.667500000000000E+02      3.582916000000000E-01     -3.173828000000000E+01      3.439941000000000E-01     -1.451406000000000E+02      6.790466000000000E-01     -7.524609000000000E+01
4831000000.000000      6.157532000000000E-01     -1.666641000000000E+02      3.602905000000000E-01     -3.232617000000000E+01      3.467865000000000E-01     -1.452969000000000E+02      6.839600000000000E-01     -7.515625000000000E+01
4832000000.000000      6.242676000000000E-01     -1.665234000000000E+02      3.634949000000000E-01     -3.272070000000000E+01      3.486481000000000E-01     -1.454375000000000E+02      6.860657000000000E-01     -7.502734000000000E+01
4833000000.000000      6.306458000000000E-01     -1.665781000000000E+02      3.654022000000000E-01     -3.323828000000000E+01      3.508453000000000E-01     -1.457422000000000E+02      6.895752000000000E-01     -7.496484000000000E+01
4834000000.000000      6.356201000000000E-01     -1.664766000000000E+02      3.679199000000000E-01     -3.389453000000000E+01      3.533630000000000E-01     -1.458359000000000E+02      6.932373000000000E-01     -7.487890000000000E+01
4835000000.000000      6.425781000000000E-01     -1.663516000000000E+02      3.697968000000000E-01     -3.437891000000000E+01      3.561096000000000E-01     -1.461172000000000E+02      6.972046000000000E-01     -7.486718000000000E+01
4836000000.000000      6.509399000000000E-01     -1.662734000000000E+02      3.723145000000000E-01     -3.486133000000000E+01      3.579865000000000E-01     -1.462891000000000E+02      7.004089000000000E-01     -7.473437000000000E+01
4837000000.000000      6.577454000000000E-01     -1.661406000000000E+02      3.731232000000000E-01     -3.581055000000000E+01      3.596191000000000E-01     -1.466094000000000E+02      7.037354000000000E-01     -7.474218000000000E+01
4838000000.000000      6.641846000000000E-01     -1.662266000000000E+02      3.767090000000000E-01     -3.599414000000000E+01      3.622131000000000E-01     -1.467969000000000E+02      7.083740000000000E-01     -7.467187000000000E+01
4839000000.000000      6.710510000000000E-01     -1.659844000000000E+02      3.769531000000000E-01     -3.658594000000000E+01      3.643799000000000E-01     -1.468125000000000E+02      7.120972000000000E-01     -7.460938000000000E+01
4840000000.000000      6.770325000000000E-01     -1.660625000000000E+02      3.790131000000000E-01     -3.707617000000000E+01      3.671722000000000E-01     -1.470625000000000E+02      7.160034000000000E-01     -7.460155000000000E+01
4841000000.000000      6.843872000000000E-01     -1.660781000000000E+02      3.807373000000000E-01     -3.782031000000000E+01      3.682251000000000E-01     -1.473672000000000E+02      7.212219000000000E-01     -7.456249000000000E+01
4842000000.000000      6.930237000000000E-01     -1.659062000000000E+02      3.820953000000000E-01     -3.823242000000000E+01      3.693237000000000E-01     -1.474766000000000E+02      7.250061000000000E-01     -7.451172000000000E+01
4843000000.000000      6.988831000000000E-01     -1.659765000000000E+02      3.831940000000000E-01     -3.899219000000000E+01      3.714294000000000E-01     -1.477031000000000E+02      7.290649000000000E-01     -7.448437000000000E+01
4844000000.000000      7.058411000000000E-01     -1.658594000000000E+02      3.837585000000000E-01     -3.932617000000000E+01      3.733215000000000E-01     -1.480000000000000E+02      7.329712000000000E-01     -7.448828000000000E+01
4845000000.000000      7.124634000000000E-01     -1.658516000000000E+02      3.854523000000000E-01     -3.988476000000000E+01      3.749390000000000E-01     -1.480703000000000E+02      7.366333000000000E-01     -7.447266000000000E+01
4846000000.000000      7.196960000000000E-01     -1.657500000000000E+02      3.860779000000000E-01     -4.047852000000000E+01      3.773499000000000E-01     -1.482500000000000E+02      7.414551000000000E-01     -7.445313000000000E+01
4847000000.000000      7.273560000000000E-01     -1.657578000000000E+02      3.872833000000000E-01     -4.086914000000000E+01      3.790131000000000E-01     -1.485469000000000E+02      7.462463000000000E-01     -7.450000000000000E+01
4848000000.000000      7.349854000000000E-01     -1.657109000000000E+02      3.871613000000000E-01     -4.138476000000000E+01      3.801727000000000E-01     -1.487109000000000E+02      7.498474000000000E-01     -7.452343000000000E+01
4849000000.000000      7.415161000000000E-01     -1.658906000000000E+02      3.888702000000000E-01     -4.215234000000000E+01      3.821106000000000E-01     -1.488516000000000E+02      7.558594000000000E-01     -7.443359000000000E+01
4850000000.000000      7.489929000000000E-01     -1.657266000000000E+02      3.894501000000000E-01     -4.265038000000000E+01      3.838043000000000E-01     -1.489297000000000E+02      7.592773000000000E-01     -7.458593000000000E+01
4851000000.000000      7.562561000000000E-01     -1.657187000000000E+02      3.902283000000000E-01     -4.338281000000000E+01      3.846893000000000E-01     -1.491016000000000E+02      7.654114000000000E-01     -7.453515000000000E+01
4852000000.000000      7.634888000000000E-01     -1.657266000000000E+02      3.905182000000000E-01     -4.380664000000000E+01      3.872528000000000E-01     -1.493203000000000E+02      7.692566000000000E-01     -7.446094000000000E+01
4853000000.000000      7.696228000000000E-01     -1.656797000000000E+02      3.892365000000000E-01     -4.433398000000000E+01      3.879089000000000E-01     -1.496094000000000E+02      7.744446000000000E-01     -7.472656000000000E+01
4854000000.000000      7.773743000000000E-01     -1.657422000000000E+02      3.905487000000000E-01     -4.489453000000000E+01      3.893433000000000E-01     -1.497500000000000E+02      7.791138000000000E-01     -7.464844000000000E+01
4855000000.000000      7.818909000000000E-01     -1.657266000000000E+02      3.899078000000000E-01     -4.523633000000000E+01      3.905334000000000E-01     -1.498828000000000E+02      7.822266000000000E-01     -7.467578000000000E+01
4856000000.000000      7.896729000000000E-01     -1.656250000000000E+02      3.906403000000000E-01     -4.571875000000000E+01      3.920898000000000E-01     -1.500234000000000E+02      7.881775000000000E-01     -7.474218000000000E+01
4857000000.000000      7.942505000000000E-01     -1.657031000000000E+02      3.915710000000000E-01     -4.631055000000000E+01      3.926544000000000E-01     -1.502109000000000E+02      7.922668000000000E-01     -7.477734000000000E+01
4858000000.000000      7.992859000000000E-01     -1.657578000000000E+02      3.898315000000000E-01     -4.677930000000000E+01      3.937683000000000E-01     -1.504141000000000E+02      7.978821000000000E-01     -7.487499000000000E+01
4859000000.000000      8.067017000000000E-01     -1.657969000000000E+02      3.893890000000000E-01     -4.720117000000000E+01      3.956909000000000E-01     -1.506797000000000E+02      8.038635000000000E-01     -7.495312000000000E+01
4860000000.000000      8.152161000000000E-01     -1.658437000000000E+02      3.892212000000000E-01     -4.770898000000000E+01      3.964233000000000E-01     -1.507344000000000E+02      8.065796000000000E-01     -7.488671000000000E+01
4861000000.000000      8.201904000000000E-01     -1.656016000000000E+02      3.883972000000000E-01     -4.828125000000000E+01      3.974457000000000E-01     -1.508672000000000E+02      8.128967000000000E-01     -7.504687000000000E+01
4862000000.000000      8.256226000000000E-01     -1.656875000000000E+02      3.887024000000000E-01     -4.866405000000000E+01      3.992615000000000E-01     -1.510781000000000E+02      8.189392000000000E-01     -7.504296000000000E+01
4863000000.000000      8.314819000000000E-01     -1.657578000000000E+02      3.869934000000000E-01     -4.921093000000000E+01      3.999481000000000E-01     -1.512109000000000E+02      8.243408000000000E-01     -7.514453000000000E+01
4864000000.000000      8.365173000000000E-01     -1.657891000000000E+02      3.867798000000000E-01     -4.940624000000000E+01      4.005127000000000E-01     -1.513438000000000E+02      8.280945000000000E-01     -7.530468000000000E+01
4865000000.000000      8.398743000000000E-01     -1.657812000000000E+02      3.854980000000000E-01     -4.984375000000000E+01      4.018250000000000E-01     -1.516484000000000E+02      8.327637000000000E-01     -7.523046000000000E+01
4866000000.000000      8.434753000000000E-01     -1.657578000000000E+02      3.834991000000000E-01     -5.017383000000000E+01      4.022675000000000E-01     -1.517422000000000E+02      8.375549000000000E-01     -7.531250000000000E+01
4867000000.000000      8.490295000000000E-01     -1.656719000000000E+02      3.829956000000000E-01     -5.083202000000000E+01      4.036560000000000E-01     -1.518828000000000E+02      8.433838000000000E-01     -7.530859000000000E+01
4868000000.000000      8.530273000000000E-01     -1.658125000000000E+02      3.818359000000000E-01     -5.100976000000000E+01      4.043427000000000E-01     -1.519922000000000E+02      8.469238000000000E-01     -7.541797000000000E+01
4869000000.000000      8.548279000000000E-01     -1.656875000000000E+02      3.799133000000000E-01     -5.148438000000000E+01      4.045868000000000E-01     -1.522812000000000E+02      8.521729000000000E-01     -7.560937000000000E+01
4870000000.000000      8.621826000000000E-01     -1.658281000000000E+02      3.805237000000000E-01     -5.157031000000000E+01      4.052277000000000E-01     -1.524765000000000E+02      8.563232000000000E-01     -7.567187000000000E+01
4871000000.000000      8.641968000000000E-01     -1.658125000000000E+02      3.790741000000000E-01     -5.213476000000000E+01      4.053955000000000E-01     -1.526250000000000E+02      8.610535000000000E-01     -7.587500000000000E+01
4872000000.000000      8.704224000000000E-01     -1.656953000000000E+02      3.770142000000000E-01     -5.232422000000000E+01      4.061737000000000E-01     -1.529453000000000E+02      8.669128000000000E-01     -7.586719000000000E+01
4873000000.000000      8.710632000000000E-01     -1.655625000000000E+02      3.756104000000000E-01     -5.275391000000000E+01      4.062195000000000E-01     -1.529609000000000E+02      8.694763000000000E-01     -7.608203000000000E+01
4874000000.000000      8.735962000000000E-01     -1.655313000000000E+02      3.745728000000000E-01     -5.299218000000000E+01      4.074097000000000E-01     -1.530625000000000E+02      8.719788000000000E-01     -7.601953000000000E+01
4875000000.000000      8.811035000000000E-01     -1.656563000000000E+02      3.724976000000000E-01     -5.322266000000000E+01      4.077301000000000E-01     -1.533594000000000E+02      8.782043000000000E-01     -7.631249000000000E+01
4876000000.000000      8.821716000000000E-01     -1.655937000000000E+02      3.711395000000000E-01     -5.363281000000000E+01      4.067688000000000E-01     -1.535156000000000E+02      8.833008000000000E-01     -7.637500000000000E+01
4877000000.000000      8.836975000000000E-01     -1.654766000000000E+02      3.704071000000000E-01     -5.373828000000000E+01      4.083557000000000E-01     -1.537031000000000E+02      8.886414000000000E-01     -7.651953000000000E+01
4878000000.000000      8.866882000000000E-01     -1.654219000000000E+02      3.692474000000000E-01     -5.407227000000000E+01      4.076843000000000E-01     -1.537422000000000E+02      8.928833000000000E-01     -7.660546000000000E+01
4879000000.000000      8.896484000000000E-01     -1.653906000000000E+02      3.670807000000000E-01     -5.420898000000000E+01      4.078979000000000E-01     -1.539375000000000E+02      8.939209000000000E-01     -7.657421000000000E+01
4880000000.000000      8.900757000000000E-01     -1.653203000000000E+02      3.658142000000000E-01     -5.450781000000000E+01      4.087219000000000E-01     -1.540703000000000E+02      9.007263000000000E-01     -7.668750000000000E+01
4881000000.000000      8.935547000000000E-01     -1.651797000000000E+02      3.650970000000000E-01     -5.445117000000000E+01      4.090729000000000E-01     -1.542969000000000E+02      9.034119000000000E-01     -7.692577000000000E+01
4882000000.000000      8.950806000000000E-01     -1.651172000000000E+02      3.630219000000000E-01     -5.493945000000000E+01      4.086914000000000E-01     -1.543984000000000E+02      9.061890000000000E-01     -7.709374000000000E+01
