! Network Analyzer HP8722D
! Hewlett-Packard
! Data name: Linha & Wilkinson
! Saver's name: Rodrigo Anjos
! Comments: Teste da utilização de aquisição
continua pelo VNA HP8722D
! Time and date: 6/5/2025 15:25
!              Frequency                     S11                                                   S21                                                   S12                                                   S22
# HZ  S  MA R 50
4800000000.000000      4.965820000000000E-01     -1.681484000000000E+02      2.514496000000000E-01     -1.962598000000000E+01      2.485886000000000E-01     -1.407266000000000E+02      6.476440000000000E-01     -8.039454000000000E+01
4801000000.000000      4.978943000000000E-01     -1.682344000000000E+02      2.555542000000000E-01     -1.982422000000000E+01      2.515259000000000E-01     -1.408359000000000E+02      6.456909000000000E-01     -8.008204000000000E+01
4802000000.000000      4.989014000000000E-01     -1.683437000000000E+02      2.595825000000000E-01     -2.002344000000000E+01      2.561035000000000E-01     -1.408359000000000E+02      6.454468000000000E-01     -7.974218000000000E+01
4803000000.000000      5.004272000000000E-01     -1.683281000000000E+02      2.639160000000000E-01     -2.026074000000000E+01      2.587738000000000E-01     -1.408828000000000E+02      6.446228000000000E-01     -7.969140000000000E+01
4804000000.000000      5.028381000000000E-01     -1.683359000000000E+02      2.677460000000000E-01     -2.044336000000000E+01      2.631378000000000E-01     -1.410781000000000E+02      6.435852000000000E-01     -7.935547000000000E+01
4805000000.000000      5.051880000000000E-01     -1.684141000000000E+02      2.722931000000000E-01     -2.078223000000000E+01      2.663727000000000E-01     -1.411172000000000E+02      6.436462000000000E-01     -7.934375000000000E+01
4806000000.000000      5.067444000000000E-01     -1.683281000000000E+02      2.757416000000000E-01     -2.111719000000000E+01      2.692566000000000E-01     -1.410391000000000E+02      6.434021000000000E-01     -7.908984000000000E+01
4807000000.000000      5.099182000000000E-01     -1.683828000000000E+02      2.801208000000000E-01     -2.144824000000000E+01      2.735443000000000E-01     -1.413672000000000E+02      6.432190000000000E-01     -7.880077000000000E+01
4808000000.000000      5.125427000000000E-01     -1.682578000000000E+02      2.845459000000000E-01     -2.162890000000000E+01      2.766113000000000E-01     -1.413828000000000E+02      6.424866000000000E-01     -7.856640000000000E+01
4809000000.000000      5.145569000000000E-01     -1.682969000000000E+02      2.880707000000000E-01     -2.213769000000000E+01      2.807922000000000E-01     -1.415781000000000E+02      6.428833000000000E-01     -7.847265000000000E+01
4810000000.000000      5.180664000000000E-01     -1.683672000000000E+02      2.925110000000000E-01     -2.240137000000000E+01      2.839966000000000E-01     -1.416797000000000E+02      6.430969000000000E-01     -7.825000000000000E+01
4811000000.000000      5.210571000000000E-01     -1.682656000000000E+02      2.960205000000000E-01     -2.286719000000000E+01      2.883606000000000E-01     -1.417422000000000E+02      6.436157000000000E-01     -7.792969000000000E+01
4812000000.000000      5.255127000000000E-01     -1.682266000000000E+02      2.997894000000000E-01     -2.327246000000000E+01      2.918396000000000E-01     -1.418750000000000E+02      6.452637000000000E-01     -7.783203000000000E+01
4813000000.000000      5.274353000000000E-01     -1.681797000000000E+02      3.035431000000000E-01     -2.367285000000000E+01      2.942200000000000E-01     -1.418906000000000E+02      6.451416000000000E-01     -7.757813000000000E+01
4814000000.000000      5.304565000000000E-01     -1.682344000000000E+02      3.073120000000000E-01     -2.398633000000000E+01      2.977295000000000E-01     -1.421953000000000E+02      6.455688000000000E-01     -7.749609000000000E+01
4815000000.000000      5.339966000000000E-01     -1.680703000000000E+02      3.101501000000000E-01     -2.442676000000000E+01      3.005676000000000E-01     -1.423281000000000E+02      6.470032000000000E-01     -7.713281000000000E+01
4816000000.000000      5.385742000000000E-01     -1.679688000000000E+02      3.144989000000000E-01     -2.477832000000000E+01      3.048706000000000E-01     -1.424609000000000E+02      6.472778000000000E-01     -7.702734000000000E+01
4817000000.000000      5.434875000000000E-01     -1.678906000000000E+02      3.184509000000000E-01     -2.535449000000000E+01      3.068237000000000E-01     -1.426953000000000E+02      6.494446000000000E-01     -7.686328000000000E+01
4818000000.000000      5.466919000000000E-01     -1.678359000000000E+02      3.210144000000000E-01     -2.576074000000000E+01      3.108978000000000E-01     -1.428828000000000E+02      6.502075000000000E-01     -7.679296000000000E+01
4819000000.000000      5.514221000000000E-01     -1.678125000000000E+02      3.245392000000000E-01     -2.616699000000000E+01      3.134918000000000E-01     -1.430391000000000E+02      6.530151000000000E-01     -7.662890000000000E+01
4820000000.000000      5.539246000000000E-01     -1.677422000000000E+02      3.282318000000000E-01     -2.654785000000000E+01      3.169556000000000E-01     -1.431875000000000E+02      6.541748000000000E-01     -7.642187000000000E+01
4821000000.000000      5.598450000000000E-01     -1.676406000000000E+02      3.316193000000000E-01     -2.709668000000000E+01      3.191681000000000E-01     -1.434922000000000E+02      6.550293000000000E-01     -7.626171000000000E+01
4822000000.000000      5.664673000000000E-01     -1.675937000000000E+02      3.345337000000000E-01     -2.758301000000000E+01      3.223267000000000E-01     -1.436172000000000E+02      6.581726000000000E-01     -7.611328000000000E+01
4823000000.000000      5.697632000000000E-01     -1.674609000000000E+02      3.376923000000000E-01     -2.793359000000000E+01      3.249207000000000E-01     -1.436563000000000E+02      6.608582000000000E-01     -7.593750000000000E+01
4824000000.000000      5.772400000000000E-01     -1.674531000000000E+02      3.410950000000000E-01     -2.859082000000000E+01      3.286133000000000E-01     -1.439766000000000E+02      6.626892000000000E-01     -7.580859000000000E+01
4825000000.000000      5.809326000000000E-01     -1.673125000000000E+02      3.431549000000000E-01     -2.899902000000000E+01      3.316193000000000E-01     -1.441172000000000E+02      6.651306000000000E-01     -7.564062000000000E+01
4826000000.000000      5.870361000000000E-01     -1.672109000000000E+02      3.469696000000000E-01     -2.962695000000000E+01      3.330536000000000E-01     -1.444219000000000E+02      6.683960000000000E-01     -7.564453000000000E+01
4827000000.000000      5.926208000000000E-01     -1.670312000000000E+02      3.498688000000000E-01     -3.003418000000000E+01      3.361664000000000E-01     -1.444766000000000E+02      6.707153000000000E-01     -7.544922000000000E+01
4828000000.000000      6.000671000000000E-01     -1.670625000000000E+02      3.533173000000000E-01     -3.059082000000000E+01      3.377533000000000E-01     -1.447031000000000E+02      6.738281000000000E-01     -7.540234000000000E+01
4829000000.000000      6.034851000000000E-01     -1.668906000000000E+02      3.545227000000000E-01     -3.100488000000000E+01      3.415375000000000E-01     -1.449609000000000E+02      6.755981000000000E-01     -7.526562000000000E+01
4830000000.000000      6.105347000000000E-01     -1.668359000000000E+02      3.575897000000000E-01     -3.158594000000000E+01      3.434296000000000E-01     -1.450547000000000E+02      6.799927000000000E-01     -7.517968000000000E+01
4831000000.000000      6.153870000000000E-01     -1.667500000000000E+02      3.600464000000000E-01     -3.222461000000000E+01      3.459930000000000E-01     -1.452500000000000E+02      6.825562000000000E-01     -7.503515000000000E+01
4832000000.000000      6.232300000000000E-01     -1.666641000000000E+02      3.635864000000000E-01     -3.272851000000000E+01      3.478546000000000E-01     -1.454531000000000E+02      6.857300000000000E-01     -7.499218000000000E+01
4833000000.000000      6.305542000000000E-01     -1.666250000000000E+02      3.657227000000000E-01     -3.318750000000000E+01      3.510132000000000E-01     -1.457187000000000E+02      6.893005000000000E-01     -7.494922000000000E+01
4834000000.000000      6.364136000000000E-01     -1.665937000000000E+02      3.673401000000000E-01     -3.373047000000000E+01      3.530731000000000E-01     -1.458906000000000E+02      6.924438000000000E-01     -7.489062000000000E+01
4835000000.000000      6.425476000000000E-01     -1.664297000000000E+02      3.700714000000000E-01     -3.433398000000000E+01      3.555450000000000E-01     -1.460781000000000E+02      6.960144000000000E-01     -7.484375000000000E+01
4836000000.000000      6.509705000000000E-01     -1.663125000000000E+02      3.720398000000000E-01     -3.481445000000000E+01      3.575592000000000E-01     -1.461797000000000E+02      7.000732000000000E-01     -7.468359000000000E+01
4837000000.000000      6.574097000000000E-01     -1.662344000000000E+02      3.739166000000000E-01     -3.565234000000000E+01      3.596649000000000E-01     -1.464688000000000E+02      7.034607000000000E-01     -7.463672000000000E+01
4838000000.000000      6.646729000000000E-01     -1.662734000000000E+02      3.752899000000000E-01     -3.603320000000000E+01      3.616028000000000E-01     -1.467500000000000E+02      7.075500000000000E-01     -7.464062000000000E+01
4839000000.000000      6.709290000000000E-01     -1.661406000000000E+02      3.769836000000000E-01     -3.636914000000000E+01      3.633423000000000E-01     -1.468437000000000E+02      7.124939000000000E-01     -7.459765000000000E+01
4840000000.000000      6.766663000000000E-01     -1.661406000000000E+02      3.784027000000000E-01     -3.709570000000000E+01      3.660889000000000E-01     -1.470859000000000E+02      7.148743000000000E-01     -7.464062000000000E+01
4841000000.000000      6.852722000000000E-01     -1.660625000000000E+02      3.806305000000000E-01     -3.773242000000000E+01      3.680725000000000E-01     -1.474062000000000E+02      7.192993000000000E-01     -7.457421000000000E+01
4842000000.000000      6.922302000000000E-01     -1.659688000000000E+02      3.818054000000000E-01     -3.817968000000000E+01      3.691101000000000E-01     -1.474219000000000E+02      7.247620000000000E-01     -7.452343000000000E+01
4843000000.000000      6.987000000000000E-01     -1.660938000000000E+02      3.830414000000000E-01     -3.888086000000000E+01      3.712769000000000E-01     -1.476094000000000E+02      7.276001000000000E-01     -7.448828000000000E+01
4844000000.000000      7.060242000000000E-01     -1.659375000000000E+02      3.846130000000000E-01     -3.929296000000000E+01      3.730316000000000E-01     -1.479297000000000E+02      7.324829000000000E-01     -7.451953000000000E+01
4845000000.000000      7.121582000000000E-01     -1.658750000000000E+02      3.850403000000000E-01     -3.992969000000000E+01      3.753510000000000E-01     -1.481328000000000E+02      7.364807000000000E-01     -7.450781000000000E+01
4846000000.000000      7.200012000000000E-01     -1.657891000000000E+02      3.865662000000000E-01     -4.040625000000000E+01      3.775787000000000E-01     -1.482500000000000E+02      7.409058000000000E-01     -7.446094000000000E+01
4847000000.000000      7.278442000000000E-01     -1.657812000000000E+02      3.867188000000000E-01     -4.108398000000000E+01      3.789978000000000E-01     -1.485234000000000E+02      7.463379000000000E-01     -7.450000000000000E+01
4848000000.000000      7.354736000000000E-01     -1.657812000000000E+02      3.870697000000000E-01     -4.147851000000000E+01      3.805695000000000E-01     -1.486094000000000E+02      7.497864000000000E-01     -7.452734000000000E+01
4849000000.000000      7.415161000000000E-01     -1.659765000000000E+02      3.889160000000000E-01     -4.221680000000000E+01      3.818207000000000E-01     -1.487734000000000E+02      7.550049000000000E-01     -7.448828000000000E+01
4850000000.000000      7.492371000000000E-01     -1.657656000000000E+02      3.898468000000000E-01     -4.263672000000000E+01      3.828583000000000E-01     -1.489297000000000E+02      7.595825000000000E-01     -7.438671000000000E+01
4851000000.000000      7.563782000000000E-01     -1.657422000000000E+02      3.898468000000000E-01     -4.322656000000000E+01      3.850555000000000E-01     -1.491953000000000E+02      7.644043000000000E-01     -7.451562000000000E+01
4852000000.000000      7.624817000000000E-01     -1.657734000000000E+02      3.902740000000000E-01     -4.362500000000000E+01      3.869171000000000E-01     -1.492656000000000E+02      7.684326000000000E-01     -7.458984000000000E+01
4853000000.000000      7.706299000000000E-01     -1.657812000000000E+02      3.893127000000000E-01     -4.420507000000000E+01      3.887482000000000E-01     -1.495156000000000E+02      7.743530000000000E-01     -7.470312000000000E+01
4854000000.000000      7.758789000000000E-01     -1.657891000000000E+02      3.899994000000000E-01     -4.484179000000000E+01      3.896179000000000E-01     -1.496953000000000E+02      7.783813000000000E-01     -7.462109000000000E+01
4855000000.000000      7.814941000000000E-01     -1.658594000000000E+02      3.894043000000000E-01     -4.528320000000000E+01      3.907776000000000E-01     -1.498125000000000E+02      7.821960000000000E-01     -7.460155000000000E+01
4856000000.000000      7.896118000000000E-01     -1.657109000000000E+02      3.897705000000000E-01     -4.567578000000000E+01      3.917084000000000E-01     -1.500391000000000E+02      7.879028000000000E-01     -7.467187000000000E+01
4857000000.000000      7.945251000000000E-01     -1.658594000000000E+02      3.901978000000000E-01     -4.618945000000000E+01      3.930817000000000E-01     -1.501406000000000E+02      7.931213000000000E-01     -7.473046000000000E+01
4858000000.000000      7.985535000000000E-01     -1.658359000000000E+02      3.893280000000000E-01     -4.664844000000000E+01      3.937683000000000E-01     -1.503906000000000E+02      7.974854000000000E-01     -7.482812000000000E+01
4859000000.000000      8.063354000000000E-01     -1.658906000000000E+02      3.896484000000000E-01     -4.717773000000000E+01      3.952637000000000E-01     -1.506641000000000E+02      8.036804000000000E-01     -7.494531000000000E+01
4860000000.000000      8.132019000000000E-01     -1.657422000000000E+02      3.888702000000000E-01     -4.765038000000000E+01      3.963470000000000E-01     -1.506641000000000E+02      8.062744000000000E-01     -7.482422000000000E+01
4861000000.000000      8.183289000000000E-01     -1.656953000000000E+02      3.884277000000000E-01     -4.821289000000000E+01      3.978577000000000E-01     -1.508750000000000E+02      8.127747000000000E-01     -7.508984000000000E+01
4862000000.000000      8.240051000000000E-01     -1.657891000000000E+02      3.888397000000000E-01     -4.866796000000000E+01      3.988800000000000E-01     -1.510703000000000E+02      8.185730000000000E-01     -7.500781000000000E+01
4863000000.000000      8.280945000000000E-01     -1.657734000000000E+02      3.862610000000000E-01     -4.908008000000000E+01      4.003754000000000E-01     -1.511406000000000E+02      8.224487000000000E-01     -7.512890000000000E+01
4864000000.000000      8.347473000000000E-01     -1.658750000000000E+02      3.867950000000000E-01     -4.933203000000000E+01      4.003296000000000E-01     -1.513203000000000E+02      8.269043000000000E-01     -7.525391000000000E+01
4865000000.000000      8.368530000000000E-01     -1.658047000000000E+02      3.845215000000000E-01     -4.985156000000000E+01      4.017029000000000E-01     -1.515781000000000E+02      8.318481000000000E-01     -7.512500000000000E+01
4866000000.000000      8.444824000000000E-01     -1.656875000000000E+02      3.828583000000000E-01     -5.027344000000000E+01      4.020996000000000E-01     -1.517500000000000E+02      8.377075000000000E-01     -7.529687000000000E+01
4867000000.000000      8.496399000000000E-01     -1.657109000000000E+02      3.834839000000000E-01     -5.059179000000000E+01      4.031982000000000E-01     -1.518516000000000E+02      8.426819000000000E-01     -7.537109000000000E+01
4868000000.000000      8.533325000000000E-01     -1.658516000000000E+02      3.832703000000000E-01     -5.109375000000000E+01      4.042358000000000E-01     -1.520781000000000E+02      8.469238000000000E-01     -7.546093000000000E+01
4869000000.000000      8.532715000000000E-01     -1.658047000000000E+02      3.812256000000000E-01     -5.151367000000000E+01      4.048615000000000E-01     -1.522969000000000E+02      8.511963000000000E-01     -7.560156000000000E+01
4870000000.000000      8.605347000000000E-01     -1.657969000000000E+02      3.804321000000000E-01     -5.162890000000000E+01      4.052429000000000E-01     -1.525000000000000E+02      8.572388000000000E-01     -7.563281000000000E+01
4871000000.000000      8.640747000000000E-01     -1.656328000000000E+02      3.794556000000000E-01     -5.211719000000000E+01      4.050751000000000E-01     -1.526719000000000E+02      8.607178000000000E-01     -7.580859000000000E+01
4872000000.000000      8.694153000000000E-01     -1.657969000000000E+02      3.769989000000000E-01     -5.228125000000000E+01      4.060364000000000E-01     -1.529609000000000E+02      8.655090000000000E-01     -7.589453000000000E+01
4873000000.000000      8.727722000000000E-01     -1.657578000000000E+02      3.753967000000000E-01     -5.282812000000000E+01      4.062195000000000E-01     -1.529297000000000E+02      8.699036000000000E-01     -7.595703000000000E+01
4874000000.000000      8.762512000000000E-01     -1.655781000000000E+02      3.739929000000000E-01     -5.300390000000000E+01      4.074554000000000E-01     -1.531094000000000E+02      8.733826000000000E-01     -7.590625000000000E+01
4875000000.000000      8.791199000000000E-01     -1.657969000000000E+02      3.727417000000000E-01     -5.332617000000000E+01      4.079437000000000E-01     -1.533594000000000E+02      8.780212000000000E-01     -7.616015000000000E+01
4876000000.000000      8.812561000000000E-01     -1.656641000000000E+02      3.719940000000000E-01     -5.362305000000000E+01      4.063568000000000E-01     -1.535234000000000E+02      8.838501000000000E-01     -7.643749000000000E+01
4877000000.000000      8.819580000000000E-01     -1.656016000000000E+02      3.701172000000000E-01     -5.370898000000000E+01      4.082489000000000E-01     -1.537891000000000E+02      8.875427000000000E-01     -7.645702000000000E+01
4878000000.000000      8.870544000000000E-01     -1.655703000000000E+02      3.692322000000000E-01     -5.396484000000000E+01      4.083405000000000E-01     -1.537500000000000E+02      8.924866000000000E-01     -7.653125000000000E+01
4879000000.000000      8.897400000000000E-01     -1.655000000000000E+02      3.665314000000000E-01     -5.412304000000000E+01      4.080505000000000E-01     -1.539844000000000E+02      8.951416000000000E-01     -7.663280000000000E+01
4880000000.000000      8.912964000000000E-01     -1.653828000000000E+02      3.654938000000000E-01     -5.449413000000000E+01      4.087219000000000E-01     -1.540313000000000E+02      8.993530000000000E-01     -7.670312000000000E+01
4881000000.000000      8.940735000000000E-01     -1.652031000000000E+02      3.652191000000000E-01     -5.459961000000000E+01      4.087067000000000E-01     -1.543359000000000E+02      9.038391000000000E-01     -7.687890000000000E+01
4882000000.000000      8.934326000000000E-01     -1.653437000000000E+02      3.631439000000000E-01     -5.485546000000000E+01      4.085846000000000E-01     -1.543594000000000E+02      9.073486000000000E-01     -7.688671000000000E+01
