! Network Analyzer HP8722D
! Hewlett-Packard
! Data name: Linha & Wilkinson
! Saver's name: Rodrigo Anjos
! Comments: Teste da utilização de aquisição
continua pelo VNA HP8722D
! Time and date: 6/5/2025 13:42
!              Frequency                     S11                                                   S21                                                   S12                                                   S22
# HZ  S  MA R 50
4800000000.000000      4.977570000000000E-01     -1.683281000000000E+02      2.527771000000000E-01     -1.994043000000000E+01      2.497177000000000E-01     -1.410703000000000E+02      6.481628000000000E-01     -8.034765000000000E+01
4801000000.000000      4.992523000000000E-01     -1.684141000000000E+02      2.576141000000000E-01     -2.009766000000000E+01      2.531433000000000E-01     -1.411797000000000E+02      6.473999000000000E-01     -8.009766000000000E+01
4802000000.000000      4.998169000000000E-01     -1.685156000000000E+02      2.610016000000000E-01     -2.030078000000000E+01      2.570190000000000E-01     -1.411641000000000E+02      6.452942000000000E-01     -7.977734000000000E+01
4803000000.000000      5.019531000000000E-01     -1.685156000000000E+02      2.654419000000000E-01     -2.057910000000000E+01      2.602997000000000E-01     -1.412344000000000E+02      6.435547000000000E-01     -7.962500000000000E+01
4804000000.000000      5.044250000000000E-01     -1.685313000000000E+02      2.689362000000000E-01     -2.079102000000000E+01      2.643585000000000E-01     -1.413906000000000E+02      6.445007000000000E-01     -7.938671000000000E+01
4805000000.000000      5.066528000000000E-01     -1.685547000000000E+02      2.732849000000000E-01     -2.118164000000000E+01      2.679749000000000E-01     -1.414063000000000E+02      6.436768000000000E-01     -7.926562000000000E+01
4806000000.000000      5.078735000000000E-01     -1.685156000000000E+02      2.778473000000000E-01     -2.137598000000000E+01      2.704926000000000E-01     -1.413281000000000E+02      6.443481000000000E-01     -7.910546000000000E+01
4807000000.000000      5.115356000000000E-01     -1.685859000000000E+02      2.815247000000000E-01     -2.184277000000000E+01      2.747955000000000E-01     -1.417578000000000E+02      6.428528000000000E-01     -7.884375000000000E+01
4808000000.000000      5.137939000000000E-01     -1.684531000000000E+02      2.857971000000000E-01     -2.198242000000000E+01      2.781830000000000E-01     -1.418047000000000E+02      6.427917000000000E-01     -7.856640000000000E+01
4809000000.000000      5.162354000000000E-01     -1.684687000000000E+02      2.894745000000000E-01     -2.257031000000000E+01      2.820740000000000E-01     -1.419062000000000E+02      6.436768000000000E-01     -7.843359000000000E+01
4810000000.000000      5.189819000000000E-01     -1.685078000000000E+02      2.937927000000000E-01     -2.273438000000000E+01      2.852173000000000E-01     -1.420938000000000E+02      6.445007000000000E-01     -7.826953000000000E+01
4811000000.000000      5.223694000000000E-01     -1.684687000000000E+02      2.973785000000000E-01     -2.323144000000000E+01      2.896729000000000E-01     -1.421406000000000E+02      6.448059000000000E-01     -7.799609000000000E+01
4812000000.000000      5.263367000000000E-01     -1.683281000000000E+02      3.006897000000000E-01     -2.363574000000000E+01      2.925720000000000E-01     -1.422578000000000E+02      6.452942000000000E-01     -7.782421000000000E+01
4813000000.000000      5.289001000000000E-01     -1.683437000000000E+02      3.044128000000000E-01     -2.404687000000000E+01      2.948608000000000E-01     -1.423437000000000E+02      6.458740000000000E-01     -7.765234000000000E+01
4814000000.000000      5.317078000000000E-01     -1.684375000000000E+02      3.080902000000000E-01     -2.433398000000000E+01      2.988129000000000E-01     -1.425547000000000E+02      6.458130000000000E-01     -7.746094000000000E+01
4815000000.000000      5.354309000000000E-01     -1.682578000000000E+02      3.115387000000000E-01     -2.484472000000000E+01      3.015442000000000E-01     -1.427266000000000E+02      6.473083000000000E-01     -7.717578000000000E+01
4816000000.000000      5.402222000000000E-01     -1.681953000000000E+02      3.158112000000000E-01     -2.510449000000000E+01      3.064423000000000E-01     -1.428672000000000E+02      6.486511000000000E-01     -7.697266000000000E+01
4817000000.000000      5.447998000000000E-01     -1.680703000000000E+02      3.187256000000000E-01     -2.577343000000000E+01      3.084717000000000E-01     -1.430469000000000E+02      6.492615000000000E-01     -7.684375000000000E+01
4818000000.000000      5.478210000000000E-01     -1.680469000000000E+02      3.218231000000000E-01     -2.606445000000000E+01      3.113708000000000E-01     -1.432500000000000E+02      6.507263000000000E-01     -7.678124000000000E+01
4819000000.000000      5.538330000000000E-01     -1.679688000000000E+02      3.258362000000000E-01     -2.645996000000000E+01      3.139038000000000E-01     -1.434062000000000E+02      6.528625000000000E-01     -7.661327000000000E+01
4820000000.000000      5.556335000000000E-01     -1.679453000000000E+02      3.286896000000000E-01     -2.682129000000000E+01      3.174896000000000E-01     -1.435234000000000E+02      6.552734000000000E-01     -7.635547000000000E+01
4821000000.000000      5.617981000000000E-01     -1.677813000000000E+02      3.326416000000000E-01     -2.746094000000000E+01      3.201141000000000E-01     -1.438828000000000E+02      6.555481000000000E-01     -7.630077000000000E+01
4822000000.000000      5.689087000000000E-01     -1.678047000000000E+02      3.354187000000000E-01     -2.787793000000000E+01      3.227997000000000E-01     -1.441641000000000E+02      6.589661000000000E-01     -7.619922000000000E+01
4823000000.000000      5.718384000000000E-01     -1.676406000000000E+02      3.388672000000000E-01     -2.848828000000000E+01      3.246307000000000E-01     -1.440781000000000E+02      6.604309000000000E-01     -7.592578000000000E+01
4824000000.000000      5.787659000000000E-01     -1.676094000000000E+02      3.421478000000000E-01     -2.899609000000000E+01      3.291016000000000E-01     -1.443438000000000E+02      6.636658000000000E-01     -7.586719000000000E+01
4825000000.000000      5.824890000000000E-01     -1.674766000000000E+02      3.450165000000000E-01     -2.944140000000000E+01      3.319550000000000E-01     -1.444844000000000E+02      6.664734000000000E-01     -7.573047000000000E+01
4826000000.000000      5.890198000000000E-01     -1.674453000000000E+02      3.477936000000000E-01     -2.993261000000000E+01      3.334045000000000E-01     -1.448750000000000E+02      6.690369000000000E-01     -7.570313000000000E+01
4827000000.000000      5.954285000000000E-01     -1.672031000000000E+02      3.507385000000000E-01     -3.031054000000000E+01      3.366394000000000E-01     -1.449844000000000E+02      6.711731000000000E-01     -7.549999000000000E+01
4828000000.000000      6.019897000000000E-01     -1.672188000000000E+02      3.539124000000000E-01     -3.089941000000000E+01      3.381805000000000E-01     -1.452109000000000E+02      6.747742000000000E-01     -7.543750000000000E+01
4829000000.000000      6.050720000000000E-01     -1.670234000000000E+02      3.550720000000000E-01     -3.151464000000000E+01      3.413696000000000E-01     -1.454219000000000E+02      6.778870000000000E-01     -7.529297000000000E+01
4830000000.000000      6.124268000000000E-01     -1.670234000000000E+02      3.584137000000000E-01     -3.208398000000000E+01      3.439636000000000E-01     -1.453906000000000E+02      6.807251000000000E-01     -7.525781000000000E+01
4831000000.000000      6.176147000000000E-01     -1.669375000000000E+02      3.603210000000000E-01     -3.262109000000000E+01      3.467865000000000E-01     -1.457344000000000E+02      6.833801000000000E-01     -7.516796000000000E+01
4832000000.000000      6.257935000000000E-01     -1.668047000000000E+02      3.633423000000000E-01     -3.297656000000000E+01      3.490448000000000E-01     -1.459219000000000E+02      6.870728000000000E-01     -7.514062000000000E+01
4833000000.000000      6.319580000000000E-01     -1.668750000000000E+02      3.661041000000000E-01     -3.373632000000000E+01      3.507843000000000E-01     -1.462109000000000E+02      6.905518000000000E-01     -7.499218000000000E+01
4834000000.000000      6.383667000000000E-01     -1.667266000000000E+02      3.677979000000000E-01     -3.414258000000000E+01      3.531342000000000E-01     -1.463047000000000E+02      6.938782000000000E-01     -7.494141000000000E+01
4835000000.000000      6.445923000000000E-01     -1.666484000000000E+02      3.707123000000000E-01     -3.463672000000000E+01      3.556824000000000E-01     -1.465469000000000E+02      6.979370000000000E-01     -7.494531000000000E+01
4836000000.000000      6.528015000000000E-01     -1.665703000000000E+02      3.725739000000000E-01     -3.511719000000000E+01      3.577576000000000E-01     -1.466797000000000E+02      7.013855000000000E-01     -7.480078000000000E+01
4837000000.000000      6.597595000000000E-01     -1.663594000000000E+02      3.738251000000000E-01     -3.612305000000000E+01      3.596191000000000E-01     -1.469922000000000E+02      7.053223000000000E-01     -7.476171000000000E+01
4838000000.000000      6.654358000000000E-01     -1.664609000000000E+02      3.766632000000000E-01     -3.633984000000000E+01      3.618774000000000E-01     -1.470937000000000E+02      7.088623000000000E-01     -7.472656000000000E+01
4839000000.000000      6.736145000000000E-01     -1.663359000000000E+02      3.776703000000000E-01     -3.679296000000000E+01      3.634796000000000E-01     -1.472812000000000E+02      7.121582000000000E-01     -7.458984000000000E+01
4840000000.000000      6.786499000000000E-01     -1.662969000000000E+02      3.789063000000000E-01     -3.752930000000000E+01      3.658142000000000E-01     -1.475156000000000E+02      7.162781000000000E-01     -7.469531000000000E+01
4841000000.000000      6.870728000000000E-01     -1.663750000000000E+02      3.810730000000000E-01     -3.820703000000000E+01      3.679199000000000E-01     -1.476797000000000E+02      7.211914000000000E-01     -7.463672000000000E+01
4842000000.000000      6.933594000000000E-01     -1.662109000000000E+02      3.822174000000000E-01     -3.855273000000000E+01      3.685913000000000E-01     -1.479219000000000E+02      7.249756000000000E-01     -7.466015000000000E+01
4843000000.000000      7.006836000000000E-01     -1.662734000000000E+02      3.825378000000000E-01     -3.936132000000000E+01      3.710175000000000E-01     -1.480937000000000E+02      7.291870000000000E-01     -7.455078000000000E+01
4844000000.000000      7.079163000000000E-01     -1.661484000000000E+02      3.844604000000000E-01     -3.982422000000000E+01      3.722076000000000E-01     -1.482344000000000E+02      7.329102000000000E-01     -7.462891000000000E+01
4845000000.000000      7.145691000000000E-01     -1.661016000000000E+02      3.854675000000000E-01     -4.027344000000000E+01      3.750916000000000E-01     -1.485078000000000E+02      7.373047000000000E-01     -7.454296000000000E+01
4846000000.000000      7.217712000000000E-01     -1.660234000000000E+02      3.863831000000000E-01     -4.073632000000000E+01      3.771820000000000E-01     -1.486875000000000E+02      7.420349000000000E-01     -7.458202000000000E+01
4847000000.000000      7.295227000000000E-01     -1.660469000000000E+02      3.869476000000000E-01     -4.135742000000000E+01      3.786011000000000E-01     -1.488672000000000E+02      7.477417000000000E-01     -7.464844000000000E+01
4848000000.000000      7.367249000000000E-01     -1.660391000000000E+02      3.878021000000000E-01     -4.182617000000000E+01      3.797150000000000E-01     -1.489219000000000E+02      7.508850000000000E-01     -7.464453000000000E+01
4849000000.000000      7.431946000000000E-01     -1.662578000000000E+02      3.892212000000000E-01     -4.263281000000000E+01      3.821411000000000E-01     -1.491797000000000E+02      7.556152000000000E-01     -7.454296000000000E+01
4850000000.000000      7.504578000000000E-01     -1.659765000000000E+02      3.888245000000000E-01     -4.294726000000000E+01      3.826599000000000E-01     -1.493750000000000E+02      7.598877000000000E-01     -7.454687000000000E+01
4851000000.000000      7.581482000000000E-01     -1.660078000000000E+02      3.897858000000000E-01     -4.358398000000000E+01      3.843384000000000E-01     -1.495391000000000E+02      7.650757000000000E-01     -7.465234000000000E+01
4852000000.000000      7.646484000000000E-01     -1.660156000000000E+02      3.900909000000000E-01     -4.404297000000000E+01      3.862152000000000E-01     -1.496250000000000E+02      7.692261000000000E-01     -7.466797000000000E+01
4853000000.000000      7.716370000000000E-01     -1.660156000000000E+02      3.892822000000000E-01     -4.458593000000000E+01      3.883514000000000E-01     -1.499375000000000E+02      7.749634000000000E-01     -7.481250000000000E+01
4854000000.000000      7.779846000000000E-01     -1.660547000000000E+02      3.903198000000000E-01     -4.527344000000000E+01      3.888245000000000E-01     -1.500547000000000E+02      7.785950000000000E-01     -7.477734000000000E+01
4855000000.000000      7.831116000000000E-01     -1.660703000000000E+02      3.893127000000000E-01     -4.560742000000000E+01      3.904572000000000E-01     -1.502266000000000E+02      7.831726000000000E-01     -7.473827000000000E+01
4856000000.000000      7.906494000000000E-01     -1.660078000000000E+02      3.901520000000000E-01     -4.607031000000000E+01      3.909760000000000E-01     -1.504297000000000E+02      7.888489000000000E-01     -7.487499000000000E+01
4857000000.000000      7.969971000000000E-01     -1.660547000000000E+02      3.895569000000000E-01     -4.657812000000000E+01      3.923340000000000E-01     -1.505391000000000E+02      7.945862000000000E-01     -7.489452000000000E+01
4858000000.000000      8.003845000000000E-01     -1.660547000000000E+02      3.898621000000000E-01     -4.712695000000000E+01      3.932343000000000E-01     -1.508125000000000E+02      7.971191000000000E-01     -7.497265000000000E+01
4859000000.000000      8.078003000000000E-01     -1.661250000000000E+02      3.888855000000000E-01     -4.754883000000000E+01      3.947296000000000E-01     -1.510078000000000E+02      8.049011000000000E-01     -7.508594000000000E+01
4860000000.000000      8.154297000000000E-01     -1.661094000000000E+02      3.885651000000000E-01     -4.796484000000000E+01      3.954773000000000E-01     -1.510781000000000E+02      8.072815000000000E-01     -7.502734000000000E+01
4861000000.000000      8.212585000000000E-01     -1.660156000000000E+02      3.881836000000000E-01     -4.851171000000000E+01      3.973236000000000E-01     -1.513281000000000E+02      8.128662000000000E-01     -7.502343000000000E+01
4862000000.000000      8.236694000000000E-01     -1.659765000000000E+02      3.874207000000000E-01     -4.890038000000000E+01      3.983002000000000E-01     -1.514375000000000E+02      8.192749000000000E-01     -7.506249000000000E+01
4863000000.000000      8.320313000000000E-01     -1.660234000000000E+02      3.859100000000000E-01     -4.949413000000000E+01      3.999176000000000E-01     -1.514766000000000E+02      8.235779000000000E-01     -7.517968000000000E+01
4864000000.000000      8.354187000000000E-01     -1.661797000000000E+02      3.856812000000000E-01     -4.984961000000000E+01      3.995972000000000E-01     -1.516875000000000E+02      8.272095000000000E-01     -7.532031000000000E+01
4865000000.000000      8.399353000000000E-01     -1.661562000000000E+02      3.847046000000000E-01     -5.014257000000000E+01      4.010925000000000E-01     -1.519609000000000E+02      8.327026000000000E-01     -7.528906000000000E+01
4866000000.000000      8.449402000000000E-01     -1.661016000000000E+02      3.832855000000000E-01     -5.058984000000000E+01      4.013062000000000E-01     -1.521641000000000E+02      8.369446000000000E-01     -7.535546000000000E+01
4867000000.000000      8.492737000000000E-01     -1.659765000000000E+02      3.828278000000000E-01     -5.101367000000000E+01      4.024048000000000E-01     -1.521875000000000E+02      8.431396000000000E-01     -7.550390000000000E+01
4868000000.000000      8.543701000000000E-01     -1.662031000000000E+02      3.820801000000000E-01     -5.147461000000000E+01      4.031372000000000E-01     -1.524141000000000E+02      8.465881000000000E-01     -7.557031000000000E+01
4869000000.000000      8.569946000000000E-01     -1.660156000000000E+02      3.802338000000000E-01     -5.185547000000000E+01      4.039307000000000E-01     -1.526328000000000E+02      8.527832000000000E-01     -7.577734000000000E+01
4870000000.000000      8.624573000000000E-01     -1.661406000000000E+02      3.795624000000000E-01     -5.186328000000000E+01      4.045868000000000E-01     -1.528125000000000E+02      8.580627000000000E-01     -7.580468000000000E+01
4871000000.000000      8.663330000000000E-01     -1.661094000000000E+02      3.778381000000000E-01     -5.240429000000000E+01      4.044342000000000E-01     -1.529844000000000E+02      8.597412000000000E-01     -7.595312000000000E+01
4872000000.000000      8.712769000000000E-01     -1.659609000000000E+02      3.767853000000000E-01     -5.256249000000000E+01      4.052277000000000E-01     -1.532969000000000E+02      8.657532000000000E-01     -7.602344000000000E+01
4873000000.000000      8.726501000000000E-01     -1.660234000000000E+02      3.746490000000000E-01     -5.308398000000000E+01      4.054718000000000E-01     -1.532656000000000E+02      8.701782000000000E-01     -7.618359000000000E+01
4874000000.000000      8.757019000000000E-01     -1.659765000000000E+02      3.736267000000000E-01     -5.334570000000000E+01      4.068756000000000E-01     -1.533984000000000E+02      8.736877000000000E-01     -7.605078000000000E+01
4875000000.000000      8.809509000000000E-01     -1.660234000000000E+02      3.727722000000000E-01     -5.364648000000000E+01      4.067688000000000E-01     -1.537891000000000E+02      8.784790000000000E-01     -7.630859000000000E+01
4876000000.000000      8.804932000000000E-01     -1.659219000000000E+02      3.709412000000000E-01     -5.397070000000000E+01      4.063568000000000E-01     -1.537969000000000E+02      8.817444000000000E-01     -7.652734000000000E+01
4877000000.000000      8.839722000000000E-01     -1.659219000000000E+02      3.698883000000000E-01     -5.400585000000000E+01      4.072571000000000E-01     -1.540313000000000E+02      8.876038000000000E-01     -7.657421000000000E+01
4878000000.000000      8.879395000000000E-01     -1.657500000000000E+02      3.689575000000000E-01     -5.427539000000000E+01      4.073029000000000E-01     -1.541016000000000E+02      8.922424000000000E-01     -7.672656000000000E+01
4879000000.000000      8.894043000000000E-01     -1.658516000000000E+02      3.666840000000000E-01     -5.462500000000000E+01      4.071503000000000E-01     -1.543281000000000E+02      8.953247000000000E-01     -7.671484000000000E+01
4880000000.000000      8.913574000000000E-01     -1.657031000000000E+02      3.653259000000000E-01     -5.471093000000000E+01      4.080505000000000E-01     -1.543516000000000E+02      8.995361000000000E-01     -7.689062000000000E+01
4881000000.000000      8.950195000000000E-01     -1.655313000000000E+02      3.651733000000000E-01     -5.486914000000000E+01      4.083099000000000E-01     -1.546797000000000E+02      9.023438000000000E-01     -7.701562000000000E+01
4882000000.000000      8.937988000000000E-01     -1.655391000000000E+02      3.630371000000000E-01     -5.513281000000000E+01      4.076691000000000E-01     -1.546641000000000E+02      9.057617000000000E-01     -7.712500000000000E+01
