! Network Analyzer HP8722D
! Hewlett-Packard
! Data name: Linha & Wilkinson
! Saver's name: Rodrigo Anjos
! Comments: Teste da utilização de aquisição
continua pelo VNA HP8722D
! Time and date: 6/5/2025 14:14
!              Frequency                     S11                                                   S21                                                   S12                                                   S22
# HZ  S  MA R 50
4800000000.000000      4.972229000000000E-01     -1.682578000000000E+02      2.525787000000000E-01     -1.974707000000000E+01      2.490082000000000E-01     -1.410625000000000E+02      6.483459000000000E-01     -8.033203000000000E+01
4801000000.000000      4.984436000000000E-01     -1.683437000000000E+02      2.565765000000000E-01     -1.993652000000000E+01      2.527161000000000E-01     -1.410625000000000E+02      6.472168000000000E-01     -8.005468000000000E+01
4802000000.000000      5.001526000000000E-01     -1.684141000000000E+02      2.603760000000000E-01     -2.017285000000000E+01      2.564850000000000E-01     -1.410078000000000E+02      6.462402000000000E-01     -7.976171000000000E+01
4803000000.000000      5.015259000000000E-01     -1.685078000000000E+02      2.651672000000000E-01     -2.040722000000000E+01      2.598877000000000E-01     -1.411172000000000E+02      6.451111000000000E-01     -7.960546000000000E+01
4804000000.000000      5.035706000000000E-01     -1.684297000000000E+02      2.689514000000000E-01     -2.073730000000000E+01      2.636108000000000E-01     -1.412969000000000E+02      6.441345000000000E-01     -7.947656000000000E+01
4805000000.000000      5.060730000000000E-01     -1.685156000000000E+02      2.727509000000000E-01     -2.102051000000000E+01      2.671204000000000E-01     -1.413984000000000E+02      6.445007000000000E-01     -7.916406000000000E+01
4806000000.000000      5.079956000000000E-01     -1.684219000000000E+02      2.769775000000000E-01     -2.120410000000000E+01      2.699432000000000E-01     -1.412969000000000E+02      6.436462000000000E-01     -7.910546000000000E+01
4807000000.000000      5.106201000000000E-01     -1.685000000000000E+02      2.812347000000000E-01     -2.167383000000000E+01      2.745056000000000E-01     -1.416328000000000E+02      6.438904000000000E-01     -7.882421000000000E+01
4808000000.000000      5.132751000000000E-01     -1.684453000000000E+02      2.855225000000000E-01     -2.189258000000000E+01      2.778778000000000E-01     -1.416953000000000E+02      6.433716000000000E-01     -7.861718000000000E+01
4809000000.000000      5.156555000000000E-01     -1.684609000000000E+02      2.886200000000000E-01     -2.241015000000000E+01      2.820740000000000E-01     -1.418906000000000E+02      6.435547000000000E-01     -7.841015000000000E+01
4810000000.000000      5.189514000000000E-01     -1.684766000000000E+02      2.929688000000000E-01     -2.262695000000000E+01      2.848663000000000E-01     -1.419297000000000E+02      6.445313000000000E-01     -7.831249000000000E+01
4811000000.000000      5.223694000000000E-01     -1.684766000000000E+02      2.966766000000000E-01     -2.329980000000000E+01      2.893219000000000E-01     -1.419766000000000E+02      6.438904000000000E-01     -7.792187000000000E+01
4812000000.000000      5.260620000000000E-01     -1.683672000000000E+02      3.006287000000000E-01     -2.347949000000000E+01      2.923584000000000E-01     -1.421250000000000E+02      6.443176000000000E-01     -7.786327000000000E+01
4813000000.000000      5.281677000000000E-01     -1.683125000000000E+02      3.039856000000000E-01     -2.386133000000000E+01      2.953949000000000E-01     -1.422422000000000E+02      6.445618000000000E-01     -7.761328000000000E+01
4814000000.000000      5.310364000000000E-01     -1.683359000000000E+02      3.079224000000000E-01     -2.427637000000000E+01      2.983246000000000E-01     -1.425625000000000E+02      6.461792000000000E-01     -7.744141000000000E+01
4815000000.000000      5.349121000000000E-01     -1.681953000000000E+02      3.115997000000000E-01     -2.475293000000000E+01      3.017120000000000E-01     -1.426406000000000E+02      6.461182000000000E-01     -7.725390000000000E+01
4816000000.000000      5.396423000000000E-01     -1.681094000000000E+02      3.154144000000000E-01     -2.503418000000000E+01      3.056335000000000E-01     -1.427813000000000E+02      6.485901000000000E-01     -7.703125000000000E+01
4817000000.000000      5.441589000000000E-01     -1.679844000000000E+02      3.188477000000000E-01     -2.554199000000000E+01      3.079529000000000E-01     -1.429922000000000E+02      6.491089000000000E-01     -7.695703000000000E+01
4818000000.000000      5.474548000000000E-01     -1.680312000000000E+02      3.210602000000000E-01     -2.602441000000000E+01      3.108063000000000E-01     -1.429922000000000E+02      6.501160000000000E-01     -7.677343000000000E+01
4819000000.000000      5.529480000000000E-01     -1.679531000000000E+02      3.254547000000000E-01     -2.652734000000000E+01      3.137665000000000E-01     -1.433281000000000E+02      6.531677000000000E-01     -7.661718000000000E+01
4820000000.000000      5.550842000000000E-01     -1.678906000000000E+02      3.290863000000000E-01     -2.682519000000000E+01      3.170624000000000E-01     -1.434297000000000E+02      6.544495000000000E-01     -7.645312000000000E+01
4821000000.000000      5.615540000000000E-01     -1.677656000000000E+02      3.327637000000000E-01     -2.736328000000000E+01      3.202209000000000E-01     -1.437344000000000E+02      6.555786000000000E-01     -7.629296000000000E+01
4822000000.000000      5.682373000000000E-01     -1.677187000000000E+02      3.354340000000000E-01     -2.788281000000000E+01      3.218231000000000E-01     -1.440000000000000E+02      6.587524000000000E-01     -7.610937000000000E+01
4823000000.000000      5.708923000000000E-01     -1.675781000000000E+02      3.380127000000000E-01     -2.827539000000000E+01      3.247833000000000E-01     -1.439062000000000E+02      6.609497000000000E-01     -7.596874000000000E+01
4824000000.000000      5.782776000000000E-01     -1.676016000000000E+02      3.418427000000000E-01     -2.893164000000000E+01      3.287506000000000E-01     -1.442031000000000E+02      6.629944000000000E-01     -7.581640000000000E+01
4825000000.000000      5.822144000000000E-01     -1.674375000000000E+02      3.439484000000000E-01     -2.925000000000000E+01      3.324280000000000E-01     -1.443203000000000E+02      6.657410000000000E-01     -7.564843000000000E+01
4826000000.000000      5.883484000000000E-01     -1.673125000000000E+02      3.479004000000000E-01     -2.983496000000000E+01      3.333435000000000E-01     -1.447891000000000E+02      6.684875000000000E-01     -7.558203000000000E+01
4827000000.000000      5.947876000000000E-01     -1.671719000000000E+02      3.512268000000000E-01     -3.026464000000000E+01      3.356934000000000E-01     -1.447422000000000E+02      6.713562000000000E-01     -7.540234000000000E+01
4828000000.000000      6.014099000000000E-01     -1.671875000000000E+02      3.529663000000000E-01     -3.083496000000000E+01      3.385010000000000E-01     -1.449922000000000E+02      6.746216000000000E-01     -7.538280000000000E+01
4829000000.000000      6.044922000000000E-01     -1.670312000000000E+02      3.560333000000000E-01     -3.128808000000000E+01      3.413239000000000E-01     -1.451953000000000E+02      6.774292000000000E-01     -7.521093000000000E+01
4830000000.000000      6.118469000000000E-01     -1.669453000000000E+02      3.580017000000000E-01     -3.207226000000000E+01      3.438110000000000E-01     -1.452891000000000E+02      6.790161000000000E-01     -7.528125000000000E+01
4831000000.000000      6.169128000000000E-01     -1.668750000000000E+02      3.613892000000000E-01     -3.248828000000000E+01      3.461456000000000E-01     -1.455156000000000E+02      6.830750000000000E-01     -7.517187000000000E+01
4832000000.000000      6.252747000000000E-01     -1.667891000000000E+02      3.628845000000000E-01     -3.289844000000000E+01      3.480225000000000E-01     -1.458594000000000E+02      6.856995000000000E-01     -7.501562000000000E+01
4833000000.000000      6.313782000000000E-01     -1.668281000000000E+02      3.651733000000000E-01     -3.353125000000000E+01      3.508148000000000E-01     -1.461250000000000E+02      6.889343000000000E-01     -7.500781000000000E+01
4834000000.000000      6.381531000000000E-01     -1.666797000000000E+02      3.676758000000000E-01     -3.398633000000000E+01      3.532257000000000E-01     -1.462500000000000E+02      6.934814000000000E-01     -7.496875000000000E+01
4835000000.000000      6.440430000000000E-01     -1.666406000000000E+02      3.705139000000000E-01     -3.465234000000000E+01      3.549805000000000E-01     -1.463750000000000E+02      6.965027000000000E-01     -7.490624000000000E+01
4836000000.000000      6.524963000000000E-01     -1.664531000000000E+02      3.723450000000000E-01     -3.519336000000000E+01      3.575287000000000E-01     -1.465703000000000E+02      7.001038000000000E-01     -7.481640000000000E+01
4837000000.000000      6.588440000000000E-01     -1.663594000000000E+02      3.735199000000000E-01     -3.596289000000000E+01      3.596497000000000E-01     -1.467813000000000E+02      7.033081000000000E-01     -7.477734000000000E+01
4838000000.000000      6.656189000000000E-01     -1.664687000000000E+02      3.764648000000000E-01     -3.622070000000000E+01      3.620605000000000E-01     -1.469766000000000E+02      7.080383000000000E-01     -7.466406000000000E+01
4839000000.000000      6.731567000000000E-01     -1.662266000000000E+02      3.770142000000000E-01     -3.677734000000000E+01      3.638153000000000E-01     -1.471562000000000E+02      7.124023000000000E-01     -7.462891000000000E+01
4840000000.000000      6.784058000000000E-01     -1.662891000000000E+02      3.783112000000000E-01     -3.732617000000000E+01      3.657227000000000E-01     -1.474453000000000E+02      7.157898000000000E-01     -7.460155000000000E+01
4841000000.000000      6.863098000000000E-01     -1.663516000000000E+02      3.806915000000000E-01     -3.800586000000000E+01      3.681946000000000E-01     -1.475234000000000E+02      7.204285000000000E-01     -7.459765000000000E+01
4842000000.000000      6.939087000000000E-01     -1.661719000000000E+02      3.824005000000000E-01     -3.842187000000000E+01      3.691864000000000E-01     -1.477890000000000E+02      7.245483000000000E-01     -7.460546000000000E+01
4843000000.000000      6.996155000000000E-01     -1.662656000000000E+02      3.835754000000000E-01     -3.921875000000000E+01      3.711395000000000E-01     -1.479609000000000E+02      7.284546000000000E-01     -7.456249000000000E+01
4844000000.000000      7.070923000000000E-01     -1.661016000000000E+02      3.840942000000000E-01     -3.968554000000000E+01      3.723907000000000E-01     -1.480703000000000E+02      7.322998000000000E-01     -7.463672000000000E+01
4845000000.000000      7.141113000000000E-01     -1.660781000000000E+02      3.840179000000000E-01     -4.035937000000000E+01      3.746948000000000E-01     -1.483672000000000E+02      7.360840000000000E-01     -7.452343000000000E+01
4846000000.000000      7.207336000000000E-01     -1.659844000000000E+02      3.863831000000000E-01     -4.060742000000000E+01      3.768768000000000E-01     -1.485000000000000E+02      7.418518000000000E-01     -7.455859000000000E+01
4847000000.000000      7.292175000000000E-01     -1.660312000000000E+02      3.872528000000000E-01     -4.120117000000000E+01      3.785400000000000E-01     -1.488281000000000E+02      7.457886000000000E-01     -7.458202000000000E+01
4848000000.000000      7.364502000000000E-01     -1.659531000000000E+02      3.878326000000000E-01     -4.170703000000000E+01      3.796692000000000E-01     -1.488281000000000E+02      7.492065000000000E-01     -7.462500000000000E+01
4849000000.000000      7.429199000000000E-01     -1.662344000000000E+02      3.884888000000000E-01     -4.242773000000000E+01      3.818970000000000E-01     -1.491797000000000E+02      7.547302000000000E-01     -7.453125000000000E+01
4850000000.000000      7.491455000000000E-01     -1.660078000000000E+02      3.889618000000000E-01     -4.280078000000000E+01      3.836517000000000E-01     -1.491797000000000E+02      7.591248000000000E-01     -7.449609000000000E+01
4851000000.000000      7.565918000000000E-01     -1.659609000000000E+02      3.903198000000000E-01     -4.342578000000000E+01      3.845520000000000E-01     -1.494844000000000E+02      7.648010000000000E-01     -7.462109000000000E+01
4852000000.000000      7.643127000000000E-01     -1.660078000000000E+02      3.901215000000000E-01     -4.395898000000000E+01      3.867950000000000E-01     -1.494844000000000E+02      7.696838000000000E-01     -7.460155000000000E+01
4853000000.000000      7.708435000000000E-01     -1.659765000000000E+02      3.888245000000000E-01     -4.437304000000000E+01      3.880157000000000E-01     -1.498047000000000E+02      7.733459000000000E-01     -7.475780000000000E+01
4854000000.000000      7.778625000000000E-01     -1.659062000000000E+02      3.909607000000000E-01     -4.518164000000000E+01      3.890381000000000E-01     -1.499922000000000E+02      7.792053000000000E-01     -7.471484000000000E+01
4855000000.000000      7.819214000000000E-01     -1.659922000000000E+02      3.892365000000000E-01     -4.555078000000000E+01      3.901978000000000E-01     -1.499922000000000E+02      7.831116000000000E-01     -7.473827000000000E+01
4856000000.000000      7.903442000000000E-01     -1.659219000000000E+02      3.904114000000000E-01     -4.600390000000000E+01      3.911285000000000E-01     -1.502578000000000E+02      7.881775000000000E-01     -7.473827000000000E+01
4857000000.000000      7.966919000000000E-01     -1.660312000000000E+02      3.899384000000000E-01     -4.646093000000000E+01      3.927460000000000E-01     -1.504141000000000E+02      7.933044000000000E-01     -7.483203000000000E+01
4858000000.000000      7.999268000000000E-01     -1.660078000000000E+02      3.893280000000000E-01     -4.697851000000000E+01      3.934631000000000E-01     -1.506484000000000E+02      7.980042000000000E-01     -7.494922000000000E+01
4859000000.000000      8.088379000000000E-01     -1.658984000000000E+02      3.896027000000000E-01     -4.734179000000000E+01      3.948975000000000E-01     -1.509531000000000E+02      8.044128000000000E-01     -7.504687000000000E+01
4860000000.000000      8.153381000000000E-01     -1.660078000000000E+02      3.889008000000000E-01     -4.786914000000000E+01      3.960419000000000E-01     -1.509687000000000E+02      8.076172000000000E-01     -7.492578000000000E+01
4861000000.000000      8.193054000000000E-01     -1.659453000000000E+02      3.881226000000000E-01     -4.862109000000000E+01      3.969421000000000E-01     -1.511172000000000E+02      8.136597000000000E-01     -7.514453000000000E+01
4862000000.000000      8.250732000000000E-01     -1.659844000000000E+02      3.882904000000000E-01     -4.892383000000000E+01      3.986206000000000E-01     -1.512891000000000E+02      8.178101000000000E-01     -7.505859000000000E+01
4863000000.000000      8.281555000000000E-01     -1.659375000000000E+02      3.863373000000000E-01     -4.941211000000000E+01      3.997192000000000E-01     -1.513828000000000E+02      8.238220000000000E-01     -7.517187000000000E+01
4864000000.000000      8.338928000000000E-01     -1.659062000000000E+02      3.869934000000000E-01     -4.964648000000000E+01      3.996277000000000E-01     -1.515703000000000E+02      8.272705000000000E-01     -7.533203000000000E+01
4865000000.000000      8.402100000000000E-01     -1.660000000000000E+02      3.842468000000000E-01     -5.012695000000000E+01      4.011230000000000E-01     -1.518281000000000E+02      8.321533000000000E-01     -7.527344000000000E+01
4866000000.000000      8.442078000000000E-01     -1.659688000000000E+02      3.836365000000000E-01     -5.061132000000000E+01      4.019318000000000E-01     -1.520234000000000E+02      8.373718000000000E-01     -7.540234000000000E+01
4867000000.000000      8.489075000000000E-01     -1.659844000000000E+02      3.836823000000000E-01     -5.097265000000000E+01      4.025269000000000E-01     -1.521328000000000E+02      8.431396000000000E-01     -7.540625000000000E+01
4868000000.000000      8.526306000000000E-01     -1.659922000000000E+02      3.824921000000000E-01     -5.130859000000000E+01      4.038696000000000E-01     -1.522734000000000E+02      8.469543000000000E-01     -7.557812000000000E+01
4869000000.000000      8.570557000000000E-01     -1.661250000000000E+02      3.802795000000000E-01     -5.172070000000000E+01      4.042053000000000E-01     -1.525312000000000E+02      8.521118000000000E-01     -7.575000000000000E+01
4870000000.000000      8.607788000000000E-01     -1.659688000000000E+02      3.784180000000000E-01     -5.174999000000000E+01      4.049835000000000E-01     -1.527187000000000E+02      8.572388000000000E-01     -7.573828000000000E+01
4871000000.000000      8.654480000000000E-01     -1.659609000000000E+02      3.785095000000000E-01     -5.246484000000000E+01      4.046173000000000E-01     -1.528984000000000E+02      8.597412000000000E-01     -7.590234000000000E+01
4872000000.000000      8.685913000000000E-01     -1.660078000000000E+02      3.760986000000000E-01     -5.256836000000000E+01      4.054718000000000E-01     -1.531641000000000E+02      8.670654000000000E-01     -7.600390000000000E+01
4873000000.000000      8.714600000000000E-01     -1.658516000000000E+02      3.757324000000000E-01     -5.290234000000000E+01      4.053650000000000E-01     -1.531875000000000E+02      8.686218000000000E-01     -7.603516000000000E+01
4874000000.000000      8.750916000000000E-01     -1.658594000000000E+02      3.746643000000000E-01     -5.339453000000000E+01      4.070129000000000E-01     -1.532969000000000E+02      8.739014000000000E-01     -7.603125000000000E+01
4875000000.000000      8.795166000000000E-01     -1.658906000000000E+02      3.728180000000000E-01     -5.341601000000000E+01      4.070587000000000E-01     -1.536406000000000E+02      8.780212000000000E-01     -7.628906000000000E+01
4876000000.000000      8.792114000000000E-01     -1.659141000000000E+02      3.708038000000000E-01     -5.367188000000000E+01      4.063110000000000E-01     -1.537188000000000E+02      8.830872000000000E-01     -7.646093000000000E+01
4877000000.000000      8.842773000000000E-01     -1.657734000000000E+02      3.699036000000000E-01     -5.400391000000000E+01      4.078217000000000E-01     -1.539219000000000E+02      8.874207000000000E-01     -7.660156000000000E+01
4878000000.000000      8.858948000000000E-01     -1.657344000000000E+02      3.693848000000000E-01     -5.430859000000000E+01      4.077911000000000E-01     -1.540000000000000E+02      8.916931000000000E-01     -7.669531000000000E+01
4879000000.000000      8.893127000000000E-01     -1.656875000000000E+02      3.663177000000000E-01     -5.457226000000000E+01      4.072723000000000E-01     -1.542109000000000E+02      8.943481000000000E-01     -7.673046000000000E+01
4880000000.000000      8.908081000000000E-01     -1.656484000000000E+02      3.654785000000000E-01     -5.483593000000000E+01      4.079590000000000E-01     -1.542500000000000E+02      8.994141000000000E-01     -7.675390000000000E+01
4881000000.000000      8.948364000000000E-01     -1.655313000000000E+02      3.647461000000000E-01     -5.487499000000000E+01      4.082794000000000E-01     -1.545391000000000E+02      9.027710000000000E-01     -7.701953000000000E+01
4882000000.000000      8.952637000000000E-01     -1.655234000000000E+02      3.627472000000000E-01     -5.503124000000000E+01      4.082642000000000E-01     -1.545938000000000E+02      9.061279000000000E-01     -7.710938000000000E+01
