! Network Analyzer HP8722D
! Hewlett-Packard
! Data name: Linha & Wilkinson
! Saver's name: Rodrigo Anjos
! Comments: Teste da utilização de aquisição
continua pelo VNA HP8722D
! Time and date: 6/5/2025 13:34
!              Frequency                     S11                                                   S21                                                   S12                                                   S22
# HZ  S  MA R 50
4800000000.000000      9.059753000000000E-01      1.156875000000000E+02      3.208618000000000E-01     -1.705703000000000E+02      2.571259000000000E-01     -8.613672000000000E+01      9.851990000000000E-01     -4.755859000000000E+01
4801000000.000000      9.042053000000000E-01      1.159961000000000E+02      3.200378000000000E-01     -1.703984000000000E+02      2.565460000000000E-01     -8.612890000000000E+01      9.813843000000000E-01     -4.769140000000000E+01
4802000000.000000      9.025574000000000E-01      1.162305000000000E+02      3.197937000000000E-01     -1.702344000000000E+02      2.573853000000000E-01     -8.591406000000000E+01      9.756165000000000E-01     -4.757617000000000E+01
4803000000.000000      8.998108000000000E-01      1.165664000000000E+02      3.205872000000000E-01     -1.701641000000000E+02      2.562866000000000E-01     -8.576172000000000E+01      9.702454000000000E-01     -4.772461000000000E+01
4804000000.000000      8.996887000000000E-01      1.167695000000000E+02      3.210907000000000E-01     -1.702266000000000E+02      2.575836000000000E-01     -8.569139000000000E+01      9.653625000000000E-01     -4.780469000000000E+01
4805000000.000000      8.994446000000000E-01      1.169062000000000E+02      3.211670000000000E-01     -1.701719000000000E+02      2.567291000000000E-01     -8.540234000000000E+01      9.595337000000000E-01     -4.786914000000000E+01
4806000000.000000      8.950195000000000E-01      1.172890000000000E+02      3.213043000000000E-01     -1.702578000000000E+02      2.556458000000000E-01     -8.511328000000000E+01      9.535217000000000E-01     -4.804101000000000E+01
4807000000.000000      8.960876000000000E-01      1.175156000000000E+02      3.223114000000000E-01     -1.702734000000000E+02      2.568359000000000E-01     -8.501953000000000E+01      9.472656000000000E-01     -4.794726000000000E+01
4808000000.000000      8.925781000000000E-01      1.177969000000000E+02      3.235016000000000E-01     -1.700781000000000E+02      2.568359000000000E-01     -8.481249000000000E+01      9.409485000000000E-01     -4.801171000000000E+01
4809000000.000000      8.893433000000000E-01      1.180000000000000E+02      3.234863000000000E-01     -1.703125000000000E+02      2.568665000000000E-01     -8.461718000000000E+01      9.367676000000000E-01     -4.815820000000000E+01
4810000000.000000      8.885498000000000E-01      1.183789000000000E+02      3.237000000000000E-01     -1.701172000000000E+02      2.567749000000000E-01     -8.435547000000000E+01      9.321899000000000E-01     -4.822460000000000E+01
4811000000.000000      8.840027000000000E-01      1.186094000000000E+02      3.247986000000000E-01     -1.701953000000000E+02      2.577820000000000E-01     -8.410936000000000E+01      9.259644000000000E-01     -4.809179000000000E+01
4812000000.000000      8.841248000000000E-01      1.188867000000000E+02      3.245087000000000E-01     -1.702734000000000E+02      2.569427000000000E-01     -8.381639000000000E+01      9.201355000000000E-01     -4.825195000000000E+01
4813000000.000000      8.794556000000000E-01      1.190078000000000E+02      3.252106000000000E-01     -1.700938000000000E+02      2.567291000000000E-01     -8.359375000000000E+01      9.162598000000000E-01     -4.828906000000000E+01
4814000000.000000      8.740845000000000E-01      1.191953000000000E+02      3.256683000000000E-01     -1.701641000000000E+02      2.567596000000000E-01     -8.331249000000000E+01      9.107666000000000E-01     -4.841601000000000E+01
4815000000.000000      8.735352000000000E-01      1.195156000000000E+02      3.265533000000000E-01     -1.702188000000000E+02      2.566528000000000E-01     -8.300390000000000E+01      9.046326000000000E-01     -4.841406000000000E+01
4816000000.000000      8.730774000000000E-01      1.198906000000000E+02      3.278046000000000E-01     -1.701719000000000E+02      2.571869000000000E-01     -8.275391000000000E+01      8.995056000000000E-01     -4.850780000000000E+01
4817000000.000000      8.681030000000000E-01      1.199922000000000E+02      3.280487000000000E-01     -1.704062000000000E+02      2.570038000000000E-01     -8.246874000000000E+01      8.938293000000000E-01     -4.856445000000000E+01
4818000000.000000      8.649292000000000E-01      1.201445000000000E+02      3.283997000000000E-01     -1.703906000000000E+02      2.568665000000000E-01     -8.212109000000000E+01      8.884888000000000E-01     -4.855273000000000E+01
4819000000.000000      8.635254000000000E-01      1.204023000000000E+02      3.287659000000000E-01     -1.703906000000000E+02      2.560730000000000E-01     -8.192968000000000E+01      8.830872000000000E-01     -4.881836000000000E+01
4820000000.000000      8.579102000000000E-01      1.206406000000000E+02      3.291168000000000E-01     -1.704219000000000E+02      2.568665000000000E-01     -8.150782000000000E+01      8.779602000000000E-01     -4.874609000000000E+01
4821000000.000000      8.569336000000000E-01      1.207617000000000E+02      3.310242000000000E-01     -1.705781000000000E+02      2.566986000000000E-01     -8.129297000000000E+01      8.726807000000000E-01     -4.880859000000000E+01
4822000000.000000      8.537598000000000E-01      1.207187000000000E+02      3.302612000000000E-01     -1.707969000000000E+02      2.557831000000000E-01     -8.104687000000000E+01      8.682251000000000E-01     -4.888476000000000E+01
4823000000.000000      8.479004000000000E-01      1.211641000000000E+02      3.314514000000000E-01     -1.708203000000000E+02      2.560120000000000E-01     -8.051561000000000E+01      8.620605000000000E-01     -4.895702000000000E+01
4824000000.000000      8.472290000000000E-01      1.211641000000000E+02      3.324738000000000E-01     -1.711172000000000E+02      2.561493000000000E-01     -8.032812000000000E+01      8.580627000000000E-01     -4.893359000000000E+01
4825000000.000000      8.402710000000000E-01      1.213789000000000E+02      3.324280000000000E-01     -1.709687000000000E+02      2.566528000000000E-01     -8.008984000000000E+01      8.530273000000000E-01     -4.903906000000000E+01
4826000000.000000      8.378906000000000E-01      1.216758000000000E+02      3.337402000000000E-01     -1.712578000000000E+02      2.558746000000000E-01     -7.979297000000000E+01      8.480835000000000E-01     -4.916016000000000E+01
4827000000.000000      8.352051000000000E-01      1.217500000000000E+02      3.341675000000000E-01     -1.713594000000000E+02      2.556610000000000E-01     -7.947266000000000E+01      8.428650000000000E-01     -4.921484000000000E+01
4828000000.000000      8.346252000000000E-01      1.219609000000000E+02      3.355560000000000E-01     -1.715781000000000E+02      2.554626000000000E-01     -7.913280000000000E+01      8.389893000000000E-01     -4.935156000000000E+01
4829000000.000000      8.255615000000000E-01      1.222070000000000E+02      3.344116000000000E-01     -1.717109000000000E+02      2.567596000000000E-01     -7.878515000000000E+01      8.355103000000000E-01     -4.931835000000000E+01
4830000000.000000      8.221741000000000E-01      1.221172000000000E+02      3.354797000000000E-01     -1.719219000000000E+02      2.559662000000000E-01     -7.832031000000000E+01      8.290405000000000E-01     -4.946094000000000E+01
4831000000.000000      8.167114000000000E-01      1.224492000000000E+02      3.361206000000000E-01     -1.720859000000000E+02      2.563629000000000E-01     -7.794531000000000E+01      8.265991000000000E-01     -4.953515000000000E+01
4832000000.000000      8.136902000000000E-01      1.223906000000000E+02      3.361053000000000E-01     -1.722188000000000E+02      2.564392000000000E-01     -7.762500000000000E+01      8.212280000000000E-01     -4.952734000000000E+01
4833000000.000000      8.110046000000000E-01      1.223125000000000E+02      3.366394000000000E-01     -1.724375000000000E+02      2.560883000000000E-01     -7.731640000000000E+01      8.162842000000000E-01     -4.967382000000000E+01
4834000000.000000      8.037415000000000E-01      1.224297000000000E+02      3.370819000000000E-01     -1.728281000000000E+02      2.565460000000000E-01     -7.698828000000000E+01      8.114319000000000E-01     -4.967773000000000E+01
4835000000.000000      8.015442000000000E-01      1.226680000000000E+02      3.374329000000000E-01     -1.729453000000000E+02      2.566376000000000E-01     -7.659765000000000E+01      8.085327000000000E-01     -4.977929000000000E+01
4836000000.000000      7.983093000000000E-01      1.225625000000000E+02      3.368530000000000E-01     -1.731641000000000E+02      2.569122000000000E-01     -7.628515000000000E+01      8.045349000000000E-01     -4.975976000000000E+01
4837000000.000000      7.911682000000000E-01      1.227148000000000E+02      3.372650000000000E-01     -1.735937000000000E+02      2.570343000000000E-01     -7.605469000000000E+01      8.007507000000000E-01     -4.975195000000000E+01
4838000000.000000      7.860413000000000E-01      1.225859000000000E+02      3.375092000000000E-01     -1.737109000000000E+02      2.568359000000000E-01     -7.552734000000000E+01      7.964783000000000E-01     -4.983007000000000E+01
4839000000.000000      7.807007000000000E-01      1.229414000000000E+02      3.372650000000000E-01     -1.736719000000000E+02      2.572632000000000E-01     -7.527734000000000E+01      7.924194000000000E-01     -5.002539000000000E+01
4840000000.000000      7.764587000000000E-01      1.227773000000000E+02      3.376312000000000E-01     -1.738828000000000E+02      2.577820000000000E-01     -7.493750000000000E+01      7.883911000000000E-01     -5.006836000000000E+01
4841000000.000000      7.695618000000000E-01      1.228086000000000E+02      3.376465000000000E-01     -1.743672000000000E+02      2.579956000000000E-01     -7.461328000000000E+01      7.867737000000000E-01     -5.019336000000000E+01
4842000000.000000      7.641907000000000E-01      1.228164000000000E+02      3.371887000000000E-01     -1.745859000000000E+02      2.577057000000000E-01     -7.429688000000000E+01      7.837830000000000E-01     -5.017968000000000E+01
4843000000.000000      7.594299000000000E-01      1.225039000000000E+02      3.373260000000000E-01     -1.748672000000000E+02      2.579956000000000E-01     -7.396484000000000E+01      7.790222000000000E-01     -5.022265000000000E+01
4844000000.000000      7.546387000000000E-01      1.227187000000000E+02      3.368225000000000E-01     -1.749609000000000E+02      2.577972000000000E-01     -7.353516000000000E+01      7.756348000000000E-01     -5.028515000000000E+01
4845000000.000000      7.468262000000000E-01      1.226953000000000E+02      3.363647000000000E-01     -1.752031000000000E+02      2.586060000000000E-01     -7.335938000000000E+01      7.721558000000000E-01     -5.039063000000000E+01
4846000000.000000      7.419128000000000E-01      1.226367000000000E+02      3.367615000000000E-01     -1.754609000000000E+02      2.596130000000000E-01     -7.287109000000000E+01      7.687073000000000E-01     -5.042773000000000E+01
4847000000.000000      7.387085000000000E-01      1.225469000000000E+02      3.355408000000000E-01     -1.757656000000000E+02      2.595825000000000E-01     -7.256640000000000E+01      7.667236000000000E-01     -5.057812000000000E+01
4848000000.000000      7.320862000000000E-01      1.223984000000000E+02      3.349762000000000E-01     -1.759844000000000E+02      2.595825000000000E-01     -7.230078000000000E+01      7.626038000000000E-01     -5.058007000000000E+01
4849000000.000000      7.246399000000000E-01      1.222070000000000E+02      3.351135000000000E-01     -1.763438000000000E+02      2.599945000000000E-01     -7.190624000000000E+01      7.593994000000000E-01     -5.054492000000000E+01
4850000000.000000      7.196960000000000E-01      1.221367000000000E+02      3.337402000000000E-01     -1.764531000000000E+02      2.602539000000000E-01     -7.157421000000000E+01      7.562866000000000E-01     -5.064062000000000E+01
4851000000.000000      7.141113000000000E-01      1.220625000000000E+02      3.338318000000000E-01     -1.767266000000000E+02      2.602539000000000E-01     -7.130077000000000E+01      7.542419000000000E-01     -5.075000000000000E+01
4852000000.000000      7.072449000000000E-01      1.219570000000000E+02      3.327332000000000E-01     -1.770703000000000E+02      2.607269000000000E-01     -7.103125000000000E+01      7.511292000000000E-01     -5.074219000000000E+01
4853000000.000000      7.033386000000000E-01      1.217226000000000E+02      3.313141000000000E-01     -1.772422000000000E+02      2.614594000000000E-01     -7.076172000000000E+01      7.481384000000000E-01     -5.097265000000000E+01
4854000000.000000      6.925354000000000E-01      1.214180000000000E+02      3.312836000000000E-01     -1.777109000000000E+02      2.614288000000000E-01     -7.050781000000000E+01      7.460022000000000E-01     -5.099218000000000E+01
4855000000.000000      6.899414000000000E-01      1.214648000000000E+02      3.305969000000000E-01     -1.775781000000000E+02      2.617645000000000E-01     -7.005077000000000E+01      7.417297000000000E-01     -5.090820000000000E+01
4856000000.000000      6.853027000000000E-01      1.211914000000000E+02      3.296204000000000E-01     -1.777969000000000E+02      2.622223000000000E-01     -6.982422000000000E+01      7.400818000000000E-01     -5.104687000000000E+01
4857000000.000000      6.781311000000000E-01      1.209492000000000E+02      3.290710000000000E-01     -1.781406000000000E+02      2.622070000000000E-01     -6.954296000000000E+01      7.368469000000000E-01     -5.111328000000000E+01
4858000000.000000      6.693726000000000E-01      1.207383000000000E+02      3.281097000000000E-01     -1.783594000000000E+02      2.623596000000000E-01     -6.939062000000000E+01      7.345581000000000E-01     -5.125977000000000E+01
4859000000.000000      6.670227000000000E-01      1.204961000000000E+02      3.273621000000000E-01     -1.786016000000000E+02      2.632446000000000E-01     -6.918750000000000E+01      7.334900000000000E-01     -5.126367000000000E+01
4860000000.000000      6.594543000000000E-01      1.202773000000000E+02      3.260193000000000E-01     -1.788594000000000E+02      2.634277000000000E-01     -6.888281000000000E+01      7.300720000000000E-01     -5.109179000000000E+01
4861000000.000000      6.525574000000000E-01      1.200117000000000E+02      3.248138000000000E-01     -1.790000000000000E+02      2.640991000000000E-01     -6.860937000000000E+01      7.272034000000000E-01     -5.134570000000000E+01
4862000000.000000      6.466370000000000E-01      1.197500000000000E+02      3.240356000000000E-01     -1.791797000000000E+02      2.646790000000000E-01     -6.832031000000000E+01      7.264099000000000E-01     -5.136132000000000E+01
4863000000.000000      6.389160000000000E-01      1.193594000000000E+02      3.224487000000000E-01     -1.794688000000000E+02      2.647247000000000E-01     -6.817187000000000E+01      7.245483000000000E-01     -5.137695000000000E+01
4864000000.000000      6.326904000000000E-01      1.189297000000000E+02      3.217010000000000E-01     -1.795547000000000E+02      2.649536000000000E-01     -6.792578000000000E+01      7.214050000000000E-01     -5.151367000000000E+01
4865000000.000000      6.279602000000000E-01      1.185820000000000E+02      3.201752000000000E-01     -1.797969000000000E+02      2.657471000000000E-01     -6.787109000000000E+01      7.196655000000000E-01     -5.141602000000000E+01
4866000000.000000      6.201782000000000E-01      1.182969000000000E+02      3.189545000000000E-01     -1.798516000000000E+02      2.656250000000000E-01     -6.760156000000000E+01      7.180786000000000E-01     -5.149414000000000E+01
4867000000.000000      6.150513000000000E-01      1.179844000000000E+02      3.180542000000000E-01      1.799062000000000E+02      2.658081000000000E-01     -6.730859000000000E+01      7.160645000000000E-01     -5.150976000000000E+01
4868000000.000000      6.103821000000000E-01      1.175547000000000E+02      3.170166000000000E-01      1.797031000000000E+02      2.664795000000000E-01     -6.715234000000000E+01      7.115173000000000E-01     -5.157421000000000E+01
4869000000.000000      6.025391000000000E-01      1.170820000000000E+02      3.156738000000000E-01      1.795625000000000E+02      2.669678000000000E-01     -6.710938000000000E+01      7.116394000000000E-01     -5.175976000000000E+01
4870000000.000000      5.972900000000000E-01      1.167851000000000E+02      3.146057000000000E-01      1.794844000000000E+02      2.669983000000000E-01     -6.701172000000000E+01      7.087097000000000E-01     -5.157031000000000E+01
4871000000.000000      5.917358000000000E-01      1.163125000000000E+02      3.137207000000000E-01      1.791875000000000E+02      2.667542000000000E-01     -6.691406000000000E+01      7.072449000000000E-01     -5.178711000000000E+01
4872000000.000000      5.876770000000000E-01      1.158789000000000E+02      3.118439000000000E-01      1.792578000000000E+02      2.669525000000000E-01     -6.682422000000000E+01      7.047119000000000E-01     -5.174999000000000E+01
4873000000.000000      5.819702000000000E-01      1.155976000000000E+02      3.108521000000000E-01      1.789922000000000E+02      2.671204000000000E-01     -6.659765000000000E+01      7.015686000000000E-01     -5.183984000000000E+01
4874000000.000000      5.762329000000000E-01      1.150508000000000E+02      3.090363000000000E-01      1.788203000000000E+02      2.679443000000000E-01     -6.653515000000000E+01      6.996765000000000E-01     -5.168163000000000E+01
4875000000.000000      5.704651000000000E-01      1.143828000000000E+02      3.079987000000000E-01      1.786797000000000E+02      2.679138000000000E-01     -6.647655000000000E+01      6.983948000000000E-01     -5.177734000000000E+01
4876000000.000000      5.664063000000000E-01      1.142500000000000E+02      3.075562000000000E-01      1.785547000000000E+02      2.675629000000000E-01     -6.638672000000000E+01      6.972656000000000E-01     -5.187304000000000E+01
4877000000.000000      5.605164000000000E-01      1.133320000000000E+02      3.062439000000000E-01      1.786797000000000E+02      2.677612000000000E-01     -6.628124000000000E+01      6.948547000000000E-01     -5.176562000000000E+01
4878000000.000000      5.552979000000000E-01      1.130117000000000E+02      3.060455000000000E-01      1.785000000000000E+02      2.679443000000000E-01     -6.610937000000000E+01      6.923523000000000E-01     -5.188281000000000E+01
4879000000.000000      5.513000000000000E-01      1.126055000000000E+02      3.027496000000000E-01      1.785078000000000E+02      2.676239000000000E-01     -6.611718000000000E+01      6.911316000000000E-01     -5.181445000000000E+01
4880000000.000000      5.464172000000000E-01      1.120273000000000E+02      3.019409000000000E-01      1.782422000000000E+02      2.676697000000000E-01     -6.606640000000000E+01      6.884155000000000E-01     -5.180469000000000E+01
4881000000.000000      5.418396000000000E-01      1.115156000000000E+02      3.016968000000000E-01      1.783281000000000E+02      2.683411000000000E-01     -6.621484000000000E+01      6.867676000000000E-01     -5.177539000000000E+01
4882000000.000000      5.377502000000000E-01      1.110352000000000E+02      3.010864000000000E-01      1.780000000000000E+02      2.679138000000000E-01     -6.600390000000000E+01      6.838379000000000E-01     -5.183594000000000E+01
