! Network Analyzer HP8722D
! Hewlett-Packard
! Data name: Linha & Wilkinson
! Saver's name: Rodrigo Anjos
! Comments: Teste da utilização de aquisição
continua pelo VNA HP8722D
! Time and date: 6/5/2025 15:09
!              Frequency                     S11                                                   S21                                                   S12                                                   S22
# HZ  S  MA R 50
4800000000.000000      4.962006000000000E-01     -1.681328000000000E+02      2.518311000000000E-01     -1.956152000000000E+01      2.484894000000000E-01     -1.408828000000000E+02      6.493835000000000E-01     -8.027735000000000E+01
4801000000.000000      4.980469000000000E-01     -1.682656000000000E+02      2.554932000000000E-01     -1.994238000000000E+01      2.518005000000000E-01     -1.409297000000000E+02      6.463928000000000E-01     -8.005077000000000E+01
4802000000.000000      4.988098000000000E-01     -1.682891000000000E+02      2.595062000000000E-01     -1.996777000000000E+01      2.562408000000000E-01     -1.409219000000000E+02      6.450500000000000E-01     -7.980078000000000E+01
4803000000.000000      5.005798000000000E-01     -1.683594000000000E+02      2.642822000000000E-01     -2.031738000000000E+01      2.592010000000000E-01     -1.410625000000000E+02      6.453552000000000E-01     -7.969921000000000E+01
4804000000.000000      5.031738000000000E-01     -1.683750000000000E+02      2.678986000000000E-01     -2.047656000000000E+01      2.630768000000000E-01     -1.410703000000000E+02      6.431885000000000E-01     -7.943749000000000E+01
4805000000.000000      5.056763000000000E-01     -1.684375000000000E+02      2.722015000000000E-01     -2.087402000000000E+01      2.668915000000000E-01     -1.411172000000000E+02      6.437683000000000E-01     -7.930859000000000E+01
4806000000.000000      5.072021000000000E-01     -1.683750000000000E+02      2.762909000000000E-01     -2.108984000000000E+01      2.693634000000000E-01     -1.410859000000000E+02      6.437988000000000E-01     -7.916406000000000E+01
4807000000.000000      5.102539000000000E-01     -1.684297000000000E+02      2.802734000000000E-01     -2.141992000000000E+01      2.737122000000000E-01     -1.413281000000000E+02      6.430664000000000E-01     -7.889843000000000E+01
4808000000.000000      5.128174000000000E-01     -1.683359000000000E+02      2.849274000000000E-01     -2.160254000000000E+01      2.767334000000000E-01     -1.415000000000000E+02      6.429138000000000E-01     -7.866015000000000E+01
4809000000.000000      5.146484000000000E-01     -1.683594000000000E+02      2.881622000000000E-01     -2.230859000000000E+01      2.813873000000000E-01     -1.415937000000000E+02      6.430969000000000E-01     -7.853906000000000E+01
4810000000.000000      5.183105000000000E-01     -1.683906000000000E+02      2.921295000000000E-01     -2.243457000000000E+01      2.843323000000000E-01     -1.416328000000000E+02      6.441040000000000E-01     -7.822266000000000E+01
4811000000.000000      5.211792000000000E-01     -1.683594000000000E+02      2.963409000000000E-01     -2.301367000000000E+01      2.884979000000000E-01     -1.417109000000000E+02      6.441650000000000E-01     -7.787890000000000E+01
4812000000.000000      5.252075000000000E-01     -1.682734000000000E+02      2.999573000000000E-01     -2.330664000000000E+01      2.915802000000000E-01     -1.418906000000000E+02      6.441040000000000E-01     -7.781640000000000E+01
4813000000.000000      5.279541000000000E-01     -1.681797000000000E+02      3.033447000000000E-01     -2.367188000000000E+01      2.945099000000000E-01     -1.420391000000000E+02      6.448059000000000E-01     -7.757813000000000E+01
4814000000.000000      5.302429000000000E-01     -1.682969000000000E+02      3.074951000000000E-01     -2.404590000000000E+01      2.977753000000000E-01     -1.422812000000000E+02      6.461487000000000E-01     -7.750390000000000E+01
4815000000.000000      5.343323000000000E-01     -1.680938000000000E+02      3.106689000000000E-01     -2.444238000000000E+01      3.007355000000000E-01     -1.423672000000000E+02      6.468506000000000E-01     -7.716406000000000E+01
4816000000.000000      5.386353000000000E-01     -1.679609000000000E+02      3.148651000000000E-01     -2.482129000000000E+01      3.047943000000000E-01     -1.424922000000000E+02      6.477966000000000E-01     -7.698437000000000E+01
4817000000.000000      5.431213000000000E-01     -1.679375000000000E+02      3.180695000000000E-01     -2.529785000000000E+01      3.074951000000000E-01     -1.428594000000000E+02      6.499329000000000E-01     -7.688671000000000E+01
4818000000.000000      5.469055000000000E-01     -1.679375000000000E+02      3.206024000000000E-01     -2.581250000000000E+01      3.105011000000000E-01     -1.428359000000000E+02      6.499023000000000E-01     -7.666406000000000E+01
4819000000.000000      5.525513000000000E-01     -1.678125000000000E+02      3.248749000000000E-01     -2.616211000000000E+01      3.132782000000000E-01     -1.430625000000000E+02      6.523132000000000E-01     -7.665625000000000E+01
4820000000.000000      5.539246000000000E-01     -1.677187000000000E+02      3.278809000000000E-01     -2.660840000000000E+01      3.170166000000000E-01     -1.432266000000000E+02      6.542969000000000E-01     -7.642187000000000E+01
4821000000.000000      5.604858000000000E-01     -1.676953000000000E+02      3.311005000000000E-01     -2.712695000000000E+01      3.195648000000000E-01     -1.435156000000000E+02      6.554260000000000E-01     -7.632813000000000E+01
4822000000.000000      5.671387000000000E-01     -1.676328000000000E+02      3.352814000000000E-01     -2.755371000000000E+01      3.217468000000000E-01     -1.436797000000000E+02      6.579590000000000E-01     -7.614843000000000E+01
4823000000.000000      5.702820000000000E-01     -1.674922000000000E+02      3.379822000000000E-01     -2.806250000000000E+01      3.246765000000000E-01     -1.436641000000000E+02      6.598816000000000E-01     -7.604687000000000E+01
4824000000.000000      5.773621000000000E-01     -1.674609000000000E+02      3.408966000000000E-01     -2.875586000000000E+01      3.288574000000000E-01     -1.440547000000000E+02      6.625366000000000E-01     -7.584374000000000E+01
4825000000.000000      5.815430000000000E-01     -1.673750000000000E+02      3.444214000000000E-01     -2.899511000000000E+01      3.308716000000000E-01     -1.441328000000000E+02      6.650085000000000E-01     -7.572656000000000E+01
4826000000.000000      5.878296000000000E-01     -1.672266000000000E+02      3.468323000000000E-01     -2.969141000000000E+01      3.332367000000000E-01     -1.444141000000000E+02      6.676025000000000E-01     -7.559765000000000E+01
4827000000.000000      5.936584000000000E-01     -1.671094000000000E+02      3.495331000000000E-01     -2.995508000000000E+01      3.359070000000000E-01     -1.445937000000000E+02      6.698608000000000E-01     -7.535156000000000E+01
4828000000.000000      6.002197000000000E-01     -1.670156000000000E+02      3.535614000000000E-01     -3.062988000000000E+01      3.383942000000000E-01     -1.448437000000000E+02      6.731262000000000E-01     -7.535546000000000E+01
4829000000.000000      6.036682000000000E-01     -1.668906000000000E+02      3.552399000000000E-01     -3.103125000000000E+01      3.409576000000000E-01     -1.449766000000000E+02      6.765442000000000E-01     -7.519531000000000E+01
4830000000.000000      6.111450000000000E-01     -1.668359000000000E+02      3.580627000000000E-01     -3.171679000000000E+01      3.437042000000000E-01     -1.451719000000000E+02      6.791687000000000E-01     -7.516406000000000E+01
4831000000.000000      6.160278000000000E-01     -1.667500000000000E+02      3.599854000000000E-01     -3.219727000000000E+01      3.457489000000000E-01     -1.453125000000000E+02      6.830444000000000E-01     -7.518359000000000E+01
4832000000.000000      6.239014000000000E-01     -1.666563000000000E+02      3.631439000000000E-01     -3.269726000000000E+01      3.483887000000000E-01     -1.455312000000000E+02      6.853027000000000E-01     -7.510156000000000E+01
4833000000.000000      6.307373000000000E-01     -1.666641000000000E+02      3.656311000000000E-01     -3.322851000000000E+01      3.510132000000000E-01     -1.457422000000000E+02      6.896057000000000E-01     -7.496875000000000E+01
4834000000.000000      6.362305000000000E-01     -1.665390000000000E+02      3.678589000000000E-01     -3.370703000000000E+01      3.530273000000000E-01     -1.459219000000000E+02      6.922302000000000E-01     -7.486328000000000E+01
4835000000.000000      6.427612000000000E-01     -1.664531000000000E+02      3.695526000000000E-01     -3.430469000000000E+01      3.551025000000000E-01     -1.461328000000000E+02      6.964417000000000E-01     -7.486328000000000E+01
4836000000.000000      6.509094000000000E-01     -1.663672000000000E+02      3.718567000000000E-01     -3.487109000000000E+01      3.575287000000000E-01     -1.462734000000000E+02      6.996460000000000E-01     -7.468359000000000E+01
4837000000.000000      6.576843000000000E-01     -1.661406000000000E+02      3.732758000000000E-01     -3.557226000000000E+01      3.598022000000000E-01     -1.466563000000000E+02      7.032471000000000E-01     -7.470312000000000E+01
4838000000.000000      6.638184000000000E-01     -1.663281000000000E+02      3.761597000000000E-01     -3.598437000000000E+01      3.617554000000000E-01     -1.467266000000000E+02      7.082825000000000E-01     -7.465234000000000E+01
4839000000.000000      6.714783000000000E-01     -1.661328000000000E+02      3.769989000000000E-01     -3.651758000000000E+01      3.634033000000000E-01     -1.468906000000000E+02      7.116089000000000E-01     -7.463281000000000E+01
4840000000.000000      6.770935000000000E-01     -1.660703000000000E+02      3.776550000000000E-01     -3.715234000000000E+01      3.654175000000000E-01     -1.472812000000000E+02      7.150879000000000E-01     -7.459374000000000E+01
4841000000.000000      6.851501000000000E-01     -1.661953000000000E+02      3.802338000000000E-01     -3.791406000000000E+01      3.684082000000000E-01     -1.473281000000000E+02      7.196655000000000E-01     -7.466015000000000E+01
4842000000.000000      6.926575000000000E-01     -1.659844000000000E+02      3.827057000000000E-01     -3.826562000000000E+01      3.691864000000000E-01     -1.475234000000000E+02      7.239380000000000E-01     -7.456640000000000E+01
4843000000.000000      6.990967000000000E-01     -1.660547000000000E+02      3.832245000000000E-01     -3.891211000000000E+01      3.711090000000000E-01     -1.477187000000000E+02      7.281189000000000E-01     -7.439453000000000E+01
4844000000.000000      7.057190000000000E-01     -1.660156000000000E+02      3.839874000000000E-01     -3.942578000000000E+01      3.724518000000000E-01     -1.479219000000000E+02      7.328186000000000E-01     -7.448047000000000E+01
4845000000.000000      7.130127000000000E-01     -1.659141000000000E+02      3.842316000000000E-01     -3.992383000000000E+01      3.752441000000000E-01     -1.481484000000000E+02      7.362366000000000E-01     -7.453906000000000E+01
4846000000.000000      7.202148000000000E-01     -1.658359000000000E+02      3.857727000000000E-01     -4.040429000000000E+01      3.770905000000000E-01     -1.482734000000000E+02      7.402649000000000E-01     -7.441796000000000E+01
4847000000.000000      7.282104000000000E-01     -1.658672000000000E+02      3.871918000000000E-01     -4.098242000000000E+01      3.789368000000000E-01     -1.486328000000000E+02      7.464600000000000E-01     -7.457031000000000E+01
4848000000.000000      7.353210000000000E-01     -1.657891000000000E+02      3.881073000000000E-01     -4.159570000000000E+01      3.795319000000000E-01     -1.486875000000000E+02      7.497559000000000E-01     -7.453125000000000E+01
4849000000.000000      7.415771000000000E-01     -1.660000000000000E+02      3.882751000000000E-01     -4.221680000000000E+01      3.815308000000000E-01     -1.489063000000000E+02      7.544556000000000E-01     -7.448828000000000E+01
4850000000.000000      7.486572000000000E-01     -1.657969000000000E+02      3.903961000000000E-01     -4.257617000000000E+01      3.831787000000000E-01     -1.490156000000000E+02      7.589722000000000E-01     -7.446875000000000E+01
4851000000.000000      7.565308000000000E-01     -1.657891000000000E+02      3.901062000000000E-01     -4.331250000000000E+01      3.842163000000000E-01     -1.492422000000000E+02      7.649231000000000E-01     -7.454296000000000E+01
4852000000.000000      7.633057000000000E-01     -1.658203000000000E+02      3.902893000000000E-01     -4.377734000000000E+01      3.869934000000000E-01     -1.493203000000000E+02      7.694397000000000E-01     -7.449609000000000E+01
4853000000.000000      7.693176000000000E-01     -1.658672000000000E+02      3.890381000000000E-01     -4.427930000000000E+01      3.887787000000000E-01     -1.495781000000000E+02      7.734070000000000E-01     -7.469531000000000E+01
4854000000.000000      7.763672000000000E-01     -1.658516000000000E+02      3.900757000000000E-01     -4.486914000000000E+01      3.888855000000000E-01     -1.497266000000000E+02      7.784119000000000E-01     -7.459765000000000E+01
4855000000.000000      7.813721000000000E-01     -1.657578000000000E+02      3.901520000000000E-01     -4.532031000000000E+01      3.901367000000000E-01     -1.498203000000000E+02      7.819519000000000E-01     -7.460546000000000E+01
4856000000.000000      7.898560000000000E-01     -1.657266000000000E+02      3.897400000000000E-01     -4.568164000000000E+01      3.917847000000000E-01     -1.500391000000000E+02      7.883301000000000E-01     -7.465625000000000E+01
4857000000.000000      7.948608000000000E-01     -1.658828000000000E+02      3.900604000000000E-01     -4.629883000000000E+01      3.930969000000000E-01     -1.501641000000000E+02      7.914124000000000E-01     -7.473827000000000E+01
4858000000.000000      7.987976000000000E-01     -1.658594000000000E+02      3.895874000000000E-01     -4.688672000000000E+01      3.931885000000000E-01     -1.503906000000000E+02      7.973328000000000E-01     -7.489843000000000E+01
4859000000.000000      8.073120000000000E-01     -1.659062000000000E+02      3.895111000000000E-01     -4.728711000000000E+01      3.951263000000000E-01     -1.506797000000000E+02      8.034363000000000E-01     -7.496875000000000E+01
4860000000.000000      8.137512000000000E-01     -1.658203000000000E+02      3.895416000000000E-01     -4.774610000000000E+01      3.957367000000000E-01     -1.508047000000000E+02      8.074951000000000E-01     -7.490234000000000E+01
4861000000.000000      8.195496000000000E-01     -1.657422000000000E+02      3.883514000000000E-01     -4.828515000000000E+01      3.974915000000000E-01     -1.509219000000000E+02      8.119202000000000E-01     -7.504687000000000E+01
4862000000.000000      8.243103000000000E-01     -1.658047000000000E+02      3.882751000000000E-01     -4.856640000000000E+01      3.994293000000000E-01     -1.510937000000000E+02      8.180542000000000E-01     -7.495312000000000E+01
4863000000.000000      8.289185000000000E-01     -1.657812000000000E+02      3.864136000000000E-01     -4.906640000000000E+01      4.003601000000000E-01     -1.512578000000000E+02      8.219299000000000E-01     -7.518359000000000E+01
4864000000.000000      8.340759000000000E-01     -1.658203000000000E+02      3.860168000000000E-01     -4.938671000000000E+01      4.001465000000000E-01     -1.514062000000000E+02      8.277283000000000E-01     -7.530078000000000E+01
4865000000.000000      8.392334000000000E-01     -1.658750000000000E+02      3.854523000000000E-01     -4.977344000000000E+01      4.008026000000000E-01     -1.516953000000000E+02      8.317261000000000E-01     -7.523828000000000E+01
4866000000.000000      8.440552000000000E-01     -1.658125000000000E+02      3.840790000000000E-01     -5.029297000000000E+01      4.018707000000000E-01     -1.517969000000000E+02      8.371887000000000E-01     -7.528906000000000E+01
4867000000.000000      8.476257000000000E-01     -1.657422000000000E+02      3.834381000000000E-01     -5.067773000000000E+01      4.032440000000000E-01     -1.518906000000000E+02      8.428955000000000E-01     -7.540234000000000E+01
4868000000.000000      8.550110000000000E-01     -1.659375000000000E+02      3.820038000000000E-01     -5.109179000000000E+01      4.042206000000000E-01     -1.521484000000000E+02      8.471375000000000E-01     -7.549609000000000E+01
4869000000.000000      8.545227000000000E-01     -1.659062000000000E+02      3.804016000000000E-01     -5.159765000000000E+01      4.048462000000000E-01     -1.523359000000000E+02      8.525391000000000E-01     -7.567968000000000E+01
4870000000.000000      8.597412000000000E-01     -1.658437000000000E+02      3.798676000000000E-01     -5.157812000000000E+01      4.054565000000000E-01     -1.525312000000000E+02      8.580322000000000E-01     -7.563281000000000E+01
4871000000.000000      8.655090000000000E-01     -1.659141000000000E+02      3.794098000000000E-01     -5.212891000000000E+01      4.048004000000000E-01     -1.527109000000000E+02      8.603516000000000E-01     -7.584765000000000E+01
4872000000.000000      8.699341000000000E-01     -1.657734000000000E+02      3.761139000000000E-01     -5.227344000000000E+01      4.059906000000000E-01     -1.529219000000000E+02      8.657532000000000E-01     -7.588672000000000E+01
4873000000.000000      8.728638000000000E-01     -1.657187000000000E+02      3.759613000000000E-01     -5.283789000000000E+01      4.060364000000000E-01     -1.529844000000000E+02      8.706055000000000E-01     -7.602344000000000E+01
4874000000.000000      8.744507000000000E-01     -1.656328000000000E+02      3.749084000000000E-01     -5.302148000000000E+01      4.075012000000000E-01     -1.531406000000000E+02      8.737488000000000E-01     -7.600390000000000E+01
4875000000.000000      8.790588000000000E-01     -1.657812000000000E+02      3.717499000000000E-01     -5.333593000000000E+01      4.075470000000000E-01     -1.534688000000000E+02      8.780518000000000E-01     -7.614452000000000E+01
4876000000.000000      8.801270000000000E-01     -1.655859000000000E+02      3.715973000000000E-01     -5.365429000000000E+01      4.067688000000000E-01     -1.535312000000000E+02      8.837585000000000E-01     -7.632421000000000E+01
4877000000.000000      8.834534000000000E-01     -1.654844000000000E+02      3.704376000000000E-01     -5.377734000000000E+01      4.078369000000000E-01     -1.537656000000000E+02      8.872681000000000E-01     -7.643749000000000E+01
4878000000.000000      8.876038000000000E-01     -1.654531000000000E+02      3.690643000000000E-01     -5.408593000000000E+01      4.078674000000000E-01     -1.537969000000000E+02      8.919983000000000E-01     -7.662890000000000E+01
4879000000.000000      8.908997000000000E-01     -1.655703000000000E+02      3.674011000000000E-01     -5.423242000000000E+01      4.077454000000000E-01     -1.540234000000000E+02      8.947449000000000E-01     -7.658984000000000E+01
4880000000.000000      8.904724000000000E-01     -1.653984000000000E+02      3.655853000000000E-01     -5.453711000000000E+01      4.087982000000000E-01     -1.540703000000000E+02      8.988953000000000E-01     -7.663671000000000E+01
4881000000.000000      8.929443000000000E-01     -1.652969000000000E+02      3.653259000000000E-01     -5.463476000000000E+01      4.089508000000000E-01     -1.543594000000000E+02      9.031067000000000E-01     -7.694140000000000E+01
4882000000.000000      8.930969000000000E-01     -1.652734000000000E+02      3.630524000000000E-01     -5.486914000000000E+01      4.083862000000000E-01     -1.543984000000000E+02      9.055786000000000E-01     -7.696875000000000E+01
