! Network Analyzer HP8722D
! Hewlett-Packard
! Data name: Linha & Wilkinson
! Saver's name: Rodrigo Anjos
! Comments: Teste da utilização de aquisição
continua pelo VNA HP8722D
! Time and date: 6/5/2025 14:27
!              Frequency                     S11                                                   S21                                                   S12                                                   S22
# HZ  S  MA R 50
4800000000.000000      4.969177000000000E-01     -1.682344000000000E+02      2.527161000000000E-01     -1.975976000000000E+01      2.494354000000000E-01     -1.409062000000000E+02      6.473083000000000E-01     -8.030859000000000E+01
4801000000.000000      4.984741000000000E-01     -1.683594000000000E+02      2.565002000000000E-01     -2.001172000000000E+01      2.525177000000000E-01     -1.410391000000000E+02      6.466675000000000E-01     -8.012499000000000E+01
4802000000.000000      4.996338000000000E-01     -1.684062000000000E+02      2.606201000000000E-01     -2.025683000000000E+01      2.565308000000000E-01     -1.410234000000000E+02      6.454773000000000E-01     -7.981250000000000E+01
4803000000.000000      5.014954000000000E-01     -1.684453000000000E+02      2.650604000000000E-01     -2.042383000000000E+01      2.596283000000000E-01     -1.412109000000000E+02      6.441956000000000E-01     -7.967578000000000E+01
4804000000.000000      5.033569000000000E-01     -1.683906000000000E+02      2.684326000000000E-01     -2.072168000000000E+01      2.640839000000000E-01     -1.413281000000000E+02      6.445007000000000E-01     -7.944530000000000E+01
4805000000.000000      5.060120000000000E-01     -1.685234000000000E+02      2.726288000000000E-01     -2.099121000000000E+01      2.673950000000000E-01     -1.412266000000000E+02      6.443481000000000E-01     -7.936718000000000E+01
4806000000.000000      5.074463000000000E-01     -1.684453000000000E+02      2.765961000000000E-01     -2.131640000000000E+01      2.700958000000000E-01     -1.412812000000000E+02      6.434631000000000E-01     -7.908593000000000E+01
4807000000.000000      5.106201000000000E-01     -1.684531000000000E+02      2.812195000000000E-01     -2.157519000000000E+01      2.744446000000000E-01     -1.415390000000000E+02      6.431885000000000E-01     -7.886719000000000E+01
4808000000.000000      5.129089000000000E-01     -1.683828000000000E+02      2.849731000000000E-01     -2.182617000000000E+01      2.780151000000000E-01     -1.416094000000000E+02      6.430359000000000E-01     -7.864452000000000E+01
4809000000.000000      5.157166000000000E-01     -1.684062000000000E+02      2.886200000000000E-01     -2.237402000000000E+01      2.816925000000000E-01     -1.418047000000000E+02      6.440430000000000E-01     -7.848046000000000E+01
4810000000.000000      5.185242000000000E-01     -1.684609000000000E+02      2.933044000000000E-01     -2.253222000000000E+01      2.850189000000000E-01     -1.418906000000000E+02      6.438599000000000E-01     -7.826172000000000E+01
4811000000.000000      5.217896000000000E-01     -1.683437000000000E+02      2.965240000000000E-01     -2.303515000000000E+01      2.894592000000000E-01     -1.420312000000000E+02      6.439514000000000E-01     -7.797265000000000E+01
4812000000.000000      5.257568000000000E-01     -1.683203000000000E+02      3.001709000000000E-01     -2.354297000000000E+01      2.920074000000000E-01     -1.421250000000000E+02      6.446533000000000E-01     -7.789063000000000E+01
4813000000.000000      5.279846000000000E-01     -1.682500000000000E+02      3.046417000000000E-01     -2.380469000000000E+01      2.946167000000000E-01     -1.422188000000000E+02      6.457214000000000E-01     -7.753906000000000E+01
4814000000.000000      5.308228000000000E-01     -1.683516000000000E+02      3.078003000000000E-01     -2.426660000000000E+01      2.987213000000000E-01     -1.424844000000000E+02      6.474304000000000E-01     -7.745703000000000E+01
4815000000.000000      5.351257000000000E-01     -1.681797000000000E+02      3.107605000000000E-01     -2.471289000000000E+01      3.011932000000000E-01     -1.425625000000000E+02      6.471252000000000E-01     -7.713281000000000E+01
4816000000.000000      5.395508000000000E-01     -1.681172000000000E+02      3.147278000000000E-01     -2.490332000000000E+01      3.051758000000000E-01     -1.427891000000000E+02      6.491089000000000E-01     -7.702343000000000E+01
4817000000.000000      5.433960000000000E-01     -1.680312000000000E+02      3.191528000000000E-01     -2.556250000000000E+01      3.078613000000000E-01     -1.428750000000000E+02      6.502991000000000E-01     -7.689843000000000E+01
4818000000.000000      5.471802000000000E-01     -1.680312000000000E+02      3.214874000000000E-01     -2.592968000000000E+01      3.113251000000000E-01     -1.429297000000000E+02      6.514587000000000E-01     -7.678124000000000E+01
4819000000.000000      5.529480000000000E-01     -1.679375000000000E+02      3.249512000000000E-01     -2.638379000000000E+01      3.137054000000000E-01     -1.433203000000000E+02      6.542969000000000E-01     -7.665234000000000E+01
4820000000.000000      5.547485000000000E-01     -1.678125000000000E+02      3.284149000000000E-01     -2.680664000000000E+01      3.170929000000000E-01     -1.434297000000000E+02      6.546326000000000E-01     -7.652734000000000E+01
4821000000.000000      5.607605000000000E-01     -1.677422000000000E+02      3.315125000000000E-01     -2.727832000000000E+01      3.197632000000000E-01     -1.437266000000000E+02      6.558228000000000E-01     -7.633594000000000E+01
4822000000.000000      5.677795000000000E-01     -1.676953000000000E+02      3.348694000000000E-01     -2.786035000000000E+01      3.229523000000000E-01     -1.438516000000000E+02      6.590576000000000E-01     -7.610156000000000E+01
4823000000.000000      5.706787000000000E-01     -1.675469000000000E+02      3.384094000000000E-01     -2.818848000000000E+01      3.249054000000000E-01     -1.438437000000000E+02      6.609802000000000E-01     -7.599999000000000E+01
4824000000.000000      5.780640000000000E-01     -1.675625000000000E+02      3.419647000000000E-01     -2.880566000000000E+01      3.281555000000000E-01     -1.442812000000000E+02      6.634216000000000E-01     -7.589062000000000E+01
4825000000.000000      5.824890000000000E-01     -1.673828000000000E+02      3.441620000000000E-01     -2.931445000000000E+01      3.311768000000000E-01     -1.444141000000000E+02      6.659241000000000E-01     -7.570703000000000E+01
4826000000.000000      5.881653000000000E-01     -1.673672000000000E+02      3.482819000000000E-01     -2.981152000000000E+01      3.333893000000000E-01     -1.447266000000000E+02      6.683044000000000E-01     -7.566796000000000E+01
4827000000.000000      5.939331000000000E-01     -1.671562000000000E+02      3.505249000000000E-01     -3.022363000000000E+01      3.363953000000000E-01     -1.447344000000000E+02      6.715088000000000E-01     -7.550390000000000E+01
4828000000.000000      6.007690000000000E-01     -1.671562000000000E+02      3.535004000000000E-01     -3.072558000000000E+01      3.385925000000000E-01     -1.450000000000000E+02      6.752625000000000E-01     -7.542578000000000E+01
4829000000.000000      6.044006000000000E-01     -1.670078000000000E+02      3.542786000000000E-01     -3.119043000000000E+01      3.413849000000000E-01     -1.450703000000000E+02      6.776428000000000E-01     -7.525391000000000E+01
4830000000.000000      6.119080000000000E-01     -1.669688000000000E+02      3.579254000000000E-01     -3.192676000000000E+01      3.434601000000000E-01     -1.453828000000000E+02      6.794739000000000E-01     -7.529687000000000E+01
4831000000.000000      6.161499000000000E-01     -1.668125000000000E+02      3.600769000000000E-01     -3.251758000000000E+01      3.463745000000000E-01     -1.454453000000000E+02      6.833496000000000E-01     -7.515234000000000E+01
4832000000.000000      6.248779000000000E-01     -1.667656000000000E+02      3.640594000000000E-01     -3.290820000000000E+01      3.477173000000000E-01     -1.457734000000000E+02      6.865540000000000E-01     -7.509375000000000E+01
4833000000.000000      6.315613000000000E-01     -1.667266000000000E+02      3.661194000000000E-01     -3.342773000000000E+01      3.506622000000000E-01     -1.459766000000000E+02      6.899414000000000E-01     -7.503515000000000E+01
4834000000.000000      6.375122000000000E-01     -1.666406000000000E+02      3.679352000000000E-01     -3.398828000000000E+01      3.529205000000000E-01     -1.461953000000000E+02      6.924744000000000E-01     -7.488671000000000E+01
4835000000.000000      6.438599000000000E-01     -1.665937000000000E+02      3.703461000000000E-01     -3.449609000000000E+01      3.555908000000000E-01     -1.463828000000000E+02      6.974792000000000E-01     -7.486328000000000E+01
4836000000.000000      6.521606000000000E-01     -1.664453000000000E+02      3.718719000000000E-01     -3.508984000000000E+01      3.579102000000000E-01     -1.465937000000000E+02      7.001343000000000E-01     -7.482031000000000E+01
4837000000.000000      6.580811000000000E-01     -1.663516000000000E+02      3.737030000000000E-01     -3.588086000000000E+01      3.591766000000000E-01     -1.467891000000000E+02      7.038269000000000E-01     -7.475780000000000E+01
4838000000.000000      6.651917000000000E-01     -1.663828000000000E+02      3.764954000000000E-01     -3.628320000000000E+01      3.613739000000000E-01     -1.468906000000000E+02      7.079468000000000E-01     -7.469531000000000E+01
4839000000.000000      6.722412000000000E-01     -1.662266000000000E+02      3.770752000000000E-01     -3.676367000000000E+01      3.633881000000000E-01     -1.472109000000000E+02      7.125244000000000E-01     -7.464453000000000E+01
4840000000.000000      6.781921000000000E-01     -1.662500000000000E+02      3.788452000000000E-01     -3.733593000000000E+01      3.659821000000000E-01     -1.473047000000000E+02      7.153015000000000E-01     -7.457812000000000E+01
4841000000.000000      6.863098000000000E-01     -1.663203000000000E+02      3.803864000000000E-01     -3.797852000000000E+01      3.676453000000000E-01     -1.476172000000000E+02      7.208557000000000E-01     -7.469140000000000E+01
4842000000.000000      6.935730000000000E-01     -1.660859000000000E+02      3.821869000000000E-01     -3.850000000000000E+01      3.691406000000000E-01     -1.476953000000000E+02      7.250061000000000E-01     -7.462109000000000E+01
4843000000.000000      7.004700000000000E-01     -1.662578000000000E+02      3.834534000000000E-01     -3.895117000000000E+01      3.710327000000000E-01     -1.478828000000000E+02      7.290039000000000E-01     -7.451953000000000E+01
4844000000.000000      7.066040000000000E-01     -1.661016000000000E+02      3.837738000000000E-01     -3.959375000000000E+01      3.725433000000000E-01     -1.480703000000000E+02      7.329407000000000E-01     -7.458984000000000E+01
4845000000.000000      7.129822000000000E-01     -1.660234000000000E+02      3.848114000000000E-01     -4.012304000000000E+01      3.752136000000000E-01     -1.483906000000000E+02      7.367859000000000E-01     -7.451953000000000E+01
4846000000.000000      7.211609000000000E-01     -1.659141000000000E+02      3.861542000000000E-01     -4.063086000000000E+01      3.770752000000000E-01     -1.483516000000000E+02      7.417908000000000E-01     -7.448047000000000E+01
4847000000.000000      7.287598000000000E-01     -1.659609000000000E+02      3.872833000000000E-01     -4.119922000000000E+01      3.786926000000000E-01     -1.487109000000000E+02      7.470703000000000E-01     -7.464062000000000E+01
4848000000.000000      7.348633000000000E-01     -1.658984000000000E+02      3.880463000000000E-01     -4.171094000000000E+01      3.800354000000000E-01     -1.488828000000000E+02      7.495422000000000E-01     -7.458202000000000E+01
4849000000.000000      7.427673000000000E-01     -1.661719000000000E+02      3.887787000000000E-01     -4.237305000000000E+01      3.812714000000000E-01     -1.490078000000000E+02      7.548523000000000E-01     -7.455078000000000E+01
4850000000.000000      7.500916000000000E-01     -1.659141000000000E+02      3.898010000000000E-01     -4.277344000000000E+01      3.833923000000000E-01     -1.491484000000000E+02      7.594299000000000E-01     -7.454296000000000E+01
4851000000.000000      7.563171000000000E-01     -1.659297000000000E+02      3.905182000000000E-01     -4.341406000000000E+01      3.840942000000000E-01     -1.493594000000000E+02      7.651672000000000E-01     -7.453515000000000E+01
4852000000.000000      7.636108000000000E-01     -1.659141000000000E+02      3.904419000000000E-01     -4.395312000000000E+01      3.863983000000000E-01     -1.495000000000000E+02      7.687683000000000E-01     -7.458202000000000E+01
4853000000.000000      7.709656000000000E-01     -1.658984000000000E+02      3.886108000000000E-01     -4.445313000000000E+01      3.877411000000000E-01     -1.497266000000000E+02      7.739868000000000E-01     -7.474609000000000E+01
4854000000.000000      7.779541000000000E-01     -1.659765000000000E+02      3.904724000000000E-01     -4.508789000000000E+01      3.886871000000000E-01     -1.499297000000000E+02      7.789001000000000E-01     -7.470703000000000E+01
4855000000.000000      7.822571000000000E-01     -1.659609000000000E+02      3.899841000000000E-01     -4.538476000000000E+01      3.900757000000000E-01     -1.501094000000000E+02      7.823486000000000E-01     -7.473046000000000E+01
4856000000.000000      7.898560000000000E-01     -1.658594000000000E+02      3.898010000000000E-01     -4.604882000000000E+01      3.916626000000000E-01     -1.501719000000000E+02      7.881165000000000E-01     -7.480859000000000E+01
4857000000.000000      7.957458000000000E-01     -1.659609000000000E+02      3.911743000000000E-01     -4.653125000000000E+01      3.927765000000000E-01     -1.503750000000000E+02      7.937622000000000E-01     -7.478125000000000E+01
4858000000.000000      8.001404000000000E-01     -1.660078000000000E+02      3.892975000000000E-01     -4.691796000000000E+01      3.938599000000000E-01     -1.506406000000000E+02      7.975464000000000E-01     -7.496484000000000E+01
4859000000.000000      8.063354000000000E-01     -1.659375000000000E+02      3.885651000000000E-01     -4.740820000000000E+01      3.946686000000000E-01     -1.508906000000000E+02      8.041992000000000E-01     -7.507421000000000E+01
4860000000.000000      8.149719000000000E-01     -1.657969000000000E+02      3.884583000000000E-01     -4.790039000000000E+01      3.957062000000000E-01     -1.509453000000000E+02      8.076172000000000E-01     -7.487109000000000E+01
4861000000.000000      8.189697000000000E-01     -1.658828000000000E+02      3.882751000000000E-01     -4.837304000000000E+01      3.973083000000000E-01     -1.510625000000000E+02      8.121643000000000E-01     -7.520312000000000E+01
4862000000.000000      8.240356000000000E-01     -1.658047000000000E+02      3.884583000000000E-01     -4.863281000000000E+01      3.986969000000000E-01     -1.512656000000000E+02      8.183899000000000E-01     -7.498828000000000E+01
4863000000.000000      8.288879000000000E-01     -1.661172000000000E+02      3.868713000000000E-01     -4.933984000000000E+01      4.001617000000000E-01     -1.514219000000000E+02      8.232422000000000E-01     -7.522655000000000E+01
4864000000.000000      8.348083000000000E-01     -1.660156000000000E+02      3.864288000000000E-01     -4.953125000000000E+01      3.995514000000000E-01     -1.515312000000000E+02      8.281555000000000E-01     -7.528906000000000E+01
4865000000.000000      8.379211000000000E-01     -1.661797000000000E+02      3.843079000000000E-01     -5.007813000000000E+01      4.010925000000000E-01     -1.518047000000000E+02      8.317566000000000E-01     -7.525391000000000E+01
4866000000.000000      8.450623000000000E-01     -1.659531000000000E+02      3.830566000000000E-01     -5.041016000000000E+01      4.014282000000000E-01     -1.519922000000000E+02      8.367615000000000E-01     -7.539844000000000E+01
4867000000.000000      8.501587000000000E-01     -1.658437000000000E+02      3.838196000000000E-01     -5.097265000000000E+01      4.027252000000000E-01     -1.521172000000000E+02      8.435669000000000E-01     -7.537499000000000E+01
4868000000.000000      8.537598000000000E-01     -1.660469000000000E+02      3.824615000000000E-01     -5.127734000000000E+01      4.042053000000000E-01     -1.522266000000000E+02      8.471375000000000E-01     -7.544922000000000E+01
4869000000.000000      8.564453000000000E-01     -1.659922000000000E+02      3.803864000000000E-01     -5.173242000000000E+01      4.046326000000000E-01     -1.524141000000000E+02      8.532715000000000E-01     -7.571484000000000E+01
4870000000.000000      8.615723000000000E-01     -1.659062000000000E+02      3.802338000000000E-01     -5.180859000000000E+01      4.048157000000000E-01     -1.526797000000000E+02      8.571167000000000E-01     -7.576562000000000E+01
4871000000.000000      8.649597000000000E-01     -1.659922000000000E+02      3.779602000000000E-01     -5.235546000000000E+01      4.047089000000000E-01     -1.528906000000000E+02      8.612366000000000E-01     -7.581249000000000E+01
4872000000.000000      8.688049000000000E-01     -1.658672000000000E+02      3.762207000000000E-01     -5.240234000000000E+01      4.058228000000000E-01     -1.531719000000000E+02      8.657837000000000E-01     -7.595703000000000E+01
4873000000.000000      8.715820000000000E-01     -1.657031000000000E+02      3.752899000000000E-01     -5.297656000000000E+01      4.055786000000000E-01     -1.531797000000000E+02      8.702393000000000E-01     -7.604297000000000E+01
4874000000.000000      8.762512000000000E-01     -1.658516000000000E+02      3.743134000000000E-01     -5.326757000000000E+01      4.067841000000000E-01     -1.533047000000000E+02      8.741455000000000E-01     -7.601171000000000E+01
4875000000.000000      8.809204000000000E-01     -1.658203000000000E+02      3.724365000000000E-01     -5.346874000000000E+01      4.073486000000000E-01     -1.535781000000000E+02      8.788147000000000E-01     -7.632030000000000E+01
4876000000.000000      8.799438000000000E-01     -1.658281000000000E+02      3.715668000000000E-01     -5.385156000000000E+01      4.061432000000000E-01     -1.536953000000000E+02      8.835144000000000E-01     -7.647265000000000E+01
4877000000.000000      8.860168000000000E-01     -1.656406000000000E+02      3.701935000000000E-01     -5.390038000000000E+01      4.078064000000000E-01     -1.539063000000000E+02      8.875427000000000E-01     -7.649219000000000E+01
4878000000.000000      8.846741000000000E-01     -1.656797000000000E+02      3.688812000000000E-01     -5.426562000000000E+01      4.077911000000000E-01     -1.539687000000000E+02      8.919067000000000E-01     -7.669531000000000E+01
4879000000.000000      8.903503000000000E-01     -1.656250000000000E+02      3.664703000000000E-01     -5.434179000000000E+01      4.075470000000000E-01     -1.541484000000000E+02      8.948669000000000E-01     -7.657031000000000E+01
4880000000.000000      8.915100000000000E-01     -1.655703000000000E+02      3.654327000000000E-01     -5.475586000000000E+01      4.085693000000000E-01     -1.542578000000000E+02      8.993835000000000E-01     -7.682422000000000E+01
4881000000.000000      8.951111000000000E-01     -1.653516000000000E+02      3.651123000000000E-01     -5.484765000000000E+01      4.083862000000000E-01     -1.545312000000000E+02      9.031677000000000E-01     -7.690624000000000E+01
4882000000.000000      8.928833000000000E-01     -1.653906000000000E+02      3.627167000000000E-01     -5.501562000000000E+01      4.083252000000000E-01     -1.545547000000000E+02      9.053040000000000E-01     -7.707812000000000E+01
