! Network Analyzer HP8722D
! Hewlett-Packard
! Data name: Linha & Wilkinson
! Saver's name: Rodrigo Anjos
! Comments: Teste da utilização de aquisição
continua pelo VNA HP8722D
! Time and date: 6/5/2025 13:05
!              Frequency                     S11                                                   S21                                                   S12                                                   S22
# HZ  S  MA R 50
4800000000.000000      9.035645000000000E-01      1.157891000000000E+02      3.196411000000000E-01     -1.705625000000000E+02      2.565918000000000E-01     -8.602734000000000E+01      9.837341000000000E-01     -4.749609000000000E+01
4801000000.000000      9.036865000000000E-01      1.158789000000000E+02      3.197479000000000E-01     -1.704297000000000E+02      2.563934000000000E-01     -8.602734000000000E+01      9.796448000000000E-01     -4.760351000000000E+01
4802000000.000000      9.010925000000000E-01      1.162266000000000E+02      3.192902000000000E-01     -1.702188000000000E+02      2.572174000000000E-01     -8.574999000000000E+01      9.739380000000000E-01     -4.758008000000000E+01
4803000000.000000      8.989868000000000E-01      1.165039000000000E+02      3.204193000000000E-01     -1.702578000000000E+02      2.563171000000000E-01     -8.564453000000000E+01      9.681702000000000E-01     -4.772851000000000E+01
4804000000.000000      8.966980000000000E-01      1.167422000000000E+02      3.200684000000000E-01     -1.702031000000000E+02      2.567139000000000E-01     -8.555079000000000E+01      9.631348000000000E-01     -4.779492000000000E+01
4805000000.000000      8.957520000000000E-01      1.169922000000000E+02      3.208466000000000E-01     -1.702500000000000E+02      2.563782000000000E-01     -8.523438000000000E+01      9.589233000000000E-01     -4.775391000000000E+01
4806000000.000000      8.945923000000000E-01      1.171836000000000E+02      3.212280000000000E-01     -1.702109000000000E+02      2.553406000000000E-01     -8.500780000000000E+01      9.512329000000000E-01     -4.796094000000000E+01
4807000000.000000      8.930359000000000E-01      1.174492000000000E+02      3.222046000000000E-01     -1.704453000000000E+02      2.559967000000000E-01     -8.489843000000000E+01      9.465027000000000E-01     -4.796094000000000E+01
4808000000.000000      8.918152000000000E-01      1.175859000000000E+02      3.228607000000000E-01     -1.701562000000000E+02      2.562866000000000E-01     -8.469921000000000E+01      9.418030000000000E-01     -4.804492000000000E+01
4809000000.000000      8.866882000000000E-01      1.179492000000000E+02      3.225098000000000E-01     -1.702656000000000E+02      2.568817000000000E-01     -8.444139000000000E+01      9.365540000000000E-01     -4.804296000000000E+01
4810000000.000000      8.860168000000000E-01      1.182773000000000E+02      3.234863000000000E-01     -1.700703000000000E+02      2.564545000000000E-01     -8.421875000000000E+01      9.308167000000000E-01     -4.814843000000000E+01
4811000000.000000      8.837280000000000E-01      1.185156000000000E+02      3.240051000000000E-01     -1.702031000000000E+02      2.571869000000000E-01     -8.386719000000000E+01      9.262085000000000E-01     -4.805469000000000E+01
4812000000.000000      8.823547000000000E-01      1.187617000000000E+02      3.238831000000000E-01     -1.702500000000000E+02      2.565155000000000E-01     -8.368750000000000E+01      9.191284000000000E-01     -4.829883000000000E+01
4813000000.000000      8.804321000000000E-01      1.190156000000000E+02      3.249817000000000E-01     -1.701719000000000E+02      2.564392000000000E-01     -8.350389000000000E+01      9.147644000000000E-01     -4.824804000000000E+01
4814000000.000000      8.753967000000000E-01      1.192226000000000E+02      3.257141000000000E-01     -1.702500000000000E+02      2.563477000000000E-01     -8.314844000000000E+01      9.095459000000000E-01     -4.839257000000000E+01
4815000000.000000      8.726196000000000E-01      1.194765000000000E+02      3.257751000000000E-01     -1.702891000000000E+02      2.566376000000000E-01     -8.287109000000000E+01      9.043884000000000E-01     -4.833202000000000E+01
4816000000.000000      8.741455000000000E-01      1.197422000000000E+02      3.276978000000000E-01     -1.703438000000000E+02      2.573700000000000E-01     -8.270702000000000E+01      8.997498000000000E-01     -4.857616000000000E+01
4817000000.000000      8.687439000000000E-01      1.198359000000000E+02      3.273163000000000E-01     -1.703906000000000E+02      2.561188000000000E-01     -8.233202000000000E+01      8.934326000000000E-01     -4.852539000000000E+01
4818000000.000000      8.648987000000000E-01      1.201914000000000E+02      3.281250000000000E-01     -1.704844000000000E+02      2.566681000000000E-01     -8.194530000000000E+01      8.870239000000000E-01     -4.857616000000000E+01
4819000000.000000      8.641052000000000E-01      1.204570000000000E+02      3.285217000000000E-01     -1.704609000000000E+02      2.556763000000000E-01     -8.178514000000000E+01      8.825989000000000E-01     -4.866992000000000E+01
4820000000.000000      8.556213000000000E-01      1.206367000000000E+02      3.287201000000000E-01     -1.704687000000000E+02      2.563629000000000E-01     -8.131639000000000E+01      8.775940000000000E-01     -4.877148000000000E+01
4821000000.000000      8.551636000000000E-01      1.207461000000000E+02      3.303223000000000E-01     -1.707031000000000E+02      2.563629000000000E-01     -8.120312000000000E+01      8.714294000000000E-01     -4.874023000000000E+01
4822000000.000000      8.540344000000000E-01      1.208516000000000E+02      3.310089000000000E-01     -1.708359000000000E+02      2.554932000000000E-01     -8.096874000000000E+01      8.662109000000000E-01     -4.888672000000000E+01
4823000000.000000      8.480530000000000E-01      1.210039000000000E+02      3.312988000000000E-01     -1.708906000000000E+02      2.556458000000000E-01     -8.038671000000000E+01      8.605347000000000E-01     -4.890038000000000E+01
4824000000.000000      8.459167000000000E-01      1.212578000000000E+02      3.319855000000000E-01     -1.711484000000000E+02      2.557526000000000E-01     -8.016796000000000E+01      8.569031000000000E-01     -4.895312000000000E+01
4825000000.000000      8.406677000000000E-01      1.213555000000000E+02      3.322754000000000E-01     -1.710703000000000E+02      2.563782000000000E-01     -7.997265000000000E+01      8.517456000000000E-01     -4.901757000000000E+01
4826000000.000000      8.404541000000000E-01      1.215273000000000E+02      3.338318000000000E-01     -1.713594000000000E+02      2.559814000000000E-01     -7.963672000000000E+01      8.475342000000000E-01     -4.917382000000000E+01
4827000000.000000      8.356018000000000E-01      1.217617000000000E+02      3.338776000000000E-01     -1.713359000000000E+02      2.555695000000000E-01     -7.924609000000000E+01      8.424988000000000E-01     -4.916601000000000E+01
4828000000.000000      8.310547000000000E-01      1.218203000000000E+02      3.346710000000000E-01     -1.716640000000000E+02      2.552185000000000E-01     -7.892187000000000E+01      8.375244000000000E-01     -4.931054000000000E+01
4829000000.000000      8.254395000000000E-01      1.220039000000000E+02      3.344116000000000E-01     -1.716563000000000E+02      2.561646000000000E-01     -7.864062000000000E+01      8.347473000000000E-01     -4.924805000000000E+01
4830000000.000000      8.226318000000000E-01      1.220351000000000E+02      3.348236000000000E-01     -1.718906000000000E+02      2.558136000000000E-01     -7.816015000000000E+01      8.281860000000000E-01     -4.937695000000000E+01
4831000000.000000      8.156128000000000E-01      1.221680000000000E+02      3.350830000000000E-01     -1.721641000000000E+02      2.561035000000000E-01     -7.782031000000000E+01      8.238831000000000E-01     -4.942383000000000E+01
4832000000.000000      8.148804000000000E-01      1.225547000000000E+02      3.356934000000000E-01     -1.723047000000000E+02      2.559357000000000E-01     -7.743750000000000E+01      8.200684000000000E-01     -4.952538000000000E+01
4833000000.000000      8.090820000000000E-01      1.223281000000000E+02      3.359375000000000E-01     -1.724922000000000E+02      2.559357000000000E-01     -7.726171000000000E+01      8.151550000000000E-01     -4.960351000000000E+01
4834000000.000000      8.039551000000000E-01      1.225352000000000E+02      3.367462000000000E-01     -1.727578000000000E+02      2.561188000000000E-01     -7.682422000000000E+01      8.107910000000000E-01     -4.969531000000000E+01
4835000000.000000      7.980652000000000E-01      1.224531000000000E+02      3.364716000000000E-01     -1.730000000000000E+02      2.562714000000000E-01     -7.647655000000000E+01      8.067932000000000E-01     -4.973437000000000E+01
4836000000.000000      7.968445000000000E-01      1.227109000000000E+02      3.365173000000000E-01     -1.732031000000000E+02      2.562561000000000E-01     -7.611718000000000E+01      8.033447000000000E-01     -4.972265000000000E+01
4837000000.000000      7.902832000000000E-01      1.226992000000000E+02      3.367310000000000E-01     -1.736797000000000E+02      2.568054000000000E-01     -7.589453000000000E+01      7.995911000000000E-01     -4.976757000000000E+01
4838000000.000000      7.832947000000000E-01      1.225039000000000E+02      3.374481000000000E-01     -1.736875000000000E+02      2.568207000000000E-01     -7.546484000000000E+01      7.953491000000000E-01     -4.986133000000000E+01
4839000000.000000      7.810669000000000E-01      1.227187000000000E+02      3.371887000000000E-01     -1.736172000000000E+02      2.567596000000000E-01     -7.512890000000000E+01      7.921448000000000E-01     -4.999218000000000E+01
4840000000.000000      7.748718000000000E-01      1.227383000000000E+02      3.366699000000000E-01     -1.739609000000000E+02      2.573700000000000E-01     -7.481250000000000E+01      7.882996000000000E-01     -5.004687000000000E+01
4841000000.000000      7.687683000000000E-01      1.227461000000000E+02      3.372040000000000E-01     -1.745312000000000E+02      2.575989000000000E-01     -7.446094000000000E+01      7.851868000000000E-01     -5.002930000000000E+01
4842000000.000000      7.626648000000000E-01      1.228633000000000E+02      3.361511000000000E-01     -1.745547000000000E+02      2.572937000000000E-01     -7.417969000000000E+01      7.817688000000000E-01     -5.012304000000000E+01
4843000000.000000      7.575073000000000E-01      1.227422000000000E+02      3.366241000000000E-01     -1.748203000000000E+02      2.577515000000000E-01     -7.381640000000000E+01      7.779846000000000E-01     -5.021874000000000E+01
4844000000.000000      7.547607000000000E-01      1.226758000000000E+02      3.362885000000000E-01     -1.749687000000000E+02      2.578888000000000E-01     -7.347265000000000E+01      7.745361000000000E-01     -5.029491000000000E+01
4845000000.000000      7.456360000000000E-01      1.227344000000000E+02      3.354645000000000E-01     -1.752500000000000E+02      2.583008000000000E-01     -7.314843000000000E+01      7.707214000000000E-01     -5.027929000000000E+01
4846000000.000000      7.401733000000000E-01      1.225977000000000E+02      3.354950000000000E-01     -1.755156000000000E+02      2.590179000000000E-01     -7.277734000000000E+01      7.673035000000000E-01     -5.036718000000000E+01
4847000000.000000      7.373047000000000E-01      1.226836000000000E+02      3.349609000000000E-01     -1.757031000000000E+02      2.594299000000000E-01     -7.254687000000000E+01      7.655029000000000E-01     -5.055664000000000E+01
4848000000.000000      7.316589000000000E-01      1.222852000000000E+02      3.343658000000000E-01     -1.758984000000000E+02      2.594604000000000E-01     -7.213281000000000E+01      7.605591000000000E-01     -5.056054000000000E+01
4849000000.000000      7.259216000000000E-01      1.220273000000000E+02      3.341522000000000E-01     -1.764219000000000E+02      2.592773000000000E-01     -7.170312000000000E+01      7.577209000000000E-01     -5.054296000000000E+01
4850000000.000000      7.190552000000000E-01      1.222461000000000E+02      3.336639000000000E-01     -1.765625000000000E+02      2.593842000000000E-01     -7.149219000000000E+01      7.554932000000000E-01     -5.062109000000000E+01
4851000000.000000      7.115479000000000E-01      1.220703000000000E+02      3.336182000000000E-01     -1.768047000000000E+02      2.600098000000000E-01     -7.126562000000000E+01      7.532349000000000E-01     -5.062304000000000E+01
4852000000.000000      7.080994000000000E-01      1.218125000000000E+02      3.325806000000000E-01     -1.770625000000000E+02      2.604980000000000E-01     -7.074609000000000E+01      7.498474000000000E-01     -5.076366000000000E+01
4853000000.000000      7.021484000000000E-01      1.218008000000000E+02      3.303375000000000E-01     -1.772266000000000E+02      2.610321000000000E-01     -7.062500000000000E+01      7.474670000000000E-01     -5.084765000000000E+01
4854000000.000000      6.934814000000000E-01      1.214297000000000E+02      3.302460000000000E-01     -1.775547000000000E+02      2.607727000000000E-01     -7.038280000000000E+01      7.462158000000000E-01     -5.085742000000000E+01
4855000000.000000      6.879272000000000E-01      1.212812000000000E+02      3.298798000000000E-01     -1.778125000000000E+02      2.615967000000000E-01     -6.999609000000000E+01      7.403564000000000E-01     -5.089453000000000E+01
4856000000.000000      6.842957000000000E-01      1.211719000000000E+02      3.295288000000000E-01     -1.779922000000000E+02      2.615967000000000E-01     -6.974609000000000E+01      7.391357000000000E-01     -5.099999000000000E+01
4857000000.000000      6.770325000000000E-01      1.209258000000000E+02      3.285828000000000E-01     -1.781406000000000E+02      2.621765000000000E-01     -6.943359000000000E+01      7.358704000000000E-01     -5.100586000000000E+01
4858000000.000000      6.685486000000000E-01      1.206133000000000E+02      3.273163000000000E-01     -1.784375000000000E+02      2.625275000000000E-01     -6.929296000000000E+01      7.335205000000000E-01     -5.119922000000000E+01
4859000000.000000      6.657410000000000E-01      1.204375000000000E+02      3.262634000000000E-01     -1.786797000000000E+02      2.630615000000000E-01     -6.892968000000000E+01      7.326050000000000E-01     -5.124609000000000E+01
4860000000.000000      6.598816000000000E-01      1.201015000000000E+02      3.250275000000000E-01     -1.788984000000000E+02      2.628784000000000E-01     -6.867188000000000E+01      7.288818000000000E-01     -5.120703000000000E+01
4861000000.000000      6.515808000000000E-01      1.198945000000000E+02      3.243866000000000E-01     -1.791094000000000E+02      2.635651000000000E-01     -6.847656000000000E+01      7.257996000000000E-01     -5.128711000000000E+01
4862000000.000000      6.445618000000000E-01      1.197148000000000E+02      3.238831000000000E-01     -1.792266000000000E+02      2.639465000000000E-01     -6.832421000000000E+01      7.254028000000000E-01     -5.134570000000000E+01
4863000000.000000      6.385193000000000E-01      1.193711000000000E+02      3.220673000000000E-01     -1.795469000000000E+02      2.649384000000000E-01     -6.805078000000000E+01      7.224731000000000E-01     -5.130859000000000E+01
4864000000.000000      6.333008000000000E-01      1.189336000000000E+02      3.215485000000000E-01     -1.795156000000000E+02      2.646332000000000E-01     -6.781250000000000E+01      7.194214000000000E-01     -5.150976000000000E+01
4865000000.000000      6.260986000000000E-01      1.187539000000000E+02      3.190460000000000E-01     -1.796484000000000E+02      2.651825000000000E-01     -6.774219000000000E+01      7.179871000000000E-01     -5.137304000000000E+01
4866000000.000000      6.221008000000000E-01      1.182851000000000E+02      3.182220000000000E-01     -1.799844000000000E+02      2.649994000000000E-01     -6.746484000000000E+01      7.160339000000000E-01     -5.150391000000000E+01
4867000000.000000      6.140442000000000E-01      1.180391000000000E+02      3.173981000000000E-01      1.797109000000000E+02      2.652283000000000E-01     -6.730469000000000E+01      7.150879000000000E-01     -5.147655000000000E+01
4868000000.000000      6.097717000000000E-01      1.174062000000000E+02      3.165436000000000E-01      1.796406000000000E+02      2.661285000000000E-01     -6.712109000000000E+01      7.120972000000000E-01     -5.151953000000000E+01
4869000000.000000      6.022339000000000E-01      1.171680000000000E+02      3.151703000000000E-01      1.796094000000000E+02      2.659607000000000E-01     -6.688281000000000E+01      7.098694000000000E-01     -5.170898000000000E+01
4870000000.000000      5.970154000000000E-01      1.169609000000000E+02      3.136749000000000E-01      1.794297000000000E+02      2.659454000000000E-01     -6.681250000000000E+01      7.085571000000000E-01     -5.164648000000000E+01
4871000000.000000      5.915833000000000E-01      1.162617000000000E+02      3.130035000000000E-01      1.792422000000000E+02      2.659760000000000E-01     -6.673046000000000E+01      7.056580000000000E-01     -5.174023000000000E+01
4872000000.000000      5.861816000000000E-01      1.158555000000000E+02      3.116455000000000E-01      1.791719000000000E+02      2.666168000000000E-01     -6.672265000000000E+01      7.042847000000000E-01     -5.176171000000000E+01
4873000000.000000      5.808105000000000E-01      1.155742000000000E+02      3.104858000000000E-01      1.790000000000000E+02      2.663269000000000E-01     -6.647265000000000E+01      7.008667000000000E-01     -5.173242000000000E+01
4874000000.000000      5.755310000000000E-01      1.149648000000000E+02      3.092041000000000E-01      1.787969000000000E+02      2.678680000000000E-01     -6.648438000000000E+01      6.997070000000000E-01     -5.160742000000000E+01
4875000000.000000      5.713196000000000E-01      1.145156000000000E+02      3.079529000000000E-01      1.787656000000000E+02      2.678986000000000E-01     -6.634375000000000E+01      6.974487000000000E-01     -5.177148000000000E+01
4876000000.000000      5.670776000000000E-01      1.140898000000000E+02      3.068237000000000E-01      1.785547000000000E+02      2.666321000000000E-01     -6.621484000000000E+01      6.963806000000000E-01     -5.194530000000000E+01
4877000000.000000      5.590515000000000E-01      1.135430000000000E+02      3.058624000000000E-01      1.785625000000000E+02      2.677002000000000E-01     -6.617969000000000E+01      6.929932000000000E-01     -5.179882000000000E+01
4878000000.000000      5.555115000000000E-01      1.130273000000000E+02      3.051910000000000E-01      1.784062000000000E+02      2.673645000000000E-01     -6.596874000000000E+01      6.922913000000000E-01     -5.186328000000000E+01
4879000000.000000      5.510559000000000E-01      1.125117000000000E+02      3.031769000000000E-01      1.784609000000000E+02      2.675476000000000E-01     -6.598827000000000E+01      6.893921000000000E-01     -5.174805000000000E+01
4880000000.000000      5.463867000000000E-01      1.119922000000000E+02      3.021851000000000E-01      1.782109000000000E+02      2.677307000000000E-01     -6.582812000000000E+01      6.876221000000000E-01     -5.174023000000000E+01
4881000000.000000      5.421143000000000E-01      1.114609000000000E+02      3.016205000000000E-01      1.783359000000000E+02      2.676544000000000E-01     -6.598046000000000E+01      6.864319000000000E-01     -5.171288000000000E+01
4882000000.000000      5.374756000000000E-01      1.108008000000000E+02      3.008118000000000E-01      1.781328000000000E+02      2.678986000000000E-01     -6.580859000000000E+01      6.826782000000000E-01     -5.166797000000000E+01
