! Network Analyzer HP8722D
! Hewlett-Packard
! Data name: Linha & Wilkinson
! Saver's name: Rodrigo Anjos
! Comments: Teste da utilização de aquisição
continua pelo VNA HP8722D
! Time and date: 6/5/2025 13:40
!              Frequency                     S11                                                   S21                                                   S12                                                   S22
# HZ  S  MA R 50
4800000000.000000      4.974976000000000E-01     -1.683359000000000E+02      2.527618000000000E-01     -1.986133000000000E+01      2.496643000000000E-01     -1.411172000000000E+02      6.484680000000000E-01     -8.027735000000000E+01
4801000000.000000      4.989624000000000E-01     -1.684219000000000E+02      2.570038000000000E-01     -2.010547000000000E+01      2.526703000000000E-01     -1.412500000000000E+02      6.476746000000000E-01     -8.005077000000000E+01
4802000000.000000      5.001831000000000E-01     -1.684375000000000E+02      2.611694000000000E-01     -2.015039000000000E+01      2.573547000000000E-01     -1.411641000000000E+02      6.444702000000000E-01     -7.975780000000000E+01
4803000000.000000      5.010986000000000E-01     -1.685390000000000E+02      2.658234000000000E-01     -2.058496000000000E+01      2.605286000000000E-01     -1.413359000000000E+02      6.437988000000000E-01     -7.968750000000000E+01
4804000000.000000      5.039368000000000E-01     -1.685469000000000E+02      2.692719000000000E-01     -2.085547000000000E+01      2.640686000000000E-01     -1.414063000000000E+02      6.442871000000000E-01     -7.945313000000000E+01
4805000000.000000      5.067444000000000E-01     -1.686094000000000E+02      2.733307000000000E-01     -2.114746000000000E+01      2.681274000000000E-01     -1.414063000000000E+02      6.435852000000000E-01     -7.922265000000000E+01
4806000000.000000      5.081787000000000E-01     -1.685547000000000E+02      2.777100000000000E-01     -2.144043000000000E+01      2.708893000000000E-01     -1.414219000000000E+02      6.441345000000000E-01     -7.904297000000000E+01
4807000000.000000      5.111084000000000E-01     -1.684922000000000E+02      2.814789000000000E-01     -2.182519000000000E+01      2.751160000000000E-01     -1.417109000000000E+02      6.429138000000000E-01     -7.883594000000000E+01
4808000000.000000      5.137634000000000E-01     -1.684766000000000E+02      2.860107000000000E-01     -2.201660000000000E+01      2.780457000000000E-01     -1.418203000000000E+02      6.428528000000000E-01     -7.860156000000000E+01
4809000000.000000      5.158997000000000E-01     -1.685000000000000E+02      2.896423000000000E-01     -2.253516000000000E+01      2.821045000000000E-01     -1.419688000000000E+02      6.441345000000000E-01     -7.842968000000000E+01
4810000000.000000      5.189514000000000E-01     -1.685234000000000E+02      2.934723000000000E-01     -2.275977000000000E+01      2.856293000000000E-01     -1.420469000000000E+02      6.437378000000000E-01     -7.829687000000000E+01
4811000000.000000      5.222778000000000E-01     -1.685078000000000E+02      2.970734000000000E-01     -2.333398000000000E+01      2.895050000000000E-01     -1.421641000000000E+02      6.443481000000000E-01     -7.794140000000000E+01
4812000000.000000      5.267639000000000E-01     -1.683828000000000E+02      3.007355000000000E-01     -2.364551000000000E+01      2.925720000000000E-01     -1.422344000000000E+02      6.446838000000000E-01     -7.786718000000000E+01
4813000000.000000      5.287781000000000E-01     -1.683672000000000E+02      3.049164000000000E-01     -2.398633000000000E+01      2.954559000000000E-01     -1.421953000000000E+02      6.463623000000000E-01     -7.760937000000000E+01
4814000000.000000      5.314636000000000E-01     -1.684297000000000E+02      3.077545000000000E-01     -2.433398000000000E+01      2.985382000000000E-01     -1.425390000000000E+02      6.468506000000000E-01     -7.745703000000000E+01
4815000000.000000      5.355835000000000E-01     -1.682266000000000E+02      3.116760000000000E-01     -2.478516000000000E+01      3.014984000000000E-01     -1.427578000000000E+02      6.470032000000000E-01     -7.719921000000000E+01
4816000000.000000      5.405579000000000E-01     -1.681328000000000E+02      3.155518000000000E-01     -2.517675000000000E+01      3.059387000000000E-01     -1.428125000000000E+02      6.489868000000000E-01     -7.698437000000000E+01
4817000000.000000      5.447083000000000E-01     -1.681015000000000E+02      3.189087000000000E-01     -2.572754000000000E+01      3.077545000000000E-01     -1.430234000000000E+02      6.496277000000000E-01     -7.691015000000000E+01
4818000000.000000      5.480652000000000E-01     -1.680234000000000E+02      3.222046000000000E-01     -2.612890000000000E+01      3.113403000000000E-01     -1.431328000000000E+02      6.507263000000000E-01     -7.672265000000000E+01
4819000000.000000      5.536804000000000E-01     -1.680000000000000E+02      3.253784000000000E-01     -2.658691000000000E+01      3.142548000000000E-01     -1.434844000000000E+02      6.534119000000000E-01     -7.662890000000000E+01
4820000000.000000      5.560913000000000E-01     -1.678828000000000E+02      3.288574000000000E-01     -2.696484000000000E+01      3.173065000000000E-01     -1.435000000000000E+02      6.552429000000000E-01     -7.640625000000000E+01
4821000000.000000      5.620422000000000E-01     -1.678359000000000E+02      3.332367000000000E-01     -2.745898000000000E+01      3.203888000000000E-01     -1.439141000000000E+02      6.564941000000000E-01     -7.628906000000000E+01
4822000000.000000      5.682373000000000E-01     -1.677187000000000E+02      3.351135000000000E-01     -2.799805000000000E+01      3.227539000000000E-01     -1.440469000000000E+02      6.599121000000000E-01     -7.612499000000000E+01
4823000000.000000      5.718689000000000E-01     -1.676250000000000E+02      3.388367000000000E-01     -2.844922000000000E+01      3.256683000000000E-01     -1.440000000000000E+02      6.607361000000000E-01     -7.601953000000000E+01
4824000000.000000      5.785828000000000E-01     -1.675781000000000E+02      3.422241000000000E-01     -2.908398000000000E+01      3.289948000000000E-01     -1.444453000000000E+02      6.638489000000000E-01     -7.587891000000000E+01
4825000000.000000      5.826416000000000E-01     -1.675547000000000E+02      3.443604000000000E-01     -2.946582000000000E+01      3.316040000000000E-01     -1.445937000000000E+02      6.654663000000000E-01     -7.575781000000000E+01
4826000000.000000      5.891418000000000E-01     -1.673828000000000E+02      3.475494000000000E-01     -3.002441000000000E+01      3.333588000000000E-01     -1.447656000000000E+02      6.691284000000000E-01     -7.564453000000000E+01
4827000000.000000      5.948792000000000E-01     -1.672344000000000E+02      3.503723000000000E-01     -3.043554000000000E+01      3.354950000000000E-01     -1.448984000000000E+02      6.714478000000000E-01     -7.546484000000000E+01
4828000000.000000      6.009216000000000E-01     -1.671719000000000E+02      3.533783000000000E-01     -3.096680000000000E+01      3.389893000000000E-01     -1.451797000000000E+02      6.752014000000000E-01     -7.535156000000000E+01
4829000000.000000      6.053772000000000E-01     -1.670859000000000E+02      3.557434000000000E-01     -3.144336000000000E+01      3.418579000000000E-01     -1.453984000000000E+02      6.782837000000000E-01     -7.532031000000000E+01
4830000000.000000      6.120911000000000E-01     -1.670391000000000E+02      3.583527000000000E-01     -3.213281000000000E+01      3.436432000000000E-01     -1.454766000000000E+02      6.805420000000000E-01     -7.518359000000000E+01
4831000000.000000      6.177673000000000E-01     -1.668828000000000E+02      3.615112000000000E-01     -3.258984000000000E+01      3.468170000000000E-01     -1.456484000000000E+02      6.838379000000000E-01     -7.510547000000000E+01
4832000000.000000      6.259460000000000E-01     -1.668594000000000E+02      3.641357000000000E-01     -3.323828000000000E+01      3.489075000000000E-01     -1.458594000000000E+02      6.863708000000000E-01     -7.510547000000000E+01
4833000000.000000      6.322937000000000E-01     -1.668828000000000E+02      3.657990000000000E-01     -3.362305000000000E+01      3.505402000000000E-01     -1.461406000000000E+02      6.900940000000000E-01     -7.506640000000000E+01
4834000000.000000      6.383057000000000E-01     -1.667031000000000E+02      3.683319000000000E-01     -3.408789000000000E+01      3.525238000000000E-01     -1.463125000000000E+02      6.932373000000000E-01     -7.493750000000000E+01
4835000000.000000      6.449280000000000E-01     -1.666563000000000E+02      3.701477000000000E-01     -3.475390000000000E+01      3.557129000000000E-01     -1.464766000000000E+02      6.973877000000000E-01     -7.486328000000000E+01
4836000000.000000      6.525269000000000E-01     -1.665390000000000E+02      3.719635000000000E-01     -3.529492000000000E+01      3.577576000000000E-01     -1.467031000000000E+02      7.008972000000000E-01     -7.484765000000000E+01
4837000000.000000      6.590881000000000E-01     -1.664297000000000E+02      3.740387000000000E-01     -3.603711000000000E+01      3.601685000000000E-01     -1.470469000000000E+02      7.041321000000000E-01     -7.478125000000000E+01
4838000000.000000      6.659241000000000E-01     -1.664687000000000E+02      3.771362000000000E-01     -3.629101000000000E+01      3.618011000000000E-01     -1.470781000000000E+02      7.077026000000000E-01     -7.469140000000000E+01
4839000000.000000      6.733398000000000E-01     -1.663125000000000E+02      3.776245000000000E-01     -3.688672000000000E+01      3.639526000000000E-01     -1.473359000000000E+02      7.125244000000000E-01     -7.466406000000000E+01
4840000000.000000      6.794739000000000E-01     -1.663594000000000E+02      3.787994000000000E-01     -3.749414000000000E+01      3.657532000000000E-01     -1.475312000000000E+02      7.156677000000000E-01     -7.478906000000000E+01
4841000000.000000      6.870117000000000E-01     -1.663437000000000E+02      3.810730000000000E-01     -3.823828000000000E+01      3.686218000000000E-01     -1.478672000000000E+02      7.210693000000000E-01     -7.461328000000000E+01
4842000000.000000      6.943054000000000E-01     -1.661953000000000E+02      3.826447000000000E-01     -3.866992000000000E+01      3.683929000000000E-01     -1.478750000000000E+02      7.252197000000000E-01     -7.463672000000000E+01
4843000000.000000      7.001343000000000E-01     -1.662344000000000E+02      3.838196000000000E-01     -3.938086000000000E+01      3.717194000000000E-01     -1.480703000000000E+02      7.285156000000000E-01     -7.459374000000000E+01
4844000000.000000      7.070618000000000E-01     -1.662109000000000E+02      3.836212000000000E-01     -3.965820000000000E+01      3.725281000000000E-01     -1.482812000000000E+02      7.336426000000000E-01     -7.460546000000000E+01
4845000000.000000      7.138367000000000E-01     -1.661797000000000E+02      3.848724000000000E-01     -4.032422000000000E+01      3.748169000000000E-01     -1.484141000000000E+02      7.375488000000000E-01     -7.455859000000000E+01
4846000000.000000      7.216187000000000E-01     -1.661016000000000E+02      3.868866000000000E-01     -4.094336000000000E+01      3.768768000000000E-01     -1.485937000000000E+02      7.423096000000000E-01     -7.451562000000000E+01
4847000000.000000      7.295532000000000E-01     -1.660781000000000E+02      3.862152000000000E-01     -4.141797000000000E+01      3.781586000000000E-01     -1.488437000000000E+02      7.475891000000000E-01     -7.467968000000000E+01
4848000000.000000      7.372437000000000E-01     -1.660234000000000E+02      3.880768000000000E-01     -4.200585000000000E+01      3.793488000000000E-01     -1.490391000000000E+02      7.500610000000000E-01     -7.464453000000000E+01
4849000000.000000      7.433167000000000E-01     -1.662812000000000E+02      3.887634000000000E-01     -4.245507000000000E+01      3.812866000000000E-01     -1.492656000000000E+02      7.551270000000000E-01     -7.453125000000000E+01
4850000000.000000      7.514648000000000E-01     -1.660312000000000E+02      3.886719000000000E-01     -4.298437000000000E+01      3.827515000000000E-01     -1.493515000000000E+02      7.586365000000000E-01     -7.458593000000000E+01
4851000000.000000      7.578125000000000E-01     -1.659765000000000E+02      3.901520000000000E-01     -4.369141000000000E+01      3.844452000000000E-01     -1.495781000000000E+02      7.654419000000000E-01     -7.462500000000000E+01
4852000000.000000      7.646484000000000E-01     -1.660859000000000E+02      3.899384000000000E-01     -4.417578000000000E+01      3.864136000000000E-01     -1.496562000000000E+02      7.698975000000000E-01     -7.463672000000000E+01
4853000000.000000      7.717896000000000E-01     -1.659922000000000E+02      3.888092000000000E-01     -4.463476000000000E+01      3.872833000000000E-01     -1.498750000000000E+02      7.739258000000000E-01     -7.476563000000000E+01
4854000000.000000      7.775879000000000E-01     -1.660234000000000E+02      3.905640000000000E-01     -4.509375000000000E+01      3.886566000000000E-01     -1.501328000000000E+02      7.793579000000000E-01     -7.480469000000000E+01
4855000000.000000      7.824402000000000E-01     -1.660625000000000E+02      3.890839000000000E-01     -4.567383000000000E+01      3.895721000000000E-01     -1.501406000000000E+02      7.832031000000000E-01     -7.472656000000000E+01
4856000000.000000      7.916260000000000E-01     -1.659844000000000E+02      3.893890000000000E-01     -4.607617000000000E+01      3.912354000000000E-01     -1.505156000000000E+02      7.893982000000000E-01     -7.478516000000000E+01
4857000000.000000      7.973328000000000E-01     -1.660625000000000E+02      3.898621000000000E-01     -4.675000000000000E+01      3.927002000000000E-01     -1.505156000000000E+02      7.923584000000000E-01     -7.485546000000000E+01
4858000000.000000      8.001404000000000E-01     -1.661797000000000E+02      3.895416000000000E-01     -4.711133000000000E+01      3.934174000000000E-01     -1.507187000000000E+02      7.972717000000000E-01     -7.496484000000000E+01
4859000000.000000      8.071594000000000E-01     -1.660938000000000E+02      3.896332000000000E-01     -4.760938000000000E+01      3.949738000000000E-01     -1.510313000000000E+02      8.038025000000000E-01     -7.496094000000000E+01
4860000000.000000      8.160706000000000E-01     -1.661562000000000E+02      3.888245000000000E-01     -4.803124000000000E+01      3.953247000000000E-01     -1.510469000000000E+02      8.077393000000000E-01     -7.503515000000000E+01
4861000000.000000      8.205872000000000E-01     -1.659219000000000E+02      3.878784000000000E-01     -4.856250000000000E+01      3.969727000000000E-01     -1.512578000000000E+02      8.128052000000000E-01     -7.508594000000000E+01
4862000000.000000      8.242188000000000E-01     -1.661641000000000E+02      3.879852000000000E-01     -4.888085000000000E+01      3.982391000000000E-01     -1.514062000000000E+02      8.183289000000000E-01     -7.509375000000000E+01
4863000000.000000      8.309631000000000E-01     -1.659844000000000E+02      3.866272000000000E-01     -4.950195000000000E+01      4.000854000000000E-01     -1.515625000000000E+02      8.226624000000000E-01     -7.520702000000000E+01
4864000000.000000      8.370361000000000E-01     -1.660625000000000E+02      3.857117000000000E-01     -4.970117000000000E+01      3.990631000000000E-01     -1.517344000000000E+02      8.265991000000000E-01     -7.539453000000000E+01
4865000000.000000      8.392639000000000E-01     -1.661719000000000E+02      3.843994000000000E-01     -5.024609000000000E+01      4.004669000000000E-01     -1.519453000000000E+02      8.343506000000000E-01     -7.525781000000000E+01
4866000000.000000      8.428345000000000E-01     -1.661016000000000E+02      3.836517000000000E-01     -5.053711000000000E+01      4.016724000000000E-01     -1.521094000000000E+02      8.387146000000000E-01     -7.537499000000000E+01
4867000000.000000      8.480530000000000E-01     -1.658984000000000E+02      3.835754000000000E-01     -5.106640000000000E+01      4.022064000000000E-01     -1.522266000000000E+02      8.419800000000000E-01     -7.546484000000000E+01
4868000000.000000      8.539124000000000E-01     -1.662266000000000E+02      3.815002000000000E-01     -5.145898000000000E+01      4.036102000000000E-01     -1.524765000000000E+02      8.466797000000000E-01     -7.560547000000000E+01
4869000000.000000      8.570251000000000E-01     -1.661328000000000E+02      3.810272000000000E-01     -5.176367000000000E+01      4.041901000000000E-01     -1.525781000000000E+02      8.521729000000000E-01     -7.580078000000000E+01
4870000000.000000      8.612671000000000E-01     -1.662266000000000E+02      3.794403000000000E-01     -5.202343000000000E+01      4.042969000000000E-01     -1.528672000000000E+02      8.574219000000000E-01     -7.580468000000000E+01
4871000000.000000      8.672791000000000E-01     -1.660859000000000E+02      3.787079000000000E-01     -5.241015000000000E+01      4.045258000000000E-01     -1.530391000000000E+02      8.603516000000000E-01     -7.596093000000000E+01
4872000000.000000      8.700256000000000E-01     -1.660469000000000E+02      3.756561000000000E-01     -5.267578000000000E+01      4.053650000000000E-01     -1.532969000000000E+02      8.656311000000000E-01     -7.607031000000000E+01
4873000000.000000      8.708496000000000E-01     -1.657969000000000E+02      3.754578000000000E-01     -5.311523000000000E+01      4.049683000000000E-01     -1.532578000000000E+02      8.698730000000000E-01     -7.623828000000000E+01
4874000000.000000      8.773804000000000E-01     -1.658516000000000E+02      3.741302000000000E-01     -5.341015000000000E+01      4.069061000000000E-01     -1.534062000000000E+02      8.743591000000000E-01     -7.613281000000000E+01
4875000000.000000      8.796692000000000E-01     -1.660547000000000E+02      3.721771000000000E-01     -5.356445000000000E+01      4.069977000000000E-01     -1.537891000000000E+02      8.786621000000000E-01     -7.637109000000000E+01
4876000000.000000      8.815308000000000E-01     -1.658828000000000E+02      3.714294000000000E-01     -5.391992000000000E+01      4.062347000000000E-01     -1.538281000000000E+02      8.832397000000000E-01     -7.654687000000000E+01
4877000000.000000      8.858032000000000E-01     -1.658281000000000E+02      3.694611000000000E-01     -5.404882000000000E+01      4.073639000000000E-01     -1.540625000000000E+02      8.878784000000000E-01     -7.665625000000000E+01
4878000000.000000      8.878174000000000E-01     -1.657422000000000E+02      3.693848000000000E-01     -5.432422000000000E+01      4.071350000000000E-01     -1.540859000000000E+02      8.916931000000000E-01     -7.673828000000000E+01
4879000000.000000      8.906860000000000E-01     -1.656875000000000E+02      3.665619000000000E-01     -5.446094000000000E+01      4.070282000000000E-01     -1.543203000000000E+02      8.953247000000000E-01     -7.675781000000000E+01
4880000000.000000      8.904419000000000E-01     -1.656875000000000E+02      3.651733000000000E-01     -5.470117000000000E+01      4.075012000000000E-01     -1.544062000000000E+02      8.995056000000000E-01     -7.686328000000000E+01
4881000000.000000      8.949280000000000E-01     -1.655469000000000E+02      3.649139000000000E-01     -5.485937000000000E+01      4.074402000000000E-01     -1.546484000000000E+02      9.041748000000000E-01     -7.695313000000000E+01
4882000000.000000      8.928833000000000E-01     -1.655000000000000E+02      3.630066000000000E-01     -5.514062000000000E+01      4.076233000000000E-01     -1.546797000000000E+02      9.060059000000000E-01     -7.714062000000000E+01
