! Network Analyzer HP8722D
! Hewlett-Packard
! Data name: Linha & Wilkinson
! Saver's name: Rodrigo Anjos
! Comments: Teste da utilização de aquisição
continua pelo VNA HP8722D
! Time and date: 6/5/2025 15:12
!              Frequency                     S11                                                   S21                                                   S12                                                   S22
# HZ  S  MA R 50
4800000000.000000      4.970703000000000E-01     -1.681641000000000E+02      2.513885000000000E-01     -1.970019000000000E+01      2.484665000000000E-01     -1.408281000000000E+02      6.472168000000000E-01     -8.037109000000000E+01
4801000000.000000      4.981689000000000E-01     -1.682891000000000E+02      2.557526000000000E-01     -1.987890000000000E+01      2.516785000000000E-01     -1.408203000000000E+02      6.465759000000000E-01     -8.013281000000000E+01
4802000000.000000      4.987946000000000E-01     -1.682891000000000E+02      2.592621000000000E-01     -1.999414000000000E+01      2.556000000000000E-01     -1.408437000000000E+02      6.448059000000000E-01     -7.979687000000000E+01
4803000000.000000      5.006409000000000E-01     -1.683672000000000E+02      2.642059000000000E-01     -2.025683000000000E+01      2.591248000000000E-01     -1.409375000000000E+02      6.459045000000000E-01     -7.971093000000000E+01
4804000000.000000      5.030823000000000E-01     -1.682969000000000E+02      2.677155000000000E-01     -2.050879000000000E+01      2.634430000000000E-01     -1.411016000000000E+02      6.452942000000000E-01     -7.947266000000000E+01
4805000000.000000      5.056458000000000E-01     -1.684766000000000E+02      2.718811000000000E-01     -2.082520000000000E+01      2.666016000000000E-01     -1.410703000000000E+02      6.443481000000000E-01     -7.924609000000000E+01
4806000000.000000      5.071106000000000E-01     -1.683516000000000E+02      2.757111000000000E-01     -2.107910000000000E+01      2.697601000000000E-01     -1.409922000000000E+02      6.431274000000000E-01     -7.908203000000000E+01
4807000000.000000      5.100098000000000E-01     -1.683672000000000E+02      2.803192000000000E-01     -2.145703000000000E+01      2.739258000000000E-01     -1.413516000000000E+02      6.442566000000000E-01     -7.881640000000000E+01
4808000000.000000      5.127563000000000E-01     -1.683281000000000E+02      2.839355000000000E-01     -2.165430000000000E+01      2.773743000000000E-01     -1.414375000000000E+02      6.427307000000000E-01     -7.857812000000000E+01
4809000000.000000      5.150452000000000E-01     -1.683437000000000E+02      2.883301000000000E-01     -2.230859000000000E+01      2.811890000000000E-01     -1.415937000000000E+02      6.434937000000000E-01     -7.849218000000000E+01
4810000000.000000      5.180969000000000E-01     -1.683828000000000E+02      2.919159000000000E-01     -2.241504000000000E+01      2.842560000000000E-01     -1.417187000000000E+02      6.439514000000000E-01     -7.834765000000000E+01
4811000000.000000      5.211182000000000E-01     -1.682969000000000E+02      2.961426000000000E-01     -2.291211000000000E+01      2.887268000000000E-01     -1.417500000000000E+02      6.434326000000000E-01     -7.799609000000000E+01
4812000000.000000      5.248413000000000E-01     -1.682578000000000E+02      2.998199000000000E-01     -2.326367000000000E+01      2.919464000000000E-01     -1.418828000000000E+02      6.445618000000000E-01     -7.781250000000000E+01
4813000000.000000      5.276184000000000E-01     -1.681797000000000E+02      3.032532000000000E-01     -2.369629000000000E+01      2.938995000000000E-01     -1.420312000000000E+02      6.454163000000000E-01     -7.749609000000000E+01
4814000000.000000      5.303040000000000E-01     -1.683047000000000E+02      3.071136000000000E-01     -2.413476000000000E+01      2.974854000000000E-01     -1.422656000000000E+02      6.466980000000000E-01     -7.743359000000000E+01
4815000000.000000      5.341492000000000E-01     -1.681250000000000E+02      3.105927000000000E-01     -2.449902000000000E+01      3.007355000000000E-01     -1.423594000000000E+02      6.472168000000000E-01     -7.706640000000000E+01
4816000000.000000      5.386353000000000E-01     -1.679844000000000E+02      3.145752000000000E-01     -2.471191000000000E+01      3.045959000000000E-01     -1.424609000000000E+02      6.484680000000000E-01     -7.703906000000000E+01
4817000000.000000      5.433960000000000E-01     -1.679375000000000E+02      3.177490000000000E-01     -2.535547000000000E+01      3.071747000000000E-01     -1.426797000000000E+02      6.485596000000000E-01     -7.687890000000000E+01
4818000000.000000      5.467224000000000E-01     -1.679141000000000E+02      3.207703000000000E-01     -2.575195000000000E+01      3.107452000000000E-01     -1.427656000000000E+02      6.496582000000000E-01     -7.678515000000000E+01
4819000000.000000      5.520935000000000E-01     -1.678516000000000E+02      3.251343000000000E-01     -2.612988000000000E+01      3.127136000000000E-01     -1.430781000000000E+02      6.529846000000000E-01     -7.666016000000000E+01
4820000000.000000      5.542297000000000E-01     -1.677734000000000E+02      3.277588000000000E-01     -2.666308000000000E+01      3.163757000000000E-01     -1.431953000000000E+02      6.548157000000000E-01     -7.641015000000000E+01
4821000000.000000      5.605469000000000E-01     -1.676719000000000E+02      3.314819000000000E-01     -2.706836000000000E+01      3.189545000000000E-01     -1.435156000000000E+02      6.553345000000000E-01     -7.626171000000000E+01
4822000000.000000      5.667725000000000E-01     -1.675937000000000E+02      3.342133000000000E-01     -2.754980000000000E+01      3.220367000000000E-01     -1.437422000000000E+02      6.586304000000000E-01     -7.612499000000000E+01
4823000000.000000      5.701294000000000E-01     -1.674844000000000E+02      3.381958000000000E-01     -2.795898000000000E+01      3.246307000000000E-01     -1.437109000000000E+02      6.597290000000000E-01     -7.598437000000000E+01
4824000000.000000      5.775757000000000E-01     -1.674297000000000E+02      3.414154000000000E-01     -2.882129000000000E+01      3.283234000000000E-01     -1.440234000000000E+02      6.636047000000000E-01     -7.587109000000000E+01
4825000000.000000      5.811462000000000E-01     -1.673594000000000E+02      3.437653000000000E-01     -2.901562000000000E+01      3.315125000000000E-01     -1.442969000000000E+02      6.649780000000000E-01     -7.566796000000000E+01
4826000000.000000      5.877075000000000E-01     -1.672266000000000E+02      3.467712000000000E-01     -2.957422000000000E+01      3.328094000000000E-01     -1.444766000000000E+02      6.678772000000000E-01     -7.555469000000000E+01
4827000000.000000      5.933228000000000E-01     -1.670547000000000E+02      3.499298000000000E-01     -3.000391000000000E+01      3.363342000000000E-01     -1.444687000000000E+02      6.704407000000000E-01     -7.542969000000000E+01
4828000000.000000      5.998230000000000E-01     -1.670703000000000E+02      3.533783000000000E-01     -3.061621000000000E+01      3.382416000000000E-01     -1.446953000000000E+02      6.740112000000000E-01     -7.535156000000000E+01
4829000000.000000      6.031189000000000E-01     -1.668984000000000E+02      3.548584000000000E-01     -3.117871000000000E+01      3.409119000000000E-01     -1.449844000000000E+02      6.769104000000000E-01     -7.532031000000000E+01
4830000000.000000      6.110840000000000E-01     -1.668672000000000E+02      3.577271000000000E-01     -3.164258000000000E+01      3.436432000000000E-01     -1.451484000000000E+02      6.788635000000000E-01     -7.513281000000000E+01
4831000000.000000      6.153259000000000E-01     -1.667187000000000E+02      3.603210000000000E-01     -3.217773000000000E+01      3.467102000000000E-01     -1.453516000000000E+02      6.832581000000000E-01     -7.509375000000000E+01
4832000000.000000      6.236267000000000E-01     -1.666328000000000E+02      3.635101000000000E-01     -3.281250000000000E+01      3.480530000000000E-01     -1.456250000000000E+02      6.856689000000000E-01     -7.503124000000000E+01
4833000000.000000      6.305542000000000E-01     -1.666953000000000E+02      3.658295000000000E-01     -3.327929000000000E+01      3.509674000000000E-01     -1.457578000000000E+02      6.888428000000000E-01     -7.496484000000000E+01
4834000000.000000      6.363831000000000E-01     -1.665781000000000E+02      3.671722000000000E-01     -3.390625000000000E+01      3.524933000000000E-01     -1.459297000000000E+02      6.916809000000000E-01     -7.493750000000000E+01
4835000000.000000      6.427002000000000E-01     -1.664609000000000E+02      3.690033000000000E-01     -3.433398000000000E+01      3.555603000000000E-01     -1.462578000000000E+02      6.956177000000000E-01     -7.482812000000000E+01
4836000000.000000      6.510010000000000E-01     -1.663047000000000E+02      3.715515000000000E-01     -3.479883000000000E+01      3.566589000000000E-01     -1.462812000000000E+02      6.992188000000000E-01     -7.474999000000000E+01
4837000000.000000      6.576538000000000E-01     -1.662344000000000E+02      3.734436000000000E-01     -3.564453000000000E+01      3.592377000000000E-01     -1.466953000000000E+02      7.034912000000000E-01     -7.472265000000000E+01
4838000000.000000      6.643066000000000E-01     -1.663125000000000E+02      3.757782000000000E-01     -3.605664000000000E+01      3.620605000000000E-01     -1.466719000000000E+02      7.079163000000000E-01     -7.462500000000000E+01
4839000000.000000      6.712341000000000E-01     -1.661406000000000E+02      3.768921000000000E-01     -3.651758000000000E+01      3.637390000000000E-01     -1.470391000000000E+02      7.110291000000000E-01     -7.455078000000000E+01
4840000000.000000      6.765137000000000E-01     -1.661562000000000E+02      3.784027000000000E-01     -3.703516000000000E+01      3.656769000000000E-01     -1.472031000000000E+02      7.150879000000000E-01     -7.453515000000000E+01
4841000000.000000      6.847229000000000E-01     -1.661797000000000E+02      3.804169000000000E-01     -3.779492000000000E+01      3.682251000000000E-01     -1.473750000000000E+02      7.188110000000000E-01     -7.457031000000000E+01
4842000000.000000      6.923523000000000E-01     -1.660000000000000E+02      3.822784000000000E-01     -3.834961000000000E+01      3.695374000000000E-01     -1.475391000000000E+02      7.240906000000000E-01     -7.444140000000000E+01
4843000000.000000      6.989441000000000E-01     -1.660859000000000E+02      3.829498000000000E-01     -3.894531000000000E+01      3.712769000000000E-01     -1.477031000000000E+02      7.280884000000000E-01     -7.437500000000000E+01
4844000000.000000      7.060547000000000E-01     -1.660078000000000E+02      3.843842000000000E-01     -3.940625000000000E+01      3.725281000000000E-01     -1.478594000000000E+02      7.332153000000000E-01     -7.448828000000000E+01
4845000000.000000      7.121582000000000E-01     -1.659062000000000E+02      3.854980000000000E-01     -3.997070000000000E+01      3.740997000000000E-01     -1.481172000000000E+02      7.360229000000000E-01     -7.439843000000000E+01
4846000000.000000      7.199402000000000E-01     -1.658281000000000E+02      3.858643000000000E-01     -4.039844000000000E+01      3.774414000000000E-01     -1.482969000000000E+02      7.407532000000000E-01     -7.456640000000000E+01
4847000000.000000      7.276001000000000E-01     -1.658750000000000E+02      3.871002000000000E-01     -4.105469000000000E+01      3.788147000000000E-01     -1.484766000000000E+02      7.462463000000000E-01     -7.456249000000000E+01
4848000000.000000      7.357483000000000E-01     -1.658359000000000E+02      3.871613000000000E-01     -4.146093000000000E+01      3.799896000000000E-01     -1.486484000000000E+02      7.489929000000000E-01     -7.444921000000000E+01
4849000000.000000      7.418518000000000E-01     -1.660469000000000E+02      3.887482000000000E-01     -4.219727000000000E+01      3.818054000000000E-01     -1.488594000000000E+02      7.541809000000000E-01     -7.442187000000000E+01
4850000000.000000      7.493896000000000E-01     -1.657969000000000E+02      3.896179000000000E-01     -4.262304000000000E+01      3.829956000000000E-01     -1.490000000000000E+02      7.587891000000000E-01     -7.451953000000000E+01
4851000000.000000      7.555847000000000E-01     -1.657969000000000E+02      3.896637000000000E-01     -4.324804000000000E+01      3.846436000000000E-01     -1.492109000000000E+02      7.641907000000000E-01     -7.451172000000000E+01
4852000000.000000      7.632141000000000E-01     -1.657891000000000E+02      3.902283000000000E-01     -4.366796000000000E+01      3.867035000000000E-01     -1.492969000000000E+02      7.679138000000000E-01     -7.452734000000000E+01
4853000000.000000      7.693787000000000E-01     -1.658594000000000E+02      3.896790000000000E-01     -4.425977000000000E+01      3.885803000000000E-01     -1.496016000000000E+02      7.728577000000000E-01     -7.470703000000000E+01
4854000000.000000      7.763977000000000E-01     -1.658047000000000E+02      3.910217000000000E-01     -4.480664000000000E+01      3.889618000000000E-01     -1.497187000000000E+02      7.779236000000000E-01     -7.466797000000000E+01
4855000000.000000      7.815552000000000E-01     -1.658594000000000E+02      3.894958000000000E-01     -4.527734000000000E+01      3.898926000000000E-01     -1.498047000000000E+02      7.820435000000000E-01     -7.462891000000000E+01
4856000000.000000      7.893677000000000E-01     -1.657422000000000E+02      3.902588000000000E-01     -4.574804000000000E+01      3.917542000000000E-01     -1.500078000000000E+02      7.890015000000000E-01     -7.472656000000000E+01
4857000000.000000      7.952271000000000E-01     -1.658359000000000E+02      3.898773000000000E-01     -4.637695000000000E+01      3.924103000000000E-01     -1.501406000000000E+02      7.916565000000000E-01     -7.476953000000000E+01
4858000000.000000      7.994080000000000E-01     -1.658516000000000E+02      3.893890000000000E-01     -4.685156000000000E+01      3.934937000000000E-01     -1.504531000000000E+02      7.972412000000000E-01     -7.484375000000000E+01
4859000000.000000      8.055115000000000E-01     -1.658203000000000E+02      3.893433000000000E-01     -4.731445000000000E+01      3.955688000000000E-01     -1.506562000000000E+02      8.036499000000000E-01     -7.487890000000000E+01
4860000000.000000      8.128357000000000E-01     -1.657500000000000E+02      3.892975000000000E-01     -4.759179000000000E+01      3.964233000000000E-01     -1.507344000000000E+02      8.073425000000000E-01     -7.491405000000000E+01
4861000000.000000      8.196106000000000E-01     -1.657578000000000E+02      3.878784000000000E-01     -4.827538000000000E+01      3.973846000000000E-01     -1.509375000000000E+02      8.121033000000000E-01     -7.507421000000000E+01
4862000000.000000      8.234253000000000E-01     -1.659609000000000E+02      3.890228000000000E-01     -4.859765000000000E+01      3.993378000000000E-01     -1.510859000000000E+02      8.182983000000000E-01     -7.499218000000000E+01
4863000000.000000      8.312988000000000E-01     -1.658203000000000E+02      3.865356000000000E-01     -4.923242000000000E+01      4.001007000000000E-01     -1.512578000000000E+02      8.218994000000000E-01     -7.507030000000000E+01
4864000000.000000      8.344727000000000E-01     -1.658828000000000E+02      3.856659000000000E-01     -4.942773000000000E+01      3.998871000000000E-01     -1.513594000000000E+02      8.266296000000000E-01     -7.518359000000000E+01
4865000000.000000      8.382874000000000E-01     -1.659531000000000E+02      3.851624000000000E-01     -4.983984000000000E+01      4.010468000000000E-01     -1.516250000000000E+02      8.338318000000000E-01     -7.520312000000000E+01
4866000000.000000      8.418579000000000E-01     -1.658359000000000E+02      3.834534000000000E-01     -5.029491000000000E+01      4.020691000000000E-01     -1.517812000000000E+02      8.369751000000000E-01     -7.523828000000000E+01
4867000000.000000      8.474426000000000E-01     -1.658437000000000E+02      3.839111000000000E-01     -5.075781000000000E+01      4.027863000000000E-01     -1.518984000000000E+02      8.434448000000000E-01     -7.542187000000000E+01
4868000000.000000      8.523560000000000E-01     -1.658906000000000E+02      3.821106000000000E-01     -5.102929000000000E+01      4.042206000000000E-01     -1.520313000000000E+02      8.463745000000000E-01     -7.538671000000000E+01
4869000000.000000      8.554077000000000E-01     -1.658047000000000E+02      3.802643000000000E-01     -5.142187000000000E+01      4.043732000000000E-01     -1.523047000000000E+02      8.511963000000000E-01     -7.560547000000000E+01
4870000000.000000      8.620911000000000E-01     -1.658516000000000E+02      3.795471000000000E-01     -5.167578000000000E+01      4.056091000000000E-01     -1.525234000000000E+02      8.557434000000000E-01     -7.557422000000000E+01
4871000000.000000      8.661499000000000E-01     -1.656641000000000E+02      3.788757000000000E-01     -5.220898000000000E+01      4.050293000000000E-01     -1.526406000000000E+02      8.608704000000000E-01     -7.580078000000000E+01
4872000000.000000      8.718262000000000E-01     -1.659219000000000E+02      3.766022000000000E-01     -5.228710000000000E+01      4.060974000000000E-01     -1.529844000000000E+02      8.662109000000000E-01     -7.601171000000000E+01
4873000000.000000      8.715820000000000E-01     -1.656953000000000E+02      3.750458000000000E-01     -5.273438000000000E+01      4.059143000000000E-01     -1.530078000000000E+02      8.697510000000000E-01     -7.601563000000000E+01
4874000000.000000      8.754578000000000E-01     -1.656563000000000E+02      3.741913000000000E-01     -5.309179000000000E+01      4.078827000000000E-01     -1.531094000000000E+02      8.736877000000000E-01     -7.587500000000000E+01
4875000000.000000      8.799744000000000E-01     -1.657578000000000E+02      3.732452000000000E-01     -5.328125000000000E+01      4.072113000000000E-01     -1.534062000000000E+02      8.782654000000000E-01     -7.624218000000000E+01
4876000000.000000      8.811951000000000E-01     -1.655859000000000E+02      3.713837000000000E-01     -5.370117000000000E+01      4.069824000000000E-01     -1.535547000000000E+02      8.821411000000000E-01     -7.638672000000000E+01
4877000000.000000      8.819580000000000E-01     -1.656172000000000E+02      3.702545000000000E-01     -5.384179000000000E+01      4.078369000000000E-01     -1.537344000000000E+02      8.856201000000000E-01     -7.648046000000000E+01
4878000000.000000      8.856812000000000E-01     -1.653359000000000E+02      3.694153000000000E-01     -5.404297000000000E+01      4.078827000000000E-01     -1.537812000000000E+02      8.913879000000000E-01     -7.664844000000000E+01
4879000000.000000      8.887939000000000E-01     -1.655000000000000E+02      3.669281000000000E-01     -5.421875000000000E+01      4.079437000000000E-01     -1.539766000000000E+02      8.940430000000000E-01     -7.660546000000000E+01
4880000000.000000      8.907776000000000E-01     -1.654922000000000E+02      3.659210000000000E-01     -5.454492000000000E+01      4.087067000000000E-01     -1.540547000000000E+02      8.990173000000000E-01     -7.668750000000000E+01
4881000000.000000      8.948669000000000E-01     -1.652891000000000E+02      3.652344000000000E-01     -5.460351000000000E+01      4.085236000000000E-01     -1.542812000000000E+02      9.027405000000000E-01     -7.683984000000000E+01
4882000000.000000      8.923645000000000E-01     -1.653047000000000E+02      3.632965000000000E-01     -5.480078000000000E+01      4.084320000000000E-01     -1.544297000000000E+02      9.067078000000000E-01     -7.698437000000000E+01
