! Network Analyzer HP8722D
! Hewlett-Packard
! Data name: Linha & Wilkinson
! Saver's name: Rodrigo Anjos
! Comments: Teste da utilização de aquisição
continua pelo VNA HP8722D
! Time and date: 6/5/2025 13:37
!              Frequency                     S11                                                   S21                                                   S12                                                   S22
# HZ  S  MA R 50
4800000000.000000      4.980011000000000E-01     -1.683437000000000E+02      2.532349000000000E-01     -1.989941000000000E+01      2.494202000000000E-01     -1.411797000000000E+02      6.478577000000000E-01     -8.044140000000000E+01
4801000000.000000      4.990845000000000E-01     -1.684375000000000E+02      2.573853000000000E-01     -2.014941000000000E+01      2.531891000000000E-01     -1.411172000000000E+02      6.477356000000000E-01     -8.000780000000000E+01
4802000000.000000      4.998474000000000E-01     -1.685313000000000E+02      2.612000000000000E-01     -2.027442000000000E+01      2.570801000000000E-01     -1.411250000000000E+02      6.455078000000000E-01     -7.973827000000000E+01
4803000000.000000      5.024414000000000E-01     -1.685547000000000E+02      2.660217000000000E-01     -2.057422000000000E+01      2.607422000000000E-01     -1.412734000000000E+02      6.446228000000000E-01     -7.960938000000000E+01
4804000000.000000      5.039673000000000E-01     -1.685390000000000E+02      2.698669000000000E-01     -2.085938000000000E+01      2.644501000000000E-01     -1.414766000000000E+02      6.442261000000000E-01     -7.939843000000000E+01
4805000000.000000      5.064697000000000E-01     -1.685703000000000E+02      2.738495000000000E-01     -2.117480000000000E+01      2.678070000000000E-01     -1.415313000000000E+02      6.441345000000000E-01     -7.919922000000000E+01
4806000000.000000      5.077820000000000E-01     -1.684922000000000E+02      2.778473000000000E-01     -2.143652000000000E+01      2.709045000000000E-01     -1.414375000000000E+02      6.444092000000000E-01     -7.913671000000000E+01
4807000000.000000      5.116272000000000E-01     -1.685313000000000E+02      2.820587000000000E-01     -2.171484000000000E+01      2.749939000000000E-01     -1.417656000000000E+02      6.438904000000000E-01     -7.878906000000000E+01
4808000000.000000      5.137634000000000E-01     -1.685156000000000E+02      2.865601000000000E-01     -2.195899000000000E+01      2.782593000000000E-01     -1.417578000000000E+02      6.432190000000000E-01     -7.851953000000000E+01
4809000000.000000      5.162659000000000E-01     -1.685156000000000E+02      2.894440000000000E-01     -2.267188000000000E+01      2.819214000000000E-01     -1.419766000000000E+02      6.432800000000000E-01     -7.840625000000000E+01
4810000000.000000      5.191040000000000E-01     -1.684922000000000E+02      2.933807000000000E-01     -2.283691000000000E+01      2.853851000000000E-01     -1.420938000000000E+02      6.434326000000000E-01     -7.827734000000000E+01
4811000000.000000      5.227051000000000E-01     -1.684766000000000E+02      2.972717000000000E-01     -2.325976000000000E+01      2.899628000000000E-01     -1.421172000000000E+02      6.440125000000000E-01     -7.789453000000000E+01
4812000000.000000      5.260010000000000E-01     -1.684375000000000E+02      3.011169000000000E-01     -2.362891000000000E+01      2.925262000000000E-01     -1.422734000000000E+02      6.451111000000000E-01     -7.782031000000000E+01
4813000000.000000      5.289001000000000E-01     -1.683281000000000E+02      3.045959000000000E-01     -2.399316000000000E+01      2.957458000000000E-01     -1.423828000000000E+02      6.457825000000000E-01     -7.754296000000000E+01
4814000000.000000      5.315247000000000E-01     -1.684141000000000E+02      3.080750000000000E-01     -2.437793000000000E+01      2.986603000000000E-01     -1.426094000000000E+02      6.462708000000000E-01     -7.742188000000000E+01
4815000000.000000      5.358276000000000E-01     -1.682500000000000E+02      3.117371000000000E-01     -2.492969000000000E+01      3.018951000000000E-01     -1.426641000000000E+02      6.470947000000000E-01     -7.720312000000000E+01
4816000000.000000      5.398560000000000E-01     -1.681406000000000E+02      3.160553000000000E-01     -2.505762000000000E+01      3.053741000000000E-01     -1.428906000000000E+02      6.483459000000000E-01     -7.700000000000000E+01
4817000000.000000      5.449829000000000E-01     -1.680938000000000E+02      3.192749000000000E-01     -2.569629000000000E+01      3.086853000000000E-01     -1.431406000000000E+02      6.489868000000000E-01     -7.691015000000000E+01
4818000000.000000      5.478821000000000E-01     -1.681250000000000E+02      3.225250000000000E-01     -2.609863000000000E+01      3.122559000000000E-01     -1.432812000000000E+02      6.515198000000000E-01     -7.673046000000000E+01
4819000000.000000      5.536804000000000E-01     -1.680391000000000E+02      3.254700000000000E-01     -2.673144000000000E+01      3.140869000000000E-01     -1.434609000000000E+02      6.546936000000000E-01     -7.662499000000000E+01
4820000000.000000      5.558167000000000E-01     -1.679453000000000E+02      3.288727000000000E-01     -2.696875000000000E+01      3.177795000000000E-01     -1.436016000000000E+02      6.555176000000000E-01     -7.640234000000000E+01
4821000000.000000      5.619202000000000E-01     -1.678203000000000E+02      3.324127000000000E-01     -2.748926000000000E+01      3.204498000000000E-01     -1.438750000000000E+02      6.558533000000000E-01     -7.632813000000000E+01
4822000000.000000      5.687256000000000E-01     -1.677656000000000E+02      3.358612000000000E-01     -2.801270000000000E+01      3.224640000000000E-01     -1.439687000000000E+02      6.594238000000000E-01     -7.607031000000000E+01
4823000000.000000      5.717163000000000E-01     -1.676406000000000E+02      3.381958000000000E-01     -2.840332000000000E+01      3.255920000000000E-01     -1.441094000000000E+02      6.608582000000000E-01     -7.595703000000000E+01
4824000000.000000      5.785522000000000E-01     -1.676250000000000E+02      3.422241000000000E-01     -2.900391000000000E+01      3.294220000000000E-01     -1.444531000000000E+02      6.630554000000000E-01     -7.587891000000000E+01
4825000000.000000      5.828552000000000E-01     -1.675000000000000E+02      3.441467000000000E-01     -2.939941000000000E+01      3.317261000000000E-01     -1.445156000000000E+02      6.659241000000000E-01     -7.570313000000000E+01
4826000000.000000      5.892639000000000E-01     -1.674062000000000E+02      3.481750000000000E-01     -3.008691000000000E+01      3.334656000000000E-01     -1.448437000000000E+02      6.687317000000000E-01     -7.571094000000000E+01
4827000000.000000      5.947571000000000E-01     -1.672344000000000E+02      3.509979000000000E-01     -3.034765000000000E+01      3.362122000000000E-01     -1.450000000000000E+02      6.713257000000000E-01     -7.553905000000000E+01
4828000000.000000      6.015625000000000E-01     -1.672656000000000E+02      3.544464000000000E-01     -3.097363000000000E+01      3.390045000000000E-01     -1.451328000000000E+02      6.751404000000000E-01     -7.541797000000000E+01
4829000000.000000      6.053772000000000E-01     -1.670625000000000E+02      3.557587000000000E-01     -3.163867000000000E+01      3.415833000000000E-01     -1.454141000000000E+02      6.774292000000000E-01     -7.523828000000000E+01
4830000000.000000      6.130981000000000E-01     -1.670312000000000E+02      3.587341000000000E-01     -3.207422000000000E+01      3.440094000000000E-01     -1.454687000000000E+02      6.805420000000000E-01     -7.526953000000000E+01
4831000000.000000      6.171265000000000E-01     -1.669531000000000E+02      3.609772000000000E-01     -3.252539000000000E+01      3.464966000000000E-01     -1.456563000000000E+02      6.839905000000000E-01     -7.521874000000000E+01
4832000000.000000      6.256104000000000E-01     -1.668437000000000E+02      3.636169000000000E-01     -3.306445000000000E+01      3.486328000000000E-01     -1.458516000000000E+02      6.870117000000000E-01     -7.507813000000000E+01
4833000000.000000      6.325989000000000E-01     -1.668359000000000E+02      3.660736000000000E-01     -3.374804000000000E+01      3.506927000000000E-01     -1.461172000000000E+02      6.902771000000000E-01     -7.496875000000000E+01
4834000000.000000      6.384583000000000E-01     -1.667422000000000E+02      3.688507000000000E-01     -3.415234000000000E+01      3.541718000000000E-01     -1.464453000000000E+02      6.931763000000000E-01     -7.491405000000000E+01
4835000000.000000      6.445007000000000E-01     -1.666797000000000E+02      3.707123000000000E-01     -3.475390000000000E+01      3.563995000000000E-01     -1.465625000000000E+02      6.979980000000000E-01     -7.487890000000000E+01
4836000000.000000      6.531677000000000E-01     -1.665390000000000E+02      3.721313000000000E-01     -3.515820000000000E+01      3.579712000000000E-01     -1.465703000000000E+02      7.007751000000000E-01     -7.481640000000000E+01
4837000000.000000      6.597290000000000E-01     -1.663906000000000E+02      3.740234000000000E-01     -3.621094000000000E+01      3.595428000000000E-01     -1.470000000000000E+02      7.044373000000000E-01     -7.473827000000000E+01
4838000000.000000      6.661682000000000E-01     -1.664844000000000E+02      3.767700000000000E-01     -3.647265000000000E+01      3.615417000000000E-01     -1.471094000000000E+02      7.086487000000000E-01     -7.472656000000000E+01
4839000000.000000      6.746521000000000E-01     -1.663828000000000E+02      3.771820000000000E-01     -3.693164000000000E+01      3.637085000000000E-01     -1.472656000000000E+02      7.128296000000000E-01     -7.471093000000000E+01
4840000000.000000      6.782837000000000E-01     -1.663516000000000E+02      3.779449000000000E-01     -3.744336000000000E+01      3.660126000000000E-01     -1.474297000000000E+02      7.171936000000000E-01     -7.464844000000000E+01
4841000000.000000      6.873779000000000E-01     -1.663594000000000E+02      3.807831000000000E-01     -3.819140000000000E+01      3.685455000000000E-01     -1.477813000000000E+02      7.208557000000000E-01     -7.466797000000000E+01
4842000000.000000      6.947327000000000E-01     -1.662969000000000E+02      3.824310000000000E-01     -3.866601000000000E+01      3.696747000000000E-01     -1.479375000000000E+02      7.257690000000000E-01     -7.454296000000000E+01
4843000000.000000      7.007141000000000E-01     -1.663281000000000E+02      3.834229000000000E-01     -3.928320000000000E+01      3.705139000000000E-01     -1.481328000000000E+02      7.292175000000000E-01     -7.469531000000000E+01
4844000000.000000      7.080383000000000E-01     -1.661797000000000E+02      3.845520000000000E-01     -3.973047000000000E+01      3.726501000000000E-01     -1.482344000000000E+02      7.338562000000000E-01     -7.462500000000000E+01
4845000000.000000      7.140808000000000E-01     -1.661328000000000E+02      3.851166000000000E-01     -4.039648000000000E+01      3.751373000000000E-01     -1.484453000000000E+02      7.374573000000000E-01     -7.455468000000000E+01
4846000000.000000      7.208252000000000E-01     -1.660469000000000E+02      3.874969000000000E-01     -4.072070000000000E+01      3.768768000000000E-01     -1.486406000000000E+02      7.423401000000000E-01     -7.450390000000000E+01
4847000000.000000      7.303162000000000E-01     -1.660547000000000E+02      3.875885000000000E-01     -4.141406000000000E+01      3.782959000000000E-01     -1.489063000000000E+02      7.473145000000000E-01     -7.458984000000000E+01
4848000000.000000      7.378235000000000E-01     -1.660547000000000E+02      3.874359000000000E-01     -4.183398000000000E+01      3.802185000000000E-01     -1.489766000000000E+02      7.504272000000000E-01     -7.464453000000000E+01
4849000000.000000      7.435303000000000E-01     -1.662656000000000E+02      3.887024000000000E-01     -4.255273000000000E+01      3.818512000000000E-01     -1.492500000000000E+02      7.558289000000000E-01     -7.457031000000000E+01
4850000000.000000      7.508545000000000E-01     -1.660859000000000E+02      3.885956000000000E-01     -4.305860000000000E+01      3.829651000000000E-01     -1.493594000000000E+02      7.598267000000000E-01     -7.463672000000000E+01
4851000000.000000      7.579346000000000E-01     -1.660312000000000E+02      3.898010000000000E-01     -4.356250000000000E+01      3.838959000000000E-01     -1.495156000000000E+02      7.656250000000000E-01     -7.460155000000000E+01
4852000000.000000      7.651672000000000E-01     -1.660625000000000E+02      3.894043000000000E-01     -4.413671000000000E+01      3.858490000000000E-01     -1.496250000000000E+02      7.705688000000000E-01     -7.467968000000000E+01
4853000000.000000      7.713928000000000E-01     -1.660312000000000E+02      3.892517000000000E-01     -4.466016000000000E+01      3.880920000000000E-01     -1.498906000000000E+02      7.748718000000000E-01     -7.482422000000000E+01
4854000000.000000      7.773743000000000E-01     -1.660703000000000E+02      3.888855000000000E-01     -4.536133000000000E+01      3.886108000000000E-01     -1.501328000000000E+02      7.803345000000000E-01     -7.474218000000000E+01
4855000000.000000      7.828369000000000E-01     -1.660391000000000E+02      3.893280000000000E-01     -4.560742000000000E+01      3.902435000000000E-01     -1.502031000000000E+02      7.838440000000000E-01     -7.472656000000000E+01
4856000000.000000      7.922058000000000E-01     -1.659609000000000E+02      3.897247000000000E-01     -4.614453000000000E+01      3.912659000000000E-01     -1.503906000000000E+02      7.891541000000000E-01     -7.476563000000000E+01
4857000000.000000      7.968750000000000E-01     -1.660859000000000E+02      3.907776000000000E-01     -4.658399000000000E+01      3.922577000000000E-01     -1.505312000000000E+02      7.933960000000000E-01     -7.489843000000000E+01
4858000000.000000      8.009644000000000E-01     -1.660859000000000E+02      3.896942000000000E-01     -4.708984000000000E+01      3.934326000000000E-01     -1.507891000000000E+02      7.973633000000000E-01     -7.491015000000000E+01
4859000000.000000      8.077087000000000E-01     -1.660859000000000E+02      3.892212000000000E-01     -4.758789000000000E+01      3.954468000000000E-01     -1.510547000000000E+02      8.052063000000000E-01     -7.507030000000000E+01
4860000000.000000      8.164673000000000E-01     -1.660469000000000E+02      3.889008000000000E-01     -4.812695000000000E+01      3.953857000000000E-01     -1.510703000000000E+02      8.083801000000000E-01     -7.494922000000000E+01
4861000000.000000      8.214722000000000E-01     -1.660312000000000E+02      3.882294000000000E-01     -4.865429000000000E+01      3.973694000000000E-01     -1.512891000000000E+02      8.120728000000000E-01     -7.510156000000000E+01
4862000000.000000      8.269043000000000E-01     -1.660781000000000E+02      3.878632000000000E-01     -4.891406000000000E+01      3.982697000000000E-01     -1.514375000000000E+02      8.183899000000000E-01     -7.519140000000000E+01
4863000000.000000      8.285828000000000E-01     -1.660469000000000E+02      3.864288000000000E-01     -4.946484000000000E+01      3.996582000000000E-01     -1.515625000000000E+02      8.230591000000000E-01     -7.514453000000000E+01
4864000000.000000      8.365784000000000E-01     -1.661016000000000E+02      3.858643000000000E-01     -4.975390000000000E+01      3.996429000000000E-01     -1.517187000000000E+02      8.269653000000000E-01     -7.534374000000000E+01
4865000000.000000      8.426208000000000E-01     -1.662109000000000E+02      3.846893000000000E-01     -5.016602000000000E+01      4.005890000000000E-01     -1.520234000000000E+02      8.329773000000000E-01     -7.529687000000000E+01
4866000000.000000      8.474121000000000E-01     -1.660938000000000E+02      3.829346000000000E-01     -5.050976000000000E+01      4.020996000000000E-01     -1.520859000000000E+02      8.370667000000000E-01     -7.546093000000000E+01
4867000000.000000      8.489075000000000E-01     -1.661641000000000E+02      3.828583000000000E-01     -5.118750000000000E+01      4.023895000000000E-01     -1.523203000000000E+02      8.428345000000000E-01     -7.549609000000000E+01
4868000000.000000      8.543396000000000E-01     -1.660547000000000E+02      3.809967000000000E-01     -5.142968000000000E+01      4.040680000000000E-01     -1.523906000000000E+02      8.475342000000000E-01     -7.553515000000000E+01
4869000000.000000      8.562012000000000E-01     -1.660078000000000E+02      3.795929000000000E-01     -5.181641000000000E+01      4.039764000000000E-01     -1.526328000000000E+02      8.533936000000000E-01     -7.574219000000000E+01
4870000000.000000      8.626404000000000E-01     -1.660469000000000E+02      3.793945000000000E-01     -5.207812000000000E+01      4.044495000000000E-01     -1.528750000000000E+02      8.573303000000000E-01     -7.580468000000000E+01
4871000000.000000      8.674011000000000E-01     -1.660781000000000E+02      3.783112000000000E-01     -5.241796000000000E+01      4.043884000000000E-01     -1.530313000000000E+02      8.608398000000000E-01     -7.598827000000000E+01
4872000000.000000      8.723145000000000E-01     -1.660547000000000E+02      3.761749000000000E-01     -5.269921000000000E+01      4.052887000000000E-01     -1.532656000000000E+02      8.663940000000000E-01     -7.598437000000000E+01
4873000000.000000      8.737183000000000E-01     -1.659219000000000E+02      3.751526000000000E-01     -5.309960000000000E+01      4.053650000000000E-01     -1.533047000000000E+02      8.696289000000000E-01     -7.614452000000000E+01
4874000000.000000      8.762207000000000E-01     -1.659062000000000E+02      3.737488000000000E-01     -5.324023000000000E+01      4.066620000000000E-01     -1.534062000000000E+02      8.750000000000000E-01     -7.610937000000000E+01
4875000000.000000      8.810120000000000E-01     -1.660234000000000E+02      3.725586000000000E-01     -5.349414000000000E+01      4.068756000000000E-01     -1.536953000000000E+02      8.789673000000000E-01     -7.632030000000000E+01
4876000000.000000      8.826599000000000E-01     -1.658359000000000E+02      3.711243000000000E-01     -5.393945000000000E+01      4.063721000000000E-01     -1.538359000000000E+02      8.827820000000000E-01     -7.655859000000000E+01
4877000000.000000      8.844604000000000E-01     -1.658437000000000E+02      3.693390000000000E-01     -5.409180000000000E+01      4.077911000000000E-01     -1.541172000000000E+02      8.874207000000000E-01     -7.667187000000000E+01
4878000000.000000      8.887634000000000E-01     -1.658906000000000E+02      3.686066000000000E-01     -5.433594000000000E+01      4.072571000000000E-01     -1.541094000000000E+02      8.918152000000000E-01     -7.676171000000000E+01
4879000000.000000      8.917542000000000E-01     -1.657500000000000E+02      3.666687000000000E-01     -5.455273000000000E+01      4.072723000000000E-01     -1.542656000000000E+02      8.957825000000000E-01     -7.678124000000000E+01
4880000000.000000      8.907776000000000E-01     -1.656172000000000E+02      3.652954000000000E-01     -5.488867000000000E+01      4.078674000000000E-01     -1.543750000000000E+02      8.996582000000000E-01     -7.682422000000000E+01
4881000000.000000      8.953552000000000E-01     -1.656406000000000E+02      3.642426000000000E-01     -5.491796000000000E+01      4.080963000000000E-01     -1.546172000000000E+02      9.033508000000000E-01     -7.705859000000000E+01
4882000000.000000      8.942871000000000E-01     -1.655313000000000E+02      3.627014000000000E-01     -5.516796000000000E+01      4.080200000000000E-01     -1.547109000000000E+02      9.067688000000000E-01     -7.722656000000000E+01
