! Network Analyzer HP8722D
! Hewlett-Packard
! Data name: Linha & Wilkinson
! Saver's name: Rodrigo Anjos
! Comments: Teste da utilização de aquisição
continua pelo VNA HP8722D
! Time and date: 6/5/2025 15:52
!              Frequency                     S11                                                   S21                                                   S12                                                   S22
# HZ  S  MA R 50
4800000000.000000      4.959869000000000E-01     -1.681328000000000E+02      2.510376000000000E-01     -1.951074000000000E+01      2.479324000000000E-01     -1.406953000000000E+02      6.495972000000000E-01     -8.036327000000000E+01
4801000000.000000      4.974823000000000E-01     -1.682344000000000E+02      2.553253000000000E-01     -1.969336000000000E+01      2.506409000000000E-01     -1.408125000000000E+02      6.473694000000000E-01     -8.011328000000000E+01
4802000000.000000      4.984589000000000E-01     -1.682656000000000E+02      2.590637000000000E-01     -1.984863000000000E+01      2.552032000000000E-01     -1.406641000000000E+02      6.453857000000000E-01     -7.985156000000000E+01
4803000000.000000      5.003967000000000E-01     -1.683125000000000E+02      2.639160000000000E-01     -2.008105000000000E+01      2.579651000000000E-01     -1.408359000000000E+02      6.441650000000000E-01     -7.962891000000000E+01
4804000000.000000      5.026550000000000E-01     -1.683047000000000E+02      2.676544000000000E-01     -2.049316000000000E+01      2.626495000000000E-01     -1.410234000000000E+02      6.443176000000000E-01     -7.941406000000000E+01
4805000000.000000      5.049438000000000E-01     -1.683437000000000E+02      2.716370000000000E-01     -2.073340000000000E+01      2.662048000000000E-01     -1.409922000000000E+02      6.445923000000000E-01     -7.925390000000000E+01
4806000000.000000      5.063477000000000E-01     -1.682891000000000E+02      2.760468000000000E-01     -2.097363000000000E+01      2.688141000000000E-01     -1.409688000000000E+02      6.442566000000000E-01     -7.907812000000000E+01
4807000000.000000      5.095825000000000E-01     -1.683125000000000E+02      2.792358000000000E-01     -2.130176000000000E+01      2.728424000000000E-01     -1.412500000000000E+02      6.429443000000000E-01     -7.886719000000000E+01
4808000000.000000      5.120544000000000E-01     -1.683047000000000E+02      2.838440000000000E-01     -2.154297000000000E+01      2.770233000000000E-01     -1.412734000000000E+02      6.416931000000000E-01     -7.863671000000000E+01
4809000000.000000      5.146179000000000E-01     -1.683516000000000E+02      2.875977000000000E-01     -2.207617000000000E+01      2.801208000000000E-01     -1.414219000000000E+02      6.424255000000000E-01     -7.848437000000000E+01
4810000000.000000      5.180664000000000E-01     -1.683359000000000E+02      2.912140000000000E-01     -2.228906000000000E+01      2.841339000000000E-01     -1.415625000000000E+02      6.441040000000000E-01     -7.831640000000000E+01
4811000000.000000      5.208435000000000E-01     -1.682266000000000E+02      2.954559000000000E-01     -2.289746000000000E+01      2.881775000000000E-01     -1.416172000000000E+02      6.434326000000000E-01     -7.795703000000000E+01
4812000000.000000      5.246277000000000E-01     -1.682188000000000E+02      2.994385000000000E-01     -2.310156000000000E+01      2.910309000000000E-01     -1.418203000000000E+02      6.447449000000000E-01     -7.781250000000000E+01
4813000000.000000      5.269775000000000E-01     -1.681484000000000E+02      3.032379000000000E-01     -2.348535000000000E+01      2.932587000000000E-01     -1.418906000000000E+02      6.445007000000000E-01     -7.758594000000000E+01
4814000000.000000      5.297546000000000E-01     -1.682266000000000E+02      3.065491000000000E-01     -2.392578000000000E+01      2.971802000000000E-01     -1.421016000000000E+02      6.456299000000000E-01     -7.754296000000000E+01
4815000000.000000      5.337219000000000E-01     -1.680312000000000E+02      3.103180000000000E-01     -2.437597000000000E+01      3.000641000000000E-01     -1.422266000000000E+02      6.465759000000000E-01     -7.716797000000000E+01
4816000000.000000      5.383911000000000E-01     -1.679688000000000E+02      3.141937000000000E-01     -2.456347000000000E+01      3.046875000000000E-01     -1.423516000000000E+02      6.473083000000000E-01     -7.701172000000000E+01
4817000000.000000      5.429993000000000E-01     -1.678672000000000E+02      3.174744000000000E-01     -2.517383000000000E+01      3.076935000000000E-01     -1.425859000000000E+02      6.487122000000000E-01     -7.687109000000000E+01
4818000000.000000      5.462952000000000E-01     -1.678672000000000E+02      3.212280000000000E-01     -2.555176000000000E+01      3.104095000000000E-01     -1.426875000000000E+02      6.503296000000000E-01     -7.670312000000000E+01
4819000000.000000      5.518188000000000E-01     -1.677656000000000E+02      3.237000000000000E-01     -2.603222000000000E+01      3.121338000000000E-01     -1.429531000000000E+02      6.531067000000000E-01     -7.658593000000000E+01
4820000000.000000      5.536194000000000E-01     -1.677109000000000E+02      3.272400000000000E-01     -2.648730000000000E+01      3.167114000000000E-01     -1.430938000000000E+02      6.538696000000000E-01     -7.643749000000000E+01
4821000000.000000      5.601807000000000E-01     -1.676563000000000E+02      3.310089000000000E-01     -2.697070000000000E+01      3.194580000000000E-01     -1.433359000000000E+02      6.542969000000000E-01     -7.626562000000000E+01
4822000000.000000      5.665283000000000E-01     -1.675234000000000E+02      3.342590000000000E-01     -2.746387000000000E+01      3.219910000000000E-01     -1.435391000000000E+02      6.582336000000000E-01     -7.608593000000000E+01
4823000000.000000      5.697021000000000E-01     -1.674219000000000E+02      3.374329000000000E-01     -2.779980000000000E+01      3.244934000000000E-01     -1.435313000000000E+02      6.595764000000000E-01     -7.591797000000000E+01
4824000000.000000      5.767517000000000E-01     -1.674453000000000E+02      3.408051000000000E-01     -2.849804000000000E+01      3.282623000000000E-01     -1.438047000000000E+02      6.629028000000000E-01     -7.582031000000000E+01
4825000000.000000      5.808716000000000E-01     -1.672422000000000E+02      3.437195000000000E-01     -2.888476000000000E+01      3.311768000000000E-01     -1.440000000000000E+02      6.658325000000000E-01     -7.567187000000000E+01
4826000000.000000      5.863342000000000E-01     -1.671406000000000E+02      3.469086000000000E-01     -2.943164000000000E+01      3.327942000000000E-01     -1.442969000000000E+02      6.674194000000000E-01     -7.562109000000000E+01
4827000000.000000      5.922546000000000E-01     -1.670312000000000E+02      3.501129000000000E-01     -2.989941000000000E+01      3.356934000000000E-01     -1.444219000000000E+02      6.701050000000000E-01     -7.546093000000000E+01
4828000000.000000      5.996399000000000E-01     -1.669922000000000E+02      3.528748000000000E-01     -3.035449000000000E+01      3.379517000000000E-01     -1.446328000000000E+02      6.735229000000000E-01     -7.535156000000000E+01
4829000000.000000      6.026611000000000E-01     -1.668750000000000E+02      3.547668000000000E-01     -3.106054000000000E+01      3.417664000000000E-01     -1.448359000000000E+02      6.762390000000000E-01     -7.521093000000000E+01
4830000000.000000      6.104126000000000E-01     -1.667734000000000E+02      3.572083000000000E-01     -3.155273000000000E+01      3.432617000000000E-01     -1.449375000000000E+02      6.787109000000000E-01     -7.525781000000000E+01
4831000000.000000      6.152649000000000E-01     -1.667031000000000E+02      3.595886000000000E-01     -3.210351000000000E+01      3.459930000000000E-01     -1.450781000000000E+02      6.824951000000000E-01     -7.505468000000000E+01
4832000000.000000      6.232300000000000E-01     -1.666016000000000E+02      3.630524000000000E-01     -3.259961000000000E+01      3.475800000000000E-01     -1.453203000000000E+02      6.860962000000000E-01     -7.503124000000000E+01
4833000000.000000      6.298523000000000E-01     -1.666328000000000E+02      3.651733000000000E-01     -3.297852000000000E+01      3.502197000000000E-01     -1.456484000000000E+02      6.886292000000000E-01     -7.497265000000000E+01
4834000000.000000      6.359558000000000E-01     -1.664844000000000E+02      3.676300000000000E-01     -3.365039000000000E+01      3.525696000000000E-01     -1.458516000000000E+02      6.927185000000000E-01     -7.484375000000000E+01
4835000000.000000      6.423340000000000E-01     -1.663828000000000E+02      3.700256000000000E-01     -3.424609000000000E+01      3.553619000000000E-01     -1.460234000000000E+02      6.961670000000000E-01     -7.480078000000000E+01
4836000000.000000      6.506958000000000E-01     -1.662969000000000E+02      3.710327000000000E-01     -3.474023000000000E+01      3.574066000000000E-01     -1.461562000000000E+02      6.993713000000000E-01     -7.470312000000000E+01
4837000000.000000      6.563416000000000E-01     -1.661328000000000E+02      3.736420000000000E-01     -3.556641000000000E+01      3.592377000000000E-01     -1.464453000000000E+02      7.035828000000000E-01     -7.465625000000000E+01
4838000000.000000      6.635742000000000E-01     -1.662656000000000E+02      3.755951000000000E-01     -3.590039000000000E+01      3.613434000000000E-01     -1.465937000000000E+02      7.074585000000000E-01     -7.454296000000000E+01
4839000000.000000      6.710205000000000E-01     -1.660391000000000E+02      3.767090000000000E-01     -3.638672000000000E+01      3.637543000000000E-01     -1.467969000000000E+02      7.114563000000000E-01     -7.460546000000000E+01
4840000000.000000      6.765137000000000E-01     -1.661094000000000E+02      3.779907000000000E-01     -3.691797000000000E+01      3.664246000000000E-01     -1.470000000000000E+02      7.147217000000000E-01     -7.454296000000000E+01
4841000000.000000      6.846619000000000E-01     -1.660781000000000E+02      3.807678000000000E-01     -3.762695000000000E+01      3.677368000000000E-01     -1.472812000000000E+02      7.188110000000000E-01     -7.454296000000000E+01
4842000000.000000      6.915588000000000E-01     -1.659765000000000E+02      3.822174000000000E-01     -3.811132000000000E+01      3.682556000000000E-01     -1.474453000000000E+02      7.243958000000000E-01     -7.441796000000000E+01
4843000000.000000      6.983032000000000E-01     -1.659765000000000E+02      3.832245000000000E-01     -3.867969000000000E+01      3.709412000000000E-01     -1.475625000000000E+02      7.266846000000000E-01     -7.443749000000000E+01
4844000000.000000      7.054443000000000E-01     -1.659453000000000E+02      3.836823000000000E-01     -3.922266000000000E+01      3.718109000000000E-01     -1.477890000000000E+02      7.319946000000000E-01     -7.447266000000000E+01
4845000000.000000      7.123108000000000E-01     -1.658672000000000E+02      3.849792000000000E-01     -3.977344000000000E+01      3.749237000000000E-01     -1.480078000000000E+02      7.363281000000000E-01     -7.434765000000000E+01
4846000000.000000      7.190552000000000E-01     -1.657578000000000E+02      3.860626000000000E-01     -4.024804000000000E+01      3.776550000000000E-01     -1.481562000000000E+02      7.403564000000000E-01     -7.432031000000000E+01
4847000000.000000      7.271118000000000E-01     -1.657969000000000E+02      3.873444000000000E-01     -4.091406000000000E+01      3.786316000000000E-01     -1.484062000000000E+02      7.452087000000000E-01     -7.451953000000000E+01
4848000000.000000      7.344360000000000E-01     -1.657578000000000E+02      3.874207000000000E-01     -4.135742000000000E+01      3.804474000000000E-01     -1.484688000000000E+02      7.493591000000000E-01     -7.444530000000000E+01
4849000000.000000      7.420349000000000E-01     -1.659765000000000E+02      3.878479000000000E-01     -4.203321000000000E+01      3.822632000000000E-01     -1.487422000000000E+02      7.540283000000000E-01     -7.442968000000000E+01
4850000000.000000      7.488403000000000E-01     -1.656875000000000E+02      3.896790000000000E-01     -4.245313000000000E+01      3.827209000000000E-01     -1.488516000000000E+02      7.586365000000000E-01     -7.447266000000000E+01
4851000000.000000      7.551575000000000E-01     -1.657656000000000E+02      3.907166000000000E-01     -4.310156000000000E+01      3.847046000000000E-01     -1.490781000000000E+02      7.651978000000000E-01     -7.441406000000000E+01
4852000000.000000      7.621765000000000E-01     -1.657422000000000E+02      3.907623000000000E-01     -4.350586000000000E+01      3.866730000000000E-01     -1.491641000000000E+02      7.676086000000000E-01     -7.444140000000000E+01
4853000000.000000      7.686157000000000E-01     -1.657969000000000E+02      3.891754000000000E-01     -4.419141000000000E+01      3.881531000000000E-01     -1.494609000000000E+02      7.727356000000000E-01     -7.456640000000000E+01
4854000000.000000      7.767334000000000E-01     -1.657422000000000E+02      3.892365000000000E-01     -4.466406000000000E+01      3.896790000000000E-01     -1.496172000000000E+02      7.778320000000000E-01     -7.458984000000000E+01
4855000000.000000      7.810364000000000E-01     -1.657187000000000E+02      3.895874000000000E-01     -4.509375000000000E+01      3.904877000000000E-01     -1.496953000000000E+02      7.809753000000000E-01     -7.453515000000000E+01
4856000000.000000      7.889404000000000E-01     -1.657422000000000E+02      3.891602000000000E-01     -4.559766000000000E+01      3.923950000000000E-01     -1.499609000000000E+02      7.881165000000000E-01     -7.464844000000000E+01
4857000000.000000      7.952271000000000E-01     -1.657656000000000E+02      3.899994000000000E-01     -4.609765000000000E+01      3.931427000000000E-01     -1.500547000000000E+02      7.919922000000000E-01     -7.467578000000000E+01
4858000000.000000      7.983704000000000E-01     -1.658047000000000E+02      3.892975000000000E-01     -4.664844000000000E+01      3.939209000000000E-01     -1.503281000000000E+02      7.984314000000000E-01     -7.474609000000000E+01
4859000000.000000      8.066101000000000E-01     -1.657344000000000E+02      3.894653000000000E-01     -4.709180000000000E+01      3.950043000000000E-01     -1.505859000000000E+02      8.033752000000000E-01     -7.491796000000000E+01
4860000000.000000      8.136292000000000E-01     -1.658516000000000E+02      3.890228000000000E-01     -4.743554000000000E+01      3.962555000000000E-01     -1.506172000000000E+02      8.063354000000000E-01     -7.483984000000000E+01
4861000000.000000      8.180847000000000E-01     -1.657109000000000E+02      3.889313000000000E-01     -4.809570000000000E+01      3.977509000000000E-01     -1.508203000000000E+02      8.112488000000000E-01     -7.496875000000000E+01
4862000000.000000      8.232117000000000E-01     -1.656563000000000E+02      3.877563000000000E-01     -4.853125000000000E+01      3.986206000000000E-01     -1.508750000000000E+02      8.183289000000000E-01     -7.495703000000000E+01
4863000000.000000      8.285217000000000E-01     -1.656484000000000E+02      3.857880000000000E-01     -4.903125000000000E+01      4.000244000000000E-01     -1.510625000000000E+02      8.220825000000000E-01     -7.498828000000000E+01
4864000000.000000      8.332214000000000E-01     -1.656406000000000E+02      3.862915000000000E-01     -4.910937000000000E+01      4.001465000000000E-01     -1.512578000000000E+02      8.266907000000000E-01     -7.514062000000000E+01
4865000000.000000      8.392334000000000E-01     -1.657969000000000E+02      3.850861000000000E-01     -4.976563000000000E+01      4.014435000000000E-01     -1.515000000000000E+02      8.315125000000000E-01     -7.509375000000000E+01
4866000000.000000      8.424683000000000E-01     -1.655937000000000E+02      3.834076000000000E-01     -5.005664000000000E+01      4.025421000000000E-01     -1.515859000000000E+02      8.384399000000000E-01     -7.520702000000000E+01
4867000000.000000      8.487549000000000E-01     -1.656484000000000E+02      3.836975000000000E-01     -5.062500000000000E+01      4.030151000000000E-01     -1.518047000000000E+02      8.430786000000000E-01     -7.532812000000000E+01
4868000000.000000      8.518066000000000E-01     -1.657578000000000E+02      3.821259000000000E-01     -5.097656000000000E+01      4.043579000000000E-01     -1.519453000000000E+02      8.464661000000000E-01     -7.535937000000000E+01
4869000000.000000      8.553162000000000E-01     -1.657969000000000E+02      3.804626000000000E-01     -5.128906000000000E+01      4.048157000000000E-01     -1.521406000000000E+02      8.511963000000000E-01     -7.554296000000000E+01
4870000000.000000      8.603210000000000E-01     -1.658047000000000E+02      3.803558000000000E-01     -5.160156000000000E+01      4.051819000000000E-01     -1.523438000000000E+02      8.567505000000000E-01     -7.559375000000000E+01
4871000000.000000      8.658447000000000E-01     -1.657109000000000E+02      3.789063000000000E-01     -5.197070000000000E+01      4.053345000000000E-01     -1.525156000000000E+02      8.598938000000000E-01     -7.571875000000000E+01
4872000000.000000      8.677673000000000E-01     -1.657812000000000E+02      3.765869000000000E-01     -5.217187000000000E+01      4.063110000000000E-01     -1.528437000000000E+02      8.648376000000000E-01     -7.590625000000000E+01
4873000000.000000      8.733521000000000E-01     -1.656250000000000E+02      3.760681000000000E-01     -5.263281000000000E+01      4.058838000000000E-01     -1.528047000000000E+02      8.681946000000000E-01     -7.601953000000000E+01
4874000000.000000      8.733521000000000E-01     -1.655313000000000E+02      3.743744000000000E-01     -5.282227000000000E+01      4.077148000000000E-01     -1.530156000000000E+02      8.743591000000000E-01     -7.585938000000000E+01
4875000000.000000      8.797607000000000E-01     -1.656641000000000E+02      3.729401000000000E-01     -5.325390000000000E+01      4.081268000000000E-01     -1.533359000000000E+02      8.789368000000000E-01     -7.612499000000000E+01
4876000000.000000      8.807068000000000E-01     -1.655625000000000E+02      3.724060000000000E-01     -5.350976000000000E+01      4.072418000000000E-01     -1.534062000000000E+02      8.829651000000000E-01     -7.637500000000000E+01
4877000000.000000      8.833923000000000E-01     -1.654297000000000E+02      3.705292000000000E-01     -5.361914000000000E+01      4.078979000000000E-01     -1.536406000000000E+02      8.857727000000000E-01     -7.642968000000000E+01
4878000000.000000      8.882751000000000E-01     -1.654531000000000E+02      3.692017000000000E-01     -5.395312000000000E+01      4.082184000000000E-01     -1.536719000000000E+02      8.918457000000000E-01     -7.651172000000000E+01
4879000000.000000      8.887634000000000E-01     -1.653672000000000E+02      3.670197000000000E-01     -5.418945000000000E+01      4.082794000000000E-01     -1.538359000000000E+02      8.949585000000000E-01     -7.648438000000000E+01
4880000000.000000      8.897400000000000E-01     -1.654219000000000E+02      3.665314000000000E-01     -5.435937000000000E+01      4.088745000000000E-01     -1.539922000000000E+02      8.990173000000000E-01     -7.662499000000000E+01
4881000000.000000      8.958130000000000E-01     -1.651953000000000E+02      3.654633000000000E-01     -5.446875000000000E+01      4.089355000000000E-01     -1.542031000000000E+02      9.033203000000000E-01     -7.683203000000000E+01
4882000000.000000      8.916016000000000E-01     -1.651875000000000E+02      3.634338000000000E-01     -5.478906000000000E+01      4.086304000000000E-01     -1.542734000000000E+02      9.064026000000000E-01     -7.692577000000000E+01
