! Network Analyzer HP8722D
! Hewlett-Packard
! Data name: Linha & Wilkinson
! Saver's name: Rodrigo Anjos
! Comments: Teste da utilização de aquisição
continua pelo VNA HP8722D
! Time and date: 6/5/2025 12:52
!              Frequency                     S11                                                   S21                                                   S12                                                   S22
# HZ  S  MA R 50
4800000000.000000      6.117554000000000E-01     -4.780663000000000E+01      4.144745000000000E-01     -2.217871000000000E+01      4.844055000000000E-01     -1.757500000000000E+02      4.922485000000000E-01      1.798125000000000E+02
4801000000.000000      6.167908000000000E-01     -4.827148000000000E+01      4.140930000000000E-01     -2.251465000000000E+01      4.865112000000000E-01     -1.760859000000000E+02      4.931641000000000E-01      1.795781000000000E+02
4802000000.000000      6.184998000000000E-01     -4.899219000000000E+01      4.153900000000000E-01     -2.283398000000000E+01      4.894409000000000E-01     -1.763906000000000E+02      4.948273000000000E-01      1.787891000000000E+02
4803000000.000000      6.184387000000000E-01     -4.943164000000000E+01      4.178467000000000E-01     -2.329590000000000E+01      4.924469000000000E-01     -1.764766000000000E+02      4.954376000000000E-01      1.784688000000000E+02
4804000000.000000      6.208191000000000E-01     -5.002539000000000E+01      4.189148000000000E-01     -2.368262000000000E+01      4.954681000000000E-01     -1.769766000000000E+02      4.982758000000000E-01      1.782422000000000E+02
4805000000.000000      6.258240000000000E-01     -5.063477000000000E+01      4.192657000000000E-01     -2.458496000000000E+01      4.987488000000000E-01     -1.771563000000000E+02      5.018616000000000E-01      1.774609000000000E+02
4806000000.000000      6.254272000000000E-01     -5.117382000000000E+01      4.195862000000000E-01     -2.487207000000000E+01      5.020447000000000E-01     -1.773516000000000E+02      5.036621000000000E-01      1.770859000000000E+02
4807000000.000000      6.265259000000000E-01     -5.177343000000000E+01      4.190521000000000E-01     -2.531543000000000E+01      5.035400000000000E-01     -1.778125000000000E+02      5.043640000000000E-01      1.769297000000000E+02
4808000000.000000      6.305847000000000E-01     -5.205078000000000E+01      4.211731000000000E-01     -2.545019000000000E+01      5.057373000000000E-01     -1.780000000000000E+02      5.049744000000000E-01      1.766172000000000E+02
4809000000.000000      6.330872000000000E-01     -5.282617000000000E+01      4.221954000000000E-01     -2.650391000000000E+01      5.097046000000000E-01     -1.785000000000000E+02      5.107727000000000E-01      1.762109000000000E+02
4810000000.000000      6.358643000000000E-01     -5.340625000000000E+01      4.235382000000000E-01     -2.660840000000000E+01      5.118103000000000E-01     -1.789609000000000E+02      5.090332000000000E-01      1.757422000000000E+02
4811000000.000000      6.368408000000000E-01     -5.393359000000000E+01      4.244537000000000E-01     -2.740429000000000E+01      5.152893000000000E-01     -1.790859000000000E+02      5.121460000000000E-01      1.754609000000000E+02
4812000000.000000      6.388245000000000E-01     -5.436718000000000E+01      4.232635000000000E-01     -2.776464000000000E+01      5.208130000000000E-01     -1.793594000000000E+02      5.171814000000000E-01      1.751406000000000E+02
4813000000.000000      6.407166000000000E-01     -5.483593000000000E+01      4.224701000000000E-01     -2.856250000000000E+01      5.223999000000000E-01     -1.795469000000000E+02      5.184937000000000E-01      1.745625000000000E+02
4814000000.000000      6.413574000000000E-01     -5.550781000000000E+01      4.247284000000000E-01     -2.899707000000000E+01      5.262146000000000E-01      1.799531000000000E+02      5.183105000000000E-01      1.742109000000000E+02
4815000000.000000      6.419983000000000E-01     -5.591015000000000E+01      4.228210000000000E-01     -2.954394000000000E+01      5.271301000000000E-01      1.794297000000000E+02      5.195618000000000E-01      1.738359000000000E+02
4816000000.000000      6.447754000000000E-01     -5.625390000000000E+01      4.231415000000000E-01     -3.017675000000000E+01      5.301514000000000E-01      1.790469000000000E+02      5.230103000000000E-01      1.733828000000000E+02
4817000000.000000      6.477661000000000E-01     -5.675195000000000E+01      4.232178000000000E-01     -3.056836000000000E+01      5.328674000000000E-01      1.785234000000000E+02      5.270386000000000E-01      1.728437000000000E+02
4818000000.000000      6.485291000000000E-01     -5.732422000000000E+01      4.221191000000000E-01     -3.109472000000000E+01      5.360718000000000E-01      1.780703000000000E+02      5.251160000000000E-01      1.724375000000000E+02
4819000000.000000      6.499634000000000E-01     -5.780663000000000E+01      4.228058000000000E-01     -3.158984000000000E+01      5.399780000000000E-01      1.776719000000000E+02      5.311584000000000E-01      1.722734000000000E+02
4820000000.000000      6.506653000000000E-01     -5.820703000000000E+01      4.227448000000000E-01     -3.210938000000000E+01      5.427551000000000E-01      1.772969000000000E+02      5.300598000000000E-01      1.711875000000000E+02
4821000000.000000      6.517334000000000E-01     -5.853516000000000E+01      4.229279000000000E-01     -3.251758000000000E+01      5.433350000000000E-01      1.766484000000000E+02      5.291748000000000E-01      1.710469000000000E+02
4822000000.000000      6.545715000000000E-01     -5.886913000000000E+01      4.194641000000000E-01     -3.301367000000000E+01      5.451355000000000E-01      1.762031000000000E+02      5.321350000000000E-01      1.706172000000000E+02
4823000000.000000      6.550598000000000E-01     -5.922265000000000E+01      4.213867000000000E-01     -3.361719000000000E+01      5.461731000000000E-01      1.758203000000000E+02      5.328369000000000E-01      1.703828000000000E+02
4824000000.000000      6.539307000000000E-01     -5.948242000000000E+01      4.207001000000000E-01     -3.416992000000000E+01      5.509338000000000E-01      1.751953000000000E+02      5.324097000000000E-01      1.696250000000000E+02
4825000000.000000      6.559753000000000E-01     -5.995117000000000E+01      4.198456000000000E-01     -3.476367000000000E+01      5.525818000000000E-01      1.746016000000000E+02      5.334473000000000E-01      1.691094000000000E+02
4826000000.000000      6.535645000000000E-01     -6.033984000000000E+01      4.174194000000000E-01     -3.522851000000000E+01      5.549011000000000E-01      1.739766000000000E+02      5.325928000000000E-01      1.684844000000000E+02
4827000000.000000      6.593628000000000E-01     -6.040820000000000E+01      4.175720000000000E-01     -3.531641000000000E+01      5.565796000000000E-01      1.735000000000000E+02      5.327454000000000E-01      1.682109000000000E+02
4828000000.000000      6.605225000000000E-01     -6.066015000000000E+01      4.180756000000000E-01     -3.617969000000000E+01      5.588074000000000E-01      1.730937000000000E+02      5.337830000000000E-01      1.674062000000000E+02
4829000000.000000      6.604614000000000E-01     -6.082031000000000E+01      4.161072000000000E-01     -3.671679000000000E+01      5.584717000000000E-01      1.726016000000000E+02      5.295410000000000E-01      1.672188000000000E+02
4830000000.000000      6.619568000000000E-01     -6.122070000000000E+01      4.144897000000000E-01     -3.725390000000000E+01      5.593262000000000E-01      1.720156000000000E+02      5.293579000000000E-01      1.665625000000000E+02
4831000000.000000      6.596680000000000E-01     -6.123047000000000E+01      4.128571000000000E-01     -3.791016000000000E+01      5.632019000000000E-01      1.712812000000000E+02      5.277710000000000E-01      1.662031000000000E+02
4832000000.000000      6.596680000000000E-01     -6.129687000000000E+01      4.135284000000000E-01     -3.783594000000000E+01      5.625610000000000E-01      1.706406000000000E+02      5.231323000000000E-01      1.655469000000000E+02
4833000000.000000      6.627197000000000E-01     -6.148438000000000E+01      4.113007000000000E-01     -3.836914000000000E+01      5.630798000000000E-01      1.698594000000000E+02      5.224304000000000E-01      1.651797000000000E+02
4834000000.000000      6.626587000000000E-01     -6.166210000000000E+01      4.096527000000000E-01     -3.895508000000000E+01      5.632935000000000E-01      1.692891000000000E+02      5.190735000000000E-01      1.644531000000000E+02
4835000000.000000      6.609192000000000E-01     -6.144140000000000E+01      4.097290000000000E-01     -3.940234000000000E+01      5.636902000000000E-01      1.687969000000000E+02      5.169983000000000E-01      1.638359000000000E+02
4836000000.000000      6.642761000000000E-01     -6.164063000000000E+01      4.075165000000000E-01     -3.972265000000000E+01      5.621338000000000E-01      1.681172000000000E+02      5.110779000000000E-01      1.637031000000000E+02
4837000000.000000      6.618652000000000E-01     -6.171875000000000E+01      4.057312000000000E-01     -4.045703000000000E+01      5.596619000000000E-01      1.672812000000000E+02      5.089417000000000E-01      1.630781000000000E+02
4838000000.000000      6.634216000000000E-01     -6.166406000000000E+01      4.065552000000000E-01     -4.063477000000000E+01      5.603943000000000E-01      1.665469000000000E+02      5.010071000000000E-01      1.625547000000000E+02
4839000000.000000      6.654358000000000E-01     -6.157421000000000E+01      4.044647000000000E-01     -4.119141000000000E+01      5.609131000000000E-01      1.663281000000000E+02      4.985962000000000E-01      1.621641000000000E+02
4840000000.000000      6.655884000000000E-01     -6.171093000000000E+01      4.034119000000000E-01     -4.169335000000000E+01      5.582275000000000E-01      1.653437000000000E+02      4.917450000000000E-01      1.615937000000000E+02
4841000000.000000      6.656799000000000E-01     -6.164257000000000E+01      4.019928000000000E-01     -4.181250000000000E+01      5.565796000000000E-01      1.647344000000000E+02      4.859924000000000E-01      1.610937000000000E+02
4842000000.000000      6.661377000000000E-01     -6.158398000000000E+01      4.007263000000000E-01     -4.235156000000000E+01      5.535583000000000E-01      1.642422000000000E+02      4.806824000000000E-01      1.608281000000000E+02
4843000000.000000      6.669617000000000E-01     -6.140429000000000E+01      4.004974000000000E-01     -4.291992000000000E+01      5.534973000000000E-01      1.636328000000000E+02      4.758911000000000E-01      1.605000000000000E+02
4844000000.000000      6.661072000000000E-01     -6.141406000000000E+01      3.980255000000000E-01     -4.339063000000000E+01      5.497437000000000E-01      1.626406000000000E+02      4.676056000000000E-01      1.602344000000000E+02
4845000000.000000      6.663513000000000E-01     -6.121094000000000E+01      3.976135000000000E-01     -4.393945000000000E+01      5.482483000000000E-01      1.622422000000000E+02      4.603729000000000E-01      1.596250000000000E+02
4846000000.000000      6.668701000000000E-01     -6.088672000000000E+01      3.970337000000000E-01     -4.415820000000000E+01      5.444946000000000E-01      1.614687000000000E+02      4.521027000000000E-01      1.595625000000000E+02
4847000000.000000      6.668701000000000E-01     -6.080078000000000E+01      3.948364000000000E-01     -4.459180000000000E+01      5.445557000000000E-01      1.608672000000000E+02      4.476929000000000E-01      1.595000000000000E+02
4848000000.000000      6.669617000000000E-01     -6.051367000000000E+01      3.920288000000000E-01     -4.498632000000000E+01      5.408325000000000E-01      1.601250000000000E+02      4.385681000000000E-01      1.589766000000000E+02
4849000000.000000      6.667175000000000E-01     -6.050195000000000E+01      3.932190000000000E-01     -4.542188000000000E+01      5.385742000000000E-01      1.595156000000000E+02      4.301453000000000E-01      1.590547000000000E+02
4850000000.000000      6.677246000000000E-01     -6.012304000000000E+01      3.924103000000000E-01     -4.587110000000000E+01      5.336609000000000E-01      1.589687000000000E+02      4.214478000000000E-01      1.586562000000000E+02
4851000000.000000      6.707153000000000E-01     -5.988086000000000E+01      3.912201000000000E-01     -4.641797000000000E+01      5.293579000000000E-01      1.585625000000000E+02      4.134827000000000E-01      1.590156000000000E+02
4852000000.000000      6.689148000000000E-01     -5.972851000000000E+01      3.895721000000000E-01     -4.675781000000000E+01      5.254822000000000E-01      1.578594000000000E+02      4.051361000000000E-01      1.586406000000000E+02
4853000000.000000      6.693420000000000E-01     -5.946679000000000E+01      3.879089000000000E-01     -4.725976000000000E+01      5.208740000000000E-01      1.573516000000000E+02      3.952789000000000E-01      1.586016000000000E+02
4854000000.000000      6.725159000000000E-01     -5.910546000000000E+01      3.873596000000000E-01     -4.785937000000000E+01      5.191650000000000E-01      1.567344000000000E+02      3.862762000000000E-01      1.586172000000000E+02
4855000000.000000      6.695251000000000E-01     -5.879101000000000E+01      3.846741000000000E-01     -4.810547000000000E+01      5.126038000000000E-01      1.561484000000000E+02      3.770599000000000E-01      1.586406000000000E+02
4856000000.000000      6.724243000000000E-01     -5.852148000000000E+01      3.839722000000000E-01     -4.847461000000000E+01      5.095215000000000E-01      1.557109000000000E+02      3.701324000000000E-01      1.590078000000000E+02
4857000000.000000      6.750488000000000E-01     -5.824609000000000E+01      3.845520000000000E-01     -4.880273000000000E+01      5.044861000000000E-01      1.552578000000000E+02      3.607635000000000E-01      1.593594000000000E+02
4858000000.000000      6.715698000000000E-01     -5.809765000000000E+01      3.833160000000000E-01     -4.952148000000000E+01      5.017700000000000E-01      1.547266000000000E+02      3.502655000000000E-01      1.597734000000000E+02
4859000000.000000      6.740112000000000E-01     -5.760937000000000E+01      3.824921000000000E-01     -4.999804000000000E+01      4.957733000000000E-01      1.541875000000000E+02      3.423767000000000E-01      1.598438000000000E+02
4860000000.000000      6.740417000000000E-01     -5.708008000000000E+01      3.797760000000000E-01     -5.030273000000000E+01      4.911194000000000E-01      1.536328000000000E+02      3.324127000000000E-01      1.605156000000000E+02
4861000000.000000      6.744385000000000E-01     -5.694140000000000E+01      3.790588000000000E-01     -5.094921000000000E+01      4.885864000000000E-01      1.531953000000000E+02      3.243256000000000E-01      1.612813000000000E+02
4862000000.000000      6.757813000000000E-01     -5.673046000000000E+01      3.783569000000000E-01     -5.106445000000000E+01      4.838104000000000E-01      1.527734000000000E+02      3.171692000000000E-01      1.616016000000000E+02
4863000000.000000      6.773071000000000E-01     -5.617773000000000E+01      3.753052000000000E-01     -5.174414000000000E+01      4.783173000000000E-01      1.523672000000000E+02      3.070374000000000E-01      1.621797000000000E+02
4864000000.000000      6.788330000000000E-01     -5.592382000000000E+01      3.740540000000000E-01     -5.242382000000000E+01      4.739990000000000E-01      1.518437000000000E+02      3.003845000000000E-01      1.634844000000000E+02
4865000000.000000      6.788635000000000E-01     -5.573437000000000E+01      3.729095000000000E-01     -5.285546000000000E+01      4.696503000000000E-01      1.516094000000000E+02      2.914429000000000E-01      1.643828000000000E+02
4866000000.000000      6.793823000000000E-01     -5.533203000000000E+01      3.704376000000000E-01     -5.330468000000000E+01      4.646759000000000E-01      1.511250000000000E+02      2.821198000000000E-01      1.649922000000000E+02
4867000000.000000      6.811218000000000E-01     -5.499609000000000E+01      3.668976000000000E-01     -5.405273000000000E+01      4.590912000000000E-01      1.508125000000000E+02      2.751160000000000E-01      1.664844000000000E+02
4868000000.000000      6.823425000000000E-01     -5.467382000000000E+01      3.679657000000000E-01     -5.454883000000000E+01      4.552917000000000E-01      1.502578000000000E+02      2.665405000000000E-01      1.675937000000000E+02
4869000000.000000      6.814575000000000E-01     -5.422852000000000E+01      3.649902000000000E-01     -5.480273000000000E+01      4.508667000000000E-01      1.500234000000000E+02      2.607117000000000E-01      1.685937000000000E+02
4870000000.000000      6.813965000000000E-01     -5.395898000000000E+01      3.645782000000000E-01     -5.552343000000000E+01      4.451294000000000E-01      1.495469000000000E+02      2.542572000000000E-01      1.701328000000000E+02
4871000000.000000      6.834717000000000E-01     -5.356445000000000E+01      3.628082000000000E-01     -5.603320000000000E+01      4.403687000000000E-01      1.492969000000000E+02      2.486877000000000E-01      1.717422000000000E+02
4872000000.000000      6.850891000000000E-01     -5.318554000000000E+01      3.609161000000000E-01     -5.634375000000000E+01      4.360046000000000E-01      1.486641000000000E+02      2.415695000000000E-01      1.729687000000000E+02
4873000000.000000      6.839905000000000E-01     -5.300976000000000E+01      3.586731000000000E-01     -5.712500000000000E+01      4.319763000000000E-01      1.485391000000000E+02      2.360687000000000E-01      1.745625000000000E+02
4874000000.000000      6.846619000000000E-01     -5.258984000000000E+01      3.569031000000000E-01     -5.736718000000000E+01      4.285583000000000E-01      1.480234000000000E+02      2.305679000000000E-01      1.764609000000000E+02
4875000000.000000      6.857605000000000E-01     -5.247656000000000E+01      3.539581000000000E-01     -5.795703000000000E+01      4.226227000000000E-01      1.477109000000000E+02      2.270355000000000E-01      1.787266000000000E+02
4876000000.000000      6.856079000000000E-01     -5.195313000000000E+01      3.534241000000000E-01     -5.836328000000000E+01      4.186401000000000E-01      1.472891000000000E+02      2.228851000000000E-01     -1.796172000000000E+02
4877000000.000000      6.852417000000000E-01     -5.157227000000000E+01      3.498993000000000E-01     -5.920703000000000E+01      4.138794000000000E-01      1.469922000000000E+02      2.187271000000000E-01     -1.779766000000000E+02
4878000000.000000      6.855164000000000E-01     -5.130468000000000E+01      3.498230000000000E-01     -5.967578000000000E+01      4.089966000000000E-01      1.467578000000000E+02      2.149429000000000E-01     -1.753906000000000E+02
4879000000.000000      6.853638000000000E-01     -5.092187000000000E+01      3.451538000000000E-01     -6.014257000000000E+01      4.055481000000000E-01      1.462344000000000E+02      2.122650000000000E-01     -1.733984000000000E+02
4880000000.000000      6.859436000000000E-01     -5.061328000000000E+01      3.441925000000000E-01     -6.066796000000000E+01      4.010315000000000E-01      1.460547000000000E+02      2.105560000000000E-01     -1.713984000000000E+02
4881000000.000000      6.840820000000000E-01     -5.018555000000000E+01      3.424683000000000E-01     -6.110546000000000E+01      3.964996000000000E-01      1.456797000000000E+02      2.079010000000000E-01     -1.693672000000000E+02
4882000000.000000      6.846619000000000E-01     -4.979297000000000E+01      3.395386000000000E-01     -6.177148000000000E+01      3.917694000000000E-01      1.454453000000000E+02      2.076721000000000E-01     -1.671484000000000E+02
