! Network Analyzer HP8722D
! Hewlett-Packard
! Data name: Linha & Wilkinson
! Saver's name: Rodrigo Anjos
! Comments: Teste da utilização de aquisição
continua pelo VNA HP8722D
! Time and date: 6/5/2025 15:50
!              Frequency                     S11                                                   S21                                                   S12                                                   S22
# HZ  S  MA R 50
4800000000.000000      4.958954000000000E-01     -1.681641000000000E+02      2.514191000000000E-01     -1.941504000000000E+01      2.479477000000000E-01     -1.406484000000000E+02      6.477661000000000E-01     -8.030859000000000E+01
4801000000.000000      4.973450000000000E-01     -1.681562000000000E+02      2.552643000000000E-01     -1.970215000000000E+01      2.510376000000000E-01     -1.408125000000000E+02      6.463623000000000E-01     -8.016405000000000E+01
4802000000.000000      4.984436000000000E-01     -1.682188000000000E+02      2.591095000000000E-01     -1.974121000000000E+01      2.552643000000000E-01     -1.407812000000000E+02      6.457214000000000E-01     -7.979297000000000E+01
4803000000.000000      5.004578000000000E-01     -1.683437000000000E+02      2.640076000000000E-01     -2.009570000000000E+01      2.584686000000000E-01     -1.408125000000000E+02      6.443787000000000E-01     -7.969921000000000E+01
4804000000.000000      5.022888000000000E-01     -1.682812000000000E+02      2.673645000000000E-01     -2.036523000000000E+01      2.627258000000000E-01     -1.409531000000000E+02      6.445923000000000E-01     -7.939062000000000E+01
4805000000.000000      5.050659000000000E-01     -1.683828000000000E+02      2.718353000000000E-01     -2.086328000000000E+01      2.658997000000000E-01     -1.410234000000000E+02      6.438293000000000E-01     -7.927343000000000E+01
4806000000.000000      5.065613000000000E-01     -1.682969000000000E+02      2.751007000000000E-01     -2.101465000000000E+01      2.692719000000000E-01     -1.409765000000000E+02      6.430969000000000E-01     -7.907812000000000E+01
4807000000.000000      5.096741000000000E-01     -1.683437000000000E+02      2.793274000000000E-01     -2.137207000000000E+01      2.731171000000000E-01     -1.412422000000000E+02      6.417847000000000E-01     -7.885156000000000E+01
4808000000.000000      5.119629000000000E-01     -1.683359000000000E+02      2.844543000000000E-01     -2.155468000000000E+01      2.767487000000000E-01     -1.412734000000000E+02      6.425171000000000E-01     -7.865234000000000E+01
4809000000.000000      5.142517000000000E-01     -1.682812000000000E+02      2.876129000000000E-01     -2.213086000000000E+01      2.806549000000000E-01     -1.414922000000000E+02      6.423950000000000E-01     -7.843750000000000E+01
4810000000.000000      5.173950000000000E-01     -1.683125000000000E+02      2.918396000000000E-01     -2.232031000000000E+01      2.841034000000000E-01     -1.415859000000000E+02      6.439819000000000E-01     -7.828125000000000E+01
4811000000.000000      5.208740000000000E-01     -1.682891000000000E+02      2.953339000000000E-01     -2.269824000000000E+01      2.878265000000000E-01     -1.415625000000000E+02      6.431274000000000E-01     -7.796093000000000E+01
4812000000.000000      5.246277000000000E-01     -1.681875000000000E+02      2.993011000000000E-01     -2.337012000000000E+01      2.910309000000000E-01     -1.418281000000000E+02      6.435242000000000E-01     -7.786327000000000E+01
4813000000.000000      5.275879000000000E-01     -1.681562000000000E+02      3.024445000000000E-01     -2.352539000000000E+01      2.941895000000000E-01     -1.416641000000000E+02      6.447449000000000E-01     -7.748437000000000E+01
4814000000.000000      5.300598000000000E-01     -1.682422000000000E+02      3.064270000000000E-01     -2.391894000000000E+01      2.976227000000000E-01     -1.421016000000000E+02      6.449585000000000E-01     -7.741405000000000E+01
4815000000.000000      5.338745000000000E-01     -1.680781000000000E+02      3.098602000000000E-01     -2.432812000000000E+01      3.004913000000000E-01     -1.421875000000000E+02      6.458740000000000E-01     -7.713281000000000E+01
4816000000.000000      5.383911000000000E-01     -1.679922000000000E+02      3.150482000000000E-01     -2.462597000000000E+01      3.045959000000000E-01     -1.423203000000000E+02      6.476746000000000E-01     -7.704687000000000E+01
4817000000.000000      5.427551000000000E-01     -1.678516000000000E+02      3.176117000000000E-01     -2.516699000000000E+01      3.066406000000000E-01     -1.426094000000000E+02      6.480408000000000E-01     -7.691406000000000E+01
4818000000.000000      5.460815000000000E-01     -1.678594000000000E+02      3.202972000000000E-01     -2.544434000000000E+01      3.104095000000000E-01     -1.426328000000000E+02      6.499329000000000E-01     -7.677343000000000E+01
4819000000.000000      5.520020000000000E-01     -1.677578000000000E+02      3.242950000000000E-01     -2.609179000000000E+01      3.123932000000000E-01     -1.430078000000000E+02      6.526489000000000E-01     -7.662109000000000E+01
4820000000.000000      5.538940000000000E-01     -1.676953000000000E+02      3.272095000000000E-01     -2.649023000000000E+01      3.166351000000000E-01     -1.431094000000000E+02      6.543274000000000E-01     -7.640234000000000E+01
4821000000.000000      5.597534000000000E-01     -1.676094000000000E+02      3.315125000000000E-01     -2.693652000000000E+01      3.187103000000000E-01     -1.433203000000000E+02      6.541443000000000E-01     -7.628515000000000E+01
4822000000.000000      5.661621000000000E-01     -1.675625000000000E+02      3.343811000000000E-01     -2.741699000000000E+01      3.216095000000000E-01     -1.434766000000000E+02      6.581421000000000E-01     -7.604687000000000E+01
4823000000.000000      5.697632000000000E-01     -1.674219000000000E+02      3.375244000000000E-01     -2.794531000000000E+01      3.246918000000000E-01     -1.436094000000000E+02      6.599731000000000E-01     -7.598046000000000E+01
4824000000.000000      5.768433000000000E-01     -1.673984000000000E+02      3.409882000000000E-01     -2.853027000000000E+01      3.280029000000000E-01     -1.438750000000000E+02      6.616516000000000E-01     -7.585938000000000E+01
4825000000.000000      5.809326000000000E-01     -1.673281000000000E+02      3.429565000000000E-01     -2.895312000000000E+01      3.310394000000000E-01     -1.440156000000000E+02      6.653137000000000E-01     -7.566015000000000E+01
4826000000.000000      5.868835000000000E-01     -1.671484000000000E+02      3.466644000000000E-01     -2.940430000000000E+01      3.323975000000000E-01     -1.443281000000000E+02      6.676941000000000E-01     -7.555078000000000E+01
4827000000.000000      5.929871000000000E-01     -1.669765000000000E+02      3.499146000000000E-01     -2.984375000000000E+01      3.360596000000000E-01     -1.443750000000000E+02      6.708679000000000E-01     -7.538280000000000E+01
4828000000.000000      5.991211000000000E-01     -1.669844000000000E+02      3.527222000000000E-01     -3.037793000000000E+01      3.377991000000000E-01     -1.446797000000000E+02      6.745300000000000E-01     -7.542187000000000E+01
4829000000.000000      6.029358000000000E-01     -1.668594000000000E+02      3.542328000000000E-01     -3.093262000000000E+01      3.407593000000000E-01     -1.448906000000000E+02      6.766052000000000E-01     -7.519140000000000E+01
4830000000.000000      6.098328000000000E-01     -1.668125000000000E+02      3.570251000000000E-01     -3.153223000000000E+01      3.434143000000000E-01     -1.449297000000000E+02      6.791382000000000E-01     -7.518359000000000E+01
4831000000.000000      6.154785000000000E-01     -1.666953000000000E+02      3.598938000000000E-01     -3.209375000000000E+01      3.455658000000000E-01     -1.451875000000000E+02      6.825867000000000E-01     -7.502343000000000E+01
4832000000.000000      6.233215000000000E-01     -1.666016000000000E+02      3.630219000000000E-01     -3.256836000000000E+01      3.478394000000000E-01     -1.452422000000000E+02      6.863403000000000E-01     -7.502734000000000E+01
4833000000.000000      6.299133000000000E-01     -1.666328000000000E+02      3.651581000000000E-01     -3.302343000000000E+01      3.500671000000000E-01     -1.456875000000000E+02      6.882324000000000E-01     -7.490234000000000E+01
4834000000.000000      6.359863000000000E-01     -1.664766000000000E+02      3.671417000000000E-01     -3.370117000000000E+01      3.524475000000000E-01     -1.457656000000000E+02      6.916504000000000E-01     -7.487890000000000E+01
4835000000.000000      6.423340000000000E-01     -1.663906000000000E+02      3.697205000000000E-01     -3.430273000000000E+01      3.553009000000000E-01     -1.459844000000000E+02      6.958923000000000E-01     -7.484765000000000E+01
4836000000.000000      6.504822000000000E-01     -1.662500000000000E+02      3.711243000000000E-01     -3.479687000000000E+01      3.569794000000000E-01     -1.461172000000000E+02      6.992493000000000E-01     -7.461719000000000E+01
4837000000.000000      6.567383000000000E-01     -1.661641000000000E+02      3.731232000000000E-01     -3.549023000000000E+01      3.590698000000000E-01     -1.465000000000000E+02      7.029419000000000E-01     -7.460938000000000E+01
4838000000.000000      6.633911000000000E-01     -1.661953000000000E+02      3.756714000000000E-01     -3.581640000000000E+01      3.618774000000000E-01     -1.466875000000000E+02      7.064209000000000E-01     -7.469531000000000E+01
4839000000.000000      6.704712000000000E-01     -1.660391000000000E+02      3.766937000000000E-01     -3.647265000000000E+01      3.644409000000000E-01     -1.466641000000000E+02      7.107239000000000E-01     -7.451562000000000E+01
4840000000.000000      6.760864000000000E-01     -1.660547000000000E+02      3.789520000000000E-01     -3.688086000000000E+01      3.661499000000000E-01     -1.469922000000000E+02      7.149353000000000E-01     -7.454687000000000E+01
4841000000.000000      6.841736000000000E-01     -1.660547000000000E+02      3.802643000000000E-01     -3.760351000000000E+01      3.678284000000000E-01     -1.473594000000000E+02      7.197876000000000E-01     -7.450781000000000E+01
4842000000.000000      6.918640000000000E-01     -1.659531000000000E+02      3.813782000000000E-01     -3.817383000000000E+01      3.688049000000000E-01     -1.474453000000000E+02      7.245178000000000E-01     -7.452734000000000E+01
4843000000.000000      6.990662000000000E-01     -1.659688000000000E+02      3.829193000000000E-01     -3.879687000000000E+01      3.707428000000000E-01     -1.475469000000000E+02      7.274170000000000E-01     -7.447266000000000E+01
4844000000.000000      7.055969000000000E-01     -1.659297000000000E+02      3.840027000000000E-01     -3.924219000000000E+01      3.729401000000000E-01     -1.476719000000000E+02      7.321777000000000E-01     -7.446094000000000E+01
4845000000.000000      7.117615000000000E-01     -1.658281000000000E+02      3.844452000000000E-01     -3.978711000000000E+01      3.748932000000000E-01     -1.478750000000000E+02      7.358704000000000E-01     -7.437890000000000E+01
4846000000.000000      7.192688000000000E-01     -1.657422000000000E+02      3.862457000000000E-01     -4.037499000000000E+01      3.777313000000000E-01     -1.480781000000000E+02      7.398987000000000E-01     -7.440624000000000E+01
4847000000.000000      7.278137000000000E-01     -1.657500000000000E+02      3.868256000000000E-01     -4.081445000000000E+01      3.783722000000000E-01     -1.483750000000000E+02      7.463379000000000E-01     -7.453906000000000E+01
4848000000.000000      7.348022000000000E-01     -1.656875000000000E+02      3.870239000000000E-01     -4.143945000000000E+01      3.797150000000000E-01     -1.486250000000000E+02      7.493591000000000E-01     -7.450000000000000E+01
4849000000.000000      7.414856000000000E-01     -1.659297000000000E+02      3.883667000000000E-01     -4.204492000000000E+01      3.822174000000000E-01     -1.487266000000000E+02      7.535400000000000E-01     -7.438671000000000E+01
4850000000.000000      7.491760000000000E-01     -1.657109000000000E+02      3.890686000000000E-01     -4.241015000000000E+01      3.837280000000000E-01     -1.488750000000000E+02      7.578735000000000E-01     -7.435547000000000E+01
4851000000.000000      7.552185000000000E-01     -1.657734000000000E+02      3.899689000000000E-01     -4.305273000000000E+01      3.843231000000000E-01     -1.490391000000000E+02      7.643433000000000E-01     -7.442577000000000E+01
4852000000.000000      7.623291000000000E-01     -1.657109000000000E+02      3.901520000000000E-01     -4.361718000000000E+01      3.865204000000000E-01     -1.492031000000000E+02      7.685242000000000E-01     -7.453125000000000E+01
4853000000.000000      7.692566000000000E-01     -1.657187000000000E+02      3.889313000000000E-01     -4.409961000000000E+01      3.889771000000000E-01     -1.494531000000000E+02      7.737427000000000E-01     -7.466015000000000E+01
4854000000.000000      7.756042000000000E-01     -1.657031000000000E+02      3.902740000000000E-01     -4.477344000000000E+01      3.886719000000000E-01     -1.496562000000000E+02      7.773743000000000E-01     -7.461719000000000E+01
4855000000.000000      7.803040000000000E-01     -1.657344000000000E+02      3.899078000000000E-01     -4.508789000000000E+01      3.905640000000000E-01     -1.497266000000000E+02      7.817383000000000E-01     -7.454687000000000E+01
4856000000.000000      7.888794000000000E-01     -1.656875000000000E+02      3.900299000000000E-01     -4.565430000000000E+01      3.920593000000000E-01     -1.499063000000000E+02      7.879944000000000E-01     -7.471874000000000E+01
4857000000.000000      7.954407000000000E-01     -1.657266000000000E+02      3.894958000000000E-01     -4.610742000000000E+01      3.925171000000000E-01     -1.500391000000000E+02      7.930603000000000E-01     -7.474218000000000E+01
4858000000.000000      7.980347000000000E-01     -1.657500000000000E+02      3.891296000000000E-01     -4.656446000000000E+01      3.938141000000000E-01     -1.503047000000000E+02      7.973328000000000E-01     -7.474999000000000E+01
4859000000.000000      8.050537000000000E-01     -1.658203000000000E+02      3.892822000000000E-01     -4.707421000000000E+01      3.955536000000000E-01     -1.505625000000000E+02      8.029175000000000E-01     -7.489843000000000E+01
4860000000.000000      8.127441000000000E-01     -1.657656000000000E+02      3.887787000000000E-01     -4.752149000000000E+01      3.958435000000000E-01     -1.505938000000000E+02      8.064270000000000E-01     -7.492188000000000E+01
4861000000.000000      8.179016000000000E-01     -1.656563000000000E+02      3.884430000000000E-01     -4.808398000000000E+01      3.976288000000000E-01     -1.507422000000000E+02      8.120728000000000E-01     -7.499609000000000E+01
4862000000.000000      8.240662000000000E-01     -1.657031000000000E+02      3.881989000000000E-01     -4.846484000000000E+01      3.992615000000000E-01     -1.509766000000000E+02      8.169861000000000E-01     -7.495703000000000E+01
4863000000.000000      8.285522000000000E-01     -1.657109000000000E+02      3.861847000000000E-01     -4.897070000000000E+01      4.003143000000000E-01     -1.511406000000000E+02      8.231201000000000E-01     -7.508984000000000E+01
4864000000.000000      8.355408000000000E-01     -1.657578000000000E+02      3.863068000000000E-01     -4.924805000000000E+01      4.001617000000000E-01     -1.512500000000000E+02      8.265076000000000E-01     -7.514453000000000E+01
4865000000.000000      8.393860000000000E-01     -1.658984000000000E+02      3.851624000000000E-01     -4.979882000000000E+01      4.011841000000000E-01     -1.514922000000000E+02      8.323975000000000E-01     -7.507813000000000E+01
4866000000.000000      8.434143000000000E-01     -1.656250000000000E+02      3.837891000000000E-01     -5.011328000000000E+01      4.024353000000000E-01     -1.516406000000000E+02      8.367004000000000E-01     -7.520702000000000E+01
4867000000.000000      8.468018000000000E-01     -1.656250000000000E+02      3.830872000000000E-01     -5.069921000000000E+01      4.031525000000000E-01     -1.518437000000000E+02      8.418274000000000E-01     -7.532812000000000E+01
4868000000.000000      8.515015000000000E-01     -1.658203000000000E+02      3.825073000000000E-01     -5.084374000000000E+01      4.045868000000000E-01     -1.519766000000000E+02      8.468628000000000E-01     -7.538280000000000E+01
4869000000.000000      8.561401000000000E-01     -1.655937000000000E+02      3.808136000000000E-01     -5.129492000000000E+01      4.051056000000000E-01     -1.522187000000000E+02      8.522949000000000E-01     -7.564062000000000E+01
4870000000.000000      8.593445000000000E-01     -1.658281000000000E+02      3.801270000000000E-01     -5.148242000000000E+01      4.049072000000000E-01     -1.523750000000000E+02      8.565979000000000E-01     -7.551952000000000E+01
4871000000.000000      8.652344000000000E-01     -1.657422000000000E+02      3.791199000000000E-01     -5.204492000000000E+01      4.055023000000000E-01     -1.525781000000000E+02      8.586731000000000E-01     -7.573437000000000E+01
4872000000.000000      8.695984000000000E-01     -1.656719000000000E+02      3.772583000000000E-01     -5.218554000000000E+01      4.063263000000000E-01     -1.528359000000000E+02      8.650818000000000E-01     -7.582421000000000E+01
4873000000.000000      8.711853000000000E-01     -1.656016000000000E+02      3.758850000000000E-01     -5.259570000000000E+01      4.061584000000000E-01     -1.528594000000000E+02      8.688965000000000E-01     -7.593359000000000E+01
4874000000.000000      8.730164000000000E-01     -1.656250000000000E+02      3.750916000000000E-01     -5.302148000000000E+01      4.076996000000000E-01     -1.530078000000000E+02      8.733521000000000E-01     -7.589062000000000E+01
4875000000.000000      8.805542000000000E-01     -1.656172000000000E+02      3.727722000000000E-01     -5.314258000000000E+01      4.077606000000000E-01     -1.532969000000000E+02      8.788147000000000E-01     -7.613281000000000E+01
4876000000.000000      8.786316000000000E-01     -1.655781000000000E+02      3.713074000000000E-01     -5.359179000000000E+01      4.069672000000000E-01     -1.534297000000000E+02      8.825073000000000E-01     -7.625781000000000E+01
4877000000.000000      8.839417000000000E-01     -1.654844000000000E+02      3.707123000000000E-01     -5.366015000000000E+01      4.082947000000000E-01     -1.536953000000000E+02      8.869934000000000E-01     -7.644921000000000E+01
4878000000.000000      8.862610000000000E-01     -1.653750000000000E+02      3.696442000000000E-01     -5.396093000000000E+01      4.081116000000000E-01     -1.536484000000000E+02      8.906555000000000E-01     -7.653906000000000E+01
4879000000.000000      8.887024000000000E-01     -1.653047000000000E+02      3.665924000000000E-01     -5.411327000000000E+01      4.082031000000000E-01     -1.538359000000000E+02      8.940125000000000E-01     -7.653125000000000E+01
4880000000.000000      8.884277000000000E-01     -1.653828000000000E+02      3.665009000000000E-01     -5.438477000000000E+01      4.086456000000000E-01     -1.539609000000000E+02      8.995361000000000E-01     -7.671484000000000E+01
4881000000.000000      8.938904000000000E-01     -1.652031000000000E+02      3.647461000000000E-01     -5.441992000000000E+01      4.091644000000000E-01     -1.542656000000000E+02      9.025269000000000E-01     -7.682422000000000E+01
4882000000.000000      8.931274000000000E-01     -1.650391000000000E+02      3.635559000000000E-01     -5.470508000000000E+01      4.087677000000000E-01     -1.542812000000000E+02      9.071960000000000E-01     -7.700000000000000E+01
