! Network Analyzer HP8722D
! Hewlett-Packard
! Data name: Linha & Wilkinson
! Saver's name: Rodrigo Anjos
! Comments: Teste da utilização de aquisição
continua pelo VNA HP8722D
! Time and date: 6/5/2025 14:51
!              Frequency                     S11                                                   S21                                                   S12                                                   S22
# HZ  S  MA R 50
4800000000.000000      4.964752000000000E-01     -1.682344000000000E+02      2.522278000000000E-01     -1.975488000000000E+01      2.488480000000000E-01     -1.408281000000000E+02      6.485291000000000E-01     -8.034765000000000E+01
4801000000.000000      4.979858000000000E-01     -1.683047000000000E+02      2.559204000000000E-01     -1.974023000000000E+01      2.518921000000000E-01     -1.409922000000000E+02      6.470947000000000E-01     -8.010546000000000E+01
4802000000.000000      4.988708000000000E-01     -1.683594000000000E+02      2.593842000000000E-01     -2.002734000000000E+01      2.562103000000000E-01     -1.408672000000000E+02      6.451111000000000E-01     -7.981640000000000E+01
4803000000.000000      5.008545000000000E-01     -1.684062000000000E+02      2.650452000000000E-01     -2.021679000000000E+01      2.594147000000000E-01     -1.410078000000000E+02      6.448975000000000E-01     -7.967578000000000E+01
4804000000.000000      5.031128000000000E-01     -1.683906000000000E+02      2.681885000000000E-01     -2.069336000000000E+01      2.633514000000000E-01     -1.412188000000000E+02      6.442261000000000E-01     -7.949219000000000E+01
4805000000.000000      5.057983000000000E-01     -1.684687000000000E+02      2.725677000000000E-01     -2.088965000000000E+01      2.673187000000000E-01     -1.411016000000000E+02      6.443787000000000E-01     -7.924218000000000E+01
4806000000.000000      5.072021000000000E-01     -1.684062000000000E+02      2.763824000000000E-01     -2.124902000000000E+01      2.700195000000000E-01     -1.412422000000000E+02      6.439514000000000E-01     -7.906250000000000E+01
4807000000.000000      5.103455000000000E-01     -1.683750000000000E+02      2.810364000000000E-01     -2.155859000000000E+01      2.743988000000000E-01     -1.415000000000000E+02      6.435547000000000E-01     -7.874609000000000E+01
4808000000.000000      5.129089000000000E-01     -1.683281000000000E+02      2.852783000000000E-01     -2.170410000000000E+01      2.769623000000000E-01     -1.415234000000000E+02      6.430054000000000E-01     -7.867969000000000E+01
4809000000.000000      5.152893000000000E-01     -1.683984000000000E+02      2.882996000000000E-01     -2.234082000000000E+01      2.811890000000000E-01     -1.416172000000000E+02      6.431274000000000E-01     -7.848046000000000E+01
4810000000.000000      5.182495000000000E-01     -1.683984000000000E+02      2.926331000000000E-01     -2.248926000000000E+01      2.842102000000000E-01     -1.418359000000000E+02      6.431274000000000E-01     -7.823437000000000E+01
4811000000.000000      5.214844000000000E-01     -1.683516000000000E+02      2.962494000000000E-01     -2.308594000000000E+01      2.890015000000000E-01     -1.418750000000000E+02      6.442566000000000E-01     -7.796875000000000E+01
4812000000.000000      5.252991000000000E-01     -1.682969000000000E+02      3.001556000000000E-01     -2.339453000000000E+01      2.917023000000000E-01     -1.419688000000000E+02      6.449585000000000E-01     -7.785156000000000E+01
4813000000.000000      5.280762000000000E-01     -1.682344000000000E+02      3.037872000000000E-01     -2.371875000000000E+01      2.944794000000000E-01     -1.420781000000000E+02      6.448975000000000E-01     -7.760547000000000E+01
4814000000.000000      5.305481000000000E-01     -1.683125000000000E+02      3.072968000000000E-01     -2.405468000000000E+01      2.979584000000000E-01     -1.423594000000000E+02      6.460266000000000E-01     -7.752734000000000E+01
4815000000.000000      5.340271000000000E-01     -1.681406000000000E+02      3.108978000000000E-01     -2.452734000000000E+01      3.005829000000000E-01     -1.424141000000000E+02      6.462708000000000E-01     -7.719531000000000E+01
4816000000.000000      5.390930000000000E-01     -1.680156000000000E+02      3.146820000000000E-01     -2.487109000000000E+01      3.049316000000000E-01     -1.426328000000000E+02      6.473389000000000E-01     -7.710155000000000E+01
4817000000.000000      5.432739000000000E-01     -1.679844000000000E+02      3.187103000000000E-01     -2.549609000000000E+01      3.073730000000000E-01     -1.428281000000000E+02      6.492004000000000E-01     -7.681641000000000E+01
4818000000.000000      5.468445000000000E-01     -1.678984000000000E+02      3.212280000000000E-01     -2.591894000000000E+01      3.112793000000000E-01     -1.428984000000000E+02      6.500854000000000E-01     -7.675781000000000E+01
4819000000.000000      5.517883000000000E-01     -1.678594000000000E+02      3.253937000000000E-01     -2.625488000000000E+01      3.130951000000000E-01     -1.431015000000000E+02      6.527405000000000E-01     -7.665625000000000E+01
4820000000.000000      5.542908000000000E-01     -1.677891000000000E+02      3.281403000000000E-01     -2.668945000000000E+01      3.169708000000000E-01     -1.432500000000000E+02      6.541443000000000E-01     -7.644921000000000E+01
4821000000.000000      5.605774000000000E-01     -1.677031000000000E+02      3.324280000000000E-01     -2.717480000000000E+01      3.198242000000000E-01     -1.436172000000000E+02      6.556396000000000E-01     -7.633594000000000E+01
4822000000.000000      5.671997000000000E-01     -1.676484000000000E+02      3.349762000000000E-01     -2.760547000000000E+01      3.222198000000000E-01     -1.437187000000000E+02      6.587830000000000E-01     -7.614452000000000E+01
4823000000.000000      5.707703000000000E-01     -1.675156000000000E+02      3.378448000000000E-01     -2.818164000000000E+01      3.247375000000000E-01     -1.438281000000000E+02      6.605225000000000E-01     -7.590234000000000E+01
4824000000.000000      5.775146000000000E-01     -1.674844000000000E+02      3.410492000000000E-01     -2.876172000000000E+01      3.283539000000000E-01     -1.440859000000000E+02      6.625977000000000E-01     -7.588281000000000E+01
4825000000.000000      5.813599000000000E-01     -1.673516000000000E+02      3.437042000000000E-01     -2.914746000000000E+01      3.313141000000000E-01     -1.442500000000000E+02      6.660156000000000E-01     -7.571094000000000E+01
4826000000.000000      5.881958000000000E-01     -1.672422000000000E+02      3.470612000000000E-01     -2.966894000000000E+01      3.335114000000000E-01     -1.445547000000000E+02      6.683044000000000E-01     -7.565234000000000E+01
4827000000.000000      5.934753000000000E-01     -1.671250000000000E+02      3.504791000000000E-01     -3.016992000000000E+01      3.356781000000000E-01     -1.446406000000000E+02      6.701355000000000E-01     -7.548437000000000E+01
4828000000.000000      6.005554000000000E-01     -1.670781000000000E+02      3.538361000000000E-01     -3.055176000000000E+01      3.380127000000000E-01     -1.448125000000000E+02      6.737061000000000E-01     -7.540234000000000E+01
4829000000.000000      6.033630000000000E-01     -1.669531000000000E+02      3.551483000000000E-01     -3.114355000000000E+01      3.411255000000000E-01     -1.450547000000000E+02      6.772766000000000E-01     -7.530468000000000E+01
4830000000.000000      6.107178000000000E-01     -1.668594000000000E+02      3.579407000000000E-01     -3.164258000000000E+01      3.437805000000000E-01     -1.452031000000000E+02      6.798401000000000E-01     -7.522655000000000E+01
4831000000.000000      6.165161000000000E-01     -1.667891000000000E+02      3.604584000000000E-01     -3.225976000000000E+01      3.462982000000000E-01     -1.453984000000000E+02      6.828003000000000E-01     -7.507813000000000E+01
4832000000.000000      6.248779000000000E-01     -1.666875000000000E+02      3.630371000000000E-01     -3.289258000000000E+01      3.483124000000000E-01     -1.456719000000000E+02      6.864624000000000E-01     -7.503124000000000E+01
4833000000.000000      6.305847000000000E-01     -1.667109000000000E+02      3.652649000000000E-01     -3.342187000000000E+01      3.504944000000000E-01     -1.459141000000000E+02      6.889343000000000E-01     -7.497656000000000E+01
4834000000.000000      6.369019000000000E-01     -1.665390000000000E+02      3.678589000000000E-01     -3.384766000000000E+01      3.529663000000000E-01     -1.460547000000000E+02      6.922607000000000E-01     -7.483984000000000E+01
4835000000.000000      6.434326000000000E-01     -1.665547000000000E+02      3.696289000000000E-01     -3.439844000000000E+01      3.551788000000000E-01     -1.461406000000000E+02      6.969604000000000E-01     -7.491796000000000E+01
4836000000.000000      6.519470000000000E-01     -1.663750000000000E+02      3.713684000000000E-01     -3.506445000000000E+01      3.572235000000000E-01     -1.463438000000000E+02      6.998596000000000E-01     -7.478906000000000E+01
4837000000.000000      6.577148000000000E-01     -1.662734000000000E+02      3.738708000000000E-01     -3.581445000000000E+01      3.593140000000000E-01     -1.466719000000000E+02      7.047119000000000E-01     -7.462109000000000E+01
4838000000.000000      6.639404000000000E-01     -1.663203000000000E+02      3.759308000000000E-01     -3.610156000000000E+01      3.620911000000000E-01     -1.468281000000000E+02      7.080383000000000E-01     -7.464844000000000E+01
4839000000.000000      6.719360000000000E-01     -1.661719000000000E+02      3.774109000000000E-01     -3.666797000000000E+01      3.633881000000000E-01     -1.470078000000000E+02      7.115173000000000E-01     -7.457421000000000E+01
4840000000.000000      6.769409000000000E-01     -1.661641000000000E+02      3.775635000000000E-01     -3.719531000000000E+01      3.654480000000000E-01     -1.472422000000000E+02      7.157898000000000E-01     -7.466797000000000E+01
4841000000.000000      6.855469000000000E-01     -1.662031000000000E+02      3.803253000000000E-01     -3.790430000000000E+01      3.681030000000000E-01     -1.474688000000000E+02      7.196655000000000E-01     -7.456640000000000E+01
4842000000.000000      6.932983000000000E-01     -1.660781000000000E+02      3.822021000000000E-01     -3.845703000000000E+01      3.691101000000000E-01     -1.476406000000000E+02      7.243958000000000E-01     -7.452343000000000E+01
4843000000.000000      6.994629000000000E-01     -1.661172000000000E+02      3.839111000000000E-01     -3.899414000000000E+01      3.714905000000000E-01     -1.478828000000000E+02      7.287598000000000E-01     -7.450390000000000E+01
4844000000.000000      7.062683000000000E-01     -1.660391000000000E+02      3.847046000000000E-01     -3.964258000000000E+01      3.725739000000000E-01     -1.480547000000000E+02      7.317200000000000E-01     -7.457421000000000E+01
4845000000.000000      7.132263000000000E-01     -1.659297000000000E+02      3.844452000000000E-01     -4.001953000000000E+01      3.746948000000000E-01     -1.482188000000000E+02      7.356262000000000E-01     -7.444921000000000E+01
4846000000.000000      7.199402000000000E-01     -1.658828000000000E+02      3.867188000000000E-01     -4.052343000000000E+01      3.769684000000000E-01     -1.483516000000000E+02      7.406616000000000E-01     -7.455078000000000E+01
4847000000.000000      7.277832000000000E-01     -1.658906000000000E+02      3.871307000000000E-01     -4.108788000000000E+01      3.787537000000000E-01     -1.487500000000000E+02      7.461243000000000E-01     -7.453125000000000E+01
4848000000.000000      7.349548000000000E-01     -1.658047000000000E+02      3.875275000000000E-01     -4.165625000000000E+01      3.799133000000000E-01     -1.487734000000000E+02      7.496948000000000E-01     -7.454296000000000E+01
4849000000.000000      7.419128000000000E-01     -1.660781000000000E+02      3.882294000000000E-01     -4.229688000000000E+01      3.815002000000000E-01     -1.489375000000000E+02      7.550354000000000E-01     -7.453125000000000E+01
4850000000.000000      7.489624000000000E-01     -1.658516000000000E+02      3.887482000000000E-01     -4.267383000000000E+01      3.827667000000000E-01     -1.490859000000000E+02      7.587280000000000E-01     -7.448828000000000E+01
4851000000.000000      7.565308000000000E-01     -1.658047000000000E+02      3.906555000000000E-01     -4.340039000000000E+01      3.845978000000000E-01     -1.492812000000000E+02      7.651672000000000E-01     -7.450390000000000E+01
4852000000.000000      7.630615000000000E-01     -1.659062000000000E+02      3.909607000000000E-01     -4.380859000000000E+01      3.862762000000000E-01     -1.494922000000000E+02      7.686462000000000E-01     -7.457421000000000E+01
4853000000.000000      7.703552000000000E-01     -1.658359000000000E+02      3.891602000000000E-01     -4.434570000000000E+01      3.882446000000000E-01     -1.496328000000000E+02      7.737732000000000E-01     -7.475780000000000E+01
4854000000.000000      7.766113000000000E-01     -1.658750000000000E+02      3.900909000000000E-01     -4.505664000000000E+01      3.891602000000000E-01     -1.498828000000000E+02      7.791138000000000E-01     -7.464062000000000E+01
4855000000.000000      7.817383000000000E-01     -1.658437000000000E+02      3.894348000000000E-01     -4.533008000000000E+01      3.903503000000000E-01     -1.499531000000000E+02      7.826843000000000E-01     -7.473437000000000E+01
4856000000.000000      7.897339000000000E-01     -1.658203000000000E+02      3.903351000000000E-01     -4.579297000000000E+01      3.913727000000000E-01     -1.501797000000000E+02      7.878113000000000E-01     -7.472656000000000E+01
4857000000.000000      7.960205000000000E-01     -1.659219000000000E+02      3.900604000000000E-01     -4.650976000000000E+01      3.925171000000000E-01     -1.503281000000000E+02      7.931213000000000E-01     -7.477734000000000E+01
4858000000.000000      7.988892000000000E-01     -1.659219000000000E+02      3.895111000000000E-01     -4.682813000000000E+01      3.936005000000000E-01     -1.505078000000000E+02      7.978516000000000E-01     -7.486328000000000E+01
4859000000.000000      8.065796000000000E-01     -1.659219000000000E+02      3.895416000000000E-01     -4.733203000000000E+01      3.954773000000000E-01     -1.508047000000000E+02      8.038940000000000E-01     -7.493750000000000E+01
4860000000.000000      8.137207000000000E-01     -1.658594000000000E+02      3.885651000000000E-01     -4.781446000000000E+01      3.960876000000000E-01     -1.508281000000000E+02      8.069458000000000E-01     -7.484765000000000E+01
4861000000.000000      8.183289000000000E-01     -1.657812000000000E+02      3.879547000000000E-01     -4.825195000000000E+01      3.974152000000000E-01     -1.509766000000000E+02      8.119202000000000E-01     -7.507813000000000E+01
4862000000.000000      8.245544000000000E-01     -1.659609000000000E+02      3.880157000000000E-01     -4.866015000000000E+01      3.991089000000000E-01     -1.511719000000000E+02      8.185425000000000E-01     -7.507421000000000E+01
4863000000.000000      8.283691000000000E-01     -1.659141000000000E+02      3.854980000000000E-01     -4.929296000000000E+01      3.997192000000000E-01     -1.513281000000000E+02      8.237000000000000E-01     -7.515625000000000E+01
4864000000.000000      8.341064000000000E-01     -1.659688000000000E+02      3.859558000000000E-01     -4.949219000000000E+01      3.997650000000000E-01     -1.514531000000000E+02      8.268433000000000E-01     -7.528515000000000E+01
4865000000.000000      8.380432000000000E-01     -1.660078000000000E+02      3.845673000000000E-01     -4.998632000000000E+01      4.011078000000000E-01     -1.517500000000000E+02      8.324890000000000E-01     -7.519140000000000E+01
4866000000.000000      8.441467000000000E-01     -1.658750000000000E+02      3.829956000000000E-01     -5.035546000000000E+01      4.021301000000000E-01     -1.518359000000000E+02      8.371887000000000E-01     -7.527734000000000E+01
4867000000.000000      8.489990000000000E-01     -1.659453000000000E+02      3.832245000000000E-01     -5.090429000000000E+01      4.028320000000000E-01     -1.519922000000000E+02      8.425598000000000E-01     -7.542969000000000E+01
4868000000.000000      8.541260000000000E-01     -1.660312000000000E+02      3.817444000000000E-01     -5.123241000000000E+01      4.042511000000000E-01     -1.521719000000000E+02      8.466797000000000E-01     -7.552734000000000E+01
4869000000.000000      8.569031000000000E-01     -1.659297000000000E+02      3.806458000000000E-01     -5.163280000000000E+01      4.044495000000000E-01     -1.523984000000000E+02      8.521423000000000E-01     -7.576562000000000E+01
4870000000.000000      8.613586000000000E-01     -1.659297000000000E+02      3.798523000000000E-01     -5.178905000000000E+01      4.049683000000000E-01     -1.525391000000000E+02      8.568115000000000E-01     -7.571875000000000E+01
4871000000.000000      8.647766000000000E-01     -1.660391000000000E+02      3.780212000000000E-01     -5.218359000000000E+01      4.045868000000000E-01     -1.527500000000000E+02      8.601379000000000E-01     -7.595703000000000E+01
4872000000.000000      8.697205000000000E-01     -1.658516000000000E+02      3.764648000000000E-01     -5.241405000000000E+01      4.060974000000000E-01     -1.530625000000000E+02      8.671265000000000E-01     -7.593359000000000E+01
4873000000.000000      8.730774000000000E-01     -1.658203000000000E+02      3.757629000000000E-01     -5.291601000000000E+01      4.056244000000000E-01     -1.531250000000000E+02      8.694763000000000E-01     -7.600780000000000E+01
4874000000.000000      8.749084000000000E-01     -1.657266000000000E+02      3.737793000000000E-01     -5.315039000000000E+01      4.075470000000000E-01     -1.531797000000000E+02      8.731995000000000E-01     -7.597656000000000E+01
4875000000.000000      8.807068000000000E-01     -1.657734000000000E+02      3.723450000000000E-01     -5.347461000000000E+01      4.073639000000000E-01     -1.535234000000000E+02      8.782959000000000E-01     -7.626171000000000E+01
4876000000.000000      8.811951000000000E-01     -1.656641000000000E+02      3.715363000000000E-01     -5.372070000000000E+01      4.065094000000000E-01     -1.536094000000000E+02      8.828430000000000E-01     -7.644531000000000E+01
4877000000.000000      8.831482000000000E-01     -1.655547000000000E+02      3.708496000000000E-01     -5.376171000000000E+01      4.081116000000000E-01     -1.538672000000000E+02      8.879395000000000E-01     -7.651172000000000E+01
4878000000.000000      8.869629000000000E-01     -1.656484000000000E+02      3.688202000000000E-01     -5.412304000000000E+01      4.077148000000000E-01     -1.538203000000000E+02      8.907776000000000E-01     -7.658984000000000E+01
4879000000.000000      8.903809000000000E-01     -1.655000000000000E+02      3.664246000000000E-01     -5.426952000000000E+01      4.075623000000000E-01     -1.540469000000000E+02      8.954163000000000E-01     -7.655859000000000E+01
4880000000.000000      8.911133000000000E-01     -1.655000000000000E+02      3.656464000000000E-01     -5.463867000000000E+01      4.086304000000000E-01     -1.541719000000000E+02      8.993530000000000E-01     -7.688671000000000E+01
4881000000.000000      8.952942000000000E-01     -1.653047000000000E+02      3.653259000000000E-01     -5.461719000000000E+01      4.088287000000000E-01     -1.544531000000000E+02      9.041443000000000E-01     -7.684765000000000E+01
4882000000.000000      8.932190000000000E-01     -1.652891000000000E+02      3.629913000000000E-01     -5.492382000000000E+01      4.082642000000000E-01     -1.544922000000000E+02      9.054565000000000E-01     -7.700000000000000E+01
