! Network Analyzer HP8722D
! Hewlett-Packard
! Data name: Linha & Wilkinson
! Saver's name: Rodrigo Anjos
! Comments: Teste da utilização de aquisição
continua pelo VNA HP8722D
! Time and date: 6/5/2025 15:19
!              Frequency                     S11                                                   S21                                                   S12                                                   S22
# HZ  S  MA R 50
4800000000.000000      4.967499000000000E-01     -1.681562000000000E+02      2.515564000000000E-01     -1.958789000000000E+01      2.480316000000000E-01     -1.407578000000000E+02      6.484070000000000E-01     -8.040234000000000E+01
4801000000.000000      4.984741000000000E-01     -1.682344000000000E+02      2.557068000000000E-01     -1.976465000000000E+01      2.520294000000000E-01     -1.408516000000000E+02      6.472473000000000E-01     -8.010546000000000E+01
4802000000.000000      4.992828000000000E-01     -1.683281000000000E+02      2.594147000000000E-01     -1.997266000000000E+01      2.559357000000000E-01     -1.408750000000000E+02      6.447754000000000E-01     -7.982422000000000E+01
4803000000.000000      5.005188000000000E-01     -1.684141000000000E+02      2.644043000000000E-01     -2.035449000000000E+01      2.587891000000000E-01     -1.409531000000000E+02      6.452942000000000E-01     -7.957421000000000E+01
4804000000.000000      5.029297000000000E-01     -1.683359000000000E+02      2.676544000000000E-01     -2.055859000000000E+01      2.633820000000000E-01     -1.411484000000000E+02      6.451111000000000E-01     -7.944140000000000E+01
4805000000.000000      5.053711000000000E-01     -1.684141000000000E+02      2.724762000000000E-01     -2.087402000000000E+01      2.664337000000000E-01     -1.411172000000000E+02      6.434326000000000E-01     -7.933984000000000E+01
4806000000.000000      5.069885000000000E-01     -1.683594000000000E+02      2.763977000000000E-01     -2.102734000000000E+01      2.696381000000000E-01     -1.410391000000000E+02      6.442261000000000E-01     -7.916406000000000E+01
4807000000.000000      5.097046000000000E-01     -1.683906000000000E+02      2.800446000000000E-01     -2.157715000000000E+01      2.734833000000000E-01     -1.413750000000000E+02      6.430054000000000E-01     -7.882421000000000E+01
4808000000.000000      5.125427000000000E-01     -1.683516000000000E+02      2.846832000000000E-01     -2.166797000000000E+01      2.770233000000000E-01     -1.413984000000000E+02      6.425781000000000E-01     -7.860937000000000E+01
4809000000.000000      5.149536000000000E-01     -1.683281000000000E+02      2.879333000000000E-01     -2.216504000000000E+01      2.811584000000000E-01     -1.415703000000000E+02      6.440735000000000E-01     -7.845703000000000E+01
4810000000.000000      5.182800000000000E-01     -1.683828000000000E+02      2.919769000000000E-01     -2.253516000000000E+01      2.839050000000000E-01     -1.416406000000000E+02      6.432190000000000E-01     -7.824609000000000E+01
4811000000.000000      5.208435000000000E-01     -1.682812000000000E+02      2.964325000000000E-01     -2.299121000000000E+01      2.884827000000000E-01     -1.417500000000000E+02      6.436157000000000E-01     -7.787890000000000E+01
4812000000.000000      5.252991000000000E-01     -1.682500000000000E+02      2.992096000000000E-01     -2.334961000000000E+01      2.917175000000000E-01     -1.418672000000000E+02      6.448364000000000E-01     -7.782031000000000E+01
4813000000.000000      5.275269000000000E-01     -1.681953000000000E+02      3.030701000000000E-01     -2.369629000000000E+01      2.942505000000000E-01     -1.419219000000000E+02      6.448364000000000E-01     -7.763281000000000E+01
4814000000.000000      5.303650000000000E-01     -1.682891000000000E+02      3.067627000000000E-01     -2.405762000000000E+01      2.977905000000000E-01     -1.422656000000000E+02      6.455688000000000E-01     -7.746875000000000E+01
4815000000.000000      5.343323000000000E-01     -1.681094000000000E+02      3.107147000000000E-01     -2.445019000000000E+01      3.009338000000000E-01     -1.423750000000000E+02      6.463318000000000E-01     -7.721484000000000E+01
4816000000.000000      5.390930000000000E-01     -1.680234000000000E+02      3.145294000000000E-01     -2.477051000000000E+01      3.048706000000000E-01     -1.424922000000000E+02      6.482849000000000E-01     -7.696094000000000E+01
4817000000.000000      5.432129000000000E-01     -1.678750000000000E+02      3.183441000000000E-01     -2.529882000000000E+01      3.074188000000000E-01     -1.426797000000000E+02      6.489868000000000E-01     -7.680469000000000E+01
4818000000.000000      5.468750000000000E-01     -1.678750000000000E+02      3.212280000000000E-01     -2.569629000000000E+01      3.105621000000000E-01     -1.428516000000000E+02      6.509399000000000E-01     -7.675390000000000E+01
4819000000.000000      5.520325000000000E-01     -1.678047000000000E+02      3.245392000000000E-01     -2.619433000000000E+01      3.127594000000000E-01     -1.430547000000000E+02      6.532898000000000E-01     -7.664844000000000E+01
4820000000.000000      5.542297000000000E-01     -1.677656000000000E+02      3.276978000000000E-01     -2.652441000000000E+01      3.164673000000000E-01     -1.431094000000000E+02      6.549377000000000E-01     -7.639453000000000E+01
4821000000.000000      5.609131000000000E-01     -1.676250000000000E+02      3.317719000000000E-01     -2.711719000000000E+01      3.191986000000000E-01     -1.434375000000000E+02      6.552429000000000E-01     -7.631640000000000E+01
4822000000.000000      5.667725000000000E-01     -1.676484000000000E+02      3.345947000000000E-01     -2.761914000000000E+01      3.217316000000000E-01     -1.436641000000000E+02      6.581726000000000E-01     -7.612499000000000E+01
4823000000.000000      5.700378000000000E-01     -1.674766000000000E+02      3.381805000000000E-01     -2.806738000000000E+01      3.248596000000000E-01     -1.437031000000000E+02      6.603088000000000E-01     -7.603516000000000E+01
4824000000.000000      5.771790000000000E-01     -1.674375000000000E+02      3.415375000000000E-01     -2.858007000000000E+01      3.279266000000000E-01     -1.440391000000000E+02      6.628723000000000E-01     -7.585546000000000E+01
4825000000.000000      5.808411000000000E-01     -1.673828000000000E+02      3.438416000000000E-01     -2.897656000000000E+01      3.312225000000000E-01     -1.441328000000000E+02      6.652832000000000E-01     -7.567577000000000E+01
4826000000.000000      5.875549000000000E-01     -1.672422000000000E+02      3.470764000000000E-01     -2.963183000000000E+01      3.325195000000000E-01     -1.444062000000000E+02      6.681824000000000E-01     -7.559765000000000E+01
4827000000.000000      5.932007000000000E-01     -1.670703000000000E+02      3.504791000000000E-01     -3.003613000000000E+01      3.361511000000000E-01     -1.445234000000000E+02      6.705627000000000E-01     -7.547656000000000E+01
4828000000.000000      5.996094000000000E-01     -1.670391000000000E+02      3.533020000000000E-01     -3.051270000000000E+01      3.379517000000000E-01     -1.448281000000000E+02      6.744080000000000E-01     -7.539453000000000E+01
4829000000.000000      6.036987000000000E-01     -1.668906000000000E+02      3.548279000000000E-01     -3.117578000000000E+01      3.414459000000000E-01     -1.449609000000000E+02      6.771545000000000E-01     -7.523438000000000E+01
4830000000.000000      6.107178000000000E-01     -1.668359000000000E+02      3.577576000000000E-01     -3.158594000000000E+01      3.433075000000000E-01     -1.450391000000000E+02      6.798706000000000E-01     -7.511328000000000E+01
4831000000.000000      6.157227000000000E-01     -1.667422000000000E+02      3.598175000000000E-01     -3.231640000000000E+01      3.459167000000000E-01     -1.452266000000000E+02      6.828003000000000E-01     -7.513672000000000E+01
4832000000.000000      6.245422000000000E-01     -1.666641000000000E+02      3.631287000000000E-01     -3.274805000000000E+01      3.485413000000000E-01     -1.455000000000000E+02      6.856384000000000E-01     -7.506640000000000E+01
4833000000.000000      6.300964000000000E-01     -1.666406000000000E+02      3.648376000000000E-01     -3.320898000000000E+01      3.500061000000000E-01     -1.458203000000000E+02      6.889954000000000E-01     -7.491796000000000E+01
4834000000.000000      6.365051000000000E-01     -1.665234000000000E+02      3.671417000000000E-01     -3.384570000000000E+01      3.529816000000000E-01     -1.460078000000000E+02      6.928406000000000E-01     -7.488671000000000E+01
4835000000.000000      6.427612000000000E-01     -1.664922000000000E+02      3.697662000000000E-01     -3.439453000000000E+01      3.554535000000000E-01     -1.460156000000000E+02      6.968994000000000E-01     -7.487109000000000E+01
4836000000.000000      6.510620000000000E-01     -1.663359000000000E+02      3.714294000000000E-01     -3.490429000000000E+01      3.574677000000000E-01     -1.463984000000000E+02      7.006226000000000E-01     -7.480469000000000E+01
4837000000.000000      6.579590000000000E-01     -1.661875000000000E+02      3.734283000000000E-01     -3.557812000000000E+01      3.599548000000000E-01     -1.466484000000000E+02      7.034607000000000E-01     -7.469531000000000E+01
4838000000.000000      6.643066000000000E-01     -1.662734000000000E+02      3.759766000000000E-01     -3.598047000000000E+01      3.615417000000000E-01     -1.467344000000000E+02      7.070618000000000E-01     -7.459765000000000E+01
4839000000.000000      6.712952000000000E-01     -1.660859000000000E+02      3.778687000000000E-01     -3.662890000000000E+01      3.635254000000000E-01     -1.468594000000000E+02      7.116089000000000E-01     -7.455078000000000E+01
4840000000.000000      6.772766000000000E-01     -1.661562000000000E+02      3.784332000000000E-01     -3.711914000000000E+01      3.660278000000000E-01     -1.471641000000000E+02      7.158203000000000E-01     -7.453125000000000E+01
4841000000.000000      6.853943000000000E-01     -1.661094000000000E+02      3.807526000000000E-01     -3.784570000000000E+01      3.678894000000000E-01     -1.473672000000000E+02      7.198181000000000E-01     -7.463672000000000E+01
4842000000.000000      6.924133000000000E-01     -1.660078000000000E+02      3.818207000000000E-01     -3.836328000000000E+01      3.687134000000000E-01     -1.475000000000000E+02      7.240295000000000E-01     -7.453125000000000E+01
4843000000.000000      6.991272000000000E-01     -1.660859000000000E+02      3.826904000000000E-01     -3.887500000000000E+01      3.712921000000000E-01     -1.477266000000000E+02      7.275696000000000E-01     -7.450390000000000E+01
4844000000.000000      7.056580000000000E-01     -1.659688000000000E+02      3.843384000000000E-01     -3.936718000000000E+01      3.727570000000000E-01     -1.478750000000000E+02      7.324524000000000E-01     -7.456640000000000E+01
4845000000.000000      7.128601000000000E-01     -1.658828000000000E+02      3.846588000000000E-01     -3.990039000000000E+01      3.752899000000000E-01     -1.481094000000000E+02      7.356262000000000E-01     -7.438281000000000E+01
4846000000.000000      7.204895000000000E-01     -1.657969000000000E+02      3.866730000000000E-01     -4.030078000000000E+01      3.770752000000000E-01     -1.482578000000000E+02      7.410278000000000E-01     -7.446094000000000E+01
4847000000.000000      7.282410000000000E-01     -1.658047000000000E+02      3.871918000000000E-01     -4.100586000000000E+01      3.789063000000000E-01     -1.486016000000000E+02      7.456360000000000E-01     -7.450781000000000E+01
4848000000.000000      7.348328000000000E-01     -1.657812000000000E+02      3.874054000000000E-01     -4.145117000000000E+01      3.806763000000000E-01     -1.486328000000000E+02      7.495117000000000E-01     -7.455468000000000E+01
4849000000.000000      7.422180000000000E-01     -1.660078000000000E+02      3.893890000000000E-01     -4.228125000000000E+01      3.818207000000000E-01     -1.488359000000000E+02      7.540588000000000E-01     -7.441406000000000E+01
4850000000.000000      7.491760000000000E-01     -1.658437000000000E+02      3.890076000000000E-01     -4.265821000000000E+01      3.838501000000000E-01     -1.490078000000000E+02      7.596130000000000E-01     -7.438671000000000E+01
4851000000.000000      7.567444000000000E-01     -1.657656000000000E+02      3.898773000000000E-01     -4.333593000000000E+01      3.843079000000000E-01     -1.491953000000000E+02      7.657471000000000E-01     -7.456249000000000E+01
4852000000.000000      7.630310000000000E-01     -1.658281000000000E+02      3.899231000000000E-01     -4.369726000000000E+01      3.870392000000000E-01     -1.493203000000000E+02      7.682495000000000E-01     -7.448047000000000E+01
4853000000.000000      7.701111000000000E-01     -1.658125000000000E+02      3.895111000000000E-01     -4.430273000000000E+01      3.881073000000000E-01     -1.495859000000000E+02      7.736511000000000E-01     -7.469531000000000E+01
4854000000.000000      7.765808000000000E-01     -1.658281000000000E+02      3.902893000000000E-01     -4.480078000000000E+01      3.890991000000000E-01     -1.497734000000000E+02      7.786865000000000E-01     -7.473437000000000E+01
4855000000.000000      7.821960000000000E-01     -1.658203000000000E+02      3.899384000000000E-01     -4.538281000000000E+01      3.903351000000000E-01     -1.498828000000000E+02      7.821960000000000E-01     -7.460546000000000E+01
4856000000.000000      7.903137000000000E-01     -1.657266000000000E+02      3.897095000000000E-01     -4.563477000000000E+01      3.918304000000000E-01     -1.501406000000000E+02      7.892761000000000E-01     -7.467187000000000E+01
4857000000.000000      7.953796000000000E-01     -1.658125000000000E+02      3.904419000000000E-01     -4.618164000000000E+01      3.928375000000000E-01     -1.501562000000000E+02      7.927856000000000E-01     -7.476953000000000E+01
4858000000.000000      7.987366000000000E-01     -1.658516000000000E+02      3.891907000000000E-01     -4.686523000000000E+01      3.937531000000000E-01     -1.503750000000000E+02      7.979126000000000E-01     -7.481250000000000E+01
4859000000.000000      8.098145000000000E-01     -1.658359000000000E+02      3.894196000000000E-01     -4.736524000000000E+01      3.952789000000000E-01     -1.506172000000000E+02      8.042297000000000E-01     -7.490624000000000E+01
4860000000.000000      8.139648000000000E-01     -1.657734000000000E+02      3.889618000000000E-01     -4.763476000000000E+01      3.962250000000000E-01     -1.507734000000000E+02      8.073425000000000E-01     -7.490234000000000E+01
4861000000.000000      8.180847000000000E-01     -1.657578000000000E+02      3.884735000000000E-01     -4.816406000000000E+01      3.977051000000000E-01     -1.508828000000000E+02      8.122253000000000E-01     -7.506249000000000E+01
4862000000.000000      8.245239000000000E-01     -1.657266000000000E+02      3.880310000000000E-01     -4.858203000000000E+01      3.993683000000000E-01     -1.510625000000000E+02      8.188171000000000E-01     -7.504296000000000E+01
4863000000.000000      8.283691000000000E-01     -1.657969000000000E+02      3.869171000000000E-01     -4.918163000000000E+01      4.003143000000000E-01     -1.512500000000000E+02      8.233948000000000E-01     -7.514453000000000E+01
4864000000.000000      8.357544000000000E-01     -1.658047000000000E+02      3.864746000000000E-01     -4.936718000000000E+01      4.003296000000000E-01     -1.514062000000000E+02      8.276672000000000E-01     -7.517578000000000E+01
4865000000.000000      8.383789000000000E-01     -1.659844000000000E+02      3.850861000000000E-01     -4.978320000000000E+01      4.011536000000000E-01     -1.516875000000000E+02      8.325806000000000E-01     -7.523828000000000E+01
4866000000.000000      8.434143000000000E-01     -1.658281000000000E+02      3.837738000000000E-01     -5.032031000000000E+01      4.026337000000000E-01     -1.517734000000000E+02      8.364258000000000E-01     -7.529687000000000E+01
4867000000.000000      8.485718000000000E-01     -1.659062000000000E+02      3.829651000000000E-01     -5.076562000000000E+01      4.031372000000000E-01     -1.518984000000000E+02      8.427429000000000E-01     -7.548046000000000E+01
4868000000.000000      8.535156000000000E-01     -1.658750000000000E+02      3.826447000000000E-01     -5.127539000000000E+01      4.042511000000000E-01     -1.520859000000000E+02      8.458862000000000E-01     -7.538671000000000E+01
4869000000.000000      8.548889000000000E-01     -1.657734000000000E+02      3.808289000000000E-01     -5.155663000000000E+01      4.044342000000000E-01     -1.522891000000000E+02      8.528748000000000E-01     -7.566796000000000E+01
4870000000.000000      8.586731000000000E-01     -1.658125000000000E+02      3.797607000000000E-01     -5.151367000000000E+01      4.048615000000000E-01     -1.524922000000000E+02      8.555908000000000E-01     -7.562890000000000E+01
4871000000.000000      8.673096000000000E-01     -1.658203000000000E+02      3.792267000000000E-01     -5.221289000000000E+01      4.052887000000000E-01     -1.527031000000000E+02      8.606873000000000E-01     -7.589062000000000E+01
4872000000.000000      8.715820000000000E-01     -1.658359000000000E+02      3.771667000000000E-01     -5.231640000000000E+01      4.064789000000000E-01     -1.529844000000000E+02      8.662720000000000E-01     -7.589844000000000E+01
4873000000.000000      8.730774000000000E-01     -1.657109000000000E+02      3.764801000000000E-01     -5.290820000000000E+01      4.060669000000000E-01     -1.529844000000000E+02      8.704529000000000E-01     -7.597656000000000E+01
4874000000.000000      8.748169000000000E-01     -1.656875000000000E+02      3.744202000000000E-01     -5.312304000000000E+01      4.074860000000000E-01     -1.530469000000000E+02      8.728027000000000E-01     -7.590625000000000E+01
4875000000.000000      8.782043000000000E-01     -1.657500000000000E+02      3.731384000000000E-01     -5.327734000000000E+01      4.075165000000000E-01     -1.533828000000000E+02      8.794861000000000E-01     -7.620312000000000E+01
4876000000.000000      8.811646000000000E-01     -1.656797000000000E+02      3.713837000000000E-01     -5.369141000000000E+01      4.067993000000000E-01     -1.534922000000000E+02      8.820801000000000E-01     -7.635547000000000E+01
4877000000.000000      8.836365000000000E-01     -1.655937000000000E+02      3.702087000000000E-01     -5.380468000000000E+01      4.081421000000000E-01     -1.537578000000000E+02      8.874512000000000E-01     -7.646093000000000E+01
4878000000.000000      8.856201000000000E-01     -1.654766000000000E+02      3.690186000000000E-01     -5.395117000000000E+01      4.080811000000000E-01     -1.537734000000000E+02      8.915405000000000E-01     -7.661327000000000E+01
4879000000.000000      8.906860000000000E-01     -1.654687000000000E+02      3.666229000000000E-01     -5.422265000000000E+01      4.078522000000000E-01     -1.539844000000000E+02      8.948975000000000E-01     -7.659765000000000E+01
4880000000.000000      8.906860000000000E-01     -1.654063000000000E+02      3.659668000000000E-01     -5.451172000000000E+01      4.085846000000000E-01     -1.540625000000000E+02      8.999939000000000E-01     -7.665234000000000E+01
4881000000.000000      8.948975000000000E-01     -1.652344000000000E+02      3.651276000000000E-01     -5.459961000000000E+01      4.089203000000000E-01     -1.543516000000000E+02      9.035339000000000E-01     -7.692577000000000E+01
4882000000.000000      8.930664000000000E-01     -1.652812000000000E+02      3.635406000000000E-01     -5.493554000000000E+01      4.088440000000000E-01     -1.544219000000000E+02      9.060669000000000E-01     -7.705468000000000E+01
