! Network Analyzer HP8722D
! Hewlett-Packard
! Data name: Linha & Wilkinson
! Saver's name: Rodrigo Anjos
! Comments: Teste da utilização de aquisição
continua pelo VNA HP8722D
! Time and date: 6/5/2025 13:15
!              Frequency                     S11                                                   S21                                                   S12                                                   S22
# HZ  S  MA R 50
4800000000.000000      9.072571000000000E-01      1.158320000000000E+02      3.197021000000000E-01     -1.704609000000000E+02      2.564392000000000E-01     -8.608984000000000E+01      9.846497000000000E-01     -4.756445000000000E+01
4801000000.000000      9.041443000000000E-01      1.159766000000000E+02      3.198547000000000E-01     -1.704531000000000E+02      2.565002000000000E-01     -8.605078000000000E+01      9.807129000000000E-01     -4.766015000000000E+01
4802000000.000000      9.017944000000000E-01      1.163359000000000E+02      3.194275000000000E-01     -1.702891000000000E+02      2.574615000000000E-01     -8.579687000000000E+01      9.742126000000000E-01     -4.757031000000000E+01
4803000000.000000      8.992615000000000E-01      1.166172000000000E+02      3.209839000000000E-01     -1.702969000000000E+02      2.565613000000000E-01     -8.572657000000000E+01      9.693909000000000E-01     -4.780273000000000E+01
4804000000.000000      8.981934000000000E-01      1.168516000000000E+02      3.207550000000000E-01     -1.701953000000000E+02      2.570038000000000E-01     -8.564062000000000E+01      9.643250000000000E-01     -4.771289000000000E+01
4805000000.000000      8.996582000000000E-01      1.169492000000000E+02      3.207855000000000E-01     -1.702188000000000E+02      2.566376000000000E-01     -8.529688000000000E+01      9.595337000000000E-01     -4.782812000000000E+01
4806000000.000000      8.948364000000000E-01      1.173008000000000E+02      3.216553000000000E-01     -1.701797000000000E+02      2.556458000000000E-01     -8.501171000000000E+01      9.525146000000000E-01     -4.799024000000000E+01
4807000000.000000      8.936768000000000E-01      1.173281000000000E+02      3.220825000000000E-01     -1.703203000000000E+02      2.563629000000000E-01     -8.495703000000000E+01      9.474487000000000E-01     -4.796679000000000E+01
4808000000.000000      8.903503000000000E-01      1.175430000000000E+02      3.231354000000000E-01     -1.701328000000000E+02      2.565002000000000E-01     -8.480078000000000E+01      9.425659000000000E-01     -4.800781000000000E+01
4809000000.000000      8.874207000000000E-01      1.180430000000000E+02      3.230591000000000E-01     -1.703047000000000E+02      2.570648000000000E-01     -8.454687000000000E+01      9.363708000000000E-01     -4.807031000000000E+01
4810000000.000000      8.842773000000000E-01      1.182344000000000E+02      3.237000000000000E-01     -1.701015000000000E+02      2.561646000000000E-01     -8.428905000000000E+01      9.313049000000000E-01     -4.828906000000000E+01
4811000000.000000      8.841553000000000E-01      1.184609000000000E+02      3.244324000000000E-01     -1.702656000000000E+02      2.573700000000000E-01     -8.399609000000000E+01      9.259033000000000E-01     -4.815820000000000E+01
4812000000.000000      8.837891000000000E-01      1.186367000000000E+02      3.242950000000000E-01     -1.702031000000000E+02      2.565308000000000E-01     -8.374218000000000E+01      9.200745000000000E-01     -4.835938000000000E+01
4813000000.000000      8.784790000000000E-01      1.189258000000000E+02      3.249817000000000E-01     -1.702734000000000E+02      2.565613000000000E-01     -8.351563000000000E+01      9.158325000000000E-01     -4.824413000000000E+01
4814000000.000000      8.752441000000000E-01      1.191992000000000E+02      3.255463000000000E-01     -1.701953000000000E+02      2.565460000000000E-01     -8.324219000000000E+01      9.099121000000000E-01     -4.841406000000000E+01
4815000000.000000      8.738403000000000E-01      1.194765000000000E+02      3.258514000000000E-01     -1.703047000000000E+02      2.563171000000000E-01     -8.295313000000000E+01      9.032898000000000E-01     -4.834961000000000E+01
4816000000.000000      8.727417000000000E-01      1.196406000000000E+02      3.278809000000000E-01     -1.701953000000000E+02      2.570801000000000E-01     -8.277735000000000E+01      8.991394000000000E-01     -4.855469000000000E+01
4817000000.000000      8.674622000000000E-01      1.199766000000000E+02      3.273315000000000E-01     -1.703828000000000E+02      2.565155000000000E-01     -8.242188000000000E+01      8.932800000000000E-01     -4.847851000000000E+01
4818000000.000000      8.673706000000000E-01      1.200859000000000E+02      3.278198000000000E-01     -1.703438000000000E+02      2.566528000000000E-01     -8.201952000000000E+01      8.867188000000000E-01     -4.860352000000000E+01
4819000000.000000      8.645325000000000E-01      1.203242000000000E+02      3.284760000000000E-01     -1.705000000000000E+02      2.556763000000000E-01     -8.191797000000000E+01      8.828430000000000E-01     -4.873241000000000E+01
4820000000.000000      8.565674000000000E-01      1.205703000000000E+02      3.287506000000000E-01     -1.703750000000000E+02      2.568970000000000E-01     -8.144922000000000E+01      8.779602000000000E-01     -4.872265000000000E+01
4821000000.000000      8.560486000000000E-01      1.207383000000000E+02      3.302765000000000E-01     -1.706172000000000E+02      2.567749000000000E-01     -8.128515000000000E+01      8.720703000000000E-01     -4.880077000000000E+01
4822000000.000000      8.524475000000000E-01      1.207813000000000E+02      3.308411000000000E-01     -1.707813000000000E+02      2.553253000000000E-01     -8.102734000000000E+01      8.670349000000000E-01     -4.889062000000000E+01
4823000000.000000      8.487854000000000E-01      1.211680000000000E+02      3.317719000000000E-01     -1.708516000000000E+02      2.559204000000000E-01     -8.049219000000000E+01      8.619995000000000E-01     -4.903320000000000E+01
4824000000.000000      8.464966000000000E-01      1.211055000000000E+02      3.318787000000000E-01     -1.711406000000000E+02      2.560730000000000E-01     -8.029297000000000E+01      8.561096000000000E-01     -4.896484000000000E+01
4825000000.000000      8.414612000000000E-01      1.214805000000000E+02      3.324127000000000E-01     -1.711641000000000E+02      2.562866000000000E-01     -7.998437000000000E+01      8.520508000000000E-01     -4.905273000000000E+01
4826000000.000000      8.392029000000000E-01      1.216016000000000E+02      3.339539000000000E-01     -1.713359000000000E+02      2.557220000000000E-01     -7.968750000000000E+01      8.476868000000000E-01     -4.915039000000000E+01
4827000000.000000      8.348083000000000E-01      1.217969000000000E+02      3.337402000000000E-01     -1.714297000000000E+02      2.558746000000000E-01     -7.934765000000000E+01      8.432617000000000E-01     -4.918163000000000E+01
4828000000.000000      8.328247000000000E-01      1.218789000000000E+02      3.345947000000000E-01     -1.716094000000000E+02      2.552490000000000E-01     -7.907031000000000E+01      8.390503000000000E-01     -4.935741000000000E+01
4829000000.000000      8.251953000000000E-01      1.220859000000000E+02      3.345642000000000E-01     -1.716875000000000E+02      2.564087000000000E-01     -7.873828000000000E+01      8.357239000000000E-01     -4.935351000000000E+01
4830000000.000000      8.217773000000000E-01      1.221836000000000E+02      3.350525000000000E-01     -1.719141000000000E+02      2.556763000000000E-01     -7.828515000000000E+01      8.280029000000000E-01     -4.942968000000000E+01
4831000000.000000      8.175964000000000E-01      1.223320000000000E+02      3.350830000000000E-01     -1.721328000000000E+02      2.561188000000000E-01     -7.789063000000000E+01      8.252258000000000E-01     -4.951172000000000E+01
4832000000.000000      8.143311000000000E-01      1.223476000000000E+02      3.355560000000000E-01     -1.723203000000000E+02      2.558136000000000E-01     -7.754296000000000E+01      8.198547000000000E-01     -4.949804000000000E+01
4833000000.000000      8.084106000000000E-01      1.223008000000000E+02      3.360596000000000E-01     -1.725000000000000E+02      2.557220000000000E-01     -7.730078000000000E+01      8.153687000000000E-01     -4.958398000000000E+01
4834000000.000000      8.054199000000000E-01      1.225898000000000E+02      3.370972000000000E-01     -1.727344000000000E+02      2.564240000000000E-01     -7.694530000000000E+01      8.114319000000000E-01     -4.973827000000000E+01
4835000000.000000      7.990723000000000E-01      1.225195000000000E+02      3.366394000000000E-01     -1.729687000000000E+02      2.565918000000000E-01     -7.658984000000000E+01      8.080444000000000E-01     -4.981250000000000E+01
4836000000.000000      7.963257000000000E-01      1.226133000000000E+02      3.370667000000000E-01     -1.731953000000000E+02      2.564697000000000E-01     -7.616796000000000E+01      8.042297000000000E-01     -4.972851000000000E+01
4837000000.000000      7.903442000000000E-01      1.228711000000000E+02      3.369598000000000E-01     -1.736328000000000E+02      2.571106000000000E-01     -7.601171000000000E+01      8.002319000000000E-01     -4.983007000000000E+01
4838000000.000000      7.836609000000000E-01      1.225078000000000E+02      3.377533000000000E-01     -1.736094000000000E+02      2.567291000000000E-01     -7.535546000000000E+01      7.960510000000000E-01     -4.984765000000000E+01
4839000000.000000      7.808533000000000E-01      1.228633000000000E+02      3.368988000000000E-01     -1.737031000000000E+02      2.567749000000000E-01     -7.529687000000000E+01      7.928162000000000E-01     -4.997265000000000E+01
4840000000.000000      7.760010000000000E-01      1.227695000000000E+02      3.370514000000000E-01     -1.739219000000000E+02      2.580414000000000E-01     -7.485546000000000E+01      7.884521000000000E-01     -5.001758000000000E+01
4841000000.000000      7.681580000000000E-01      1.226406000000000E+02      3.366241000000000E-01     -1.743359000000000E+02      2.576294000000000E-01     -7.456640000000000E+01      7.851563000000000E-01     -5.013866000000000E+01
4842000000.000000      7.630615000000000E-01      1.228477000000000E+02      3.367157000000000E-01     -1.746016000000000E+02      2.579193000000000E-01     -7.423046000000000E+01      7.832947000000000E-01     -5.018359000000000E+01
4843000000.000000      7.597046000000000E-01      1.226328000000000E+02      3.370209000000000E-01     -1.749453000000000E+02      2.580719000000000E-01     -7.387890000000000E+01      7.792053000000000E-01     -5.022265000000000E+01
4844000000.000000      7.526550000000000E-01      1.226367000000000E+02      3.368835000000000E-01     -1.750313000000000E+02      2.579803000000000E-01     -7.354297000000000E+01      7.752991000000000E-01     -5.033008000000000E+01
4845000000.000000      7.462769000000000E-01      1.227031000000000E+02      3.363953000000000E-01     -1.753047000000000E+02      2.586212000000000E-01     -7.317968000000000E+01      7.711182000000000E-01     -5.026562000000000E+01
4846000000.000000      7.417603000000000E-01      1.226406000000000E+02      3.361511000000000E-01     -1.754453000000000E+02      2.593994000000000E-01     -7.292578000000000E+01      7.681274000000000E-01     -5.036327000000000E+01
4847000000.000000      7.365723000000000E-01      1.225859000000000E+02      3.351135000000000E-01     -1.756328000000000E+02      2.588959000000000E-01     -7.258594000000000E+01      7.655945000000000E-01     -5.053320000000000E+01
4848000000.000000      7.329712000000000E-01      1.222773000000000E+02      3.342133000000000E-01     -1.760156000000000E+02      2.591858000000000E-01     -7.227734000000000E+01      7.615967000000000E-01     -5.053320000000000E+01
4849000000.000000      7.257996000000000E-01      1.220742000000000E+02      3.341675000000000E-01     -1.763047000000000E+02      2.595673000000000E-01     -7.176562000000000E+01      7.586060000000000E-01     -5.055078000000000E+01
4850000000.000000      7.195435000000000E-01      1.220156000000000E+02      3.334656000000000E-01     -1.765156000000000E+02      2.599487000000000E-01     -7.154687000000000E+01      7.549133000000000E-01     -5.062109000000000E+01
4851000000.000000      7.119446000000000E-01      1.220859000000000E+02      3.333282000000000E-01     -1.768281000000000E+02      2.603760000000000E-01     -7.130859000000000E+01      7.539978000000000E-01     -5.069921000000000E+01
4852000000.000000      7.066956000000000E-01      1.217578000000000E+02      3.324127000000000E-01     -1.770781000000000E+02      2.607880000000000E-01     -7.093359000000000E+01      7.499695000000000E-01     -5.076757000000000E+01
4853000000.000000      7.024841000000000E-01      1.218633000000000E+02      3.308411000000000E-01     -1.772344000000000E+02      2.608795000000000E-01     -7.078125000000000E+01      7.485352000000000E-01     -5.089257000000000E+01
4854000000.000000      6.952209000000000E-01      1.216055000000000E+02      3.306122000000000E-01     -1.776172000000000E+02      2.615814000000000E-01     -7.049609000000000E+01      7.460022000000000E-01     -5.093750000000000E+01
4855000000.000000      6.891785000000000E-01      1.212226000000000E+02      3.299255000000000E-01     -1.776953000000000E+02      2.616577000000000E-01     -7.004687000000000E+01      7.402649000000000E-01     -5.092578000000000E+01
4856000000.000000      6.841125000000000E-01      1.210430000000000E+02      3.295898000000000E-01     -1.779687000000000E+02      2.624207000000000E-01     -6.983984000000000E+01      7.399902000000000E-01     -5.105859000000000E+01
4857000000.000000      6.768494000000000E-01      1.210820000000000E+02      3.287659000000000E-01     -1.781797000000000E+02      2.623596000000000E-01     -6.951562000000000E+01      7.364807000000000E-01     -5.106054000000000E+01
4858000000.000000      6.690674000000000E-01      1.206719000000000E+02      3.271484000000000E-01     -1.784062000000000E+02      2.626190000000000E-01     -6.928905000000000E+01      7.344360000000000E-01     -5.123632000000000E+01
4859000000.000000      6.639404000000000E-01      1.203477000000000E+02      3.263245000000000E-01     -1.786562000000000E+02      2.632446000000000E-01     -6.919140000000000E+01      7.333069000000000E-01     -5.123632000000000E+01
4860000000.000000      6.580505000000000E-01      1.202070000000000E+02      3.256378000000000E-01     -1.788203000000000E+02      2.629852000000000E-01     -6.885937000000000E+01      7.297058000000000E-01     -5.119922000000000E+01
4861000000.000000      6.528015000000000E-01      1.200039000000000E+02      3.249969000000000E-01     -1.790859000000000E+02      2.638397000000000E-01     -6.849218000000000E+01      7.269287000000000E-01     -5.138085000000000E+01
4862000000.000000      6.460876000000000E-01      1.195664000000000E+02      3.242035000000000E-01     -1.792422000000000E+02      2.642670000000000E-01     -6.836328000000000E+01      7.252502000000000E-01     -5.138281000000000E+01
4863000000.000000      6.372681000000000E-01      1.193164000000000E+02      3.218384000000000E-01     -1.794375000000000E+02      2.652283000000000E-01     -6.806641000000000E+01      7.237854000000000E-01     -5.131836000000000E+01
4864000000.000000      6.345825000000000E-01      1.188086000000000E+02      3.213196000000000E-01     -1.795547000000000E+02      2.647552000000000E-01     -6.783593000000000E+01      7.204590000000000E-01     -5.146874000000000E+01
4865000000.000000      6.256104000000000E-01      1.185938000000000E+02      3.196106000000000E-01     -1.797422000000000E+02      2.647705000000000E-01     -6.770312000000000E+01      7.188110000000000E-01     -5.141992000000000E+01
4866000000.000000      6.203308000000000E-01      1.182461000000000E+02      3.187256000000000E-01      1.799922000000000E+02      2.653351000000000E-01     -6.752343000000000E+01      7.164612000000000E-01     -5.150585000000000E+01
4867000000.000000      6.158447000000000E-01      1.179102000000000E+02      3.179474000000000E-01      1.797969000000000E+02      2.657166000000000E-01     -6.726953000000000E+01      7.158813000000000E-01     -5.154882000000000E+01
4868000000.000000      6.106567000000000E-01      1.173867000000000E+02      3.170929000000000E-01      1.795938000000000E+02      2.661591000000000E-01     -6.721093000000000E+01      7.113953000000000E-01     -5.151562000000000E+01
4869000000.000000      6.022339000000000E-01      1.171133000000000E+02      3.149261000000000E-01      1.794922000000000E+02      2.669525000000000E-01     -6.701562000000000E+01      7.098083000000000E-01     -5.170703000000000E+01
4870000000.000000      5.971985000000000E-01      1.165820000000000E+02      3.143311000000000E-01      1.795547000000000E+02      2.665405000000000E-01     -6.688281000000000E+01      7.093506000000000E-01     -5.162890000000000E+01
4871000000.000000      5.907593000000000E-01      1.163437000000000E+02      3.126373000000000E-01      1.793047000000000E+02      2.664032000000000E-01     -6.681250000000000E+01      7.057495000000000E-01     -5.179688000000000E+01
4872000000.000000      5.898132000000000E-01      1.159101000000000E+02      3.115082000000000E-01      1.791953000000000E+02      2.671356000000000E-01     -6.690624000000000E+01      7.051697000000000E-01     -5.178124000000000E+01
4873000000.000000      5.813904000000000E-01      1.155430000000000E+02      3.106232000000000E-01      1.790390000000000E+02      2.668915000000000E-01     -6.651562000000000E+01      7.012939000000000E-01     -5.180273000000000E+01
4874000000.000000      5.758972000000000E-01      1.149023000000000E+02      3.090820000000000E-01      1.788672000000000E+02      2.672424000000000E-01     -6.643749000000000E+01      6.996765000000000E-01     -5.169922000000000E+01
4875000000.000000      5.709534000000000E-01      1.144727000000000E+02      3.079681000000000E-01      1.788437000000000E+02      2.674866000000000E-01     -6.638672000000000E+01      6.982727000000000E-01     -5.186523000000000E+01
4876000000.000000      5.642700000000000E-01      1.140703000000000E+02      3.070679000000000E-01      1.786328000000000E+02      2.674408000000000E-01     -6.638281000000000E+01      6.962891000000000E-01     -5.191406000000000E+01
4877000000.000000      5.618286000000000E-01      1.134570000000000E+02      3.062286000000000E-01      1.786172000000000E+02      2.674866000000000E-01     -6.624609000000000E+01      6.936035000000000E-01     -5.181641000000000E+01
4878000000.000000      5.548096000000000E-01      1.130273000000000E+02      3.049927000000000E-01      1.785000000000000E+02      2.672272000000000E-01     -6.610937000000000E+01      6.913147000000000E-01     -5.187304000000000E+01
4879000000.000000      5.528259000000000E-01      1.126328000000000E+02      3.031921000000000E-01      1.784688000000000E+02      2.671051000000000E-01     -6.612890000000000E+01      6.902771000000000E-01     -5.187890000000000E+01
4880000000.000000      5.466003000000000E-01      1.120391000000000E+02      3.025513000000000E-01      1.780781000000000E+02      2.671051000000000E-01     -6.591797000000000E+01      6.875305000000000E-01     -5.175195000000000E+01
4881000000.000000      5.439758000000000E-01      1.113906000000000E+02      3.019409000000000E-01      1.782109000000000E+02      2.683563000000000E-01     -6.598046000000000E+01      6.868286000000000E-01     -5.173242000000000E+01
4882000000.000000      5.388794000000000E-01      1.108125000000000E+02      3.007202000000000E-01      1.779922000000000E+02      2.682648000000000E-01     -6.597656000000000E+01      6.827087000000000E-01     -5.183398000000000E+01
