! Network Analyzer HP8722D
! Hewlett-Packard
! Data name: Linha & Wilkinson
! Saver's name: Rodrigo Anjos
! Comments: Teste da utilização de aquisição
continua pelo VNA HP8722D
! Time and date: 6/5/2025 14:38
!              Frequency                     S11                                                   S21                                                   S12                                                   S22
# HZ  S  MA R 50
4800000000.000000      4.970398000000000E-01     -1.682188000000000E+02      2.528076000000000E-01     -1.970410000000000E+01      2.490463000000000E-01     -1.409531000000000E+02      6.478577000000000E-01     -8.039454000000000E+01
4801000000.000000      4.984741000000000E-01     -1.683125000000000E+02      2.564392000000000E-01     -1.985840000000000E+01      2.520142000000000E-01     -1.409688000000000E+02      6.464539000000000E-01     -8.010937000000000E+01
4802000000.000000      4.989624000000000E-01     -1.683672000000000E+02      2.601471000000000E-01     -2.012305000000000E+01      2.565308000000000E-01     -1.410156000000000E+02      6.455383000000000E-01     -7.974609000000000E+01
4803000000.000000      5.010681000000000E-01     -1.684375000000000E+02      2.647400000000000E-01     -2.031543000000000E+01      2.594604000000000E-01     -1.410625000000000E+02      6.450195000000000E-01     -7.967578000000000E+01
4804000000.000000      5.033875000000000E-01     -1.684141000000000E+02      2.686310000000000E-01     -2.054199000000000E+01      2.630615000000000E-01     -1.412500000000000E+02      6.457214000000000E-01     -7.939453000000000E+01
4805000000.000000      5.058899000000000E-01     -1.684609000000000E+02      2.725830000000000E-01     -2.098437000000000E+01      2.666626000000000E-01     -1.412578000000000E+02      6.434326000000000E-01     -7.927734000000000E+01
4806000000.000000      5.072632000000000E-01     -1.684062000000000E+02      2.760620000000000E-01     -2.119727000000000E+01      2.697144000000000E-01     -1.411641000000000E+02      6.439514000000000E-01     -7.905468000000000E+01
4807000000.000000      5.106506000000000E-01     -1.684844000000000E+02      2.806549000000000E-01     -2.166992000000000E+01      2.740631000000000E-01     -1.414375000000000E+02      6.427917000000000E-01     -7.883594000000000E+01
4808000000.000000      5.132751000000000E-01     -1.683984000000000E+02      2.845917000000000E-01     -2.174121000000000E+01      2.772064000000000E-01     -1.415937000000000E+02      6.427612000000000E-01     -7.865234000000000E+01
4809000000.000000      5.154724000000000E-01     -1.684141000000000E+02      2.883148000000000E-01     -2.243457000000000E+01      2.812653000000000E-01     -1.418125000000000E+02      6.427612000000000E-01     -7.850780000000000E+01
4810000000.000000      5.182495000000000E-01     -1.684609000000000E+02      2.924957000000000E-01     -2.257715000000000E+01      2.844696000000000E-01     -1.418437000000000E+02      6.436157000000000E-01     -7.826953000000000E+01
4811000000.000000      5.217590000000000E-01     -1.683672000000000E+02      2.966919000000000E-01     -2.313477000000000E+01      2.886810000000000E-01     -1.419453000000000E+02      6.432495000000000E-01     -7.787109000000000E+01
4812000000.000000      5.259094000000000E-01     -1.683281000000000E+02      3.001709000000000E-01     -2.341504000000000E+01      2.922058000000000E-01     -1.420312000000000E+02      6.439819000000000E-01     -7.785546000000000E+01
4813000000.000000      5.274048000000000E-01     -1.681953000000000E+02      3.038788000000000E-01     -2.381738000000000E+01      2.945099000000000E-01     -1.420859000000000E+02      6.445313000000000E-01     -7.760937000000000E+01
4814000000.000000      5.305786000000000E-01     -1.683437000000000E+02      3.067780000000000E-01     -2.424609000000000E+01      2.977753000000000E-01     -1.423672000000000E+02      6.467590000000000E-01     -7.746484000000000E+01
4815000000.000000      5.348816000000000E-01     -1.681719000000000E+02      3.107147000000000E-01     -2.458398000000000E+01      3.013763000000000E-01     -1.425078000000000E+02      6.451721000000000E-01     -7.716015000000000E+01
4816000000.000000      5.391541000000000E-01     -1.680312000000000E+02      3.143768000000000E-01     -2.482031000000000E+01      3.051453000000000E-01     -1.426484000000000E+02      6.492310000000000E-01     -7.701562000000000E+01
4817000000.000000      5.432739000000000E-01     -1.680000000000000E+02      3.187408000000000E-01     -2.553027000000000E+01      3.075104000000000E-01     -1.428984000000000E+02      6.492920000000000E-01     -7.683984000000000E+01
4818000000.000000      5.470886000000000E-01     -1.679688000000000E+02      3.215942000000000E-01     -2.583203000000000E+01      3.113861000000000E-01     -1.429141000000000E+02      6.506348000000000E-01     -7.672265000000000E+01
4819000000.000000      5.525513000000000E-01     -1.679297000000000E+02      3.251038000000000E-01     -2.627930000000000E+01      3.136444000000000E-01     -1.432656000000000E+02      6.534729000000000E-01     -7.660546000000000E+01
4820000000.000000      5.545959000000000E-01     -1.678437000000000E+02      3.281097000000000E-01     -2.680469000000000E+01      3.172760000000000E-01     -1.432891000000000E+02      6.546021000000000E-01     -7.641796000000000E+01
4821000000.000000      5.606079000000000E-01     -1.677266000000000E+02      3.315125000000000E-01     -2.723437000000000E+01      3.195648000000000E-01     -1.436250000000000E+02      6.563110000000000E-01     -7.629687000000000E+01
4822000000.000000      5.675354000000000E-01     -1.677266000000000E+02      3.345947000000000E-01     -2.766016000000000E+01      3.222809000000000E-01     -1.438906000000000E+02      6.579590000000000E-01     -7.614452000000000E+01
4823000000.000000      5.702820000000000E-01     -1.675859000000000E+02      3.380737000000000E-01     -2.812988000000000E+01      3.246613000000000E-01     -1.438516000000000E+02      6.597595000000000E-01     -7.599999000000000E+01
4824000000.000000      5.778198000000000E-01     -1.675390000000000E+02      3.412781000000000E-01     -2.867480000000000E+01      3.288269000000000E-01     -1.441875000000000E+02      6.628723000000000E-01     -7.583593000000000E+01
4825000000.000000      5.817261000000000E-01     -1.673750000000000E+02      3.438416000000000E-01     -2.914063000000000E+01      3.313599000000000E-01     -1.443281000000000E+02      6.655273000000000E-01     -7.567187000000000E+01
4826000000.000000      5.879822000000000E-01     -1.672969000000000E+02      3.479462000000000E-01     -2.971680000000000E+01      3.334045000000000E-01     -1.446250000000000E+02      6.676941000000000E-01     -7.567187000000000E+01
4827000000.000000      5.935974000000000E-01     -1.671406000000000E+02      3.506165000000000E-01     -3.008398000000000E+01      3.363495000000000E-01     -1.447031000000000E+02      6.706238000000000E-01     -7.541797000000000E+01
4828000000.000000      6.007385000000000E-01     -1.671172000000000E+02      3.534393000000000E-01     -3.067383000000000E+01      3.382874000000000E-01     -1.449297000000000E+02      6.740417000000000E-01     -7.540234000000000E+01
4829000000.000000      6.038513000000000E-01     -1.669688000000000E+02      3.549194000000000E-01     -3.128808000000000E+01      3.409271000000000E-01     -1.451328000000000E+02      6.772461000000000E-01     -7.526562000000000E+01
4830000000.000000      6.109314000000000E-01     -1.668828000000000E+02      3.576508000000000E-01     -3.176172000000000E+01      3.444061000000000E-01     -1.452656000000000E+02      6.788940000000000E-01     -7.512109000000000E+01
4831000000.000000      6.156311000000000E-01     -1.667812000000000E+02      3.601227000000000E-01     -3.241406000000000E+01      3.459015000000000E-01     -1.454219000000000E+02      6.840210000000000E-01     -7.516406000000000E+01
4832000000.000000      6.246948000000000E-01     -1.667344000000000E+02      3.637848000000000E-01     -3.282422000000000E+01      3.480682000000000E-01     -1.456953000000000E+02      6.865845000000000E-01     -7.508594000000000E+01
4833000000.000000      6.310730000000000E-01     -1.667500000000000E+02      3.655243000000000E-01     -3.336328000000000E+01      3.505554000000000E-01     -1.459297000000000E+02      6.891479000000000E-01     -7.503515000000000E+01
4834000000.000000      6.374207000000000E-01     -1.666641000000000E+02      3.675079000000000E-01     -3.403320000000000E+01      3.530121000000000E-01     -1.459531000000000E+02      6.920471000000000E-01     -7.491796000000000E+01
4835000000.000000      6.431580000000000E-01     -1.665781000000000E+02      3.697968000000000E-01     -3.451953000000000E+01      3.554230000000000E-01     -1.462265000000000E+02      6.959229000000000E-01     -7.488671000000000E+01
4836000000.000000      6.516113000000000E-01     -1.664063000000000E+02      3.720398000000000E-01     -3.497070000000000E+01      3.577576000000000E-01     -1.463594000000000E+02      6.991577000000000E-01     -7.479687000000000E+01
4837000000.000000      6.581116000000000E-01     -1.663281000000000E+02      3.729706000000000E-01     -3.588281000000000E+01      3.592834000000000E-01     -1.467344000000000E+02      7.030334000000000E-01     -7.469140000000000E+01
4838000000.000000      6.655884000000000E-01     -1.664063000000000E+02      3.760986000000000E-01     -3.617773000000000E+01      3.617401000000000E-01     -1.470312000000000E+02      7.085876000000000E-01     -7.462891000000000E+01
4839000000.000000      6.721802000000000E-01     -1.662031000000000E+02      3.769073000000000E-01     -3.667383000000000E+01      3.636169000000000E-01     -1.471094000000000E+02      7.112732000000000E-01     -7.451562000000000E+01
4840000000.000000      6.777954000000000E-01     -1.661875000000000E+02      3.788300000000000E-01     -3.732617000000000E+01      3.660431000000000E-01     -1.473125000000000E+02      7.155762000000000E-01     -7.468359000000000E+01
4841000000.000000      6.852417000000000E-01     -1.662109000000000E+02      3.807983000000000E-01     -3.795703000000000E+01      3.675842000000000E-01     -1.476016000000000E+02      7.203979000000000E-01     -7.462500000000000E+01
4842000000.000000      6.932678000000000E-01     -1.661016000000000E+02      3.822021000000000E-01     -3.836523000000000E+01      3.692169000000000E-01     -1.477031000000000E+02      7.249756000000000E-01     -7.458202000000000E+01
4843000000.000000      6.991882000000000E-01     -1.661484000000000E+02      3.835297000000000E-01     -3.893555000000000E+01      3.712311000000000E-01     -1.478750000000000E+02      7.286682000000000E-01     -7.450390000000000E+01
4844000000.000000      7.065125000000000E-01     -1.660781000000000E+02      3.843536000000000E-01     -3.944726000000000E+01      3.726044000000000E-01     -1.480547000000000E+02      7.329712000000000E-01     -7.457031000000000E+01
4845000000.000000      7.129517000000000E-01     -1.659688000000000E+02      3.848724000000000E-01     -4.009961000000000E+01      3.749847000000000E-01     -1.482578000000000E+02      7.362061000000000E-01     -7.441796000000000E+01
4846000000.000000      7.203369000000000E-01     -1.659219000000000E+02      3.864136000000000E-01     -4.060547000000000E+01      3.768311000000000E-01     -1.483750000000000E+02      7.409668000000000E-01     -7.444530000000000E+01
4847000000.000000      7.284851000000000E-01     -1.659141000000000E+02      3.871765000000000E-01     -4.122851000000000E+01      3.783264000000000E-01     -1.487031000000000E+02      7.460327000000000E-01     -7.458984000000000E+01
4848000000.000000      7.356567000000000E-01     -1.658906000000000E+02      3.877869000000000E-01     -4.164648000000000E+01      3.802948000000000E-01     -1.488125000000000E+02      7.499084000000000E-01     -7.456640000000000E+01
4849000000.000000      7.427979000000000E-01     -1.661719000000000E+02      3.885651000000000E-01     -4.239258000000000E+01      3.815765000000000E-01     -1.489219000000000E+02      7.552795000000000E-01     -7.451172000000000E+01
4850000000.000000      7.498779000000000E-01     -1.658594000000000E+02      3.891144000000000E-01     -4.275195000000000E+01      3.836365000000000E-01     -1.490234000000000E+02      7.592468000000000E-01     -7.445313000000000E+01
4851000000.000000      7.565308000000000E-01     -1.658906000000000E+02      3.901215000000000E-01     -4.349805000000000E+01      3.846588000000000E-01     -1.493281000000000E+02      7.651978000000000E-01     -7.457421000000000E+01
4852000000.000000      7.632446000000000E-01     -1.658984000000000E+02      3.908997000000000E-01     -4.391406000000000E+01      3.864441000000000E-01     -1.494219000000000E+02      7.691345000000000E-01     -7.451562000000000E+01
4853000000.000000      7.710266000000000E-01     -1.658984000000000E+02      3.889313000000000E-01     -4.432031000000000E+01      3.881378000000000E-01     -1.496875000000000E+02      7.732239000000000E-01     -7.464062000000000E+01
4854000000.000000      7.780151000000000E-01     -1.659375000000000E+02      3.899384000000000E-01     -4.508203000000000E+01      3.890686000000000E-01     -1.498672000000000E+02      7.793884000000000E-01     -7.476563000000000E+01
4855000000.000000      7.821350000000000E-01     -1.658750000000000E+02      3.900452000000000E-01     -4.542188000000000E+01      3.901672000000000E-01     -1.499844000000000E+02      7.821655000000000E-01     -7.471093000000000E+01
4856000000.000000      7.902222000000000E-01     -1.658594000000000E+02      3.894348000000000E-01     -4.586719000000000E+01      3.913269000000000E-01     -1.500625000000000E+02      7.884216000000000E-01     -7.471484000000000E+01
4857000000.000000      7.961121000000000E-01     -1.658906000000000E+02      3.898010000000000E-01     -4.649610000000000E+01      3.929749000000000E-01     -1.502734000000000E+02      7.918701000000000E-01     -7.476953000000000E+01
4858000000.000000      7.990723000000000E-01     -1.659609000000000E+02      3.900604000000000E-01     -4.686523000000000E+01      3.936005000000000E-01     -1.505703000000000E+02      7.978821000000000E-01     -7.491796000000000E+01
4859000000.000000      8.060608000000000E-01     -1.660000000000000E+02      3.894806000000000E-01     -4.736524000000000E+01      3.951721000000000E-01     -1.507344000000000E+02      8.046265000000000E-01     -7.497656000000000E+01
4860000000.000000      8.128052000000000E-01     -1.659375000000000E+02      3.891907000000000E-01     -4.777734000000000E+01      3.956146000000000E-01     -1.508750000000000E+02      8.072205000000000E-01     -7.493359000000000E+01
4861000000.000000      8.190308000000000E-01     -1.657969000000000E+02      3.879700000000000E-01     -4.832617000000000E+01      3.970642000000000E-01     -1.510859000000000E+02      8.125916000000000E-01     -7.507030000000000E+01
4862000000.000000      8.247681000000000E-01     -1.658203000000000E+02      3.882141000000000E-01     -4.878906000000000E+01      3.987122000000000E-01     -1.511562000000000E+02      8.180847000000000E-01     -7.510156000000000E+01
4863000000.000000      8.291931000000000E-01     -1.660234000000000E+02      3.858337000000000E-01     -4.925195000000000E+01      4.000092000000000E-01     -1.513359000000000E+02      8.225708000000000E-01     -7.519921000000000E+01
4864000000.000000      8.347168000000000E-01     -1.658828000000000E+02      3.860931000000000E-01     -4.957031000000000E+01      3.994904000000000E-01     -1.515000000000000E+02      8.273010000000000E-01     -7.530859000000000E+01
4865000000.000000      8.385925000000000E-01     -1.660703000000000E+02      3.848419000000000E-01     -4.998437000000000E+01      4.010925000000000E-01     -1.517500000000000E+02      8.329468000000000E-01     -7.528515000000000E+01
4866000000.000000      8.429565000000000E-01     -1.658828000000000E+02      3.835907000000000E-01     -5.047852000000000E+01      4.014282000000000E-01     -1.519219000000000E+02      8.371887000000000E-01     -7.536718000000000E+01
4867000000.000000      8.472900000000000E-01     -1.658828000000000E+02      3.828278000000000E-01     -5.092578000000000E+01      4.027557000000000E-01     -1.520234000000000E+02      8.434143000000000E-01     -7.548437000000000E+01
4868000000.000000      8.532410000000000E-01     -1.659297000000000E+02      3.819885000000000E-01     -5.124023000000000E+01      4.037628000000000E-01     -1.521797000000000E+02      8.464355000000000E-01     -7.555078000000000E+01
4869000000.000000      8.558044000000000E-01     -1.659844000000000E+02      3.806305000000000E-01     -5.157421000000000E+01      4.043579000000000E-01     -1.523828000000000E+02      8.517151000000000E-01     -7.571094000000000E+01
4870000000.000000      8.604736000000000E-01     -1.659609000000000E+02      3.798523000000000E-01     -5.174414000000000E+01      4.049072000000000E-01     -1.525781000000000E+02      8.569641000000000E-01     -7.569921000000000E+01
4871000000.000000      8.652344000000000E-01     -1.659375000000000E+02      3.788757000000000E-01     -5.216601000000000E+01      4.049988000000000E-01     -1.528125000000000E+02      8.601990000000000E-01     -7.586719000000000E+01
4872000000.000000      8.699646000000000E-01     -1.658750000000000E+02      3.762054000000000E-01     -5.244922000000000E+01      4.055939000000000E-01     -1.530937000000000E+02      8.676147000000000E-01     -7.585938000000000E+01
4873000000.000000      8.735962000000000E-01     -1.658359000000000E+02      3.763428000000000E-01     -5.289648000000000E+01      4.057159000000000E-01     -1.531172000000000E+02      8.707275000000000E-01     -7.606640000000000E+01
4874000000.000000      8.763428000000000E-01     -1.657656000000000E+02      3.743744000000000E-01     -5.312304000000000E+01      4.068146000000000E-01     -1.531953000000000E+02      8.734741000000000E-01     -7.597656000000000E+01
4875000000.000000      8.802795000000000E-01     -1.658672000000000E+02      3.723907000000000E-01     -5.338476000000000E+01      4.073181000000000E-01     -1.535547000000000E+02      8.786926000000000E-01     -7.628515000000000E+01
4876000000.000000      8.803711000000000E-01     -1.656953000000000E+02      3.710022000000000E-01     -5.372070000000000E+01      4.066772000000000E-01     -1.535703000000000E+02      8.813171000000000E-01     -7.639453000000000E+01
4877000000.000000      8.829041000000000E-01     -1.655859000000000E+02      3.701324000000000E-01     -5.374804000000000E+01      4.076996000000000E-01     -1.539141000000000E+02      8.880920000000000E-01     -7.659374000000000E+01
4878000000.000000      8.873596000000000E-01     -1.656719000000000E+02      3.691864000000000E-01     -5.404297000000000E+01      4.075165000000000E-01     -1.538984000000000E+02      8.908691000000000E-01     -7.662109000000000E+01
4879000000.000000      8.902283000000000E-01     -1.655781000000000E+02      3.667755000000000E-01     -5.430469000000000E+01      4.077148000000000E-01     -1.541094000000000E+02      8.941650000000000E-01     -7.669140000000000E+01
4880000000.000000      8.907776000000000E-01     -1.654922000000000E+02      3.652954000000000E-01     -5.473633000000000E+01      4.083405000000000E-01     -1.541875000000000E+02      8.995361000000000E-01     -7.673828000000000E+01
4881000000.000000      8.933411000000000E-01     -1.654140000000000E+02      3.651428000000000E-01     -5.473046000000000E+01      4.085541000000000E-01     -1.544609000000000E+02      9.027710000000000E-01     -7.701953000000000E+01
4882000000.000000      8.936157000000000E-01     -1.653672000000000E+02      3.632507000000000E-01     -5.497851000000000E+01      4.080048000000000E-01     -1.544922000000000E+02      9.060669000000000E-01     -7.708984000000000E+01
