! Network Analyzer HP8722D
! Hewlett-Packard
! Data name: Linha & Wilkinson
! Saver's name: Rodrigo Anjos
! Comments: Teste da utilização de aquisição
continua pelo VNA HP8722D
! Time and date: 6/5/2025 15:40
!              Frequency                     S11                                                   S21                                                   S12                                                   S22
# HZ  S  MA R 50
4800000000.000000      4.958954000000000E-01     -1.681406000000000E+02      2.515411000000000E-01     -1.957031000000000E+01      2.481918000000000E-01     -1.407734000000000E+02      6.479187000000000E-01     -8.038671000000000E+01
4801000000.000000      4.975586000000000E-01     -1.682109000000000E+02      2.555695000000000E-01     -1.971387000000000E+01      2.512207000000000E-01     -1.409375000000000E+02      6.472778000000000E-01     -8.011719000000000E+01
4802000000.000000      4.984131000000000E-01     -1.682891000000000E+02      2.594299000000000E-01     -1.996680000000000E+01      2.559509000000000E-01     -1.408125000000000E+02      6.452026000000000E-01     -7.982031000000000E+01
4803000000.000000      5.001526000000000E-01     -1.683359000000000E+02      2.639923000000000E-01     -2.012500000000000E+01      2.586517000000000E-01     -1.408672000000000E+02      6.449280000000000E-01     -7.962109000000000E+01
4804000000.000000      5.025024000000000E-01     -1.683125000000000E+02      2.675323000000000E-01     -2.050000000000000E+01      2.629700000000000E-01     -1.410000000000000E+02      6.442871000000000E-01     -7.946875000000000E+01
4805000000.000000      5.051575000000000E-01     -1.684062000000000E+02      2.716675000000000E-01     -2.077734000000000E+01      2.662506000000000E-01     -1.410938000000000E+02      6.441345000000000E-01     -7.935156000000000E+01
4806000000.000000      5.068359000000000E-01     -1.683281000000000E+02      2.753296000000000E-01     -2.096386000000000E+01      2.693939000000000E-01     -1.410078000000000E+02      6.430054000000000E-01     -7.911718000000000E+01
4807000000.000000      5.094604000000000E-01     -1.683359000000000E+02      2.800751000000000E-01     -2.139453000000000E+01      2.735901000000000E-01     -1.412578000000000E+02      6.430969000000000E-01     -7.882030000000000E+01
4808000000.000000      5.119324000000000E-01     -1.682656000000000E+02      2.841492000000000E-01     -2.162402000000000E+01      2.765961000000000E-01     -1.413359000000000E+02      6.427612000000000E-01     -7.861328000000000E+01
4809000000.000000      5.146790000000000E-01     -1.683203000000000E+02      2.878723000000000E-01     -2.215723000000000E+01      2.806549000000000E-01     -1.415156000000000E+02      6.427612000000000E-01     -7.845312000000000E+01
4810000000.000000      5.176086000000000E-01     -1.683203000000000E+02      2.921143000000000E-01     -2.234375000000000E+01      2.835999000000000E-01     -1.415390000000000E+02      6.438293000000000E-01     -7.825781000000000E+01
4811000000.000000      5.210266000000000E-01     -1.682422000000000E+02      2.957916000000000E-01     -2.294824000000000E+01      2.875214000000000E-01     -1.416172000000000E+02      6.434937000000000E-01     -7.795703000000000E+01
4812000000.000000      5.245361000000000E-01     -1.682891000000000E+02      2.994843000000000E-01     -2.322852000000000E+01      2.912140000000000E-01     -1.417422000000000E+02      6.453552000000000E-01     -7.782031000000000E+01
4813000000.000000      5.272217000000000E-01     -1.681562000000000E+02      3.031616000000000E-01     -2.356055000000000E+01      2.940521000000000E-01     -1.418984000000000E+02      6.453857000000000E-01     -7.760156000000000E+01
4814000000.000000      5.295105000000000E-01     -1.682500000000000E+02      3.071289000000000E-01     -2.398926000000000E+01      2.981873000000000E-01     -1.421406000000000E+02      6.462402000000000E-01     -7.739843000000000E+01
4815000000.000000      5.339966000000000E-01     -1.680859000000000E+02      3.101501000000000E-01     -2.440918000000000E+01      3.006744000000000E-01     -1.422891000000000E+02      6.456299000000000E-01     -7.723827000000000E+01
4816000000.000000      5.385437000000000E-01     -1.679688000000000E+02      3.142242000000000E-01     -2.466992000000000E+01      3.050232000000000E-01     -1.423906000000000E+02      6.482849000000000E-01     -7.701172000000000E+01
4817000000.000000      5.428162000000000E-01     -1.678672000000000E+02      3.177795000000000E-01     -2.526464000000000E+01      3.070221000000000E-01     -1.426094000000000E+02      6.481018000000000E-01     -7.682031000000000E+01
4818000000.000000      5.460510000000000E-01     -1.678672000000000E+02      3.204956000000000E-01     -2.549121000000000E+01      3.103638000000000E-01     -1.427656000000000E+02      6.497803000000000E-01     -7.678905000000000E+01
4819000000.000000      5.515137000000000E-01     -1.678125000000000E+02      3.242950000000000E-01     -2.615625000000000E+01      3.128967000000000E-01     -1.430391000000000E+02      6.533813000000000E-01     -7.659765000000000E+01
4820000000.000000      5.543518000000000E-01     -1.677187000000000E+02      3.278961000000000E-01     -2.654590000000000E+01      3.161469000000000E-01     -1.431015000000000E+02      6.546021000000000E-01     -7.635547000000000E+01
4821000000.000000      5.604858000000000E-01     -1.676094000000000E+02      3.313293000000000E-01     -2.700195000000000E+01      3.189850000000000E-01     -1.434297000000000E+02      6.559448000000000E-01     -7.622656000000000E+01
4822000000.000000      5.666504000000000E-01     -1.675781000000000E+02      3.348389000000000E-01     -2.743750000000000E+01      3.216858000000000E-01     -1.436797000000000E+02      6.579895000000000E-01     -7.618359000000000E+01
4823000000.000000      5.697021000000000E-01     -1.674375000000000E+02      3.376770000000000E-01     -2.788281000000000E+01      3.243866000000000E-01     -1.436016000000000E+02      6.596069000000000E-01     -7.604687000000000E+01
4824000000.000000      5.767822000000000E-01     -1.674297000000000E+02      3.408356000000000E-01     -2.839453000000000E+01      3.280640000000000E-01     -1.439297000000000E+02      6.620178000000000E-01     -7.583593000000000E+01
4825000000.000000      5.810242000000000E-01     -1.672734000000000E+02      3.433685000000000E-01     -2.903711000000000E+01      3.312836000000000E-01     -1.440859000000000E+02      6.639404000000000E-01     -7.560547000000000E+01
4826000000.000000      5.870361000000000E-01     -1.672266000000000E+02      3.467560000000000E-01     -2.940722000000000E+01      3.330688000000000E-01     -1.443203000000000E+02      6.675110000000000E-01     -7.559765000000000E+01
4827000000.000000      5.927734000000000E-01     -1.670234000000000E+02      3.498230000000000E-01     -2.988086000000000E+01      3.358612000000000E-01     -1.444687000000000E+02      6.701965000000000E-01     -7.538671000000000E+01
4828000000.000000      5.999451000000000E-01     -1.670469000000000E+02      3.532562000000000E-01     -3.053320000000000E+01      3.380737000000000E-01     -1.446406000000000E+02      6.736755000000000E-01     -7.542969000000000E+01
4829000000.000000      6.028442000000000E-01     -1.668437000000000E+02      3.551636000000000E-01     -3.100098000000000E+01      3.405151000000000E-01     -1.448281000000000E+02      6.763306000000000E-01     -7.524219000000000E+01
4830000000.000000      6.105347000000000E-01     -1.668594000000000E+02      3.575134000000000E-01     -3.150000000000000E+01      3.436279000000000E-01     -1.449063000000000E+02      6.798096000000000E-01     -7.517578000000000E+01
4831000000.000000      6.151123000000000E-01     -1.667031000000000E+02      3.604736000000000E-01     -3.208593000000000E+01      3.457031000000000E-01     -1.451484000000000E+02      6.828918000000000E-01     -7.509766000000000E+01
4832000000.000000      6.240234000000000E-01     -1.666406000000000E+02      3.632813000000000E-01     -3.259375000000000E+01      3.485107000000000E-01     -1.454453000000000E+02      6.863098000000000E-01     -7.499218000000000E+01
4833000000.000000      6.298523000000000E-01     -1.666250000000000E+02      3.657074000000000E-01     -3.316992000000000E+01      3.501434000000000E-01     -1.456719000000000E+02      6.888123000000000E-01     -7.494922000000000E+01
4834000000.000000      6.360779000000000E-01     -1.664766000000000E+02      3.670502000000000E-01     -3.359766000000000E+01      3.529510000000000E-01     -1.457891000000000E+02      6.922913000000000E-01     -7.484375000000000E+01
4835000000.000000      6.426086000000000E-01     -1.664531000000000E+02      3.694916000000000E-01     -3.427148000000000E+01      3.556671000000000E-01     -1.460156000000000E+02      6.965942000000000E-01     -7.484375000000000E+01
4836000000.000000      6.506042000000000E-01     -1.662969000000000E+02      3.722229000000000E-01     -3.476367000000000E+01      3.573608000000000E-01     -1.461641000000000E+02      6.993713000000000E-01     -7.472265000000000E+01
4837000000.000000      6.573181000000000E-01     -1.661719000000000E+02      3.732147000000000E-01     -3.559375000000000E+01      3.594666000000000E-01     -1.464922000000000E+02      7.029724000000000E-01     -7.459374000000000E+01
4838000000.000000      6.637573000000000E-01     -1.662734000000000E+02      3.759460000000000E-01     -3.595898000000000E+01      3.615875000000000E-01     -1.466484000000000E+02      7.076416000000000E-01     -7.455078000000000E+01
4839000000.000000      6.711121000000000E-01     -1.661094000000000E+02      3.767090000000000E-01     -3.644336000000000E+01      3.632202000000000E-01     -1.467969000000000E+02      7.110596000000000E-01     -7.453906000000000E+01
4840000000.000000      6.764832000000000E-01     -1.660703000000000E+02      3.779449000000000E-01     -3.707226000000000E+01      3.656616000000000E-01     -1.470078000000000E+02      7.144775000000000E-01     -7.459374000000000E+01
4841000000.000000      6.847534000000000E-01     -1.661641000000000E+02      3.800354000000000E-01     -3.772851000000000E+01      3.678436000000000E-01     -1.472656000000000E+02      7.192078000000000E-01     -7.458593000000000E+01
4842000000.000000      6.918945000000000E-01     -1.659765000000000E+02      3.826599000000000E-01     -3.816601000000000E+01      3.691864000000000E-01     -1.474062000000000E+02      7.236328000000000E-01     -7.450000000000000E+01
4843000000.000000      6.994019000000000E-01     -1.660391000000000E+02      3.830872000000000E-01     -3.871875000000000E+01      3.717041000000000E-01     -1.476016000000000E+02      7.281494000000000E-01     -7.442968000000000E+01
4844000000.000000      7.055054000000000E-01     -1.659531000000000E+02      3.834991000000000E-01     -3.934570000000000E+01      3.729095000000000E-01     -1.478437000000000E+02      7.321777000000000E-01     -7.447656000000000E+01
4845000000.000000      7.129822000000000E-01     -1.658359000000000E+02      3.849945000000000E-01     -3.985742000000000E+01      3.747101000000000E-01     -1.480469000000000E+02      7.354126000000000E-01     -7.441015000000000E+01
4846000000.000000      7.202759000000000E-01     -1.657734000000000E+02      3.852386000000000E-01     -4.035546000000000E+01      3.769684000000000E-01     -1.481797000000000E+02      7.401733000000000E-01     -7.441796000000000E+01
4847000000.000000      7.281494000000000E-01     -1.657891000000000E+02      3.867340000000000E-01     -4.089257000000000E+01      3.791046000000000E-01     -1.484609000000000E+02      7.451477000000000E-01     -7.447266000000000E+01
4848000000.000000      7.344666000000000E-01     -1.657344000000000E+02      3.876648000000000E-01     -4.135742000000000E+01      3.795624000000000E-01     -1.486094000000000E+02      7.492371000000000E-01     -7.449609000000000E+01
4849000000.000000      7.414246000000000E-01     -1.659531000000000E+02      3.887634000000000E-01     -4.211523000000000E+01      3.815613000000000E-01     -1.488047000000000E+02      7.535400000000000E-01     -7.449219000000000E+01
4850000000.000000      7.483521000000000E-01     -1.657734000000000E+02      3.890533000000000E-01     -4.254492000000000E+01      3.826447000000000E-01     -1.489219000000000E+02      7.584229000000000E-01     -7.442968000000000E+01
4851000000.000000      7.553101000000000E-01     -1.657812000000000E+02      3.892975000000000E-01     -4.318555000000000E+01      3.847504000000000E-01     -1.491250000000000E+02      7.644043000000000E-01     -7.454296000000000E+01
4852000000.000000      7.632141000000000E-01     -1.657500000000000E+02      3.899536000000000E-01     -4.369726000000000E+01      3.871307000000000E-01     -1.493203000000000E+02      7.683716000000000E-01     -7.448047000000000E+01
4853000000.000000      7.694702000000000E-01     -1.656875000000000E+02      3.885498000000000E-01     -4.420898000000000E+01      3.882904000000000E-01     -1.494531000000000E+02      7.738037000000000E-01     -7.462891000000000E+01
4854000000.000000      7.760315000000000E-01     -1.657422000000000E+02      3.898621000000000E-01     -4.481054000000000E+01      3.894958000000000E-01     -1.496406000000000E+02      7.792053000000000E-01     -7.456249000000000E+01
4855000000.000000      7.805481000000000E-01     -1.657734000000000E+02      3.896637000000000E-01     -4.514844000000000E+01      3.905792000000000E-01     -1.497734000000000E+02      7.814026000000000E-01     -7.459765000000000E+01
4856000000.000000      7.886963000000000E-01     -1.656875000000000E+02      3.898468000000000E-01     -4.560156000000000E+01      3.913879000000000E-01     -1.499531000000000E+02      7.875977000000000E-01     -7.468750000000000E+01
4857000000.000000      7.946167000000000E-01     -1.657031000000000E+02      3.895416000000000E-01     -4.615820000000000E+01      3.926239000000000E-01     -1.500547000000000E+02      7.927856000000000E-01     -7.468750000000000E+01
4858000000.000000      7.983704000000000E-01     -1.657656000000000E+02      3.895721000000000E-01     -4.664648000000000E+01      3.938293000000000E-01     -1.503125000000000E+02      7.959900000000000E-01     -7.472656000000000E+01
4859000000.000000      8.045654000000000E-01     -1.658281000000000E+02      3.892670000000000E-01     -4.718946000000000E+01      3.953400000000000E-01     -1.506172000000000E+02      8.024292000000000E-01     -7.493750000000000E+01
4860000000.000000      8.137512000000000E-01     -1.657969000000000E+02      3.892059000000000E-01     -4.749804000000000E+01      3.964233000000000E-01     -1.506719000000000E+02      8.078918000000000E-01     -7.484765000000000E+01
4861000000.000000      8.171692000000000E-01     -1.657109000000000E+02      3.879852000000000E-01     -4.815039000000000E+01      3.979950000000000E-01     -1.508437000000000E+02      8.112488000000000E-01     -7.493750000000000E+01
4862000000.000000      8.226318000000000E-01     -1.657266000000000E+02      3.885803000000000E-01     -4.846093000000000E+01      3.993378000000000E-01     -1.508828000000000E+02      8.184509000000000E-01     -7.497265000000000E+01
4863000000.000000      8.276672000000000E-01     -1.657266000000000E+02      3.866577000000000E-01     -4.905859000000000E+01      4.001617000000000E-01     -1.511094000000000E+02      8.223877000000000E-01     -7.505468000000000E+01
4864000000.000000      8.357239000000000E-01     -1.658437000000000E+02      3.860321000000000E-01     -4.924999000000000E+01      4.001312000000000E-01     -1.513125000000000E+02      8.265686000000000E-01     -7.518749000000000E+01
4865000000.000000      8.372192000000000E-01     -1.657500000000000E+02      3.850555000000000E-01     -4.981250000000000E+01      4.012451000000000E-01     -1.515781000000000E+02      8.321533000000000E-01     -7.514843000000000E+01
4866000000.000000      8.435364000000000E-01     -1.658750000000000E+02      3.829193000000000E-01     -5.010742000000000E+01      4.020996000000000E-01     -1.517031000000000E+02      8.367004000000000E-01     -7.531640000000000E+01
4867000000.000000      8.476563000000000E-01     -1.657031000000000E+02      3.833618000000000E-01     -5.070703000000000E+01      4.033051000000000E-01     -1.518281000000000E+02      8.417664000000000E-01     -7.541016000000000E+01
4868000000.000000      8.526001000000000E-01     -1.658516000000000E+02      3.823242000000000E-01     -5.111328000000000E+01      4.045258000000000E-01     -1.519922000000000E+02      8.455505000000000E-01     -7.533984000000000E+01
4869000000.000000      8.563843000000000E-01     -1.658281000000000E+02      3.809814000000000E-01     -5.126758000000000E+01      4.045105000000000E-01     -1.522109000000000E+02      8.522034000000000E-01     -7.562500000000000E+01
4870000000.000000      8.598633000000000E-01     -1.657969000000000E+02      3.802185000000000E-01     -5.149609000000000E+01      4.052429000000000E-01     -1.524609000000000E+02      8.572388000000000E-01     -7.562109000000000E+01
4871000000.000000      8.651428000000000E-01     -1.658281000000000E+02      3.782501000000000E-01     -5.206640000000000E+01      4.051666000000000E-01     -1.525781000000000E+02      8.589783000000000E-01     -7.582421000000000E+01
4872000000.000000      8.706360000000000E-01     -1.658203000000000E+02      3.770752000000000E-01     -5.214844000000000E+01      4.058228000000000E-01     -1.528750000000000E+02      8.644714000000000E-01     -7.588281000000000E+01
4873000000.000000      8.719788000000000E-01     -1.656641000000000E+02      3.752289000000000E-01     -5.273438000000000E+01      4.059296000000000E-01     -1.529297000000000E+02      8.689880000000000E-01     -7.595703000000000E+01
4874000000.000000      8.758240000000000E-01     -1.656563000000000E+02      3.738708000000000E-01     -5.298633000000000E+01      4.076538000000000E-01     -1.531094000000000E+02      8.742371000000000E-01     -7.593750000000000E+01
4875000000.000000      8.775635000000000E-01     -1.657266000000000E+02      3.728638000000000E-01     -5.318359000000000E+01      4.077911000000000E-01     -1.533594000000000E+02      8.782043000000000E-01     -7.612890000000000E+01
4876000000.000000      8.792725000000000E-01     -1.655703000000000E+02      3.717651000000000E-01     -5.358203000000000E+01      4.068451000000000E-01     -1.534453000000000E+02      8.821411000000000E-01     -7.628906000000000E+01
4877000000.000000      8.829651000000000E-01     -1.655859000000000E+02      3.709412000000000E-01     -5.367382000000000E+01      4.080200000000000E-01     -1.536719000000000E+02      8.890381000000000E-01     -7.635547000000000E+01
4878000000.000000      8.857727000000000E-01     -1.654687000000000E+02      3.698730000000000E-01     -5.404101000000000E+01      4.084015000000000E-01     -1.536719000000000E+02      8.920593000000000E-01     -7.656640000000000E+01
4879000000.000000      8.882141000000000E-01     -1.653828000000000E+02      3.667297000000000E-01     -5.422070000000000E+01      4.085083000000000E-01     -1.538984000000000E+02      8.939514000000000E-01     -7.653125000000000E+01
4880000000.000000      8.891296000000000E-01     -1.652578000000000E+02      3.659058000000000E-01     -5.458008000000000E+01      4.085388000000000E-01     -1.540234000000000E+02      8.988037000000000E-01     -7.660937000000000E+01
4881000000.000000      8.937073000000000E-01     -1.651875000000000E+02      3.652649000000000E-01     -5.451953000000000E+01      4.091034000000000E-01     -1.543047000000000E+02      9.045105000000000E-01     -7.693359000000000E+01
4882000000.000000      8.927002000000000E-01     -1.651562000000000E+02      3.636017000000000E-01     -5.475586000000000E+01      4.087830000000000E-01     -1.543203000000000E+02      9.067383000000000E-01     -7.699219000000000E+01
