! Network Analyzer HP8722D
! Hewlett-Packard
! Data name: Linha & Wilkinson
! Saver's name: Rodrigo Anjos
! Comments: Teste da utilização de aquisição
continua pelo VNA HP8722D
! Time and date: 6/5/2025 14:48
!              Frequency                     S11                                                   S21                                                   S12                                                   S22
# HZ  S  MA R 50
4800000000.000000      4.965363000000000E-01     -1.682422000000000E+02      2.522583000000000E-01     -1.963476000000000E+01      2.487183000000000E-01     -1.409688000000000E+02      6.480103000000000E-01     -8.032030000000000E+01
4801000000.000000      4.982147000000000E-01     -1.683203000000000E+02      2.564392000000000E-01     -1.997363000000000E+01      2.520294000000000E-01     -1.410469000000000E+02      6.472473000000000E-01     -8.016796000000000E+01
4802000000.000000      4.992371000000000E-01     -1.684375000000000E+02      2.605591000000000E-01     -2.003711000000000E+01      2.563324000000000E-01     -1.409688000000000E+02      6.454773000000000E-01     -7.984375000000000E+01
4803000000.000000      5.007324000000000E-01     -1.684297000000000E+02      2.647552000000000E-01     -2.047656000000000E+01      2.593231000000000E-01     -1.410391000000000E+02      6.443481000000000E-01     -7.966406000000000E+01
4804000000.000000      5.029907000000000E-01     -1.683437000000000E+02      2.684174000000000E-01     -2.051856000000000E+01      2.632294000000000E-01     -1.412109000000000E+02      6.444397000000000E-01     -7.943749000000000E+01
4805000000.000000      5.053711000000000E-01     -1.684297000000000E+02      2.726288000000000E-01     -2.106836000000000E+01      2.667389000000000E-01     -1.411953000000000E+02      6.441650000000000E-01     -7.917578000000000E+01
4806000000.000000      5.071106000000000E-01     -1.683906000000000E+02      2.763672000000000E-01     -2.120312000000000E+01      2.698822000000000E-01     -1.412188000000000E+02      6.429138000000000E-01     -7.908984000000000E+01
4807000000.000000      5.103455000000000E-01     -1.684531000000000E+02      2.803955000000000E-01     -2.160351000000000E+01      2.742004000000000E-01     -1.414141000000000E+02      6.435547000000000E-01     -7.883984000000000E+01
4808000000.000000      5.126953000000000E-01     -1.683750000000000E+02      2.849426000000000E-01     -2.167383000000000E+01      2.776947000000000E-01     -1.415469000000000E+02      6.430969000000000E-01     -7.864843000000000E+01
4809000000.000000      5.148010000000000E-01     -1.684141000000000E+02      2.887726000000000E-01     -2.233398000000000E+01      2.809448000000000E-01     -1.417891000000000E+02      6.437378000000000E-01     -7.846874000000000E+01
4810000000.000000      5.177002000000000E-01     -1.683672000000000E+02      2.926331000000000E-01     -2.247949000000000E+01      2.843781000000000E-01     -1.418125000000000E+02      6.446533000000000E-01     -7.828906000000000E+01
4811000000.000000      5.210266000000000E-01     -1.683906000000000E+02      2.970276000000000E-01     -2.299902000000000E+01      2.885895000000000E-01     -1.418594000000000E+02      6.442566000000000E-01     -7.798828000000000E+01
4812000000.000000      5.254517000000000E-01     -1.683047000000000E+02      2.998047000000000E-01     -2.330957000000000E+01      2.922211000000000E-01     -1.420625000000000E+02      6.458435000000000E-01     -7.782812000000000E+01
4813000000.000000      5.283203000000000E-01     -1.682344000000000E+02      3.039551000000000E-01     -2.379687000000000E+01      2.944946000000000E-01     -1.421484000000000E+02      6.444397000000000E-01     -7.755077000000000E+01
4814000000.000000      5.307007000000000E-01     -1.682422000000000E+02      3.076324000000000E-01     -2.425976000000000E+01      2.973022000000000E-01     -1.423906000000000E+02      6.463318000000000E-01     -7.748047000000000E+01
4815000000.000000      5.346069000000000E-01     -1.681562000000000E+02      3.103485000000000E-01     -2.458105000000000E+01      3.014984000000000E-01     -1.425000000000000E+02      6.468201000000000E-01     -7.720703000000000E+01
4816000000.000000      5.386047000000000E-01     -1.680469000000000E+02      3.150940000000000E-01     -2.487890000000000E+01      3.053741000000000E-01     -1.426484000000000E+02      6.488342000000000E-01     -7.707812000000000E+01
4817000000.000000      5.440369000000000E-01     -1.680000000000000E+02      3.185883000000000E-01     -2.549121000000000E+01      3.074036000000000E-01     -1.428828000000000E+02      6.489258000000000E-01     -7.702734000000000E+01
4818000000.000000      5.469666000000000E-01     -1.679766000000000E+02      3.214264000000000E-01     -2.584765000000000E+01      3.112335000000000E-01     -1.428906000000000E+02      6.501465000000000E-01     -7.673828000000000E+01
4819000000.000000      5.520935000000000E-01     -1.678437000000000E+02      3.249207000000000E-01     -2.630957000000000E+01      3.133850000000000E-01     -1.431406000000000E+02      6.530457000000000E-01     -7.659374000000000E+01
4820000000.000000      5.547791000000000E-01     -1.678203000000000E+02      3.279877000000000E-01     -2.680859000000000E+01      3.171387000000000E-01     -1.433125000000000E+02      6.549377000000000E-01     -7.650000000000000E+01
4821000000.000000      5.609436000000000E-01     -1.677031000000000E+02      3.319092000000000E-01     -2.723047000000000E+01      3.197174000000000E-01     -1.435703000000000E+02      6.546326000000000E-01     -7.633594000000000E+01
4822000000.000000      5.671082000000000E-01     -1.676250000000000E+02      3.349762000000000E-01     -2.780273000000000E+01      3.224792000000000E-01     -1.437891000000000E+02      6.582336000000000E-01     -7.614452000000000E+01
4823000000.000000      5.704956000000000E-01     -1.675390000000000E+02      3.377228000000000E-01     -2.810742000000000E+01      3.250732000000000E-01     -1.438437000000000E+02      6.603088000000000E-01     -7.592578000000000E+01
4824000000.000000      5.773315000000000E-01     -1.675390000000000E+02      3.416138000000000E-01     -2.871094000000000E+01      3.282318000000000E-01     -1.441641000000000E+02      6.626282000000000E-01     -7.582421000000000E+01
4825000000.000000      5.817566000000000E-01     -1.673906000000000E+02      3.439484000000000E-01     -2.915039000000000E+01      3.312378000000000E-01     -1.443281000000000E+02      6.657104000000000E-01     -7.567187000000000E+01
4826000000.000000      5.875854000000000E-01     -1.673047000000000E+02      3.476410000000000E-01     -2.973340000000000E+01      3.328094000000000E-01     -1.446016000000000E+02      6.686096000000000E-01     -7.565624000000000E+01
4827000000.000000      5.933838000000000E-01     -1.671484000000000E+02      3.503418000000000E-01     -3.015527000000000E+01      3.358002000000000E-01     -1.446719000000000E+02      6.719055000000000E-01     -7.539844000000000E+01
4828000000.000000      6.001892000000000E-01     -1.671250000000000E+02      3.534393000000000E-01     -3.074023000000000E+01      3.385315000000000E-01     -1.448906000000000E+02      6.741333000000000E-01     -7.544531000000000E+01
4829000000.000000      6.035461000000000E-01     -1.669688000000000E+02      3.550262000000000E-01     -3.112988000000000E+01      3.420563000000000E-01     -1.450781000000000E+02      6.770325000000000E-01     -7.522655000000000E+01
4830000000.000000      6.109619000000000E-01     -1.668984000000000E+02      3.576508000000000E-01     -3.191308000000000E+01      3.436432000000000E-01     -1.452734000000000E+02      6.792297000000000E-01     -7.521093000000000E+01
4831000000.000000      6.160889000000000E-01     -1.668047000000000E+02      3.602295000000000E-01     -3.233593000000000E+01      3.466644000000000E-01     -1.453516000000000E+02      6.828918000000000E-01     -7.516015000000000E+01
4832000000.000000      6.247864000000000E-01     -1.666953000000000E+02      3.633270000000000E-01     -3.282812000000000E+01      3.480988000000000E-01     -1.456797000000000E+02      6.857910000000000E-01     -7.504687000000000E+01
4833000000.000000      6.306763000000000E-01     -1.667266000000000E+02      3.654785000000000E-01     -3.333398000000000E+01      3.502808000000000E-01     -1.458281000000000E+02      6.880493000000000E-01     -7.498047000000000E+01
4834000000.000000      6.375427000000000E-01     -1.665859000000000E+02      3.674164000000000E-01     -3.400000000000000E+01      3.536682000000000E-01     -1.460234000000000E+02      6.925354000000000E-01     -7.494922000000000E+01
4835000000.000000      6.435242000000000E-01     -1.665547000000000E+02      3.697205000000000E-01     -3.457031000000000E+01      3.557587000000000E-01     -1.462265000000000E+02      6.966248000000000E-01     -7.494531000000000E+01
4836000000.000000      6.516724000000000E-01     -1.663984000000000E+02      3.715973000000000E-01     -3.504687000000000E+01      3.582153000000000E-01     -1.464531000000000E+02      7.003784000000000E-01     -7.473827000000000E+01
4837000000.000000      6.572266000000000E-01     -1.662656000000000E+02      3.737030000000000E-01     -3.577343000000000E+01      3.599701000000000E-01     -1.467500000000000E+02      7.031555000000000E-01     -7.471484000000000E+01
4838000000.000000      6.647034000000000E-01     -1.663750000000000E+02      3.760071000000000E-01     -3.602344000000000E+01      3.619080000000000E-01     -1.468750000000000E+02      7.073364000000000E-01     -7.466406000000000E+01
4839000000.000000      6.715698000000000E-01     -1.661875000000000E+02      3.770905000000000E-01     -3.673437000000000E+01      3.637543000000000E-01     -1.469375000000000E+02      7.125549000000000E-01     -7.464062000000000E+01
4840000000.000000      6.771851000000000E-01     -1.662031000000000E+02      3.783722000000000E-01     -3.715039000000000E+01      3.663177000000000E-01     -1.472578000000000E+02      7.158203000000000E-01     -7.459374000000000E+01
4841000000.000000      6.852722000000000E-01     -1.662266000000000E+02      3.805389000000000E-01     -3.790625000000000E+01      3.686371000000000E-01     -1.474766000000000E+02      7.197266000000000E-01     -7.455078000000000E+01
4842000000.000000      6.930542000000000E-01     -1.660547000000000E+02      3.824158000000000E-01     -3.840234000000000E+01      3.693237000000000E-01     -1.476563000000000E+02      7.246704000000000E-01     -7.455468000000000E+01
4843000000.000000      6.987305000000000E-01     -1.661328000000000E+02      3.832092000000000E-01     -3.905078000000000E+01      3.709106000000000E-01     -1.478047000000000E+02      7.279053000000000E-01     -7.451953000000000E+01
4844000000.000000      7.061157000000000E-01     -1.660391000000000E+02      3.839569000000000E-01     -3.952343000000000E+01      3.721466000000000E-01     -1.479922000000000E+02      7.328491000000000E-01     -7.452734000000000E+01
4845000000.000000      7.129822000000000E-01     -1.659609000000000E+02      3.850861000000000E-01     -4.009179000000000E+01      3.748322000000000E-01     -1.481172000000000E+02      7.360840000000000E-01     -7.447266000000000E+01
4846000000.000000      7.206421000000000E-01     -1.658828000000000E+02      3.859253000000000E-01     -4.050390000000000E+01      3.768005000000000E-01     -1.483516000000000E+02      7.415161000000000E-01     -7.443359000000000E+01
4847000000.000000      7.285461000000000E-01     -1.659141000000000E+02      3.868103000000000E-01     -4.104101000000000E+01      3.791656000000000E-01     -1.486250000000000E+02      7.465210000000000E-01     -7.463672000000000E+01
4848000000.000000      7.352295000000000E-01     -1.658828000000000E+02      3.872833000000000E-01     -4.159961000000000E+01      3.795929000000000E-01     -1.488359000000000E+02      7.504272000000000E-01     -7.459374000000000E+01
4849000000.000000      7.413940000000000E-01     -1.661016000000000E+02      3.894501000000000E-01     -4.231054000000000E+01      3.816376000000000E-01     -1.490078000000000E+02      7.549438000000000E-01     -7.448047000000000E+01
4850000000.000000      7.489014000000000E-01     -1.658984000000000E+02      3.900146000000000E-01     -4.273828000000000E+01      3.831635000000000E-01     -1.490313000000000E+02      7.592773000000000E-01     -7.455859000000000E+01
4851000000.000000      7.559814000000000E-01     -1.658750000000000E+02      3.901215000000000E-01     -4.342382000000000E+01      3.843079000000000E-01     -1.493359000000000E+02      7.658081000000000E-01     -7.454687000000000E+01
4852000000.000000      7.637329000000000E-01     -1.658594000000000E+02      3.903046000000000E-01     -4.385547000000000E+01      3.867798000000000E-01     -1.494609000000000E+02      7.691650000000000E-01     -7.458202000000000E+01
4853000000.000000      7.699890000000000E-01     -1.658359000000000E+02      3.891449000000000E-01     -4.426367000000000E+01      3.879242000000000E-01     -1.496641000000000E+02      7.738342000000000E-01     -7.474218000000000E+01
4854000000.000000      7.764282000000000E-01     -1.658359000000000E+02      3.903961000000000E-01     -4.508008000000000E+01      3.892822000000000E-01     -1.498516000000000E+02      7.796021000000000E-01     -7.467968000000000E+01
4855000000.000000      7.816772000000000E-01     -1.658828000000000E+02      3.895874000000000E-01     -4.533789000000000E+01      3.906250000000000E-01     -1.498984000000000E+02      7.823486000000000E-01     -7.471093000000000E+01
4856000000.000000      7.896729000000000E-01     -1.657891000000000E+02      3.899384000000000E-01     -4.588867000000000E+01      3.918152000000000E-01     -1.501953000000000E+02      7.889404000000000E-01     -7.472265000000000E+01
4857000000.000000      7.960205000000000E-01     -1.658984000000000E+02      3.903046000000000E-01     -4.645898000000000E+01      3.929443000000000E-01     -1.502734000000000E+02      7.928162000000000E-01     -7.474609000000000E+01
4858000000.000000      7.993774000000000E-01     -1.659062000000000E+02      3.897095000000000E-01     -4.675977000000000E+01      3.938293000000000E-01     -1.505078000000000E+02      7.973022000000000E-01     -7.492578000000000E+01
4859000000.000000      8.063049000000000E-01     -1.659297000000000E+02      3.899841000000000E-01     -4.734179000000000E+01      3.952332000000000E-01     -1.507891000000000E+02      8.045044000000000E-01     -7.498828000000000E+01
4860000000.000000      8.135376000000000E-01     -1.658906000000000E+02      3.888855000000000E-01     -4.770898000000000E+01      3.962708000000000E-01     -1.508906000000000E+02      8.071899000000000E-01     -7.487499000000000E+01
4861000000.000000      8.192749000000000E-01     -1.659531000000000E+02      3.883362000000000E-01     -4.836719000000000E+01      3.973083000000000E-01     -1.510781000000000E+02      8.119812000000000E-01     -7.509375000000000E+01
4862000000.000000      8.256836000000000E-01     -1.658750000000000E+02      3.879089000000000E-01     -4.868554000000000E+01      3.986053000000000E-01     -1.511953000000000E+02      8.180542000000000E-01     -7.508203000000000E+01
4863000000.000000      8.273926000000000E-01     -1.658750000000000E+02      3.859253000000000E-01     -4.938671000000000E+01      3.998108000000000E-01     -1.513359000000000E+02      8.226624000000000E-01     -7.514843000000000E+01
4864000000.000000      8.361511000000000E-01     -1.658984000000000E+02      3.863983000000000E-01     -4.955664000000000E+01      4.001465000000000E-01     -1.514062000000000E+02      8.270264000000000E-01     -7.527344000000000E+01
4865000000.000000      8.397217000000000E-01     -1.660625000000000E+02      3.841705000000000E-01     -4.999413000000000E+01      4.012451000000000E-01     -1.517500000000000E+02      8.319702000000000E-01     -7.524219000000000E+01
4866000000.000000      8.425598000000000E-01     -1.658047000000000E+02      3.835602000000000E-01     -5.027538000000000E+01      4.022827000000000E-01     -1.519219000000000E+02      8.372498000000000E-01     -7.528125000000000E+01
4867000000.000000      8.492126000000000E-01     -1.657734000000000E+02      3.840332000000000E-01     -5.082617000000000E+01      4.027557000000000E-01     -1.520156000000000E+02      8.424072000000000E-01     -7.547265000000000E+01
4868000000.000000      8.539124000000000E-01     -1.660000000000000E+02      3.821716000000000E-01     -5.116015000000000E+01      4.041443000000000E-01     -1.521953000000000E+02      8.474426000000000E-01     -7.548437000000000E+01
4869000000.000000      8.578796000000000E-01     -1.658906000000000E+02      3.799438000000000E-01     -5.153710000000000E+01      4.044495000000000E-01     -1.523984000000000E+02      8.516541000000000E-01     -7.569530000000000E+01
4870000000.000000      8.606873000000000E-01     -1.657734000000000E+02      3.800964000000000E-01     -5.182031000000000E+01      4.049835000000000E-01     -1.526328000000000E+02      8.562927000000000E-01     -7.570313000000000E+01
4871000000.000000      8.663940000000000E-01     -1.659297000000000E+02      3.781891000000000E-01     -5.222656000000000E+01      4.048615000000000E-01     -1.527656000000000E+02      8.612976000000000E-01     -7.591797000000000E+01
4872000000.000000      8.712769000000000E-01     -1.658750000000000E+02      3.765717000000000E-01     -5.243945000000000E+01      4.058685000000000E-01     -1.530859000000000E+02      8.663635000000000E-01     -7.591406000000000E+01
4873000000.000000      8.713379000000000E-01     -1.658047000000000E+02      3.748169000000000E-01     -5.285351000000000E+01      4.057465000000000E-01     -1.530703000000000E+02      8.691406000000000E-01     -7.609765000000000E+01
4874000000.000000      8.760681000000000E-01     -1.657266000000000E+02      3.741608000000000E-01     -5.320313000000000E+01      4.072113000000000E-01     -1.532891000000000E+02      8.725586000000000E-01     -7.605469000000000E+01
4875000000.000000      8.811340000000000E-01     -1.657266000000000E+02      3.731079000000000E-01     -5.343945000000000E+01      4.076233000000000E-01     -1.535156000000000E+02      8.785400000000000E-01     -7.632030000000000E+01
4876000000.000000      8.813477000000000E-01     -1.656094000000000E+02      3.713989000000000E-01     -5.372460000000000E+01      4.066467000000000E-01     -1.536172000000000E+02      8.825073000000000E-01     -7.641015000000000E+01
4877000000.000000      8.829651000000000E-01     -1.656016000000000E+02      3.698730000000000E-01     -5.384570000000000E+01      4.083557000000000E-01     -1.538828000000000E+02      8.872070000000000E-01     -7.646484000000000E+01
4878000000.000000      8.858948000000000E-01     -1.655313000000000E+02      3.687744000000000E-01     -5.412304000000000E+01      4.078522000000000E-01     -1.538594000000000E+02      8.918457000000000E-01     -7.670703000000000E+01
4879000000.000000      8.890076000000000E-01     -1.655469000000000E+02      3.657227000000000E-01     -5.433594000000000E+01      4.080048000000000E-01     -1.540547000000000E+02      8.954773000000000E-01     -7.664453000000000E+01
4880000000.000000      8.908081000000000E-01     -1.653906000000000E+02      3.650513000000000E-01     -5.465820000000000E+01      4.085846000000000E-01     -1.541563000000000E+02      9.002380000000000E-01     -7.673046000000000E+01
4881000000.000000      8.959045000000000E-01     -1.652969000000000E+02      3.650665000000000E-01     -5.454296000000000E+01      4.084778000000000E-01     -1.544297000000000E+02      9.042664000000000E-01     -7.697266000000000E+01
4882000000.000000      8.933411000000000E-01     -1.653047000000000E+02      3.620605000000000E-01     -5.501367000000000E+01      4.083252000000000E-01     -1.544844000000000E+02      9.073792000000000E-01     -7.693749000000000E+01
