! Network Analyzer HP8722D
! Hewlett-Packard
! Data name: Linha & Wilkinson
! Saver's name: Rodrigo Anjos
! Comments: Teste da utilização de aquisição
continua pelo VNA HP8722D
! Time and date: 6/5/2025 14:43
!              Frequency                     S11                                                   S21                                                   S12                                                   S22
# HZ  S  MA R 50
4800000000.000000      4.969482000000000E-01     -1.682656000000000E+02      2.518616000000000E-01     -1.981055000000000E+01      2.486343000000000E-01     -1.409297000000000E+02      6.470947000000000E-01     -8.042578000000000E+01
4801000000.000000      4.980164000000000E-01     -1.683359000000000E+02      2.563019000000000E-01     -1.987597000000000E+01      2.521973000000000E-01     -1.408984000000000E+02      6.467896000000000E-01     -7.996875000000000E+01
4802000000.000000      4.990540000000000E-01     -1.683516000000000E+02      2.600708000000000E-01     -2.003027000000000E+01      2.561340000000000E-01     -1.409297000000000E+02      6.454468000000000E-01     -7.975780000000000E+01
4803000000.000000      5.006714000000000E-01     -1.684531000000000E+02      2.649231000000000E-01     -2.039941000000000E+01      2.594604000000000E-01     -1.409765000000000E+02      6.448669000000000E-01     -7.977344000000000E+01
4804000000.000000      5.033875000000000E-01     -1.684141000000000E+02      2.689056000000000E-01     -2.057617000000000E+01      2.633667000000000E-01     -1.413437000000000E+02      6.444397000000000E-01     -7.937500000000000E+01
4805000000.000000      5.057068000000000E-01     -1.684687000000000E+02      2.721558000000000E-01     -2.094336000000000E+01      2.667542000000000E-01     -1.412188000000000E+02      6.444092000000000E-01     -7.933984000000000E+01
4806000000.000000      5.076294000000000E-01     -1.683828000000000E+02      2.768402000000000E-01     -2.130469000000000E+01      2.700500000000000E-01     -1.412500000000000E+02      6.433105000000000E-01     -7.914453000000000E+01
4807000000.000000      5.105896000000000E-01     -1.684609000000000E+02      2.807007000000000E-01     -2.159863000000000E+01      2.741241000000000E-01     -1.414844000000000E+02      6.437378000000000E-01     -7.884375000000000E+01
4808000000.000000      5.128784000000000E-01     -1.683281000000000E+02      2.853241000000000E-01     -2.182031000000000E+01      2.771149000000000E-01     -1.415937000000000E+02      6.435242000000000E-01     -7.856640000000000E+01
4809000000.000000      5.151978000000000E-01     -1.684141000000000E+02      2.882996000000000E-01     -2.232422000000000E+01      2.815399000000000E-01     -1.417031000000000E+02      6.443481000000000E-01     -7.846874000000000E+01
4810000000.000000      5.185242000000000E-01     -1.683828000000000E+02      2.923889000000000E-01     -2.256054000000000E+01      2.847595000000000E-01     -1.418984000000000E+02      6.436768000000000E-01     -7.829687000000000E+01
4811000000.000000      5.214233000000000E-01     -1.683984000000000E+02      2.964630000000000E-01     -2.306738000000000E+01      2.887268000000000E-01     -1.418047000000000E+02      6.446838000000000E-01     -7.793750000000000E+01
4812000000.000000      5.255127000000000E-01     -1.683125000000000E+02      2.998810000000000E-01     -2.341406000000000E+01      2.917480000000000E-01     -1.421172000000000E+02      6.451111000000000E-01     -7.775391000000000E+01
4813000000.000000      5.278625000000000E-01     -1.682812000000000E+02      3.037415000000000E-01     -2.377051000000000E+01      2.944489000000000E-01     -1.420156000000000E+02      6.456909000000000E-01     -7.757813000000000E+01
4814000000.000000      5.310364000000000E-01     -1.683203000000000E+02      3.078003000000000E-01     -2.410840000000000E+01      2.979736000000000E-01     -1.423828000000000E+02      6.463013000000000E-01     -7.748437000000000E+01
4815000000.000000      5.343323000000000E-01     -1.681484000000000E+02      3.112030000000000E-01     -2.455469000000000E+01      3.008270000000000E-01     -1.424453000000000E+02      6.463928000000000E-01     -7.719140000000000E+01
4816000000.000000      5.392151000000000E-01     -1.680391000000000E+02      3.148346000000000E-01     -2.479687000000000E+01      3.054352000000000E-01     -1.426016000000000E+02      6.484680000000000E-01     -7.706249000000000E+01
4817000000.000000      5.437927000000000E-01     -1.679844000000000E+02      3.183594000000000E-01     -2.539551000000000E+01      3.074188000000000E-01     -1.428281000000000E+02      6.490173000000000E-01     -7.692577000000000E+01
4818000000.000000      5.469360000000000E-01     -1.679609000000000E+02      3.217621000000000E-01     -2.587891000000000E+01      3.111877000000000E-01     -1.428906000000000E+02      6.501770000000000E-01     -7.671093000000000E+01
4819000000.000000      5.522461000000000E-01     -1.678984000000000E+02      3.249054000000000E-01     -2.632324000000000E+01      3.130646000000000E-01     -1.432344000000000E+02      6.531982000000000E-01     -7.655078000000000E+01
4820000000.000000      5.546265000000000E-01     -1.678125000000000E+02      3.278351000000000E-01     -2.676855000000000E+01      3.170013000000000E-01     -1.433750000000000E+02      6.541443000000000E-01     -7.642968000000000E+01
4821000000.000000      5.605469000000000E-01     -1.677187000000000E+02      3.314514000000000E-01     -2.711426000000000E+01      3.198090000000000E-01     -1.435781000000000E+02      6.560059000000000E-01     -7.623828000000000E+01
4822000000.000000      5.671692000000000E-01     -1.676953000000000E+02      3.351746000000000E-01     -2.760547000000000E+01      3.220367000000000E-01     -1.437813000000000E+02      6.587524000000000E-01     -7.594921000000000E+01
4823000000.000000      5.711365000000000E-01     -1.675156000000000E+02      3.380432000000000E-01     -2.805957000000000E+01      3.246307000000000E-01     -1.438672000000000E+02      6.601868000000000E-01     -7.594921000000000E+01
4824000000.000000      5.779419000000000E-01     -1.675078000000000E+02      3.414307000000000E-01     -2.871484000000000E+01      3.284912000000000E-01     -1.440938000000000E+02      6.619263000000000E-01     -7.582812000000000E+01
4825000000.000000      5.818176000000000E-01     -1.673750000000000E+02      3.441925000000000E-01     -2.904297000000000E+01      3.315430000000000E-01     -1.443281000000000E+02      6.657410000000000E-01     -7.573437000000000E+01
4826000000.000000      5.878601000000000E-01     -1.673047000000000E+02      3.474731000000000E-01     -2.975000000000000E+01      3.335419000000000E-01     -1.445469000000000E+02      6.685181000000000E-01     -7.562500000000000E+01
4827000000.000000      5.936584000000000E-01     -1.671406000000000E+02      3.505554000000000E-01     -3.002050000000000E+01      3.364868000000000E-01     -1.446640000000000E+02      6.700439000000000E-01     -7.546484000000000E+01
4828000000.000000      6.002502000000000E-01     -1.671016000000000E+02      3.539429000000000E-01     -3.060254000000000E+01      3.381042000000000E-01     -1.450547000000000E+02      6.750793000000000E-01     -7.533203000000000E+01
4829000000.000000      6.036072000000000E-01     -1.669297000000000E+02      3.547516000000000E-01     -3.127050000000000E+01      3.414917000000000E-01     -1.451094000000000E+02      6.763611000000000E-01     -7.522655000000000E+01
4830000000.000000      6.118469000000000E-01     -1.669141000000000E+02      3.575745000000000E-01     -3.177441000000000E+01      3.436737000000000E-01     -1.453438000000000E+02      6.791382000000000E-01     -7.518359000000000E+01
4831000000.000000      6.160583000000000E-01     -1.668359000000000E+02      3.604736000000000E-01     -3.239062000000000E+01      3.460846000000000E-01     -1.453672000000000E+02      6.825562000000000E-01     -7.515234000000000E+01
4832000000.000000      6.248169000000000E-01     -1.667578000000000E+02      3.634644000000000E-01     -3.278320000000000E+01      3.477631000000000E-01     -1.457031000000000E+02      6.853943000000000E-01     -7.506640000000000E+01
4833000000.000000      6.309204000000000E-01     -1.667578000000000E+02      3.654633000000000E-01     -3.330273000000000E+01      3.504333000000000E-01     -1.458281000000000E+02      6.890564000000000E-01     -7.498047000000000E+01
4834000000.000000      6.369629000000000E-01     -1.666094000000000E+02      3.672028000000000E-01     -3.394336000000000E+01      3.527985000000000E-01     -1.461328000000000E+02      6.921997000000000E-01     -7.494141000000000E+01
4835000000.000000      6.430054000000000E-01     -1.665313000000000E+02      3.697205000000000E-01     -3.450976000000000E+01      3.559875000000000E-01     -1.462422000000000E+02      6.965332000000000E-01     -7.485937000000000E+01
4836000000.000000      6.509705000000000E-01     -1.664063000000000E+02      3.720703000000000E-01     -3.505078000000000E+01      3.577271000000000E-01     -1.463438000000000E+02      6.998901000000000E-01     -7.477734000000000E+01
4837000000.000000      6.577759000000000E-01     -1.663516000000000E+02      3.737793000000000E-01     -3.579687000000000E+01      3.597870000000000E-01     -1.466484000000000E+02      7.037964000000000E-01     -7.468750000000000E+01
4838000000.000000      6.649475000000000E-01     -1.663516000000000E+02      3.764191000000000E-01     -3.619336000000000E+01      3.615875000000000E-01     -1.468750000000000E+02      7.062988000000000E-01     -7.464062000000000E+01
4839000000.000000      6.722107000000000E-01     -1.662109000000000E+02      3.770294000000000E-01     -3.673828000000000E+01      3.643799000000000E-01     -1.470234000000000E+02      7.113953000000000E-01     -7.458593000000000E+01
4840000000.000000      6.770020000000000E-01     -1.661953000000000E+02      3.781891000000000E-01     -3.722461000000000E+01      3.661652000000000E-01     -1.473359000000000E+02      7.157593000000000E-01     -7.463281000000000E+01
4841000000.000000      6.854858000000000E-01     -1.662266000000000E+02      3.809052000000000E-01     -3.793554000000000E+01      3.674622000000000E-01     -1.474297000000000E+02      7.195740000000000E-01     -7.462109000000000E+01
4842000000.000000      6.928101000000000E-01     -1.661172000000000E+02      3.816528000000000E-01     -3.836719000000000E+01      3.692780000000000E-01     -1.477734000000000E+02      7.249146000000000E-01     -7.456640000000000E+01
4843000000.000000      6.985779000000000E-01     -1.661406000000000E+02      3.827972000000000E-01     -3.912695000000000E+01      3.715820000000000E-01     -1.478516000000000E+02      7.282410000000000E-01     -7.445313000000000E+01
4844000000.000000      7.059021000000000E-01     -1.660469000000000E+02      3.842926000000000E-01     -3.945898000000000E+01      3.730316000000000E-01     -1.480937000000000E+02      7.326050000000000E-01     -7.453906000000000E+01
4845000000.000000      7.130432000000000E-01     -1.660156000000000E+02      3.848419000000000E-01     -4.015429000000000E+01      3.751068000000000E-01     -1.482188000000000E+02      7.357788000000000E-01     -7.446484000000000E+01
4846000000.000000      7.204285000000000E-01     -1.658984000000000E+02      3.866577000000000E-01     -4.045898000000000E+01      3.769684000000000E-01     -1.483750000000000E+02      7.408752000000000E-01     -7.451172000000000E+01
4847000000.000000      7.286682000000000E-01     -1.659375000000000E+02      3.868561000000000E-01     -4.101953000000000E+01      3.784790000000000E-01     -1.486328000000000E+02      7.462158000000000E-01     -7.458202000000000E+01
4848000000.000000      7.354126000000000E-01     -1.658594000000000E+02      3.874054000000000E-01     -4.158203000000000E+01      3.804321000000000E-01     -1.487969000000000E+02      7.491455000000000E-01     -7.456640000000000E+01
4849000000.000000      7.425232000000000E-01     -1.660781000000000E+02      3.889008000000000E-01     -4.221875000000000E+01      3.822174000000000E-01     -1.489687000000000E+02      7.540894000000000E-01     -7.441796000000000E+01
4850000000.000000      7.488403000000000E-01     -1.658984000000000E+02      3.890076000000000E-01     -4.278125000000000E+01      3.829803000000000E-01     -1.490625000000000E+02      7.594604000000000E-01     -7.448047000000000E+01
4851000000.000000      7.555847000000000E-01     -1.658516000000000E+02      3.907471000000000E-01     -4.337304000000000E+01      3.843536000000000E-01     -1.493281000000000E+02      7.637024000000000E-01     -7.455859000000000E+01
4852000000.000000      7.636108000000000E-01     -1.659219000000000E+02      3.897400000000000E-01     -4.383008000000000E+01      3.859863000000000E-01     -1.494141000000000E+02      7.679749000000000E-01     -7.458984000000000E+01
4853000000.000000      7.698669000000000E-01     -1.658516000000000E+02      3.888855000000000E-01     -4.440430000000000E+01      3.878326000000000E-01     -1.496797000000000E+02      7.735291000000000E-01     -7.470703000000000E+01
4854000000.000000      7.764587000000000E-01     -1.658750000000000E+02      3.894501000000000E-01     -4.514062000000000E+01      3.889313000000000E-01     -1.498906000000000E+02      7.790222000000000E-01     -7.467968000000000E+01
4855000000.000000      7.810974000000000E-01     -1.658672000000000E+02      3.896637000000000E-01     -4.538086000000000E+01      3.904724000000000E-01     -1.498906000000000E+02      7.829285000000000E-01     -7.463281000000000E+01
4856000000.000000      7.904053000000000E-01     -1.658516000000000E+02      3.903351000000000E-01     -4.576562000000000E+01      3.919983000000000E-01     -1.501875000000000E+02      7.888794000000000E-01     -7.476953000000000E+01
4857000000.000000      7.959290000000000E-01     -1.659453000000000E+02      3.900909000000000E-01     -4.644140000000000E+01      3.927307000000000E-01     -1.502969000000000E+02      7.925110000000000E-01     -7.477734000000000E+01
4858000000.000000      7.995911000000000E-01     -1.659844000000000E+02      3.893433000000000E-01     -4.679101000000000E+01      3.936920000000000E-01     -1.504922000000000E+02      7.980042000000000E-01     -7.491015000000000E+01
4859000000.000000      8.062439000000000E-01     -1.660000000000000E+02      3.885498000000000E-01     -4.742383000000000E+01      3.949432000000000E-01     -1.506953000000000E+02      8.035278000000000E-01     -7.494141000000000E+01
4860000000.000000      8.137207000000000E-01     -1.659531000000000E+02      3.890228000000000E-01     -4.777344000000000E+01      3.957062000000000E-01     -1.508047000000000E+02      8.067322000000000E-01     -7.503906000000000E+01
4861000000.000000      8.199768000000000E-01     -1.658281000000000E+02      3.878021000000000E-01     -4.837500000000000E+01      3.975525000000000E-01     -1.510781000000000E+02      8.120728000000000E-01     -7.505077000000000E+01
4862000000.000000      8.258667000000000E-01     -1.659297000000000E+02      3.883362000000000E-01     -4.864648000000000E+01      3.987427000000000E-01     -1.512031000000000E+02      8.190613000000000E-01     -7.515625000000000E+01
4863000000.000000      8.286743000000000E-01     -1.660078000000000E+02      3.865509000000000E-01     -4.924218000000000E+01      3.996887000000000E-01     -1.513125000000000E+02      8.233032000000000E-01     -7.505077000000000E+01
4864000000.000000      8.344116000000000E-01     -1.659297000000000E+02      3.863068000000000E-01     -4.953320000000000E+01      3.999023000000000E-01     -1.515078000000000E+02      8.273315000000000E-01     -7.523828000000000E+01
4865000000.000000      8.386230000000000E-01     -1.660234000000000E+02      3.851776000000000E-01     -5.003320000000000E+01      4.014740000000000E-01     -1.517734000000000E+02      8.313904000000000E-01     -7.520702000000000E+01
4866000000.000000      8.432922000000000E-01     -1.660312000000000E+02      3.837738000000000E-01     -5.030663000000000E+01      4.020386000000000E-01     -1.518281000000000E+02      8.370056000000000E-01     -7.534374000000000E+01
4867000000.000000      8.502808000000000E-01     -1.659297000000000E+02      3.830872000000000E-01     -5.086719000000000E+01      4.027100000000000E-01     -1.520313000000000E+02      8.439941000000000E-01     -7.537890000000000E+01
4868000000.000000      8.533936000000000E-01     -1.660547000000000E+02      3.823242000000000E-01     -5.123632000000000E+01      4.040985000000000E-01     -1.521875000000000E+02      8.459778000000000E-01     -7.541016000000000E+01
4869000000.000000      8.547058000000000E-01     -1.659297000000000E+02      3.802795000000000E-01     -5.163867000000000E+01      4.043732000000000E-01     -1.524531000000000E+02      8.515320000000000E-01     -7.570703000000000E+01
4870000000.000000      8.616638000000000E-01     -1.659688000000000E+02      3.800201000000000E-01     -5.182226000000000E+01      4.049683000000000E-01     -1.525938000000000E+02      8.563843000000000E-01     -7.563281000000000E+01
4871000000.000000      8.659363000000000E-01     -1.659531000000000E+02      3.783112000000000E-01     -5.226171000000000E+01      4.049225000000000E-01     -1.527969000000000E+02      8.604736000000000E-01     -7.582421000000000E+01
4872000000.000000      8.707275000000000E-01     -1.658281000000000E+02      3.759766000000000E-01     -5.235546000000000E+01      4.057312000000000E-01     -1.530469000000000E+02      8.668518000000000E-01     -7.596093000000000E+01
4873000000.000000      8.707275000000000E-01     -1.657969000000000E+02      3.753052000000000E-01     -5.291406000000000E+01      4.058380000000000E-01     -1.530781000000000E+02      8.686218000000000E-01     -7.608593000000000E+01
4874000000.000000      8.735352000000000E-01     -1.657266000000000E+02      3.737640000000000E-01     -5.322070000000000E+01      4.073792000000000E-01     -1.532109000000000E+02      8.742676000000000E-01     -7.603516000000000E+01
4875000000.000000      8.797607000000000E-01     -1.658281000000000E+02      3.726349000000000E-01     -5.331640000000000E+01      4.074097000000000E-01     -1.535312000000000E+02      8.782654000000000E-01     -7.619531000000000E+01
4876000000.000000      8.812561000000000E-01     -1.657812000000000E+02      3.708801000000000E-01     -5.380468000000000E+01      4.064331000000000E-01     -1.536328000000000E+02      8.836365000000000E-01     -7.644921000000000E+01
4877000000.000000      8.855591000000000E-01     -1.656953000000000E+02      3.699799000000000E-01     -5.392578000000000E+01      4.073334000000000E-01     -1.538828000000000E+02      8.875427000000000E-01     -7.652344000000000E+01
4878000000.000000      8.867188000000000E-01     -1.656094000000000E+02      3.693390000000000E-01     -5.418359000000000E+01      4.077606000000000E-01     -1.538672000000000E+02      8.913574000000000E-01     -7.660546000000000E+01
4879000000.000000      8.904114000000000E-01     -1.655469000000000E+02      3.666840000000000E-01     -5.419726000000000E+01      4.077454000000000E-01     -1.540937000000000E+02      8.933716000000000E-01     -7.664063000000000E+01
4880000000.000000      8.901367000000000E-01     -1.654609000000000E+02      3.656311000000000E-01     -5.460938000000000E+01      4.082184000000000E-01     -1.541875000000000E+02      9.002991000000000E-01     -7.670312000000000E+01
4881000000.000000      8.942566000000000E-01     -1.652812000000000E+02      3.651276000000000E-01     -5.461914000000000E+01      4.082336000000000E-01     -1.544844000000000E+02      9.040222000000000E-01     -7.696094000000000E+01
4882000000.000000      8.942566000000000E-01     -1.653750000000000E+02      3.630371000000000E-01     -5.499804000000000E+01      4.081268000000000E-01     -1.545000000000000E+02      9.060364000000000E-01     -7.706249000000000E+01
