! Network Analyzer HP8722D
! Hewlett-Packard
! Data name: Linha & Wilkinson
! Saver's name: Rodrigo Anjos
! Comments: Teste da utilização de aquisição
continua pelo VNA HP8722D
! Time and date: 6/5/2025 15:11
!              Frequency                     S11                                                   S21                                                   S12                                                   S22
# HZ  S  MA R 50
4800000000.000000      4.960327000000000E-01     -1.681719000000000E+02      2.516937000000000E-01     -1.966894000000000E+01      2.485352000000000E-01     -1.408828000000000E+02      6.479492000000000E-01     -8.040625000000000E+01
4801000000.000000      4.980316000000000E-01     -1.682656000000000E+02      2.560425000000000E-01     -1.976660000000000E+01      2.516022000000000E-01     -1.408594000000000E+02      6.470947000000000E-01     -8.011328000000000E+01
4802000000.000000      4.990387000000000E-01     -1.683594000000000E+02      2.597046000000000E-01     -1.999512000000000E+01      2.558899000000000E-01     -1.409297000000000E+02      6.447144000000000E-01     -7.972656000000000E+01
4803000000.000000      5.008240000000000E-01     -1.683984000000000E+02      2.643585000000000E-01     -2.025097000000000E+01      2.593231000000000E-01     -1.410234000000000E+02      6.457825000000000E-01     -7.975390000000000E+01
4804000000.000000      5.033875000000000E-01     -1.683672000000000E+02      2.682800000000000E-01     -2.056445000000000E+01      2.633820000000000E-01     -1.411094000000000E+02      6.442566000000000E-01     -7.942187000000000E+01
4805000000.000000      5.057068000000000E-01     -1.684531000000000E+02      2.720795000000000E-01     -2.089550000000000E+01      2.669678000000000E-01     -1.411875000000000E+02      6.441650000000000E-01     -7.923828000000000E+01
4806000000.000000      5.069580000000000E-01     -1.683672000000000E+02      2.762604000000000E-01     -2.111914000000000E+01      2.693634000000000E-01     -1.410625000000000E+02      6.436462000000000E-01     -7.912109000000000E+01
4807000000.000000      5.102844000000000E-01     -1.683984000000000E+02      2.806396000000000E-01     -2.137988000000000E+01      2.738037000000000E-01     -1.413594000000000E+02      6.438599000000000E-01     -7.885937000000000E+01
4808000000.000000      5.124817000000000E-01     -1.682969000000000E+02      2.844543000000000E-01     -2.170898000000000E+01      2.769775000000000E-01     -1.414609000000000E+02      6.414490000000000E-01     -7.870312000000000E+01
4809000000.000000      5.149841000000000E-01     -1.683750000000000E+02      2.881165000000000E-01     -2.228027000000000E+01      2.810974000000000E-01     -1.416484000000000E+02      6.435852000000000E-01     -7.843750000000000E+01
4810000000.000000      5.179749000000000E-01     -1.683828000000000E+02      2.924957000000000E-01     -2.246777000000000E+01      2.843781000000000E-01     -1.416563000000000E+02      6.448364000000000E-01     -7.828515000000000E+01
4811000000.000000      5.213318000000000E-01     -1.683047000000000E+02      2.958221000000000E-01     -2.294434000000000E+01      2.888489000000000E-01     -1.417109000000000E+02      6.444092000000000E-01     -7.796093000000000E+01
4812000000.000000      5.250244000000000E-01     -1.682734000000000E+02      2.998199000000000E-01     -2.331250000000000E+01      2.916870000000000E-01     -1.418906000000000E+02      6.446228000000000E-01     -7.781250000000000E+01
4813000000.000000      5.282288000000000E-01     -1.682109000000000E+02      3.037720000000000E-01     -2.373242000000000E+01      2.941589000000000E-01     -1.420078000000000E+02      6.448975000000000E-01     -7.759766000000000E+01
4814000000.000000      5.308533000000000E-01     -1.682656000000000E+02      3.068695000000000E-01     -2.391602000000000E+01      2.978516000000000E-01     -1.422578000000000E+02      6.454163000000000E-01     -7.748828000000000E+01
4815000000.000000      5.339661000000000E-01     -1.680703000000000E+02      3.104706000000000E-01     -2.443652000000000E+01      3.008270000000000E-01     -1.423906000000000E+02      6.468201000000000E-01     -7.714453000000000E+01
4816000000.000000      5.395203000000000E-01     -1.679609000000000E+02      3.150024000000000E-01     -2.485840000000000E+01      3.048553000000000E-01     -1.424766000000000E+02      6.473694000000000E-01     -7.701562000000000E+01
4817000000.000000      5.433655000000000E-01     -1.679219000000000E+02      3.177795000000000E-01     -2.519629000000000E+01      3.069916000000000E-01     -1.427031000000000E+02      6.480103000000000E-01     -7.694140000000000E+01
4818000000.000000      5.467224000000000E-01     -1.679453000000000E+02      3.214569000000000E-01     -2.573144000000000E+01      3.110809000000000E-01     -1.428125000000000E+02      6.506958000000000E-01     -7.670703000000000E+01
4819000000.000000      5.516357000000000E-01     -1.678047000000000E+02      3.246918000000000E-01     -2.612695000000000E+01      3.133087000000000E-01     -1.430469000000000E+02      6.525269000000000E-01     -7.667187000000000E+01
4820000000.000000      5.538330000000000E-01     -1.677109000000000E+02      3.278961000000000E-01     -2.653418000000000E+01      3.168945000000000E-01     -1.432344000000000E+02      6.542053000000000E-01     -7.638672000000000E+01
4821000000.000000      5.608521000000000E-01     -1.676484000000000E+02      3.317261000000000E-01     -2.715039000000000E+01      3.195190000000000E-01     -1.434922000000000E+02      6.555176000000000E-01     -7.620703000000000E+01
4822000000.000000      5.673218000000000E-01     -1.676641000000000E+02      3.350067000000000E-01     -2.745214000000000E+01      3.219757000000000E-01     -1.436719000000000E+02      6.582031000000000E-01     -7.611328000000000E+01
4823000000.000000      5.702209000000000E-01     -1.675000000000000E+02      3.380737000000000E-01     -2.805957000000000E+01      3.253021000000000E-01     -1.437266000000000E+02      6.599731000000000E-01     -7.590625000000000E+01
4824000000.000000      5.773926000000000E-01     -1.674609000000000E+02      3.410339000000000E-01     -2.854394000000000E+01      3.283081000000000E-01     -1.440312000000000E+02      6.631775000000000E-01     -7.585546000000000E+01
4825000000.000000      5.815125000000000E-01     -1.673672000000000E+02      3.436737000000000E-01     -2.906933000000000E+01      3.315735000000000E-01     -1.442578000000000E+02      6.644592000000000E-01     -7.566015000000000E+01
4826000000.000000      5.870667000000000E-01     -1.672578000000000E+02      3.471069000000000E-01     -2.955761000000000E+01      3.335419000000000E-01     -1.444219000000000E+02      6.679993000000000E-01     -7.568359000000000E+01
4827000000.000000      5.928345000000000E-01     -1.670859000000000E+02      3.505096000000000E-01     -3.001953000000000E+01      3.356781000000000E-01     -1.446016000000000E+02      6.708984000000000E-01     -7.544140000000000E+01
4828000000.000000      6.000671000000000E-01     -1.670781000000000E+02      3.529816000000000E-01     -3.065234000000000E+01      3.384705000000000E-01     -1.447734000000000E+02      6.743469000000000E-01     -7.544922000000000E+01
4829000000.000000      6.033020000000000E-01     -1.668828000000000E+02      3.544617000000000E-01     -3.102832000000000E+01      3.407745000000000E-01     -1.450391000000000E+02      6.765442000000000E-01     -7.522265000000000E+01
4830000000.000000      6.113281000000000E-01     -1.668437000000000E+02      3.577576000000000E-01     -3.167578000000000E+01      3.437653000000000E-01     -1.450547000000000E+02      6.783447000000000E-01     -7.522655000000000E+01
4831000000.000000      6.154175000000000E-01     -1.667500000000000E+02      3.607330000000000E-01     -3.222265000000000E+01      3.460541000000000E-01     -1.452578000000000E+02      6.826782000000000E-01     -7.503906000000000E+01
4832000000.000000      6.243591000000000E-01     -1.666641000000000E+02      3.631439000000000E-01     -3.281641000000000E+01      3.483582000000000E-01     -1.454922000000000E+02      6.858826000000000E-01     -7.505859000000000E+01
4833000000.000000      6.309204000000000E-01     -1.666250000000000E+02      3.656158000000000E-01     -3.330273000000000E+01      3.506927000000000E-01     -1.457656000000000E+02      6.896973000000000E-01     -7.497656000000000E+01
4834000000.000000      6.359558000000000E-01     -1.665625000000000E+02      3.677673000000000E-01     -3.383203000000000E+01      3.525696000000000E-01     -1.458984000000000E+02      6.919556000000000E-01     -7.492188000000000E+01
4835000000.000000      6.426086000000000E-01     -1.664844000000000E+02      3.697357000000000E-01     -3.434179000000000E+01      3.554077000000000E-01     -1.461641000000000E+02      6.965332000000000E-01     -7.492969000000000E+01
4836000000.000000      6.512146000000000E-01     -1.663281000000000E+02      3.718262000000000E-01     -3.486133000000000E+01      3.576050000000000E-01     -1.461875000000000E+02      6.994934000000000E-01     -7.480078000000000E+01
4837000000.000000      6.571655000000000E-01     -1.662188000000000E+02      3.742065000000000E-01     -3.579883000000000E+01      3.591003000000000E-01     -1.466641000000000E+02      7.042542000000000E-01     -7.463281000000000E+01
4838000000.000000      6.636963000000000E-01     -1.662812000000000E+02      3.761444000000000E-01     -3.600390000000000E+01      3.619995000000000E-01     -1.467969000000000E+02      7.074280000000000E-01     -7.466406000000000E+01
4839000000.000000      6.717529000000000E-01     -1.661016000000000E+02      3.772125000000000E-01     -3.670312000000000E+01      3.638000000000000E-01     -1.468984000000000E+02      7.109985000000000E-01     -7.458593000000000E+01
4840000000.000000      6.770935000000000E-01     -1.661562000000000E+02      3.787079000000000E-01     -3.714258000000000E+01      3.656464000000000E-01     -1.470937000000000E+02      7.149353000000000E-01     -7.457031000000000E+01
4841000000.000000      6.849976000000000E-01     -1.661484000000000E+02      3.807373000000000E-01     -3.780664000000000E+01      3.678894000000000E-01     -1.473438000000000E+02      7.196350000000000E-01     -7.450781000000000E+01
4842000000.000000      6.921997000000000E-01     -1.660156000000000E+02      3.819580000000000E-01     -3.822266000000000E+01      3.695221000000000E-01     -1.475937000000000E+02      7.243958000000000E-01     -7.450390000000000E+01
4843000000.000000      6.987610000000000E-01     -1.660859000000000E+02      3.832245000000000E-01     -3.894531000000000E+01      3.708954000000000E-01     -1.477656000000000E+02      7.283325000000000E-01     -7.448828000000000E+01
4844000000.000000      7.066345000000000E-01     -1.659922000000000E+02      3.843079000000000E-01     -3.930859000000000E+01      3.723907000000000E-01     -1.478828000000000E+02      7.330017000000000E-01     -7.448828000000000E+01
4845000000.000000      7.123413000000000E-01     -1.659297000000000E+02      3.856964000000000E-01     -3.991992000000000E+01      3.744659000000000E-01     -1.481641000000000E+02      7.366028000000000E-01     -7.442968000000000E+01
4846000000.000000      7.198792000000000E-01     -1.658359000000000E+02      3.867035000000000E-01     -4.048828000000000E+01      3.772583000000000E-01     -1.482422000000000E+02      7.404785000000000E-01     -7.447266000000000E+01
4847000000.000000      7.284546000000000E-01     -1.658750000000000E+02      3.865509000000000E-01     -4.111328000000000E+01      3.790588000000000E-01     -1.484766000000000E+02      7.467651000000000E-01     -7.449609000000000E+01
4848000000.000000      7.347107000000000E-01     -1.658594000000000E+02      3.870544000000000E-01     -4.135742000000000E+01      3.799591000000000E-01     -1.487031000000000E+02      7.492065000000000E-01     -7.446875000000000E+01
4849000000.000000      7.414856000000000E-01     -1.660391000000000E+02      3.893280000000000E-01     -4.231835000000000E+01      3.819275000000000E-01     -1.488281000000000E+02      7.551880000000000E-01     -7.446484000000000E+01
4850000000.000000      7.495117000000000E-01     -1.658828000000000E+02      3.898163000000000E-01     -4.265821000000000E+01      3.831024000000000E-01     -1.489844000000000E+02      7.593994000000000E-01     -7.444921000000000E+01
4851000000.000000      7.565918000000000E-01     -1.657969000000000E+02      3.906403000000000E-01     -4.318945000000000E+01      3.845825000000000E-01     -1.491484000000000E+02      7.642212000000000E-01     -7.449609000000000E+01
4852000000.000000      7.628784000000000E-01     -1.658203000000000E+02      3.896332000000000E-01     -4.369726000000000E+01      3.866882000000000E-01     -1.492500000000000E+02      7.691040000000000E-01     -7.459765000000000E+01
4853000000.000000      7.698975000000000E-01     -1.658203000000000E+02      3.891449000000000E-01     -4.420312000000000E+01      3.880310000000000E-01     -1.496094000000000E+02      7.738037000000000E-01     -7.466797000000000E+01
4854000000.000000      7.769165000000000E-01     -1.658203000000000E+02      3.903503000000000E-01     -4.484765000000000E+01      3.890228000000000E-01     -1.497890000000000E+02      7.781677000000000E-01     -7.459765000000000E+01
4855000000.000000      7.817993000000000E-01     -1.657656000000000E+02      3.893280000000000E-01     -4.524023000000000E+01      3.898315000000000E-01     -1.498516000000000E+02      7.818298000000000E-01     -7.463672000000000E+01
4856000000.000000      7.891846000000000E-01     -1.657422000000000E+02      3.900909000000000E-01     -4.571875000000000E+01      3.915558000000000E-01     -1.500625000000000E+02      7.879028000000000E-01     -7.467187000000000E+01
4857000000.000000      7.946167000000000E-01     -1.658906000000000E+02      3.906860000000000E-01     -4.625390000000000E+01      3.930054000000000E-01     -1.502266000000000E+02      7.921753000000000E-01     -7.468359000000000E+01
4858000000.000000      7.993164000000000E-01     -1.658359000000000E+02      3.894806000000000E-01     -4.679492000000000E+01      3.933105000000000E-01     -1.503672000000000E+02      7.972412000000000E-01     -7.484375000000000E+01
4859000000.000000      8.067017000000000E-01     -1.657969000000000E+02      3.897095000000000E-01     -4.726758000000000E+01      3.955688000000000E-01     -1.506406000000000E+02      8.039856000000000E-01     -7.496094000000000E+01
4860000000.000000      8.130188000000000E-01     -1.658594000000000E+02      3.887024000000000E-01     -4.753320000000000E+01      3.958282000000000E-01     -1.507969000000000E+02      8.074341000000000E-01     -7.486328000000000E+01
4861000000.000000      8.194885000000000E-01     -1.658984000000000E+02      3.885345000000000E-01     -4.816992000000000E+01      3.975372000000000E-01     -1.509140000000000E+02      8.117676000000000E-01     -7.505468000000000E+01
4862000000.000000      8.255005000000000E-01     -1.658594000000000E+02      3.876953000000000E-01     -4.863476000000000E+01      3.991547000000000E-01     -1.510703000000000E+02      8.186035000000000E-01     -7.502343000000000E+01
4863000000.000000      8.280640000000000E-01     -1.658281000000000E+02      3.864594000000000E-01     -4.920898000000000E+01      3.997192000000000E-01     -1.512031000000000E+02      8.220520000000000E-01     -7.506249000000000E+01
4864000000.000000      8.342590000000000E-01     -1.658906000000000E+02      3.864899000000000E-01     -4.951562000000000E+01      4.001312000000000E-01     -1.514062000000000E+02      8.270264000000000E-01     -7.519140000000000E+01
4865000000.000000      8.390198000000000E-01     -1.658984000000000E+02      3.852386000000000E-01     -4.978906000000000E+01      4.010315000000000E-01     -1.515781000000000E+02      8.332214000000000E-01     -7.515625000000000E+01
4866000000.000000      8.425903000000000E-01     -1.658437000000000E+02      3.833008000000000E-01     -5.020117000000000E+01      4.026031000000000E-01     -1.517969000000000E+02      8.370361000000000E-01     -7.531250000000000E+01
4867000000.000000      8.483276000000000E-01     -1.658281000000000E+02      3.831177000000000E-01     -5.080859000000000E+01      4.028778000000000E-01     -1.519766000000000E+02      8.429260000000000E-01     -7.544531000000000E+01
4868000000.000000      8.534546000000000E-01     -1.660234000000000E+02      3.833160000000000E-01     -5.116211000000000E+01      4.043732000000000E-01     -1.520781000000000E+02      8.460083000000000E-01     -7.542187000000000E+01
4869000000.000000      8.557129000000000E-01     -1.658594000000000E+02      3.803864000000000E-01     -5.164844000000000E+01      4.046326000000000E-01     -1.523281000000000E+02      8.528442000000000E-01     -7.565624000000000E+01
4870000000.000000      8.620911000000000E-01     -1.658203000000000E+02      3.797760000000000E-01     -5.178711000000000E+01      4.050751000000000E-01     -1.525391000000000E+02      8.558350000000000E-01     -7.563671000000000E+01
4871000000.000000      8.666992000000000E-01     -1.657656000000000E+02      3.790436000000000E-01     -5.201562000000000E+01      4.051514000000000E-01     -1.526875000000000E+02      8.603516000000000E-01     -7.582421000000000E+01
4872000000.000000      8.710327000000000E-01     -1.658437000000000E+02      3.772888000000000E-01     -5.236328000000000E+01      4.061737000000000E-01     -1.529922000000000E+02      8.666992000000000E-01     -7.588672000000000E+01
4873000000.000000      8.716736000000000E-01     -1.657656000000000E+02      3.751678000000000E-01     -5.266796000000000E+01      4.058838000000000E-01     -1.530078000000000E+02      8.681030000000000E-01     -7.606250000000000E+01
4874000000.000000      8.742371000000000E-01     -1.656406000000000E+02      3.745270000000000E-01     -5.308594000000000E+01      4.072113000000000E-01     -1.530859000000000E+02      8.736267000000000E-01     -7.592578000000000E+01
4875000000.000000      8.804626000000000E-01     -1.657266000000000E+02      3.730316000000000E-01     -5.328320000000000E+01      4.077301000000000E-01     -1.533984000000000E+02      8.784180000000000E-01     -7.622265000000000E+01
4876000000.000000      8.807983000000000E-01     -1.655859000000000E+02      3.721313000000000E-01     -5.367382000000000E+01      4.067535000000000E-01     -1.535469000000000E+02      8.831177000000000E-01     -7.638281000000000E+01
4877000000.000000      8.854065000000000E-01     -1.654453000000000E+02      3.700104000000000E-01     -5.372070000000000E+01      4.078369000000000E-01     -1.537422000000000E+02      8.872070000000000E-01     -7.654297000000000E+01
4878000000.000000      8.876648000000000E-01     -1.654844000000000E+02      3.700104000000000E-01     -5.412109000000000E+01      4.081268000000000E-01     -1.537891000000000E+02      8.913879000000000E-01     -7.656640000000000E+01
4879000000.000000      8.905640000000000E-01     -1.654687000000000E+02      3.670654000000000E-01     -5.421288000000000E+01      4.080048000000000E-01     -1.540078000000000E+02      8.940125000000000E-01     -7.661327000000000E+01
4880000000.000000      8.909912000000000E-01     -1.654219000000000E+02      3.654633000000000E-01     -5.437695000000000E+01      4.084320000000000E-01     -1.540781000000000E+02      8.992310000000000E-01     -7.666406000000000E+01
4881000000.000000      8.952637000000000E-01     -1.652344000000000E+02      3.648682000000000E-01     -5.457812000000000E+01      4.088898000000000E-01     -1.543672000000000E+02      9.042969000000000E-01     -7.695703000000000E+01
4882000000.000000      8.938904000000000E-01     -1.651797000000000E+02      3.630981000000000E-01     -5.500586000000000E+01      4.084625000000000E-01     -1.544141000000000E+02      9.070740000000000E-01     -7.703906000000000E+01
