! Network Analyzer HP8722D
! Hewlett-Packard
! Data name: Linha & Wilkinson
! Saver's name: Rodrigo Anjos
! Comments: Teste da utilização de aquisição
continua pelo VNA HP8722D
! Time and date: 6/5/2025 15:12
!              Frequency                     S11                                                   S21                                                   S12                                                   S22
# HZ  S  MA R 50
4800000000.000000      4.960938000000000E-01     -1.681250000000000E+02      2.518463000000000E-01     -1.970898000000000E+01      2.483292000000000E-01     -1.407344000000000E+02      6.476746000000000E-01     -8.032812000000000E+01
4801000000.000000      4.978638000000000E-01     -1.682500000000000E+02      2.556305000000000E-01     -1.986621000000000E+01      2.515869000000000E-01     -1.409141000000000E+02      6.470947000000000E-01     -8.002344000000000E+01
4802000000.000000      4.993896000000000E-01     -1.682969000000000E+02      2.595825000000000E-01     -2.006152000000000E+01      2.558441000000000E-01     -1.408594000000000E+02      6.447449000000000E-01     -7.981640000000000E+01
4803000000.000000      5.005798000000000E-01     -1.683906000000000E+02      2.644196000000000E-01     -2.039063000000000E+01      2.591095000000000E-01     -1.409531000000000E+02      6.444092000000000E-01     -7.967968000000000E+01
4804000000.000000      5.031433000000000E-01     -1.683125000000000E+02      2.678070000000000E-01     -2.049414000000000E+01      2.629700000000000E-01     -1.412109000000000E+02      6.439514000000000E-01     -7.938671000000000E+01
4805000000.000000      5.055847000000000E-01     -1.684062000000000E+02      2.719269000000000E-01     -2.081445000000000E+01      2.669220000000000E-01     -1.410938000000000E+02      6.443176000000000E-01     -7.932031000000000E+01
4806000000.000000      5.069885000000000E-01     -1.683828000000000E+02      2.760925000000000E-01     -2.104785000000000E+01      2.694550000000000E-01     -1.411094000000000E+02      6.440430000000000E-01     -7.911327000000000E+01
4807000000.000000      5.099487000000000E-01     -1.684141000000000E+02      2.808533000000000E-01     -2.151269000000000E+01      2.735138000000000E-01     -1.413516000000000E+02      6.427002000000000E-01     -7.886328000000000E+01
4808000000.000000      5.128174000000000E-01     -1.682891000000000E+02      2.845612000000000E-01     -2.168359000000000E+01      2.768097000000000E-01     -1.414609000000000E+02      6.420593000000000E-01     -7.858593000000000E+01
4809000000.000000      5.148926000000000E-01     -1.683359000000000E+02      2.882385000000000E-01     -2.222168000000000E+01      2.811432000000000E-01     -1.415703000000000E+02      6.437378000000000E-01     -7.850390000000000E+01
4810000000.000000      5.177612000000000E-01     -1.683516000000000E+02      2.922363000000000E-01     -2.248535000000000E+01      2.841797000000000E-01     -1.416406000000000E+02      6.433716000000000E-01     -7.822266000000000E+01
4811000000.000000      5.212708000000000E-01     -1.683047000000000E+02      2.958374000000000E-01     -2.292773000000000E+01      2.883301000000000E-01     -1.417344000000000E+02      6.437378000000000E-01     -7.789453000000000E+01
4812000000.000000      5.252686000000000E-01     -1.682578000000000E+02      2.990265000000000E-01     -2.330957000000000E+01      2.911224000000000E-01     -1.418437000000000E+02      6.454163000000000E-01     -7.771093000000000E+01
4813000000.000000      5.278625000000000E-01     -1.681719000000000E+02      3.036804000000000E-01     -2.358398000000000E+01      2.947083000000000E-01     -1.420000000000000E+02      6.444702000000000E-01     -7.752734000000000E+01
4814000000.000000      5.303955000000000E-01     -1.682812000000000E+02      3.070679000000000E-01     -2.406836000000000E+01      2.975922000000000E-01     -1.422188000000000E+02      6.460876000000000E-01     -7.751171000000000E+01
4815000000.000000      5.340271000000000E-01     -1.681015000000000E+02      3.105316000000000E-01     -2.444336000000000E+01      3.009186000000000E-01     -1.422969000000000E+02      6.472778000000000E-01     -7.713672000000000E+01
4816000000.000000      5.387573000000000E-01     -1.680625000000000E+02      3.144073000000000E-01     -2.471582000000000E+01      3.050385000000000E-01     -1.424375000000000E+02      6.475525000000000E-01     -7.695703000000000E+01
4817000000.000000      5.435181000000000E-01     -1.679297000000000E+02      3.179474000000000E-01     -2.534180000000000E+01      3.073425000000000E-01     -1.426875000000000E+02      6.483765000000000E-01     -7.689453000000000E+01
4818000000.000000      5.466003000000000E-01     -1.678984000000000E+02      3.212128000000000E-01     -2.566895000000000E+01      3.105316000000000E-01     -1.427969000000000E+02      6.500244000000000E-01     -7.671484000000000E+01
4819000000.000000      5.518188000000000E-01     -1.678203000000000E+02      3.245392000000000E-01     -2.618457000000000E+01      3.130035000000000E-01     -1.429531000000000E+02      6.537170000000000E-01     -7.662499000000000E+01
4820000000.000000      5.539551000000000E-01     -1.677578000000000E+02      3.276520000000000E-01     -2.664551000000000E+01      3.168945000000000E-01     -1.431406000000000E+02      6.540222000000000E-01     -7.646484000000000E+01
4821000000.000000      5.604248000000000E-01     -1.676484000000000E+02      3.316193000000000E-01     -2.703222000000000E+01      3.195496000000000E-01     -1.435000000000000E+02      6.558228000000000E-01     -7.628124000000000E+01
4822000000.000000      5.667725000000000E-01     -1.676172000000000E+02      3.345947000000000E-01     -2.752539000000000E+01      3.219452000000000E-01     -1.437187000000000E+02      6.594238000000000E-01     -7.613281000000000E+01
4823000000.000000      5.701599000000000E-01     -1.674609000000000E+02      3.374939000000000E-01     -2.813281000000000E+01      3.250732000000000E-01     -1.437187000000000E+02      6.608276000000000E-01     -7.592187000000000E+01
4824000000.000000      5.774231000000000E-01     -1.674766000000000E+02      3.413086000000000E-01     -2.870214000000000E+01      3.286285000000000E-01     -1.440312000000000E+02      6.627197000000000E-01     -7.580468000000000E+01
4825000000.000000      5.811157000000000E-01     -1.673359000000000E+02      3.439026000000000E-01     -2.903418000000000E+01      3.307800000000000E-01     -1.441562000000000E+02      6.652832000000000E-01     -7.567187000000000E+01
4826000000.000000      5.872192000000000E-01     -1.672266000000000E+02      3.479309000000000E-01     -2.962207000000000E+01      3.335419000000000E-01     -1.444219000000000E+02      6.666870000000000E-01     -7.563671000000000E+01
4827000000.000000      5.930786000000000E-01     -1.670391000000000E+02      3.503265000000000E-01     -2.994824000000000E+01      3.360138000000000E-01     -1.444531000000000E+02      6.708679000000000E-01     -7.544922000000000E+01
4828000000.000000      5.999451000000000E-01     -1.670859000000000E+02      3.532715000000000E-01     -3.052148000000000E+01      3.380127000000000E-01     -1.448125000000000E+02      6.738586000000000E-01     -7.546875000000000E+01
4829000000.000000      6.035461000000000E-01     -1.669297000000000E+02      3.548889000000000E-01     -3.109472000000000E+01      3.410950000000000E-01     -1.450391000000000E+02      6.770935000000000E-01     -7.521093000000000E+01
4830000000.000000      6.106567000000000E-01     -1.668203000000000E+02      3.577576000000000E-01     -3.164063000000000E+01      3.433228000000000E-01     -1.450938000000000E+02      6.788940000000000E-01     -7.516406000000000E+01
4831000000.000000      6.155396000000000E-01     -1.667344000000000E+02      3.600616000000000E-01     -3.227148000000000E+01      3.464508000000000E-01     -1.452188000000000E+02      6.828613000000000E-01     -7.510156000000000E+01
4832000000.000000      6.235657000000000E-01     -1.667031000000000E+02      3.630066000000000E-01     -3.269336000000000E+01      3.479309000000000E-01     -1.455547000000000E+02      6.861877000000000E-01     -7.499609000000000E+01
4833000000.000000      6.308289000000000E-01     -1.666641000000000E+02      3.656158000000000E-01     -3.333008000000000E+01      3.502502000000000E-01     -1.457422000000000E+02      6.889954000000000E-01     -7.489843000000000E+01
4834000000.000000      6.367493000000000E-01     -1.665469000000000E+02      3.679047000000000E-01     -3.389062000000000E+01      3.530121000000000E-01     -1.460000000000000E+02      6.924438000000000E-01     -7.490234000000000E+01
4835000000.000000      6.432190000000000E-01     -1.664922000000000E+02      3.700562000000000E-01     -3.432226000000000E+01      3.555298000000000E-01     -1.461719000000000E+02      6.959839000000000E-01     -7.483593000000000E+01
4836000000.000000      6.511230000000000E-01     -1.663125000000000E+02      3.715973000000000E-01     -3.491015000000000E+01      3.563385000000000E-01     -1.463828000000000E+02      6.997375000000000E-01     -7.480469000000000E+01
4837000000.000000      6.575317000000000E-01     -1.662109000000000E+02      3.732452000000000E-01     -3.572656000000000E+01      3.597565000000000E-01     -1.465703000000000E+02      7.033997000000000E-01     -7.466015000000000E+01
4838000000.000000      6.645813000000000E-01     -1.663281000000000E+02      3.759613000000000E-01     -3.606640000000000E+01      3.618164000000000E-01     -1.466875000000000E+02      7.071533000000000E-01     -7.462109000000000E+01
4839000000.000000      6.715698000000000E-01     -1.661016000000000E+02      3.774261000000000E-01     -3.647070000000000E+01      3.640900000000000E-01     -1.468750000000000E+02      7.113037000000000E-01     -7.451953000000000E+01
4840000000.000000      6.769409000000000E-01     -1.661641000000000E+02      3.784943000000000E-01     -3.711133000000000E+01      3.654480000000000E-01     -1.472188000000000E+02      7.149658000000000E-01     -7.452343000000000E+01
4841000000.000000      6.846313000000000E-01     -1.661406000000000E+02      3.803406000000000E-01     -3.796484000000000E+01      3.686066000000000E-01     -1.473047000000000E+02      7.194214000000000E-01     -7.459374000000000E+01
4842000000.000000      6.925659000000000E-01     -1.660156000000000E+02      3.822479000000000E-01     -3.825781000000000E+01      3.691864000000000E-01     -1.475312000000000E+02      7.247009000000000E-01     -7.451172000000000E+01
4843000000.000000      6.985474000000000E-01     -1.661250000000000E+02      3.826752000000000E-01     -3.888086000000000E+01      3.718567000000000E-01     -1.477031000000000E+02      7.281494000000000E-01     -7.447656000000000E+01
4844000000.000000      7.062988000000000E-01     -1.659922000000000E+02      3.836975000000000E-01     -3.937304000000000E+01      3.726044000000000E-01     -1.479219000000000E+02      7.330017000000000E-01     -7.448828000000000E+01
4845000000.000000      7.120667000000000E-01     -1.659141000000000E+02      3.852234000000000E-01     -3.995703000000000E+01      3.752899000000000E-01     -1.481875000000000E+02      7.363892000000000E-01     -7.447266000000000E+01
4846000000.000000      7.194214000000000E-01     -1.658047000000000E+02      3.860626000000000E-01     -4.033789000000000E+01      3.773193000000000E-01     -1.482578000000000E+02      7.405701000000000E-01     -7.449219000000000E+01
4847000000.000000      7.282715000000000E-01     -1.658516000000000E+02      3.872223000000000E-01     -4.102148000000000E+01      3.785400000000000E-01     -1.484844000000000E+02      7.459106000000000E-01     -7.462109000000000E+01
4848000000.000000      7.344055000000000E-01     -1.658750000000000E+02      3.873901000000000E-01     -4.140625000000000E+01      3.799438000000000E-01     -1.486406000000000E+02      7.500305000000000E-01     -7.454687000000000E+01
4849000000.000000      7.416077000000000E-01     -1.660234000000000E+02      3.888855000000000E-01     -4.215234000000000E+01      3.811951000000000E-01     -1.488437000000000E+02      7.546082000000000E-01     -7.443749000000000E+01
4850000000.000000      7.493896000000000E-01     -1.657969000000000E+02      3.898163000000000E-01     -4.272265000000000E+01      3.834076000000000E-01     -1.489141000000000E+02      7.583618000000000E-01     -7.442968000000000E+01
4851000000.000000      7.550964000000000E-01     -1.657734000000000E+02      3.898163000000000E-01     -4.336719000000000E+01      3.846283000000000E-01     -1.491328000000000E+02      7.638855000000000E-01     -7.450781000000000E+01
4852000000.000000      7.627869000000000E-01     -1.658437000000000E+02      3.907623000000000E-01     -4.378320000000000E+01      3.863831000000000E-01     -1.494297000000000E+02      7.687988000000000E-01     -7.461328000000000E+01
4853000000.000000      7.700195000000000E-01     -1.657734000000000E+02      3.884277000000000E-01     -4.422071000000000E+01      3.879395000000000E-01     -1.495312000000000E+02      7.733765000000000E-01     -7.466015000000000E+01
4854000000.000000      7.761536000000000E-01     -1.658203000000000E+02      3.895264000000000E-01     -4.485352000000000E+01      3.892365000000000E-01     -1.497656000000000E+02      7.787476000000000E-01     -7.464062000000000E+01
4855000000.000000      7.808533000000000E-01     -1.657734000000000E+02      3.894958000000000E-01     -4.524023000000000E+01      3.899841000000000E-01     -1.498516000000000E+02      7.818604000000000E-01     -7.463281000000000E+01
4856000000.000000      7.892761000000000E-01     -1.657109000000000E+02      3.901520000000000E-01     -4.569921000000000E+01      3.917236000000000E-01     -1.500703000000000E+02      7.885437000000000E-01     -7.470312000000000E+01
4857000000.000000      7.951355000000000E-01     -1.658281000000000E+02      3.904877000000000E-01     -4.627734000000000E+01      3.929443000000000E-01     -1.501641000000000E+02      7.916565000000000E-01     -7.470703000000000E+01
4858000000.000000      7.987061000000000E-01     -1.658437000000000E+02      3.894958000000000E-01     -4.670703000000000E+01      3.938141000000000E-01     -1.504297000000000E+02      7.970886000000000E-01     -7.485156000000000E+01
4859000000.000000      8.071289000000000E-01     -1.658594000000000E+02      3.895721000000000E-01     -4.721484000000000E+01      3.955536000000000E-01     -1.506875000000000E+02      8.042908000000000E-01     -7.503124000000000E+01
4860000000.000000      8.138123000000000E-01     -1.658672000000000E+02      3.890076000000000E-01     -4.764062000000000E+01      3.961334000000000E-01     -1.507813000000000E+02      8.076782000000000E-01     -7.480859000000000E+01
4861000000.000000      8.187256000000000E-01     -1.658125000000000E+02      3.886871000000000E-01     -4.818749000000000E+01      3.978882000000000E-01     -1.509609000000000E+02      8.113403000000000E-01     -7.501953000000000E+01
4862000000.000000      8.232422000000000E-01     -1.657812000000000E+02      3.886108000000000E-01     -4.854492000000000E+01      3.989716000000000E-01     -1.511250000000000E+02      8.177185000000000E-01     -7.506249000000000E+01
4863000000.000000      8.273010000000000E-01     -1.658125000000000E+02      3.863525000000000E-01     -4.917187000000000E+01      4.006958000000000E-01     -1.512031000000000E+02      8.233643000000000E-01     -7.517968000000000E+01
4864000000.000000      8.356018000000000E-01     -1.658203000000000E+02      3.864136000000000E-01     -4.944140000000000E+01      4.002228000000000E-01     -1.513672000000000E+02      8.273621000000000E-01     -7.523828000000000E+01
4865000000.000000      8.388062000000000E-01     -1.659531000000000E+02      3.848724000000000E-01     -4.977344000000000E+01      4.013214000000000E-01     -1.516406000000000E+02      8.324890000000000E-01     -7.524609000000000E+01
4866000000.000000      8.442383000000000E-01     -1.658359000000000E+02      3.832397000000000E-01     -5.020702000000000E+01      4.020844000000000E-01     -1.517656000000000E+02      8.373108000000000E-01     -7.528125000000000E+01
4867000000.000000      8.491211000000000E-01     -1.657187000000000E+02      3.830261000000000E-01     -5.080664000000000E+01      4.030151000000000E-01     -1.519531000000000E+02      8.442078000000000E-01     -7.539453000000000E+01
4868000000.000000      8.523560000000000E-01     -1.658828000000000E+02      3.821716000000000E-01     -5.111133000000000E+01      4.043274000000000E-01     -1.520625000000000E+02      8.469543000000000E-01     -7.541406000000000E+01
4869000000.000000      8.544006000000000E-01     -1.658516000000000E+02      3.804779000000000E-01     -5.162695000000000E+01      4.043732000000000E-01     -1.522656000000000E+02      8.518372000000000E-01     -7.559375000000000E+01
4870000000.000000      8.616638000000000E-01     -1.657344000000000E+02      3.797913000000000E-01     -5.166601000000000E+01      4.051208000000000E-01     -1.524922000000000E+02      8.561401000000000E-01     -7.562109000000000E+01
4871000000.000000      8.670349000000000E-01     -1.659062000000000E+02      3.786621000000000E-01     -5.223633000000000E+01      4.046326000000000E-01     -1.526797000000000E+02      8.598938000000000E-01     -7.591797000000000E+01
4872000000.000000      8.689880000000000E-01     -1.656953000000000E+02      3.770142000000000E-01     -5.225780000000000E+01      4.060211000000000E-01     -1.529922000000000E+02      8.649597000000000E-01     -7.585546000000000E+01
4873000000.000000      8.721008000000000E-01     -1.656875000000000E+02      3.756256000000000E-01     -5.279101000000000E+01      4.063416000000000E-01     -1.529844000000000E+02      8.700867000000000E-01     -7.594531000000000E+01
4874000000.000000      8.747864000000000E-01     -1.655781000000000E+02      3.746185000000000E-01     -5.317383000000000E+01      4.076996000000000E-01     -1.531250000000000E+02      8.738098000000000E-01     -7.599999000000000E+01
4875000000.000000      8.800659000000000E-01     -1.657109000000000E+02      3.729553000000000E-01     -5.330273000000000E+01      4.077759000000000E-01     -1.534922000000000E+02      8.791809000000000E-01     -7.621094000000000E+01
4876000000.000000      8.798523000000000E-01     -1.656719000000000E+02      3.712006000000000E-01     -5.369141000000000E+01      4.069061000000000E-01     -1.535312000000000E+02      8.824158000000000E-01     -7.638672000000000E+01
4877000000.000000      8.831787000000000E-01     -1.655156000000000E+02      3.706055000000000E-01     -5.385156000000000E+01      4.084167000000000E-01     -1.537734000000000E+02      8.872681000000000E-01     -7.641796000000000E+01
4878000000.000000      8.855591000000000E-01     -1.654297000000000E+02      3.695984000000000E-01     -5.389648000000000E+01      4.077454000000000E-01     -1.537422000000000E+02      8.916016000000000E-01     -7.650781000000000E+01
4879000000.000000      8.902283000000000E-01     -1.655625000000000E+02      3.669586000000000E-01     -5.428124000000000E+01      4.077759000000000E-01     -1.540156000000000E+02      8.942261000000000E-01     -7.666016000000000E+01
4880000000.000000      8.901062000000000E-01     -1.653906000000000E+02      3.660126000000000E-01     -5.451562000000000E+01      4.085388000000000E-01     -1.540859000000000E+02      8.994446000000000E-01     -7.660546000000000E+01
4881000000.000000      8.947754000000000E-01     -1.653672000000000E+02      3.653107000000000E-01     -5.447070000000000E+01      4.087982000000000E-01     -1.543516000000000E+02      9.028015000000000E-01     -7.692187000000000E+01
4882000000.000000      8.931580000000000E-01     -1.651172000000000E+02      3.635559000000000E-01     -5.490820000000000E+01      4.083862000000000E-01     -1.543906000000000E+02      9.061279000000000E-01     -7.710546000000000E+01
