! Network Analyzer HP8722D
! Hewlett-Packard
! Data name: Linha & Wilkinson
! Saver's name: Rodrigo Anjos
! Comments: Teste da utilização de aquisição
continua pelo VNA HP8722D
! Time and date: 6/5/2025 13:31
!              Frequency                     S11                                                   S21                                                   S12                                                   S22
# HZ  S  MA R 50
4800000000.000000      9.048462000000000E-01      1.158945000000000E+02      3.201294000000000E-01     -1.705547000000000E+02      2.570038000000000E-01     -8.613281000000000E+01      9.843140000000000E-01     -4.759570000000000E+01
4801000000.000000      9.042969000000000E-01      1.160000000000000E+02      3.199463000000000E-01     -1.703594000000000E+02      2.563782000000000E-01     -8.614452000000000E+01      9.801636000000000E-01     -4.762304000000000E+01
4802000000.000000      9.028015000000000E-01      1.162461000000000E+02      3.197174000000000E-01     -1.702734000000000E+02      2.576904000000000E-01     -8.589844000000000E+01      9.757690000000000E-01     -4.753515000000000E+01
4803000000.000000      8.991394000000000E-01      1.164063000000000E+02      3.206329000000000E-01     -1.703203000000000E+02      2.565918000000000E-01     -8.571875000000000E+01      9.695129000000000E-01     -4.781054000000000E+01
4804000000.000000      8.994751000000000E-01      1.168398000000000E+02      3.213043000000000E-01     -1.702188000000000E+02      2.571259000000000E-01     -8.572657000000000E+01      9.652100000000000E-01     -4.773242000000000E+01
4805000000.000000      8.998413000000000E-01      1.168594000000000E+02      3.209381000000000E-01     -1.702031000000000E+02      2.566223000000000E-01     -8.531250000000000E+01      9.588623000000000E-01     -4.788281000000000E+01
4806000000.000000      8.948669000000000E-01      1.172187000000000E+02      3.219147000000000E-01     -1.701172000000000E+02      2.554474000000000E-01     -8.511719000000000E+01      9.529114000000000E-01     -4.805859000000000E+01
4807000000.000000      8.946533000000000E-01      1.173438000000000E+02      3.222046000000000E-01     -1.702031000000000E+02      2.567444000000000E-01     -8.505077000000000E+01      9.479675000000000E-01     -4.798047000000000E+01
4808000000.000000      8.908081000000000E-01      1.178047000000000E+02      3.234406000000000E-01     -1.701094000000000E+02      2.563324000000000E-01     -8.476954000000000E+01      9.418640000000000E-01     -4.804296000000000E+01
4809000000.000000      8.890991000000000E-01      1.179258000000000E+02      3.228912000000000E-01     -1.703281000000000E+02      2.571716000000000E-01     -8.458202000000000E+01      9.380798000000000E-01     -4.808203000000000E+01
4810000000.000000      8.875122000000000E-01      1.182969000000000E+02      3.239441000000000E-01     -1.699375000000000E+02      2.564545000000000E-01     -8.431641000000000E+01      9.320374000000000E-01     -4.824609000000000E+01
4811000000.000000      8.850708000000000E-01      1.185390000000000E+02      3.246918000000000E-01     -1.703438000000000E+02      2.575836000000000E-01     -8.396875000000000E+01      9.269714000000000E-01     -4.810547000000000E+01
4812000000.000000      8.849487000000000E-01      1.187422000000000E+02      3.246307000000000E-01     -1.702500000000000E+02      2.565613000000000E-01     -8.381639000000000E+01      9.193726000000000E-01     -4.830273000000000E+01
4813000000.000000      8.808899000000000E-01      1.190117000000000E+02      3.256989000000000E-01     -1.700859000000000E+02      2.569275000000000E-01     -8.355078000000000E+01      9.154053000000000E-01     -4.831055000000000E+01
4814000000.000000      8.764038000000000E-01      1.192500000000000E+02      3.255615000000000E-01     -1.702188000000000E+02      2.565308000000000E-01     -8.326172000000000E+01      9.097595000000000E-01     -4.839648000000000E+01
4815000000.000000      8.724976000000000E-01      1.195976000000000E+02      3.264160000000000E-01     -1.702031000000000E+02      2.565765000000000E-01     -8.295702000000000E+01      9.044800000000000E-01     -4.833984000000000E+01
4816000000.000000      8.718262000000000E-01      1.195586000000000E+02      3.277435000000000E-01     -1.702344000000000E+02      2.574615000000000E-01     -8.282812000000000E+01      8.999634000000000E-01     -4.856054000000000E+01
4817000000.000000      8.692627000000000E-01      1.200586000000000E+02      3.279724000000000E-01     -1.703906000000000E+02      2.566528000000000E-01     -8.236719000000000E+01      8.927612000000000E-01     -4.844727000000000E+01
4818000000.000000      8.656921000000000E-01      1.203125000000000E+02      3.282471000000000E-01     -1.703906000000000E+02      2.570953000000000E-01     -8.207031000000000E+01      8.874817000000000E-01     -4.860352000000000E+01
4819000000.000000      8.641968000000000E-01      1.203125000000000E+02      3.287354000000000E-01     -1.704297000000000E+02      2.558441000000000E-01     -8.186327000000000E+01      8.819275000000000E-01     -4.881836000000000E+01
4820000000.000000      8.548889000000000E-01      1.206914000000000E+02      3.291931000000000E-01     -1.705859000000000E+02      2.566528000000000E-01     -8.152735000000000E+01      8.775330000000000E-01     -4.870703000000000E+01
4821000000.000000      8.570557000000000E-01      1.208047000000000E+02      3.306732000000000E-01     -1.706328000000000E+02      2.568359000000000E-01     -8.137499000000000E+01      8.710022000000000E-01     -4.877148000000000E+01
4822000000.000000      8.542480000000000E-01      1.206680000000000E+02      3.312378000000000E-01     -1.708828000000000E+02      2.557068000000000E-01     -8.104687000000000E+01      8.685913000000000E-01     -4.891406000000000E+01
4823000000.000000      8.507690000000000E-01      1.210938000000000E+02      3.315887000000000E-01     -1.708516000000000E+02      2.557220000000000E-01     -8.059374000000000E+01      8.624268000000000E-01     -4.892968000000000E+01
4824000000.000000      8.458557000000000E-01      1.211875000000000E+02      3.324432000000000E-01     -1.712344000000000E+02      2.559204000000000E-01     -8.030859000000000E+01      8.569031000000000E-01     -4.896093000000000E+01
4825000000.000000      8.429260000000000E-01      1.213242000000000E+02      3.325500000000000E-01     -1.710781000000000E+02      2.564850000000000E-01     -8.001171000000000E+01      8.537903000000000E-01     -4.915039000000000E+01
4826000000.000000      8.388672000000000E-01      1.215820000000000E+02      3.340302000000000E-01     -1.713828000000000E+02      2.558441000000000E-01     -7.982031000000000E+01      8.484802000000000E-01     -4.917382000000000E+01
4827000000.000000      8.368225000000000E-01      1.217695000000000E+02      3.343353000000000E-01     -1.713125000000000E+02      2.558594000000000E-01     -7.946484000000000E+01      8.428345000000000E-01     -4.924805000000000E+01
4828000000.000000      8.310852000000000E-01      1.217148000000000E+02      3.350220000000000E-01     -1.715781000000000E+02      2.554474000000000E-01     -7.914453000000000E+01      8.377075000000000E-01     -4.935156000000000E+01
4829000000.000000      8.256531000000000E-01      1.219883000000000E+02      3.346252000000000E-01     -1.715547000000000E+02      2.565460000000000E-01     -7.877734000000000E+01      8.352661000000000E-01     -4.939258000000000E+01
4830000000.000000      8.238220000000000E-01      1.222266000000000E+02      3.352814000000000E-01     -1.718594000000000E+02      2.560883000000000E-01     -7.833593000000000E+01      8.293762000000000E-01     -4.940039000000000E+01
4831000000.000000      8.179016000000000E-01      1.223594000000000E+02      3.357544000000000E-01     -1.720625000000000E+02      2.564392000000000E-01     -7.791797000000000E+01      8.260803000000000E-01     -4.951366000000000E+01
4832000000.000000      8.123779000000000E-01      1.223203000000000E+02      3.358002000000000E-01     -1.723906000000000E+02      2.561493000000000E-01     -7.758594000000000E+01      8.215332000000000E-01     -4.952538000000000E+01
4833000000.000000      8.094177000000000E-01      1.224570000000000E+02      3.364258000000000E-01     -1.725469000000000E+02      2.561493000000000E-01     -7.730078000000000E+01      8.163147000000000E-01     -4.965429000000000E+01
4834000000.000000      8.057251000000000E-01      1.223867000000000E+02      3.369904000000000E-01     -1.726641000000000E+02      2.561798000000000E-01     -7.695703000000000E+01      8.115234000000000E-01     -4.968945000000000E+01
4835000000.000000      8.001709000000000E-01      1.224101000000000E+02      3.375092000000000E-01     -1.729453000000000E+02      2.566376000000000E-01     -7.666406000000000E+01      8.083801000000000E-01     -4.980273000000000E+01
4836000000.000000      7.971191000000000E-01      1.225703000000000E+02      3.365479000000000E-01     -1.732578000000000E+02      2.567444000000000E-01     -7.623437000000000E+01      8.044739000000000E-01     -4.981835000000000E+01
4837000000.000000      7.896729000000000E-01      1.227812000000000E+02      3.370209000000000E-01     -1.736094000000000E+02      2.568054000000000E-01     -7.601171000000000E+01      8.011475000000000E-01     -4.983984000000000E+01
4838000000.000000      7.858276000000000E-01      1.227383000000000E+02      3.375244000000000E-01     -1.735547000000000E+02      2.568970000000000E-01     -7.548828000000000E+01      7.963867000000000E-01     -4.986718000000000E+01
4839000000.000000      7.817993000000000E-01      1.227266000000000E+02      3.370514000000000E-01     -1.736797000000000E+02      2.569580000000000E-01     -7.536327000000000E+01      7.932434000000000E-01     -4.998437000000000E+01
4840000000.000000      7.741699000000000E-01      1.228281000000000E+02      3.371582000000000E-01     -1.739219000000000E+02      2.576904000000000E-01     -7.493750000000000E+01      7.893066000000000E-01     -5.012109000000000E+01
4841000000.000000      7.698059000000000E-01      1.226484000000000E+02      3.373260000000000E-01     -1.743672000000000E+02      2.576141000000000E-01     -7.460546000000000E+01      7.855225000000000E-01     -5.007226000000000E+01
4842000000.000000      7.650757000000000E-01      1.226914000000000E+02      3.374176000000000E-01     -1.744609000000000E+02      2.576904000000000E-01     -7.423828000000000E+01      7.843018000000000E-01     -5.013085000000000E+01
4843000000.000000      7.592773000000000E-01      1.225508000000000E+02      3.373566000000000E-01     -1.747656000000000E+02      2.582550000000000E-01     -7.400000000000000E+01      7.788086000000000E-01     -5.027929000000000E+01
4844000000.000000      7.535400000000000E-01      1.226250000000000E+02      3.368378000000000E-01     -1.750234000000000E+02      2.579193000000000E-01     -7.357031000000000E+01      7.750549000000000E-01     -5.031054000000000E+01
4845000000.000000      7.487488000000000E-01      1.227617000000000E+02      3.356934000000000E-01     -1.751641000000000E+02      2.587433000000000E-01     -7.327734000000000E+01      7.714844000000000E-01     -5.032421000000000E+01
4846000000.000000      7.422791000000000E-01      1.225352000000000E+02      3.359833000000000E-01     -1.755234000000000E+02      2.591705000000000E-01     -7.282812000000000E+01      7.683105000000000E-01     -5.033984000000000E+01
4847000000.000000      7.371826000000000E-01      1.227226000000000E+02      3.362122000000000E-01     -1.757109000000000E+02      2.593689000000000E-01     -7.267187000000000E+01      7.663879000000000E-01     -5.056641000000000E+01
4848000000.000000      7.303162000000000E-01      1.225352000000000E+02      3.351746000000000E-01     -1.760000000000000E+02      2.594757000000000E-01     -7.232812000000000E+01      7.622070000000000E-01     -5.055859000000000E+01
4849000000.000000      7.240601000000000E-01      1.221680000000000E+02      3.346558000000000E-01     -1.763281000000000E+02      2.597809000000000E-01     -7.192968000000000E+01      7.587585000000000E-01     -5.055664000000000E+01
4850000000.000000      7.201843000000000E-01      1.220586000000000E+02      3.340912000000000E-01     -1.765859000000000E+02      2.598114000000000E-01     -7.163671000000000E+01      7.552795000000000E-01     -5.066211000000000E+01
4851000000.000000      7.137451000000000E-01      1.220898000000000E+02      3.339081000000000E-01     -1.767812000000000E+02      2.604218000000000E-01     -7.127734000000000E+01      7.546387000000000E-01     -5.070703000000000E+01
4852000000.000000      7.087708000000000E-01      1.218125000000000E+02      3.327942000000000E-01     -1.769766000000000E+02      2.605286000000000E-01     -7.091797000000000E+01      7.511292000000000E-01     -5.077343000000000E+01
4853000000.000000      7.021179000000000E-01      1.217656000000000E+02      3.318024000000000E-01     -1.772109000000000E+02      2.615662000000000E-01     -7.069530000000000E+01      7.480469000000000E-01     -5.093945000000000E+01
4854000000.000000      6.957397000000000E-01      1.215820000000000E+02      3.311310000000000E-01     -1.775703000000000E+02      2.615204000000000E-01     -7.057812000000000E+01      7.459717000000000E-01     -5.096874000000000E+01
4855000000.000000      6.886292000000000E-01      1.212422000000000E+02      3.302002000000000E-01     -1.776953000000000E+02      2.620697000000000E-01     -7.016406000000000E+01      7.415466000000000E-01     -5.085938000000000E+01
4856000000.000000      6.860657000000000E-01      1.212305000000000E+02      3.299255000000000E-01     -1.778828000000000E+02      2.621613000000000E-01     -6.987109000000000E+01      7.404480000000000E-01     -5.099609000000000E+01
4857000000.000000      6.789246000000000E-01      1.209258000000000E+02      3.287659000000000E-01     -1.780625000000000E+02      2.626953000000000E-01     -6.945313000000000E+01      7.364807000000000E-01     -5.106054000000000E+01
4858000000.000000      6.712646000000000E-01      1.205781000000000E+02      3.278351000000000E-01     -1.783047000000000E+02      2.626953000000000E-01     -6.939062000000000E+01      7.347107000000000E-01     -5.120507000000000E+01
4859000000.000000      6.663818000000000E-01      1.204258000000000E+02      3.273621000000000E-01     -1.786016000000000E+02      2.634125000000000E-01     -6.913671000000000E+01      7.339783000000000E-01     -5.128124000000000E+01
4860000000.000000      6.590576000000000E-01      1.201641000000000E+02      3.257294000000000E-01     -1.787656000000000E+02      2.630463000000000E-01     -6.873047000000000E+01      7.299194000000000E-01     -5.123047000000000E+01
4861000000.000000      6.529541000000000E-01      1.198047000000000E+02      3.249664000000000E-01     -1.789609000000000E+02      2.636719000000000E-01     -6.875000000000000E+01      7.273254000000000E-01     -5.135156000000000E+01
4862000000.000000      6.455688000000000E-01      1.196445000000000E+02      3.242340000000000E-01     -1.791328000000000E+02      2.647400000000000E-01     -6.833593000000000E+01      7.261963000000000E-01     -5.139843000000000E+01
4863000000.000000      6.409302000000000E-01      1.193555000000000E+02      3.220215000000000E-01     -1.794609000000000E+02      2.650909000000000E-01     -6.815234000000000E+01      7.245483000000000E-01     -5.143164000000000E+01
4864000000.000000      6.336670000000000E-01      1.190234000000000E+02      3.213043000000000E-01     -1.796406000000000E+02      2.647552000000000E-01     -6.796875000000000E+01      7.211304000000000E-01     -5.141992000000000E+01
4865000000.000000      6.271667000000000E-01      1.185859000000000E+02      3.199768000000000E-01     -1.795625000000000E+02      2.651520000000000E-01     -6.765625000000000E+01      7.194824000000000E-01     -5.150391000000000E+01
4866000000.000000      6.213379000000000E-01      1.182070000000000E+02      3.191376000000000E-01     -1.799141000000000E+02      2.658234000000000E-01     -6.760156000000000E+01      7.171631000000000E-01     -5.153515000000000E+01
4867000000.000000      6.144409000000000E-01      1.178906000000000E+02      3.183136000000000E-01      1.798516000000000E+02      2.655792000000000E-01     -6.742188000000000E+01      7.156677000000000E-01     -5.157227000000000E+01
4868000000.000000      6.098328000000000E-01      1.174297000000000E+02      3.167877000000000E-01      1.797422000000000E+02      2.667236000000000E-01     -6.717968000000000E+01      7.117920000000000E-01     -5.156445000000000E+01
4869000000.000000      6.034546000000000E-01      1.171133000000000E+02      3.161011000000000E-01      1.794844000000000E+02      2.665253000000000E-01     -6.707812000000000E+01      7.105408000000000E-01     -5.162304000000000E+01
4870000000.000000      5.984802000000000E-01      1.168008000000000E+02      3.149261000000000E-01      1.795156000000000E+02      2.663269000000000E-01     -6.695703000000000E+01      7.080688000000000E-01     -5.158984000000000E+01
4871000000.000000      5.921631000000000E-01      1.162695000000000E+02      3.136292000000000E-01      1.793047000000000E+02      2.662354000000000E-01     -6.682422000000000E+01      7.060242000000000E-01     -5.182422000000000E+01
4872000000.000000      5.881348000000000E-01      1.158945000000000E+02      3.117981000000000E-01      1.792031000000000E+02      2.672882000000000E-01     -6.693749000000000E+01      7.052307000000000E-01     -5.184960000000000E+01
4873000000.000000      5.810852000000000E-01      1.154297000000000E+02      3.108673000000000E-01      1.790000000000000E+02      2.670441000000000E-01     -6.658593000000000E+01      7.023315000000000E-01     -5.174609000000000E+01
4874000000.000000      5.763245000000000E-01      1.150156000000000E+02      3.096924000000000E-01      1.789531000000000E+02      2.675781000000000E-01     -6.648438000000000E+01      7.001038000000000E-01     -5.178320000000000E+01
4875000000.000000      5.707703000000000E-01      1.145000000000000E+02      3.080597000000000E-01      1.787656000000000E+02      2.679291000000000E-01     -6.640234000000000E+01      6.984253000000000E-01     -5.182031000000000E+01
4876000000.000000      5.654602000000000E-01      1.141211000000000E+02      3.076935000000000E-01      1.787422000000000E+02      2.671814000000000E-01     -6.639453000000000E+01      6.975098000000000E-01     -5.186132000000000E+01
4877000000.000000      5.609131000000000E-01      1.135664000000000E+02      3.062439000000000E-01      1.784531000000000E+02      2.679901000000000E-01     -6.630468000000000E+01      6.942139000000000E-01     -5.182422000000000E+01
4878000000.000000      5.554810000000000E-01      1.129609000000000E+02      3.056488000000000E-01      1.783594000000000E+02      2.678833000000000E-01     -6.611718000000000E+01      6.928711000000000E-01     -5.185937000000000E+01
4879000000.000000      5.508728000000000E-01      1.124492000000000E+02      3.036804000000000E-01      1.785234000000000E+02      2.674561000000000E-01     -6.623437000000000E+01      6.896973000000000E-01     -5.185351000000000E+01
4880000000.000000      5.462646000000000E-01      1.120508000000000E+02      3.029327000000000E-01      1.782578000000000E+02      2.679901000000000E-01     -6.592187000000000E+01      6.879578000000000E-01     -5.175976000000000E+01
4881000000.000000      5.428467000000000E-01      1.115234000000000E+02      3.022156000000000E-01      1.782578000000000E+02      2.683105000000000E-01     -6.608203000000000E+01      6.869507000000000E-01     -5.185937000000000E+01
4882000000.000000      5.369873000000000E-01      1.109258000000000E+02      3.009796000000000E-01      1.780078000000000E+02      2.680511000000000E-01     -6.599218000000000E+01      6.835632000000000E-01     -5.177148000000000E+01
