! Network Analyzer HP8722D
! Hewlett-Packard
! Data name: Linha & Wilkinson
! Saver's name: Rodrigo Anjos
! Comments: Teste da utilização de aquisição
continua pelo VNA HP8722D
! Time and date: 6/5/2025 16:04
!              Frequency                     S11                                                   S21                                                   S12                                                   S22
# HZ  S  MA R 50
4800000000.000000      4.963074000000000E-01     -1.680547000000000E+02      2.514954000000000E-01     -1.948926000000000E+01      2.481842000000000E-01     -1.406875000000000E+02      6.477356000000000E-01     -8.031641000000000E+01
4801000000.000000      4.973450000000000E-01     -1.681562000000000E+02      2.556763000000000E-01     -1.977148000000000E+01      2.517548000000000E-01     -1.408047000000000E+02      6.457825000000000E-01     -8.004686000000000E+01
4802000000.000000      4.989014000000000E-01     -1.682422000000000E+02      2.599182000000000E-01     -1.983203000000000E+01      2.561798000000000E-01     -1.407500000000000E+02      6.453857000000000E-01     -7.984765000000000E+01
4803000000.000000      5.003662000000000E-01     -1.682734000000000E+02      2.644806000000000E-01     -2.014551000000000E+01      2.591400000000000E-01     -1.408437000000000E+02      6.452332000000000E-01     -7.965234000000000E+01
4804000000.000000      5.024414000000000E-01     -1.682422000000000E+02      2.674713000000000E-01     -2.040625000000000E+01      2.629395000000000E-01     -1.410234000000000E+02      6.443481000000000E-01     -7.941015000000000E+01
4805000000.000000      5.052490000000000E-01     -1.683281000000000E+02      2.722778000000000E-01     -2.075195000000000E+01      2.672424000000000E-01     -1.410312000000000E+02      6.447754000000000E-01     -7.935937000000000E+01
4806000000.000000      5.069275000000000E-01     -1.682266000000000E+02      2.757263000000000E-01     -2.105273000000000E+01      2.691040000000000E-01     -1.409688000000000E+02      6.443481000000000E-01     -7.916406000000000E+01
4807000000.000000      5.097961000000000E-01     -1.683359000000000E+02      2.801361000000000E-01     -2.136328000000000E+01      2.734375000000000E-01     -1.413125000000000E+02      6.431274000000000E-01     -7.886328000000000E+01
4808000000.000000      5.123596000000000E-01     -1.682188000000000E+02      2.848511000000000E-01     -2.148926000000000E+01      2.771454000000000E-01     -1.413516000000000E+02      6.425171000000000E-01     -7.866015000000000E+01
4809000000.000000      5.144958000000000E-01     -1.682578000000000E+02      2.880554000000000E-01     -2.218750000000000E+01      2.811279000000000E-01     -1.414687000000000E+02      6.438293000000000E-01     -7.848437000000000E+01
4810000000.000000      5.173340000000000E-01     -1.683047000000000E+02      2.924500000000000E-01     -2.237793000000000E+01      2.848816000000000E-01     -1.416563000000000E+02      6.445618000000000E-01     -7.826172000000000E+01
4811000000.000000      5.211182000000000E-01     -1.682109000000000E+02      2.960815000000000E-01     -2.292578000000000E+01      2.887878000000000E-01     -1.415937000000000E+02      6.436768000000000E-01     -7.794531000000000E+01
4812000000.000000      5.247498000000000E-01     -1.681875000000000E+02      2.998047000000000E-01     -2.319824000000000E+01      2.912292000000000E-01     -1.419062000000000E+02      6.454773000000000E-01     -7.782421000000000E+01
4813000000.000000      5.272217000000000E-01     -1.680547000000000E+02      3.035431000000000E-01     -2.354590000000000E+01      2.947845000000000E-01     -1.419062000000000E+02      6.449890000000000E-01     -7.749218000000000E+01
4814000000.000000      5.297546000000000E-01     -1.681562000000000E+02      3.070374000000000E-01     -2.395020000000000E+01      2.982330000000000E-01     -1.421250000000000E+02      6.463318000000000E-01     -7.751171000000000E+01
4815000000.000000      5.336304000000000E-01     -1.680078000000000E+02      3.106689000000000E-01     -2.430664000000000E+01      3.007202000000000E-01     -1.422344000000000E+02      6.464844000000000E-01     -7.718359000000000E+01
4816000000.000000      5.386963000000000E-01     -1.679453000000000E+02      3.148193000000000E-01     -2.454785000000000E+01      3.054199000000000E-01     -1.423203000000000E+02      6.472168000000000E-01     -7.706640000000000E+01
4817000000.000000      5.426025000000000E-01     -1.678047000000000E+02      3.182068000000000E-01     -2.525000000000000E+01      3.073730000000000E-01     -1.425937000000000E+02      6.491394000000000E-01     -7.686718000000000E+01
4818000000.000000      5.466003000000000E-01     -1.678437000000000E+02      3.207092000000000E-01     -2.561816000000000E+01      3.103638000000000E-01     -1.427109000000000E+02      6.500854000000000E-01     -7.678124000000000E+01
4819000000.000000      5.513306000000000E-01     -1.677422000000000E+02      3.240967000000000E-01     -2.602832000000000E+01      3.133392000000000E-01     -1.428984000000000E+02      6.530457000000000E-01     -7.663280000000000E+01
4820000000.000000      5.535889000000000E-01     -1.676641000000000E+02      3.276672000000000E-01     -2.648535000000000E+01      3.164825000000000E-01     -1.431953000000000E+02      6.538391000000000E-01     -7.642578000000000E+01
4821000000.000000      5.601807000000000E-01     -1.676328000000000E+02      3.315125000000000E-01     -2.692676000000000E+01      3.199310000000000E-01     -1.434609000000000E+02      6.555176000000000E-01     -7.624218000000000E+01
4822000000.000000      5.667725000000000E-01     -1.675313000000000E+02      3.350067000000000E-01     -2.737988000000000E+01      3.219452000000000E-01     -1.435859000000000E+02      6.582947000000000E-01     -7.608203000000000E+01
4823000000.000000      5.696106000000000E-01     -1.673750000000000E+02      3.376160000000000E-01     -2.789063000000000E+01      3.242035000000000E-01     -1.436250000000000E+02      6.601563000000000E-01     -7.596093000000000E+01
4824000000.000000      5.768738000000000E-01     -1.673906000000000E+02      3.409729000000000E-01     -2.865234000000000E+01      3.285217000000000E-01     -1.440234000000000E+02      6.629944000000000E-01     -7.585155000000000E+01
4825000000.000000      5.811462000000000E-01     -1.672578000000000E+02      3.436890000000000E-01     -2.892090000000000E+01      3.312836000000000E-01     -1.440078000000000E+02      6.654053000000000E-01     -7.568359000000000E+01
4826000000.000000      5.870667000000000E-01     -1.671172000000000E+02      3.467407000000000E-01     -2.950586000000000E+01      3.330841000000000E-01     -1.443594000000000E+02      6.678162000000000E-01     -7.559765000000000E+01
4827000000.000000      5.923462000000000E-01     -1.669609000000000E+02      3.498535000000000E-01     -2.993945000000000E+01      3.357849000000000E-01     -1.444766000000000E+02      6.702271000000000E-01     -7.543359000000000E+01
4828000000.000000      5.995178000000000E-01     -1.669375000000000E+02      3.530731000000000E-01     -3.045898000000000E+01      3.380280000000000E-01     -1.447031000000000E+02      6.736145000000000E-01     -7.536327000000000E+01
4829000000.000000      6.030884000000000E-01     -1.668047000000000E+02      3.553467000000000E-01     -3.104394000000000E+01      3.414001000000000E-01     -1.448437000000000E+02      6.770935000000000E-01     -7.523046000000000E+01
4830000000.000000      6.104126000000000E-01     -1.667734000000000E+02      3.577576000000000E-01     -3.156933000000000E+01      3.434296000000000E-01     -1.449375000000000E+02      6.791077000000000E-01     -7.518749000000000E+01
4831000000.000000      6.155396000000000E-01     -1.666328000000000E+02      3.600616000000000E-01     -3.220508000000000E+01      3.460999000000000E-01     -1.451250000000000E+02      6.835022000000000E-01     -7.509766000000000E+01
4832000000.000000      6.235962000000000E-01     -1.666094000000000E+02      3.631592000000000E-01     -3.263086000000000E+01      3.483276000000000E-01     -1.454453000000000E+02      6.861572000000000E-01     -7.502343000000000E+01
4833000000.000000      6.301575000000000E-01     -1.665781000000000E+02      3.656158000000000E-01     -3.329492000000000E+01      3.508301000000000E-01     -1.456875000000000E+02      6.893311000000000E-01     -7.497265000000000E+01
4834000000.000000      6.364441000000000E-01     -1.664297000000000E+02      3.678894000000000E-01     -3.373632000000000E+01      3.526917000000000E-01     -1.458828000000000E+02      6.922607000000000E-01     -7.485546000000000E+01
4835000000.000000      6.424561000000000E-01     -1.663437000000000E+02      3.698273000000000E-01     -3.431055000000000E+01      3.551636000000000E-01     -1.460781000000000E+02      6.967468000000000E-01     -7.483203000000000E+01
4836000000.000000      6.511841000000000E-01     -1.662734000000000E+02      3.720245000000000E-01     -3.476367000000000E+01      3.576050000000000E-01     -1.461875000000000E+02      7.001038000000000E-01     -7.474609000000000E+01
4837000000.000000      6.565247000000000E-01     -1.661250000000000E+02      3.735199000000000E-01     -3.558594000000000E+01      3.596954000000000E-01     -1.465469000000000E+02      7.038269000000000E-01     -7.471874000000000E+01
4838000000.000000      6.640930000000000E-01     -1.662656000000000E+02      3.763580000000000E-01     -3.605469000000000E+01      3.618774000000000E-01     -1.465469000000000E+02      7.081299000000000E-01     -7.459374000000000E+01
4839000000.000000      6.712036000000000E-01     -1.660469000000000E+02      3.771210000000000E-01     -3.648438000000000E+01      3.637543000000000E-01     -1.468203000000000E+02      7.119751000000000E-01     -7.454687000000000E+01
4840000000.000000      6.770630000000000E-01     -1.660625000000000E+02      3.781891000000000E-01     -3.693359000000000E+01      3.658142000000000E-01     -1.470391000000000E+02      7.153931000000000E-01     -7.460155000000000E+01
4841000000.000000      6.842651000000000E-01     -1.660469000000000E+02      3.797150000000000E-01     -3.765039000000000E+01      3.678284000000000E-01     -1.472265000000000E+02      7.195740000000000E-01     -7.461328000000000E+01
4842000000.000000      6.924438000000000E-01     -1.659297000000000E+02      3.818054000000000E-01     -3.821875000000000E+01      3.693848000000000E-01     -1.474609000000000E+02      7.255859000000000E-01     -7.451562000000000E+01
4843000000.000000      6.984253000000000E-01     -1.659609000000000E+02      3.832397000000000E-01     -3.882421000000000E+01      3.712006000000000E-01     -1.476406000000000E+02      7.287292000000000E-01     -7.446094000000000E+01
4844000000.000000      7.053223000000000E-01     -1.658906000000000E+02      3.838196000000000E-01     -3.932031000000000E+01      3.729095000000000E-01     -1.477656000000000E+02      7.330322000000000E-01     -7.452343000000000E+01
4845000000.000000      7.121277000000000E-01     -1.658437000000000E+02      3.852692000000000E-01     -3.975976000000000E+01      3.751221000000000E-01     -1.480000000000000E+02      7.359619000000000E-01     -7.446094000000000E+01
4846000000.000000      7.196045000000000E-01     -1.657109000000000E+02      3.863525000000000E-01     -4.041797000000000E+01      3.773804000000000E-01     -1.482109000000000E+02      7.409973000000000E-01     -7.446484000000000E+01
4847000000.000000      7.272644000000000E-01     -1.657422000000000E+02      3.866730000000000E-01     -4.100586000000000E+01      3.794708000000000E-01     -1.484453000000000E+02      7.461548000000000E-01     -7.451562000000000E+01
4848000000.000000      7.338867000000000E-01     -1.657031000000000E+02      3.879852000000000E-01     -4.139257000000000E+01      3.802185000000000E-01     -1.485391000000000E+02      7.498779000000000E-01     -7.445313000000000E+01
4849000000.000000      7.417603000000000E-01     -1.659453000000000E+02      3.895264000000000E-01     -4.220117000000000E+01      3.820648000000000E-01     -1.487422000000000E+02      7.554932000000000E-01     -7.444140000000000E+01
4850000000.000000      7.491760000000000E-01     -1.657344000000000E+02      3.895111000000000E-01     -4.258594000000000E+01      3.836365000000000E-01     -1.488672000000000E+02      7.601929000000000E-01     -7.450390000000000E+01
4851000000.000000      7.559814000000000E-01     -1.657109000000000E+02      3.895416000000000E-01     -4.319140000000000E+01      3.851318000000000E-01     -1.491250000000000E+02      7.658081000000000E-01     -7.455859000000000E+01
4852000000.000000      7.634583000000000E-01     -1.657422000000000E+02      3.898163000000000E-01     -4.356641000000000E+01      3.869324000000000E-01     -1.491484000000000E+02      7.693481000000000E-01     -7.453515000000000E+01
4853000000.000000      7.699585000000000E-01     -1.657266000000000E+02      3.889923000000000E-01     -4.415820000000000E+01      3.883667000000000E-01     -1.495312000000000E+02      7.739258000000000E-01     -7.459765000000000E+01
4854000000.000000      7.759094000000000E-01     -1.657266000000000E+02      3.900146000000000E-01     -4.493360000000000E+01      3.895416000000000E-01     -1.496875000000000E+02      7.784119000000000E-01     -7.470312000000000E+01
4855000000.000000      7.813110000000000E-01     -1.657109000000000E+02      3.894348000000000E-01     -4.520508000000000E+01      3.907318000000000E-01     -1.497578000000000E+02      7.824707000000000E-01     -7.462891000000000E+01
4856000000.000000      7.895203000000000E-01     -1.656641000000000E+02      3.907928000000000E-01     -4.560742000000000E+01      3.922424000000000E-01     -1.500547000000000E+02      7.885437000000000E-01     -7.465625000000000E+01
4857000000.000000      7.948608000000000E-01     -1.657109000000000E+02      3.905640000000000E-01     -4.627734000000000E+01      3.928528000000000E-01     -1.500781000000000E+02      7.920532000000000E-01     -7.476563000000000E+01
4858000000.000000      7.985840000000000E-01     -1.657734000000000E+02      3.905640000000000E-01     -4.664258000000000E+01      3.943176000000000E-01     -1.502969000000000E+02      7.965088000000000E-01     -7.483593000000000E+01
4859000000.000000      8.057251000000000E-01     -1.656875000000000E+02      3.890839000000000E-01     -4.719336000000000E+01      3.951569000000000E-01     -1.505859000000000E+02      8.027039000000000E-01     -7.488281000000000E+01
4860000000.000000      8.146362000000000E-01     -1.657422000000000E+02      3.889160000000000E-01     -4.757617000000000E+01      3.963776000000000E-01     -1.506797000000000E+02      8.073730000000000E-01     -7.486328000000000E+01
4861000000.000000      8.195801000000000E-01     -1.656875000000000E+02      3.887787000000000E-01     -4.819336000000000E+01      3.981934000000000E-01     -1.508203000000000E+02      8.124084000000000E-01     -7.504687000000000E+01
4862000000.000000      8.242493000000000E-01     -1.656094000000000E+02      3.881683000000000E-01     -4.853125000000000E+01      3.995056000000000E-01     -1.510313000000000E+02      8.190002000000000E-01     -7.501953000000000E+01
4863000000.000000      8.291626000000000E-01     -1.656641000000000E+02      3.864288000000000E-01     -4.912695000000000E+01      4.008942000000000E-01     -1.511328000000000E+02      8.232117000000000E-01     -7.501953000000000E+01
4864000000.000000      8.341064000000000E-01     -1.657812000000000E+02      3.865509000000000E-01     -4.933007000000000E+01      4.000244000000000E-01     -1.511953000000000E+02      8.266602000000000E-01     -7.521874000000000E+01
4865000000.000000      8.377380000000000E-01     -1.657578000000000E+02      3.852081000000000E-01     -4.976367000000000E+01      4.019470000000000E-01     -1.515234000000000E+02      8.326721000000000E-01     -7.515234000000000E+01
4866000000.000000      8.424072000000000E-01     -1.657578000000000E+02      3.835449000000000E-01     -5.018164000000000E+01      4.028168000000000E-01     -1.516797000000000E+02      8.368835000000000E-01     -7.525391000000000E+01
4867000000.000000      8.503418000000000E-01     -1.655469000000000E+02      3.835297000000000E-01     -5.058203000000000E+01      4.035492000000000E-01     -1.518594000000000E+02      8.424072000000000E-01     -7.535937000000000E+01
4868000000.000000      8.525696000000000E-01     -1.658359000000000E+02      3.824768000000000E-01     -5.104882000000000E+01      4.043732000000000E-01     -1.519609000000000E+02      8.463135000000000E-01     -7.540625000000000E+01
4869000000.000000      8.553772000000000E-01     -1.657578000000000E+02      3.809357000000000E-01     -5.140820000000000E+01      4.045258000000000E-01     -1.522031000000000E+02      8.527222000000000E-01     -7.567968000000000E+01
4870000000.000000      8.621216000000000E-01     -1.657109000000000E+02      3.805847000000000E-01     -5.171679000000000E+01      4.054413000000000E-01     -1.524531000000000E+02      8.572693000000000E-01     -7.560156000000000E+01
4871000000.000000      8.663635000000000E-01     -1.657812000000000E+02      3.787079000000000E-01     -5.204102000000000E+01      4.051361000000000E-01     -1.525938000000000E+02      8.608398000000000E-01     -7.581640000000000E+01
4872000000.000000      8.710632000000000E-01     -1.655937000000000E+02      3.762512000000000E-01     -5.220508000000000E+01      4.065094000000000E-01     -1.529531000000000E+02      8.662415000000000E-01     -7.589062000000000E+01
4873000000.000000      8.718567000000000E-01     -1.655703000000000E+02      3.757935000000000E-01     -5.270312000000000E+01      4.061127000000000E-01     -1.528984000000000E+02      8.691406000000000E-01     -7.594140000000000E+01
4874000000.000000      8.737183000000000E-01     -1.655469000000000E+02      3.746796000000000E-01     -5.299414000000000E+01      4.075012000000000E-01     -1.530391000000000E+02      8.732605000000000E-01     -7.595312000000000E+01
4875000000.000000      8.810730000000000E-01     -1.655234000000000E+02      3.728638000000000E-01     -5.330859000000000E+01      4.078064000000000E-01     -1.533672000000000E+02      8.789673000000000E-01     -7.623047000000000E+01
4876000000.000000      8.808289000000000E-01     -1.655469000000000E+02      3.713531000000000E-01     -5.352148000000000E+01      4.071960000000000E-01     -1.534531000000000E+02      8.833923000000000E-01     -7.635937000000000E+01
4877000000.000000      8.842773000000000E-01     -1.655234000000000E+02      3.695984000000000E-01     -5.355469000000000E+01      4.080658000000000E-01     -1.536562000000000E+02      8.875122000000000E-01     -7.643749000000000E+01
4878000000.000000      8.868103000000000E-01     -1.653672000000000E+02      3.694763000000000E-01     -5.405078000000000E+01      4.080963000000000E-01     -1.537422000000000E+02      8.909302000000000E-01     -7.657031000000000E+01
4879000000.000000      8.895264000000000E-01     -1.652891000000000E+02      3.666077000000000E-01     -5.415820000000000E+01      4.080963000000000E-01     -1.539219000000000E+02      8.941956000000000E-01     -7.653515000000000E+01
4880000000.000000      8.890991000000000E-01     -1.653594000000000E+02      3.653107000000000E-01     -5.446875000000000E+01      4.086609000000000E-01     -1.539922000000000E+02      9.002380000000000E-01     -7.671875000000000E+01
4881000000.000000      8.930664000000000E-01     -1.651953000000000E+02      3.654022000000000E-01     -5.450781000000000E+01      4.090118000000000E-01     -1.542344000000000E+02      9.048767000000000E-01     -7.690234000000000E+01
4882000000.000000      8.936768000000000E-01     -1.651172000000000E+02      3.630371000000000E-01     -5.473827000000000E+01      4.088745000000000E-01     -1.543203000000000E+02      9.057007000000000E-01     -7.695313000000000E+01
