! Network Analyzer HP8722D
! Hewlett-Packard
! Data name: Linha & Wilkinson
! Saver's name: Rodrigo Anjos
! Comments: Teste da utilização de aquisição
continua pelo VNA HP8722D
! Time and date: 6/5/2025 15:30
!              Frequency                     S11                                                   S21                                                   S12                                                   S22
# HZ  S  MA R 50
4800000000.000000      4.966583000000000E-01     -1.681406000000000E+02      2.518616000000000E-01     -1.955176000000000E+01      2.483368000000000E-01     -1.407500000000000E+02      6.480713000000000E-01     -8.044140000000000E+01
4801000000.000000      4.978943000000000E-01     -1.681875000000000E+02      2.557373000000000E-01     -1.984179000000000E+01      2.516632000000000E-01     -1.408984000000000E+02      6.480713000000000E-01     -8.010937000000000E+01
4802000000.000000      4.991150000000000E-01     -1.682812000000000E+02      2.591858000000000E-01     -1.982812000000000E+01      2.558441000000000E-01     -1.408516000000000E+02      6.448669000000000E-01     -7.980078000000000E+01
4803000000.000000      5.006104000000000E-01     -1.683672000000000E+02      2.646332000000000E-01     -2.035156000000000E+01      2.587433000000000E-01     -1.408672000000000E+02      6.445618000000000E-01     -7.971093000000000E+01
4804000000.000000      5.028992000000000E-01     -1.683516000000000E+02      2.681122000000000E-01     -2.048047000000000E+01      2.627869000000000E-01     -1.410391000000000E+02      6.452637000000000E-01     -7.940624000000000E+01
4805000000.000000      5.059204000000000E-01     -1.683672000000000E+02      2.721710000000000E-01     -2.072852000000000E+01      2.666931000000000E-01     -1.411016000000000E+02      6.437988000000000E-01     -7.926562000000000E+01
4806000000.000000      5.068054000000000E-01     -1.683203000000000E+02      2.762146000000000E-01     -2.104785000000000E+01      2.692566000000000E-01     -1.410547000000000E+02      6.440430000000000E-01     -7.910937000000000E+01
4807000000.000000      5.098267000000000E-01     -1.683359000000000E+02      2.801819000000000E-01     -2.142383000000000E+01      2.738037000000000E-01     -1.413047000000000E+02      6.431274000000000E-01     -7.881640000000000E+01
4808000000.000000      5.118408000000000E-01     -1.682734000000000E+02      2.848663000000000E-01     -2.153320000000000E+01      2.766113000000000E-01     -1.413594000000000E+02      6.428223000000000E-01     -7.866405000000000E+01
4809000000.000000      5.151062000000000E-01     -1.683750000000000E+02      2.876740000000000E-01     -2.221484000000000E+01      2.810059000000000E-01     -1.415469000000000E+02      6.440125000000000E-01     -7.842968000000000E+01
4810000000.000000      5.178833000000000E-01     -1.683125000000000E+02      2.927399000000000E-01     -2.233593000000000E+01      2.841492000000000E-01     -1.416563000000000E+02      6.440735000000000E-01     -7.823437000000000E+01
4811000000.000000      5.208435000000000E-01     -1.682969000000000E+02      2.960510000000000E-01     -2.292187000000000E+01      2.886658000000000E-01     -1.417266000000000E+02      6.436157000000000E-01     -7.797265000000000E+01
4812000000.000000      5.249329000000000E-01     -1.682031000000000E+02      2.994537000000000E-01     -2.320801000000000E+01      2.916718000000000E-01     -1.418828000000000E+02      6.449585000000000E-01     -7.781250000000000E+01
4813000000.000000      5.274963000000000E-01     -1.681562000000000E+02      3.028717000000000E-01     -2.363476000000000E+01      2.942657000000000E-01     -1.418984000000000E+02      6.445923000000000E-01     -7.760937000000000E+01
4814000000.000000      5.299988000000000E-01     -1.681953000000000E+02      3.071594000000000E-01     -2.395898000000000E+01      2.977753000000000E-01     -1.422188000000000E+02      6.451416000000000E-01     -7.734375000000000E+01
4815000000.000000      5.337524000000000E-01     -1.680469000000000E+02      3.107300000000000E-01     -2.441504000000000E+01      3.005066000000000E-01     -1.422812000000000E+02      6.461792000000000E-01     -7.714453000000000E+01
4816000000.000000      5.386353000000000E-01     -1.680234000000000E+02      3.146210000000000E-01     -2.468847000000000E+01      3.044739000000000E-01     -1.424219000000000E+02      6.474609000000000E-01     -7.707031000000000E+01
4817000000.000000      5.429382000000000E-01     -1.679375000000000E+02      3.178406000000000E-01     -2.542871000000000E+01      3.075867000000000E-01     -1.427031000000000E+02      6.484070000000000E-01     -7.687890000000000E+01
4818000000.000000      5.469360000000000E-01     -1.678437000000000E+02      3.206940000000000E-01     -2.574707000000000E+01      3.110657000000000E-01     -1.427734000000000E+02      6.502991000000000E-01     -7.667969000000000E+01
4819000000.000000      5.519104000000000E-01     -1.677813000000000E+02      3.244934000000000E-01     -2.615332000000000E+01      3.127136000000000E-01     -1.430000000000000E+02      6.532898000000000E-01     -7.660937000000000E+01
4820000000.000000      5.542603000000000E-01     -1.677031000000000E+02      3.278809000000000E-01     -2.651367000000000E+01      3.164063000000000E-01     -1.431953000000000E+02      6.538086000000000E-01     -7.635937000000000E+01
4821000000.000000      5.601196000000000E-01     -1.676016000000000E+02      3.316498000000000E-01     -2.711621000000000E+01      3.193054000000000E-01     -1.434062000000000E+02      6.555481000000000E-01     -7.639453000000000E+01
4822000000.000000      5.665588000000000E-01     -1.675781000000000E+02      3.343048000000000E-01     -2.738281000000000E+01      3.220215000000000E-01     -1.436484000000000E+02      6.578369000000000E-01     -7.612499000000000E+01
4823000000.000000      5.697021000000000E-01     -1.674531000000000E+02      3.376770000000000E-01     -2.790136000000000E+01      3.249207000000000E-01     -1.436406000000000E+02      6.605530000000000E-01     -7.593750000000000E+01
4824000000.000000      5.770264000000000E-01     -1.674219000000000E+02      3.408051000000000E-01     -2.862988000000000E+01      3.284149000000000E-01     -1.439844000000000E+02      6.628723000000000E-01     -7.578125000000000E+01
4825000000.000000      5.812378000000000E-01     -1.672891000000000E+02      3.436432000000000E-01     -2.894824000000000E+01      3.315887000000000E-01     -1.441015000000000E+02      6.658325000000000E-01     -7.573047000000000E+01
4826000000.000000      5.875244000000000E-01     -1.671797000000000E+02      3.471222000000000E-01     -2.960546000000000E+01      3.328857000000000E-01     -1.444453000000000E+02      6.674194000000000E-01     -7.562109000000000E+01
4827000000.000000      5.932007000000000E-01     -1.670469000000000E+02      3.493958000000000E-01     -2.981640000000000E+01      3.358307000000000E-01     -1.445391000000000E+02      6.702576000000000E-01     -7.543359000000000E+01
4828000000.000000      5.999146000000000E-01     -1.670078000000000E+02      3.532715000000000E-01     -3.050293000000000E+01      3.387756000000000E-01     -1.447500000000000E+02      6.739502000000000E-01     -7.539063000000000E+01
4829000000.000000      6.027527000000000E-01     -1.668359000000000E+02      3.546448000000000E-01     -3.106836000000000E+01      3.413696000000000E-01     -1.449141000000000E+02      6.769714000000000E-01     -7.519140000000000E+01
4830000000.000000      6.105042000000000E-01     -1.668750000000000E+02      3.580170000000000E-01     -3.158984000000000E+01      3.434753000000000E-01     -1.450547000000000E+02      6.790466000000000E-01     -7.519140000000000E+01
4831000000.000000      6.153259000000000E-01     -1.667734000000000E+02      3.596649000000000E-01     -3.213672000000000E+01      3.464813000000000E-01     -1.451719000000000E+02      6.826172000000000E-01     -7.511719000000000E+01
4832000000.000000      6.240540000000000E-01     -1.666563000000000E+02      3.621674000000000E-01     -3.273242000000000E+01      3.483124000000000E-01     -1.454922000000000E+02      6.860046000000000E-01     -7.494922000000000E+01
4833000000.000000      6.304932000000000E-01     -1.666250000000000E+02      3.653259000000000E-01     -3.316601000000000E+01      3.508759000000000E-01     -1.457656000000000E+02      6.887817000000000E-01     -7.492969000000000E+01
4834000000.000000      6.359253000000000E-01     -1.665390000000000E+02      3.675079000000000E-01     -3.376953000000000E+01      3.528595000000000E-01     -1.458203000000000E+02      6.918030000000000E-01     -7.491015000000000E+01
4835000000.000000      6.425171000000000E-01     -1.664219000000000E+02      3.693695000000000E-01     -3.428125000000000E+01      3.551941000000000E-01     -1.461406000000000E+02      6.962280000000000E-01     -7.489843000000000E+01
4836000000.000000      6.506958000000000E-01     -1.663125000000000E+02      3.721619000000000E-01     -3.482422000000000E+01      3.573914000000000E-01     -1.462656000000000E+02      7.009888000000000E-01     -7.469531000000000E+01
4837000000.000000      6.572571000000000E-01     -1.662188000000000E+02      3.736115000000000E-01     -3.567383000000000E+01      3.593292000000000E-01     -1.466172000000000E+02      7.037659000000000E-01     -7.466015000000000E+01
4838000000.000000      6.640930000000000E-01     -1.662734000000000E+02      3.755035000000000E-01     -3.602539000000000E+01      3.620605000000000E-01     -1.467031000000000E+02      7.075806000000000E-01     -7.461328000000000E+01
4839000000.000000      6.711121000000000E-01     -1.660781000000000E+02      3.768616000000000E-01     -3.669336000000000E+01      3.643494000000000E-01     -1.469531000000000E+02      7.115173000000000E-01     -7.454296000000000E+01
4840000000.000000      6.767578000000000E-01     -1.661094000000000E+02      3.786011000000000E-01     -3.707617000000000E+01      3.662567000000000E-01     -1.470234000000000E+02      7.149963000000000E-01     -7.458593000000000E+01
4841000000.000000      6.854858000000000E-01     -1.660938000000000E+02      3.807983000000000E-01     -3.783789000000000E+01      3.679657000000000E-01     -1.472734000000000E+02      7.189941000000000E-01     -7.457031000000000E+01
4842000000.000000      6.924744000000000E-01     -1.659688000000000E+02      3.819427000000000E-01     -3.821289000000000E+01      3.691864000000000E-01     -1.474609000000000E+02      7.235413000000000E-01     -7.451172000000000E+01
4843000000.000000      6.987000000000000E-01     -1.660469000000000E+02      3.831329000000000E-01     -3.884766000000000E+01      3.715515000000000E-01     -1.475781000000000E+02      7.271118000000000E-01     -7.450390000000000E+01
4844000000.000000      7.058105000000000E-01     -1.658984000000000E+02      3.840027000000000E-01     -3.933398000000000E+01      3.724823000000000E-01     -1.479141000000000E+02      7.320557000000000E-01     -7.452343000000000E+01
4845000000.000000      7.117615000000000E-01     -1.659141000000000E+02      3.849945000000000E-01     -3.977734000000000E+01      3.744049000000000E-01     -1.480703000000000E+02      7.360840000000000E-01     -7.444140000000000E+01
4846000000.000000      7.199097000000000E-01     -1.657891000000000E+02      3.858490000000000E-01     -4.042188000000000E+01      3.764648000000000E-01     -1.482891000000000E+02      7.405701000000000E-01     -7.444140000000000E+01
4847000000.000000      7.276306000000000E-01     -1.657891000000000E+02      3.876953000000000E-01     -4.091601000000000E+01      3.789215000000000E-01     -1.485234000000000E+02      7.459106000000000E-01     -7.453125000000000E+01
4848000000.000000      7.346802000000000E-01     -1.658047000000000E+02      3.874054000000000E-01     -4.138281000000000E+01      3.801117000000000E-01     -1.485078000000000E+02      7.501526000000000E-01     -7.450781000000000E+01
4849000000.000000      7.413330000000000E-01     -1.660234000000000E+02      3.888245000000000E-01     -4.230859000000000E+01      3.819885000000000E-01     -1.488594000000000E+02      7.544556000000000E-01     -7.444140000000000E+01
4850000000.000000      7.486572000000000E-01     -1.658516000000000E+02      3.894653000000000E-01     -4.263476000000000E+01      3.833008000000000E-01     -1.489375000000000E+02      7.590942000000000E-01     -7.443359000000000E+01
4851000000.000000      7.556152000000000E-01     -1.658047000000000E+02      3.900909000000000E-01     -4.329883000000000E+01      3.844299000000000E-01     -1.491406000000000E+02      7.651367000000000E-01     -7.455859000000000E+01
4852000000.000000      7.632751000000000E-01     -1.657969000000000E+02      3.901367000000000E-01     -4.364062000000000E+01      3.856049000000000E-01     -1.492812000000000E+02      7.682190000000000E-01     -7.457812000000000E+01
4853000000.000000      7.700806000000000E-01     -1.657891000000000E+02      3.886719000000000E-01     -4.419922000000000E+01      3.883667000000000E-01     -1.495625000000000E+02      7.732544000000000E-01     -7.469140000000000E+01
4854000000.000000      7.762146000000000E-01     -1.657422000000000E+02      3.907166000000000E-01     -4.489062000000000E+01      3.892822000000000E-01     -1.497266000000000E+02      7.785950000000000E-01     -7.460546000000000E+01
4855000000.000000      7.810669000000000E-01     -1.658203000000000E+02      3.898468000000000E-01     -4.516015000000000E+01      3.905182000000000E-01     -1.498437000000000E+02      7.832031000000000E-01     -7.461719000000000E+01
4856000000.000000      7.897339000000000E-01     -1.657109000000000E+02      3.899536000000000E-01     -4.576172000000000E+01      3.919067000000000E-01     -1.500547000000000E+02      7.873535000000000E-01     -7.474218000000000E+01
4857000000.000000      7.952881000000000E-01     -1.658047000000000E+02      3.905029000000000E-01     -4.618554000000000E+01      3.929596000000000E-01     -1.501484000000000E+02      7.937012000000000E-01     -7.471484000000000E+01
4858000000.000000      7.987976000000000E-01     -1.657812000000000E+02      3.897400000000000E-01     -4.658203000000000E+01      3.934784000000000E-01     -1.504219000000000E+02      7.966003000000000E-01     -7.477344000000000E+01
4859000000.000000      8.063965000000000E-01     -1.658672000000000E+02      3.896637000000000E-01     -4.705859000000000E+01      3.958130000000000E-01     -1.506172000000000E+02      8.035889000000000E-01     -7.489452000000000E+01
4860000000.000000      8.129578000000000E-01     -1.657578000000000E+02      3.885956000000000E-01     -4.762891000000000E+01      3.961792000000000E-01     -1.507031000000000E+02      8.067932000000000E-01     -7.480078000000000E+01
4861000000.000000      8.186951000000000E-01     -1.657109000000000E+02      3.880005000000000E-01     -4.827538000000000E+01      3.977661000000000E-01     -1.508437000000000E+02      8.111267000000000E-01     -7.501562000000000E+01
4862000000.000000      8.244934000000000E-01     -1.657734000000000E+02      3.882141000000000E-01     -4.853516000000000E+01      3.990936000000000E-01     -1.510156000000000E+02      8.186951000000000E-01     -7.515234000000000E+01
4863000000.000000      8.276062000000000E-01     -1.658281000000000E+02      3.860321000000000E-01     -4.911523000000000E+01      4.008026000000000E-01     -1.511172000000000E+02      8.228455000000000E-01     -7.500000000000000E+01
4864000000.000000      8.346252000000000E-01     -1.658125000000000E+02      3.861694000000000E-01     -4.936718000000000E+01      4.001160000000000E-01     -1.513672000000000E+02      8.273315000000000E-01     -7.513281000000000E+01
4865000000.000000      8.392029000000000E-01     -1.658281000000000E+02      3.849487000000000E-01     -4.976367000000000E+01      4.013519000000000E-01     -1.515547000000000E+02      8.321228000000000E-01     -7.520702000000000E+01
4866000000.000000      8.425598000000000E-01     -1.657266000000000E+02      3.836975000000000E-01     -5.013085000000000E+01      4.022980000000000E-01     -1.517734000000000E+02      8.378906000000000E-01     -7.523046000000000E+01
4867000000.000000      8.490906000000000E-01     -1.656406000000000E+02      3.834991000000000E-01     -5.067187000000000E+01      4.030609000000000E-01     -1.518516000000000E+02      8.425903000000000E-01     -7.540234000000000E+01
4868000000.000000      8.541260000000000E-01     -1.658828000000000E+02      3.822479000000000E-01     -5.114648000000000E+01      4.042664000000000E-01     -1.520625000000000E+02      8.469543000000000E-01     -7.545312000000000E+01
4869000000.000000      8.559570000000000E-01     -1.656250000000000E+02      3.813934000000000E-01     -5.149804000000000E+01      4.050293000000000E-01     -1.522734000000000E+02      8.511353000000000E-01     -7.564062000000000E+01
4870000000.000000      8.615112000000000E-01     -1.658125000000000E+02      3.794250000000000E-01     -5.157227000000000E+01      4.051971000000000E-01     -1.524375000000000E+02      8.573914000000000E-01     -7.562500000000000E+01
4871000000.000000      8.658447000000000E-01     -1.657734000000000E+02      3.785400000000000E-01     -5.198632000000000E+01      4.052582000000000E-01     -1.526484000000000E+02      8.610840000000000E-01     -7.581640000000000E+01
4872000000.000000      8.709412000000000E-01     -1.657578000000000E+02      3.769989000000000E-01     -5.224414000000000E+01      4.061737000000000E-01     -1.529375000000000E+02      8.655701000000000E-01     -7.580859000000000E+01
4873000000.000000      8.719788000000000E-01     -1.655859000000000E+02      3.752747000000000E-01     -5.279687000000000E+01      4.060364000000000E-01     -1.529297000000000E+02      8.690186000000000E-01     -7.594531000000000E+01
4874000000.000000      8.732910000000000E-01     -1.657187000000000E+02      3.745117000000000E-01     -5.296288000000000E+01      4.079285000000000E-01     -1.530625000000000E+02      8.740845000000000E-01     -7.595703000000000E+01
4875000000.000000      8.800659000000000E-01     -1.656953000000000E+02      3.727417000000000E-01     -5.335155000000000E+01      4.077148000000000E-01     -1.533828000000000E+02      8.784790000000000E-01     -7.621875000000000E+01
4876000000.000000      8.805237000000000E-01     -1.656406000000000E+02      3.712311000000000E-01     -5.351171000000000E+01      4.071045000000000E-01     -1.534609000000000E+02      8.825378000000000E-01     -7.634375000000000E+01
4877000000.000000      8.829041000000000E-01     -1.656406000000000E+02      3.711090000000000E-01     -5.372070000000000E+01      4.079742000000000E-01     -1.537266000000000E+02      8.863525000000000E-01     -7.645312000000000E+01
4878000000.000000      8.858948000000000E-01     -1.654687000000000E+02      3.695831000000000E-01     -5.405859000000000E+01      4.084015000000000E-01     -1.536719000000000E+02      8.911743000000000E-01     -7.660546000000000E+01
4879000000.000000      8.894043000000000E-01     -1.654844000000000E+02      3.670502000000000E-01     -5.419922000000000E+01      4.080200000000000E-01     -1.539219000000000E+02      8.942261000000000E-01     -7.659374000000000E+01
4880000000.000000      8.898621000000000E-01     -1.655313000000000E+02      3.661499000000000E-01     -5.448828000000000E+01      4.085693000000000E-01     -1.540469000000000E+02      8.995972000000000E-01     -7.675390000000000E+01
4881000000.000000      8.945923000000000E-01     -1.653125000000000E+02      3.655243000000000E-01     -5.462304000000000E+01      4.089661000000000E-01     -1.543594000000000E+02      9.030762000000000E-01     -7.691406000000000E+01
4882000000.000000      8.935242000000000E-01     -1.652656000000000E+02      3.631287000000000E-01     -5.482226000000000E+01      4.085846000000000E-01     -1.543750000000000E+02      9.069824000000000E-01     -7.694140000000000E+01
