! Network Analyzer HP8722D
! Hewlett-Packard
! Data name: Linha & Wilkinson
! Saver's name: Rodrigo Anjos
! Comments: Teste da utilização de aquisição
continua pelo VNA HP8722D
! Time and date: 6/5/2025 12:43
!              Frequency                     S11                                                   S21                                                   S12                                                   S22
# HZ  S  MA R 50
4800000000.000000      9.497375000000000E-01      1.645156000000000E+02      4.381866000000000E-01      1.240391000000000E+02      4.348297000000000E-01      1.916797000000000E+01      9.516296000000000E-01     -3.654882000000000E+01
4801000000.000000      9.484253000000000E-01      1.644375000000000E+02      4.390259000000000E-01      1.236680000000000E+02      4.352875000000000E-01      1.878320000000000E+01      9.505920000000000E-01     -3.713672000000000E+01
4802000000.000000      9.491272000000000E-01      1.644219000000000E+02      4.394684000000000E-01      1.232305000000000E+02      4.366455000000000E-01      1.859961000000000E+01      9.461975000000000E-01     -3.730859000000000E+01
4803000000.000000      9.478149000000000E-01      1.645156000000000E+02      4.424896000000000E-01      1.227969000000000E+02      4.349823000000000E-01      1.806836000000000E+01      9.406433000000000E-01     -3.790430000000000E+01
4804000000.000000      9.478149000000000E-01      1.645859000000000E+02      4.440155000000000E-01      1.223984000000000E+02      4.374084000000000E-01      1.786719000000000E+01      9.362793000000000E-01     -3.836133000000000E+01
4805000000.000000      9.476318000000000E-01      1.645391000000000E+02      4.461975000000000E-01      1.218203000000000E+02      4.368286000000000E-01      1.752637000000000E+01      9.307556000000000E-01     -3.887500000000000E+01
4806000000.000000      9.442444000000000E-01      1.647891000000000E+02      4.478760000000000E-01      1.214687000000000E+02      4.369202000000000E-01      1.737305000000000E+01      9.252930000000000E-01     -3.941015000000000E+01
4807000000.000000      9.460144000000000E-01      1.646172000000000E+02      4.518738000000000E-01      1.209023000000000E+02      4.383087000000000E-01      1.666016000000000E+01      9.211731000000000E-01     -3.973242000000000E+01
4808000000.000000      9.439087000000000E-01      1.648047000000000E+02      4.521332000000000E-01      1.204140000000000E+02      4.400330000000000E-01      1.642285000000000E+01      9.154968000000000E-01     -4.016602000000000E+01
4809000000.000000      9.431458000000000E-01      1.647812000000000E+02      4.532166000000000E-01      1.196250000000000E+02      4.399567000000000E-01      1.621973000000000E+01      9.111023000000000E-01     -4.069921000000000E+01
4810000000.000000      9.423828000000000E-01      1.648906000000000E+02      4.567566000000000E-01      1.194570000000000E+02      4.396362000000000E-01      1.575684000000000E+01      9.069214000000000E-01     -4.122656000000000E+01
4811000000.000000      9.406128000000000E-01      1.648594000000000E+02      4.571075000000000E-01      1.188594000000000E+02      4.428558000000000E-01      1.579004000000000E+01      9.017334000000000E-01     -4.146093000000000E+01
4812000000.000000      9.388733000000000E-01      1.648984000000000E+02      4.594727000000000E-01      1.183633000000000E+02      4.420624000000000E-01      1.543701000000000E+01      8.942566000000000E-01     -4.214844000000000E+01
4813000000.000000      9.372559000000000E-01      1.650000000000000E+02      4.595337000000000E-01      1.179805000000000E+02      4.420013000000000E-01      1.524609000000000E+01      8.896790000000000E-01     -4.251562000000000E+01
4814000000.000000      9.318542000000000E-01      1.649765000000000E+02      4.620819000000000E-01      1.172969000000000E+02      4.419708000000000E-01      1.475977000000000E+01      8.854065000000000E-01     -4.296484000000000E+01
4815000000.000000      9.301453000000000E-01      1.651094000000000E+02      4.636383000000000E-01      1.167109000000000E+02      4.440002000000000E-01      1.445898000000000E+01      8.782959000000000E-01     -4.344531000000000E+01
4816000000.000000      9.309387000000000E-01      1.652734000000000E+02      4.673004000000000E-01      1.164883000000000E+02      4.461060000000000E-01      1.421191000000000E+01      8.735046000000000E-01     -4.387304000000000E+01
4817000000.000000      9.310303000000000E-01      1.652109000000000E+02      4.688568000000000E-01      1.158281000000000E+02      4.438019000000000E-01      1.391260000000000E+01      8.666077000000000E-01     -4.434570000000000E+01
4818000000.000000      9.267273000000000E-01      1.652734000000000E+02      4.681091000000000E-01      1.151836000000000E+02      4.447784000000000E-01      1.363086000000000E+01      8.594666000000000E-01     -4.472852000000000E+01
4819000000.000000      9.232483000000000E-01      1.653437000000000E+02      4.697571000000000E-01      1.145625000000000E+02      4.446411000000000E-01      1.318359000000000E+01      8.536072000000000E-01     -4.546679000000000E+01
4820000000.000000      9.187927000000000E-01      1.653203000000000E+02      4.711761000000000E-01      1.139570000000000E+02      4.455566000000000E-01      1.298584000000000E+01      8.483887000000000E-01     -4.571875000000000E+01
4821000000.000000      9.191589000000000E-01      1.655469000000000E+02      4.751434000000000E-01      1.135000000000000E+02      4.459991000000000E-01      1.265039000000000E+01      8.412781000000000E-01     -4.618554000000000E+01
4822000000.000000      9.192810000000000E-01      1.652344000000000E+02      4.758148000000000E-01      1.127812000000000E+02      4.436951000000000E-01      1.219727000000000E+01      8.361206000000000E-01     -4.678711000000000E+01
4823000000.000000      9.136353000000000E-01      1.656641000000000E+02      4.769592000000000E-01      1.121914000000000E+02      4.457855000000000E-01      1.227148000000000E+01      8.282471000000000E-01     -4.722656000000000E+01
4824000000.000000      9.140320000000000E-01      1.654140000000000E+02      4.794922000000000E-01      1.114844000000000E+02      4.459229000000000E-01      1.195850000000000E+01      8.228760000000000E-01     -4.762500000000000E+01
4825000000.000000      9.091187000000000E-01      1.655703000000000E+02      4.788666000000000E-01      1.109141000000000E+02      4.460144000000000E-01      1.154102000000000E+01      8.180542000000000E-01     -4.815820000000000E+01
4826000000.000000      9.085388000000000E-01      1.657031000000000E+02      4.819031000000000E-01      1.103633000000000E+02      4.454498000000000E-01      1.121533000000000E+01      8.114624000000000E-01     -4.857226000000000E+01
4827000000.000000      9.046021000000000E-01      1.656328000000000E+02      4.817505000000000E-01      1.096680000000000E+02      4.453278000000000E-01      1.090625000000000E+01      8.040466000000000E-01     -4.909570000000000E+01
4828000000.000000      9.020996000000000E-01      1.656016000000000E+02      4.852600000000000E-01      1.090000000000000E+02      4.443207000000000E-01      1.056299000000000E+01      7.976379000000000E-01     -4.964257000000000E+01
4829000000.000000      8.963013000000000E-01      1.657891000000000E+02      4.841461000000000E-01      1.082578000000000E+02      4.477997000000000E-01      1.026807000000000E+01      7.930298000000000E-01     -5.003515000000000E+01
4830000000.000000      8.963013000000000E-01      1.656484000000000E+02      4.851837000000000E-01      1.075625000000000E+02      4.442291000000000E-01      1.003174000000000E+01      7.836609000000000E-01     -5.040820000000000E+01
4831000000.000000      8.923645000000000E-01      1.656406000000000E+02      4.856567000000000E-01      1.067851000000000E+02      4.462433000000000E-01      9.833984000000000E+00      7.772827000000000E-01     -5.091015000000000E+01
4832000000.000000      8.894653000000000E-01      1.657344000000000E+02      4.872742000000000E-01      1.061367000000000E+02      4.461060000000000E-01      9.468750000000000E+00      7.709045000000000E-01     -5.133789000000000E+01
4833000000.000000      8.854675000000000E-01      1.656484000000000E+02      4.873657000000000E-01      1.054531000000000E+02      4.453888000000000E-01      8.931641000000000E+00      7.639465000000000E-01     -5.165625000000000E+01
4834000000.000000      8.800354000000000E-01      1.657187000000000E+02      4.868622000000000E-01      1.046797000000000E+02      4.458008000000000E-01      8.551270000000000E+00      7.572327000000000E-01     -5.224414000000000E+01
4835000000.000000      8.782349000000000E-01      1.657891000000000E+02      4.876099000000000E-01      1.039023000000000E+02      4.471588000000000E-01      8.287598000000000E+00      7.505188000000000E-01     -5.263866000000000E+01
4836000000.000000      8.786011000000000E-01      1.656875000000000E+02      4.889526000000000E-01      1.031641000000000E+02      4.472961000000000E-01      8.027832000000000E+00      7.433472000000000E-01     -5.301171000000000E+01
4837000000.000000      8.722534000000000E-01      1.658828000000000E+02      4.873810000000000E-01      1.021953000000000E+02      4.470978000000000E-01      7.541992000000000E+00      7.359009000000000E-01     -5.332812000000000E+01
4838000000.000000      8.691711000000000E-01      1.656563000000000E+02      4.889526000000000E-01      1.017930000000000E+02      4.471130000000000E-01      7.253662000000000E+00      7.291260000000000E-01     -5.385937000000000E+01
4839000000.000000      8.668213000000000E-01      1.659219000000000E+02      4.878998000000000E-01      1.010898000000000E+02      4.465485000000000E-01      7.061279000000000E+00      7.223511000000000E-01     -5.423828000000000E+01
4840000000.000000      8.599548000000000E-01      1.658516000000000E+02      4.859467000000000E-01      1.004648000000000E+02      4.472961000000000E-01      6.643799000000000E+00      7.148132000000000E-01     -5.465038000000000E+01
4841000000.000000      8.569031000000000E-01      1.658437000000000E+02      4.857330000000000E-01      9.940233000000000E+01      4.462585000000000E-01      6.269043000000000E+00      7.080688000000000E-01     -5.512109000000000E+01
4842000000.000000      8.553162000000000E-01      1.657422000000000E+02      4.864807000000000E-01      9.852734000000000E+01      4.463043000000000E-01      5.957275000000000E+00      7.020264000000000E-01     -5.546484000000000E+01
4843000000.000000      8.508301000000000E-01      1.658594000000000E+02      4.837036000000000E-01      9.789452000000000E+01      4.467010000000000E-01      5.633057000000000E+00      6.938477000000000E-01     -5.582617000000000E+01
4844000000.000000      8.470764000000000E-01      1.657422000000000E+02      4.841156000000000E-01      9.713671000000000E+01      4.446411000000000E-01      5.208740000000000E+00      6.867676000000000E-01     -5.615820000000000E+01
4845000000.000000      8.422241000000000E-01      1.657734000000000E+02      4.815674000000000E-01      9.652344000000000E+01      4.452209000000000E-01      4.804932000000000E+00      6.788330000000000E-01     -5.645898000000000E+01
4846000000.000000      8.388062000000000E-01      1.658047000000000E+02      4.810944000000000E-01      9.562500000000000E+01      4.462585000000000E-01      4.458984000000000E+00      6.708374000000000E-01     -5.687304000000000E+01
4847000000.000000      8.373413000000000E-01      1.658828000000000E+02      4.795685000000000E-01      9.504686000000000E+01      4.463806000000000E-01      4.052490000000000E+00      6.639709000000000E-01     -5.728125000000000E+01
4848000000.000000      8.315735000000000E-01      1.657266000000000E+02      4.773865000000000E-01      9.430859000000000E+01      4.439087000000000E-01      3.692749000000000E+00      6.549683000000000E-01     -5.758203000000000E+01
4849000000.000000      8.273315000000000E-01      1.655781000000000E+02      4.761505000000000E-01      9.342577000000000E+01      4.448547000000000E-01      3.310913000000000E+00      6.472473000000000E-01     -5.785156000000000E+01
4850000000.000000      8.233337000000000E-01      1.657187000000000E+02      4.737091000000000E-01      9.284765000000000E+01      4.441376000000000E-01      2.878418000000000E+00      6.392212000000000E-01     -5.809179000000000E+01
4851000000.000000      8.201294000000000E-01      1.657656000000000E+02      4.714966000000000E-01      9.201172000000000E+01      4.429321000000000E-01      2.447144000000000E+00      6.330261000000000E-01     -5.838867000000000E+01
4852000000.000000      8.173218000000000E-01      1.656719000000000E+02      4.711761000000000E-01      9.131250000000000E+01      4.430389000000000E-01      2.106567000000000E+00      6.241455000000000E-01     -5.866992000000000E+01
4853000000.000000      8.144531000000000E-01      1.656797000000000E+02      4.664764000000000E-01      9.083593000000000E+01      4.428406000000000E-01      1.527100000000000E+00      6.170349000000000E-01     -5.902538000000000E+01
4854000000.000000      8.097534000000000E-01      1.656406000000000E+02      4.649353000000000E-01      8.967968000000000E+01      4.420624000000000E-01      1.138428000000000E+00      6.091614000000000E-01     -5.916992000000000E+01
4855000000.000000      8.055725000000000E-01      1.656328000000000E+02      4.621582000000000E-01      8.927343000000000E+01      4.414825000000000E-01      8.871460000000000E-01      5.997009000000000E-01     -5.929101000000000E+01
4856000000.000000      8.037109000000000E-01      1.656172000000000E+02      4.605103000000000E-01      8.860546000000000E+01      4.414673000000000E-01      3.488159000000000E-01      5.924377000000000E-01     -5.963867000000000E+01
4857000000.000000      7.987671000000000E-01      1.656797000000000E+02      4.579163000000000E-01      8.787889000000000E+01      4.404449000000000E-01     -8.102417000000000E-02      5.844727000000000E-01     -5.979492000000000E+01
4858000000.000000      7.930603000000000E-01      1.655234000000000E+02      4.560242000000000E-01      8.717188000000000E+01      4.395905000000000E-01     -6.578064000000000E-01      5.762024000000000E-01     -6.001367000000000E+01
4859000000.000000      7.918701000000000E-01      1.655469000000000E+02      4.526978000000000E-01      8.691015000000000E+01      4.398956000000000E-01     -1.098633000000000E+00      5.680847000000000E-01     -6.012500000000000E+01
4860000000.000000      7.879639000000000E-01      1.656094000000000E+02      4.523315000000000E-01      8.592968000000000E+01      4.378052000000000E-01     -1.498291000000000E+00      5.594482000000000E-01     -6.017187000000000E+01
4861000000.000000      7.844543000000000E-01      1.656094000000000E+02      4.462280000000000E-01      8.509766000000000E+01      4.361725000000000E-01     -1.958313000000000E+00      5.509033000000000E-01     -6.034765000000000E+01
4862000000.000000      7.807922000000000E-01      1.656016000000000E+02      4.444885000000000E-01      8.462891000000000E+01      4.374695000000000E-01     -2.375854000000000E+00      5.444946000000000E-01     -6.041406000000000E+01
4863000000.000000      7.759399000000000E-01      1.654609000000000E+02      4.406128000000000E-01      8.388672000000000E+01      4.362640000000000E-01     -3.111938000000000E+00      5.356750000000000E-01     -6.040625000000000E+01
4864000000.000000      7.726440000000000E-01      1.654687000000000E+02      4.392853000000000E-01      8.337891000000000E+01      4.347992000000000E-01     -3.350830000000000E+00      5.265198000000000E-01     -6.041016000000000E+01
4865000000.000000      7.697449000000000E-01      1.652344000000000E+02      4.354553000000000E-01      8.287109000000000E+01      4.323273000000000E-01     -3.944092000000000E+00      5.195923000000000E-01     -6.032421000000000E+01
4866000000.000000      7.660828000000000E-01      1.653359000000000E+02      4.321594000000000E-01      8.203905000000000E+01      4.316254000000000E-01     -4.553955000000000E+00      5.109558000000000E-01     -6.025781000000000E+01
4867000000.000000      7.617493000000000E-01      1.653437000000000E+02      4.306335000000000E-01      8.163280000000000E+01      4.308624000000000E-01     -5.105957000000000E+00      5.019531000000000E-01     -6.003515000000000E+01
4868000000.000000      7.608948000000000E-01      1.652578000000000E+02      4.275970000000000E-01      8.104296000000000E+01      4.304047000000000E-01     -5.574219000000000E+00      4.944000000000000E-01     -5.991796000000000E+01
4869000000.000000      7.549744000000000E-01      1.652500000000000E+02      4.229126000000000E-01      8.043749000000000E+01      4.281921000000000E-01     -6.127686000000000E+00      4.867401000000000E-01     -5.985937000000000E+01
4870000000.000000      7.537231000000000E-01      1.652656000000000E+02      4.219513000000000E-01      8.007421000000000E+01      4.255066000000000E-01     -6.634521000000000E+00      4.795227000000000E-01     -5.948632000000000E+01
4871000000.000000      7.504578000000000E-01      1.651406000000000E+02      4.184265000000000E-01      7.934375000000000E+01      4.247894000000000E-01     -7.218018000000000E+00      4.707031000000000E-01     -5.930469000000000E+01
4872000000.000000      7.474060000000000E-01      1.652969000000000E+02      4.140472000000000E-01      7.885937000000000E+01      4.234314000000000E-01     -7.941895000000000E+00      4.637756000000000E-01     -5.895702000000000E+01
4873000000.000000      7.453918000000000E-01      1.652031000000000E+02      4.112549000000000E-01      7.828906000000000E+01      4.203491000000000E-01     -8.305664000000000E+00      4.550323000000000E-01     -5.859570000000000E+01
4874000000.000000      7.402039000000000E-01      1.651250000000000E+02      4.075165000000000E-01      7.751562000000000E+01      4.196625000000000E-01     -8.929199000000000E+00      4.482117000000000E-01     -5.809179000000000E+01
4875000000.000000      7.396851000000000E-01      1.651016000000000E+02      4.056702000000000E-01      7.705078000000000E+01      4.182281000000000E-01     -9.462402000000000E+00      4.405518000000000E-01     -5.765234000000000E+01
4876000000.000000      7.357788000000000E-01      1.652109000000000E+02      4.040375000000000E-01      7.644921000000000E+01      4.145355000000000E-01     -1.013379000000000E+01      4.343872000000000E-01     -5.727734000000000E+01
4877000000.000000      7.332153000000000E-01      1.652891000000000E+02      3.992462000000000E-01      7.601563000000000E+01      4.127502000000000E-01     -1.085205000000000E+01      4.268036000000000E-01     -5.656640000000000E+01
4878000000.000000      7.314453000000000E-01      1.651875000000000E+02      3.960876000000000E-01      7.529297000000000E+01      4.099731000000000E-01     -1.116357000000000E+01      4.196625000000000E-01     -5.602929000000000E+01
4879000000.000000      7.297058000000000E-01      1.651719000000000E+02      3.927155000000000E-01      7.466797000000000E+01      4.084015000000000E-01     -1.185596000000000E+01      4.136963000000000E-01     -5.518555000000000E+01
4880000000.000000      7.292786000000000E-01      1.649922000000000E+02      3.893280000000000E-01      7.414063000000000E+01      4.051514000000000E-01     -1.242871000000000E+01      4.077454000000000E-01     -5.446484000000000E+01
4881000000.000000      7.262573000000000E-01      1.649531000000000E+02      3.871155000000000E-01      7.371094000000000E+01      4.035187000000000E-01     -1.310010000000000E+01      4.013519000000000E-01     -5.359570000000000E+01
4882000000.000000      7.243652000000000E-01      1.651875000000000E+02      3.838959000000000E-01      7.299999000000000E+01      4.013519000000000E-01     -1.360010000000000E+01      3.954468000000000E-01     -5.270508000000000E+01
