! Network Analyzer HP8722D
! Hewlett-Packard
! Data name: Linha & Wilkinson
! Saver's name: Rodrigo Anjos
! Comments: Teste da utilização de aquisição
continua pelo VNA HP8722D
! Time and date: 6/5/2025 14:19
!              Frequency                     S11                                                   S21                                                   S12                                                   S22
# HZ  S  MA R 50
4800000000.000000      4.973145000000000E-01     -1.682422000000000E+02      2.522430000000000E-01     -1.984863000000000E+01      2.493973000000000E-01     -1.410625000000000E+02      6.480103000000000E-01     -8.028906000000000E+01
4801000000.000000      4.985809000000000E-01     -1.683672000000000E+02      2.566681000000000E-01     -1.995898000000000E+01      2.526093000000000E-01     -1.410312000000000E+02      6.469116000000000E-01     -8.007030000000000E+01
4802000000.000000      4.996338000000000E-01     -1.684453000000000E+02      2.602844000000000E-01     -2.020996000000000E+01      2.566681000000000E-01     -1.410703000000000E+02      6.453857000000000E-01     -7.981640000000000E+01
4803000000.000000      5.012512000000000E-01     -1.684531000000000E+02      2.651978000000000E-01     -2.043750000000000E+01      2.595978000000000E-01     -1.410859000000000E+02      6.448364000000000E-01     -7.962891000000000E+01
4804000000.000000      5.038757000000000E-01     -1.684297000000000E+02      2.687225000000000E-01     -2.072656000000000E+01      2.639618000000000E-01     -1.412500000000000E+02      6.442261000000000E-01     -7.942187000000000E+01
4805000000.000000      5.062866000000000E-01     -1.684922000000000E+02      2.729645000000000E-01     -2.099902000000000E+01      2.673798000000000E-01     -1.413281000000000E+02      6.440125000000000E-01     -7.931250000000000E+01
4806000000.000000      5.074768000000000E-01     -1.684219000000000E+02      2.770081000000000E-01     -2.123730000000000E+01      2.699890000000000E-01     -1.412500000000000E+02      6.439819000000000E-01     -7.916797000000000E+01
4807000000.000000      5.110474000000000E-01     -1.685156000000000E+02      2.812958000000000E-01     -2.164258000000000E+01      2.745361000000000E-01     -1.415937000000000E+02      6.430359000000000E-01     -7.888672000000000E+01
4808000000.000000      5.133057000000000E-01     -1.684062000000000E+02      2.857819000000000E-01     -2.188672000000000E+01      2.779236000000000E-01     -1.416328000000000E+02      6.428223000000000E-01     -7.855859000000000E+01
4809000000.000000      5.158081000000000E-01     -1.684297000000000E+02      2.892456000000000E-01     -2.244922000000000E+01      2.821045000000000E-01     -1.417734000000000E+02      6.434937000000000E-01     -7.844531000000000E+01
4810000000.000000      5.188293000000000E-01     -1.684844000000000E+02      2.931976000000000E-01     -2.259570000000000E+01      2.848511000000000E-01     -1.419453000000000E+02      6.445007000000000E-01     -7.834374000000000E+01
4811000000.000000      5.216980000000000E-01     -1.684219000000000E+02      2.969360000000000E-01     -2.298828000000000E+01      2.890015000000000E-01     -1.420547000000000E+02      6.442261000000000E-01     -7.801562000000000E+01
4812000000.000000      5.264587000000000E-01     -1.682969000000000E+02      3.005066000000000E-01     -2.349902000000000E+01      2.920990000000000E-01     -1.420547000000000E+02      6.453857000000000E-01     -7.780078000000000E+01
4813000000.000000      5.285034000000000E-01     -1.683047000000000E+02      3.044434000000000E-01     -2.377344000000000E+01      2.946777000000000E-01     -1.422422000000000E+02      6.453552000000000E-01     -7.752734000000000E+01
4814000000.000000      5.310669000000000E-01     -1.683984000000000E+02      3.079529000000000E-01     -2.424219000000000E+01      2.986755000000000E-01     -1.425000000000000E+02      6.455994000000000E-01     -7.752343000000000E+01
4815000000.000000      5.350647000000000E-01     -1.681719000000000E+02      3.113556000000000E-01     -2.463769000000000E+01      3.011169000000000E-01     -1.425937000000000E+02      6.476746000000000E-01     -7.719921000000000E+01
4816000000.000000      5.398560000000000E-01     -1.680859000000000E+02      3.157654000000000E-01     -2.507031000000000E+01      3.055878000000000E-01     -1.426172000000000E+02      6.486206000000000E-01     -7.702734000000000E+01
4817000000.000000      5.441895000000000E-01     -1.680078000000000E+02      3.188324000000000E-01     -2.550683000000000E+01      3.078918000000000E-01     -1.430078000000000E+02      6.494751000000000E-01     -7.696875000000000E+01
4818000000.000000      5.474548000000000E-01     -1.680312000000000E+02      3.221283000000000E-01     -2.584765000000000E+01      3.111115000000000E-01     -1.430391000000000E+02      6.505432000000000E-01     -7.670312000000000E+01
4819000000.000000      5.525818000000000E-01     -1.679688000000000E+02      3.255920000000000E-01     -2.635839000000000E+01      3.141327000000000E-01     -1.433359000000000E+02      6.535339000000000E-01     -7.659765000000000E+01
4820000000.000000      5.551453000000000E-01     -1.678359000000000E+02      3.284912000000000E-01     -2.679980000000000E+01      3.173218000000000E-01     -1.434141000000000E+02      6.549988000000000E-01     -7.639843000000000E+01
4821000000.000000      5.616455000000000E-01     -1.677500000000000E+02      3.326569000000000E-01     -2.730273000000000E+01      3.201599000000000E-01     -1.437578000000000E+02      6.551819000000000E-01     -7.630468000000000E+01
4822000000.000000      5.681458000000000E-01     -1.676953000000000E+02      3.356171000000000E-01     -2.781933000000000E+01      3.225098000000000E-01     -1.440078000000000E+02      6.589355000000000E-01     -7.605078000000000E+01
4823000000.000000      5.715332000000000E-01     -1.676094000000000E+02      3.382263000000000E-01     -2.827929000000000E+01      3.249512000000000E-01     -1.439453000000000E+02      6.602783000000000E-01     -7.610546000000000E+01
4824000000.000000      5.785828000000000E-01     -1.675547000000000E+02      3.418121000000000E-01     -2.883301000000000E+01      3.285522000000000E-01     -1.443047000000000E+02      6.637878000000000E-01     -7.582421000000000E+01
4825000000.000000      5.819397000000000E-01     -1.674297000000000E+02      3.445740000000000E-01     -2.923633000000000E+01      3.313751000000000E-01     -1.444766000000000E+02      6.663513000000000E-01     -7.567577000000000E+01
4826000000.000000      5.888062000000000E-01     -1.673047000000000E+02      3.479462000000000E-01     -2.980078000000000E+01      3.330994000000000E-01     -1.446719000000000E+02      6.684875000000000E-01     -7.567968000000000E+01
4827000000.000000      5.946960000000000E-01     -1.672031000000000E+02      3.509521000000000E-01     -3.015527000000000E+01      3.357086000000000E-01     -1.447969000000000E+02      6.701965000000000E-01     -7.550781000000000E+01
4828000000.000000      6.007385000000000E-01     -1.671562000000000E+02      3.533936000000000E-01     -3.074414000000000E+01      3.391113000000000E-01     -1.450938000000000E+02      6.749878000000000E-01     -7.543359000000000E+01
4829000000.000000      6.040039000000000E-01     -1.669844000000000E+02      3.549805000000000E-01     -3.143750000000000E+01      3.416138000000000E-01     -1.452031000000000E+02      6.773682000000000E-01     -7.519140000000000E+01
4830000000.000000      6.118774000000000E-01     -1.669922000000000E+02      3.577271000000000E-01     -3.191211000000000E+01      3.436584000000000E-01     -1.454375000000000E+02      6.799622000000000E-01     -7.521874000000000E+01
4831000000.000000      6.159973000000000E-01     -1.668828000000000E+02      3.607941000000000E-01     -3.256250000000000E+01      3.467407000000000E-01     -1.454922000000000E+02      6.840820000000000E-01     -7.520702000000000E+01
4832000000.000000      6.246948000000000E-01     -1.667656000000000E+02      3.638763000000000E-01     -3.293554000000000E+01      3.482666000000000E-01     -1.457266000000000E+02      6.868896000000000E-01     -7.503906000000000E+01
4833000000.000000      6.311951000000000E-01     -1.667422000000000E+02      3.654938000000000E-01     -3.355273000000000E+01      3.509064000000000E-01     -1.460312000000000E+02      6.903076000000000E-01     -7.506249000000000E+01
4834000000.000000      6.374512000000000E-01     -1.666484000000000E+02      3.679962000000000E-01     -3.395898000000000E+01      3.533783000000000E-01     -1.462500000000000E+02      6.924438000000000E-01     -7.494922000000000E+01
4835000000.000000      6.430359000000000E-01     -1.665781000000000E+02      3.703461000000000E-01     -3.461719000000000E+01      3.552399000000000E-01     -1.463594000000000E+02      6.971436000000000E-01     -7.488281000000000E+01
4836000000.000000      6.520996000000000E-01     -1.664609000000000E+02      3.720856000000000E-01     -3.513476000000000E+01      3.580017000000000E-01     -1.465547000000000E+02      6.997375000000000E-01     -7.475780000000000E+01
4837000000.000000      6.580811000000000E-01     -1.663359000000000E+02      3.737946000000000E-01     -3.594727000000000E+01      3.592529000000000E-01     -1.468437000000000E+02      7.039795000000000E-01     -7.474999000000000E+01
4838000000.000000      6.659851000000000E-01     -1.664141000000000E+02      3.768005000000000E-01     -3.627734000000000E+01      3.616791000000000E-01     -1.469531000000000E+02      7.082214000000000E-01     -7.476171000000000E+01
4839000000.000000      6.731262000000000E-01     -1.662188000000000E+02      3.771362000000000E-01     -3.673633000000000E+01      3.643951000000000E-01     -1.471016000000000E+02      7.121277000000000E-01     -7.464844000000000E+01
4840000000.000000      6.781921000000000E-01     -1.662734000000000E+02      3.787842000000000E-01     -3.725195000000000E+01      3.662872000000000E-01     -1.472969000000000E+02      7.154541000000000E-01     -7.463281000000000E+01
4841000000.000000      6.861572000000000E-01     -1.663125000000000E+02      3.806305000000000E-01     -3.809765000000000E+01      3.686218000000000E-01     -1.475703000000000E+02      7.200012000000000E-01     -7.457812000000000E+01
4842000000.000000      6.939087000000000E-01     -1.662031000000000E+02      3.820801000000000E-01     -3.845312000000000E+01      3.696594000000000E-01     -1.477734000000000E+02      7.249146000000000E-01     -7.453515000000000E+01
4843000000.000000      7.003784000000000E-01     -1.662031000000000E+02      3.828735000000000E-01     -3.915430000000000E+01      3.720856000000000E-01     -1.479297000000000E+02      7.288208000000000E-01     -7.463281000000000E+01
4844000000.000000      7.063904000000000E-01     -1.661016000000000E+02      3.847656000000000E-01     -3.951367000000000E+01      3.725433000000000E-01     -1.481484000000000E+02      7.327271000000000E-01     -7.453906000000000E+01
4845000000.000000      7.135315000000000E-01     -1.660000000000000E+02      3.854675000000000E-01     -4.006249000000000E+01      3.750305000000000E-01     -1.483047000000000E+02      7.371826000000000E-01     -7.455078000000000E+01
4846000000.000000      7.208252000000000E-01     -1.659531000000000E+02      3.870544000000000E-01     -4.059179000000000E+01      3.766022000000000E-01     -1.484297000000000E+02      7.413940000000000E-01     -7.446875000000000E+01
4847000000.000000      7.293396000000000E-01     -1.659688000000000E+02      3.872375000000000E-01     -4.134179000000000E+01      3.793488000000000E-01     -1.487109000000000E+02      7.475281000000000E-01     -7.462109000000000E+01
4848000000.000000      7.355042000000000E-01     -1.659453000000000E+02      3.874817000000000E-01     -4.164453000000000E+01      3.806000000000000E-01     -1.489141000000000E+02      7.507629000000000E-01     -7.456640000000000E+01
4849000000.000000      7.432861000000000E-01     -1.661797000000000E+02      3.890228000000000E-01     -4.256249000000000E+01      3.813171000000000E-01     -1.490859000000000E+02      7.554932000000000E-01     -7.457031000000000E+01
4850000000.000000      7.500000000000000E-01     -1.659453000000000E+02      3.898468000000000E-01     -4.283984000000000E+01      3.831329000000000E-01     -1.492266000000000E+02      7.598572000000000E-01     -7.455078000000000E+01
4851000000.000000      7.567139000000000E-01     -1.659219000000000E+02      3.902130000000000E-01     -4.351171000000000E+01      3.844910000000000E-01     -1.494297000000000E+02      7.652893000000000E-01     -7.461719000000000E+01
4852000000.000000      7.649231000000000E-01     -1.659609000000000E+02      3.900604000000000E-01     -4.408984000000000E+01      3.858795000000000E-01     -1.495391000000000E+02      7.697754000000000E-01     -7.463281000000000E+01
4853000000.000000      7.705078000000000E-01     -1.659453000000000E+02      3.896484000000000E-01     -4.455664000000000E+01      3.878937000000000E-01     -1.497578000000000E+02      7.757568000000000E-01     -7.476563000000000E+01
4854000000.000000      7.772522000000000E-01     -1.659765000000000E+02      3.898315000000000E-01     -4.505664000000000E+01      3.891144000000000E-01     -1.499922000000000E+02      7.799072000000000E-01     -7.476171000000000E+01
4855000000.000000      7.818298000000000E-01     -1.659609000000000E+02      3.897400000000000E-01     -4.549805000000000E+01      3.899384000000000E-01     -1.500156000000000E+02      7.822571000000000E-01     -7.474999000000000E+01
4856000000.000000      7.908020000000000E-01     -1.659297000000000E+02      3.898010000000000E-01     -4.595312000000000E+01      3.914337000000000E-01     -1.502812000000000E+02      7.890625000000000E-01     -7.476171000000000E+01
4857000000.000000      7.966003000000000E-01     -1.659688000000000E+02      3.905945000000000E-01     -4.645508000000000E+01      3.922119000000000E-01     -1.504062000000000E+02      7.933044000000000E-01     -7.478516000000000E+01
4858000000.000000      8.004150000000000E-01     -1.660234000000000E+02      3.894958000000000E-01     -4.699023000000000E+01      3.934174000000000E-01     -1.506797000000000E+02      7.974243000000000E-01     -7.496094000000000E+01
4859000000.000000      8.074036000000000E-01     -1.660391000000000E+02      3.890381000000000E-01     -4.744726000000000E+01      3.954620000000000E-01     -1.509063000000000E+02      8.042603000000000E-01     -7.503906000000000E+01
4860000000.000000      8.159485000000000E-01     -1.658750000000000E+02      3.887787000000000E-01     -4.793359000000000E+01      3.960724000000000E-01     -1.509375000000000E+02      8.081665000000000E-01     -7.507030000000000E+01
4861000000.000000      8.202515000000000E-01     -1.660000000000000E+02      3.883972000000000E-01     -4.854492000000000E+01      3.978729000000000E-01     -1.511406000000000E+02      8.117981000000000E-01     -7.517187000000000E+01
4862000000.000000      8.258667000000000E-01     -1.660547000000000E+02      3.884583000000000E-01     -4.887304000000000E+01      3.987274000000000E-01     -1.512187000000000E+02      8.191528000000000E-01     -7.503906000000000E+01
4863000000.000000      8.287964000000000E-01     -1.659531000000000E+02      3.862915000000000E-01     -4.938671000000000E+01      4.001465000000000E-01     -1.514766000000000E+02      8.226013000000000E-01     -7.512890000000000E+01
4864000000.000000      8.367004000000000E-01     -1.660469000000000E+02      3.864288000000000E-01     -4.963672000000000E+01      3.995819000000000E-01     -1.515859000000000E+02      8.276062000000000E-01     -7.539063000000000E+01
4865000000.000000      8.389587000000000E-01     -1.659609000000000E+02      3.848114000000000E-01     -5.002343000000000E+01      4.011383000000000E-01     -1.518203000000000E+02      8.324890000000000E-01     -7.527344000000000E+01
4866000000.000000      8.433533000000000E-01     -1.660859000000000E+02      3.842010000000000E-01     -5.051758000000000E+01      4.022675000000000E-01     -1.519844000000000E+02      8.368225000000000E-01     -7.531640000000000E+01
4867000000.000000      8.521423000000000E-01     -1.659844000000000E+02      3.835144000000000E-01     -5.096289000000000E+01      4.025574000000000E-01     -1.521328000000000E+02      8.429260000000000E-01     -7.546093000000000E+01
4868000000.000000      8.540649000000000E-01     -1.660781000000000E+02      3.820190000000000E-01     -5.129687000000000E+01      4.038239000000000E-01     -1.522578000000000E+02      8.467102000000000E-01     -7.562500000000000E+01
4869000000.000000      8.587952000000000E-01     -1.660234000000000E+02      3.805389000000000E-01     -5.176367000000000E+01      4.045258000000000E-01     -1.524765000000000E+02      8.520508000000000E-01     -7.571094000000000E+01
4870000000.000000      8.612366000000000E-01     -1.659453000000000E+02      3.803101000000000E-01     -5.180859000000000E+01      4.046631000000000E-01     -1.527031000000000E+02      8.566895000000000E-01     -7.573437000000000E+01
4871000000.000000      8.659058000000000E-01     -1.660547000000000E+02      3.786621000000000E-01     -5.221289000000000E+01      4.046326000000000E-01     -1.528984000000000E+02      8.615112000000000E-01     -7.596093000000000E+01
4872000000.000000      8.708801000000000E-01     -1.659531000000000E+02      3.765564000000000E-01     -5.237499000000000E+01      4.054871000000000E-01     -1.531484000000000E+02      8.673401000000000E-01     -7.604297000000000E+01
4873000000.000000      8.730164000000000E-01     -1.660078000000000E+02      3.751831000000000E-01     -5.284570000000000E+01      4.054260000000000E-01     -1.531641000000000E+02      8.702087000000000E-01     -7.610937000000000E+01
4874000000.000000      8.757019000000000E-01     -1.657969000000000E+02      3.742218000000000E-01     -5.327538000000000E+01      4.073029000000000E-01     -1.533281000000000E+02      8.755188000000000E-01     -7.601171000000000E+01
4875000000.000000      8.813477000000000E-01     -1.659688000000000E+02      3.725281000000000E-01     -5.357616000000000E+01      4.070740000000000E-01     -1.535781000000000E+02      8.785095000000000E-01     -7.635156000000000E+01
4876000000.000000      8.801880000000000E-01     -1.659219000000000E+02      3.710022000000000E-01     -5.379492000000000E+01      4.063873000000000E-01     -1.537500000000000E+02      8.826294000000000E-01     -7.642578000000000E+01
4877000000.000000      8.826294000000000E-01     -1.657578000000000E+02      3.699646000000000E-01     -5.398046000000000E+01      4.079590000000000E-01     -1.539141000000000E+02      8.879089000000000E-01     -7.653125000000000E+01
4878000000.000000      8.863831000000000E-01     -1.656563000000000E+02      3.690948000000000E-01     -5.423046000000000E+01      4.075928000000000E-01     -1.539141000000000E+02      8.927307000000000E-01     -7.667578000000000E+01
4879000000.000000      8.897095000000000E-01     -1.656328000000000E+02      3.663940000000000E-01     -5.444140000000000E+01      4.073486000000000E-01     -1.542187000000000E+02      8.955994000000000E-01     -7.676171000000000E+01
4880000000.000000      8.914795000000000E-01     -1.656094000000000E+02      3.656921000000000E-01     -5.473633000000000E+01      4.080505000000000E-01     -1.543125000000000E+02      8.987732000000000E-01     -7.685937000000000E+01
4881000000.000000      8.954468000000000E-01     -1.653984000000000E+02      3.646698000000000E-01     -5.475195000000000E+01      4.080658000000000E-01     -1.545547000000000E+02      9.038391000000000E-01     -7.701953000000000E+01
4882000000.000000      8.950195000000000E-01     -1.652656000000000E+02      3.629608000000000E-01     -5.509570000000000E+01      4.080505000000000E-01     -1.546094000000000E+02      9.066467000000000E-01     -7.720703000000000E+01
