! Network Analyzer HP8722D
! Hewlett-Packard
! Data name: Linha & Wilkinson
! Saver's name: Rodrigo Anjos
! Comments: Teste da utilização de aquisição
continua pelo VNA HP8722D
! Time and date: 6/5/2025 14:34
!              Frequency                     S11                                                   S21                                                   S12                                                   S22
# HZ  S  MA R 50
4800000000.000000      4.967804000000000E-01     -1.682500000000000E+02      2.522583000000000E-01     -1.971777000000000E+01      2.489014000000000E-01     -1.409922000000000E+02      6.477051000000000E-01     -8.039843000000000E+01
4801000000.000000      4.986572000000000E-01     -1.682891000000000E+02      2.566071000000000E-01     -1.996289000000000E+01      2.522736000000000E-01     -1.410703000000000E+02      6.473389000000000E-01     -8.003124000000000E+01
4802000000.000000      4.997559000000000E-01     -1.684219000000000E+02      2.601013000000000E-01     -1.998047000000000E+01      2.562561000000000E-01     -1.410547000000000E+02      6.444397000000000E-01     -7.975390000000000E+01
4803000000.000000      5.009766000000000E-01     -1.684453000000000E+02      2.647552000000000E-01     -2.043750000000000E+01      2.593536000000000E-01     -1.411641000000000E+02      6.449585000000000E-01     -7.963672000000000E+01
4804000000.000000      5.037537000000000E-01     -1.684062000000000E+02      2.684021000000000E-01     -2.062695000000000E+01      2.635345000000000E-01     -1.412109000000000E+02      6.446838000000000E-01     -7.938671000000000E+01
4805000000.000000      5.064392000000000E-01     -1.684766000000000E+02      2.725220000000000E-01     -2.088379000000000E+01      2.672424000000000E-01     -1.412266000000000E+02      6.438599000000000E-01     -7.930469000000000E+01
4806000000.000000      5.075684000000000E-01     -1.684687000000000E+02      2.765808000000000E-01     -2.113574000000000E+01      2.698822000000000E-01     -1.412266000000000E+02      6.445007000000000E-01     -7.905468000000000E+01
4807000000.000000      5.106506000000000E-01     -1.684844000000000E+02      2.809753000000000E-01     -2.156250000000000E+01      2.738037000000000E-01     -1.415234000000000E+02      6.434021000000000E-01     -7.889062000000000E+01
4808000000.000000      5.131531000000000E-01     -1.683906000000000E+02      2.847443000000000E-01     -2.188477000000000E+01      2.774963000000000E-01     -1.415937000000000E+02      6.428223000000000E-01     -7.859375000000000E+01
4809000000.000000      5.158081000000000E-01     -1.683984000000000E+02      2.889404000000000E-01     -2.231055000000000E+01      2.816925000000000E-01     -1.418047000000000E+02      6.432495000000000E-01     -7.841015000000000E+01
4810000000.000000      5.187683000000000E-01     -1.684531000000000E+02      2.930450000000000E-01     -2.269141000000000E+01      2.848816000000000E-01     -1.418281000000000E+02      6.443481000000000E-01     -7.827734000000000E+01
4811000000.000000      5.216064000000000E-01     -1.683594000000000E+02      2.960663000000000E-01     -2.303906000000000E+01      2.891235000000000E-01     -1.418594000000000E+02      6.440735000000000E-01     -7.789063000000000E+01
4812000000.000000      5.257568000000000E-01     -1.683125000000000E+02      3.005676000000000E-01     -2.361328000000000E+01      2.924042000000000E-01     -1.421484000000000E+02      6.445618000000000E-01     -7.783984000000000E+01
4813000000.000000      5.280762000000000E-01     -1.682109000000000E+02      3.036041000000000E-01     -2.377734000000000E+01      2.947845000000000E-01     -1.421719000000000E+02      6.456604000000000E-01     -7.762109000000000E+01
4814000000.000000      5.309753000000000E-01     -1.683516000000000E+02      3.070221000000000E-01     -2.412793000000000E+01      2.984772000000000E-01     -1.424297000000000E+02      6.458740000000000E-01     -7.741015000000000E+01
4815000000.000000      5.352173000000000E-01     -1.681875000000000E+02      3.111725000000000E-01     -2.463769000000000E+01      3.007813000000000E-01     -1.425469000000000E+02      6.466064000000000E-01     -7.719531000000000E+01
4816000000.000000      5.394897000000000E-01     -1.681094000000000E+02      3.154755000000000E-01     -2.492969000000000E+01      3.047028000000000E-01     -1.426641000000000E+02      6.476440000000000E-01     -7.707421000000000E+01
4817000000.000000      5.436401000000000E-01     -1.680234000000000E+02      3.184357000000000E-01     -2.539355000000000E+01      3.076019000000000E-01     -1.428750000000000E+02      6.488342000000000E-01     -7.691406000000000E+01
4818000000.000000      5.470886000000000E-01     -1.679688000000000E+02      3.217468000000000E-01     -2.586914000000000E+01      3.112488000000000E-01     -1.429922000000000E+02      6.511536000000000E-01     -7.672265000000000E+01
4819000000.000000      5.524292000000000E-01     -1.679297000000000E+02      3.250275000000000E-01     -2.631250000000000E+01      3.139954000000000E-01     -1.432500000000000E+02      6.537476000000000E-01     -7.660546000000000E+01
4820000000.000000      5.547791000000000E-01     -1.678047000000000E+02      3.285522000000000E-01     -2.674414000000000E+01      3.175507000000000E-01     -1.433750000000000E+02      6.550598000000000E-01     -7.646874000000000E+01
4821000000.000000      5.610046000000000E-01     -1.677344000000000E+02      3.319855000000000E-01     -2.724121000000000E+01      3.196716000000000E-01     -1.436719000000000E+02      6.561890000000000E-01     -7.630077000000000E+01
4822000000.000000      5.676575000000000E-01     -1.677109000000000E+02      3.354645000000000E-01     -2.770020000000000E+01      3.219757000000000E-01     -1.439453000000000E+02      6.589355000000000E-01     -7.612499000000000E+01
4823000000.000000      5.710144000000000E-01     -1.675547000000000E+02      3.383026000000000E-01     -2.816406000000000E+01      3.255005000000000E-01     -1.438281000000000E+02      6.600952000000000E-01     -7.596093000000000E+01
4824000000.000000      5.780945000000000E-01     -1.675234000000000E+02      3.415833000000000E-01     -2.881445000000000E+01      3.285370000000000E-01     -1.441406000000000E+02      6.636963000000000E-01     -7.586328000000000E+01
4825000000.000000      5.819397000000000E-01     -1.674297000000000E+02      3.448792000000000E-01     -2.918554000000000E+01      3.316498000000000E-01     -1.443516000000000E+02      6.665649000000000E-01     -7.571875000000000E+01
4826000000.000000      5.880737000000000E-01     -1.673516000000000E+02      3.472443000000000E-01     -2.973633000000000E+01      3.332062000000000E-01     -1.445859000000000E+02      6.674805000000000E-01     -7.563671000000000E+01
4827000000.000000      5.938416000000000E-01     -1.671641000000000E+02      3.510590000000000E-01     -3.013574000000000E+01      3.357391000000000E-01     -1.446797000000000E+02      6.702576000000000E-01     -7.549609000000000E+01
4828000000.000000      6.003418000000000E-01     -1.671172000000000E+02      3.535614000000000E-01     -3.067676000000000E+01      3.382568000000000E-01     -1.449375000000000E+02      6.756897000000000E-01     -7.542578000000000E+01
4829000000.000000      6.040649000000000E-01     -1.669297000000000E+02      3.552551000000000E-01     -3.128906000000000E+01      3.411713000000000E-01     -1.450312000000000E+02      6.769714000000000E-01     -7.523438000000000E+01
4830000000.000000      6.111755000000000E-01     -1.669609000000000E+02      3.581390000000000E-01     -3.177051000000000E+01      3.440857000000000E-01     -1.451953000000000E+02      6.795349000000000E-01     -7.515625000000000E+01
4831000000.000000      6.163940000000000E-01     -1.668359000000000E+02      3.609467000000000E-01     -3.244141000000000E+01      3.467560000000000E-01     -1.454141000000000E+02      6.834106000000000E-01     -7.513672000000000E+01
4832000000.000000      6.251831000000000E-01     -1.667266000000000E+02      3.632965000000000E-01     -3.287695000000000E+01      3.482056000000000E-01     -1.456953000000000E+02      6.854553000000000E-01     -7.502734000000000E+01
4833000000.000000      6.311951000000000E-01     -1.667031000000000E+02      3.658905000000000E-01     -3.333984000000000E+01      3.503265000000000E-01     -1.460000000000000E+02      6.890259000000000E-01     -7.496875000000000E+01
4834000000.000000      6.375732000000000E-01     -1.666094000000000E+02      3.684387000000000E-01     -3.390820000000000E+01      3.529968000000000E-01     -1.460312000000000E+02      6.921997000000000E-01     -7.497656000000000E+01
4835000000.000000      6.437073000000000E-01     -1.665078000000000E+02      3.705902000000000E-01     -3.441797000000000E+01      3.554077000000000E-01     -1.463047000000000E+02      6.964722000000000E-01     -7.488671000000000E+01
4836000000.000000      6.518250000000000E-01     -1.664609000000000E+02      3.722534000000000E-01     -3.495117000000000E+01      3.577728000000000E-01     -1.464219000000000E+02      7.001648000000000E-01     -7.476171000000000E+01
4837000000.000000      6.582031000000000E-01     -1.662500000000000E+02      3.739777000000000E-01     -3.591992000000000E+01      3.598633000000000E-01     -1.467031000000000E+02      7.035522000000000E-01     -7.469531000000000E+01
4838000000.000000      6.652832000000000E-01     -1.663281000000000E+02      3.766327000000000E-01     -3.610156000000000E+01      3.616333000000000E-01     -1.468203000000000E+02      7.073059000000000E-01     -7.471093000000000E+01
4839000000.000000      6.723328000000000E-01     -1.662344000000000E+02      3.774261000000000E-01     -3.666016000000000E+01      3.645172000000000E-01     -1.470078000000000E+02      7.120361000000000E-01     -7.460546000000000E+01
4840000000.000000      6.778259000000000E-01     -1.661953000000000E+02      3.785858000000000E-01     -3.722265000000000E+01      3.660889000000000E-01     -1.473594000000000E+02      7.157593000000000E-01     -7.465625000000000E+01
4841000000.000000      6.863403000000000E-01     -1.662344000000000E+02      3.805237000000000E-01     -3.797266000000000E+01      3.683167000000000E-01     -1.474922000000000E+02      7.196045000000000E-01     -7.469531000000000E+01
4842000000.000000      6.937866000000000E-01     -1.661016000000000E+02      3.825531000000000E-01     -3.848633000000000E+01      3.693848000000000E-01     -1.476328000000000E+02      7.249756000000000E-01     -7.456640000000000E+01
4843000000.000000      6.991882000000000E-01     -1.661484000000000E+02      3.830414000000000E-01     -3.899023000000000E+01      3.715973000000000E-01     -1.480313000000000E+02      7.283630000000000E-01     -7.444921000000000E+01
4844000000.000000      7.069702000000000E-01     -1.660703000000000E+02      3.843842000000000E-01     -3.957031000000000E+01      3.727417000000000E-01     -1.481016000000000E+02      7.326050000000000E-01     -7.454296000000000E+01
4845000000.000000      7.130737000000000E-01     -1.660078000000000E+02      3.847198000000000E-01     -4.014844000000000E+01      3.751068000000000E-01     -1.483516000000000E+02      7.362671000000000E-01     -7.448828000000000E+01
4846000000.000000      7.207947000000000E-01     -1.659141000000000E+02      3.862610000000000E-01     -4.062500000000000E+01      3.775482000000000E-01     -1.484297000000000E+02      7.418518000000000E-01     -7.452343000000000E+01
4847000000.000000      7.286987000000000E-01     -1.659375000000000E+02      3.876038000000000E-01     -4.106835000000000E+01      3.785858000000000E-01     -1.487890000000000E+02      7.469177000000000E-01     -7.457812000000000E+01
4848000000.000000      7.359009000000000E-01     -1.658594000000000E+02      3.877411000000000E-01     -4.162305000000000E+01      3.804016000000000E-01     -1.488203000000000E+02      7.500610000000000E-01     -7.450390000000000E+01
4849000000.000000      7.424622000000000E-01     -1.661406000000000E+02      3.891754000000000E-01     -4.235742000000000E+01      3.811798000000000E-01     -1.490703000000000E+02      7.540894000000000E-01     -7.445313000000000E+01
4850000000.000000      7.493286000000000E-01     -1.659297000000000E+02      3.889771000000000E-01     -4.276757000000000E+01      3.831329000000000E-01     -1.491094000000000E+02      7.599792000000000E-01     -7.447656000000000E+01
4851000000.000000      7.563782000000000E-01     -1.658594000000000E+02      3.905182000000000E-01     -4.338672000000000E+01      3.846436000000000E-01     -1.493594000000000E+02      7.656250000000000E-01     -7.454296000000000E+01
4852000000.000000      7.641907000000000E-01     -1.659453000000000E+02      3.903961000000000E-01     -4.398242000000000E+01      3.860779000000000E-01     -1.495156000000000E+02      7.697754000000000E-01     -7.462500000000000E+01
4853000000.000000      7.704773000000000E-01     -1.658594000000000E+02      3.884583000000000E-01     -4.445117000000000E+01      3.879089000000000E-01     -1.497344000000000E+02      7.731628000000000E-01     -7.473827000000000E+01
4854000000.000000      7.770691000000000E-01     -1.659375000000000E+02      3.899078000000000E-01     -4.510156000000000E+01      3.896027000000000E-01     -1.498047000000000E+02      7.786560000000000E-01     -7.472265000000000E+01
4855000000.000000      7.818604000000000E-01     -1.658828000000000E+02      3.899231000000000E-01     -4.541406000000000E+01      3.901825000000000E-01     -1.499844000000000E+02      7.815552000000000E-01     -7.469140000000000E+01
4856000000.000000      7.901917000000000E-01     -1.658203000000000E+02      3.902740000000000E-01     -4.592773000000000E+01      3.910522000000000E-01     -1.501797000000000E+02      7.886963000000000E-01     -7.476171000000000E+01
4857000000.000000      7.954407000000000E-01     -1.659062000000000E+02      3.904877000000000E-01     -4.638867000000000E+01      3.927155000000000E-01     -1.503281000000000E+02      7.917480000000000E-01     -7.479687000000000E+01
4858000000.000000      7.994385000000000E-01     -1.660000000000000E+02      3.895416000000000E-01     -4.687500000000000E+01      3.932953000000000E-01     -1.505391000000000E+02      7.969666000000000E-01     -7.494922000000000E+01
4859000000.000000      8.063354000000000E-01     -1.659765000000000E+02      3.896332000000000E-01     -4.737305000000000E+01      3.951416000000000E-01     -1.508125000000000E+02      8.034363000000000E-01     -7.500390000000000E+01
4860000000.000000      8.146057000000000E-01     -1.658437000000000E+02      3.882446000000000E-01     -4.785156000000000E+01      3.961792000000000E-01     -1.509219000000000E+02      8.073425000000000E-01     -7.494141000000000E+01
4861000000.000000      8.188171000000000E-01     -1.658594000000000E+02      3.881531000000000E-01     -4.832617000000000E+01      3.971252000000000E-01     -1.510469000000000E+02      8.132935000000000E-01     -7.514453000000000E+01
4862000000.000000      8.241272000000000E-01     -1.659922000000000E+02      3.879700000000000E-01     -4.880273000000000E+01      3.990631000000000E-01     -1.512422000000000E+02      8.184814000000000E-01     -7.503124000000000E+01
4863000000.000000      8.282471000000000E-01     -1.659844000000000E+02      3.864594000000000E-01     -4.931641000000000E+01      3.998871000000000E-01     -1.513359000000000E+02      8.229675000000000E-01     -7.518359000000000E+01
4864000000.000000      8.342896000000000E-01     -1.659141000000000E+02      3.857727000000000E-01     -4.953320000000000E+01      3.996429000000000E-01     -1.515469000000000E+02      8.269958000000000E-01     -7.524219000000000E+01
4865000000.000000      8.388367000000000E-01     -1.659297000000000E+02      3.847198000000000E-01     -4.993359000000000E+01      4.010773000000000E-01     -1.517344000000000E+02      8.331604000000000E-01     -7.528125000000000E+01
4866000000.000000      8.430786000000000E-01     -1.659765000000000E+02      3.825531000000000E-01     -5.037695000000000E+01      4.016418000000000E-01     -1.518672000000000E+02      8.370667000000000E-01     -7.534374000000000E+01
4867000000.000000      8.489075000000000E-01     -1.659219000000000E+02      3.833160000000000E-01     -5.091406000000000E+01      4.022217000000000E-01     -1.520781000000000E+02      8.423462000000000E-01     -7.544140000000000E+01
4868000000.000000      8.546448000000000E-01     -1.659531000000000E+02      3.819427000000000E-01     -5.126367000000000E+01      4.038391000000000E-01     -1.522344000000000E+02      8.467712000000000E-01     -7.555859000000000E+01
4869000000.000000      8.562927000000000E-01     -1.658906000000000E+02      3.810120000000000E-01     -5.167578000000000E+01      4.041443000000000E-01     -1.524765000000000E+02      8.516235000000000E-01     -7.572656000000000E+01
4870000000.000000      8.620300000000000E-01     -1.658672000000000E+02      3.789063000000000E-01     -5.170898000000000E+01      4.046783000000000E-01     -1.526406000000000E+02      8.569336000000000E-01     -7.569921000000000E+01
4871000000.000000      8.648987000000000E-01     -1.659688000000000E+02      3.787994000000000E-01     -5.229687000000000E+01      4.048615000000000E-01     -1.528516000000000E+02      8.610229000000000E-01     -7.594921000000000E+01
4872000000.000000      8.713684000000000E-01     -1.659922000000000E+02      3.767090000000000E-01     -5.246094000000000E+01      4.055634000000000E-01     -1.530937000000000E+02      8.662415000000000E-01     -7.590234000000000E+01
4873000000.000000      8.724670000000000E-01     -1.658125000000000E+02      3.757019000000000E-01     -5.287499000000000E+01      4.058685000000000E-01     -1.531250000000000E+02      8.686829000000000E-01     -7.612890000000000E+01
4874000000.000000      8.733521000000000E-01     -1.658359000000000E+02      3.737030000000000E-01     -5.326757000000000E+01      4.069672000000000E-01     -1.532344000000000E+02      8.748779000000000E-01     -7.596874000000000E+01
4875000000.000000      8.790588000000000E-01     -1.658047000000000E+02      3.720398000000000E-01     -5.338672000000000E+01      4.071198000000000E-01     -1.535703000000000E+02      8.779297000000000E-01     -7.625781000000000E+01
4876000000.000000      8.807068000000000E-01     -1.656797000000000E+02      3.714600000000000E-01     -5.381249000000000E+01      4.064636000000000E-01     -1.536719000000000E+02      8.828125000000000E-01     -7.641796000000000E+01
4877000000.000000      8.846130000000000E-01     -1.656328000000000E+02      3.705597000000000E-01     -5.392773000000000E+01      4.076691000000000E-01     -1.538828000000000E+02      8.871155000000000E-01     -7.657421000000000E+01
4878000000.000000      8.860779000000000E-01     -1.656250000000000E+02      3.692780000000000E-01     -5.427734000000000E+01      4.075317000000000E-01     -1.539297000000000E+02      8.910522000000000E-01     -7.670703000000000E+01
4879000000.000000      8.882751000000000E-01     -1.656641000000000E+02      3.677673000000000E-01     -5.440820000000000E+01      4.075317000000000E-01     -1.541250000000000E+02      8.954773000000000E-01     -7.664453000000000E+01
4880000000.000000      8.906555000000000E-01     -1.655859000000000E+02      3.656769000000000E-01     -5.464062000000000E+01      4.083710000000000E-01     -1.542266000000000E+02      9.002075000000000E-01     -7.675781000000000E+01
4881000000.000000      8.937378000000000E-01     -1.655000000000000E+02      3.649597000000000E-01     -5.471484000000000E+01      4.082642000000000E-01     -1.544609000000000E+02      9.031372000000000E-01     -7.698047000000000E+01
4882000000.000000      8.932800000000000E-01     -1.653672000000000E+02      3.637085000000000E-01     -5.499023000000000E+01      4.084625000000000E-01     -1.545156000000000E+02      9.057617000000000E-01     -7.708593000000000E+01
