! Network Analyzer HP8722D
! Hewlett-Packard
! Data name: Linha & Wilkinson
! Saver's name: Rodrigo Anjos
! Comments: Teste da utilização de aquisição
continua pelo VNA HP8722D
! Time and date: 6/5/2025 15:55
!              Frequency                     S11                                                   S21                                                   S12                                                   S22
# HZ  S  MA R 50
4800000000.000000      4.963531000000000E-01     -1.681015000000000E+02      2.509308000000000E-01     -1.950488000000000E+01      2.477798000000000E-01     -1.405937000000000E+02      6.477661000000000E-01     -8.031641000000000E+01
4801000000.000000      4.975281000000000E-01     -1.681953000000000E+02      2.549438000000000E-01     -1.966601000000000E+01      2.511444000000000E-01     -1.408125000000000E+02      6.469116000000000E-01     -8.003906000000000E+01
4802000000.000000      4.988708000000000E-01     -1.683125000000000E+02      2.590179000000000E-01     -1.983887000000000E+01      2.553406000000000E-01     -1.407344000000000E+02      6.450195000000000E-01     -7.987109000000000E+01
4803000000.000000      5.001221000000000E-01     -1.683516000000000E+02      2.636261000000000E-01     -2.009277000000000E+01      2.584534000000000E-01     -1.407734000000000E+02      6.450500000000000E-01     -7.969140000000000E+01
4804000000.000000      5.025940000000000E-01     -1.682891000000000E+02      2.676392000000000E-01     -2.028711000000000E+01      2.619324000000000E-01     -1.408984000000000E+02      6.441650000000000E-01     -7.941015000000000E+01
4805000000.000000      5.050049000000000E-01     -1.683359000000000E+02      2.714996000000000E-01     -2.073535000000000E+01      2.662811000000000E-01     -1.408828000000000E+02      6.436768000000000E-01     -7.934375000000000E+01
4806000000.000000      5.060120000000000E-01     -1.683359000000000E+02      2.755127000000000E-01     -2.092090000000000E+01      2.691345000000000E-01     -1.408828000000000E+02      6.432800000000000E-01     -7.914844000000000E+01
4807000000.000000      5.097961000000000E-01     -1.683203000000000E+02      2.800140000000000E-01     -2.136621000000000E+01      2.730103000000000E-01     -1.412969000000000E+02      6.431580000000000E-01     -7.885547000000000E+01
4808000000.000000      5.124817000000000E-01     -1.682500000000000E+02      2.840424000000000E-01     -2.151074000000000E+01      2.767334000000000E-01     -1.412422000000000E+02      6.427917000000000E-01     -7.857422000000000E+01
4809000000.000000      5.147095000000000E-01     -1.683203000000000E+02      2.875977000000000E-01     -2.208984000000000E+01      2.807007000000000E-01     -1.414844000000000E+02      6.419983000000000E-01     -7.845703000000000E+01
4810000000.000000      5.177612000000000E-01     -1.683281000000000E+02      2.915039000000000E-01     -2.224609000000000E+01      2.838593000000000E-01     -1.414687000000000E+02      6.431580000000000E-01     -7.829296000000000E+01
4811000000.000000      5.205688000000000E-01     -1.682500000000000E+02      2.958984000000000E-01     -2.282324000000000E+01      2.882843000000000E-01     -1.417500000000000E+02      6.430664000000000E-01     -7.798828000000000E+01
4812000000.000000      5.248108000000000E-01     -1.681406000000000E+02      2.993317000000000E-01     -2.313867000000000E+01      2.913361000000000E-01     -1.417266000000000E+02      6.434021000000000E-01     -7.781640000000000E+01
4813000000.000000      5.272827000000000E-01     -1.681328000000000E+02      3.032532000000000E-01     -2.347461000000000E+01      2.941589000000000E-01     -1.418750000000000E+02      6.448975000000000E-01     -7.748828000000000E+01
4814000000.000000      5.299072000000000E-01     -1.682266000000000E+02      3.069305000000000E-01     -2.394922000000000E+01      2.976227000000000E-01     -1.420703000000000E+02      6.455688000000000E-01     -7.748047000000000E+01
4815000000.000000      5.339661000000000E-01     -1.680312000000000E+02      3.100739000000000E-01     -2.426074000000000E+01      3.005066000000000E-01     -1.421719000000000E+02      6.463013000000000E-01     -7.710938000000000E+01
4816000000.000000      5.383911000000000E-01     -1.679766000000000E+02      3.143921000000000E-01     -2.462207000000000E+01      3.048401000000000E-01     -1.423359000000000E+02      6.470337000000000E-01     -7.704687000000000E+01
4817000000.000000      5.426941000000000E-01     -1.678750000000000E+02      3.173523000000000E-01     -2.522461000000000E+01      3.071136000000000E-01     -1.425234000000000E+02      6.480713000000000E-01     -7.686328000000000E+01
4818000000.000000      5.461121000000000E-01     -1.678672000000000E+02      3.209076000000000E-01     -2.556152000000000E+01      3.106995000000000E-01     -1.427500000000000E+02      6.504822000000000E-01     -7.676562000000000E+01
4819000000.000000      5.512695000000000E-01     -1.677969000000000E+02      3.241730000000000E-01     -2.597949000000000E+01      3.132019000000000E-01     -1.429219000000000E+02      6.526489000000000E-01     -7.660156000000000E+01
4820000000.000000      5.541077000000000E-01     -1.677109000000000E+02      3.278046000000000E-01     -2.640429000000000E+01      3.167572000000000E-01     -1.430391000000000E+02      6.537781000000000E-01     -7.637890000000000E+01
4821000000.000000      5.593262000000000E-01     -1.676172000000000E+02      3.305969000000000E-01     -2.694433000000000E+01      3.192139000000000E-01     -1.432969000000000E+02      6.546631000000000E-01     -7.636328000000000E+01
4822000000.000000      5.662842000000000E-01     -1.675469000000000E+02      3.341980000000000E-01     -2.736914000000000E+01      3.216705000000000E-01     -1.434844000000000E+02      6.576233000000000E-01     -7.617188000000000E+01
4823000000.000000      5.697327000000000E-01     -1.674375000000000E+02      3.376007000000000E-01     -2.785351000000000E+01      3.248444000000000E-01     -1.434687000000000E+02      6.602173000000000E-01     -7.600780000000000E+01
4824000000.000000      5.766602000000000E-01     -1.673750000000000E+02      3.411713000000000E-01     -2.848828000000000E+01      3.280334000000000E-01     -1.439141000000000E+02      6.632996000000000E-01     -7.577343000000000E+01
4825000000.000000      5.805054000000000E-01     -1.672812000000000E+02      3.436890000000000E-01     -2.882421000000000E+01      3.309631000000000E-01     -1.440703000000000E+02      6.659241000000000E-01     -7.570313000000000E+01
4826000000.000000      5.871277000000000E-01     -1.671641000000000E+02      3.465118000000000E-01     -2.929394000000000E+01      3.323364000000000E-01     -1.441797000000000E+02      6.680908000000000E-01     -7.561718000000000E+01
4827000000.000000      5.924683000000000E-01     -1.670312000000000E+02      3.494415000000000E-01     -2.980664000000000E+01      3.358612000000000E-01     -1.443672000000000E+02      6.703186000000000E-01     -7.541797000000000E+01
4828000000.000000      5.992737000000000E-01     -1.669297000000000E+02      3.528290000000000E-01     -3.037598000000000E+01      3.380890000000000E-01     -1.445859000000000E+02      6.739807000000000E-01     -7.541797000000000E+01
4829000000.000000      6.026611000000000E-01     -1.668594000000000E+02      3.544464000000000E-01     -3.094336000000000E+01      3.414459000000000E-01     -1.447422000000000E+02      6.772156000000000E-01     -7.526172000000000E+01
4830000000.000000      6.097717000000000E-01     -1.667656000000000E+02      3.575745000000000E-01     -3.152148000000000E+01      3.433838000000000E-01     -1.449453000000000E+02      6.786804000000000E-01     -7.516015000000000E+01
4831000000.000000      6.156311000000000E-01     -1.666484000000000E+02      3.601837000000000E-01     -3.204883000000000E+01      3.460541000000000E-01     -1.451641000000000E+02      6.826782000000000E-01     -7.510156000000000E+01
4832000000.000000      6.234436000000000E-01     -1.665859000000000E+02      3.627777000000000E-01     -3.256054000000000E+01      3.478241000000000E-01     -1.454062000000000E+02      6.854553000000000E-01     -7.502734000000000E+01
4833000000.000000      6.297607000000000E-01     -1.666484000000000E+02      3.650360000000000E-01     -3.308594000000000E+01      3.509521000000000E-01     -1.456094000000000E+02      6.881714000000000E-01     -7.480469000000000E+01
4834000000.000000      6.354980000000000E-01     -1.664844000000000E+02      3.670959000000000E-01     -3.362109000000000E+01      3.521881000000000E-01     -1.458125000000000E+02      6.913757000000000E-01     -7.489843000000000E+01
4835000000.000000      6.414185000000000E-01     -1.663594000000000E+02      3.695679000000000E-01     -3.412500000000000E+01      3.554535000000000E-01     -1.459141000000000E+02      6.961670000000000E-01     -7.487499000000000E+01
4836000000.000000      6.501465000000000E-01     -1.663047000000000E+02      3.720551000000000E-01     -3.473828000000000E+01      3.580170000000000E-01     -1.461016000000000E+02      6.996155000000000E-01     -7.472656000000000E+01
4837000000.000000      6.569519000000000E-01     -1.661406000000000E+02      3.738251000000000E-01     -3.537304000000000E+01      3.589783000000000E-01     -1.464609000000000E+02      7.039185000000000E-01     -7.467187000000000E+01
4838000000.000000      6.636353000000000E-01     -1.662188000000000E+02      3.760071000000000E-01     -3.592578000000000E+01      3.614349000000000E-01     -1.465156000000000E+02      7.068481000000000E-01     -7.459765000000000E+01
4839000000.000000      6.712036000000000E-01     -1.660234000000000E+02      3.764954000000000E-01     -3.633789000000000E+01      3.635712000000000E-01     -1.466953000000000E+02      7.109680000000000E-01     -7.452343000000000E+01
4840000000.000000      6.764221000000000E-01     -1.660781000000000E+02      3.778687000000000E-01     -3.697461000000000E+01      3.656769000000000E-01     -1.469844000000000E+02      7.149048000000000E-01     -7.457812000000000E+01
4841000000.000000      6.846313000000000E-01     -1.660547000000000E+02      3.812561000000000E-01     -3.759180000000000E+01      3.687744000000000E-01     -1.471797000000000E+02      7.198792000000000E-01     -7.446875000000000E+01
4842000000.000000      6.915283000000000E-01     -1.659219000000000E+02      3.823090000000000E-01     -3.813672000000000E+01      3.695679000000000E-01     -1.473594000000000E+02      7.236938000000000E-01     -7.445313000000000E+01
4843000000.000000      6.980591000000000E-01     -1.659922000000000E+02      3.829193000000000E-01     -3.880078000000000E+01      3.709717000000000E-01     -1.475156000000000E+02      7.271118000000000E-01     -7.442187000000000E+01
4844000000.000000      7.049561000000000E-01     -1.658750000000000E+02      3.843842000000000E-01     -3.925000000000000E+01      3.730774000000000E-01     -1.477266000000000E+02      7.317200000000000E-01     -7.445313000000000E+01
4845000000.000000      7.114868000000000E-01     -1.657891000000000E+02      3.852844000000000E-01     -3.982422000000000E+01      3.755646000000000E-01     -1.479453000000000E+02      7.355652000000000E-01     -7.442187000000000E+01
4846000000.000000      7.196350000000000E-01     -1.657734000000000E+02      3.857422000000000E-01     -4.024610000000000E+01      3.778687000000000E-01     -1.481094000000000E+02      7.412109000000000E-01     -7.441015000000000E+01
4847000000.000000      7.274170000000000E-01     -1.657422000000000E+02      3.868103000000000E-01     -4.086133000000000E+01      3.791046000000000E-01     -1.483438000000000E+02      7.454529000000000E-01     -7.447656000000000E+01
4848000000.000000      7.337952000000000E-01     -1.657734000000000E+02      3.870239000000000E-01     -4.135156000000000E+01      3.801880000000000E-01     -1.485312000000000E+02      7.495728000000000E-01     -7.445703000000000E+01
4849000000.000000      7.412415000000000E-01     -1.659531000000000E+02      3.887482000000000E-01     -4.218359000000000E+01      3.820190000000000E-01     -1.486719000000000E+02      7.542419000000000E-01     -7.442968000000000E+01
4850000000.000000      7.484436000000000E-01     -1.657578000000000E+02      3.892059000000000E-01     -4.249413000000000E+01      3.836823000000000E-01     -1.487578000000000E+02      7.587280000000000E-01     -7.438671000000000E+01
4851000000.000000      7.557068000000000E-01     -1.657344000000000E+02      3.901672000000000E-01     -4.312304000000000E+01      3.848724000000000E-01     -1.489844000000000E+02      7.644653000000000E-01     -7.441406000000000E+01
4852000000.000000      7.616882000000000E-01     -1.656875000000000E+02      3.904114000000000E-01     -4.367188000000000E+01      3.869934000000000E-01     -1.491406000000000E+02      7.686768000000000E-01     -7.451953000000000E+01
4853000000.000000      7.691956000000000E-01     -1.656797000000000E+02      3.899078000000000E-01     -4.399219000000000E+01      3.879242000000000E-01     -1.494844000000000E+02      7.734375000000000E-01     -7.467578000000000E+01
4854000000.000000      7.757874000000000E-01     -1.657266000000000E+02      3.902893000000000E-01     -4.485352000000000E+01      3.893433000000000E-01     -1.496484000000000E+02      7.781982000000000E-01     -7.454296000000000E+01
4855000000.000000      7.805786000000000E-01     -1.657266000000000E+02      3.895111000000000E-01     -4.502149000000000E+01      3.907318000000000E-01     -1.497422000000000E+02      7.823792000000000E-01     -7.452343000000000E+01
4856000000.000000      7.884521000000000E-01     -1.656328000000000E+02      3.902435000000000E-01     -4.573047000000000E+01      3.917389000000000E-01     -1.499063000000000E+02      7.875061000000000E-01     -7.461719000000000E+01
4857000000.000000      7.953186000000000E-01     -1.656875000000000E+02      3.905334000000000E-01     -4.624023000000000E+01      3.931580000000000E-01     -1.500156000000000E+02      7.929382000000000E-01     -7.470703000000000E+01
4858000000.000000      7.989502000000000E-01     -1.657969000000000E+02      3.892365000000000E-01     -4.665625000000000E+01      3.936157000000000E-01     -1.503438000000000E+02      7.969971000000000E-01     -7.480078000000000E+01
4859000000.000000      8.058472000000000E-01     -1.658437000000000E+02      3.892517000000000E-01     -4.711719000000000E+01      3.952026000000000E-01     -1.504844000000000E+02      8.036194000000000E-01     -7.489843000000000E+01
4860000000.000000      8.138428000000000E-01     -1.656641000000000E+02      3.900757000000000E-01     -4.746094000000000E+01      3.966980000000000E-01     -1.505391000000000E+02      8.066406000000000E-01     -7.480078000000000E+01
4861000000.000000      8.175964000000000E-01     -1.655703000000000E+02      3.881073000000000E-01     -4.800976000000000E+01      3.979645000000000E-01     -1.507969000000000E+02      8.114929000000000E-01     -7.496094000000000E+01
4862000000.000000      8.226318000000000E-01     -1.656406000000000E+02      3.876343000000000E-01     -4.839257000000000E+01      3.994293000000000E-01     -1.509609000000000E+02      8.183594000000000E-01     -7.496094000000000E+01
4863000000.000000      8.282776000000000E-01     -1.656484000000000E+02      3.856964000000000E-01     -4.903906000000000E+01      4.006653000000000E-01     -1.510625000000000E+02      8.222351000000000E-01     -7.497656000000000E+01
4864000000.000000      8.348389000000000E-01     -1.656094000000000E+02      3.865509000000000E-01     -4.932226000000000E+01      4.003906000000000E-01     -1.512969000000000E+02      8.277893000000000E-01     -7.509375000000000E+01
4865000000.000000      8.374939000000000E-01     -1.659062000000000E+02      3.851624000000000E-01     -4.973633000000000E+01      4.015045000000000E-01     -1.514766000000000E+02      8.321838000000000E-01     -7.514062000000000E+01
4866000000.000000      8.434143000000000E-01     -1.656953000000000E+02      3.835602000000000E-01     -5.013085000000000E+01      4.027252000000000E-01     -1.515625000000000E+02      8.367920000000000E-01     -7.519140000000000E+01
4867000000.000000      8.483276000000000E-01     -1.656953000000000E+02      3.834229000000000E-01     -5.062109000000000E+01      4.032898000000000E-01     -1.517187000000000E+02      8.421021000000000E-01     -7.529687000000000E+01
4868000000.000000      8.544006000000000E-01     -1.659219000000000E+02      3.827515000000000E-01     -5.096874000000000E+01      4.046021000000000E-01     -1.518984000000000E+02      8.465271000000000E-01     -7.545312000000000E+01
4869000000.000000      8.563232000000000E-01     -1.658437000000000E+02      3.807220000000000E-01     -5.123632000000000E+01      4.048157000000000E-01     -1.521641000000000E+02      8.526306000000000E-01     -7.554296000000000E+01
4870000000.000000      8.585815000000000E-01     -1.657500000000000E+02      3.789673000000000E-01     -5.147070000000000E+01      4.053802000000000E-01     -1.523906000000000E+02      8.561401000000000E-01     -7.555078000000000E+01
4871000000.000000      8.656006000000000E-01     -1.658203000000000E+02      3.782806000000000E-01     -5.201366000000000E+01      4.054871000000000E-01     -1.525234000000000E+02      8.608093000000000E-01     -7.566796000000000E+01
4872000000.000000      8.693848000000000E-01     -1.658047000000000E+02      3.767395000000000E-01     -5.221680000000000E+01      4.060059000000000E-01     -1.528125000000000E+02      8.645935000000000E-01     -7.585155000000000E+01
4873000000.000000      8.692322000000000E-01     -1.655313000000000E+02      3.757935000000000E-01     -5.263476000000000E+01      4.062195000000000E-01     -1.527969000000000E+02      8.692322000000000E-01     -7.591015000000000E+01
4874000000.000000      8.740234000000000E-01     -1.656016000000000E+02      3.744812000000000E-01     -5.296484000000000E+01      4.075928000000000E-01     -1.529609000000000E+02      8.731995000000000E-01     -7.577734000000000E+01
4875000000.000000      8.800354000000000E-01     -1.656406000000000E+02      3.724518000000000E-01     -5.319336000000000E+01      4.076996000000000E-01     -1.533047000000000E+02      8.782349000000000E-01     -7.618359000000000E+01
4876000000.000000      8.787231000000000E-01     -1.656563000000000E+02      3.717651000000000E-01     -5.353320000000000E+01      4.071045000000000E-01     -1.533672000000000E+02      8.822327000000000E-01     -7.632813000000000E+01
4877000000.000000      8.816833000000000E-01     -1.655234000000000E+02      3.702698000000000E-01     -5.361718000000000E+01      4.081573000000000E-01     -1.535859000000000E+02      8.861694000000000E-01     -7.653125000000000E+01
4878000000.000000      8.867798000000000E-01     -1.655000000000000E+02      3.691864000000000E-01     -5.388281000000000E+01      4.083557000000000E-01     -1.536562000000000E+02      8.916321000000000E-01     -7.646093000000000E+01
4879000000.000000      8.889771000000000E-01     -1.653594000000000E+02      3.667908000000000E-01     -5.401172000000000E+01      4.081421000000000E-01     -1.538750000000000E+02      8.950500000000000E-01     -7.648828000000000E+01
4880000000.000000      8.894043000000000E-01     -1.652891000000000E+02      3.665619000000000E-01     -5.432617000000000E+01      4.089050000000000E-01     -1.539609000000000E+02      8.985291000000000E-01     -7.659765000000000E+01
4881000000.000000      8.934326000000000E-01     -1.651250000000000E+02      3.652802000000000E-01     -5.439062000000000E+01      4.093323000000000E-01     -1.542031000000000E+02      9.017029000000000E-01     -7.681250000000000E+01
4882000000.000000      8.927612000000000E-01     -1.650312000000000E+02      3.631744000000000E-01     -5.478320000000000E+01      4.091034000000000E-01     -1.542187000000000E+02      9.062500000000000E-01     -7.681641000000000E+01
