! Network Analyzer HP8722D
! Hewlett-Packard
! Data name: Linha & Wilkinson
! Saver's name: Rodrigo Anjos
! Comments: Teste da utilização de aquisição
continua pelo VNA HP8722D
! Time and date: 6/5/2025 14:29
!              Frequency                     S11                                                   S21                                                   S12                                                   S22
# HZ  S  MA R 50
4800000000.000000      4.970398000000000E-01     -1.682422000000000E+02      2.524719000000000E-01     -1.972363000000000E+01      2.492371000000000E-01     -1.409453000000000E+02      6.476746000000000E-01     -8.030859000000000E+01
4801000000.000000      4.983215000000000E-01     -1.683203000000000E+02      2.564697000000000E-01     -1.990625000000000E+01      2.525940000000000E-01     -1.410781000000000E+02      6.469421000000000E-01     -8.010937000000000E+01
4802000000.000000      4.993286000000000E-01     -1.684219000000000E+02      2.604065000000000E-01     -2.016992000000000E+01      2.565460000000000E-01     -1.410312000000000E+02      6.453857000000000E-01     -7.973827000000000E+01
4803000000.000000      5.010986000000000E-01     -1.684609000000000E+02      2.649384000000000E-01     -2.040918000000000E+01      2.597046000000000E-01     -1.410703000000000E+02      6.445618000000000E-01     -7.967187000000000E+01
4804000000.000000      5.032654000000000E-01     -1.683672000000000E+02      2.687988000000000E-01     -2.069629000000000E+01      2.634125000000000E-01     -1.412656000000000E+02      6.448975000000000E-01     -7.944921000000000E+01
4805000000.000000      5.062866000000000E-01     -1.685234000000000E+02      2.730560000000000E-01     -2.111914000000000E+01      2.674255000000000E-01     -1.413125000000000E+02      6.444397000000000E-01     -7.925390000000000E+01
4806000000.000000      5.077209000000000E-01     -1.684297000000000E+02      2.767487000000000E-01     -2.130859000000000E+01      2.702789000000000E-01     -1.412500000000000E+02      6.449585000000000E-01     -7.908984000000000E+01
4807000000.000000      5.107727000000000E-01     -1.684844000000000E+02      2.808838000000000E-01     -2.168164000000000E+01      2.740784000000000E-01     -1.414844000000000E+02      6.430969000000000E-01     -7.880859000000000E+01
4808000000.000000      5.132751000000000E-01     -1.684297000000000E+02      2.854462000000000E-01     -2.178223000000000E+01      2.770996000000000E-01     -1.416641000000000E+02      6.431580000000000E-01     -7.859765000000000E+01
4809000000.000000      5.154419000000000E-01     -1.683750000000000E+02      2.893372000000000E-01     -2.237695000000000E+01      2.815857000000000E-01     -1.418203000000000E+02      6.444397000000000E-01     -7.852734000000000E+01
4810000000.000000      5.186157000000000E-01     -1.684375000000000E+02      2.926636000000000E-01     -2.273242000000000E+01      2.850342000000000E-01     -1.418281000000000E+02      6.442261000000000E-01     -7.826562000000000E+01
4811000000.000000      5.216370000000000E-01     -1.683437000000000E+02      2.968445000000000E-01     -2.309473000000000E+01      2.889252000000000E-01     -1.420391000000000E+02      6.441040000000000E-01     -7.785937000000000E+01
4812000000.000000      5.253601000000000E-01     -1.683516000000000E+02      3.000031000000000E-01     -2.347461000000000E+01      2.916565000000000E-01     -1.421250000000000E+02      6.446533000000000E-01     -7.785937000000000E+01
4813000000.000000      5.285034000000000E-01     -1.682109000000000E+02      3.039703000000000E-01     -2.378418000000000E+01      2.949982000000000E-01     -1.421406000000000E+02      6.449890000000000E-01     -7.755859000000000E+01
4814000000.000000      5.310364000000000E-01     -1.683906000000000E+02      3.077850000000000E-01     -2.432422000000000E+01      2.983551000000000E-01     -1.424141000000000E+02      6.455688000000000E-01     -7.739843000000000E+01
4815000000.000000      5.345459000000000E-01     -1.681875000000000E+02      3.108673000000000E-01     -2.465918000000000E+01      3.014679000000000E-01     -1.426016000000000E+02      6.463013000000000E-01     -7.710938000000000E+01
4816000000.000000      5.394287000000000E-01     -1.680938000000000E+02      3.153381000000000E-01     -2.493945000000000E+01      3.054810000000000E-01     -1.426563000000000E+02      6.483765000000000E-01     -7.707031000000000E+01
4817000000.000000      5.437012000000000E-01     -1.680391000000000E+02      3.185577000000000E-01     -2.553027000000000E+01      3.075714000000000E-01     -1.428672000000000E+02      6.491089000000000E-01     -7.688671000000000E+01
4818000000.000000      5.476379000000000E-01     -1.680156000000000E+02      3.215027000000000E-01     -2.590332000000000E+01      3.114929000000000E-01     -1.430078000000000E+02      6.507263000000000E-01     -7.673437000000000E+01
4819000000.000000      5.528564000000000E-01     -1.679141000000000E+02      3.247986000000000E-01     -2.629492000000000E+01      3.127136000000000E-01     -1.432188000000000E+02      6.531372000000000E-01     -7.666406000000000E+01
4820000000.000000      5.552979000000000E-01     -1.678594000000000E+02      3.287964000000000E-01     -2.674023000000000E+01      3.172913000000000E-01     -1.433750000000000E+02      6.536255000000000E-01     -7.641015000000000E+01
4821000000.000000      5.612183000000000E-01     -1.677578000000000E+02      3.325195000000000E-01     -2.733301000000000E+01      3.197937000000000E-01     -1.437578000000000E+02      6.554871000000000E-01     -7.635547000000000E+01
4822000000.000000      5.673523000000000E-01     -1.677422000000000E+02      3.352966000000000E-01     -2.778320000000000E+01      3.222351000000000E-01     -1.439062000000000E+02      6.582947000000000E-01     -7.609375000000000E+01
4823000000.000000      5.708313000000000E-01     -1.675781000000000E+02      3.388214000000000E-01     -2.818066000000000E+01      3.251801000000000E-01     -1.437891000000000E+02      6.599121000000000E-01     -7.601953000000000E+01
4824000000.000000      5.783081000000000E-01     -1.675547000000000E+02      3.415527000000000E-01     -2.873535000000000E+01      3.285675000000000E-01     -1.442422000000000E+02      6.632080000000000E-01     -7.575781000000000E+01
4825000000.000000      5.820007000000000E-01     -1.674766000000000E+02      3.442383000000000E-01     -2.916601000000000E+01      3.315887000000000E-01     -1.443594000000000E+02      6.656799000000000E-01     -7.567577000000000E+01
4826000000.000000      5.883484000000000E-01     -1.673047000000000E+02      3.474884000000000E-01     -2.983105000000000E+01      3.335724000000000E-01     -1.446406000000000E+02      6.687927000000000E-01     -7.572656000000000E+01
4827000000.000000      5.940247000000000E-01     -1.671875000000000E+02      3.502808000000000E-01     -3.012109000000000E+01      3.358459000000000E-01     -1.446875000000000E+02      6.714478000000000E-01     -7.550390000000000E+01
4828000000.000000      6.007996000000000E-01     -1.671484000000000E+02      3.530579000000000E-01     -3.076660000000000E+01      3.384399000000000E-01     -1.450156000000000E+02      6.748047000000000E-01     -7.535156000000000E+01
4829000000.000000      6.040649000000000E-01     -1.670078000000000E+02      3.554840000000000E-01     -3.133203000000000E+01      3.416443000000000E-01     -1.451016000000000E+02      6.767883000000000E-01     -7.528125000000000E+01
4830000000.000000      6.118774000000000E-01     -1.669297000000000E+02      3.577576000000000E-01     -3.186328000000000E+01      3.437347000000000E-01     -1.453047000000000E+02      6.795959000000000E-01     -7.523438000000000E+01
4831000000.000000      6.163635000000000E-01     -1.668672000000000E+02      3.607178000000000E-01     -3.239648000000000E+01      3.462677000000000E-01     -1.455391000000000E+02      6.840515000000000E-01     -7.514062000000000E+01
4832000000.000000      6.247559000000000E-01     -1.667578000000000E+02      3.635559000000000E-01     -3.297461000000000E+01      3.484955000000000E-01     -1.457344000000000E+02      6.865234000000000E-01     -7.505077000000000E+01
4833000000.000000      6.314392000000000E-01     -1.667734000000000E+02      3.661804000000000E-01     -3.361133000000000E+01      3.506775000000000E-01     -1.459219000000000E+02      6.895142000000000E-01     -7.499609000000000E+01
4834000000.000000      6.380920000000000E-01     -1.666563000000000E+02      3.674011000000000E-01     -3.400976000000000E+01      3.533325000000000E-01     -1.461797000000000E+02      6.927185000000000E-01     -7.493359000000000E+01
4835000000.000000      6.437073000000000E-01     -1.665859000000000E+02      3.699951000000000E-01     -3.464258000000000E+01      3.561096000000000E-01     -1.463047000000000E+02      6.975403000000000E-01     -7.491015000000000E+01
4836000000.000000      6.515808000000000E-01     -1.664375000000000E+02      3.722229000000000E-01     -3.516602000000000E+01      3.570251000000000E-01     -1.465547000000000E+02      7.008057000000000E-01     -7.475780000000000E+01
4837000000.000000      6.584473000000000E-01     -1.662969000000000E+02      3.740997000000000E-01     -3.582422000000000E+01      3.601074000000000E-01     -1.467734000000000E+02      7.047119000000000E-01     -7.477734000000000E+01
4838000000.000000      6.653442000000000E-01     -1.664375000000000E+02      3.761597000000000E-01     -3.622265000000000E+01      3.619080000000000E-01     -1.469453000000000E+02      7.082825000000000E-01     -7.460938000000000E+01
4839000000.000000      6.730957000000000E-01     -1.662109000000000E+02      3.766479000000000E-01     -3.680273000000000E+01      3.639679000000000E-01     -1.470937000000000E+02      7.121887000000000E-01     -7.458984000000000E+01
4840000000.000000      6.772461000000000E-01     -1.662656000000000E+02      3.785400000000000E-01     -3.729101000000000E+01      3.662720000000000E-01     -1.473828000000000E+02      7.163696000000000E-01     -7.464844000000000E+01
4841000000.000000      6.857300000000000E-01     -1.662656000000000E+02      3.807068000000000E-01     -3.800195000000000E+01      3.680878000000000E-01     -1.476328000000000E+02      7.197266000000000E-01     -7.459374000000000E+01
4842000000.000000      6.929932000000000E-01     -1.661484000000000E+02      3.827057000000000E-01     -3.840820000000000E+01      3.694916000000000E-01     -1.478125000000000E+02      7.244263000000000E-01     -7.457812000000000E+01
4843000000.000000      6.996155000000000E-01     -1.661406000000000E+02      3.834076000000000E-01     -3.906641000000000E+01      3.715210000000000E-01     -1.478516000000000E+02      7.283630000000000E-01     -7.456640000000000E+01
4844000000.000000      7.059937000000000E-01     -1.660859000000000E+02      3.840637000000000E-01     -3.962695000000000E+01      3.726044000000000E-01     -1.481719000000000E+02      7.330627000000000E-01     -7.459765000000000E+01
4845000000.000000      7.136230000000000E-01     -1.660234000000000E+02      3.852997000000000E-01     -4.013281000000000E+01      3.744354000000000E-01     -1.483125000000000E+02      7.369690000000000E-01     -7.446875000000000E+01
4846000000.000000      7.208557000000000E-01     -1.659062000000000E+02      3.864288000000000E-01     -4.075391000000000E+01      3.771057000000000E-01     -1.484062000000000E+02      7.418518000000000E-01     -7.455468000000000E+01
4847000000.000000      7.280884000000000E-01     -1.659844000000000E+02      3.871155000000000E-01     -4.122266000000000E+01      3.787994000000000E-01     -1.487266000000000E+02      7.473755000000000E-01     -7.459765000000000E+01
4848000000.000000      7.363892000000000E-01     -1.659453000000000E+02      3.877411000000000E-01     -4.155078000000000E+01      3.799438000000000E-01     -1.488437000000000E+02      7.506714000000000E-01     -7.460938000000000E+01
4849000000.000000      7.434998000000000E-01     -1.661797000000000E+02      3.883972000000000E-01     -4.243945000000000E+01      3.817596000000000E-01     -1.489766000000000E+02      7.550049000000000E-01     -7.456249000000000E+01
4850000000.000000      7.505493000000000E-01     -1.659375000000000E+02      3.896484000000000E-01     -4.284570000000000E+01      3.833466000000000E-01     -1.491562000000000E+02      7.591553000000000E-01     -7.463672000000000E+01
4851000000.000000      7.565308000000000E-01     -1.659375000000000E+02      3.898163000000000E-01     -4.336719000000000E+01      3.846130000000000E-01     -1.493281000000000E+02      7.653503000000000E-01     -7.454296000000000E+01
4852000000.000000      7.639465000000000E-01     -1.658984000000000E+02      3.901825000000000E-01     -4.399610000000000E+01      3.866882000000000E-01     -1.495078000000000E+02      7.693176000000000E-01     -7.455078000000000E+01
4853000000.000000      7.717896000000000E-01     -1.659141000000000E+02      3.895264000000000E-01     -4.430664000000000E+01      3.882904000000000E-01     -1.496953000000000E+02      7.755127000000000E-01     -7.474218000000000E+01
4854000000.000000      7.770081000000000E-01     -1.659375000000000E+02      3.896484000000000E-01     -4.515821000000000E+01      3.891754000000000E-01     -1.499219000000000E+02      7.797241000000000E-01     -7.466406000000000E+01
4855000000.000000      7.818604000000000E-01     -1.659141000000000E+02      3.897400000000000E-01     -4.551953000000000E+01      3.903656000000000E-01     -1.500625000000000E+02      7.828674000000000E-01     -7.467968000000000E+01
4856000000.000000      7.908630000000000E-01     -1.658906000000000E+02      3.898621000000000E-01     -4.587110000000000E+01      3.915558000000000E-01     -1.502578000000000E+02      7.883911000000000E-01     -7.479687000000000E+01
4857000000.000000      7.954712000000000E-01     -1.659375000000000E+02      3.900757000000000E-01     -4.645898000000000E+01      3.925934000000000E-01     -1.503515000000000E+02      7.929688000000000E-01     -7.479687000000000E+01
4858000000.000000      8.000488000000000E-01     -1.660234000000000E+02      3.895874000000000E-01     -4.689062000000000E+01      3.936310000000000E-01     -1.506016000000000E+02      7.983398000000000E-01     -7.485937000000000E+01
4859000000.000000      8.063965000000000E-01     -1.659062000000000E+02      3.893127000000000E-01     -4.742969000000000E+01      3.949280000000000E-01     -1.508672000000000E+02      8.047791000000000E-01     -7.502343000000000E+01
4860000000.000000      8.147888000000000E-01     -1.659453000000000E+02      3.890839000000000E-01     -4.786914000000000E+01      3.957977000000000E-01     -1.509140000000000E+02      8.071289000000000E-01     -7.490624000000000E+01
4861000000.000000      8.199158000000000E-01     -1.659375000000000E+02      3.885193000000000E-01     -4.848633000000000E+01      3.976288000000000E-01     -1.510781000000000E+02      8.119202000000000E-01     -7.513672000000000E+01
4862000000.000000      8.244019000000000E-01     -1.659688000000000E+02      3.879089000000000E-01     -4.865624000000000E+01      3.988190000000000E-01     -1.511953000000000E+02      8.184204000000000E-01     -7.505859000000000E+01
4863000000.000000      8.286438000000000E-01     -1.659765000000000E+02      3.865509000000000E-01     -4.937304000000000E+01      3.999634000000000E-01     -1.513672000000000E+02      8.231506000000000E-01     -7.516406000000000E+01
4864000000.000000      8.341370000000000E-01     -1.659219000000000E+02      3.858948000000000E-01     -4.961328000000000E+01      4.000702000000000E-01     -1.515391000000000E+02      8.271790000000000E-01     -7.522655000000000E+01
4865000000.000000      8.403015000000000E-01     -1.661484000000000E+02      3.851624000000000E-01     -4.997265000000000E+01      4.010315000000000E-01     -1.517187000000000E+02      8.325195000000000E-01     -7.515625000000000E+01
4866000000.000000      8.440552000000000E-01     -1.658594000000000E+02      3.830414000000000E-01     -5.048242000000000E+01      4.019318000000000E-01     -1.519375000000000E+02      8.372803000000000E-01     -7.533203000000000E+01
4867000000.000000      8.483276000000000E-01     -1.659141000000000E+02      3.837585000000000E-01     -5.085938000000000E+01      4.028473000000000E-01     -1.521172000000000E+02      8.438721000000000E-01     -7.539453000000000E+01
4868000000.000000      8.535767000000000E-01     -1.661641000000000E+02      3.823242000000000E-01     -5.129687000000000E+01      4.041443000000000E-01     -1.522422000000000E+02      8.473511000000000E-01     -7.551171000000000E+01
4869000000.000000      8.572388000000000E-01     -1.658906000000000E+02      3.801727000000000E-01     -5.167187000000000E+01      4.044189000000000E-01     -1.524844000000000E+02      8.524170000000000E-01     -7.578125000000000E+01
4870000000.000000      8.603210000000000E-01     -1.659688000000000E+02      3.805542000000000E-01     -5.169531000000000E+01      4.050598000000000E-01     -1.526484000000000E+02      8.562317000000000E-01     -7.563281000000000E+01
4871000000.000000      8.666992000000000E-01     -1.660625000000000E+02      3.784027000000000E-01     -5.224023000000000E+01      4.049225000000000E-01     -1.528672000000000E+02      8.604736000000000E-01     -7.594531000000000E+01
4872000000.000000      8.713379000000000E-01     -1.659141000000000E+02      3.761292000000000E-01     -5.247070000000000E+01      4.057770000000000E-01     -1.530859000000000E+02      8.665161000000000E-01     -7.597656000000000E+01
4873000000.000000      8.718567000000000E-01     -1.658828000000000E+02      3.751831000000000E-01     -5.292578000000000E+01      4.058990000000000E-01     -1.531484000000000E+02      8.688965000000000E-01     -7.605078000000000E+01
4874000000.000000      8.758240000000000E-01     -1.657656000000000E+02      3.739471000000000E-01     -5.321679000000000E+01      4.069214000000000E-01     -1.533047000000000E+02      8.738403000000000E-01     -7.607812000000000E+01
4875000000.000000      8.791199000000000E-01     -1.658437000000000E+02      3.728790000000000E-01     -5.339648000000000E+01      4.071655000000000E-01     -1.535703000000000E+02      8.784790000000000E-01     -7.628906000000000E+01
4876000000.000000      8.803406000000000E-01     -1.658047000000000E+02      3.710327000000000E-01     -5.375390000000000E+01      4.062500000000000E-01     -1.537109000000000E+02      8.835754000000000E-01     -7.645702000000000E+01
4877000000.000000      8.835144000000000E-01     -1.657344000000000E+02      3.697052000000000E-01     -5.391406000000000E+01      4.077148000000000E-01     -1.538984000000000E+02      8.875427000000000E-01     -7.652344000000000E+01
4878000000.000000      8.858948000000000E-01     -1.656250000000000E+02      3.692932000000000E-01     -5.411718000000000E+01      4.078369000000000E-01     -1.539609000000000E+02      8.906555000000000E-01     -7.671875000000000E+01
4879000000.000000      8.905029000000000E-01     -1.655313000000000E+02      3.661804000000000E-01     -5.449609000000000E+01      4.075623000000000E-01     -1.541172000000000E+02      8.953247000000000E-01     -7.672265000000000E+01
4880000000.000000      8.912354000000000E-01     -1.655000000000000E+02      3.653412000000000E-01     -5.461328000000000E+01      4.078979000000000E-01     -1.542656000000000E+02      8.995056000000000E-01     -7.676171000000000E+01
4881000000.000000      8.947754000000000E-01     -1.654375000000000E+02      3.646240000000000E-01     -5.469531000000000E+01      4.084778000000000E-01     -1.545156000000000E+02      9.038391000000000E-01     -7.696094000000000E+01
4882000000.000000      8.929138000000000E-01     -1.654140000000000E+02      3.628693000000000E-01     -5.496094000000000E+01      4.084167000000000E-01     -1.545625000000000E+02      9.066467000000000E-01     -7.711719000000000E+01
