! Network Analyzer HP8722D
! Hewlett-Packard
! Data name: Linha & Wilkinson
! Saver's name: Rodrigo Anjos
! Comments: Teste da utilização de aquisição
continua pelo VNA HP8722D
! Time and date: 6/5/2025 14:00
!              Frequency                     S11                                                   S21                                                   S12                                                   S22
# HZ  S  MA R 50
4800000000.000000      4.971924000000000E-01     -1.682578000000000E+02      2.528687000000000E-01     -1.980078000000000E+01      2.497406000000000E-01     -1.409844000000000E+02      6.491699000000000E-01     -8.032812000000000E+01
4801000000.000000      4.988098000000000E-01     -1.683672000000000E+02      2.571259000000000E-01     -2.013867000000000E+01      2.532959000000000E-01     -1.411172000000000E+02      6.474915000000000E-01     -8.008204000000000E+01
4802000000.000000      5.001831000000000E-01     -1.684219000000000E+02      2.607574000000000E-01     -2.018555000000000E+01      2.572174000000000E-01     -1.410469000000000E+02      6.454773000000000E-01     -7.988671000000000E+01
4803000000.000000      5.019226000000000E-01     -1.685000000000000E+02      2.654572000000000E-01     -2.055762000000000E+01      2.600098000000000E-01     -1.413047000000000E+02      6.452637000000000E-01     -7.950000000000000E+01
4804000000.000000      5.039978000000000E-01     -1.684375000000000E+02      2.692566000000000E-01     -2.068066000000000E+01      2.639618000000000E-01     -1.414531000000000E+02      6.449585000000000E-01     -7.935937000000000E+01
4805000000.000000      5.062561000000000E-01     -1.685937000000000E+02      2.733459000000000E-01     -2.106445000000000E+01      2.680359000000000E-01     -1.413750000000000E+02      6.442261000000000E-01     -7.927734000000000E+01
4806000000.000000      5.080872000000000E-01     -1.685234000000000E+02      2.769928000000000E-01     -2.140332000000000E+01      2.709961000000000E-01     -1.414141000000000E+02      6.444397000000000E-01     -7.912890000000000E+01
4807000000.000000      5.111389000000000E-01     -1.685156000000000E+02      2.809753000000000E-01     -2.167675000000000E+01      2.748718000000000E-01     -1.416094000000000E+02      6.440735000000000E-01     -7.879296000000000E+01
4808000000.000000      5.134277000000000E-01     -1.684375000000000E+02      2.862244000000000E-01     -2.197070000000000E+01      2.783508000000000E-01     -1.417813000000000E+02      6.436462000000000E-01     -7.864452000000000E+01
4809000000.000000      5.162659000000000E-01     -1.684766000000000E+02      2.896423000000000E-01     -2.248535000000000E+01      2.820435000000000E-01     -1.418828000000000E+02      6.436157000000000E-01     -7.846484000000000E+01
4810000000.000000      5.185852000000000E-01     -1.684609000000000E+02      2.929993000000000E-01     -2.268555000000000E+01      2.852325000000000E-01     -1.419766000000000E+02      6.451721000000000E-01     -7.826562000000000E+01
4811000000.000000      5.222473000000000E-01     -1.684219000000000E+02      2.974854000000000E-01     -2.317773000000000E+01      2.894440000000000E-01     -1.420625000000000E+02      6.438599000000000E-01     -7.788671000000000E+01
4812000000.000000      5.260315000000000E-01     -1.683672000000000E+02      3.010254000000000E-01     -2.360449000000000E+01      2.920990000000000E-01     -1.421953000000000E+02      6.451721000000000E-01     -7.780078000000000E+01
4813000000.000000      5.286865000000000E-01     -1.682969000000000E+02      3.040314000000000E-01     -2.397363000000000E+01      2.948456000000000E-01     -1.422891000000000E+02      6.464539000000000E-01     -7.751953000000000E+01
4814000000.000000      5.316467000000000E-01     -1.684141000000000E+02      3.078766000000000E-01     -2.432031000000000E+01      2.988129000000000E-01     -1.425547000000000E+02      6.466370000000000E-01     -7.739062000000000E+01
4815000000.000000      5.350342000000000E-01     -1.682344000000000E+02      3.110657000000000E-01     -2.469629000000000E+01      3.019867000000000E-01     -1.426797000000000E+02      6.465454000000000E-01     -7.728906000000000E+01
4816000000.000000      5.401306000000000E-01     -1.681015000000000E+02      3.157501000000000E-01     -2.502344000000000E+01      3.061371000000000E-01     -1.427969000000000E+02      6.495056000000000E-01     -7.707031000000000E+01
4817000000.000000      5.447693000000000E-01     -1.680547000000000E+02      3.193054000000000E-01     -2.560254000000000E+01      3.080750000000000E-01     -1.430078000000000E+02      6.486206000000000E-01     -7.692187000000000E+01
4818000000.000000      5.478210000000000E-01     -1.680234000000000E+02      3.222351000000000E-01     -2.606934000000000E+01      3.112488000000000E-01     -1.430859000000000E+02      6.512146000000000E-01     -7.673437000000000E+01
4819000000.000000      5.533752000000000E-01     -1.679219000000000E+02      3.250427000000000E-01     -2.645410000000000E+01      3.134308000000000E-01     -1.433047000000000E+02      6.530151000000000E-01     -7.663671000000000E+01
4820000000.000000      5.554504000000000E-01     -1.678672000000000E+02      3.289795000000000E-01     -2.680859000000000E+01      3.176117000000000E-01     -1.435469000000000E+02      6.554565000000000E-01     -7.645702000000000E+01
4821000000.000000      5.621033000000000E-01     -1.677969000000000E+02      3.325195000000000E-01     -2.736230000000000E+01      3.204498000000000E-01     -1.438203000000000E+02      6.555481000000000E-01     -7.632421000000000E+01
4822000000.000000      5.685120000000000E-01     -1.677344000000000E+02      3.358765000000000E-01     -2.784961000000000E+01      3.225098000000000E-01     -1.440312000000000E+02      6.588135000000000E-01     -7.610156000000000E+01
4823000000.000000      5.718079000000000E-01     -1.676016000000000E+02      3.379822000000000E-01     -2.839062000000000E+01      3.256989000000000E-01     -1.440312000000000E+02      6.610718000000000E-01     -7.598046000000000E+01
4824000000.000000      5.789185000000000E-01     -1.676016000000000E+02      3.415680000000000E-01     -2.888379000000000E+01      3.287811000000000E-01     -1.443594000000000E+02      6.632080000000000E-01     -7.580078000000000E+01
4825000000.000000      5.825806000000000E-01     -1.674687000000000E+02      3.444214000000000E-01     -2.930469000000000E+01      3.319397000000000E-01     -1.445625000000000E+02      6.665039000000000E-01     -7.576172000000000E+01
4826000000.000000      5.891724000000000E-01     -1.673672000000000E+02      3.479614000000000E-01     -2.982324000000000E+01      3.336945000000000E-01     -1.447578000000000E+02      6.689758000000000E-01     -7.566796000000000E+01
4827000000.000000      5.946655000000000E-01     -1.672109000000000E+02      3.509521000000000E-01     -3.032129000000000E+01      3.366852000000000E-01     -1.449297000000000E+02      6.710510000000000E-01     -7.551562000000000E+01
4828000000.000000      6.013184000000000E-01     -1.671953000000000E+02      3.540192000000000E-01     -3.088183000000000E+01      3.394470000000000E-01     -1.450234000000000E+02      6.752930000000000E-01     -7.541016000000000E+01
4829000000.000000      6.044617000000000E-01     -1.670625000000000E+02      3.558502000000000E-01     -3.134766000000000E+01      3.416443000000000E-01     -1.452734000000000E+02      6.771851000000000E-01     -7.529687000000000E+01
4830000000.000000      6.121216000000000E-01     -1.669844000000000E+02      3.586426000000000E-01     -3.197168000000000E+01      3.434448000000000E-01     -1.453750000000000E+02      6.795959000000000E-01     -7.526562000000000E+01
4831000000.000000      6.175842000000000E-01     -1.668906000000000E+02      3.608093000000000E-01     -3.248828000000000E+01      3.469238000000000E-01     -1.456328000000000E+02      6.835022000000000E-01     -7.510547000000000E+01
4832000000.000000      6.259460000000000E-01     -1.667656000000000E+02      3.630676000000000E-01     -3.306641000000000E+01      3.493958000000000E-01     -1.459453000000000E+02      6.871948000000000E-01     -7.514843000000000E+01
4833000000.000000      6.317749000000000E-01     -1.668203000000000E+02      3.662872000000000E-01     -3.352344000000000E+01      3.507690000000000E-01     -1.461641000000000E+02      6.900330000000000E-01     -7.507030000000000E+01
4834000000.000000      6.381531000000000E-01     -1.666719000000000E+02      3.684235000000000E-01     -3.417578000000000E+01      3.538666000000000E-01     -1.462188000000000E+02      6.926575000000000E-01     -7.493750000000000E+01
4835000000.000000      6.445923000000000E-01     -1.666484000000000E+02      3.700562000000000E-01     -3.456445000000000E+01      3.553619000000000E-01     -1.464688000000000E+02      6.965942000000000E-01     -7.501171000000000E+01
4836000000.000000      6.529541000000000E-01     -1.665078000000000E+02      3.717499000000000E-01     -3.513867000000000E+01      3.579254000000000E-01     -1.465703000000000E+02      7.005310000000000E-01     -7.480859000000000E+01
4837000000.000000      6.589355000000000E-01     -1.663750000000000E+02      3.739014000000000E-01     -3.608203000000000E+01      3.606110000000000E-01     -1.469297000000000E+02      7.040100000000000E-01     -7.472656000000000E+01
4838000000.000000      6.659546000000000E-01     -1.664375000000000E+02      3.762054000000000E-01     -3.633008000000000E+01      3.621521000000000E-01     -1.470391000000000E+02      7.092285000000000E-01     -7.475780000000000E+01
4839000000.000000      6.737061000000000E-01     -1.662891000000000E+02      3.772278000000000E-01     -3.690625000000000E+01      3.639832000000000E-01     -1.472188000000000E+02      7.123718000000000E-01     -7.460938000000000E+01
4840000000.000000      6.785583000000000E-01     -1.663594000000000E+02      3.784790000000000E-01     -3.743164000000000E+01      3.661346000000000E-01     -1.475156000000000E+02      7.160950000000000E-01     -7.468359000000000E+01
4841000000.000000      6.866455000000000E-01     -1.663281000000000E+02      3.807220000000000E-01     -3.822656000000000E+01      3.684235000000000E-01     -1.477187000000000E+02      7.204590000000000E-01     -7.465234000000000E+01
4842000000.000000      6.940613000000000E-01     -1.661641000000000E+02      3.821716000000000E-01     -3.861719000000000E+01      3.693237000000000E-01     -1.477969000000000E+02      7.241516000000000E-01     -7.456249000000000E+01
4843000000.000000      7.003479000000000E-01     -1.662188000000000E+02      3.836365000000000E-01     -3.926172000000000E+01      3.716431000000000E-01     -1.480313000000000E+02      7.290649000000000E-01     -7.449609000000000E+01
4844000000.000000      7.070007000000000E-01     -1.661406000000000E+02      3.843384000000000E-01     -3.967382000000000E+01      3.729248000000000E-01     -1.481953000000000E+02      7.339172000000000E-01     -7.460155000000000E+01
4845000000.000000      7.143250000000000E-01     -1.660391000000000E+02      3.859100000000000E-01     -4.017968000000000E+01      3.747253000000000E-01     -1.484297000000000E+02      7.371521000000000E-01     -7.453125000000000E+01
4846000000.000000      7.215271000000000E-01     -1.659453000000000E+02      3.868408000000000E-01     -4.081836000000000E+01      3.775635000000000E-01     -1.485547000000000E+02      7.408142000000000E-01     -7.454296000000000E+01
4847000000.000000      7.293396000000000E-01     -1.659922000000000E+02      3.866425000000000E-01     -4.137891000000000E+01      3.782959000000000E-01     -1.487656000000000E+02      7.481384000000000E-01     -7.456249000000000E+01
4848000000.000000      7.359314000000000E-01     -1.659531000000000E+02      3.883667000000000E-01     -4.162109000000000E+01      3.801727000000000E-01     -1.489297000000000E+02      7.505188000000000E-01     -7.454687000000000E+01
4849000000.000000      7.430420000000000E-01     -1.662109000000000E+02      3.890991000000000E-01     -4.256055000000000E+01      3.823853000000000E-01     -1.491719000000000E+02      7.557068000000000E-01     -7.455468000000000E+01
4850000000.000000      7.510986000000000E-01     -1.659688000000000E+02      3.891296000000000E-01     -4.293359000000000E+01      3.828583000000000E-01     -1.492656000000000E+02      7.596436000000000E-01     -7.457031000000000E+01
4851000000.000000      7.568970000000000E-01     -1.659922000000000E+02      3.905029000000000E-01     -4.363281000000000E+01      3.844299000000000E-01     -1.495469000000000E+02      7.657166000000000E-01     -7.462891000000000E+01
4852000000.000000      7.651978000000000E-01     -1.659765000000000E+02      3.900604000000000E-01     -4.412695000000000E+01      3.862152000000000E-01     -1.496094000000000E+02      7.694092000000000E-01     -7.464062000000000E+01
4853000000.000000      7.719116000000000E-01     -1.659765000000000E+02      3.891754000000000E-01     -4.453515000000000E+01      3.878937000000000E-01     -1.499063000000000E+02      7.745056000000000E-01     -7.478906000000000E+01
4854000000.000000      7.773743000000000E-01     -1.660156000000000E+02      3.908997000000000E-01     -4.526563000000000E+01      3.888702000000000E-01     -1.500625000000000E+02      7.794800000000000E-01     -7.480078000000000E+01
4855000000.000000      7.832031000000000E-01     -1.659531000000000E+02      3.899231000000000E-01     -4.556445000000000E+01      3.899689000000000E-01     -1.500625000000000E+02      7.828979000000000E-01     -7.471484000000000E+01
4856000000.000000      7.904968000000000E-01     -1.659219000000000E+02      3.898621000000000E-01     -4.603320000000000E+01      3.918610000000000E-01     -1.503359000000000E+02      7.891846000000000E-01     -7.471484000000000E+01
4857000000.000000      7.972412000000000E-01     -1.660391000000000E+02      3.898926000000000E-01     -4.657812000000000E+01      3.923950000000000E-01     -1.505469000000000E+02      7.929688000000000E-01     -7.485546000000000E+01
4858000000.000000      8.007507000000000E-01     -1.660391000000000E+02      3.895569000000000E-01     -4.706250000000000E+01      3.933563000000000E-01     -1.506875000000000E+02      7.982483000000000E-01     -7.491796000000000E+01
4859000000.000000      8.088684000000000E-01     -1.659141000000000E+02      3.892670000000000E-01     -4.760547000000000E+01      3.951111000000000E-01     -1.509766000000000E+02      8.040771000000000E-01     -7.508203000000000E+01
4860000000.000000      8.135376000000000E-01     -1.660703000000000E+02      3.889160000000000E-01     -4.796094000000000E+01      3.954315000000000E-01     -1.509766000000000E+02      8.085938000000000E-01     -7.497265000000000E+01
4861000000.000000      8.201904000000000E-01     -1.659844000000000E+02      3.881073000000000E-01     -4.858984000000000E+01      3.968658000000000E-01     -1.512109000000000E+02      8.129272000000000E-01     -7.521874000000000E+01
4862000000.000000      8.246460000000000E-01     -1.659297000000000E+02      3.883667000000000E-01     -4.886719000000000E+01      3.985291000000000E-01     -1.513203000000000E+02      8.182068000000000E-01     -7.514062000000000E+01
4863000000.000000      8.304749000000000E-01     -1.660078000000000E+02      3.863373000000000E-01     -4.953711000000000E+01      3.994446000000000E-01     -1.514766000000000E+02      8.238220000000000E-01     -7.516796000000000E+01
4864000000.000000      8.359375000000000E-01     -1.659531000000000E+02      3.867188000000000E-01     -4.975195000000000E+01      3.997345000000000E-01     -1.516953000000000E+02      8.273621000000000E-01     -7.535546000000000E+01
4865000000.000000      8.401489000000000E-01     -1.661875000000000E+02      3.841858000000000E-01     -5.013085000000000E+01      4.010315000000000E-01     -1.518984000000000E+02      8.327332000000000E-01     -7.525000000000000E+01
4866000000.000000      8.446045000000000E-01     -1.660000000000000E+02      3.831482000000000E-01     -5.045116000000000E+01      4.020996000000000E-01     -1.520781000000000E+02      8.385925000000000E-01     -7.545703000000000E+01
4867000000.000000      8.500366000000000E-01     -1.660469000000000E+02      3.833313000000000E-01     -5.093359000000000E+01      4.022980000000000E-01     -1.521719000000000E+02      8.434143000000000E-01     -7.537890000000000E+01
4868000000.000000      8.545837000000000E-01     -1.661484000000000E+02      3.822937000000000E-01     -5.144726000000000E+01      4.034729000000000E-01     -1.524297000000000E+02      8.474731000000000E-01     -7.549218000000000E+01
4869000000.000000      8.562317000000000E-01     -1.660391000000000E+02      3.799286000000000E-01     -5.171875000000000E+01      4.041595000000000E-01     -1.525312000000000E+02      8.529358000000000E-01     -7.579687000000000E+01
4870000000.000000      8.632507000000000E-01     -1.661484000000000E+02      3.800812000000000E-01     -5.186913000000000E+01      4.046936000000000E-01     -1.527891000000000E+02      8.582764000000000E-01     -7.569921000000000E+01
4871000000.000000      8.658752000000000E-01     -1.661328000000000E+02      3.784485000000000E-01     -5.240624000000000E+01      4.049225000000000E-01     -1.529531000000000E+02      8.603821000000000E-01     -7.598046000000000E+01
4872000000.000000      8.709106000000000E-01     -1.659609000000000E+02      3.764954000000000E-01     -5.259179000000000E+01      4.051361000000000E-01     -1.532266000000000E+02      8.668213000000000E-01     -7.598827000000000E+01
4873000000.000000      8.723450000000000E-01     -1.658984000000000E+02      3.750000000000000E-01     -5.292578000000000E+01      4.058228000000000E-01     -1.532344000000000E+02      8.702393000000000E-01     -7.607031000000000E+01
4874000000.000000      8.756104000000000E-01     -1.658516000000000E+02      3.739777000000000E-01     -5.342382000000000E+01      4.066772000000000E-01     -1.534062000000000E+02      8.734741000000000E-01     -7.611718000000000E+01
4875000000.000000      8.816528000000000E-01     -1.660000000000000E+02      3.726044000000000E-01     -5.361914000000000E+01      4.071045000000000E-01     -1.537031000000000E+02      8.773804000000000E-01     -7.634375000000000E+01
4876000000.000000      8.797607000000000E-01     -1.659531000000000E+02      3.707275000000000E-01     -5.383203000000000E+01      4.062195000000000E-01     -1.537578000000000E+02      8.833313000000000E-01     -7.648438000000000E+01
4877000000.000000      8.852234000000000E-01     -1.657812000000000E+02      3.704071000000000E-01     -5.415039000000000E+01      4.077301000000000E-01     -1.540156000000000E+02      8.876953000000000E-01     -7.658203000000000E+01
4878000000.000000      8.887634000000000E-01     -1.657812000000000E+02      3.693695000000000E-01     -5.437695000000000E+01      4.075775000000000E-01     -1.540156000000000E+02      8.910828000000000E-01     -7.668750000000000E+01
4879000000.000000      8.897095000000000E-01     -1.656953000000000E+02      3.669586000000000E-01     -5.451562000000000E+01      4.072723000000000E-01     -1.542266000000000E+02      8.941040000000000E-01     -7.669531000000000E+01
4880000000.000000      8.897095000000000E-01     -1.655547000000000E+02      3.653717000000000E-01     -5.467773000000000E+01      4.082336000000000E-01     -1.542734000000000E+02      8.999023000000000E-01     -7.687890000000000E+01
4881000000.000000      8.952026000000000E-01     -1.654687000000000E+02      3.654175000000000E-01     -5.478320000000000E+01      4.088745000000000E-01     -1.545859000000000E+02      9.031067000000000E-01     -7.699219000000000E+01
4882000000.000000      8.930969000000000E-01     -1.653672000000000E+02      3.625946000000000E-01     -5.510742000000000E+01      4.079895000000000E-01     -1.547188000000000E+02      9.050598000000000E-01     -7.714062000000000E+01
