! Network Analyzer HP8722D
! Hewlett-Packard
! Data name: Linha & Wilkinson
! Saver's name: Rodrigo Anjos
! Comments: Teste da utilização de aquisição
continua pelo VNA HP8722D
! Time and date: 6/5/2025 13:12
!              Frequency                     S11                                                   S21                                                   S12                                                   S22
# HZ  S  MA R 50
4800000000.000000      9.066162000000000E-01      1.158008000000000E+02      3.199158000000000E-01     -1.705859000000000E+02      2.567596000000000E-01     -8.603516000000000E+01      9.840088000000000E-01     -4.747070000000000E+01
4801000000.000000      9.042358000000000E-01      1.159922000000000E+02      3.196411000000000E-01     -1.704531000000000E+02      2.567444000000000E-01     -8.613281000000000E+01      9.797363000000000E-01     -4.758398000000000E+01
4802000000.000000      9.031067000000000E-01      1.161953000000000E+02      3.193054000000000E-01     -1.702969000000000E+02      2.576599000000000E-01     -8.578905000000000E+01      9.757385000000000E-01     -4.757226000000000E+01
4803000000.000000      9.001770000000000E-01      1.165664000000000E+02      3.205566000000000E-01     -1.702422000000000E+02      2.567139000000000E-01     -8.567577000000000E+01      9.694214000000000E-01     -4.777148000000000E+01
4804000000.000000      8.983765000000000E-01      1.168672000000000E+02      3.206329000000000E-01     -1.701562000000000E+02      2.570343000000000E-01     -8.561718000000000E+01      9.647522000000000E-01     -4.766211000000000E+01
4805000000.000000      8.968201000000000E-01      1.170469000000000E+02      3.210449000000000E-01     -1.701719000000000E+02      2.564850000000000E-01     -8.534374000000000E+01      9.574890000000000E-01     -4.778125000000000E+01
4806000000.000000      8.930054000000000E-01      1.171875000000000E+02      3.211365000000000E-01     -1.701719000000000E+02      2.555542000000000E-01     -8.504686000000000E+01      9.517822000000000E-01     -4.792969000000000E+01
4807000000.000000      8.926697000000000E-01      1.174258000000000E+02      3.219757000000000E-01     -1.702656000000000E+02      2.566528000000000E-01     -8.499609000000000E+01      9.469299000000000E-01     -4.800586000000000E+01
4808000000.000000      8.925171000000000E-01      1.178008000000000E+02      3.232117000000000E-01     -1.701250000000000E+02      2.563171000000000E-01     -8.473436000000000E+01      9.420166000000000E-01     -4.802929000000000E+01
4809000000.000000      8.865051000000000E-01      1.179219000000000E+02      3.225098000000000E-01     -1.702656000000000E+02      2.569885000000000E-01     -8.453905000000000E+01      9.360046000000000E-01     -4.808203000000000E+01
4810000000.000000      8.863831000000000E-01      1.182773000000000E+02      3.237305000000000E-01     -1.701641000000000E+02      2.564850000000000E-01     -8.423046000000000E+01      9.315186000000000E-01     -4.819530000000000E+01
4811000000.000000      8.839722000000000E-01      1.184570000000000E+02      3.241119000000000E-01     -1.702500000000000E+02      2.572937000000000E-01     -8.393358000000000E+01      9.253845000000000E-01     -4.809179000000000E+01
4812000000.000000      8.847656000000000E-01      1.186992000000000E+02      3.241882000000000E-01     -1.702969000000000E+02      2.566376000000000E-01     -8.370703000000000E+01      9.191895000000000E-01     -4.828711000000000E+01
4813000000.000000      8.781128000000000E-01      1.189726000000000E+02      3.250275000000000E-01     -1.702266000000000E+02      2.565308000000000E-01     -8.346483000000000E+01      9.142151000000000E-01     -4.831249000000000E+01
4814000000.000000      8.747864000000000E-01      1.192422000000000E+02      3.262024000000000E-01     -1.702656000000000E+02      2.564087000000000E-01     -8.323437000000000E+01      9.083252000000000E-01     -4.839257000000000E+01
4815000000.000000      8.728333000000000E-01      1.195430000000000E+02      3.254395000000000E-01     -1.701875000000000E+02      2.564850000000000E-01     -8.288280000000000E+01      9.046326000000000E-01     -4.831640000000000E+01
4816000000.000000      8.719788000000000E-01      1.196562000000000E+02      3.275299000000000E-01     -1.701719000000000E+02      2.571411000000000E-01     -8.275000000000000E+01      8.985596000000000E-01     -4.852148000000000E+01
4817000000.000000      8.687744000000000E-01      1.199219000000000E+02      3.275299000000000E-01     -1.703672000000000E+02      2.566986000000000E-01     -8.244532000000000E+01      8.936768000000000E-01     -4.853710000000000E+01
4818000000.000000      8.673401000000000E-01      1.200742000000000E+02      3.277435000000000E-01     -1.704297000000000E+02      2.564697000000000E-01     -8.207811000000000E+01      8.873901000000000E-01     -4.855663000000000E+01
4819000000.000000      8.616943000000000E-01      1.203750000000000E+02      3.287354000000000E-01     -1.704297000000000E+02      2.558594000000000E-01     -8.183594000000000E+01      8.828125000000000E-01     -4.878906000000000E+01
4820000000.000000      8.534546000000000E-01      1.205391000000000E+02      3.290558000000000E-01     -1.705469000000000E+02      2.566071000000000E-01     -8.144531000000000E+01      8.771057000000000E-01     -4.870703000000000E+01
4821000000.000000      8.562927000000000E-01      1.208750000000000E+02      3.302917000000000E-01     -1.705781000000000E+02      2.566223000000000E-01     -8.125780000000000E+01      8.718262000000000E-01     -4.873241000000000E+01
4822000000.000000      8.515930000000000E-01      1.207305000000000E+02      3.306885000000000E-01     -1.708437000000000E+02      2.559052000000000E-01     -8.099218000000000E+01      8.669128000000000E-01     -4.895702000000000E+01
4823000000.000000      8.481750000000000E-01      1.210000000000000E+02      3.316040000000000E-01     -1.708906000000000E+02      2.556763000000000E-01     -8.048046000000000E+01      8.617859000000000E-01     -4.894726000000000E+01
4824000000.000000      8.468933000000000E-01      1.211875000000000E+02      3.316498000000000E-01     -1.711094000000000E+02      2.559509000000000E-01     -8.029297000000000E+01      8.565063000000000E-01     -4.897461000000000E+01
4825000000.000000      8.427429000000000E-01      1.213008000000000E+02      3.328552000000000E-01     -1.711094000000000E+02      2.563324000000000E-01     -7.999218000000000E+01      8.523254000000000E-01     -4.910546000000000E+01
4826000000.000000      8.405457000000000E-01      1.215547000000000E+02      3.339233000000000E-01     -1.712891000000000E+02      2.555389000000000E-01     -7.971874000000000E+01      8.484192000000000E-01     -4.917773000000000E+01
4827000000.000000      8.341980000000000E-01      1.217422000000000E+02      3.340759000000000E-01     -1.713672000000000E+02      2.558746000000000E-01     -7.932422000000000E+01      8.421631000000000E-01     -4.927734000000000E+01
4828000000.000000      8.307800000000000E-01      1.218516000000000E+02      3.348389000000000E-01     -1.715547000000000E+02      2.550964000000000E-01     -7.905859000000000E+01      8.385010000000000E-01     -4.929882000000000E+01
4829000000.000000      8.249817000000000E-01      1.220586000000000E+02      3.343658000000000E-01     -1.716250000000000E+02      2.565002000000000E-01     -7.872265000000000E+01      8.361206000000000E-01     -4.933594000000000E+01
4830000000.000000      8.224792000000000E-01      1.221328000000000E+02      3.349304000000000E-01     -1.718437000000000E+02      2.554932000000000E-01     -7.834374000000000E+01      8.284302000000000E-01     -4.938086000000000E+01
4831000000.000000      8.162231000000000E-01      1.223008000000000E+02      3.355408000000000E-01     -1.721406000000000E+02      2.560425000000000E-01     -7.784374000000000E+01      8.256836000000000E-01     -4.946289000000000E+01
4832000000.000000      8.132324000000000E-01      1.223633000000000E+02      3.357697000000000E-01     -1.723594000000000E+02      2.560425000000000E-01     -7.757030000000000E+01      8.207092000000000E-01     -4.954883000000000E+01
4833000000.000000      8.084412000000000E-01      1.223906000000000E+02      3.362732000000000E-01     -1.725156000000000E+02      2.557220000000000E-01     -7.717968000000000E+01      8.158569000000000E-01     -4.962695000000000E+01
4834000000.000000      8.053589000000000E-01      1.224844000000000E+02      3.365784000000000E-01     -1.726094000000000E+02      2.560120000000000E-01     -7.685156000000000E+01      8.114624000000000E-01     -4.964062000000000E+01
4835000000.000000      7.998657000000000E-01      1.224336000000000E+02      3.370056000000000E-01     -1.729141000000000E+02      2.564087000000000E-01     -7.650781000000000E+01      8.083496000000000E-01     -4.980663000000000E+01
4836000000.000000      7.963562000000000E-01      1.225078000000000E+02      3.368073000000000E-01     -1.730859000000000E+02      2.567749000000000E-01     -7.621484000000000E+01      8.047180000000000E-01     -4.978906000000000E+01
4837000000.000000      7.905884000000000E-01      1.226914000000000E+02      3.368073000000000E-01     -1.736328000000000E+02      2.566528000000000E-01     -7.592578000000000E+01      8.002625000000000E-01     -4.977539000000000E+01
4838000000.000000      7.839050000000000E-01      1.225898000000000E+02      3.370667000000000E-01     -1.736172000000000E+02      2.568359000000000E-01     -7.539453000000000E+01      7.960510000000000E-01     -4.981640000000000E+01
4839000000.000000      7.809143000000000E-01      1.228750000000000E+02      3.366394000000000E-01     -1.737890000000000E+02      2.569733000000000E-01     -7.525000000000000E+01      7.929077000000000E-01     -4.990624000000000E+01
4840000000.000000      7.744141000000000E-01      1.227461000000000E+02      3.369904000000000E-01     -1.739141000000000E+02      2.576904000000000E-01     -7.486328000000000E+01      7.890625000000000E-01     -5.003320000000000E+01
4841000000.000000      7.689209000000000E-01      1.227422000000000E+02      3.372498000000000E-01     -1.744062000000000E+02      2.575073000000000E-01     -7.448828000000000E+01      7.855530000000000E-01     -5.010937000000000E+01
4842000000.000000      7.645569000000000E-01      1.228125000000000E+02      3.367767000000000E-01     -1.745391000000000E+02      2.573700000000000E-01     -7.421093000000000E+01      7.829590000000000E-01     -5.014257000000000E+01
4843000000.000000      7.593994000000000E-01      1.228633000000000E+02      3.368225000000000E-01     -1.747969000000000E+02      2.574158000000000E-01     -7.387890000000000E+01      7.791443000000000E-01     -5.021093000000000E+01
4844000000.000000      7.536316000000000E-01      1.226601000000000E+02      3.366394000000000E-01     -1.750078000000000E+02      2.577667000000000E-01     -7.346093000000000E+01      7.738647000000000E-01     -5.033984000000000E+01
4845000000.000000      7.500610000000000E-01      1.226992000000000E+02      3.361664000000000E-01     -1.752031000000000E+02      2.586365000000000E-01     -7.318749000000000E+01      7.712708000000000E-01     -5.034765000000000E+01
4846000000.000000      7.423096000000000E-01      1.225859000000000E+02      3.359833000000000E-01     -1.754688000000000E+02      2.590637000000000E-01     -7.283593000000000E+01      7.680664000000000E-01     -5.039453000000000E+01
4847000000.000000      7.358093000000000E-01      1.224453000000000E+02      3.355865000000000E-01     -1.756406000000000E+02      2.592926000000000E-01     -7.257813000000000E+01      7.648315000000000E-01     -5.054882000000000E+01
4848000000.000000      7.308044000000000E-01      1.223203000000000E+02      3.344574000000000E-01     -1.759687000000000E+02      2.590485000000000E-01     -7.213672000000000E+01      7.620850000000000E-01     -5.059570000000000E+01
4849000000.000000      7.239990000000000E-01      1.221406000000000E+02      3.341827000000000E-01     -1.763203000000000E+02      2.596741000000000E-01     -7.189062000000000E+01      7.585449000000000E-01     -5.056445000000000E+01
4850000000.000000      7.170715000000000E-01      1.221445000000000E+02      3.333893000000000E-01     -1.765078000000000E+02      2.597046000000000E-01     -7.148046000000000E+01      7.562866000000000E-01     -5.060937000000000E+01
4851000000.000000      7.137756000000000E-01      1.221797000000000E+02      3.333588000000000E-01     -1.768047000000000E+02      2.600861000000000E-01     -7.126171000000000E+01      7.537537000000000E-01     -5.072656000000000E+01
4852000000.000000      7.071228000000000E-01      1.217930000000000E+02      3.323975000000000E-01     -1.771328000000000E+02      2.609863000000000E-01     -7.091015000000000E+01      7.507019000000000E-01     -5.077343000000000E+01
4853000000.000000      7.008362000000000E-01      1.217422000000000E+02      3.312073000000000E-01     -1.772266000000000E+02      2.612762000000000E-01     -7.069530000000000E+01      7.481689000000000E-01     -5.089453000000000E+01
4854000000.000000      6.940918000000000E-01      1.216133000000000E+02      3.308868000000000E-01     -1.775625000000000E+02      2.613983000000000E-01     -7.052343000000000E+01      7.451172000000000E-01     -5.087500000000000E+01
4855000000.000000      6.883240000000000E-01      1.213906000000000E+02      3.298035000000000E-01     -1.776953000000000E+02      2.615967000000000E-01     -7.001562000000000E+01      7.408142000000000E-01     -5.094336000000000E+01
4856000000.000000      6.827087000000000E-01      1.211055000000000E+02      3.291473000000000E-01     -1.779531000000000E+02      2.619324000000000E-01     -6.985156000000000E+01      7.392883000000000E-01     -5.102148000000000E+01
4857000000.000000      6.775818000000000E-01      1.208594000000000E+02      3.284302000000000E-01     -1.781406000000000E+02      2.622986000000000E-01     -6.945313000000000E+01      7.366943000000000E-01     -5.100195000000000E+01
4858000000.000000      6.683350000000000E-01      1.206562000000000E+02      3.270874000000000E-01     -1.783125000000000E+02      2.625122000000000E-01     -6.930078000000000E+01      7.343750000000000E-01     -5.118554000000000E+01
4859000000.000000      6.656799000000000E-01      1.203477000000000E+02      3.263397000000000E-01     -1.785000000000000E+02      2.631683000000000E-01     -6.905078000000000E+01      7.331238000000000E-01     -5.132030000000000E+01
4860000000.000000      6.576843000000000E-01      1.200937000000000E+02      3.256226000000000E-01     -1.787656000000000E+02      2.630768000000000E-01     -6.884766000000000E+01      7.297058000000000E-01     -5.120507000000000E+01
4861000000.000000      6.497803000000000E-01      1.199883000000000E+02      3.247986000000000E-01     -1.791797000000000E+02      2.637634000000000E-01     -6.863671000000000E+01      7.263489000000000E-01     -5.130664000000000E+01
4862000000.000000      6.451721000000000E-01      1.196133000000000E+02      3.238831000000000E-01     -1.791172000000000E+02      2.643433000000000E-01     -6.835155000000000E+01      7.258606000000000E-01     -5.133398000000000E+01
4863000000.000000      6.385498000000000E-01      1.192851000000000E+02      3.215485000000000E-01     -1.794844000000000E+02      2.648773000000000E-01     -6.816796000000000E+01      7.228394000000000E-01     -5.135742000000000E+01
4864000000.000000      6.341553000000000E-01      1.190625000000000E+02      3.211670000000000E-01     -1.795312000000000E+02      2.648163000000000E-01     -6.789063000000000E+01      7.207947000000000E-01     -5.150391000000000E+01
4865000000.000000      6.273193000000000E-01      1.185742000000000E+02      3.199005000000000E-01     -1.796484000000000E+02      2.649078000000000E-01     -6.771874000000000E+01      7.192688000000000E-01     -5.138866000000000E+01
4866000000.000000      6.219788000000000E-01      1.183086000000000E+02      3.183594000000000E-01     -1.799141000000000E+02      2.647400000000000E-01     -6.751953000000000E+01      7.164001000000000E-01     -5.145312000000000E+01
4867000000.000000      6.136475000000000E-01      1.180117000000000E+02      3.178406000000000E-01      1.797031000000000E+02      2.652893000000000E-01     -6.736718000000000E+01      7.157593000000000E-01     -5.151953000000000E+01
4868000000.000000      6.099854000000000E-01      1.173789000000000E+02      3.170929000000000E-01      1.796016000000000E+02      2.661591000000000E-01     -6.714062000000000E+01      7.117920000000000E-01     -5.150195000000000E+01
4869000000.000000      6.017761000000000E-01      1.173633000000000E+02      3.148804000000000E-01      1.794609000000000E+02      2.663116000000000E-01     -6.712891000000000E+01      7.108765000000000E-01     -5.174414000000000E+01
4870000000.000000      5.967102000000000E-01      1.167617000000000E+02      3.145752000000000E-01      1.795234000000000E+02      2.666473000000000E-01     -6.692968000000000E+01      7.089233000000000E-01     -5.161327000000000E+01
4871000000.000000      5.907898000000000E-01      1.162266000000000E+02      3.127899000000000E-01      1.792266000000000E+02      2.661591000000000E-01     -6.676952000000000E+01      7.056885000000000E-01     -5.177148000000000E+01
4872000000.000000      5.875244000000000E-01      1.158008000000000E+02      3.119049000000000E-01      1.793203000000000E+02      2.666931000000000E-01     -6.680469000000000E+01      7.056580000000000E-01     -5.168945000000000E+01
4873000000.000000      5.804443000000000E-01      1.156328000000000E+02      3.100128000000000E-01      1.790469000000000E+02      2.669678000000000E-01     -6.653125000000000E+01      7.008667000000000E-01     -5.181250000000000E+01
4874000000.000000      5.756531000000000E-01      1.150820000000000E+02      3.096771000000000E-01      1.789141000000000E+02      2.674255000000000E-01     -6.644531000000000E+01      6.993103000000000E-01     -5.168163000000000E+01
4875000000.000000      5.703430000000000E-01      1.146719000000000E+02      3.076782000000000E-01      1.787344000000000E+02      2.676849000000000E-01     -6.634375000000000E+01      6.972656000000000E-01     -5.181445000000000E+01
4876000000.000000      5.650940000000000E-01      1.140898000000000E+02      3.073578000000000E-01      1.785625000000000E+02      2.672729000000000E-01     -6.633594000000000E+01      6.948242000000000E-01     -5.190820000000000E+01
4877000000.000000      5.606079000000000E-01      1.134219000000000E+02      3.058319000000000E-01      1.785703000000000E+02      2.678223000000000E-01     -6.623047000000000E+01      6.940918000000000E-01     -5.184570000000000E+01
4878000000.000000      5.554504000000000E-01      1.130508000000000E+02      3.049164000000000E-01      1.784453000000000E+02      2.678680000000000E-01     -6.606640000000000E+01      6.918030000000000E-01     -5.189843000000000E+01
4879000000.000000      5.506897000000000E-01      1.125742000000000E+02      3.028259000000000E-01      1.783594000000000E+02      2.670898000000000E-01     -6.621875000000000E+01      6.900635000000000E-01     -5.185156000000000E+01
4880000000.000000      5.476685000000000E-01      1.120469000000000E+02      3.020020000000000E-01      1.782344000000000E+02      2.675018000000000E-01     -6.598827000000000E+01      6.864624000000000E-01     -5.177539000000000E+01
4881000000.000000      5.419617000000000E-01      1.115625000000000E+02      3.017578000000000E-01      1.783516000000000E+02      2.679291000000000E-01     -6.606640000000000E+01      6.858521000000000E-01     -5.175781000000000E+01
4882000000.000000      5.374756000000000E-01      1.109844000000000E+02      3.004303000000000E-01      1.781328000000000E+02      2.678223000000000E-01     -6.587891000000000E+01      6.829529000000000E-01     -5.183007000000000E+01
