! Network Analyzer HP8722D
! Hewlett-Packard
! Data name: Linha & Wilkinson
! Saver's name: Rodrigo Anjos
! Comments: Teste da utilização de aquisição
continua pelo VNA HP8722D
! Time and date: 6/5/2025 15:58
!              Frequency                     S11                                                   S21                                                   S12                                                   S22
# HZ  S  MA R 50
4800000000.000000      4.960632000000000E-01     -1.681094000000000E+02      2.512054000000000E-01     -1.950098000000000E+01      2.477570000000000E-01     -1.406719000000000E+02      6.485901000000000E-01     -8.037500000000000E+01
4801000000.000000      4.974213000000000E-01     -1.681641000000000E+02      2.552795000000000E-01     -1.963183000000000E+01      2.510071000000000E-01     -1.406719000000000E+02      6.471558000000000E-01     -8.014843000000000E+01
4802000000.000000      4.983368000000000E-01     -1.682812000000000E+02      2.593689000000000E-01     -1.980078000000000E+01      2.554626000000000E-01     -1.406953000000000E+02      6.445007000000000E-01     -7.974218000000000E+01
4803000000.000000      5.001831000000000E-01     -1.683281000000000E+02      2.636414000000000E-01     -2.011621000000000E+01      2.582397000000000E-01     -1.406406000000000E+02      6.446838000000000E-01     -7.973827000000000E+01
4804000000.000000      5.025330000000000E-01     -1.682812000000000E+02      2.674103000000000E-01     -2.038281000000000E+01      2.625122000000000E-01     -1.409609000000000E+02      6.445313000000000E-01     -7.938671000000000E+01
4805000000.000000      5.049133000000000E-01     -1.683750000000000E+02      2.713470000000000E-01     -2.076367000000000E+01      2.658386000000000E-01     -1.409765000000000E+02      6.438599000000000E-01     -7.934765000000000E+01
4806000000.000000      5.066223000000000E-01     -1.682734000000000E+02      2.751617000000000E-01     -2.085351000000000E+01      2.686462000000000E-01     -1.409375000000000E+02      6.433105000000000E-01     -7.912499000000000E+01
4807000000.000000      5.096130000000000E-01     -1.683516000000000E+02      2.794800000000000E-01     -2.122168000000000E+01      2.725067000000000E-01     -1.412344000000000E+02      6.424866000000000E-01     -7.882030000000000E+01
4808000000.000000      5.118713000000000E-01     -1.682891000000000E+02      2.839050000000000E-01     -2.159180000000000E+01      2.767944000000000E-01     -1.413125000000000E+02      6.426697000000000E-01     -7.865624000000000E+01
4809000000.000000      5.142822000000000E-01     -1.682891000000000E+02      2.874908000000000E-01     -2.204590000000000E+01      2.805023000000000E-01     -1.415000000000000E+02      6.438293000000000E-01     -7.844531000000000E+01
4810000000.000000      5.178223000000000E-01     -1.683594000000000E+02      2.917328000000000E-01     -2.227930000000000E+01      2.839355000000000E-01     -1.416641000000000E+02      6.439819000000000E-01     -7.832421000000000E+01
4811000000.000000      5.203247000000000E-01     -1.682500000000000E+02      2.960510000000000E-01     -2.279004000000000E+01      2.882080000000000E-01     -1.416328000000000E+02      6.429138000000000E-01     -7.803515000000000E+01
4812000000.000000      5.246887000000000E-01     -1.681875000000000E+02      2.993011000000000E-01     -2.314453000000000E+01      2.912598000000000E-01     -1.417578000000000E+02      6.444397000000000E-01     -7.785546000000000E+01
4813000000.000000      5.278015000000000E-01     -1.681172000000000E+02      3.022766000000000E-01     -2.355469000000000E+01      2.933807000000000E-01     -1.418203000000000E+02      6.448669000000000E-01     -7.759766000000000E+01
4814000000.000000      5.296021000000000E-01     -1.681875000000000E+02      3.066559000000000E-01     -2.391113000000000E+01      2.970276000000000E-01     -1.419922000000000E+02      6.460266000000000E-01     -7.746484000000000E+01
4815000000.000000      5.339050000000000E-01     -1.680234000000000E+02      3.095856000000000E-01     -2.419531000000000E+01      3.004150000000000E-01     -1.421641000000000E+02      6.459961000000000E-01     -7.721874000000000E+01
4816000000.000000      5.380249000000000E-01     -1.679531000000000E+02      3.141785000000000E-01     -2.458496000000000E+01      3.051300000000000E-01     -1.423125000000000E+02      6.468201000000000E-01     -7.699609000000000E+01
4817000000.000000      5.426025000000000E-01     -1.678594000000000E+02      3.175507000000000E-01     -2.519922000000000E+01      3.071899000000000E-01     -1.425859000000000E+02      6.482239000000000E-01     -7.691015000000000E+01
4818000000.000000      5.464783000000000E-01     -1.678359000000000E+02      3.203888000000000E-01     -2.558496000000000E+01      3.105621000000000E-01     -1.426094000000000E+02      6.502380000000000E-01     -7.678124000000000E+01
4819000000.000000      5.516052000000000E-01     -1.677891000000000E+02      3.241425000000000E-01     -2.600098000000000E+01      3.128357000000000E-01     -1.429609000000000E+02      6.527710000000000E-01     -7.660156000000000E+01
4820000000.000000      5.535583000000000E-01     -1.676641000000000E+02      3.269806000000000E-01     -2.646289000000000E+01      3.161316000000000E-01     -1.430938000000000E+02      6.534119000000000E-01     -7.641406000000000E+01
4821000000.000000      5.593262000000000E-01     -1.676250000000000E+02      3.315277000000000E-01     -2.694336000000000E+01      3.190918000000000E-01     -1.432578000000000E+02      6.555481000000000E-01     -7.620703000000000E+01
4822000000.000000      5.663147000000000E-01     -1.675625000000000E+02      3.341675000000000E-01     -2.735058000000000E+01      3.214722000000000E-01     -1.434844000000000E+02      6.582031000000000E-01     -7.614452000000000E+01
4823000000.000000      5.693665000000000E-01     -1.674297000000000E+02      3.374329000000000E-01     -2.785351000000000E+01      3.242188000000000E-01     -1.435391000000000E+02      6.603699000000000E-01     -7.594921000000000E+01
4824000000.000000      5.767822000000000E-01     -1.674219000000000E+02      3.405304000000000E-01     -2.841406000000000E+01      3.281250000000000E-01     -1.438203000000000E+02      6.623535000000000E-01     -7.586719000000000E+01
4825000000.000000      5.801086000000000E-01     -1.672578000000000E+02      3.429565000000000E-01     -2.894824000000000E+01      3.311157000000000E-01     -1.439687000000000E+02      6.651611000000000E-01     -7.566015000000000E+01
4826000000.000000      5.868835000000000E-01     -1.671875000000000E+02      3.467407000000000E-01     -2.948242000000000E+01      3.325500000000000E-01     -1.442578000000000E+02      6.676941000000000E-01     -7.562890000000000E+01
4827000000.000000      5.925903000000000E-01     -1.670547000000000E+02      3.498383000000000E-01     -2.976660000000000E+01      3.356934000000000E-01     -1.442656000000000E+02      6.704712000000000E-01     -7.550781000000000E+01
4828000000.000000      5.989075000000000E-01     -1.669922000000000E+02      3.529968000000000E-01     -3.043945000000000E+01      3.378448000000000E-01     -1.445313000000000E+02      6.739502000000000E-01     -7.532812000000000E+01
4829000000.000000      6.025696000000000E-01     -1.668672000000000E+02      3.543701000000000E-01     -3.086230000000000E+01      3.407745000000000E-01     -1.447500000000000E+02      6.755981000000000E-01     -7.519531000000000E+01
4830000000.000000      6.105652000000000E-01     -1.668047000000000E+02      3.575745000000000E-01     -3.148438000000000E+01      3.434143000000000E-01     -1.449297000000000E+02      6.784363000000000E-01     -7.517187000000000E+01
4831000000.000000      6.148682000000000E-01     -1.666875000000000E+02      3.591919000000000E-01     -3.209961000000000E+01      3.460236000000000E-01     -1.449687000000000E+02      6.824951000000000E-01     -7.503906000000000E+01
4832000000.000000      6.238708000000000E-01     -1.665625000000000E+02      3.625031000000000E-01     -3.252344000000000E+01      3.479767000000000E-01     -1.453203000000000E+02      6.849365000000000E-01     -7.503906000000000E+01
4833000000.000000      6.299744000000000E-01     -1.666094000000000E+02      3.652039000000000E-01     -3.306641000000000E+01      3.504639000000000E-01     -1.455781000000000E+02      6.892395000000000E-01     -7.489062000000000E+01
4834000000.000000      6.358337000000000E-01     -1.664375000000000E+02      3.666687000000000E-01     -3.361719000000000E+01      3.526459000000000E-01     -1.457891000000000E+02      6.914673000000000E-01     -7.486328000000000E+01
4835000000.000000      6.420898000000000E-01     -1.664063000000000E+02      3.695221000000000E-01     -3.429688000000000E+01      3.554840000000000E-01     -1.459844000000000E+02      6.959839000000000E-01     -7.481250000000000E+01
4836000000.000000      6.501465000000000E-01     -1.662578000000000E+02      3.717194000000000E-01     -3.467578000000000E+01      3.572845000000000E-01     -1.460703000000000E+02      6.986084000000000E-01     -7.471093000000000E+01
4837000000.000000      6.564026000000000E-01     -1.661719000000000E+02      3.730011000000000E-01     -3.561523000000000E+01      3.594513000000000E-01     -1.464766000000000E+02      7.034607000000000E-01     -7.462891000000000E+01
4838000000.000000      6.638489000000000E-01     -1.662188000000000E+02      3.762054000000000E-01     -3.578906000000000E+01      3.619080000000000E-01     -1.463672000000000E+02      7.074280000000000E-01     -7.462891000000000E+01
4839000000.000000      6.709900000000000E-01     -1.660312000000000E+02      3.766174000000000E-01     -3.635351000000000E+01      3.634033000000000E-01     -1.467656000000000E+02      7.109985000000000E-01     -7.451172000000000E+01
4840000000.000000      6.768494000000000E-01     -1.660938000000000E+02      3.781738000000000E-01     -3.687891000000000E+01      3.657532000000000E-01     -1.469609000000000E+02      7.143555000000000E-01     -7.448437000000000E+01
4841000000.000000      6.842346000000000E-01     -1.660234000000000E+02      3.800507000000000E-01     -3.752148000000000E+01      3.680115000000000E-01     -1.471797000000000E+02      7.196960000000000E-01     -7.445703000000000E+01
4842000000.000000      6.912537000000000E-01     -1.659375000000000E+02      3.814545000000000E-01     -3.809570000000000E+01      3.694153000000000E-01     -1.474141000000000E+02      7.239075000000000E-01     -7.451172000000000E+01
4843000000.000000      6.990967000000000E-01     -1.660000000000000E+02      3.825226000000000E-01     -3.884180000000000E+01      3.714905000000000E-01     -1.475781000000000E+02      7.272644000000000E-01     -7.448047000000000E+01
4844000000.000000      7.049866000000000E-01     -1.658750000000000E+02      3.835602000000000E-01     -3.914063000000000E+01      3.729401000000000E-01     -1.477031000000000E+02      7.317505000000000E-01     -7.438671000000000E+01
4845000000.000000      7.119446000000000E-01     -1.658281000000000E+02      3.855133000000000E-01     -3.982422000000000E+01      3.742218000000000E-01     -1.479687000000000E+02      7.352600000000000E-01     -7.438671000000000E+01
4846000000.000000      7.190857000000000E-01     -1.657656000000000E+02      3.860016000000000E-01     -4.018750000000000E+01      3.772278000000000E-01     -1.480078000000000E+02      7.403564000000000E-01     -7.444140000000000E+01
4847000000.000000      7.268677000000000E-01     -1.657578000000000E+02      3.869324000000000E-01     -4.086719000000000E+01      3.792725000000000E-01     -1.483281000000000E+02      7.452393000000000E-01     -7.451953000000000E+01
4848000000.000000      7.347717000000000E-01     -1.657187000000000E+02      3.874054000000000E-01     -4.143359000000000E+01      3.801727000000000E-01     -1.484688000000000E+02      7.492981000000000E-01     -7.445703000000000E+01
4849000000.000000      7.421875000000000E-01     -1.658828000000000E+02      3.887939000000000E-01     -4.208008000000000E+01      3.818207000000000E-01     -1.486875000000000E+02      7.543640000000000E-01     -7.440234000000000E+01
4850000000.000000      7.485962000000000E-01     -1.656797000000000E+02      3.886871000000000E-01     -4.236328000000000E+01      3.834381000000000E-01     -1.487734000000000E+02      7.572327000000000E-01     -7.437890000000000E+01
4851000000.000000      7.554626000000000E-01     -1.657031000000000E+02      3.902130000000000E-01     -4.309179000000000E+01      3.848572000000000E-01     -1.490156000000000E+02      7.651672000000000E-01     -7.443359000000000E+01
4852000000.000000      7.616882000000000E-01     -1.657187000000000E+02      3.894653000000000E-01     -4.358788000000000E+01      3.864441000000000E-01     -1.491641000000000E+02      7.680359000000000E-01     -7.439062000000000E+01
4853000000.000000      7.694092000000000E-01     -1.657266000000000E+02      3.884735000000000E-01     -4.400000000000000E+01      3.886414000000000E-01     -1.493750000000000E+02      7.734070000000000E-01     -7.462891000000000E+01
4854000000.000000      7.758789000000000E-01     -1.657031000000000E+02      3.898315000000000E-01     -4.470899000000000E+01      3.889008000000000E-01     -1.495547000000000E+02      7.776184000000000E-01     -7.457031000000000E+01
4855000000.000000      7.804565000000000E-01     -1.657266000000000E+02      3.896790000000000E-01     -4.509766000000000E+01      3.904419000000000E-01     -1.496875000000000E+02      7.815857000000000E-01     -7.458593000000000E+01
4856000000.000000      7.888794000000000E-01     -1.656016000000000E+02      3.900604000000000E-01     -4.564649000000000E+01      3.916931000000000E-01     -1.498906000000000E+02      7.881165000000000E-01     -7.466406000000000E+01
4857000000.000000      7.943420000000000E-01     -1.657500000000000E+02      3.900299000000000E-01     -4.597656000000000E+01      3.929138000000000E-01     -1.500313000000000E+02      7.926331000000000E-01     -7.460546000000000E+01
4858000000.000000      7.983093000000000E-01     -1.657266000000000E+02      3.896790000000000E-01     -4.663867000000000E+01      3.938446000000000E-01     -1.502578000000000E+02      7.970276000000000E-01     -7.477734000000000E+01
4859000000.000000      8.052979000000000E-01     -1.657031000000000E+02      3.892670000000000E-01     -4.706250000000000E+01      3.953705000000000E-01     -1.504297000000000E+02      8.033752000000000E-01     -7.483984000000000E+01
4860000000.000000      8.138123000000000E-01     -1.656953000000000E+02      3.890076000000000E-01     -4.738281000000000E+01      3.956299000000000E-01     -1.505781000000000E+02      8.061829000000000E-01     -7.480469000000000E+01
4861000000.000000      8.192139000000000E-01     -1.657109000000000E+02      3.887177000000000E-01     -4.807617000000000E+01      3.981628000000000E-01     -1.507578000000000E+02      8.121948000000000E-01     -7.493359000000000E+01
4862000000.000000      8.239136000000000E-01     -1.657031000000000E+02      3.885345000000000E-01     -4.836914000000000E+01      3.991547000000000E-01     -1.509844000000000E+02      8.170776000000000E-01     -7.499218000000000E+01
4863000000.000000      8.280640000000000E-01     -1.657812000000000E+02      3.864594000000000E-01     -4.898828000000000E+01      4.006653000000000E-01     -1.510859000000000E+02      8.218079000000000E-01     -7.500781000000000E+01
4864000000.000000      8.347473000000000E-01     -1.657578000000000E+02      3.856964000000000E-01     -4.923828000000000E+01      4.000397000000000E-01     -1.512187000000000E+02      8.258362000000000E-01     -7.510156000000000E+01
4865000000.000000      8.379211000000000E-01     -1.658359000000000E+02      3.856659000000000E-01     -4.966797000000000E+01      4.010773000000000E-01     -1.514219000000000E+02      8.315125000000000E-01     -7.518359000000000E+01
4866000000.000000      8.406677000000000E-01     -1.656563000000000E+02      3.840332000000000E-01     -5.014648000000000E+01      4.029083000000000E-01     -1.516484000000000E+02      8.367310000000000E-01     -7.514062000000000E+01
4867000000.000000      8.476257000000000E-01     -1.656797000000000E+02      3.842773000000000E-01     -5.061132000000000E+01      4.031219000000000E-01     -1.517500000000000E+02      8.428040000000000E-01     -7.528125000000000E+01
4868000000.000000      8.538208000000000E-01     -1.657969000000000E+02      3.823853000000000E-01     -5.091015000000000E+01      4.043427000000000E-01     -1.519297000000000E+02      8.459473000000000E-01     -7.542969000000000E+01
4869000000.000000      8.558044000000000E-01     -1.657500000000000E+02      3.807526000000000E-01     -5.137695000000000E+01      4.047546000000000E-01     -1.521563000000000E+02      8.507385000000000E-01     -7.560547000000000E+01
4870000000.000000      8.594971000000000E-01     -1.657266000000000E+02      3.803101000000000E-01     -5.150976000000000E+01      4.055176000000000E-01     -1.523203000000000E+02      8.564148000000000E-01     -7.557422000000000E+01
4871000000.000000      8.652344000000000E-01     -1.657734000000000E+02      3.785858000000000E-01     -5.198828000000000E+01      4.057159000000000E-01     -1.525781000000000E+02      8.598328000000000E-01     -7.570313000000000E+01
4872000000.000000      8.699341000000000E-01     -1.657578000000000E+02      3.772278000000000E-01     -5.225390000000000E+01      4.061279000000000E-01     -1.527812000000000E+02      8.664246000000000E-01     -7.581640000000000E+01
4873000000.000000      8.715820000000000E-01     -1.654766000000000E+02      3.756104000000000E-01     -5.264648000000000E+01      4.062653000000000E-01     -1.528281000000000E+02      8.701172000000000E-01     -7.598827000000000E+01
4874000000.000000      8.725891000000000E-01     -1.655313000000000E+02      3.749695000000000E-01     -5.299023000000000E+01      4.075928000000000E-01     -1.529531000000000E+02      8.730469000000000E-01     -7.594140000000000E+01
4875000000.000000      8.785706000000000E-01     -1.656094000000000E+02      3.726807000000000E-01     -5.306250000000000E+01      4.080658000000000E-01     -1.533437000000000E+02      8.788452000000000E-01     -7.617578000000000E+01
4876000000.000000      8.806763000000000E-01     -1.656172000000000E+02      3.715973000000000E-01     -5.342382000000000E+01      4.068298000000000E-01     -1.533828000000000E+02      8.832092000000000E-01     -7.635156000000000E+01
4877000000.000000      8.835449000000000E-01     -1.654687000000000E+02      3.702698000000000E-01     -5.370312000000000E+01      4.085693000000000E-01     -1.535938000000000E+02      8.874512000000000E-01     -7.643749000000000E+01
4878000000.000000      8.880920000000000E-01     -1.654531000000000E+02      3.696747000000000E-01     -5.384960000000000E+01      4.087830000000000E-01     -1.536172000000000E+02      8.912048000000000E-01     -7.658203000000000E+01
4879000000.000000      8.901367000000000E-01     -1.654531000000000E+02      3.672638000000000E-01     -5.413280000000000E+01      4.080658000000000E-01     -1.539063000000000E+02      8.951721000000000E-01     -7.647265000000000E+01
4880000000.000000      8.913879000000000E-01     -1.653828000000000E+02      3.664856000000000E-01     -5.447460000000000E+01      4.089508000000000E-01     -1.539297000000000E+02      8.987732000000000E-01     -7.662109000000000E+01
4881000000.000000      8.943176000000000E-01     -1.651953000000000E+02      3.653870000000000E-01     -5.440039000000000E+01      4.095001000000000E-01     -1.542422000000000E+02      9.030151000000000E-01     -7.677734000000000E+01
4882000000.000000      8.942566000000000E-01     -1.650078000000000E+02      3.633728000000000E-01     -5.473827000000000E+01      4.088593000000000E-01     -1.542812000000000E+02      9.059753000000000E-01     -7.692968000000000E+01
