! Network Analyzer HP8722D
! Hewlett-Packard
! Data name: Linha & Wilkinson
! Saver's name: Rodrigo Anjos
! Comments: Teste da utilização de aquisição
continua pelo VNA HP8722D
! Time and date: 6/5/2025 14:18
!              Frequency                     S11                                                   S21                                                   S12                                                   S22
# HZ  S  MA R 50
4800000000.000000      4.968109000000000E-01     -1.682266000000000E+02      2.530060000000000E-01     -1.981250000000000E+01      2.492523000000000E-01     -1.410312000000000E+02      6.471252000000000E-01     -8.039454000000000E+01
4801000000.000000      4.987030000000000E-01     -1.683203000000000E+02      2.568512000000000E-01     -2.003711000000000E+01      2.525177000000000E-01     -1.410625000000000E+02      6.472168000000000E-01     -8.006639000000000E+01
4802000000.000000      4.993591000000000E-01     -1.683984000000000E+02      2.604828000000000E-01     -2.013281000000000E+01      2.568512000000000E-01     -1.411016000000000E+02      6.445313000000000E-01     -7.976953000000000E+01
4803000000.000000      5.012512000000000E-01     -1.684922000000000E+02      2.655334000000000E-01     -2.038867000000000E+01      2.601318000000000E-01     -1.410859000000000E+02      6.451721000000000E-01     -7.960155000000000E+01
4804000000.000000      5.037231000000000E-01     -1.683906000000000E+02      2.692413000000000E-01     -2.065039000000000E+01      2.643433000000000E-01     -1.412734000000000E+02      6.443481000000000E-01     -7.947266000000000E+01
4805000000.000000      5.061340000000000E-01     -1.685234000000000E+02      2.731934000000000E-01     -2.113086000000000E+01      2.671814000000000E-01     -1.413125000000000E+02      6.450806000000000E-01     -7.923828000000000E+01
4806000000.000000      5.077820000000000E-01     -1.684687000000000E+02      2.771149000000000E-01     -2.124804000000000E+01      2.703094000000000E-01     -1.413359000000000E+02      6.449890000000000E-01     -7.910546000000000E+01
4807000000.000000      5.109253000000000E-01     -1.684922000000000E+02      2.810211000000000E-01     -2.156933000000000E+01      2.742004000000000E-01     -1.415703000000000E+02      6.436462000000000E-01     -7.890625000000000E+01
4808000000.000000      5.133667000000000E-01     -1.683906000000000E+02      2.851868000000000E-01     -2.185937000000000E+01      2.775726000000000E-01     -1.416641000000000E+02      6.428833000000000E-01     -7.860937000000000E+01
4809000000.000000      5.157166000000000E-01     -1.684297000000000E+02      2.885437000000000E-01     -2.256543000000000E+01      2.814636000000000E-01     -1.418437000000000E+02      6.438599000000000E-01     -7.840234000000000E+01
4810000000.000000      5.187073000000000E-01     -1.684453000000000E+02      2.929077000000000E-01     -2.264453000000000E+01      2.854004000000000E-01     -1.419844000000000E+02      6.439514000000000E-01     -7.830078000000000E+01
4811000000.000000      5.218811000000000E-01     -1.683906000000000E+02      2.966919000000000E-01     -2.316113000000000E+01      2.890320000000000E-01     -1.419453000000000E+02      6.427917000000000E-01     -7.796093000000000E+01
4812000000.000000      5.257263000000000E-01     -1.683906000000000E+02      3.003845000000000E-01     -2.351563000000000E+01      2.921753000000000E-01     -1.420938000000000E+02      6.445923000000000E-01     -7.780078000000000E+01
4813000000.000000      5.282288000000000E-01     -1.682891000000000E+02      3.047180000000000E-01     -2.394629000000000E+01      2.945709000000000E-01     -1.421953000000000E+02      6.453857000000000E-01     -7.765625000000000E+01
4814000000.000000      5.314636000000000E-01     -1.683672000000000E+02      3.080597000000000E-01     -2.427637000000000E+01      2.984009000000000E-01     -1.424375000000000E+02      6.465149000000000E-01     -7.748047000000000E+01
4815000000.000000      5.352173000000000E-01     -1.681719000000000E+02      3.110046000000000E-01     -2.474707000000000E+01      3.013763000000000E-01     -1.426563000000000E+02      6.466980000000000E-01     -7.705859000000000E+01
4816000000.000000      5.396118000000000E-01     -1.681250000000000E+02      3.154144000000000E-01     -2.498242000000000E+01      3.055573000000000E-01     -1.427734000000000E+02      6.487427000000000E-01     -7.698047000000000E+01
4817000000.000000      5.440369000000000E-01     -1.680234000000000E+02      3.190155000000000E-01     -2.557910000000000E+01      3.083191000000000E-01     -1.429297000000000E+02      6.485291000000000E-01     -7.693749000000000E+01
4818000000.000000      5.476379000000000E-01     -1.679844000000000E+02      3.218994000000000E-01     -2.592968000000000E+01      3.110199000000000E-01     -1.430625000000000E+02      6.506653000000000E-01     -7.675390000000000E+01
4819000000.000000      5.530090000000000E-01     -1.679453000000000E+02      3.253937000000000E-01     -2.644433000000000E+01      3.134918000000000E-01     -1.433516000000000E+02      6.532288000000000E-01     -7.667969000000000E+01
4820000000.000000      5.553284000000000E-01     -1.678125000000000E+02      3.289032000000000E-01     -2.687402000000000E+01      3.170624000000000E-01     -1.434766000000000E+02      6.541138000000000E-01     -7.643359000000000E+01
4821000000.000000      5.614624000000000E-01     -1.676875000000000E+02      3.320923000000000E-01     -2.739453000000000E+01      3.199921000000000E-01     -1.436328000000000E+02      6.564026000000000E-01     -7.634375000000000E+01
4822000000.000000      5.678711000000000E-01     -1.677344000000000E+02      3.347778000000000E-01     -2.788671000000000E+01      3.224335000000000E-01     -1.438672000000000E+02      6.597900000000000E-01     -7.611328000000000E+01
4823000000.000000      5.715942000000000E-01     -1.675937000000000E+02      3.380737000000000E-01     -2.827246000000000E+01      3.253479000000000E-01     -1.439062000000000E+02      6.608582000000000E-01     -7.599999000000000E+01
4824000000.000000      5.785217000000000E-01     -1.675234000000000E+02      3.416595000000000E-01     -2.888379000000000E+01      3.289948000000000E-01     -1.443281000000000E+02      6.628113000000000E-01     -7.588672000000000E+01
4825000000.000000      5.821228000000000E-01     -1.674609000000000E+02      3.438263000000000E-01     -2.929590000000000E+01      3.314667000000000E-01     -1.444844000000000E+02      6.663818000000000E-01     -7.571484000000000E+01
4826000000.000000      5.887756000000000E-01     -1.673437000000000E+02      3.482361000000000E-01     -2.991894000000000E+01      3.336792000000000E-01     -1.446328000000000E+02      6.679382000000000E-01     -7.569921000000000E+01
4827000000.000000      5.942383000000000E-01     -1.671875000000000E+02      3.503418000000000E-01     -3.012890000000000E+01      3.365021000000000E-01     -1.448750000000000E+02      6.711121000000000E-01     -7.555859000000000E+01
4828000000.000000      6.009521000000000E-01     -1.671719000000000E+02      3.535919000000000E-01     -3.090332000000000E+01      3.389893000000000E-01     -1.450156000000000E+02      6.754150000000000E-01     -7.542969000000000E+01
4829000000.000000      6.042786000000000E-01     -1.669531000000000E+02      3.555908000000000E-01     -3.137500000000000E+01      3.415070000000000E-01     -1.452656000000000E+02      6.782532000000000E-01     -7.521484000000000E+01
4830000000.000000      6.119385000000000E-01     -1.669844000000000E+02      3.582611000000000E-01     -3.194433000000000E+01      3.441772000000000E-01     -1.453203000000000E+02      6.794128000000000E-01     -7.531640000000000E+01
4831000000.000000      6.166687000000000E-01     -1.668437000000000E+02      3.607178000000000E-01     -3.239453000000000E+01      3.466339000000000E-01     -1.455547000000000E+02      6.827698000000000E-01     -7.511719000000000E+01
4832000000.000000      6.255798000000000E-01     -1.668125000000000E+02      3.638458000000000E-01     -3.297461000000000E+01      3.487396000000000E-01     -1.457891000000000E+02      6.864014000000000E-01     -7.512109000000000E+01
4833000000.000000      6.310120000000000E-01     -1.667734000000000E+02      3.657684000000000E-01     -3.343554000000000E+01      3.508453000000000E-01     -1.460078000000000E+02      6.905518000000000E-01     -7.502343000000000E+01
4834000000.000000      6.372986000000000E-01     -1.666641000000000E+02      3.673706000000000E-01     -3.396093000000000E+01      3.530884000000000E-01     -1.461953000000000E+02      6.930237000000000E-01     -7.486718000000000E+01
4835000000.000000      6.440735000000000E-01     -1.665625000000000E+02      3.705444000000000E-01     -3.462305000000000E+01      3.553619000000000E-01     -1.465156000000000E+02      6.959839000000000E-01     -7.490234000000000E+01
4836000000.000000      6.529236000000000E-01     -1.665625000000000E+02      3.716583000000000E-01     -3.517578000000000E+01      3.578949000000000E-01     -1.465625000000000E+02      7.008972000000000E-01     -7.483984000000000E+01
4837000000.000000      6.587524000000000E-01     -1.663203000000000E+02      3.736267000000000E-01     -3.601758000000000E+01      3.594666000000000E-01     -1.469141000000000E+02      7.042236000000000E-01     -7.473046000000000E+01
4838000000.000000      6.658936000000000E-01     -1.664063000000000E+02      3.762970000000000E-01     -3.621875000000000E+01      3.619080000000000E-01     -1.471172000000000E+02      7.085571000000000E-01     -7.473827000000000E+01
4839000000.000000      6.730957000000000E-01     -1.662344000000000E+02      3.773651000000000E-01     -3.683008000000000E+01      3.637238000000000E-01     -1.471562000000000E+02      7.119751000000000E-01     -7.460155000000000E+01
4840000000.000000      6.778259000000000E-01     -1.662578000000000E+02      3.789368000000000E-01     -3.732031000000000E+01      3.664398000000000E-01     -1.473906000000000E+02      7.156982000000000E-01     -7.464062000000000E+01
4841000000.000000      6.860657000000000E-01     -1.662188000000000E+02      3.805847000000000E-01     -3.816797000000000E+01      3.682251000000000E-01     -1.475312000000000E+02      7.206726000000000E-01     -7.471484000000000E+01
4842000000.000000      6.938477000000000E-01     -1.661562000000000E+02      3.825073000000000E-01     -3.856640000000000E+01      3.688812000000000E-01     -1.477031000000000E+02      7.249146000000000E-01     -7.451172000000000E+01
4843000000.000000      7.003784000000000E-01     -1.662188000000000E+02      3.833466000000000E-01     -3.911523000000000E+01      3.710175000000000E-01     -1.479453000000000E+02      7.289124000000000E-01     -7.452734000000000E+01
4844000000.000000      7.072144000000000E-01     -1.661016000000000E+02      3.840179000000000E-01     -3.961523000000000E+01      3.727875000000000E-01     -1.481953000000000E+02      7.322083000000000E-01     -7.462109000000000E+01
4845000000.000000      7.133179000000000E-01     -1.660156000000000E+02      3.847961000000000E-01     -4.000977000000000E+01      3.748474000000000E-01     -1.483047000000000E+02      7.370300000000000E-01     -7.450390000000000E+01
4846000000.000000      7.206116000000000E-01     -1.659297000000000E+02      3.868103000000000E-01     -4.061523000000000E+01      3.772888000000000E-01     -1.484688000000000E+02      7.420959000000000E-01     -7.448828000000000E+01
4847000000.000000      7.285156000000000E-01     -1.659375000000000E+02      3.871765000000000E-01     -4.124804000000000E+01      3.778687000000000E-01     -1.487813000000000E+02      7.478638000000000E-01     -7.458984000000000E+01
4848000000.000000      7.366333000000000E-01     -1.659453000000000E+02      3.878174000000000E-01     -4.180860000000000E+01      3.800049000000000E-01     -1.488906000000000E+02      7.505188000000000E-01     -7.461328000000000E+01
4849000000.000000      7.430420000000000E-01     -1.661484000000000E+02      3.889313000000000E-01     -4.246289000000000E+01      3.813324000000000E-01     -1.491094000000000E+02      7.553101000000000E-01     -7.451953000000000E+01
4850000000.000000      7.505493000000000E-01     -1.659531000000000E+02      3.884735000000000E-01     -4.284765000000000E+01      3.835602000000000E-01     -1.492266000000000E+02      7.591553000000000E-01     -7.451172000000000E+01
4851000000.000000      7.571106000000000E-01     -1.660156000000000E+02      3.903351000000000E-01     -4.354688000000000E+01      3.842926000000000E-01     -1.494297000000000E+02      7.652588000000000E-01     -7.458202000000000E+01
4852000000.000000      7.641907000000000E-01     -1.659531000000000E+02      3.895416000000000E-01     -4.402929000000000E+01      3.861389000000000E-01     -1.495156000000000E+02      7.694702000000000E-01     -7.459374000000000E+01
4853000000.000000      7.710571000000000E-01     -1.659219000000000E+02      3.892059000000000E-01     -4.449609000000000E+01      3.884888000000000E-01     -1.497734000000000E+02      7.747803000000000E-01     -7.478516000000000E+01
4854000000.000000      7.776184000000000E-01     -1.659609000000000E+02      3.910065000000000E-01     -4.512109000000000E+01      3.892822000000000E-01     -1.499375000000000E+02      7.790833000000000E-01     -7.475390000000000E+01
4855000000.000000      7.817688000000000E-01     -1.659219000000000E+02      3.895416000000000E-01     -4.549805000000000E+01      3.901520000000000E-01     -1.500547000000000E+02      7.834167000000000E-01     -7.476563000000000E+01
4856000000.000000      7.898865000000000E-01     -1.659375000000000E+02      3.896027000000000E-01     -4.595899000000000E+01      3.915710000000000E-01     -1.502266000000000E+02      7.886047000000000E-01     -7.478906000000000E+01
4857000000.000000      7.960815000000000E-01     -1.659688000000000E+02      3.894501000000000E-01     -4.650391000000000E+01      3.925629000000000E-01     -1.504766000000000E+02      7.929688000000000E-01     -7.481250000000000E+01
4858000000.000000      8.002014000000000E-01     -1.660625000000000E+02      3.894043000000000E-01     -4.690234000000000E+01      3.935394000000000E-01     -1.506953000000000E+02      7.977600000000000E-01     -7.496094000000000E+01
4859000000.000000      8.080750000000000E-01     -1.660156000000000E+02      3.886871000000000E-01     -4.741992000000000E+01      3.950653000000000E-01     -1.508672000000000E+02      8.044128000000000E-01     -7.494922000000000E+01
4860000000.000000      8.149109000000000E-01     -1.660234000000000E+02      3.889618000000000E-01     -4.782227000000000E+01      3.957520000000000E-01     -1.508750000000000E+02      8.083496000000000E-01     -7.496094000000000E+01
4861000000.000000      8.204651000000000E-01     -1.659609000000000E+02      3.881531000000000E-01     -4.843945000000000E+01      3.972321000000000E-01     -1.511641000000000E+02      8.122559000000000E-01     -7.516406000000000E+01
4862000000.000000      8.253479000000000E-01     -1.660391000000000E+02      3.886108000000000E-01     -4.873241000000000E+01      3.990326000000000E-01     -1.512969000000000E+02      8.191833000000000E-01     -7.516015000000000E+01
4863000000.000000      8.299255000000000E-01     -1.659062000000000E+02      3.860474000000000E-01     -4.941992000000000E+01      3.996277000000000E-01     -1.514844000000000E+02      8.233337000000000E-01     -7.520702000000000E+01
4864000000.000000      8.362122000000000E-01     -1.659765000000000E+02      3.860779000000000E-01     -4.959961000000000E+01      3.997650000000000E-01     -1.515391000000000E+02      8.287354000000000E-01     -7.527344000000000E+01
4865000000.000000      8.389893000000000E-01     -1.660938000000000E+02      3.845978000000000E-01     -5.005468000000000E+01      4.007416000000000E-01     -1.518437000000000E+02      8.336182000000000E-01     -7.525781000000000E+01
4866000000.000000      8.439636000000000E-01     -1.659219000000000E+02      3.839264000000000E-01     -5.044922000000000E+01      4.020081000000000E-01     -1.519687000000000E+02      8.379211000000000E-01     -7.541016000000000E+01
4867000000.000000      8.497925000000000E-01     -1.660469000000000E+02      3.835449000000000E-01     -5.091406000000000E+01      4.025879000000000E-01     -1.521641000000000E+02      8.426819000000000E-01     -7.553124000000000E+01
4868000000.000000      8.536377000000000E-01     -1.660078000000000E+02      3.825073000000000E-01     -5.130664000000000E+01      4.042969000000000E-01     -1.522578000000000E+02      8.481750000000000E-01     -7.546484000000000E+01
4869000000.000000      8.578186000000000E-01     -1.659141000000000E+02      3.791962000000000E-01     -5.176952000000000E+01      4.044495000000000E-01     -1.525703000000000E+02      8.509216000000000E-01     -7.572656000000000E+01
4870000000.000000      8.612976000000000E-01     -1.659688000000000E+02      3.793488000000000E-01     -5.175390000000000E+01      4.048157000000000E-01     -1.526953000000000E+02      8.566284000000000E-01     -7.573047000000000E+01
4871000000.000000      8.650818000000000E-01     -1.661250000000000E+02      3.788605000000000E-01     -5.233788000000000E+01      4.045715000000000E-01     -1.529297000000000E+02      8.612671000000000E-01     -7.587891000000000E+01
4872000000.000000      8.688354000000000E-01     -1.659141000000000E+02      3.767395000000000E-01     -5.248632000000000E+01      4.054413000000000E-01     -1.531875000000000E+02      8.659668000000000E-01     -7.597656000000000E+01
4873000000.000000      8.712769000000000E-01     -1.657891000000000E+02      3.751678000000000E-01     -5.289453000000000E+01      4.055634000000000E-01     -1.531797000000000E+02      8.706360000000000E-01     -7.612890000000000E+01
4874000000.000000      8.769836000000000E-01     -1.658281000000000E+02      3.743134000000000E-01     -5.317383000000000E+01      4.070892000000000E-01     -1.533125000000000E+02      8.749695000000000E-01     -7.607422000000000E+01
4875000000.000000      8.802490000000000E-01     -1.658906000000000E+02      3.720093000000000E-01     -5.358398000000000E+01      4.069977000000000E-01     -1.536172000000000E+02      8.783264000000000E-01     -7.641406000000000E+01
4876000000.000000      8.817139000000000E-01     -1.657422000000000E+02      3.715668000000000E-01     -5.384960000000000E+01      4.063568000000000E-01     -1.537578000000000E+02      8.833618000000000E-01     -7.644921000000000E+01
4877000000.000000      8.833618000000000E-01     -1.657344000000000E+02      3.702393000000000E-01     -5.394531000000000E+01      4.076996000000000E-01     -1.539531000000000E+02      8.878479000000000E-01     -7.668750000000000E+01
4878000000.000000      8.858032000000000E-01     -1.656016000000000E+02      3.692169000000000E-01     -5.423242000000000E+01      4.077606000000000E-01     -1.539609000000000E+02      8.924255000000000E-01     -7.671484000000000E+01
4879000000.000000      8.906860000000000E-01     -1.655859000000000E+02      3.663788000000000E-01     -5.432617000000000E+01      4.075470000000000E-01     -1.541797000000000E+02      8.955383000000000E-01     -7.667969000000000E+01
4880000000.000000      8.907471000000000E-01     -1.656406000000000E+02      3.659210000000000E-01     -5.476563000000000E+01      4.084625000000000E-01     -1.542891000000000E+02      9.004822000000000E-01     -7.687500000000000E+01
4881000000.000000      8.927307000000000E-01     -1.654219000000000E+02      3.646240000000000E-01     -5.476563000000000E+01      4.084930000000000E-01     -1.545312000000000E+02      9.035645000000000E-01     -7.697266000000000E+01
4882000000.000000      8.930969000000000E-01     -1.653359000000000E+02      3.627014000000000E-01     -5.499804000000000E+01      4.081116000000000E-01     -1.546094000000000E+02      9.062500000000000E-01     -7.710546000000000E+01
