! Network Analyzer HP8722D
! Hewlett-Packard
! Data name: Linha & Wilkinson
! Saver's name: Rodrigo Anjos
! Comments: Teste da utilização de aquisição
continua pelo VNA HP8722D
! Time and date: 6/5/2025 12:46
!              Frequency                     S11                                                   S21                                                   S12                                                   S22
# HZ  S  MA R 50
4800000000.000000      9.517517000000000E-01      1.644297000000000E+02      4.376526000000000E-01      1.240625000000000E+02      4.339905000000000E-01      1.911816000000000E+01      9.513550000000000E-01     -3.651172000000000E+01
4801000000.000000      9.517212000000000E-01      1.643125000000000E+02      4.392700000000000E-01      1.235508000000000E+02      4.337769000000000E-01      1.847168000000000E+01      9.495239000000000E-01     -3.703516000000000E+01
4802000000.000000      9.496460000000000E-01      1.644140000000000E+02      4.395752000000000E-01      1.232383000000000E+02      4.360809000000000E-01      1.842676000000000E+01      9.472046000000000E-01     -3.732226000000000E+01
4803000000.000000      9.472656000000000E-01      1.644140000000000E+02      4.442749000000000E-01      1.228047000000000E+02      4.365082000000000E-01      1.820117000000000E+01      9.424438000000000E-01     -3.798242000000000E+01
4804000000.000000      9.479675000000000E-01      1.645469000000000E+02      4.454498000000000E-01      1.222852000000000E+02      4.378357000000000E-01      1.777832000000000E+01      9.364319000000000E-01     -3.827929000000000E+01
4805000000.000000      9.481812000000000E-01      1.644219000000000E+02      4.473877000000000E-01      1.217969000000000E+02      4.377441000000000E-01      1.741015000000000E+01      9.319458000000000E-01     -3.882813000000000E+01
4806000000.000000      9.454651000000000E-01      1.646016000000000E+02      4.482574000000000E-01      1.213047000000000E+02      4.369202000000000E-01      1.723828000000000E+01      9.266052000000000E-01     -3.946289000000000E+01
4807000000.000000      9.484863000000000E-01      1.646484000000000E+02      4.510956000000000E-01      1.208242000000000E+02      4.385681000000000E-01      1.677051000000000E+01      9.205627000000000E-01     -3.974218000000000E+01
4808000000.000000      9.453125000000000E-01      1.646875000000000E+02      4.531860000000000E-01      1.206641000000000E+02      4.399109000000000E-01      1.649023000000000E+01      9.167480000000000E-01     -4.021484000000000E+01
4809000000.000000      9.432373000000000E-01      1.648672000000000E+02      4.534607000000000E-01      1.197383000000000E+02      4.409027000000000E-01      1.608496000000000E+01      9.127502000000000E-01     -4.072656000000000E+01
4810000000.000000      9.431458000000000E-01      1.648672000000000E+02      4.565125000000000E-01      1.195234000000000E+02      4.412079000000000E-01      1.586670000000000E+01      9.078369000000000E-01     -4.126172000000000E+01
4811000000.000000      9.408875000000000E-01      1.649219000000000E+02      4.590149000000000E-01      1.187578000000000E+02      4.420929000000000E-01      1.550977000000000E+01      9.024658000000000E-01     -4.155078000000000E+01
4812000000.000000      9.395142000000000E-01      1.648672000000000E+02      4.591827000000000E-01      1.182265000000000E+02      4.425507000000000E-01      1.528027000000000E+01      8.962402000000000E-01     -4.212110000000000E+01
4813000000.000000      9.366150000000000E-01      1.650156000000000E+02      4.619904000000000E-01      1.177773000000000E+02      4.427643000000000E-01      1.497412000000000E+01      8.895264000000000E-01     -4.249219000000000E+01
4814000000.000000      9.331665000000000E-01      1.649375000000000E+02      4.617310000000000E-01      1.175078000000000E+02      4.420624000000000E-01      1.463379000000000E+01      8.857422000000000E-01     -4.307031000000000E+01
4815000000.000000      9.345093000000000E-01      1.651094000000000E+02      4.650421000000000E-01      1.168047000000000E+02      4.413147000000000E-01      1.463916000000000E+01      8.791809000000000E-01     -4.337695000000000E+01
4816000000.000000      9.312439000000000E-01      1.652031000000000E+02      4.683533000000000E-01      1.165039000000000E+02      4.456177000000000E-01      1.404150000000000E+01      8.731384000000000E-01     -4.398633000000000E+01
4817000000.000000      9.302063000000000E-01      1.651250000000000E+02      4.689941000000000E-01      1.156641000000000E+02      4.438782000000000E-01      1.400049000000000E+01      8.678894000000000E-01     -4.427539000000000E+01
4818000000.000000      9.267883000000000E-01      1.653203000000000E+02      4.701843000000000E-01      1.152266000000000E+02      4.447632000000000E-01      1.368896000000000E+01      8.602295000000000E-01     -4.493164000000000E+01
4819000000.000000      9.259644000000000E-01      1.653594000000000E+02      4.719849000000000E-01      1.146211000000000E+02      4.443512000000000E-01      1.305420000000000E+01      8.532104000000000E-01     -4.543164000000000E+01
4820000000.000000      9.208679000000000E-01      1.653203000000000E+02      4.745178000000000E-01      1.140703000000000E+02      4.451904000000000E-01      1.291992000000000E+01      8.487244000000000E-01     -4.579102000000000E+01
4821000000.000000      9.198914000000000E-01      1.654844000000000E+02      4.765320000000000E-01      1.134805000000000E+02      4.458160000000000E-01      1.265625000000000E+01      8.434753000000000E-01     -4.615234000000000E+01
4822000000.000000      9.183044000000000E-01      1.654219000000000E+02      4.760742000000000E-01      1.127773000000000E+02      4.438629000000000E-01      1.225342000000000E+01      8.367310000000000E-01     -4.679101000000000E+01
4823000000.000000      9.156189000000000E-01      1.653359000000000E+02      4.779816000000000E-01      1.121914000000000E+02      4.452362000000000E-01      1.207373000000000E+01      8.296509000000000E-01     -4.723046000000000E+01
4824000000.000000      9.145813000000000E-01      1.654140000000000E+02      4.806213000000000E-01      1.114687000000000E+02      4.457550000000000E-01      1.154785000000000E+01      8.230896000000000E-01     -4.768555000000000E+01
4825000000.000000      9.094238000000000E-01      1.655156000000000E+02      4.802246000000000E-01      1.110390000000000E+02      4.460754000000000E-01      1.140234000000000E+01      8.178101000000000E-01     -4.821094000000000E+01
4826000000.000000      9.075012000000000E-01      1.655937000000000E+02      4.813690000000000E-01      1.102031000000000E+02      4.469452000000000E-01      1.102051000000000E+01      8.117676000000000E-01     -4.861718000000000E+01
4827000000.000000      9.057922000000000E-01      1.656016000000000E+02      4.837952000000000E-01      1.097890000000000E+02      4.465485000000000E-01      1.060840000000000E+01      8.049927000000000E-01     -4.909180000000000E+01
4828000000.000000      9.039917000000000E-01      1.654140000000000E+02      4.852600000000000E-01      1.089570000000000E+02      4.455414000000000E-01      1.050977000000000E+01      7.989502000000000E-01     -4.963281000000000E+01
4829000000.000000      8.968201000000000E-01      1.655781000000000E+02      4.831085000000000E-01      1.080664000000000E+02      4.479675000000000E-01      1.011816000000000E+01      7.948303000000000E-01     -5.006054000000000E+01
4830000000.000000      8.960571000000000E-01      1.655937000000000E+02      4.865112000000000E-01      1.074922000000000E+02      4.468536000000000E-01      9.896973000000000E+00      7.839966000000000E-01     -5.049999000000000E+01
4831000000.000000      8.926392000000000E-01      1.657578000000000E+02      4.867096000000000E-01      1.069102000000000E+02      4.462738000000000E-01      9.627930000000000E+00      7.785034000000000E-01     -5.089062000000000E+01
4832000000.000000      8.894043000000000E-01      1.656016000000000E+02      4.853973000000000E-01      1.058867000000000E+02      4.453430000000000E-01      9.237793000000000E+00      7.714539000000000E-01     -5.130664000000000E+01
4833000000.000000      8.862610000000000E-01      1.654766000000000E+02      4.877625000000000E-01      1.054453000000000E+02      4.461365000000000E-01      8.857422000000000E+00      7.644043000000000E-01     -5.180078000000000E+01
4834000000.000000      8.820801000000000E-01      1.656875000000000E+02      4.882660000000000E-01      1.046719000000000E+02      4.464569000000000E-01      8.552734000000000E+00      7.577515000000000E-01     -5.220117000000000E+01
4835000000.000000      8.804626000000000E-01      1.657656000000000E+02      4.879761000000000E-01      1.040312000000000E+02      4.465485000000000E-01      8.314941000000000E+00      7.500916000000000E-01     -5.272070000000000E+01
4836000000.000000      8.766479000000000E-01      1.657109000000000E+02      4.886017000000000E-01      1.031758000000000E+02      4.456940000000000E-01      8.128418000000000E+00      7.447205000000000E-01     -5.307226000000000E+01
4837000000.000000      8.717651000000000E-01      1.657969000000000E+02      4.866943000000000E-01      1.021523000000000E+02      4.465790000000000E-01      7.581787000000000E+00      7.362061000000000E-01     -5.344727000000000E+01
4838000000.000000      8.683777000000000E-01      1.656641000000000E+02      4.874115000000000E-01      1.014609000000000E+02      4.475708000000000E-01      7.407471000000000E+00      7.294312000000000E-01     -5.388476000000000E+01
4839000000.000000      8.675537000000000E-01      1.657656000000000E+02      4.864197000000000E-01      1.011406000000000E+02      4.475098000000000E-01      6.940430000000000E+00      7.224731000000000E-01     -5.426562000000000E+01
4840000000.000000      8.600464000000000E-01      1.656875000000000E+02      4.872742000000000E-01      1.002148000000000E+02      4.458313000000000E-01      6.405029000000000E+00      7.151184000000000E-01     -5.471484000000000E+01
4841000000.000000      8.576660000000000E-01      1.656641000000000E+02      4.875336000000000E-01      9.934374000000000E+01      4.473572000000000E-01      6.150879000000000E+00      7.084045000000000E-01     -5.503515000000000E+01
4842000000.000000      8.565979000000000E-01      1.657500000000000E+02      4.849243000000000E-01      9.868750000000000E+01      4.459991000000000E-01      5.791016000000000E+00      7.016602000000000E-01     -5.547265000000000E+01
4843000000.000000      8.527222000000000E-01      1.655781000000000E+02      4.846802000000000E-01      9.789452000000000E+01      4.451904000000000E-01      5.427246000000000E+00      6.933594000000000E-01     -5.586132000000000E+01
4844000000.000000      8.469849000000000E-01      1.658828000000000E+02      4.830627000000000E-01      9.718359000000000E+01      4.459381000000000E-01      5.146973000000000E+00      6.856384000000000E-01     -5.620117000000000E+01
4845000000.000000      8.440552000000000E-01      1.658672000000000E+02      4.816437000000000E-01      9.654297000000000E+01      4.456177000000000E-01      4.768066000000000E+00      6.795349000000000E-01     -5.647851000000000E+01
4846000000.000000      8.399048000000000E-01      1.656875000000000E+02      4.810791000000000E-01      9.564453000000000E+01      4.465942000000000E-01      4.460449000000000E+00      6.710815000000000E-01     -5.690624000000000E+01
4847000000.000000      8.371277000000000E-01      1.658125000000000E+02      4.793243000000000E-01      9.503906000000000E+01      4.455719000000000E-01      3.906982000000000E+00      6.641541000000000E-01     -5.734570000000000E+01
4848000000.000000      8.344116000000000E-01      1.657187000000000E+02      4.774323000000000E-01      9.443750000000000E+01      4.459381000000000E-01      3.593872000000000E+00      6.551514000000000E-01     -5.758398000000000E+01
4849000000.000000      8.294067000000000E-01      1.655469000000000E+02      4.781189000000000E-01      9.338671000000000E+01      4.451904000000000E-01      3.099487000000000E+00      6.474304000000000E-01     -5.783008000000000E+01
4850000000.000000      8.255920000000000E-01      1.657500000000000E+02      4.736023000000000E-01      9.272655000000000E+01      4.442902000000000E-01      2.735596000000000E+00      6.405640000000000E-01     -5.816015000000000E+01
4851000000.000000      8.209534000000000E-01      1.656250000000000E+02      4.730530000000000E-01      9.210546000000000E+01      4.439087000000000E-01      2.414185000000000E+00      6.331787000000000E-01     -5.837891000000000E+01
4852000000.000000      8.183594000000000E-01      1.656406000000000E+02      4.707031000000000E-01      9.136328000000000E+01      4.437714000000000E-01      1.996765000000000E+00      6.253052000000000E-01     -5.874218000000000E+01
4853000000.000000      8.157349000000000E-01      1.656875000000000E+02      4.664001000000000E-01      9.074219000000000E+01      4.443207000000000E-01      1.550415000000000E+00      6.172791000000000E-01     -5.905468000000000E+01
4854000000.000000      8.117981000000000E-01      1.655703000000000E+02      4.650574000000000E-01      8.989452000000000E+01      4.427643000000000E-01      1.061523000000000E+00      6.091919000000000E-01     -5.922265000000000E+01
4855000000.000000      8.059692000000000E-01      1.654922000000000E+02      4.631653000000000E-01      8.925781000000000E+01      4.423370000000000E-01      6.481934000000000E-01      5.995789000000000E-01     -5.932031000000000E+01
4856000000.000000      8.050232000000000E-01      1.655937000000000E+02      4.602509000000000E-01      8.856249000000000E+01      4.424133000000000E-01      2.252197000000000E-01      5.924683000000000E-01     -5.961719000000000E+01
4857000000.000000      7.991028000000000E-01      1.654609000000000E+02      4.589233000000000E-01      8.766016000000000E+01      4.409027000000000E-01     -1.826477000000000E-01      5.849304000000000E-01     -5.979882000000000E+01
4858000000.000000      7.958374000000000E-01      1.655000000000000E+02      4.560699000000000E-01      8.719141000000000E+01      4.401398000000000E-01     -6.990051000000000E-01      5.763245000000000E-01     -6.001367000000000E+01
4859000000.000000      7.918701000000000E-01      1.654687000000000E+02      4.533539000000000E-01      8.647655000000000E+01      4.387512000000000E-01     -1.203003000000000E+00      5.697327000000000E-01     -6.008984000000000E+01
4860000000.000000      7.898560000000000E-01      1.654922000000000E+02      4.512482000000000E-01      8.596483000000000E+01      4.377899000000000E-01     -1.643860000000000E+00      5.596008000000000E-01     -6.003515000000000E+01
4861000000.000000      7.857056000000000E-01      1.653984000000000E+02      4.464264000000000E-01      8.508593000000000E+01      4.375000000000000E-01     -2.176758000000000E+00      5.506897000000000E-01     -6.036718000000000E+01
4862000000.000000      7.799072000000000E-01      1.653281000000000E+02      4.447021000000000E-01      8.479296000000000E+01      4.354401000000000E-01     -2.574951000000000E+00      5.445557000000000E-01     -6.038867000000000E+01
4863000000.000000      7.740784000000000E-01      1.654922000000000E+02      4.415894000000000E-01      8.385546000000000E+01      4.358368000000000E-01     -3.135254000000000E+00      5.352478000000000E-01     -6.036327000000000E+01
4864000000.000000      7.737732000000000E-01      1.654375000000000E+02      4.398346000000000E-01      8.339062000000000E+01      4.352112000000000E-01     -3.519775000000000E+00      5.275574000000000E-01     -6.043359000000000E+01
4865000000.000000      7.709961000000000E-01      1.651406000000000E+02      4.358978000000000E-01      8.275782000000000E+01      4.327698000000000E-01     -4.042969000000000E+00      5.198669000000000E-01     -6.023046000000000E+01
4866000000.000000      7.650757000000000E-01      1.652656000000000E+02      4.333649000000000E-01      8.210155000000000E+01      4.325867000000000E-01     -4.808105000000000E+00      5.115356000000000E-01     -6.009179000000000E+01
4867000000.000000      7.636108000000000E-01      1.651875000000000E+02      4.306488000000000E-01      8.132030000000000E+01      4.304657000000000E-01     -5.202148000000000E+00      5.033264000000000E-01     -6.007617000000000E+01
4868000000.000000      7.609863000000000E-01      1.652422000000000E+02      4.270172000000000E-01      8.082422000000000E+01      4.291382000000000E-01     -5.679932000000000E+00      4.932709000000000E-01     -6.001171000000000E+01
4869000000.000000      7.554016000000000E-01      1.651953000000000E+02      4.244690000000000E-01      8.023438000000000E+01      4.283295000000000E-01     -6.149658000000000E+00      4.873505000000000E-01     -5.989648000000000E+01
4870000000.000000      7.526245000000000E-01      1.652266000000000E+02      4.209137000000000E-01      7.971093000000000E+01      4.266663000000000E-01     -6.708740000000000E+00      4.791870000000000E-01     -5.947460000000000E+01
4871000000.000000      7.481689000000000E-01      1.651562000000000E+02      4.174347000000000E-01      7.919140000000000E+01      4.239807000000000E-01     -7.473633000000000E+00      4.711761000000000E-01     -5.938086000000000E+01
4872000000.000000      7.478943000000000E-01      1.650781000000000E+02      4.152527000000000E-01      7.873828000000000E+01      4.241638000000000E-01     -8.000977000000000E+00      4.638214000000000E-01     -5.897851000000000E+01
4873000000.000000      7.424011000000000E-01      1.651953000000000E+02      4.114532000000000E-01      7.807812000000000E+01      4.213715000000000E-01     -8.421387000000000E+00      4.549408000000000E-01     -5.859961000000000E+01
4874000000.000000      7.424316000000000E-01      1.652734000000000E+02      4.094391000000000E-01      7.761719000000000E+01      4.203186000000000E-01     -9.096680000000000E+00      4.479980000000000E-01     -5.806445000000000E+01
4875000000.000000      7.403870000000000E-01      1.650234000000000E+02      4.057312000000000E-01      7.700781000000000E+01      4.181213000000000E-01     -9.647461000000000E+00      4.406891000000000E-01     -5.765038000000000E+01
4876000000.000000      7.356873000000000E-01      1.651562000000000E+02      4.029694000000000E-01      7.633594000000000E+01      4.147186000000000E-01     -1.031787000000000E+01      4.343109000000000E-01     -5.735156000000000E+01
4877000000.000000      7.342224000000000E-01      1.651719000000000E+02      3.997955000000000E-01      7.596484000000000E+01      4.121094000000000E-01     -1.087793000000000E+01      4.267883000000000E-01     -5.666601000000000E+01
4878000000.000000      7.318115000000000E-01      1.650625000000000E+02      3.983765000000000E-01      7.512500000000000E+01      4.111481000000000E-01     -1.133545000000000E+01      4.202881000000000E-01     -5.599023000000000E+01
4879000000.000000      7.312622000000000E-01      1.651406000000000E+02      3.925323000000000E-01      7.473046000000000E+01      4.084015000000000E-01     -1.193018000000000E+01      4.139404000000000E-01     -5.520508000000000E+01
4880000000.000000      7.260437000000000E-01      1.649688000000000E+02      3.893585000000000E-01      7.410546000000000E+01      4.059296000000000E-01     -1.249561000000000E+01      4.075623000000000E-01     -5.444530000000000E+01
4881000000.000000      7.283020000000000E-01      1.651016000000000E+02      3.875580000000000E-01      7.385156000000000E+01      4.039307000000000E-01     -1.307520000000000E+01      4.016876000000000E-01     -5.364843000000000E+01
4882000000.000000      7.248535000000000E-01      1.651484000000000E+02      3.839111000000000E-01      7.303905000000000E+01      4.020233000000000E-01     -1.379639000000000E+01      3.956299000000000E-01     -5.272070000000000E+01
