! Network Analyzer HP8722D
! Hewlett-Packard
! Data name: Linha & Wilkinson
! Saver's name: Rodrigo Anjos
! Comments: Teste da utilização de aquisição
continua pelo VNA HP8722D
! Time and date: 6/5/2025 12:54
!              Frequency                     S11                                                   S21                                                   S12                                                   S22
# HZ  S  MA R 50
4800000000.000000      5.435486000000000E-01      4.161328000000000E+01      1.655579000000000E-01      7.697656000000000E+01      1.555023000000000E-01      4.233007000000000E+01      4.029999000000000E-01      1.789063000000000E+01
4801000000.000000      5.469666000000000E-01      4.264062000000000E+01      1.635056000000000E-01      7.798046000000000E+01      1.541061000000000E-01      4.306250000000000E+01      4.024200000000000E-01      1.840527000000000E+01
4802000000.000000      5.520020000000000E-01      4.363671000000000E+01      1.622238000000000E-01      7.907812000000000E+01      1.529312000000000E-01      4.385742000000000E+01      4.014435000000000E-01      1.971191000000000E+01
4803000000.000000      5.532837000000000E-01      4.453711000000000E+01      1.613159000000000E-01      8.002733000000000E+01      1.515961000000000E-01      4.515429000000000E+01      3.984222000000000E-01      2.049902000000000E+01
4804000000.000000      5.576782000000000E-01      4.535546000000000E+01      1.604233000000000E-01      8.099218000000000E+01      1.508026000000000E-01      4.609765000000000E+01      3.943481000000000E-01      2.169434000000000E+01
4805000000.000000      5.637207000000000E-01      4.593359000000000E+01      1.597290000000000E-01      8.196875000000000E+01      1.495361000000000E-01      4.725195000000000E+01      3.910370000000000E-01      2.229590000000000E+01
4806000000.000000      5.656433000000000E-01      4.687890000000000E+01      1.587677000000000E-01      8.312891000000000E+01      1.489182000000000E-01      4.854492000000000E+01      3.878937000000000E-01      2.310742000000000E+01
4807000000.000000      5.700378000000000E-01      4.750390000000000E+01      1.580353000000000E-01      8.410156000000000E+01      1.489563000000000E-01      4.941406000000000E+01      3.869934000000000E-01      2.408691000000000E+01
4808000000.000000      5.737610000000000E-01      4.838672000000000E+01      1.583099000000000E-01      8.542187000000000E+01      1.486664000000000E-01      5.059960000000000E+01      3.836060000000000E-01      2.524219000000000E+01
4809000000.000000      5.782471000000000E-01      4.918163000000000E+01      1.579437000000000E-01      8.638672000000000E+01      1.488724000000000E-01      5.163086000000000E+01      3.826447000000000E-01      2.624414000000000E+01
4810000000.000000      5.824585000000000E-01      4.986523000000000E+01      1.582336000000000E-01      8.761719000000000E+01      1.483307000000000E-01      5.289063000000000E+01      3.788605000000000E-01      2.682129000000000E+01
4811000000.000000      5.867920000000000E-01      5.061523000000000E+01      1.583557000000000E-01      8.868750000000000E+01      1.489716000000000E-01      5.403320000000000E+01      3.776398000000000E-01      2.781250000000000E+01
4812000000.000000      5.913086000000000E-01      5.127148000000000E+01      1.588745000000000E-01      8.981249000000000E+01      1.489563000000000E-01      5.500195000000000E+01      3.756104000000000E-01      2.848730000000000E+01
4813000000.000000      5.958252000000000E-01      5.189258000000000E+01      1.590271000000000E-01      9.074610000000000E+01      1.496429000000000E-01      5.626562000000000E+01      3.756256000000000E-01      2.976171000000000E+01
4814000000.000000      5.986023000000000E-01      5.250195000000000E+01      1.600266000000000E-01      9.212891000000000E+01      1.501923000000000E-01      5.734961000000000E+01      3.724823000000000E-01      3.041211000000000E+01
4815000000.000000      6.024170000000000E-01      5.303320000000000E+01      1.607895000000000E-01      9.291796000000000E+01      1.511002000000000E-01      5.845703000000000E+01      3.706818000000000E-01      3.119824000000000E+01
4816000000.000000      6.088867000000000E-01      5.359375000000000E+01      1.621323000000000E-01      9.414454000000000E+01      1.524200000000000E-01      5.946875000000000E+01      3.697968000000000E-01      3.204102000000000E+01
4817000000.000000      6.114502000000000E-01      5.415429000000000E+01      1.633911000000000E-01      9.505859000000000E+01      1.532745000000000E-01      6.061718000000000E+01      3.659973000000000E-01      3.301562000000000E+01
4818000000.000000      6.141663000000000E-01      5.452148000000000E+01      1.641769000000000E-01      9.606640000000000E+01      1.547318000000000E-01      6.147851000000000E+01      3.638763000000000E-01      3.373437000000000E+01
4819000000.000000      6.184998000000000E-01      5.511132000000000E+01      1.654663000000000E-01      9.682421000000000E+01      1.562576000000000E-01      6.268359000000000E+01      3.627014000000000E-01      3.451562000000000E+01
4820000000.000000      6.187439000000000E-01      5.570703000000000E+01      1.670990000000000E-01      9.807030000000000E+01      1.579819000000000E-01      6.344727000000000E+01      3.614960000000000E-01      3.541406000000000E+01
4821000000.000000      6.246033000000000E-01      5.604492000000000E+01      1.695786000000000E-01      9.879686000000000E+01      1.590729000000000E-01      6.440234000000000E+01      3.605652000000000E-01      3.606640000000000E+01
4822000000.000000      6.266174000000000E-01      5.636523000000000E+01      1.702118000000000E-01      9.937109000000000E+01      1.607666000000000E-01      6.515625000000000E+01      3.595123000000000E-01      3.686718000000000E+01
4823000000.000000      6.298218000000000E-01      5.684179000000000E+01      1.729813000000000E-01      1.004180000000000E+02      1.621323000000000E-01      6.618750000000000E+01      3.556824000000000E-01      3.748437000000000E+01
4824000000.000000      6.338196000000000E-01      5.721289000000000E+01      1.746521000000000E-01      1.009805000000000E+02      1.650620000000000E-01      6.674218000000000E+01      3.541565000000000E-01      3.820898000000000E+01
4825000000.000000      6.360779000000000E-01      5.762890000000000E+01      1.766663000000000E-01      1.018320000000000E+02      1.674500000000000E-01      6.755468000000000E+01      3.532257000000000E-01      3.880859000000000E+01
4826000000.000000      6.390991000000000E-01      5.789844000000000E+01      1.797104000000000E-01      1.025352000000000E+02      1.689911000000000E-01      6.831640000000000E+01      3.503723000000000E-01      3.986523000000000E+01
4827000000.000000      6.416626000000000E-01      5.810937000000000E+01      1.815567000000000E-01      1.030742000000000E+02      1.714325000000000E-01      6.888672000000000E+01      3.497162000000000E-01      4.038281000000000E+01
4828000000.000000      6.454773000000000E-01      5.849804000000000E+01      1.837311000000000E-01      1.035547000000000E+02      1.736526000000000E-01      6.950000000000000E+01      3.487701000000000E-01      4.076757000000000E+01
4829000000.000000      6.448975000000000E-01      5.889453000000000E+01      1.863403000000000E-01      1.042461000000000E+02      1.762238000000000E-01      7.011328000000000E+01      3.470001000000000E-01      4.177148000000000E+01
4830000000.000000      6.466370000000000E-01      5.900195000000000E+01      1.888733000000000E-01      1.045664000000000E+02      1.782684000000000E-01      7.077734000000000E+01      3.460541000000000E-01      4.229492000000000E+01
4831000000.000000      6.481934000000000E-01      5.933788000000000E+01      1.914215000000000E-01      1.051367000000000E+02      1.807022000000000E-01      7.122656000000000E+01      3.429565000000000E-01      4.306836000000000E+01
4832000000.000000      6.477356000000000E-01      5.955664000000000E+01      1.940079000000000E-01      1.054180000000000E+02      1.832809000000000E-01      7.173437000000000E+01      3.410187000000000E-01      4.383008000000000E+01
4833000000.000000      6.496887000000000E-01      5.974218000000000E+01      1.968384000000000E-01      1.059609000000000E+02      1.862564000000000E-01      7.210155000000000E+01      3.396149000000000E-01      4.448828000000000E+01
4834000000.000000      6.502686000000000E-01      5.991796000000000E+01      1.992264000000000E-01      1.064141000000000E+02      1.890640000000000E-01      7.265234000000000E+01      3.377380000000000E-01      4.503125000000000E+01
4835000000.000000      6.529541000000000E-01      5.999609000000000E+01      2.021332000000000E-01      1.064609000000000E+02      1.921921000000000E-01      7.301562000000000E+01      3.372650000000000E-01      4.566602000000000E+01
4836000000.000000      6.521606000000000E-01      6.028710000000000E+01      2.042847000000000E-01      1.067500000000000E+02      1.942062000000000E-01      7.347656000000000E+01      3.344574000000000E-01      4.626562000000000E+01
4837000000.000000      6.514587000000000E-01      6.053711000000000E+01      2.071381000000000E-01      1.069883000000000E+02      1.969223000000000E-01      7.359765000000000E+01      3.333282000000000E-01      4.690820000000000E+01
4838000000.000000      6.516724000000000E-01      6.059570000000000E+01      2.100677000000000E-01      1.076015000000000E+02      1.997070000000000E-01      7.396874000000000E+01      3.322754000000000E-01      4.743750000000000E+01
4839000000.000000      6.534729000000000E-01      6.088476000000000E+01      2.136459000000000E-01      1.076875000000000E+02      2.022858000000000E-01      7.410156000000000E+01      3.305817000000000E-01      4.797656000000000E+01
4840000000.000000      6.522217000000000E-01      6.085351000000000E+01      2.160034000000000E-01      1.078398000000000E+02      2.049866000000000E-01      7.455078000000000E+01      3.279266000000000E-01      4.858007000000000E+01
4841000000.000000      6.506042000000000E-01      6.103516000000000E+01      2.185440000000000E-01      1.079180000000000E+02      2.079697000000000E-01      7.462500000000000E+01      3.274536000000000E-01      4.916210000000000E+01
4842000000.000000      6.497192000000000E-01      6.127539000000000E+01      2.212296000000000E-01      1.081406000000000E+02      2.109528000000000E-01      7.496094000000000E+01      3.269958000000000E-01      4.977734000000000E+01
4843000000.000000      6.503296000000000E-01      6.116211000000000E+01      2.246323000000000E-01      1.079961000000000E+02      2.135391000000000E-01      7.519531000000000E+01      3.250580000000000E-01      5.055273000000000E+01
4844000000.000000      6.470947000000000E-01      6.136132000000000E+01      2.271042000000000E-01      1.083867000000000E+02      2.164612000000000E-01      7.539063000000000E+01      3.230438000000000E-01      5.103906000000000E+01
4845000000.000000      6.461487000000000E-01      6.148632000000000E+01      2.302170000000000E-01      1.084961000000000E+02      2.198486000000000E-01      7.542578000000000E+01      3.210907000000000E-01      5.159961000000000E+01
4846000000.000000      6.448059000000000E-01      6.150976000000000E+01      2.327805000000000E-01      1.083008000000000E+02      2.224884000000000E-01      7.572266000000000E+01      3.207855000000000E-01      5.223242000000000E+01
4847000000.000000      6.429443000000000E-01      6.173046000000000E+01      2.359314000000000E-01      1.085117000000000E+02      2.253799000000000E-01      7.581249000000000E+01      3.182220000000000E-01      5.264648000000000E+01
4848000000.000000      6.385193000000000E-01      6.158789000000000E+01      2.379761000000000E-01      1.084297000000000E+02      2.281723000000000E-01      7.583593000000000E+01      3.164825000000000E-01      5.334765000000000E+01
4849000000.000000      6.377869000000000E-01      6.163867000000000E+01      2.414322000000000E-01      1.084687000000000E+02      2.304306000000000E-01      7.599218000000000E+01      3.147888000000000E-01      5.383007000000000E+01
4850000000.000000      6.354675000000000E-01      6.170703000000000E+01      2.438660000000000E-01      1.084961000000000E+02      2.334518000000000E-01      7.614843000000000E+01      3.130188000000000E-01      5.416601000000000E+01
4851000000.000000      6.333923000000000E-01      6.179492000000000E+01      2.475510000000000E-01      1.083906000000000E+02      2.363968000000000E-01      7.618359000000000E+01      3.145905000000000E-01      5.479101000000000E+01
4852000000.000000      6.315613000000000E-01      6.175781000000000E+01      2.494888000000000E-01      1.083242000000000E+02      2.394485000000000E-01      7.614062000000000E+01      3.122559000000000E-01      5.544531000000000E+01
4853000000.000000      6.291809000000000E-01      6.174609000000000E+01      2.522125000000000E-01      1.084414000000000E+02      2.421417000000000E-01      7.628515000000000E+01      3.100739000000000E-01      5.560547000000000E+01
4854000000.000000      6.246643000000000E-01      6.182226000000000E+01      2.549438000000000E-01      1.082813000000000E+02      2.447662000000000E-01      7.631640000000000E+01      3.103638000000000E-01      5.630077000000000E+01
4855000000.000000      6.223145000000000E-01      6.179101000000000E+01      2.583466000000000E-01      1.081523000000000E+02      2.475433000000000E-01      7.635937000000000E+01      3.087769000000000E-01      5.700585000000000E+01
4856000000.000000      6.191101000000000E-01      6.171093000000000E+01      2.612152000000000E-01      1.081367000000000E+02      2.498322000000000E-01      7.626562000000000E+01      3.094788000000000E-01      5.711328000000000E+01
4857000000.000000      6.164246000000000E-01      6.193945000000000E+01      2.640381000000000E-01      1.081172000000000E+02      2.529297000000000E-01      7.641796000000000E+01      3.074646000000000E-01      5.795507000000000E+01
4858000000.000000      6.127319000000000E-01      6.172265000000000E+01      2.670288000000000E-01      1.079336000000000E+02      2.557983000000000E-01      7.639843000000000E+01      3.065796000000000E-01      5.816406000000000E+01
4859000000.000000      6.084595000000000E-01      6.161914000000000E+01      2.691498000000000E-01      1.077422000000000E+02      2.575378000000000E-01      7.630859000000000E+01      3.063660000000000E-01      5.895117000000000E+01
4860000000.000000      6.049805000000000E-01      6.183788000000000E+01      2.732391000000000E-01      1.078086000000000E+02      2.602692000000000E-01      7.639453000000000E+01      3.063660000000000E-01      5.922265000000000E+01
4861000000.000000      6.025696000000000E-01      6.180273000000000E+01      2.748871000000000E-01      1.074961000000000E+02      2.637024000000000E-01      7.633984000000000E+01      3.038025000000000E-01      5.952929000000000E+01
4862000000.000000      5.963440000000000E-01      6.172265000000000E+01      2.785645000000000E-01      1.074414000000000E+02      2.662964000000000E-01      7.636719000000000E+01      3.051300000000000E-01      6.027344000000000E+01
4863000000.000000      5.943909000000000E-01      6.155663000000000E+01      2.807770000000000E-01      1.071094000000000E+02      2.687988000000000E-01      7.630468000000000E+01      3.054504000000000E-01      6.077734000000000E+01
4864000000.000000      5.900879000000000E-01      6.134179000000000E+01      2.841034000000000E-01      1.070898000000000E+02      2.709351000000000E-01      7.629296000000000E+01      3.050995000000000E-01      6.105469000000000E+01
4865000000.000000      5.861511000000000E-01      6.142578000000000E+01      2.860870000000000E-01      1.069648000000000E+02      2.738495000000000E-01      7.624218000000000E+01      3.066711000000000E-01      6.157031000000000E+01
4866000000.000000      5.829773000000000E-01      6.123828000000000E+01      2.884064000000000E-01      1.066250000000000E+02      2.761383000000000E-01      7.613671000000000E+01      3.067017000000000E-01      6.183203000000000E+01
4867000000.000000      5.769348000000000E-01      6.118554000000000E+01      2.923889000000000E-01      1.064180000000000E+02      2.784576000000000E-01      7.624218000000000E+01      3.053741000000000E-01      6.219727000000000E+01
4868000000.000000      5.743713000000000E-01      6.107616000000000E+01      2.951508000000000E-01      1.061172000000000E+02      2.812347000000000E-01      7.611328000000000E+01      3.062744000000000E-01      6.269140000000000E+01
4869000000.000000      5.717468000000000E-01      6.093750000000000E+01      2.976837000000000E-01      1.060156000000000E+02      2.836304000000000E-01      7.602734000000000E+01      3.066559000000000E-01      6.276172000000000E+01
4870000000.000000      5.660095000000000E-01      6.075390000000000E+01      2.999420000000000E-01      1.059492000000000E+02      2.861176000000000E-01      7.599218000000000E+01      3.088989000000000E-01      6.316015000000000E+01
4871000000.000000      5.623474000000000E-01      6.062890000000000E+01      3.029022000000000E-01      1.055859000000000E+02      2.879791000000000E-01      7.601953000000000E+01      3.085022000000000E-01      6.325195000000000E+01
4872000000.000000      5.609741000000000E-01      6.053124000000000E+01      3.057098000000000E-01      1.054648000000000E+02      2.898254000000000E-01      7.571094000000000E+01      3.093109000000000E-01      6.345703000000000E+01
4873000000.000000      5.566406000000000E-01      6.048437000000000E+01      3.077240000000000E-01      1.051289000000000E+02      2.922821000000000E-01      7.575000000000000E+01      3.075256000000000E-01      6.414063000000000E+01
4874000000.000000      5.524292000000000E-01      6.023242000000000E+01      3.106232000000000E-01      1.047539000000000E+02      2.955017000000000E-01      7.563281000000000E+01      3.116760000000000E-01      6.377539000000000E+01
4875000000.000000      5.494690000000000E-01      5.990624000000000E+01      3.131256000000000E-01      1.046289000000000E+02      2.973328000000000E-01      7.567187000000000E+01      3.126678000000000E-01      6.439453000000000E+01
4876000000.000000      5.460510000000000E-01      5.998632000000000E+01      3.167725000000000E-01      1.041875000000000E+02      2.996521000000000E-01      7.570313000000000E+01      3.147736000000000E-01      6.452343000000000E+01
4877000000.000000      5.445557000000000E-01      5.942773000000000E+01      3.191376000000000E-01      1.039726000000000E+02      3.016968000000000E-01      7.550390000000000E+01      3.159637000000000E-01      6.451562000000000E+01
4878000000.000000      5.384521000000000E-01      5.932031000000000E+01      3.217010000000000E-01      1.036992000000000E+02      3.035431000000000E-01      7.547656000000000E+01      3.172607000000000E-01      6.475780000000000E+01
4879000000.000000      5.357666000000000E-01      5.911718000000000E+01      3.240814000000000E-01      1.035117000000000E+02      3.059692000000000E-01      7.534765000000000E+01      3.196106000000000E-01      6.482422000000000E+01
4880000000.000000      5.326233000000000E-01      5.872460000000000E+01      3.273315000000000E-01      1.030937000000000E+02      3.078003000000000E-01      7.528515000000000E+01      3.197021000000000E-01      6.509375000000000E+01
4881000000.000000      5.284424000000000E-01      5.858788000000000E+01      3.294983000000000E-01      1.028672000000000E+02      3.107300000000000E-01      7.516406000000000E+01      3.222504000000000E-01      6.526953000000000E+01
4882000000.000000      5.267334000000000E-01      5.824413000000000E+01      3.328705000000000E-01      1.024414000000000E+02      3.127441000000000E-01      7.509766000000000E+01      3.251953000000000E-01      6.508984000000000E+01
