! Network Analyzer HP8722D
! Hewlett-Packard
! Data name: Linha & Wilkinson
! Saver's name: Rodrigo Anjos
! Comments: Teste da utilização de aquisição
continua pelo VNA HP8722D
! Time and date: 6/5/2025 15:54
!              Frequency                     S11                                                   S21                                                   S12                                                   S22
# HZ  S  MA R 50
4800000000.000000      4.960480000000000E-01     -1.681172000000000E+02      2.512360000000000E-01     -1.941015000000000E+01      2.479706000000000E-01     -1.406875000000000E+02      6.484375000000000E-01     -8.035936000000000E+01
4801000000.000000      4.977722000000000E-01     -1.681953000000000E+02      2.554474000000000E-01     -1.980469000000000E+01      2.511597000000000E-01     -1.408047000000000E+02      6.464233000000000E-01     -8.009375000000000E+01
4802000000.000000      4.984894000000000E-01     -1.682969000000000E+02      2.590332000000000E-01     -1.989160000000000E+01      2.552338000000000E-01     -1.407812000000000E+02      6.446838000000000E-01     -7.982031000000000E+01
4803000000.000000      5.003662000000000E-01     -1.683047000000000E+02      2.636414000000000E-01     -2.004687000000000E+01      2.583466000000000E-01     -1.408125000000000E+02      6.444092000000000E-01     -7.969531000000000E+01
4804000000.000000      5.026855000000000E-01     -1.683281000000000E+02      2.675323000000000E-01     -2.026758000000000E+01      2.628326000000000E-01     -1.409922000000000E+02      6.446533000000000E-01     -7.942968000000000E+01
4805000000.000000      5.052795000000000E-01     -1.684141000000000E+02      2.716675000000000E-01     -2.070410000000000E+01      2.663269000000000E-01     -1.409531000000000E+02      6.430359000000000E-01     -7.926952000000000E+01
4806000000.000000      5.063171000000000E-01     -1.683047000000000E+02      2.754822000000000E-01     -2.096386000000000E+01      2.685852000000000E-01     -1.410078000000000E+02      6.431580000000000E-01     -7.917187000000000E+01
4807000000.000000      5.097961000000000E-01     -1.683594000000000E+02      2.799072000000000E-01     -2.137207000000000E+01      2.733612000000000E-01     -1.412656000000000E+02      6.432495000000000E-01     -7.889062000000000E+01
4808000000.000000      5.118408000000000E-01     -1.682812000000000E+02      2.842255000000000E-01     -2.153906000000000E+01      2.765503000000000E-01     -1.412500000000000E+02      6.429443000000000E-01     -7.859765000000000E+01
4809000000.000000      5.146790000000000E-01     -1.683125000000000E+02      2.874451000000000E-01     -2.208301000000000E+01      2.809753000000000E-01     -1.414531000000000E+02      6.436462000000000E-01     -7.846484000000000E+01
4810000000.000000      5.179138000000000E-01     -1.683281000000000E+02      2.916107000000000E-01     -2.235058000000000E+01      2.838135000000000E-01     -1.415547000000000E+02      6.441650000000000E-01     -7.828906000000000E+01
4811000000.000000      5.203552000000000E-01     -1.682734000000000E+02      2.954407000000000E-01     -2.270898000000000E+01      2.879486000000000E-01     -1.416406000000000E+02      6.429138000000000E-01     -7.798828000000000E+01
4812000000.000000      5.249023000000000E-01     -1.681953000000000E+02      2.994843000000000E-01     -2.314844000000000E+01      2.914886000000000E-01     -1.417031000000000E+02      6.437683000000000E-01     -7.789063000000000E+01
4813000000.000000      5.272522000000000E-01     -1.681015000000000E+02      3.026581000000000E-01     -2.353320000000000E+01      2.937622000000000E-01     -1.417422000000000E+02      6.456604000000000E-01     -7.755859000000000E+01
4814000000.000000      5.299988000000000E-01     -1.682422000000000E+02      3.062592000000000E-01     -2.395508000000000E+01      2.975006000000000E-01     -1.421016000000000E+02      6.460266000000000E-01     -7.749218000000000E+01
4815000000.000000      5.332947000000000E-01     -1.680156000000000E+02      3.099976000000000E-01     -2.432324000000000E+01      3.005524000000000E-01     -1.422656000000000E+02      6.461182000000000E-01     -7.724609000000000E+01
4816000000.000000      5.382996000000000E-01     -1.679844000000000E+02      3.144073000000000E-01     -2.465234000000000E+01      3.046417000000000E-01     -1.422500000000000E+02      6.476746000000000E-01     -7.703125000000000E+01
4817000000.000000      5.429688000000000E-01     -1.678828000000000E+02      3.174896000000000E-01     -2.519922000000000E+01      3.072205000000000E-01     -1.424375000000000E+02      6.484680000000000E-01     -7.691406000000000E+01
4818000000.000000      5.462036000000000E-01     -1.678437000000000E+02      3.207703000000000E-01     -2.556738000000000E+01      3.103943000000000E-01     -1.427031000000000E+02      6.495972000000000E-01     -7.678124000000000E+01
4819000000.000000      5.517578000000000E-01     -1.677813000000000E+02      3.243561000000000E-01     -2.605859000000000E+01      3.128357000000000E-01     -1.428984000000000E+02      6.524353000000000E-01     -7.662109000000000E+01
4820000000.000000      5.534363000000000E-01     -1.677031000000000E+02      3.272095000000000E-01     -2.647461000000000E+01      3.167114000000000E-01     -1.429531000000000E+02      6.542053000000000E-01     -7.643359000000000E+01
4821000000.000000      5.592957000000000E-01     -1.676094000000000E+02      3.316650000000000E-01     -2.687891000000000E+01      3.191528000000000E-01     -1.432266000000000E+02      6.548157000000000E-01     -7.632421000000000E+01
4822000000.000000      5.663452000000000E-01     -1.675859000000000E+02      3.339539000000000E-01     -2.727930000000000E+01      3.215027000000000E-01     -1.434766000000000E+02      6.582947000000000E-01     -7.612890000000000E+01
4823000000.000000      5.694885000000000E-01     -1.674609000000000E+02      3.379822000000000E-01     -2.787793000000000E+01      3.244629000000000E-01     -1.434766000000000E+02      6.599121000000000E-01     -7.601171000000000E+01
4824000000.000000      5.767517000000000E-01     -1.673828000000000E+02      3.406219000000000E-01     -2.851171000000000E+01      3.276978000000000E-01     -1.439219000000000E+02      6.625366000000000E-01     -7.584374000000000E+01
4825000000.000000      5.811768000000000E-01     -1.673047000000000E+02      3.438873000000000E-01     -2.885644000000000E+01      3.313446000000000E-01     -1.440312000000000E+02      6.648254000000000E-01     -7.563671000000000E+01
4826000000.000000      5.865784000000000E-01     -1.671250000000000E+02      3.471832000000000E-01     -2.940722000000000E+01      3.325348000000000E-01     -1.443203000000000E+02      6.677856000000000E-01     -7.565234000000000E+01
4827000000.000000      5.926208000000000E-01     -1.670078000000000E+02      3.492279000000000E-01     -2.973535000000000E+01      3.355408000000000E-01     -1.443359000000000E+02      6.699219000000000E-01     -7.548437000000000E+01
4828000000.000000      5.993347000000000E-01     -1.669844000000000E+02      3.528290000000000E-01     -3.034375000000000E+01      3.380585000000000E-01     -1.445469000000000E+02      6.735229000000000E-01     -7.535937000000000E+01
4829000000.000000      6.025391000000000E-01     -1.668516000000000E+02      3.542023000000000E-01     -3.103808000000000E+01      3.414459000000000E-01     -1.447891000000000E+02      6.761475000000000E-01     -7.523438000000000E+01
4830000000.000000      6.103821000000000E-01     -1.668047000000000E+02      3.575592000000000E-01     -3.150683000000000E+01      3.439331000000000E-01     -1.449531000000000E+02      6.783752000000000E-01     -7.518359000000000E+01
4831000000.000000      6.156006000000000E-01     -1.666719000000000E+02      3.596802000000000E-01     -3.208593000000000E+01      3.462677000000000E-01     -1.452188000000000E+02      6.821594000000000E-01     -7.506249000000000E+01
4832000000.000000      6.236267000000000E-01     -1.666094000000000E+02      3.628540000000000E-01     -3.252539000000000E+01      3.480377000000000E-01     -1.453828000000000E+02      6.854248000000000E-01     -7.502343000000000E+01
4833000000.000000      6.298523000000000E-01     -1.666016000000000E+02      3.652496000000000E-01     -3.300586000000000E+01      3.506012000000000E-01     -1.455469000000000E+02      6.889038000000000E-01     -7.492188000000000E+01
4834000000.000000      6.359253000000000E-01     -1.665000000000000E+02      3.677216000000000E-01     -3.358398000000000E+01      3.528290000000000E-01     -1.457187000000000E+02      6.916504000000000E-01     -7.485937000000000E+01
4835000000.000000      6.418762000000000E-01     -1.663828000000000E+02      3.694153000000000E-01     -3.425195000000000E+01      3.552704000000000E-01     -1.459375000000000E+02      6.963501000000000E-01     -7.488671000000000E+01
4836000000.000000      6.506042000000000E-01     -1.662734000000000E+02      3.719482000000000E-01     -3.472461000000000E+01      3.571320000000000E-01     -1.460938000000000E+02      6.991577000000000E-01     -7.473437000000000E+01
4837000000.000000      6.571045000000000E-01     -1.661250000000000E+02      3.733368000000000E-01     -3.557422000000000E+01      3.598785000000000E-01     -1.463984000000000E+02      7.031250000000000E-01     -7.466406000000000E+01
4838000000.000000      6.634827000000000E-01     -1.662109000000000E+02      3.757935000000000E-01     -3.591992000000000E+01      3.615417000000000E-01     -1.465625000000000E+02      7.060852000000000E-01     -7.457812000000000E+01
4839000000.000000      6.709900000000000E-01     -1.660625000000000E+02      3.772583000000000E-01     -3.632031000000000E+01      3.637238000000000E-01     -1.466875000000000E+02      7.113953000000000E-01     -7.453515000000000E+01
4840000000.000000      6.763000000000000E-01     -1.660469000000000E+02      3.782654000000000E-01     -3.697266000000000E+01      3.655701000000000E-01     -1.470937000000000E+02      7.150879000000000E-01     -7.455468000000000E+01
4841000000.000000      6.845398000000000E-01     -1.660938000000000E+02      3.806305000000000E-01     -3.776172000000000E+01      3.674927000000000E-01     -1.472031000000000E+02      7.189331000000000E-01     -7.457421000000000E+01
4842000000.000000      6.921997000000000E-01     -1.659609000000000E+02      3.816833000000000E-01     -3.807226000000000E+01      3.688354000000000E-01     -1.473516000000000E+02      7.236023000000000E-01     -7.445703000000000E+01
4843000000.000000      6.986694000000000E-01     -1.660078000000000E+02      3.828735000000000E-01     -3.871875000000000E+01      3.709717000000000E-01     -1.475156000000000E+02      7.274170000000000E-01     -7.449609000000000E+01
4844000000.000000      7.051697000000000E-01     -1.658906000000000E+02      3.837585000000000E-01     -3.915039000000000E+01      3.731384000000000E-01     -1.477890000000000E+02      7.318726000000000E-01     -7.443749000000000E+01
4845000000.000000      7.115479000000000E-01     -1.658359000000000E+02      3.851929000000000E-01     -3.971289000000000E+01      3.749542000000000E-01     -1.478984000000000E+02      7.356873000000000E-01     -7.443749000000000E+01
4846000000.000000      7.191467000000000E-01     -1.657109000000000E+02      3.866425000000000E-01     -4.040039000000000E+01      3.773346000000000E-01     -1.481094000000000E+02      7.409058000000000E-01     -7.437890000000000E+01
4847000000.000000      7.273254000000000E-01     -1.657578000000000E+02      3.864441000000000E-01     -4.073242000000000E+01      3.789978000000000E-01     -1.483516000000000E+02      7.458801000000000E-01     -7.455859000000000E+01
4848000000.000000      7.345886000000000E-01     -1.657344000000000E+02      3.874054000000000E-01     -4.116601000000000E+01      3.807068000000000E-01     -1.484688000000000E+02      7.494812000000000E-01     -7.445313000000000E+01
4849000000.000000      7.417603000000000E-01     -1.659375000000000E+02      3.886566000000000E-01     -4.209765000000000E+01      3.812408000000000E-01     -1.486875000000000E+02      7.541504000000000E-01     -7.435547000000000E+01
4850000000.000000      7.481995000000000E-01     -1.657500000000000E+02      3.894958000000000E-01     -4.245117000000000E+01      3.833160000000000E-01     -1.488594000000000E+02      7.581177000000000E-01     -7.438281000000000E+01
4851000000.000000      7.550659000000000E-01     -1.656875000000000E+02      3.901825000000000E-01     -4.306445000000000E+01      3.847046000000000E-01     -1.490313000000000E+02      7.636719000000000E-01     -7.448047000000000E+01
4852000000.000000      7.629089000000000E-01     -1.657187000000000E+02      3.895416000000000E-01     -4.351758000000000E+01      3.868256000000000E-01     -1.491719000000000E+02      7.682190000000000E-01     -7.442577000000000E+01
4853000000.000000      7.695618000000000E-01     -1.657031000000000E+02      3.886871000000000E-01     -4.413671000000000E+01      3.880768000000000E-01     -1.494688000000000E+02      7.734375000000000E-01     -7.467968000000000E+01
4854000000.000000      7.756653000000000E-01     -1.657187000000000E+02      3.898163000000000E-01     -4.476563000000000E+01      3.889771000000000E-01     -1.496875000000000E+02      7.788086000000000E-01     -7.459374000000000E+01
4855000000.000000      7.807617000000000E-01     -1.657344000000000E+02      3.894196000000000E-01     -4.514062000000000E+01      3.905182000000000E-01     -1.497266000000000E+02      7.809143000000000E-01     -7.456249000000000E+01
4856000000.000000      7.893982000000000E-01     -1.656641000000000E+02      3.896332000000000E-01     -4.566602000000000E+01      3.920288000000000E-01     -1.499063000000000E+02      7.876892000000000E-01     -7.458984000000000E+01
4857000000.000000      7.947998000000000E-01     -1.657578000000000E+02      3.905792000000000E-01     -4.599609000000000E+01      3.926086000000000E-01     -1.499922000000000E+02      7.920227000000000E-01     -7.462109000000000E+01
4858000000.000000      7.990112000000000E-01     -1.658203000000000E+02      3.901978000000000E-01     -4.647265000000000E+01      3.938446000000000E-01     -1.502734000000000E+02      7.967834000000000E-01     -7.471093000000000E+01
4859000000.000000      8.055420000000000E-01     -1.657969000000000E+02      3.892365000000000E-01     -4.716210000000000E+01      3.959656000000000E-01     -1.504922000000000E+02      8.030396000000000E-01     -7.484375000000000E+01
4860000000.000000      8.136292000000000E-01     -1.656250000000000E+02      3.895111000000000E-01     -4.754102000000000E+01      3.961182000000000E-01     -1.505781000000000E+02      8.068237000000000E-01     -7.479687000000000E+01
4861000000.000000      8.190308000000000E-01     -1.656484000000000E+02      3.881989000000000E-01     -4.808594000000000E+01      3.977509000000000E-01     -1.507656000000000E+02      8.116760000000000E-01     -7.498047000000000E+01
4862000000.000000      8.253479000000000E-01     -1.656406000000000E+02      3.885040000000000E-01     -4.844531000000000E+01      3.985291000000000E-01     -1.509297000000000E+02      8.183899000000000E-01     -7.495703000000000E+01
4863000000.000000      8.294373000000000E-01     -1.657734000000000E+02      3.863068000000000E-01     -4.896289000000000E+01      4.005737000000000E-01     -1.510547000000000E+02      8.221436000000000E-01     -7.503124000000000E+01
4864000000.000000      8.354187000000000E-01     -1.656484000000000E+02      3.870544000000000E-01     -4.925195000000000E+01      4.000244000000000E-01     -1.512344000000000E+02      8.265076000000000E-01     -7.516015000000000E+01
4865000000.000000      8.371277000000000E-01     -1.658594000000000E+02      3.850861000000000E-01     -4.972851000000000E+01      4.013062000000000E-01     -1.515078000000000E+02      8.323975000000000E-01     -7.517968000000000E+01
4866000000.000000      8.426514000000000E-01     -1.657500000000000E+02      3.839264000000000E-01     -5.004296000000000E+01      4.020996000000000E-01     -1.516172000000000E+02      8.378601000000000E-01     -7.512109000000000E+01
4867000000.000000      8.475342000000000E-01     -1.657734000000000E+02      3.837585000000000E-01     -5.063671000000000E+01      4.033813000000000E-01     -1.518047000000000E+02      8.419800000000000E-01     -7.525391000000000E+01
4868000000.000000      8.545227000000000E-01     -1.659062000000000E+02      3.820190000000000E-01     -5.084570000000000E+01      4.044037000000000E-01     -1.519922000000000E+02      8.464661000000000E-01     -7.533593000000000E+01
4869000000.000000      8.552246000000000E-01     -1.657812000000000E+02      3.805542000000000E-01     -5.138672000000000E+01      4.049835000000000E-01     -1.521484000000000E+02      8.523254000000000E-01     -7.557422000000000E+01
4870000000.000000      8.595886000000000E-01     -1.656328000000000E+02      3.800659000000000E-01     -5.149804000000000E+01      4.053955000000000E-01     -1.523984000000000E+02      8.567505000000000E-01     -7.557031000000000E+01
4871000000.000000      8.655701000000000E-01     -1.657969000000000E+02      3.792267000000000E-01     -5.214844000000000E+01      4.051666000000000E-01     -1.525156000000000E+02      8.605652000000000E-01     -7.582031000000000E+01
4872000000.000000      8.704529000000000E-01     -1.656250000000000E+02      3.774414000000000E-01     -5.216210000000000E+01      4.062653000000000E-01     -1.528516000000000E+02      8.657532000000000E-01     -7.579296000000000E+01
4873000000.000000      8.720398000000000E-01     -1.655469000000000E+02      3.751221000000000E-01     -5.258007000000000E+01      4.064178000000000E-01     -1.528203000000000E+02      8.691101000000000E-01     -7.591015000000000E+01
4874000000.000000      8.747864000000000E-01     -1.655781000000000E+02      3.741455000000000E-01     -5.295116000000000E+01      4.074249000000000E-01     -1.530234000000000E+02      8.729248000000000E-01     -7.591015000000000E+01
4875000000.000000      8.795166000000000E-01     -1.655469000000000E+02      3.733063000000000E-01     -5.310937000000000E+01      4.075775000000000E-01     -1.533047000000000E+02      8.763123000000000E-01     -7.609765000000000E+01
4876000000.000000      8.817444000000000E-01     -1.655078000000000E+02      3.721924000000000E-01     -5.353125000000000E+01      4.072418000000000E-01     -1.534609000000000E+02      8.827209000000000E-01     -7.629296000000000E+01
4877000000.000000      8.839417000000000E-01     -1.655234000000000E+02      3.705292000000000E-01     -5.372265000000000E+01      4.082642000000000E-01     -1.536094000000000E+02      8.869629000000000E-01     -7.644140000000000E+01
4878000000.000000      8.859253000000000E-01     -1.653437000000000E+02      3.693848000000000E-01     -5.393359000000000E+01      4.082184000000000E-01     -1.536406000000000E+02      8.906555000000000E-01     -7.654297000000000E+01
4879000000.000000      8.916931000000000E-01     -1.652500000000000E+02      3.666840000000000E-01     -5.416406000000000E+01      4.082031000000000E-01     -1.538359000000000E+02      8.944397000000000E-01     -7.650000000000000E+01
4880000000.000000      8.904114000000000E-01     -1.653125000000000E+02      3.666840000000000E-01     -5.443359000000000E+01      4.085693000000000E-01     -1.539687000000000E+02      8.999329000000000E-01     -7.659765000000000E+01
4881000000.000000      8.930664000000000E-01     -1.651719000000000E+02      3.654785000000000E-01     -5.432812000000000E+01      4.091644000000000E-01     -1.542109000000000E+02      9.042969000000000E-01     -7.683984000000000E+01
4882000000.000000      8.944092000000000E-01     -1.650781000000000E+02      3.635254000000000E-01     -5.476757000000000E+01      4.087372000000000E-01     -1.542891000000000E+02      9.060974000000000E-01     -7.687500000000000E+01
