! Network Analyzer HP8722D
! Hewlett-Packard
! Data name: Linha & Wilkinson
! Saver's name: Rodrigo Anjos
! Comments: Teste da utilização de aquisição
continua pelo VNA HP8722D
! Time and date: 6/5/2025 15:20
!              Frequency                     S11                                                   S21                                                   S12                                                   S22
# HZ  S  MA R 50
4800000000.000000      4.966431000000000E-01     -1.681172000000000E+02      2.514954000000000E-01     -1.955566000000000E+01      2.484283000000000E-01     -1.408125000000000E+02      6.480713000000000E-01     -8.033594000000000E+01
4801000000.000000      4.980621000000000E-01     -1.682266000000000E+02      2.558746000000000E-01     -1.985937000000000E+01      2.519684000000000E-01     -1.409141000000000E+02      6.466064000000000E-01     -8.005077000000000E+01
4802000000.000000      4.995728000000000E-01     -1.683203000000000E+02      2.595215000000000E-01     -1.997656000000000E+01      2.558899000000000E-01     -1.408203000000000E+02      6.457214000000000E-01     -7.976171000000000E+01
4803000000.000000      5.003662000000000E-01     -1.683750000000000E+02      2.640228000000000E-01     -2.018555000000000E+01      2.589264000000000E-01     -1.408594000000000E+02      6.453552000000000E-01     -7.971874000000000E+01
4804000000.000000      5.025940000000000E-01     -1.683437000000000E+02      2.681732000000000E-01     -2.052832000000000E+01      2.630615000000000E-01     -1.411172000000000E+02      6.443481000000000E-01     -7.941406000000000E+01
4805000000.000000      5.057983000000000E-01     -1.684375000000000E+02      2.720337000000000E-01     -2.082617000000000E+01      2.667084000000000E-01     -1.411172000000000E+02      6.445313000000000E-01     -7.929688000000000E+01
4806000000.000000      5.068054000000000E-01     -1.683594000000000E+02      2.760010000000000E-01     -2.109277000000000E+01      2.694550000000000E-01     -1.410938000000000E+02      6.431580000000000E-01     -7.915234000000000E+01
4807000000.000000      5.099792000000000E-01     -1.683750000000000E+02      2.802277000000000E-01     -2.147754000000000E+01      2.738647000000000E-01     -1.412891000000000E+02      6.430664000000000E-01     -7.882030000000000E+01
4808000000.000000      5.125122000000000E-01     -1.683203000000000E+02      2.847290000000000E-01     -2.164649000000000E+01      2.773285000000000E-01     -1.413828000000000E+02      6.429443000000000E-01     -7.857422000000000E+01
4809000000.000000      5.150452000000000E-01     -1.683359000000000E+02      2.877197000000000E-01     -2.228613000000000E+01      2.810211000000000E-01     -1.416016000000000E+02      6.435547000000000E-01     -7.850780000000000E+01
4810000000.000000      5.176392000000000E-01     -1.683750000000000E+02      2.923431000000000E-01     -2.236719000000000E+01      2.844696000000000E-01     -1.416875000000000E+02      6.434631000000000E-01     -7.830078000000000E+01
4811000000.000000      5.216675000000000E-01     -1.682969000000000E+02      2.958984000000000E-01     -2.298926000000000E+01      2.883759000000000E-01     -1.417734000000000E+02      6.441345000000000E-01     -7.799218000000000E+01
4812000000.000000      5.249329000000000E-01     -1.682578000000000E+02      3.003082000000000E-01     -2.328418000000000E+01      2.917175000000000E-01     -1.418281000000000E+02      6.439819000000000E-01     -7.784765000000000E+01
4813000000.000000      5.274963000000000E-01     -1.681719000000000E+02      3.033600000000000E-01     -2.357617000000000E+01      2.943878000000000E-01     -1.419844000000000E+02      6.449890000000000E-01     -7.760547000000000E+01
4814000000.000000      5.303040000000000E-01     -1.682656000000000E+02      3.076782000000000E-01     -2.404004000000000E+01      2.975769000000000E-01     -1.422969000000000E+02      6.460266000000000E-01     -7.750000000000000E+01
4815000000.000000      5.341492000000000E-01     -1.680859000000000E+02      3.106384000000000E-01     -2.430176000000000E+01      3.006592000000000E-01     -1.423672000000000E+02      6.463928000000000E-01     -7.707812000000000E+01
4816000000.000000      5.390625000000000E-01     -1.679609000000000E+02      3.145752000000000E-01     -2.480371000000000E+01      3.050537000000000E-01     -1.424609000000000E+02      6.484375000000000E-01     -7.701562000000000E+01
4817000000.000000      5.433960000000000E-01     -1.679062000000000E+02      3.181915000000000E-01     -2.541308000000000E+01      3.070374000000000E-01     -1.427578000000000E+02      6.496277000000000E-01     -7.687890000000000E+01
4818000000.000000      5.465393000000000E-01     -1.678594000000000E+02      3.210602000000000E-01     -2.574316000000000E+01      3.109436000000000E-01     -1.428203000000000E+02      6.502686000000000E-01     -7.678905000000000E+01
4819000000.000000      5.516357000000000E-01     -1.678047000000000E+02      3.249054000000000E-01     -2.613867000000000E+01      3.136139000000000E-01     -1.429844000000000E+02      6.530762000000000E-01     -7.667187000000000E+01
4820000000.000000      5.541382000000000E-01     -1.677578000000000E+02      3.283081000000000E-01     -2.663965000000000E+01      3.167419000000000E-01     -1.431797000000000E+02      6.543884000000000E-01     -7.641406000000000E+01
4821000000.000000      5.601196000000000E-01     -1.676484000000000E+02      3.316040000000000E-01     -2.699804000000000E+01      3.192444000000000E-01     -1.434219000000000E+02      6.548462000000000E-01     -7.628124000000000E+01
4822000000.000000      5.669556000000000E-01     -1.675781000000000E+02      3.347321000000000E-01     -2.754687000000000E+01      3.220367000000000E-01     -1.436641000000000E+02      6.582336000000000E-01     -7.612499000000000E+01
4823000000.000000      5.701904000000000E-01     -1.674687000000000E+02      3.378296000000000E-01     -2.812793000000000E+01      3.246155000000000E-01     -1.437656000000000E+02      6.604004000000000E-01     -7.595703000000000E+01
4824000000.000000      5.772400000000000E-01     -1.674297000000000E+02      3.412933000000000E-01     -2.868750000000000E+01      3.286743000000000E-01     -1.439922000000000E+02      6.629639000000000E-01     -7.579296000000000E+01
4825000000.000000      5.809937000000000E-01     -1.673516000000000E+02      3.439941000000000E-01     -2.897656000000000E+01      3.314819000000000E-01     -1.441719000000000E+02      6.648560000000000E-01     -7.570703000000000E+01
4826000000.000000      5.871277000000000E-01     -1.672188000000000E+02      3.467560000000000E-01     -2.963574000000000E+01      3.333588000000000E-01     -1.444766000000000E+02      6.676941000000000E-01     -7.560156000000000E+01
4827000000.000000      5.929565000000000E-01     -1.670859000000000E+02      3.501587000000000E-01     -2.989551000000000E+01      3.361969000000000E-01     -1.445313000000000E+02      6.703491000000000E-01     -7.553124000000000E+01
4828000000.000000      5.997314000000000E-01     -1.670156000000000E+02      3.533630000000000E-01     -3.053711000000000E+01      3.376617000000000E-01     -1.447031000000000E+02      6.738281000000000E-01     -7.539844000000000E+01
4829000000.000000      6.033020000000000E-01     -1.669141000000000E+02      3.549652000000000E-01     -3.109961000000000E+01      3.411255000000000E-01     -1.449297000000000E+02      6.763306000000000E-01     -7.526562000000000E+01
4830000000.000000      6.105042000000000E-01     -1.668516000000000E+02      3.574066000000000E-01     -3.167285000000000E+01      3.438263000000000E-01     -1.450156000000000E+02      6.791077000000000E-01     -7.516796000000000E+01
4831000000.000000      6.155090000000000E-01     -1.666953000000000E+02      3.604584000000000E-01     -3.225976000000000E+01      3.460693000000000E-01     -1.453516000000000E+02      6.832581000000000E-01     -7.510547000000000E+01
4832000000.000000      6.242981000000000E-01     -1.666406000000000E+02      3.630981000000000E-01     -3.265820000000000E+01      3.479919000000000E-01     -1.454297000000000E+02      6.856384000000000E-01     -7.500390000000000E+01
4833000000.000000      6.300354000000000E-01     -1.666797000000000E+02      3.654633000000000E-01     -3.322070000000000E+01      3.506775000000000E-01     -1.458750000000000E+02      6.900024000000000E-01     -7.495703000000000E+01
4834000000.000000      6.357117000000000E-01     -1.665625000000000E+02      3.680267000000000E-01     -3.381640000000000E+01      3.530884000000000E-01     -1.459063000000000E+02      6.928101000000000E-01     -7.492188000000000E+01
4835000000.000000      6.431885000000000E-01     -1.664531000000000E+02      3.695221000000000E-01     -3.425976000000000E+01      3.560181000000000E-01     -1.460625000000000E+02      6.965942000000000E-01     -7.478125000000000E+01
4836000000.000000      6.513977000000000E-01     -1.663594000000000E+02      3.719025000000000E-01     -3.488867000000000E+01      3.578949000000000E-01     -1.463906000000000E+02      6.994629000000000E-01     -7.473827000000000E+01
4837000000.000000      6.576233000000000E-01     -1.661953000000000E+02      3.734589000000000E-01     -3.558984000000000E+01      3.597107000000000E-01     -1.465000000000000E+02      7.032471000000000E-01     -7.464453000000000E+01
4838000000.000000      6.644897000000000E-01     -1.663125000000000E+02      3.759155000000000E-01     -3.592773000000000E+01      3.610992000000000E-01     -1.467109000000000E+02      7.072144000000000E-01     -7.464062000000000E+01
4839000000.000000      6.716003000000000E-01     -1.661094000000000E+02      3.776703000000000E-01     -3.645703000000000E+01      3.638000000000000E-01     -1.469063000000000E+02      7.117004000000000E-01     -7.455468000000000E+01
4840000000.000000      6.769409000000000E-01     -1.661719000000000E+02      3.789368000000000E-01     -3.698047000000000E+01      3.663330000000000E-01     -1.471719000000000E+02      7.152710000000000E-01     -7.460155000000000E+01
4841000000.000000      6.850586000000000E-01     -1.661484000000000E+02      3.809662000000000E-01     -3.789063000000000E+01      3.677216000000000E-01     -1.473047000000000E+02      7.194824000000000E-01     -7.457812000000000E+01
4842000000.000000      6.925659000000000E-01     -1.660469000000000E+02      3.825226000000000E-01     -3.831250000000000E+01      3.686829000000000E-01     -1.474531000000000E+02      7.240295000000000E-01     -7.452734000000000E+01
4843000000.000000      6.989746000000000E-01     -1.660781000000000E+02      3.832245000000000E-01     -3.894531000000000E+01      3.712311000000000E-01     -1.477031000000000E+02      7.285767000000000E-01     -7.453906000000000E+01
4844000000.000000      7.062683000000000E-01     -1.659453000000000E+02      3.845825000000000E-01     -3.937695000000000E+01      3.730011000000000E-01     -1.478516000000000E+02      7.330017000000000E-01     -7.452343000000000E+01
4845000000.000000      7.128296000000000E-01     -1.658516000000000E+02      3.847809000000000E-01     -3.996484000000000E+01      3.749847000000000E-01     -1.481406000000000E+02      7.358398000000000E-01     -7.441015000000000E+01
4846000000.000000      7.203674000000000E-01     -1.658437000000000E+02      3.861694000000000E-01     -4.041601000000000E+01      3.770752000000000E-01     -1.481875000000000E+02      7.409058000000000E-01     -7.447656000000000E+01
4847000000.000000      7.279663000000000E-01     -1.658594000000000E+02      3.876648000000000E-01     -4.086328000000000E+01      3.784943000000000E-01     -1.485078000000000E+02      7.462769000000000E-01     -7.457421000000000E+01
4848000000.000000      7.351990000000000E-01     -1.657656000000000E+02      3.881836000000000E-01     -4.148633000000000E+01      3.803253000000000E-01     -1.486250000000000E+02      7.494812000000000E-01     -7.455859000000000E+01
4849000000.000000      7.421875000000000E-01     -1.660625000000000E+02      3.890228000000000E-01     -4.223437000000000E+01      3.819427000000000E-01     -1.488203000000000E+02      7.550049000000000E-01     -7.444921000000000E+01
4850000000.000000      7.487793000000000E-01     -1.658516000000000E+02      3.888092000000000E-01     -4.265429000000000E+01      3.834991000000000E-01     -1.490469000000000E+02      7.582703000000000E-01     -7.446094000000000E+01
4851000000.000000      7.560425000000000E-01     -1.657969000000000E+02      3.899231000000000E-01     -4.332227000000000E+01      3.847961000000000E-01     -1.492266000000000E+02      7.650146000000000E-01     -7.448828000000000E+01
4852000000.000000      7.630615000000000E-01     -1.658047000000000E+02      3.901825000000000E-01     -4.369141000000000E+01      3.870697000000000E-01     -1.494062000000000E+02      7.694702000000000E-01     -7.452343000000000E+01
4853000000.000000      7.703247000000000E-01     -1.657500000000000E+02      3.893890000000000E-01     -4.433789000000000E+01      3.886719000000000E-01     -1.496016000000000E+02      7.742920000000000E-01     -7.476563000000000E+01
4854000000.000000      7.763672000000000E-01     -1.657969000000000E+02      3.906403000000000E-01     -4.493164000000000E+01      3.888092000000000E-01     -1.497813000000000E+02      7.785034000000000E-01     -7.456640000000000E+01
4855000000.000000      7.814331000000000E-01     -1.657500000000000E+02      3.892059000000000E-01     -4.514062000000000E+01      3.902588000000000E-01     -1.498828000000000E+02      7.820435000000000E-01     -7.469921000000000E+01
4856000000.000000      7.892761000000000E-01     -1.658047000000000E+02      3.898010000000000E-01     -4.576562000000000E+01      3.919220000000000E-01     -1.500000000000000E+02      7.879639000000000E-01     -7.470703000000000E+01
4857000000.000000      7.951660000000000E-01     -1.658516000000000E+02      3.896027000000000E-01     -4.622070000000000E+01      3.923492000000000E-01     -1.501328000000000E+02      7.928162000000000E-01     -7.468359000000000E+01
4858000000.000000      7.997131000000000E-01     -1.658281000000000E+02      3.892365000000000E-01     -4.668554000000000E+01      3.942566000000000E-01     -1.504609000000000E+02      7.969971000000000E-01     -7.483593000000000E+01
4859000000.000000      8.064880000000000E-01     -1.658047000000000E+02      3.892822000000000E-01     -4.710938000000000E+01      3.950195000000000E-01     -1.507109000000000E+02      8.040466000000000E-01     -7.500390000000000E+01
4860000000.000000      8.135071000000000E-01     -1.658281000000000E+02      3.891144000000000E-01     -4.779882000000000E+01      3.961487000000000E-01     -1.507109000000000E+02      8.073425000000000E-01     -7.478516000000000E+01
4861000000.000000      8.194580000000000E-01     -1.656953000000000E+02      3.887177000000000E-01     -4.824804000000000E+01      3.980713000000000E-01     -1.508984000000000E+02      8.117676000000000E-01     -7.507421000000000E+01
4862000000.000000      8.233032000000000E-01     -1.657656000000000E+02      3.886108000000000E-01     -4.858788000000000E+01      3.987885000000000E-01     -1.510703000000000E+02      8.174133000000000E-01     -7.499218000000000E+01
4863000000.000000      8.280640000000000E-01     -1.658594000000000E+02      3.861847000000000E-01     -4.909180000000000E+01      4.002075000000000E-01     -1.511719000000000E+02      8.222656000000000E-01     -7.512109000000000E+01
4864000000.000000      8.360901000000000E-01     -1.658750000000000E+02      3.864288000000000E-01     -4.949023000000000E+01      4.004517000000000E-01     -1.513750000000000E+02      8.272705000000000E-01     -7.522265000000000E+01
4865000000.000000      8.388367000000000E-01     -1.659062000000000E+02      3.850098000000000E-01     -4.986328000000000E+01      4.014740000000000E-01     -1.516562000000000E+02      8.322449000000000E-01     -7.523438000000000E+01
4866000000.000000      8.420715000000000E-01     -1.657812000000000E+02      3.846588000000000E-01     -5.022851000000000E+01      4.022217000000000E-01     -1.517891000000000E+02      8.358459000000000E-01     -7.527344000000000E+01
4867000000.000000      8.488770000000000E-01     -1.657812000000000E+02      3.834381000000000E-01     -5.080468000000000E+01      4.036865000000000E-01     -1.519219000000000E+02      8.441162000000000E-01     -7.533593000000000E+01
4868000000.000000      8.517456000000000E-01     -1.658125000000000E+02      3.829041000000000E-01     -5.107616000000000E+01      4.042664000000000E-01     -1.520859000000000E+02      8.471069000000000E-01     -7.542969000000000E+01
4869000000.000000      8.535767000000000E-01     -1.658047000000000E+02      3.808136000000000E-01     -5.146289000000000E+01      4.047089000000000E-01     -1.522891000000000E+02      8.520813000000000E-01     -7.567187000000000E+01
4870000000.000000      8.579102000000000E-01     -1.658750000000000E+02      3.796234000000000E-01     -5.166016000000000E+01      4.049835000000000E-01     -1.525078000000000E+02      8.561096000000000E-01     -7.563671000000000E+01
4871000000.000000      8.663025000000000E-01     -1.657969000000000E+02      3.788910000000000E-01     -5.219140000000000E+01      4.052277000000000E-01     -1.526797000000000E+02      8.617554000000000E-01     -7.582031000000000E+01
4872000000.000000      8.703003000000000E-01     -1.658125000000000E+02      3.767395000000000E-01     -5.241015000000000E+01      4.060211000000000E-01     -1.529531000000000E+02      8.669739000000000E-01     -7.576562000000000E+01
4873000000.000000      8.715515000000000E-01     -1.656641000000000E+02      3.757782000000000E-01     -5.279101000000000E+01      4.064026000000000E-01     -1.529687000000000E+02      8.702698000000000E-01     -7.605078000000000E+01
4874000000.000000      8.764954000000000E-01     -1.656406000000000E+02      3.744354000000000E-01     -5.314453000000000E+01      4.073334000000000E-01     -1.530781000000000E+02      8.739319000000000E-01     -7.598046000000000E+01
4875000000.000000      8.794861000000000E-01     -1.657187000000000E+02      3.726501000000000E-01     -5.324413000000000E+01      4.074860000000000E-01     -1.533906000000000E+02      8.777161000000000E-01     -7.611328000000000E+01
4876000000.000000      8.800354000000000E-01     -1.656094000000000E+02      3.714752000000000E-01     -5.362305000000000E+01      4.070129000000000E-01     -1.535312000000000E+02      8.841248000000000E-01     -7.639062000000000E+01
4877000000.000000      8.829956000000000E-01     -1.656250000000000E+02      3.703918000000000E-01     -5.385547000000000E+01      4.081116000000000E-01     -1.537656000000000E+02      8.871765000000000E-01     -7.647265000000000E+01
4878000000.000000      8.886108000000000E-01     -1.655313000000000E+02      3.695221000000000E-01     -5.398828000000000E+01      4.080505000000000E-01     -1.537578000000000E+02      8.916931000000000E-01     -7.657031000000000E+01
4879000000.000000      8.917542000000000E-01     -1.655547000000000E+02      3.668976000000000E-01     -5.422265000000000E+01      4.079437000000000E-01     -1.540000000000000E+02      8.936462000000000E-01     -7.659765000000000E+01
4880000000.000000      8.900757000000000E-01     -1.653672000000000E+02      3.662720000000000E-01     -5.448828000000000E+01      4.082947000000000E-01     -1.540313000000000E+02      9.002686000000000E-01     -7.672656000000000E+01
4881000000.000000      8.945313000000000E-01     -1.653125000000000E+02      3.655396000000000E-01     -5.462304000000000E+01      4.088745000000000E-01     -1.542812000000000E+02      9.031982000000000E-01     -7.695313000000000E+01
4882000000.000000      8.942566000000000E-01     -1.651641000000000E+02      3.627625000000000E-01     -5.489452000000000E+01      4.085541000000000E-01     -1.544062000000000E+02      9.060669000000000E-01     -7.706640000000000E+01
