! Network Analyzer HP8722D
! Hewlett-Packard
! Data name: Linha & Wilkinson
! Saver's name: Rodrigo Anjos
! Comments: Teste da utilização de aquisição
continua pelo VNA HP8722D
! Time and date: 6/5/2025 12:53
!              Frequency                     S11                                                   S21                                                   S12                                                   S22
# HZ  S  MA R 50
4800000000.000000      6.113892000000000E-01     -4.780859000000000E+01      4.142456000000000E-01     -2.211035000000000E+01      4.835052000000000E-01     -1.759453000000000E+02      4.936523000000000E-01      1.797656000000000E+02
4801000000.000000      6.159363000000000E-01     -4.832031000000000E+01      4.149017000000000E-01     -2.257324000000000E+01      4.860077000000000E-01     -1.760547000000000E+02      4.923096000000000E-01      1.793516000000000E+02
4802000000.000000      6.177063000000000E-01     -4.883203000000000E+01      4.165344000000000E-01     -2.288086000000000E+01      4.882050000000000E-01     -1.763359000000000E+02      4.935150000000000E-01      1.786484000000000E+02
4803000000.000000      6.177368000000000E-01     -4.943749000000000E+01      4.195557000000000E-01     -2.345801000000000E+01      4.931030000000000E-01     -1.766016000000000E+02      4.967804000000000E-01      1.785859000000000E+02
4804000000.000000      6.215820000000000E-01     -5.021679000000000E+01      4.171600000000000E-01     -2.375683000000000E+01      4.955292000000000E-01     -1.769063000000000E+02      4.991302000000000E-01      1.782578000000000E+02
4805000000.000000      6.234436000000000E-01     -5.073047000000000E+01      4.197540000000000E-01     -2.436230000000000E+01      4.972839000000000E-01     -1.771641000000000E+02      5.019836000000000E-01      1.776328000000000E+02
4806000000.000000      6.253967000000000E-01     -5.116992000000000E+01      4.201508000000000E-01     -2.478125000000000E+01      5.010681000000000E-01     -1.774219000000000E+02      5.045776000000000E-01      1.775078000000000E+02
4807000000.000000      6.251526000000000E-01     -5.179688000000000E+01      4.212646000000000E-01     -2.527441000000000E+01      5.026245000000000E-01     -1.778203000000000E+02      5.065918000000000E-01      1.768359000000000E+02
4808000000.000000      6.286316000000000E-01     -5.217187000000000E+01      4.196930000000000E-01     -2.575098000000000E+01      5.046997000000000E-01     -1.780156000000000E+02      5.070190000000000E-01      1.766016000000000E+02
4809000000.000000      6.303711000000000E-01     -5.283984000000000E+01      4.223938000000000E-01     -2.646387000000000E+01      5.109558000000000E-01     -1.783984000000000E+02      5.105591000000000E-01      1.762500000000000E+02
4810000000.000000      6.336670000000000E-01     -5.348437000000000E+01      4.241028000000000E-01     -2.690430000000000E+01      5.130615000000000E-01     -1.787422000000000E+02      5.121765000000000E-01      1.758828000000000E+02
4811000000.000000      6.374817000000000E-01     -5.384570000000000E+01      4.234467000000000E-01     -2.775976000000000E+01      5.152588000000000E-01     -1.789531000000000E+02      5.129395000000000E-01      1.754375000000000E+02
4812000000.000000      6.384888000000000E-01     -5.438477000000000E+01      4.236603000000000E-01     -2.812304000000000E+01      5.194702000000000E-01     -1.792344000000000E+02      5.169678000000000E-01      1.748594000000000E+02
4813000000.000000      6.404724000000000E-01     -5.504101000000000E+01      4.238739000000000E-01     -2.845410000000000E+01      5.227966000000000E-01     -1.794688000000000E+02      5.227356000000000E-01      1.745078000000000E+02
4814000000.000000      6.397400000000000E-01     -5.543359000000000E+01      4.239349000000000E-01     -2.884961000000000E+01      5.241089000000000E-01      1.797109000000000E+02      5.211487000000000E-01      1.740234000000000E+02
4815000000.000000      6.430969000000000E-01     -5.595703000000000E+01      4.242401000000000E-01     -2.929394000000000E+01      5.261230000000000E-01      1.794062000000000E+02      5.191650000000000E-01      1.739375000000000E+02
4816000000.000000      6.462708000000000E-01     -5.623047000000000E+01      4.234924000000000E-01     -2.999316000000000E+01      5.314636000000000E-01      1.791328000000000E+02      5.219727000000000E-01      1.734219000000000E+02
4817000000.000000      6.487427000000000E-01     -5.690820000000000E+01      4.221649000000000E-01     -3.039844000000000E+01      5.307312000000000E-01      1.786094000000000E+02      5.258484000000000E-01      1.729922000000000E+02
4818000000.000000      6.493225000000000E-01     -5.739452000000000E+01      4.233856000000000E-01     -3.108887000000000E+01      5.352478000000000E-01      1.781953000000000E+02      5.300598000000000E-01      1.723906000000000E+02
4819000000.000000      6.493225000000000E-01     -5.768359000000000E+01      4.220581000000000E-01     -3.151855000000000E+01      5.393066000000000E-01      1.778672000000000E+02      5.302124000000000E-01      1.724062000000000E+02
4820000000.000000      6.510010000000000E-01     -5.811718000000000E+01      4.223328000000000E-01     -3.217773000000000E+01      5.407715000000000E-01      1.772656000000000E+02      5.329590000000000E-01      1.717500000000000E+02
4821000000.000000      6.509094000000000E-01     -5.850976000000000E+01      4.211731000000000E-01     -3.255273000000000E+01      5.434570000000000E-01      1.766016000000000E+02      5.311584000000000E-01      1.709453000000000E+02
4822000000.000000      6.537170000000000E-01     -5.891015000000000E+01      4.203186000000000E-01     -3.314648000000000E+01      5.469971000000000E-01      1.762578000000000E+02      5.331726000000000E-01      1.707500000000000E+02
4823000000.000000      6.550598000000000E-01     -5.929688000000000E+01      4.212189000000000E-01     -3.365820000000000E+01      5.477905000000000E-01      1.756172000000000E+02      5.335083000000000E-01      1.701484000000000E+02
4824000000.000000      6.549683000000000E-01     -5.954102000000000E+01      4.190521000000000E-01     -3.418750000000000E+01      5.508423000000000E-01      1.749766000000000E+02      5.337830000000000E-01      1.696484000000000E+02
4825000000.000000      6.602783000000000E-01     -5.972656000000000E+01      4.181976000000000E-01     -3.481054000000000E+01      5.534668000000000E-01      1.747031000000000E+02      5.332336000000000E-01      1.689609000000000E+02
4826000000.000000      6.583252000000000E-01     -6.038280000000000E+01      4.192963000000000E-01     -3.531836000000000E+01      5.524902000000000E-01      1.739766000000000E+02      5.325012000000000E-01      1.687422000000000E+02
4827000000.000000      6.605225000000000E-01     -6.024023000000000E+01      4.171753000000000E-01     -3.558203000000000E+01      5.557251000000000E-01      1.736016000000000E+02      5.317078000000000E-01      1.681562000000000E+02
4828000000.000000      6.612244000000000E-01     -6.068164000000000E+01      4.161530000000000E-01     -3.596094000000000E+01      5.579224000000000E-01      1.731328000000000E+02      5.322571000000000E-01      1.676875000000000E+02
4829000000.000000      6.608887000000000E-01     -6.097461000000000E+01      4.147186000000000E-01     -3.670703000000000E+01      5.584412000000000E-01      1.727031000000000E+02      5.295410000000000E-01      1.672734000000000E+02
4830000000.000000      6.600952000000000E-01     -6.101171000000000E+01      4.141846000000000E-01     -3.721875000000000E+01      5.610962000000000E-01      1.718359000000000E+02      5.281372000000000E-01      1.665390000000000E+02
4831000000.000000      6.618652000000000E-01     -6.134766000000000E+01      4.129028000000000E-01     -3.780664000000000E+01      5.612793000000000E-01      1.713359000000000E+02      5.275574000000000E-01      1.662969000000000E+02
4832000000.000000      6.612854000000000E-01     -6.133789000000000E+01      4.134521000000000E-01     -3.808984000000000E+01      5.603943000000000E-01      1.707187000000000E+02      5.274048000000000E-01      1.655469000000000E+02
4833000000.000000      6.615601000000000E-01     -6.159374000000000E+01      4.109802000000000E-01     -3.825195000000000E+01      5.620728000000000E-01      1.698750000000000E+02      5.219116000000000E-01      1.652656000000000E+02
4834000000.000000      6.622925000000000E-01     -6.174609000000000E+01      4.104004000000000E-01     -3.923828000000000E+01      5.634155000000000E-01      1.692188000000000E+02      5.196228000000000E-01      1.645078000000000E+02
4835000000.000000      6.626282000000000E-01     -6.163280000000000E+01      4.097290000000000E-01     -3.933398000000000E+01      5.632935000000000E-01      1.685313000000000E+02      5.173950000000000E-01      1.638125000000000E+02
4836000000.000000      6.654053000000000E-01     -6.150195000000000E+01      4.064178000000000E-01     -3.970508000000000E+01      5.627747000000000E-01      1.681562000000000E+02      5.105286000000000E-01      1.636172000000000E+02
4837000000.000000      6.632996000000000E-01     -6.161523000000000E+01      4.065094000000000E-01     -4.050000000000000E+01      5.610352000000000E-01      1.674062000000000E+02      5.077515000000000E-01      1.629688000000000E+02
4838000000.000000      6.638184000000000E-01     -6.179882000000000E+01      4.067993000000000E-01     -4.045312000000000E+01      5.602417000000000E-01      1.666875000000000E+02      5.034485000000000E-01      1.625547000000000E+02
4839000000.000000      6.649170000000000E-01     -6.155663000000000E+01      4.048767000000000E-01     -4.098242000000000E+01      5.607300000000000E-01      1.663437000000000E+02      4.984283000000000E-01      1.623437000000000E+02
4840000000.000000      6.661377000000000E-01     -6.182226000000000E+01      4.043884000000000E-01     -4.170507000000000E+01      5.588684000000000E-01      1.654375000000000E+02      4.924164000000000E-01      1.617578000000000E+02
4841000000.000000      6.651917000000000E-01     -6.158203000000000E+01      4.030151000000000E-01     -4.192578000000000E+01      5.570374000000000E-01      1.647344000000000E+02      4.873199000000000E-01      1.613359000000000E+02
4842000000.000000      6.656189000000000E-01     -6.165234000000000E+01      4.018097000000000E-01     -4.251758000000000E+01      5.542908000000000E-01      1.641641000000000E+02      4.814148000000000E-01      1.609766000000000E+02
4843000000.000000      6.663513000000000E-01     -6.163476000000000E+01      4.001770000000000E-01     -4.303711000000000E+01      5.542908000000000E-01      1.634766000000000E+02      4.764404000000000E-01      1.604375000000000E+02
4844000000.000000      6.652832000000000E-01     -6.128320000000000E+01      3.977203000000000E-01     -4.330859000000000E+01      5.508423000000000E-01      1.626562000000000E+02      4.699860000000000E-01      1.603516000000000E+02
4845000000.000000      6.649780000000000E-01     -6.122851000000000E+01      3.967133000000000E-01     -4.358203000000000E+01      5.489807000000000E-01      1.622344000000000E+02      4.608917000000000E-01      1.599219000000000E+02
4846000000.000000      6.665955000000000E-01     -6.089844000000000E+01      3.965759000000000E-01     -4.417773000000000E+01      5.462036000000000E-01      1.613750000000000E+02      4.522247000000000E-01      1.595391000000000E+02
4847000000.000000      6.678772000000000E-01     -6.079883000000000E+01      3.960114000000000E-01     -4.453711000000000E+01      5.450134000000000E-01      1.609375000000000E+02      4.460907000000000E-01      1.593359000000000E+02
4848000000.000000      6.661682000000000E-01     -6.053515000000000E+01      3.926849000000000E-01     -4.485742000000000E+01      5.407410000000000E-01      1.602187000000000E+02      4.375305000000000E-01      1.591250000000000E+02
4849000000.000000      6.672058000000000E-01     -6.050390000000000E+01      3.936462000000000E-01     -4.546484000000000E+01      5.383911000000000E-01      1.595469000000000E+02      4.300537000000000E-01      1.589922000000000E+02
4850000000.000000      6.693420000000000E-01     -6.017383000000000E+01      3.908234000000000E-01     -4.591797000000000E+01      5.337524000000000E-01      1.590312000000000E+02      4.209900000000000E-01      1.586797000000000E+02
4851000000.000000      6.697083000000000E-01     -5.979492000000000E+01      3.909760000000000E-01     -4.648828000000000E+01      5.302124000000000E-01      1.586562000000000E+02      4.128265000000000E-01      1.588438000000000E+02
4852000000.000000      6.677856000000000E-01     -5.967773000000000E+01      3.907776000000000E-01     -4.669335000000000E+01      5.259705000000000E-01      1.578750000000000E+02      4.046631000000000E-01      1.585312000000000E+02
4853000000.000000      6.709900000000000E-01     -5.927929000000000E+01      3.881989000000000E-01     -4.718359000000000E+01      5.218811000000000E-01      1.573359000000000E+02      3.942413000000000E-01      1.586094000000000E+02
4854000000.000000      6.720886000000000E-01     -5.915625000000000E+01      3.881531000000000E-01     -4.778125000000000E+01      5.177917000000000E-01      1.570391000000000E+02      3.867035000000000E-01      1.587500000000000E+02
4855000000.000000      6.691895000000000E-01     -5.885742000000000E+01      3.852081000000000E-01     -4.830273000000000E+01      5.138245000000000E-01      1.560390000000000E+02      3.777008000000000E-01      1.589687000000000E+02
4856000000.000000      6.727295000000000E-01     -5.856250000000000E+01      3.840027000000000E-01     -4.857422000000000E+01      5.103149000000000E-01      1.556562000000000E+02      3.687439000000000E-01      1.590781000000000E+02
4857000000.000000      6.734619000000000E-01     -5.824023000000000E+01      3.839722000000000E-01     -4.894140000000000E+01      5.051270000000000E-01      1.552187000000000E+02      3.594971000000000E-01      1.593594000000000E+02
4858000000.000000      6.733093000000000E-01     -5.785937000000000E+01      3.834076000000000E-01     -4.951172000000000E+01      5.010071000000000E-01      1.547266000000000E+02      3.492432000000000E-01      1.596328000000000E+02
4859000000.000000      6.737976000000000E-01     -5.762109000000000E+01      3.805847000000000E-01     -5.011328000000000E+01      4.963379000000000E-01      1.540937000000000E+02      3.417816000000000E-01      1.602031000000000E+02
4860000000.000000      6.744385000000000E-01     -5.733007000000000E+01      3.805389000000000E-01     -5.039844000000000E+01      4.911499000000000E-01      1.536094000000000E+02      3.336487000000000E-01      1.602500000000000E+02
4861000000.000000      6.751404000000000E-01     -5.702343000000000E+01      3.785553000000000E-01     -5.088085000000000E+01      4.891205000000000E-01      1.531406000000000E+02      3.232422000000000E-01      1.607969000000000E+02
4862000000.000000      6.766052000000000E-01     -5.667187000000000E+01      3.779144000000000E-01     -5.125390000000000E+01      4.835510000000000E-01      1.526875000000000E+02      3.158264000000000E-01      1.616094000000000E+02
4863000000.000000      6.753845000000000E-01     -5.616992000000000E+01      3.756866000000000E-01     -5.189648000000000E+01      4.781647000000000E-01      1.524141000000000E+02      3.070526000000000E-01      1.622422000000000E+02
4864000000.000000      6.790161000000000E-01     -5.594727000000000E+01      3.747406000000000E-01     -5.236328000000000E+01      4.735413000000000E-01      1.519922000000000E+02      2.987671000000000E-01      1.631094000000000E+02
4865000000.000000      6.811523000000000E-01     -5.573437000000000E+01      3.740234000000000E-01     -5.275976000000000E+01      4.692078000000000E-01      1.515234000000000E+02      2.905121000000000E-01      1.642266000000000E+02
4866000000.000000      6.800842000000000E-01     -5.555469000000000E+01      3.717041000000000E-01     -5.316015000000000E+01      4.643402000000000E-01      1.510000000000000E+02      2.837372000000000E-01      1.653125000000000E+02
4867000000.000000      6.795044000000000E-01     -5.484961000000000E+01      3.690338000000000E-01     -5.403125000000000E+01      4.583130000000000E-01      1.504688000000000E+02      2.751160000000000E-01      1.662422000000000E+02
4868000000.000000      6.817932000000000E-01     -5.469531000000000E+01      3.690338000000000E-01     -5.441015000000000E+01      4.559021000000000E-01      1.502891000000000E+02      2.660522000000000E-01      1.672578000000000E+02
4869000000.000000      6.818542000000000E-01     -5.436718000000000E+01      3.657990000000000E-01     -5.495117000000000E+01      4.502716000000000E-01      1.497969000000000E+02      2.618713000000000E-01      1.684062000000000E+02
4870000000.000000      6.828003000000000E-01     -5.377148000000000E+01      3.642731000000000E-01     -5.519726000000000E+01      4.457855000000000E-01      1.496250000000000E+02      2.548523000000000E-01      1.703594000000000E+02
4871000000.000000      6.833496000000000E-01     -5.380468000000000E+01      3.627167000000000E-01     -5.575585000000000E+01      4.414215000000000E-01      1.492109000000000E+02      2.470474000000000E-01      1.715469000000000E+02
4872000000.000000      6.848145000000000E-01     -5.338085000000000E+01      3.608398000000000E-01     -5.631640000000000E+01      4.356689000000000E-01      1.484922000000000E+02      2.417297000000000E-01      1.730703000000000E+02
4873000000.000000      6.844177000000000E-01     -5.300390000000000E+01      3.575439000000000E-01     -5.701953000000000E+01      4.316101000000000E-01      1.484219000000000E+02      2.377243000000000E-01      1.747578000000000E+02
4874000000.000000      6.849060000000000E-01     -5.260547000000000E+01      3.570557000000000E-01     -5.758594000000000E+01      4.293518000000000E-01      1.478906000000000E+02      2.310028000000000E-01      1.768906000000000E+02
4875000000.000000      6.855774000000000E-01     -5.243945000000000E+01      3.565826000000000E-01     -5.793554000000000E+01      4.233093000000000E-01      1.478828000000000E+02      2.261963000000000E-01      1.785938000000000E+02
4876000000.000000      6.859131000000000E-01     -5.196875000000000E+01      3.537140000000000E-01     -5.853125000000000E+01      4.198914000000000E-01      1.475078000000000E+02      2.234726000000000E-01     -1.797578000000000E+02
4877000000.000000      6.852112000000000E-01     -5.177343000000000E+01      3.511353000000000E-01     -5.910156000000000E+01      4.140778000000000E-01      1.469141000000000E+02      2.185974000000000E-01     -1.777500000000000E+02
4878000000.000000      6.844482000000000E-01     -5.121288000000000E+01      3.477783000000000E-01     -5.957617000000000E+01      4.101563000000000E-01      1.467344000000000E+02      2.162552000000000E-01     -1.754922000000000E+02
4879000000.000000      6.875610000000000E-01     -5.087500000000000E+01      3.464661000000000E-01     -6.001562000000000E+01      4.060059000000000E-01      1.463516000000000E+02      2.122803000000000E-01     -1.736172000000000E+02
4880000000.000000      6.858826000000000E-01     -5.059570000000000E+01      3.432007000000000E-01     -6.086328000000000E+01      4.011230000000000E-01      1.459844000000000E+02      2.098160000000000E-01     -1.715391000000000E+02
4881000000.000000      6.836548000000000E-01     -5.020312000000000E+01      3.416595000000000E-01     -6.104297000000000E+01      3.975372000000000E-01      1.458672000000000E+02      2.086563000000000E-01     -1.693750000000000E+02
4882000000.000000      6.847839000000000E-01     -4.999413000000000E+01      3.397827000000000E-01     -6.159961000000000E+01      3.924713000000000E-01      1.452578000000000E+02      2.078934000000000E-01     -1.669765000000000E+02
