! Network Analyzer HP8722D
! Hewlett-Packard
! Data name: Linha & Wilkinson
! Saver's name: Rodrigo Anjos
! Comments: Teste da utilização de aquisição
continua pelo VNA HP8722D
! Time and date: 3/9/2025 18:55
!              Frequency                     S11                                                   S21                                                   S12                                                   S22
# HZ  S  MA R 50
3000000000.000000      7.728958000000000E-02      8.716015000000000E+01      4.564667000000000E-01      2.489160000000000E+01
3020000000.000000      9.423447000000000E-02      7.289844000000000E+01      4.587402000000000E-01     -3.922119000000000E+00
3040000000.000000      9.564972000000000E-02      5.638866000000000E+01      4.574280000000000E-01     -3.279882000000000E+01
3060000000.000000      8.379745000000000E-02      4.098828000000000E+01      4.540558000000000E-01     -6.126562000000000E+01
3080000000.000000      6.346893000000000E-02      3.050488000000000E+01      4.540100000000000E-01     -9.003515000000000E+01
3100000000.000000      4.507256000000000E-02      3.097558000000000E+01      4.537811000000000E-01     -1.185586000000000E+02
3120000000.000000      3.815269000000000E-02      4.337500000000000E+01      4.515533000000000E-01     -1.470703000000000E+02
3140000000.000000      3.811073000000000E-02      4.881249000000000E+01      4.475098000000000E-01     -1.756406000000000E+02
3160000000.000000      2.966404000000000E-02      4.837500000000000E+01      4.437408000000000E-01      1.560234000000000E+02
3180000000.000000      1.590729000000000E-02      9.762108000000000E+01      4.414063000000000E-01      1.272695000000000E+02
3200000000.000000      4.738617000000000E-02      1.451641000000000E+02      4.369354000000000E-01      9.794922000000000E+01
3220000000.000000      9.847641000000000E-02      1.373672000000000E+02      4.242401000000000E-01      6.849218000000000E+01
3240000000.000000      1.497345000000000E-01      1.216094000000000E+02      4.123840000000000E-01      4.116406000000000E+01
3260000000.000000      1.923065000000000E-01      1.046836000000000E+02      4.154510000000000E-01      1.394971000000000E+01
3280000000.000000      2.189865000000000E-01      8.722265000000000E+01      4.201660000000000E-01     -1.524805000000000E+01
3300000000.000000      2.294617000000000E-01      7.042969000000000E+01      4.149475000000000E-01     -4.417382000000000E+01
3320000000.000000      2.244797000000000E-01      5.518164000000000E+01      4.194641000000000E-01     -7.163671000000000E+01
3340000000.000000      2.078247000000000E-01      4.239062000000000E+01      4.241486000000000E-01     -1.004883000000000E+02
3360000000.000000      1.845779000000000E-01      3.316601000000000E+01      4.243622000000000E-01     -1.288281000000000E+02
3380000000.000000      1.615372000000000E-01      2.842090000000000E+01      4.311371000000000E-01     -1.571953000000000E+02
3400000000.000000      1.421738000000000E-01      2.658789000000000E+01      4.320831000000000E-01      1.741875000000000E+02
3420000000.000000      1.279602000000000E-01      2.625097000000000E+01      4.333801000000000E-01      1.452500000000000E+02
3440000000.000000      1.168442000000000E-01      2.595898000000000E+01      4.309998000000000E-01      1.166172000000000E+02
3460000000.000000      1.045151000000000E-01      2.719336000000000E+01      4.292755000000000E-01      8.813671000000000E+01
3480000000.000000      9.714508000000000E-02      2.970508000000000E+01      4.306183000000000E-01      5.956445000000000E+01
3500000000.000000      9.341049000000000E-02      3.333789000000000E+01      4.258575000000000E-01      3.050586000000000E+01
3520000000.000000      9.214401000000000E-02      3.653711000000000E+01      4.228210000000000E-01      2.399048000000000E+00
3540000000.000000      9.238434000000000E-02      4.022265000000000E+01      4.257507000000000E-01     -2.622461000000000E+01
3560000000.000000      9.448624000000000E-02      4.511523000000000E+01      4.280548000000000E-01     -5.545116000000000E+01
3580000000.000000      1.020699000000000E-01      5.059375000000000E+01      4.268646000000000E-01     -8.417969000000000E+01
3600000000.000000      1.157799000000000E-01      5.191015000000000E+01      4.253845000000000E-01     -1.122109000000000E+02
3620000000.000000      1.290817000000000E-01      4.886132000000000E+01      4.278870000000000E-01     -1.405547000000000E+02
3640000000.000000      1.339645000000000E-01      4.255273000000000E+01      4.274750000000000E-01     -1.689297000000000E+02
3660000000.000000      1.290054000000000E-01      3.567187000000000E+01      4.246979000000000E-01      1.632344000000000E+02
3680000000.000000      1.168251000000000E-01      3.240234000000000E+01      4.298859000000000E-01      1.355000000000000E+02
3700000000.000000      1.034775000000000E-01      3.610547000000000E+01      4.311066000000000E-01      1.071367000000000E+02
3720000000.000000      1.047211000000000E-01      4.517774000000000E+01      4.291077000000000E-01      7.845703000000000E+01
3740000000.000000      1.227684000000000E-01      4.891406000000000E+01      4.220276000000000E-01      5.000781000000000E+01
3760000000.000000      1.413116000000000E-01      4.546679000000000E+01      4.171753000000000E-01      2.212207000000000E+01
3780000000.000000      1.483307000000000E-01      3.809765000000000E+01      4.162750000000000E-01     -5.750000000000000E+00
3800000000.000000      1.408539000000000E-01      3.065039000000000E+01      4.189606000000000E-01     -3.407812000000000E+01
3820000000.000000      1.223793000000000E-01      2.765332000000000E+01      4.170837000000000E-01     -6.284180000000000E+01
3840000000.000000      1.081924000000000E-01      3.277734000000000E+01      4.171600000000000E-01     -9.192577000000000E+01
3860000000.000000      1.133385000000000E-01      4.095703000000000E+01      4.166260000000000E-01     -1.208555000000000E+02
3880000000.000000      1.316376000000000E-01      4.244141000000000E+01      4.144592000000000E-01     -1.498750000000000E+02
3900000000.000000      1.458359000000000E-01      3.659961000000000E+01      4.060822000000000E-01     -1.780156000000000E+02
3920000000.000000      1.434555000000000E-01      2.883886000000000E+01      4.072266000000000E-01      1.547188000000000E+02
3940000000.000000      1.250381000000000E-01      2.525976000000000E+01      4.160767000000000E-01      1.261289000000000E+02
3960000000.000000      1.074448000000000E-01      3.235742000000000E+01      4.143372000000000E-01      9.703905000000000E+01
3980000000.000000      1.147766000000000E-01      4.626172000000000E+01      4.063263000000000E-01      6.818359000000000E+01
4000000000.000000      1.470947000000000E-01      4.888476000000000E+01      4.001007000000000E-01      4.110547000000000E+01
4020000000.000000      1.802673000000000E-01      4.114843000000000E+01      4.069977000000000E-01      1.350195000000000E+01
4040000000.000000      1.985931000000000E-01      2.829590000000000E+01      4.053192000000000E-01     -1.666504000000000E+01
4060000000.000000      1.926193000000000E-01      1.422021000000000E+01      3.913422000000000E-01     -4.522656000000000E+01
4080000000.000000      1.628647000000000E-01      7.374573000000000E-01      3.910980000000000E-01     -7.226953000000000E+01
4100000000.000000      1.168709000000000E-01     -6.506836000000000E+00      4.019775000000000E-01     -1.009609000000000E+02
4120000000.000000      7.466888000000000E-02      4.329834000000000E+00      4.008026000000000E-01     -1.309687000000000E+02
4140000000.000000      7.413864000000000E-02      3.450781000000000E+01      3.960724000000000E-01     -1.596328000000000E+02
4160000000.000000      9.861755000000000E-02      4.321875000000000E+01      3.962402000000000E-01      1.723750000000000E+02
4180000000.000000      1.159439000000000E-01      3.974414000000000E+01      4.053192000000000E-01      1.436250000000000E+02
4200000000.000000      1.174965000000000E-01      3.601953000000000E+01      4.060516000000000E-01      1.137852000000000E+02
4220000000.000000      1.148453000000000E-01      3.840820000000000E+01      3.973541000000000E-01      8.451563000000000E+01
4240000000.000000      1.243057000000000E-01      4.522851000000000E+01      3.912201000000000E-01      5.620312000000000E+01
4260000000.000000      1.502686000000000E-01      4.708984000000000E+01      3.863373000000000E-01      2.813379000000000E+01
4280000000.000000      1.770020000000000E-01      4.232226000000000E+01      3.862457000000000E-01     -4.106140000000000E-01
4300000000.000000      1.919479000000000E-01      3.400000000000000E+01      3.834534000000000E-01     -2.930957000000000E+01
4320000000.000000      1.908417000000000E-01      2.556152000000000E+01      3.809052000000000E-01     -5.803124000000000E+01
4340000000.000000      1.773834000000000E-01      1.969434000000000E+01      3.807831000000000E-01     -8.707031000000000E+01
4360000000.000000      1.635818000000000E-01      1.916406000000000E+01      3.785400000000000E-01     -1.162070000000000E+02
4380000000.000000      1.625977000000000E-01      2.167187000000000E+01      3.769836000000000E-01     -1.456484000000000E+02
4400000000.000000      1.741180000000000E-01      2.161914000000000E+01      3.737793000000000E-01     -1.747266000000000E+02
4420000000.000000      1.842651000000000E-01      1.721777000000000E+01      3.758392000000000E-01      1.567109000000000E+02
4440000000.000000      1.802979000000000E-01      1.140625000000000E+01      3.780975000000000E-01      1.268437000000000E+02
4460000000.000000      1.639862000000000E-01      8.383789000000000E+00      3.699036000000000E-01      9.733984000000000E+01
4480000000.000000      1.455460000000000E-01      1.218213000000000E+01      3.673553000000000E-01      6.905468000000000E+01
4500000000.000000      1.481323000000000E-01      2.105469000000000E+01      3.657074000000000E-01      4.004296000000000E+01
4520000000.000000      1.743774000000000E-01      2.528906000000000E+01      3.627625000000000E-01      1.090234000000000E+01
4540000000.000000      2.049637000000000E-01      2.093554000000000E+01      3.534546000000000E-01     -1.869824000000000E+01
4560000000.000000      2.246628000000000E-01      1.263965000000000E+01      3.463593000000000E-01     -4.699414000000000E+01
4580000000.000000      2.297440000000000E-01      3.621338000000000E+00      3.484192000000000E-01     -7.646874000000000E+01
4600000000.000000      2.210617000000000E-01     -3.617310000000000E+00      3.444519000000000E-01     -1.067344000000000E+02
4620000000.000000      2.089996000000000E-01     -7.698730000000000E+00      3.400879000000000E-01     -1.362500000000000E+02
4640000000.000000      2.032471000000000E-01     -9.852051000000000E+00      3.397522000000000E-01     -1.659375000000000E+02
4660000000.000000      2.034760000000000E-01     -1.267822000000000E+01      3.374634000000000E-01      1.650469000000000E+02
4680000000.000000      2.039413000000000E-01     -1.795996000000000E+01      3.432465000000000E-01      1.360547000000000E+02
4700000000.000000      1.974030000000000E-01     -2.498437000000000E+01      3.436432000000000E-01      1.063594000000000E+02
4720000000.000000      1.810150000000000E-01     -3.224804000000000E+01      3.406525000000000E-01      7.878515000000000E+01
4740000000.000000      1.604767000000000E-01     -3.866601000000000E+01      3.472748000000000E-01      5.104297000000000E+01
4760000000.000000      1.363983000000000E-01     -4.405273000000000E+01      3.483276000000000E-01      2.232226000000000E+01
4780000000.000000      1.107254000000000E-01     -4.875195000000000E+01      3.439178000000000E-01     -6.116699000000000E+00
4800000000.000000      7.843018000000000E-02     -5.342578000000000E+01      3.399658000000000E-01     -3.452539000000000E+01
4820000000.000000      3.566551000000000E-02     -4.918359000000000E+01      3.312836000000000E-01     -6.353710000000000E+01
4840000000.000000      3.439331000000000E-02      5.787304000000000E+01      3.239288000000000E-01     -9.276171000000000E+01
4860000000.000000      1.014481000000000E-01      6.194530000000000E+01      3.168488000000000E-01     -1.234727000000000E+02
4880000000.000000      1.706924000000000E-01      4.857422000000000E+01      2.974701000000000E-01     -1.546016000000000E+02
4900000000.000000      2.294922000000000E-01      3.271875000000000E+01      2.744598000000000E-01      1.777500000000000E+02
4920000000.000000      2.713470000000000E-01      1.624804000000000E+01      2.749023000000000E-01      1.522656000000000E+02
4940000000.000000      2.913971000000000E-01      5.493164000000000E-01      2.893829000000000E-01      1.235156000000000E+02
4960000000.000000      2.880859000000000E-01     -1.483154000000000E+01      2.933960000000000E-01      9.382030000000000E+01
4980000000.000000      2.618103000000000E-01     -2.845410000000000E+01      2.993317000000000E-01      6.677734000000000E+01
5000000000.000000      2.188187000000000E-01     -3.845117000000000E+01      3.138885000000000E-01      3.923047000000000E+01
5020000000.000000      1.712646000000000E-01     -4.078125000000000E+01      3.246918000000000E-01      1.113867000000000E+01
5040000000.000000      1.428604000000000E-01     -3.352148000000000E+01      3.323975000000000E-01     -1.594678000000000E+01
5060000000.000000      1.448669000000000E-01     -2.361816000000000E+01      3.398895000000000E-01     -4.307422000000000E+01
5080000000.000000      1.610718000000000E-01     -2.054590000000000E+01      3.451385000000000E-01     -7.123437000000000E+01
5100000000.000000      1.738968000000000E-01     -2.293750000000000E+01      3.392944000000000E-01     -9.980469000000000E+01
5120000000.000000      1.790771000000000E-01     -2.641406000000000E+01      3.329926000000000E-01     -1.271992000000000E+02
5140000000.000000      1.815338000000000E-01     -2.929785000000000E+01      3.309479000000000E-01     -1.555156000000000E+02
5160000000.000000      1.843491000000000E-01     -3.186621000000000E+01      3.273315000000000E-01      1.750703000000000E+02
5180000000.000000      1.890869000000000E-01     -3.539844000000000E+01      3.238068000000000E-01      1.453906000000000E+02
5200000000.000000      1.908646000000000E-01     -4.017187000000000E+01      3.226776000000000E-01      1.153633000000000E+02
5220000000.000000      1.854935000000000E-01     -4.463672000000000E+01      3.224030000000000E-01      8.544922000000000E+01
5240000000.000000      1.762009000000000E-01     -4.753906000000000E+01      3.276062000000000E-01      5.566992000000000E+01
5260000000.000000      1.680374000000000E-01     -4.761523000000000E+01      3.338470000000000E-01      2.610058000000000E+01
5280000000.000000      1.652908000000000E-01     -4.625000000000000E+01      3.382263000000000E-01     -2.963623000000000E+00
5300000000.000000      1.700439000000000E-01     -4.642774000000000E+01      3.418579000000000E-01     -3.104004000000000E+01
5320000000.000000      1.741257000000000E-01     -4.918163000000000E+01      3.461761000000000E-01     -5.812500000000000E+01
5340000000.000000      1.721191000000000E-01     -5.304296000000000E+01      3.506012000000000E-01     -8.590235000000000E+01
5360000000.000000      1.655426000000000E-01     -5.610937000000000E+01      3.455353000000000E-01     -1.132148000000000E+02
5380000000.000000      1.589661000000000E-01     -5.697070000000000E+01      3.399811000000000E-01     -1.395469000000000E+02
5400000000.000000      1.594391000000000E-01     -5.622460000000000E+01      3.384705000000000E-01     -1.670000000000000E+02
5420000000.000000      1.691666000000000E-01     -5.618164000000000E+01      3.318329000000000E-01      1.646797000000000E+02
5440000000.000000      1.811905000000000E-01     -5.936132000000000E+01      3.262939000000000E-01      1.354844000000000E+02
5460000000.000000      1.875305000000000E-01     -6.565624000000000E+01      3.154602000000000E-01      1.056523000000000E+02
5480000000.000000      1.818237000000000E-01     -7.278125000000000E+01      3.093567000000000E-01      7.608984000000000E+01
5500000000.000000      1.640091000000000E-01     -7.901562000000000E+01      3.115082000000000E-01      4.629102000000000E+01
5520000000.000000      1.406784000000000E-01     -8.270702000000000E+01      3.143921000000000E-01      1.595215000000000E+01
5540000000.000000      1.204720000000000E-01     -8.167187000000000E+01      3.192749000000000E-01     -1.373730000000000E+01
5560000000.000000      1.081200000000000E-01     -7.792969000000000E+01      3.250732000000000E-01     -4.257617000000000E+01
5580000000.000000      1.030960000000000E-01     -7.248437000000000E+01      3.323822000000000E-01     -7.097265000000000E+01
5600000000.000000      1.007423000000000E-01     -6.688281000000000E+01      3.375397000000000E-01     -9.874218000000000E+01
5620000000.000000      1.041794000000000E-01     -5.918163000000000E+01      3.403168000000000E-01     -1.266055000000000E+02
5640000000.000000      1.195526000000000E-01     -5.235156000000000E+01      3.373260000000000E-01     -1.540000000000000E+02
5660000000.000000      1.449585000000000E-01     -5.176562000000000E+01      3.311462000000000E-01      1.788750000000000E+02
5680000000.000000      1.715851000000000E-01     -5.756836000000000E+01      3.226776000000000E-01      1.509531000000000E+02
5700000000.000000      1.905899000000000E-01     -6.795312000000000E+01      3.090057000000000E-01      1.227187000000000E+02
5720000000.000000      1.929474000000000E-01     -8.048046000000000E+01      2.954254000000000E-01      9.505077000000000E+01
5740000000.000000      1.782837000000000E-01     -9.283203000000000E+01      2.902832000000000E-01      6.615624000000000E+01
5760000000.000000      1.496811000000000E-01     -1.024258000000000E+02      2.854004000000000E-01      3.510937000000000E+01
5780000000.000000      1.168900000000000E-01     -1.043711000000000E+02      2.814178000000000E-01      4.409424000000000E+00
5800000000.000000      9.899521000000000E-02     -9.555079000000000E+01      2.837219000000000E-01     -2.593359000000000E+01
5820000000.000000      1.030998000000000E-01     -8.730860000000000E+01      2.908936000000000E-01     -5.621484000000000E+01
5840000000.000000      1.141472000000000E-01     -8.938671000000000E+01      3.006134000000000E-01     -8.638281000000000E+01
5860000000.000000      1.170578000000000E-01     -9.702343000000000E+01      3.031158000000000E-01     -1.154336000000000E+02
5880000000.000000      1.083450000000000E-01     -1.077109000000000E+02      3.050385000000000E-01     -1.424844000000000E+02
5900000000.000000      8.964539000000000E-02     -1.148320000000000E+02      3.144226000000000E-01     -1.690703000000000E+02
5920000000.000000      7.101440000000000E-02     -1.133555000000000E+02      3.186951000000000E-01      1.630156000000000E+02
5940000000.000000      6.411743000000000E-02     -1.040781000000000E+02      3.120117000000000E-01      1.346719000000000E+02
5960000000.000000      6.219292000000000E-02     -9.967577000000000E+01      2.977905000000000E-01      1.072656000000000E+02
5980000000.000000      5.296516000000000E-02     -9.953125000000000E+01      2.870178000000000E-01      8.023046000000000E+01
6000000000.000000      3.256798000000000E-02     -8.743359000000000E+01      2.803040000000000E-01      5.087109000000000E+01
6020000000.000000      3.293037000000000E-02     -2.617676000000000E+01      2.684937000000000E-01      1.998730000000000E+01
6040000000.000000      6.842422000000000E-02     -1.286816000000000E+01      2.547150000000000E-01     -1.061865000000000E+01
6060000000.000000      1.048698000000000E-01     -2.182617000000000E+01      2.499084000000000E-01     -4.103516000000000E+01
6080000000.000000      1.311646000000000E-01     -3.605469000000000E+01      2.555237000000000E-01     -7.190234000000000E+01
