! Network Analyzer HP8722D
! Hewlett-Packard
! Data name: Linha & Wilkinson
! Saver's name: Rodrigo Anjos
! Comments: Teste da utilização de aquisição
continua pelo VNA HP8722D
! Time and date: 3/9/2025 19:49
!              Frequency                     S11                                                   S21                                                   S12                                                   S22
# HZ  S  MA R 50
3000000000.000000      7.686996000000000E-02      8.784765000000000E+01      4.566803000000000E-01      2.564844000000000E+01
3020000000.000000      9.369278000000000E-02      7.341797000000000E+01      4.583130000000000E-01     -3.186035000000000E+00
3040000000.000000      9.568405000000000E-02      5.697070000000000E+01      4.580231000000000E-01     -3.223437000000000E+01
3060000000.000000      8.406830000000000E-02      4.185351000000000E+01      4.557037000000000E-01     -6.072460000000000E+01
3080000000.000000      6.356430000000000E-02      3.082617000000000E+01      4.563293000000000E-01     -8.911327000000000E+01
3100000000.000000      4.529381000000000E-02      3.070801000000000E+01      4.541931000000000E-01     -1.177344000000000E+02
3120000000.000000      3.796959000000000E-02      4.376953000000000E+01      4.525757000000000E-01     -1.462344000000000E+02
3140000000.000000      3.753281000000000E-02      4.907812000000000E+01      4.477692000000000E-01     -1.748906000000000E+02
3160000000.000000      2.981377000000000E-02      5.007030000000000E+01      4.446716000000000E-01      1.567969000000000E+02
3180000000.000000      1.690865000000000E-02      9.684765000000000E+01      4.434052000000000E-01      1.281250000000000E+02
3200000000.000000      4.673958000000000E-02      1.447422000000000E+02      4.378967000000000E-01      9.852343000000000E+01
3220000000.000000      9.807205000000000E-02      1.375078000000000E+02      4.240875000000000E-01      6.936328000000000E+01
3240000000.000000      1.494141000000000E-01      1.221445000000000E+02      4.129181000000000E-01      4.210156000000000E+01
3260000000.000000      1.912766000000000E-01      1.052226000000000E+02      4.165802000000000E-01      1.464307000000000E+01
3280000000.000000      2.190018000000000E-01      8.783203000000000E+01      4.210968000000000E-01     -1.474268000000000E+01
3300000000.000000      2.297745000000000E-01      7.075781000000000E+01      4.149628000000000E-01     -4.317773000000000E+01
3320000000.000000      2.250595000000000E-01      5.555859000000000E+01      4.180145000000000E-01     -7.097265000000000E+01
3340000000.000000      2.088776000000000E-01      4.277539000000000E+01      4.239960000000000E-01     -9.964453000000000E+01
3360000000.000000      1.851349000000000E-01      3.345312000000000E+01      4.258575000000000E-01     -1.281563000000000E+02
3380000000.000000      1.613770000000000E-01      2.852051000000000E+01      4.310913000000000E-01     -1.563359000000000E+02
3400000000.000000      1.424866000000000E-01      2.680859000000000E+01      4.335785000000000E-01      1.748516000000000E+02
3420000000.000000      1.285934000000000E-01      2.633886000000000E+01      4.338074000000000E-01      1.462265000000000E+02
3440000000.000000      1.162186000000000E-01      2.618847000000000E+01      4.330292000000000E-01      1.173672000000000E+02
3460000000.000000      1.046638000000000E-01      2.711523000000000E+01      4.286194000000000E-01      8.920313000000000E+01
3480000000.000000      9.621048000000000E-02      2.995898000000000E+01      4.292908000000000E-01      6.050390000000000E+01
3500000000.000000      9.283066000000000E-02      3.367969000000000E+01      4.270782000000000E-01      3.140234000000000E+01
3520000000.000000      9.175110000000000E-02      3.716797000000000E+01      4.239807000000000E-01      3.150269000000000E+00
3540000000.000000      9.217453000000000E-02      4.068359000000000E+01      4.253998000000000E-01     -2.536426000000000E+01
3560000000.000000      9.452438000000000E-02      4.577148000000000E+01      4.287109000000000E-01     -5.439062000000000E+01
3580000000.000000      1.020126000000000E-01      5.103710000000000E+01      4.267426000000000E-01     -8.322266000000000E+01
3600000000.000000      1.152687000000000E-01      5.215429000000000E+01      4.263611000000000E-01     -1.115117000000000E+02
3620000000.000000      1.285553000000000E-01      4.913476000000000E+01      4.275818000000000E-01     -1.394531000000000E+02
3640000000.000000      1.344070000000000E-01      4.289063000000000E+01      4.276276000000000E-01     -1.679688000000000E+02
3660000000.000000      1.293259000000000E-01      3.623828000000000E+01      4.263763000000000E-01      1.641094000000000E+02
3680000000.000000      1.165619000000000E-01      3.273828000000000E+01      4.300079000000000E-01      1.365625000000000E+02
3700000000.000000      1.034355000000000E-01      3.636523000000000E+01      4.311981000000000E-01      1.081641000000000E+02
3720000000.000000      1.045799000000000E-01      4.538086000000000E+01      4.290466000000000E-01      7.943749000000000E+01
3740000000.000000      1.222038000000000E-01      4.961132000000000E+01      4.229431000000000E-01      5.090820000000000E+01
3760000000.000000      1.412506000000000E-01      4.601953000000000E+01      4.194336000000000E-01      2.302539000000000E+01
3780000000.000000      1.482010000000000E-01      3.843359000000000E+01      4.164581000000000E-01     -4.786133000000000E+00
3800000000.000000      1.413269000000000E-01      3.105762000000000E+01      4.183044000000000E-01     -3.326367000000000E+01
3820000000.000000      1.226349000000000E-01      2.786816000000000E+01      4.184418000000000E-01     -6.219336000000000E+01
3840000000.000000      1.085930000000000E-01      3.287500000000000E+01      4.175720000000000E-01     -9.094921000000000E+01
3860000000.000000      1.131897000000000E-01      4.122266000000000E+01      4.162292000000000E-01     -1.198828000000000E+02
3880000000.000000      1.314850000000000E-01      4.289453000000000E+01      4.135437000000000E-01     -1.489063000000000E+02
3900000000.000000      1.461792000000000E-01      3.712891000000000E+01      4.066315000000000E-01     -1.773125000000000E+02
3920000000.000000      1.439972000000000E-01      2.936718000000000E+01      4.076080000000000E-01      1.556250000000000E+02
3940000000.000000      1.252289000000000E-01      2.563086000000000E+01      4.163666000000000E-01      1.268711000000000E+02
3960000000.000000      1.070786000000000E-01      3.229492000000000E+01      4.158630000000000E-01      9.797655000000000E+01
3980000000.000000      1.143150000000000E-01      4.608594000000000E+01      4.061127000000000E-01      6.928905000000000E+01
4000000000.000000      1.464081000000000E-01      4.924805000000000E+01      4.005432000000000E-01      4.206640000000000E+01
4020000000.000000      1.795578000000000E-01      4.172852000000000E+01      4.066467000000000E-01      1.441260000000000E+01
4040000000.000000      1.985245000000000E-01      2.891992000000000E+01      4.060211000000000E-01     -1.577539000000000E+01
4060000000.000000      1.926117000000000E-01      1.488623000000000E+01      3.921509000000000E-01     -4.438086000000000E+01
4080000000.000000      1.644363000000000E-01      1.510620000000000E+00      3.909607000000000E-01     -7.121484000000000E+01
4100000000.000000      1.179657000000000E-01     -6.326904000000000E+00      4.016876000000000E-01     -9.986328000000000E+01
4120000000.000000      7.526779000000000E-02      4.471436000000000E+00      4.012299000000000E-01     -1.301094000000000E+02
4140000000.000000      7.323456000000000E-02      3.456250000000000E+01      3.953705000000000E-01     -1.586562000000000E+02
4160000000.000000      9.835434000000000E-02      4.371875000000000E+01      3.976440000000000E-01      1.732891000000000E+02
4180000000.000000      1.158600000000000E-01      4.035742000000000E+01      4.048157000000000E-01      1.447266000000000E+02
4200000000.000000      1.177559000000000E-01      3.640039000000000E+01      4.062500000000000E-01      1.146211000000000E+02
4220000000.000000      1.153755000000000E-01      3.862305000000000E+01      3.985748000000000E-01      8.554296000000000E+01
4240000000.000000      1.238480000000000E-01      4.537695000000000E+01      3.920898000000000E-01      5.712695000000000E+01
4260000000.000000      1.492386000000000E-01      4.737695000000000E+01      3.871613000000000E-01      2.903613000000000E+01
4280000000.000000      1.762314000000000E-01      4.266992000000000E+01      3.870392000000000E-01      8.322144000000000E-01
4300000000.000000      1.923599000000000E-01      3.449414000000000E+01      3.845062000000000E-01     -2.803711000000000E+01
4320000000.000000      1.916656000000000E-01      2.609179000000000E+01      3.812866000000000E-01     -5.698828000000000E+01
4340000000.000000      1.776199000000000E-01      1.996191000000000E+01      3.806763000000000E-01     -8.574219000000000E+01
4360000000.000000      1.637802000000000E-01      1.929004000000000E+01      3.791656000000000E-01     -1.150977000000000E+02
4380000000.000000      1.624146000000000E-01      2.187988000000000E+01      3.768768000000000E-01     -1.445859000000000E+02
4400000000.000000      1.738052000000000E-01      2.194434000000000E+01      3.732300000000000E-01     -1.735625000000000E+02
4420000000.000000      1.839905000000000E-01      1.777539000000000E+01      3.754883000000000E-01      1.576328000000000E+02
4440000000.000000      1.812210000000000E-01      1.180029000000000E+01      3.779755000000000E-01      1.278242000000000E+02
4460000000.000000      1.647644000000000E-01      8.692871000000000E+00      3.709106000000000E-01      9.855858000000000E+01
4480000000.000000      1.453247000000000E-01      1.243506000000000E+01      3.662262000000000E-01      7.012500000000000E+01
4500000000.000000      1.476440000000000E-01      2.130078000000000E+01      3.679352000000000E-01      4.132617000000000E+01
4520000000.000000      1.737442000000000E-01      2.558984000000000E+01      3.633118000000000E-01      1.184863000000000E+01
4540000000.000000      2.046585000000000E-01      2.148144000000000E+01      3.534393000000000E-01     -1.756055000000000E+01
4560000000.000000      2.251434000000000E-01      1.313379000000000E+01      3.468475000000000E-01     -4.579687000000000E+01
4580000000.000000      2.307587000000000E-01      4.090820000000000E+00      3.490906000000000E-01     -7.499609000000000E+01
4600000000.000000      2.218857000000000E-01     -3.199829000000000E+00      3.453827000000000E-01     -1.055781000000000E+02
4620000000.000000      2.095795000000000E-01     -7.510742000000000E+00      3.397675000000000E-01     -1.350937000000000E+02
4640000000.000000      2.033920000000000E-01     -9.570801000000000E+00      3.393097000000000E-01     -1.646563000000000E+02
4660000000.000000      2.029724000000000E-01     -1.239844000000000E+01      3.392944000000000E-01      1.662578000000000E+02
4680000000.000000      2.039642000000000E-01     -1.756445000000000E+01      3.436432000000000E-01      1.370625000000000E+02
4700000000.000000      1.974564000000000E-01     -2.459863000000000E+01      3.451385000000000E-01      1.078516000000000E+02
4720000000.000000      1.812897000000000E-01     -3.193359000000000E+01      3.410339000000000E-01      7.983203000000000E+01
4740000000.000000      1.610489000000000E-01     -3.830273000000000E+01      3.475037000000000E-01      5.206249000000000E+01
4760000000.000000      1.371613000000000E-01     -4.373242000000000E+01      3.481903000000000E-01      2.345898000000000E+01
4780000000.000000      1.106415000000000E-01     -4.828515000000000E+01      3.451233000000000E-01     -4.937012000000000E+00
4800000000.000000      7.935715000000000E-02     -5.287109000000000E+01      3.402100000000000E-01     -3.349218000000000E+01
4820000000.000000      3.656960000000000E-02     -4.822070000000000E+01      3.323212000000000E-01     -6.257030000000000E+01
4840000000.000000      3.366089000000000E-02      5.763281000000000E+01      3.253174000000000E-01     -9.144922000000000E+01
4860000000.000000      9.941101000000000E-02      6.228516000000000E+01      3.180237000000000E-01     -1.223203000000000E+02
4880000000.000000      1.693115000000000E-01      4.952734000000000E+01      2.979584000000000E-01     -1.535078000000000E+02
4900000000.000000      2.280884000000000E-01      3.350390000000000E+01      2.756195000000000E-01      1.788516000000000E+02
4920000000.000000      2.716217000000000E-01      1.711035000000000E+01      2.759094000000000E-01      1.532500000000000E+02
4940000000.000000      2.920074000000000E-01      1.209839000000000E+00      2.894287000000000E-01      1.247109000000000E+02
4960000000.000000      2.888794000000000E-01     -1.406152000000000E+01      2.935333000000000E-01      9.495312000000000E+01
4980000000.000000      2.635193000000000E-01     -2.788281000000000E+01      2.993164000000000E-01      6.794531000000000E+01
5000000000.000000      2.207336000000000E-01     -3.801953000000000E+01      3.145142000000000E-01      4.045117000000000E+01
5020000000.000000      1.726303000000000E-01     -4.078906000000000E+01      3.246460000000000E-01      1.239941000000000E+01
5040000000.000000      1.433868000000000E-01     -3.358398000000000E+01      3.323212000000000E-01     -1.475781000000000E+01
5060000000.000000      1.445007000000000E-01     -2.350390000000000E+01      3.408508000000000E-01     -4.185742000000000E+01
5080000000.000000      1.608734000000000E-01     -2.038965000000000E+01      3.453827000000000E-01     -7.012890000000000E+01
5100000000.000000      1.739578000000000E-01     -2.267773000000000E+01      3.408356000000000E-01     -9.852734000000000E+01
5120000000.000000      1.797333000000000E-01     -2.619629000000000E+01      3.338470000000000E-01     -1.259414000000000E+02
5140000000.000000      1.817627000000000E-01     -2.904590000000000E+01      3.315735000000000E-01     -1.541875000000000E+02
5160000000.000000      1.842575000000000E-01     -3.184570000000000E+01      3.282013000000000E-01      1.762656000000000E+02
5180000000.000000      1.885757000000000E-01     -3.504101000000000E+01      3.243866000000000E-01      1.466797000000000E+02
5200000000.000000      1.907730000000000E-01     -3.978711000000000E+01      3.236542000000000E-01      1.164883000000000E+02
5220000000.000000      1.861496000000000E-01     -4.451367000000000E+01      3.234558000000000E-01      8.671484000000000E+01
5240000000.000000      1.765747000000000E-01     -4.728125000000000E+01      3.285980000000000E-01      5.692577000000000E+01
5260000000.000000      1.679306000000000E-01     -4.754492000000000E+01      3.341064000000000E-01      2.744336000000000E+01
5280000000.000000      1.652985000000000E-01     -4.627734000000000E+01      3.389740000000000E-01     -1.686401000000000E+00
5300000000.000000      1.695404000000000E-01     -4.642187000000000E+01      3.422852000000000E-01     -2.972851000000000E+01
5320000000.000000      1.736450000000000E-01     -4.885156000000000E+01      3.465881000000000E-01     -5.681054000000000E+01
5340000000.000000      1.718445000000000E-01     -5.279491000000000E+01      3.513489000000000E-01     -8.453125000000000E+01
5360000000.000000      1.650467000000000E-01     -5.608984000000000E+01      3.456879000000000E-01     -1.119727000000000E+02
5380000000.000000      1.584320000000000E-01     -5.685741000000000E+01      3.412323000000000E-01     -1.383437000000000E+02
5400000000.000000      1.583328000000000E-01     -5.614648000000000E+01      3.395081000000000E-01     -1.657500000000000E+02
5420000000.000000      1.685104000000000E-01     -5.586328000000000E+01      3.330841000000000E-01      1.659375000000000E+02
5440000000.000000      1.811600000000000E-01     -5.895117000000000E+01      3.274536000000000E-01      1.368359000000000E+02
5460000000.000000      1.871338000000000E-01     -6.503906000000000E+01      3.169098000000000E-01      1.069102000000000E+02
5480000000.000000      1.817474000000000E-01     -7.218750000000000E+01      3.098755000000000E-01      7.742969000000000E+01
5500000000.000000      1.640625000000000E-01     -7.891015000000000E+01      3.126678000000000E-01      4.785546000000000E+01
5520000000.000000      1.409302000000000E-01     -8.247265000000000E+01      3.151398000000000E-01      1.736523000000000E+01
5540000000.000000      1.206551000000000E-01     -8.172266000000000E+01      3.193665000000000E-01     -1.230371000000000E+01
5560000000.000000      1.084175000000000E-01     -7.767578000000000E+01      3.261108000000000E-01     -4.124609000000000E+01
5580000000.000000      1.024475000000000E-01     -7.270702000000000E+01      3.327942000000000E-01     -6.976953000000000E+01
5600000000.000000      1.006355000000000E-01     -6.695703000000000E+01      3.379974000000000E-01     -9.757030000000000E+01
5620000000.000000      1.042290000000000E-01     -5.926171000000000E+01      3.403015000000000E-01     -1.251836000000000E+02
5640000000.000000      1.188850000000000E-01     -5.245507000000000E+01      3.382416000000000E-01     -1.527344000000000E+02
5660000000.000000      1.436081000000000E-01     -5.150781000000000E+01      3.318176000000000E-01     -1.798594000000000E+02
5680000000.000000      1.707306000000000E-01     -5.723437000000000E+01      3.235626000000000E-01      1.523750000000000E+02
5700000000.000000      1.895676000000000E-01     -6.738671000000000E+01      3.102417000000000E-01      1.240664000000000E+02
5720000000.000000      1.931992000000000E-01     -7.975390000000000E+01      2.963257000000000E-01      9.624218000000000E+01
5740000000.000000      1.789093000000000E-01     -9.227343000000000E+01      2.908478000000000E-01      6.765234000000000E+01
5760000000.000000      1.504211000000000E-01     -1.020859000000000E+02      2.862244000000000E-01      3.648046000000000E+01
5780000000.000000      1.180992000000000E-01     -1.046484000000000E+02      2.828217000000000E-01      5.782715000000000E+00
5800000000.000000      9.858704000000000E-02     -9.594141000000000E+01      2.838898000000000E-01     -2.435156000000000E+01
5820000000.000000      1.024666000000000E-01     -8.719530000000000E+01      2.913055000000000E-01     -5.463085000000000E+01
5840000000.000000      1.137428000000000E-01     -8.871874000000000E+01      3.015289000000000E-01     -8.505468000000000E+01
5860000000.000000      1.168823000000000E-01     -9.652733000000000E+01      3.029633000000000E-01     -1.140156000000000E+02
5880000000.000000      1.081161000000000E-01     -1.072890000000000E+02      3.047028000000000E-01     -1.411172000000000E+02
5900000000.000000      8.998871000000000E-02     -1.143047000000000E+02      3.148346000000000E-01     -1.676641000000000E+02
5920000000.000000      7.065201000000000E-02     -1.133281000000000E+02      3.193207000000000E-01      1.643203000000000E+02
5940000000.000000      6.303024000000000E-02     -1.039141000000000E+02      3.134308000000000E-01      1.359531000000000E+02
5960000000.000000      6.172562000000000E-02     -9.924999000000000E+01      2.983551000000000E-01      1.086172000000000E+02
5980000000.000000      5.340767000000000E-02     -9.894920000000000E+01      2.882538000000000E-01      8.158203000000000E+01
6000000000.000000      3.321838000000000E-02     -8.661718000000000E+01      2.813568000000000E-01      5.230859000000000E+01
6020000000.000000      3.295517000000000E-02     -2.670801000000000E+01      2.692108000000000E-01      2.139843000000000E+01
6040000000.000000      6.758499000000000E-02     -1.221582000000000E+01      2.557068000000000E-01     -8.988281000000000E+00
6060000000.000000      1.039658000000000E-01     -2.076465000000000E+01      2.506104000000000E-01     -3.955078000000000E+01
6080000000.000000      1.308899000000000E-01     -3.507421000000000E+01      2.567902000000000E-01     -7.037109000000000E+01
