! Network Analyzer HP8722D
! Hewlett-Packard
! Data name: Linha & Wilkinson
! Saver's name: Rodrigo Anjos
! Comments: Teste da utilização de aquisição
continua pelo VNA HP8722D
! Time and date: 3/9/2025 18:46
!              Frequency                     S11                                                   S21                                                   S12                                                   S22
# HZ  S  MA R 50
3000000000.000000      7.622528000000000E-02      8.778906000000000E+01      4.551849000000000E-01      2.587207000000000E+01
3020000000.000000      9.325409000000000E-02      7.320313000000000E+01      4.573822000000000E-01     -2.937500000000000E+00
3040000000.000000      9.542847000000000E-02      5.706249000000000E+01      4.550934000000000E-01     -3.201953000000000E+01
3060000000.000000      8.396530000000000E-02      4.180273000000000E+01      4.531403000000000E-01     -6.014648000000000E+01
3080000000.000000      6.417847000000000E-02      3.055761000000000E+01      4.543152000000000E-01     -8.878124000000000E+01
3100000000.000000      4.527473000000000E-02      3.068164000000000E+01      4.532928000000000E-01     -1.173242000000000E+02
3120000000.000000      3.831100000000000E-02      4.316211000000000E+01      4.496460000000000E-01     -1.460234000000000E+02
3140000000.000000      3.765297000000000E-02      4.906640000000000E+01      4.466095000000000E-01     -1.745234000000000E+02
3160000000.000000      2.996826000000000E-02      5.003124000000000E+01      4.424591000000000E-01      1.572266000000000E+02
3180000000.000000      1.651669000000000E-02      9.412500000000000E+01      4.412994000000000E-01      1.284531000000000E+02
3200000000.000000      4.589844000000000E-02      1.442578000000000E+02      4.361267000000000E-01      9.895311000000000E+01
3220000000.000000      9.666061000000000E-02      1.373906000000000E+02      4.223328000000000E-01      6.990234000000000E+01
3240000000.000000      1.478424000000000E-01      1.221133000000000E+02      4.119110000000000E-01      4.239453000000000E+01
3260000000.000000      1.905212000000000E-01      1.053047000000000E+02      4.156952000000000E-01      1.487939000000000E+01
3280000000.000000      2.180862000000000E-01      8.773829000000000E+01      4.207764000000000E-01     -1.415332000000000E+01
3300000000.000000      2.294617000000000E-01      7.096093000000000E+01      4.150085000000000E-01     -4.283593000000000E+01
3320000000.000000      2.250595000000000E-01      5.552929000000000E+01      4.172058000000000E-01     -7.042578000000000E+01
3340000000.000000      2.092819000000000E-01      4.277734000000000E+01      4.223328000000000E-01     -9.909765000000000E+01
3360000000.000000      1.861420000000000E-01      3.341211000000000E+01      4.250946000000000E-01     -1.274961000000000E+02
3380000000.000000      1.617889000000000E-01      2.827929000000000E+01      4.287262000000000E-01     -1.559062000000000E+02
3400000000.000000      1.430359000000000E-01      2.632519000000000E+01      4.319000000000000E-01      1.753281000000000E+02
3420000000.000000      1.290512000000000E-01      2.583984000000000E+01      4.322510000000000E-01      1.466328000000000E+02
3440000000.000000      1.163635000000000E-01      2.534375000000000E+01      4.319305000000000E-01      1.176250000000000E+02
3460000000.000000      1.042099000000000E-01      2.645312000000000E+01      4.281921000000000E-01      8.948437000000000E+01
3480000000.000000      9.629059000000000E-02      2.923242000000000E+01      4.298248000000000E-01      6.092773000000000E+01
3500000000.000000      9.200668000000000E-02      3.293945000000000E+01      4.254150000000000E-01      3.169824000000000E+01
3520000000.000000      9.136581000000000E-02      3.669726000000000E+01      4.232330000000000E-01      3.500488000000000E+00
3540000000.000000      9.196472000000000E-02      4.013281000000000E+01      4.261322000000000E-01     -2.491211000000000E+01
3560000000.000000      9.425354000000000E-02      4.548828000000000E+01      4.268799000000000E-01     -5.409570000000000E+01
3580000000.000000      1.017532000000000E-01      5.061913000000000E+01      4.256287000000000E-01     -8.279688000000000E+01
3600000000.000000      1.152000000000000E-01      5.199219000000000E+01      4.254456000000000E-01     -1.110547000000000E+02
3620000000.000000      1.281433000000000E-01      4.917187000000000E+01      4.259644000000000E-01     -1.392031000000000E+02
3640000000.000000      1.340179000000000E-01      4.305078000000000E+01      4.256897000000000E-01     -1.675078000000000E+02
3660000000.000000      1.292191000000000E-01      3.601171000000000E+01      4.242554000000000E-01      1.645547000000000E+02
3680000000.000000      1.168938000000000E-01      3.272070000000000E+01      4.282379000000000E-01      1.368906000000000E+02
3700000000.000000      1.040802000000000E-01      3.581836000000000E+01      4.305115000000000E-01      1.083594000000000E+02
3720000000.000000      1.044006000000000E-01      4.474999000000000E+01      4.293213000000000E-01      7.984375000000000E+01
3740000000.000000      1.217690000000000E-01      4.900976000000000E+01      4.218445000000000E-01      5.137890000000000E+01
3760000000.000000      1.404114000000000E-01      4.591601000000000E+01      4.171906000000000E-01      2.352930000000000E+01
3780000000.000000      1.481857000000000E-01      3.842578000000000E+01      4.161835000000000E-01     -4.346680000000000E+00
3800000000.000000      1.415176000000000E-01      3.099609000000000E+01      4.179840000000000E-01     -3.290039000000000E+01
3820000000.000000      1.229782000000000E-01      2.769043000000000E+01      4.171753000000000E-01     -6.158008000000000E+01
3840000000.000000      1.084824000000000E-01      3.243555000000000E+01      4.169769000000000E-01     -9.064844000000000E+01
3860000000.000000      1.124229000000000E-01      4.066796000000000E+01      4.161835000000000E-01     -1.193437000000000E+02
3880000000.000000      1.307144000000000E-01      4.259766000000000E+01      4.135284000000000E-01     -1.484453000000000E+02
3900000000.000000      1.452637000000000E-01      3.711719000000000E+01      4.062653000000000E-01     -1.767734000000000E+02
3920000000.000000      1.437988000000000E-01      2.941113000000000E+01      4.058075000000000E-01      1.561719000000000E+02
3940000000.000000      1.263428000000000E-01      2.527929000000000E+01      4.161377000000000E-01      1.274219000000000E+02
3960000000.000000      1.081619000000000E-01      3.167675000000000E+01      4.140320000000000E-01      9.846483000000000E+01
3980000000.000000      1.137810000000000E-01      4.526367000000000E+01      4.062805000000000E-01      6.973046000000000E+01
4000000000.000000      1.451797000000000E-01      4.890625000000000E+01      3.992767000000000E-01      4.265821000000000E+01
4020000000.000000      1.781769000000000E-01      4.162109000000000E+01      4.048767000000000E-01      1.475049000000000E+01
4040000000.000000      1.970367000000000E-01      2.898535000000000E+01      4.045868000000000E-01     -1.508301000000000E+01
4060000000.000000      1.924438000000000E-01      1.491504000000000E+01      3.903503000000000E-01     -4.388867000000000E+01
4080000000.000000      1.644516000000000E-01      1.179626000000000E+00      3.907013000000000E-01     -7.069530000000000E+01
4100000000.000000      1.186981000000000E-01     -6.546631000000000E+00      4.007263000000000E-01     -9.943359000000000E+01
4120000000.000000      7.557297000000000E-02      3.008789000000000E+00      3.994904000000000E-01     -1.293750000000000E+02
4140000000.000000      7.305527000000000E-02      3.338476000000000E+01      3.939514000000000E-01     -1.581875000000000E+02
4160000000.000000      9.688950000000000E-02      4.328321000000000E+01      3.958435000000000E-01      1.738281000000000E+02
4180000000.000000      1.152725000000000E-01      4.004883000000000E+01      4.036255000000000E-01      1.451562000000000E+02
4200000000.000000      1.173630000000000E-01      3.641797000000000E+01      4.037170000000000E-01      1.152578000000000E+02
4220000000.000000      1.153870000000000E-01      3.822656000000000E+01      3.974457000000000E-01      8.607422000000000E+01
4240000000.000000      1.236191000000000E-01      4.485547000000000E+01      3.912354000000000E-01      5.763866000000000E+01
4260000000.000000      1.480103000000000E-01      4.712695000000000E+01      3.869171000000000E-01      2.965723000000000E+01
4280000000.000000      1.752548000000000E-01      4.245313000000000E+01      3.861084000000000E-01      1.256531000000000E+00
4300000000.000000      1.917801000000000E-01      3.426562000000000E+01      3.838501000000000E-01     -2.757617000000000E+01
4320000000.000000      1.911697000000000E-01      2.588086000000000E+01      3.793640000000000E-01     -5.626953000000000E+01
4340000000.000000      1.777802000000000E-01      1.989453000000000E+01      3.793945000000000E-01     -8.557421000000000E+01
4360000000.000000      1.634598000000000E-01      1.877832000000000E+01      3.772583000000000E-01     -1.144375000000000E+02
4380000000.000000      1.618652000000000E-01      2.135254000000000E+01      3.753510000000000E-01     -1.440000000000000E+02
4400000000.000000      1.726379000000000E-01      2.150000000000000E+01      3.728333000000000E-01     -1.728516000000000E+02
4420000000.000000      1.827316000000000E-01      1.755273000000000E+01      3.739777000000000E-01      1.583125000000000E+02
4440000000.000000      1.803284000000000E-01      1.176074000000000E+01      3.765869000000000E-01      1.285391000000000E+02
4460000000.000000      1.644592000000000E-01      8.466309000000000E+00      3.701172000000000E-01      9.887890000000000E+01
4480000000.000000      1.458511000000000E-01      1.174023000000000E+01      3.653107000000000E-01      7.075781000000000E+01
4500000000.000000      1.468582000000000E-01      2.073633000000000E+01      3.654938000000000E-01      4.185742000000000E+01
4520000000.000000      1.722641000000000E-01      2.532422000000000E+01      3.624268000000000E-01      1.243506000000000E+01
4540000000.000000      2.031174000000000E-01      2.138867000000000E+01      3.519592000000000E-01     -1.710449000000000E+01
4560000000.000000      2.244034000000000E-01      1.320264000000000E+01      3.459473000000000E-01     -4.521093000000000E+01
4580000000.000000      2.298508000000000E-01      4.064941000000000E+00      3.475342000000000E-01     -7.446875000000000E+01
4600000000.000000      2.220154000000000E-01     -3.225952000000000E+00      3.436279000000000E-01     -1.047344000000000E+02
4620000000.000000      2.096024000000000E-01     -7.604004000000000E+00      3.384094000000000E-01     -1.344844000000000E+02
4640000000.000000      2.029724000000000E-01     -9.886719000000000E+00      3.382568000000000E-01     -1.639688000000000E+02
4660000000.000000      2.030945000000000E-01     -1.271533000000000E+01      3.382568000000000E-01      1.671172000000000E+02
4680000000.000000      2.033157000000000E-01     -1.776367000000000E+01      3.429108000000000E-01      1.377891000000000E+02
4700000000.000000      1.973114000000000E-01     -2.471582000000000E+01      3.435211000000000E-01      1.082851000000000E+02
4720000000.000000      1.819916000000000E-01     -3.200390000000000E+01      3.406677000000000E-01      8.030468000000000E+01
4740000000.000000      1.615448000000000E-01     -3.866992000000000E+01      3.466339000000000E-01      5.277734000000000E+01
4760000000.000000      1.374207000000000E-01     -4.388085000000000E+01      3.477478000000000E-01      2.415332000000000E+01
4780000000.000000      1.122932000000000E-01     -4.850976000000000E+01      3.437500000000000E-01     -4.268311000000000E+00
4800000000.000000      8.086395000000000E-02     -5.313477000000000E+01      3.391266000000000E-01     -3.276953000000000E+01
4820000000.000000      3.812218000000000E-02     -5.068359000000000E+01      3.309631000000000E-01     -6.178320000000000E+01
4840000000.000000      3.029537000000000E-02      5.514843000000000E+01      3.239288000000000E-01     -9.086329000000000E+01
4860000000.000000      9.660721000000000E-02      6.254687000000000E+01      3.172455000000000E-01     -1.215898000000000E+02
4880000000.000000      1.661453000000000E-01      4.977148000000000E+01      2.972565000000000E-01     -1.527578000000000E+02
4900000000.000000      2.257614000000000E-01      3.399805000000000E+01      2.750397000000000E-01      1.796562000000000E+02
4920000000.000000      2.684784000000000E-01      1.747851000000000E+01      2.746429000000000E-01      1.540234000000000E+02
4940000000.000000      2.910919000000000E-01      1.621826000000000E+00      2.884674000000000E-01      1.253242000000000E+02
4960000000.000000      2.881470000000000E-01     -1.372217000000000E+01      2.922668000000000E-01      9.548437000000000E+01
4980000000.000000      2.635651000000000E-01     -2.741796000000000E+01      2.983551000000000E-01      6.841797000000000E+01
5000000000.000000      2.209930000000000E-01     -3.770312000000000E+01      3.119812000000000E-01      4.106054000000000E+01
5020000000.000000      1.746216000000000E-01     -4.073047000000000E+01      3.233337000000000E-01      1.301563000000000E+01
5040000000.000000      1.437378000000000E-01     -3.403125000000000E+01      3.309174000000000E-01     -1.414795000000000E+01
5060000000.000000      1.445694000000000E-01     -2.396679000000000E+01      3.395691000000000E-01     -4.136914000000000E+01
5080000000.000000      1.603317000000000E-01     -2.065039000000000E+01      3.451691000000000E-01     -6.942968000000000E+01
5100000000.000000      1.743393000000000E-01     -2.271484000000000E+01      3.393860000000000E-01     -9.794531000000000E+01
5120000000.000000      1.796875000000000E-01     -2.631152000000000E+01      3.332214000000000E-01     -1.253320000000000E+02
5140000000.000000      1.820526000000000E-01     -2.923242000000000E+01      3.312378000000000E-01     -1.534297000000000E+02
5160000000.000000      1.847000000000000E-01     -3.182910000000000E+01      3.278046000000000E-01      1.771563000000000E+02
5180000000.000000      1.890259000000000E-01     -3.533203000000000E+01      3.227081000000000E-01      1.474453000000000E+02
5200000000.000000      1.914063000000000E-01     -4.009961000000000E+01      3.216705000000000E-01      1.173047000000000E+02
5220000000.000000      1.864395000000000E-01     -4.474999000000000E+01      3.224945000000000E-01      8.739452000000000E+01
5240000000.000000      1.769867000000000E-01     -4.763867000000000E+01      3.277130000000000E-01      5.773828000000000E+01
5260000000.000000      1.680374000000000E-01     -4.801758000000000E+01      3.329315000000000E-01      2.803711000000000E+01
5280000000.000000      1.647949000000000E-01     -4.672656000000000E+01      3.377380000000000E-01     -1.031372000000000E+00
5300000000.000000      1.690140000000000E-01     -4.671875000000000E+01      3.412018000000000E-01     -2.914844000000000E+01
5320000000.000000      1.728821000000000E-01     -4.928905000000000E+01      3.457947000000000E-01     -5.615820000000000E+01
5340000000.000000      1.714401000000000E-01     -5.302929000000000E+01      3.503113000000000E-01     -8.382421000000000E+01
5360000000.000000      1.651306000000000E-01     -5.625000000000000E+01      3.457794000000000E-01     -1.113555000000000E+02
5380000000.000000      1.580276000000000E-01     -5.734765000000000E+01      3.401489000000000E-01     -1.375781000000000E+02
5400000000.000000      1.580505000000000E-01     -5.646874000000000E+01      3.392181000000000E-01     -1.649688000000000E+02
5420000000.000000      1.675110000000000E-01     -5.623241000000000E+01      3.317871000000000E-01      1.666250000000000E+02
5440000000.000000      1.793823000000000E-01     -5.917773000000000E+01      3.266602000000000E-01      1.375937000000000E+02
5460000000.000000      1.865082000000000E-01     -6.512109000000000E+01      3.162079000000000E-01      1.077617000000000E+02
5480000000.000000      1.811752000000000E-01     -7.236718000000000E+01      3.092346000000000E-01      7.833202000000000E+01
5500000000.000000      1.646881000000000E-01     -7.866796000000000E+01      3.115387000000000E-01      4.849218000000000E+01
5520000000.000000      1.416016000000000E-01     -8.270702000000000E+01      3.133392000000000E-01      1.817871000000000E+01
5540000000.000000      1.211319000000000E-01     -8.190624000000000E+01      3.179779000000000E-01     -1.149316000000000E+01
5560000000.000000      1.085396000000000E-01     -7.802734000000000E+01      3.245392000000000E-01     -4.051758000000000E+01
5580000000.000000      1.028252000000000E-01     -7.259766000000000E+01      3.317413000000000E-01     -6.907421000000000E+01
5600000000.000000      1.006088000000000E-01     -6.723827000000000E+01      3.369904000000000E-01     -9.683594000000000E+01
5620000000.000000      1.042213000000000E-01     -5.992969000000000E+01      3.396606000000000E-01     -1.245351000000000E+02
5640000000.000000      1.179733000000000E-01     -5.276562000000000E+01      3.370056000000000E-01     -1.519531000000000E+02
5660000000.000000      1.427383000000000E-01     -5.183788000000000E+01      3.310699000000000E-01     -1.790234000000000E+02
5680000000.000000      1.701660000000000E-01     -5.712500000000000E+01      3.228607000000000E-01      1.530078000000000E+02
5700000000.000000      1.897430000000000E-01     -6.735546000000000E+01      3.091278000000000E-01      1.248516000000000E+02
5720000000.000000      1.934662000000000E-01     -7.953515000000000E+01      2.954102000000000E-01      9.713671000000000E+01
5740000000.000000      1.799393000000000E-01     -9.219921000000000E+01      2.901611000000000E-01      6.843750000000000E+01
5760000000.000000      1.520538000000000E-01     -1.021367000000000E+02      2.857819000000000E-01      3.735547000000000E+01
5780000000.000000      1.195183000000000E-01     -1.049297000000000E+02      2.812958000000000E-01      6.643799000000000E+00
5800000000.000000      9.882355000000000E-02     -9.694530000000000E+01      2.830200000000000E-01     -2.357324000000000E+01
5820000000.000000      1.019135000000000E-01     -8.790625000000000E+01      2.900543000000000E-01     -5.380468000000000E+01
5840000000.000000      1.132088000000000E-01     -8.930859000000000E+01      2.998505000000000E-01     -8.417187000000000E+01
5860000000.000000      1.172333000000000E-01     -9.670702000000000E+01      3.014374000000000E-01     -1.133164000000000E+02
5880000000.000000      1.092682000000000E-01     -1.072656000000000E+02      3.038635000000000E-01     -1.403203000000000E+02
5900000000.000000      9.070587000000000E-02     -1.150195000000000E+02      3.133087000000000E-01     -1.669062000000000E+02
5920000000.000000      7.179642000000000E-02     -1.145586000000000E+02      3.184357000000000E-01      1.649765000000000E+02
5940000000.000000      6.326294000000000E-02     -1.052226000000000E+02      3.127441000000000E-01      1.368672000000000E+02
5960000000.000000      6.121826000000000E-02     -1.000898000000000E+02      2.979279000000000E-01      1.094531000000000E+02
5980000000.000000      5.275726000000000E-02     -1.000820000000000E+02      2.873383000000000E-01      8.246485000000000E+01
6000000000.000000      3.316307000000000E-02     -8.774218000000000E+01      2.810211000000000E-01      5.323632000000000E+01
6020000000.000000      3.113461000000000E-02     -2.807617000000000E+01      2.683716000000000E-01      2.220703000000000E+01
6040000000.000000      6.609344000000000E-02     -1.196143000000000E+01      2.545624000000000E-01     -8.132813000000000E+00
6060000000.000000      1.023483000000000E-01     -2.047754000000000E+01      2.498169000000000E-01     -3.850195000000000E+01
6080000000.000000      1.299438000000000E-01     -3.485937000000000E+01      2.557373000000000E-01     -6.948437000000000E+01
