! Network Analyzer HP8722D
! Hewlett-Packard
! Data name: Linha & Wilkinson
! Saver's name: Rodrigo Anjos
! Comments: Teste da utilização de aquisição
continua pelo VNA HP8722D
! Time and date: 3/9/2025 17:46
!              Frequency                     S11                                                   S21                                                   S12                                                   S22
# HZ  S  MA R 50
3000000000.000000      7.654190000000000E-02      8.712891000000000E+01      4.542847000000000E-01      2.541797000000000E+01
3020000000.000000      9.252548000000000E-02      7.285156000000000E+01      4.553833000000000E-01     -3.458008000000000E+00
3040000000.000000      9.552765000000000E-02      5.658203000000000E+01      4.554138000000000E-01     -3.222461000000000E+01
3060000000.000000      8.361053000000000E-02      4.128711000000000E+01      4.520264000000000E-01     -6.079296000000000E+01
3080000000.000000      6.414413000000000E-02      3.000977000000000E+01      4.542999000000000E-01     -8.921484000000000E+01
3100000000.000000      4.588890000000000E-02      3.033008000000000E+01      4.518738000000000E-01     -1.176875000000000E+02
3120000000.000000      3.811836000000000E-02      4.274804000000000E+01      4.500427000000000E-01     -1.462812000000000E+02
3140000000.000000      3.773117000000000E-02      4.885156000000000E+01      4.450226000000000E-01     -1.750234000000000E+02
3160000000.000000      2.974796000000000E-02      4.898242000000000E+01      4.425201000000000E-01      1.567578000000000E+02
3180000000.000000      1.667595000000000E-02      9.580078000000000E+01      4.413757000000000E-01      1.280625000000000E+02
3200000000.000000      4.611206000000000E-02      1.441719000000000E+02      4.355774000000000E-01      9.840233000000000E+01
3220000000.000000      9.690475000000000E-02      1.372344000000000E+02      4.228516000000000E-01      6.935547000000000E+01
3240000000.000000      1.480484000000000E-01      1.218164000000000E+02      4.115143000000000E-01      4.182617000000000E+01
3260000000.000000      1.906509000000000E-01      1.048008000000000E+02      4.151459000000000E-01      1.460742000000000E+01
3280000000.000000      2.175598000000000E-01      8.748047000000000E+01      4.199524000000000E-01     -1.449268000000000E+01
3300000000.000000      2.288818000000000E-01      7.062500000000000E+01      4.146881000000000E-01     -4.339648000000000E+01
3320000000.000000      2.245102000000000E-01      5.534765000000000E+01      4.164886000000000E-01     -7.103906000000000E+01
3340000000.000000      2.082062000000000E-01      4.245117000000000E+01      4.224854000000000E-01     -9.962500000000000E+01
3360000000.000000      1.848755000000000E-01      3.316797000000000E+01      4.235840000000000E-01     -1.280625000000000E+02
3380000000.000000      1.613083000000000E-01      2.820019000000000E+01      4.287872000000000E-01     -1.563906000000000E+02
3400000000.000000      1.422272000000000E-01      2.624707000000000E+01      4.305420000000000E-01      1.750625000000000E+02
3420000000.000000      1.288834000000000E-01      2.586816000000000E+01      4.327087000000000E-01      1.462578000000000E+02
3440000000.000000      1.162643000000000E-01      2.552051000000000E+01      4.306793000000000E-01      1.174805000000000E+02
3460000000.000000      1.042099000000000E-01      2.646289000000000E+01      4.277039000000000E-01      8.915234000000000E+01
3480000000.000000      9.659195000000000E-02      2.904980000000000E+01      4.282379000000000E-01      6.033984000000000E+01
3500000000.000000      9.238815000000000E-02      3.309765000000000E+01      4.245453000000000E-01      3.126269000000000E+01
3520000000.000000      9.127426000000000E-02      3.629492000000000E+01      4.218445000000000E-01      3.084351000000000E+00
3540000000.000000      9.182358000000000E-02      3.995898000000000E+01      4.235535000000000E-01     -2.527050000000000E+01
3560000000.000000      9.399414000000000E-02      4.535156000000000E+01      4.258270000000000E-01     -5.451172000000000E+01
3580000000.000000      1.017723000000000E-01      5.027734000000000E+01      4.250031000000000E-01     -8.320313000000000E+01
3600000000.000000      1.146965000000000E-01      5.169335000000000E+01      4.257660000000000E-01     -1.114258000000000E+02
3620000000.000000      1.283493000000000E-01      4.860352000000000E+01      4.250031000000000E-01     -1.396797000000000E+02
3640000000.000000      1.338425000000000E-01      4.250586000000000E+01      4.246216000000000E-01     -1.678203000000000E+02
3660000000.000000      1.287537000000000E-01      3.580273000000000E+01      4.234772000000000E-01      1.642187000000000E+02
3680000000.000000      1.163216000000000E-01      3.227930000000000E+01      4.290466000000000E-01      1.364375000000000E+02
3700000000.000000      1.036949000000000E-01      3.587305000000000E+01      4.293518000000000E-01      1.078828000000000E+02
3720000000.000000      1.045341000000000E-01      4.478125000000000E+01      4.282684000000000E-01      7.921875000000000E+01
3740000000.000000      1.216621000000000E-01      4.878515000000000E+01      4.216461000000000E-01      5.083008000000000E+01
3760000000.000000      1.404114000000000E-01      4.537305000000000E+01      4.163513000000000E-01      2.303613000000000E+01
3780000000.000000      1.478653000000000E-01      3.800781000000000E+01      4.144592000000000E-01     -4.613037000000000E+00
3800000000.000000      1.410675000000000E-01      3.048340000000000E+01      4.164124000000000E-01     -3.312109000000000E+01
3820000000.000000      1.225014000000000E-01      2.727734000000000E+01      4.170685000000000E-01     -6.219531000000000E+01
3840000000.000000      1.085854000000000E-01      3.217382000000000E+01      4.154205000000000E-01     -9.110155000000000E+01
3860000000.000000      1.122360000000000E-01      4.074414000000000E+01      4.152832000000000E-01     -1.198320000000000E+02
3880000000.000000      1.306458000000000E-01      4.231641000000000E+01      4.127197000000000E-01     -1.489297000000000E+02
3900000000.000000      1.452713000000000E-01      3.669140000000000E+01      4.052582000000000E-01     -1.772266000000000E+02
3920000000.000000      1.430588000000000E-01      2.907910000000000E+01      4.057465000000000E-01      1.556797000000000E+02
3940000000.000000      1.256790000000000E-01      2.503027000000000E+01      4.142303000000000E-01      1.270781000000000E+02
3960000000.000000      1.082726000000000E-01      3.140429000000000E+01      4.128571000000000E-01      9.789063000000000E+01
3980000000.000000      1.139717000000000E-01      4.505664000000000E+01      4.055176000000000E-01      6.913671000000000E+01
4000000000.000000      1.456528000000000E-01      4.854297000000000E+01      3.989716000000000E-01      4.208008000000000E+01
4020000000.000000      1.788635000000000E-01      4.128711000000000E+01      4.043274000000000E-01      1.429297000000000E+01
4040000000.000000      1.975555000000000E-01      2.847363000000000E+01      4.048462000000000E-01     -1.580127000000000E+01
4060000000.000000      1.923218000000000E-01      1.447852000000000E+01      3.895416000000000E-01     -4.420117000000000E+01
4080000000.000000      1.638107000000000E-01      9.819031000000000E-01      3.897705000000000E-01     -7.113671000000000E+01
4100000000.000000      1.178703000000000E-01     -6.738770000000000E+00      4.009094000000000E-01     -9.996874000000000E+01
4120000000.000000      7.559204000000000E-02      3.192871000000000E+00      3.990784000000000E-01     -1.299453000000000E+02
4140000000.000000      7.279205000000000E-02      3.319336000000000E+01      3.938599000000000E-01     -1.587812000000000E+02
4160000000.000000      9.761047000000000E-02      4.294531000000000E+01      3.946838000000000E-01      1.733984000000000E+02
4180000000.000000      1.152496000000000E-01      3.960938000000000E+01      4.034882000000000E-01      1.447422000000000E+02
4200000000.000000      1.173134000000000E-01      3.605664000000000E+01      4.033051000000000E-01      1.147031000000000E+02
4220000000.000000      1.146355000000000E-01      3.812109000000000E+01      3.968353000000000E-01      8.554688000000000E+01
4240000000.000000      1.229477000000000E-01      4.483203000000000E+01      3.913116000000000E-01      5.711523000000000E+01
4260000000.000000      1.482544000000000E-01      4.695508000000000E+01      3.863068000000000E-01      2.901464000000000E+01
4280000000.000000      1.747894000000000E-01      4.225195000000000E+01      3.857269000000000E-01      6.825256000000000E-01
4300000000.000000      1.907425000000000E-01      3.384766000000000E+01      3.830872000000000E-01     -2.817773000000000E+01
4320000000.000000      1.908035000000000E-01      2.543945000000000E+01      3.794556000000000E-01     -5.690430000000000E+01
4340000000.000000      1.774826000000000E-01      1.958301000000000E+01      3.788757000000000E-01     -8.591797000000000E+01
4360000000.000000      1.636658000000000E-01      1.858887000000000E+01      3.760376000000000E-01     -1.151133000000000E+02
4380000000.000000      1.614685000000000E-01      2.118262000000000E+01      3.756714000000000E-01     -1.445000000000000E+02
4400000000.000000      1.725311000000000E-01      2.127734000000000E+01      3.709412000000000E-01     -1.734453000000000E+02
4420000000.000000      1.827393000000000E-01      1.727930000000000E+01      3.736725000000000E-01      1.577266000000000E+02
4440000000.000000      1.801529000000000E-01      1.124854000000000E+01      3.762207000000000E-01      1.278086000000000E+02
4460000000.000000      1.638260000000000E-01      8.191406000000000E+00      3.695831000000000E-01      9.833593000000000E+01
4480000000.000000      1.449661000000000E-01      1.141846000000000E+01      3.667297000000000E-01      7.024609000000000E+01
4500000000.000000      1.465683000000000E-01      2.060742000000000E+01      3.656158000000000E-01      4.140429000000000E+01
4520000000.000000      1.722717000000000E-01      2.512012000000000E+01      3.615265000000000E-01      1.192285000000000E+01
4540000000.000000      2.034912000000000E-01      2.084570000000000E+01      3.524017000000000E-01     -1.749512000000000E+01
4560000000.000000      2.241821000000000E-01      1.275488000000000E+01      3.459473000000000E-01     -4.610742000000000E+01
4580000000.000000      2.295532000000000E-01      3.707886000000000E+00      3.476105000000000E-01     -7.510547000000000E+01
4600000000.000000      2.212830000000000E-01     -3.499146000000000E+00      3.433533000000000E-01     -1.053125000000000E+02
4620000000.000000      2.085648000000000E-01     -7.922607000000000E+00      3.383789000000000E-01     -1.351563000000000E+02
4640000000.000000      2.026596000000000E-01     -1.010889000000000E+01      3.375854000000000E-01     -1.646563000000000E+02
4660000000.000000      2.026672000000000E-01     -1.291602000000000E+01      3.371582000000000E-01      1.665000000000000E+02
4680000000.000000      2.032166000000000E-01     -1.811133000000000E+01      3.421783000000000E-01      1.373125000000000E+02
4700000000.000000      1.974030000000000E-01     -2.510058000000000E+01      3.428497000000000E-01      1.074258000000000E+02
4720000000.000000      1.815567000000000E-01     -3.242969000000000E+01      3.398438000000000E-01      7.973046000000000E+01
4740000000.000000      1.614685000000000E-01     -3.882813000000000E+01      3.459320000000000E-01      5.208984000000000E+01
4760000000.000000      1.370773000000000E-01     -4.415429000000000E+01      3.471680000000000E-01      2.338965000000000E+01
4780000000.000000      1.116409000000000E-01     -4.906836000000000E+01      3.432770000000000E-01     -4.931641000000000E+00
4800000000.000000      8.001709000000000E-02     -5.367578000000000E+01      3.389893000000000E-01     -3.335742000000000E+01
4820000000.000000      3.775978000000000E-02     -5.054882000000000E+01      3.305969000000000E-01     -6.243750000000000E+01
4840000000.000000      3.188705000000000E-02      5.545116000000000E+01      3.234863000000000E-01     -9.149218000000000E+01
4860000000.000000      9.777451000000000E-02      6.198632000000000E+01      3.164368000000000E-01     -1.221172000000000E+02
4880000000.000000      1.667404000000000E-01      4.916601000000000E+01      2.974243000000000E-01     -1.534609000000000E+02
4900000000.000000      2.265778000000000E-01      3.340625000000000E+01      2.743378000000000E-01      1.789219000000000E+02
4920000000.000000      2.687836000000000E-01      1.680762000000000E+01      2.740326000000000E-01      1.533906000000000E+02
4940000000.000000      2.894745000000000E-01      9.008789000000000E-01      2.877960000000000E-01      1.248750000000000E+02
4960000000.000000      2.875977000000000E-01     -1.439502000000000E+01      2.920227000000000E-01      9.486328000000000E+01
4980000000.000000      2.626038000000000E-01     -2.804590000000000E+01      2.981873000000000E-01      6.775391000000000E+01
5000000000.000000      2.200012000000000E-01     -3.811523000000000E+01      3.124695000000000E-01      4.029492000000000E+01
5020000000.000000      1.731949000000000E-01     -4.114453000000000E+01      3.232422000000000E-01      1.239941000000000E+01
5040000000.000000      1.434784000000000E-01     -3.401953000000000E+01      3.311005000000000E-01     -1.474658000000000E+01
5060000000.000000      1.447830000000000E-01     -2.401953000000000E+01      3.389435000000000E-01     -4.191796000000000E+01
5080000000.000000      1.604691000000000E-01     -2.077441000000000E+01      3.447113000000000E-01     -7.018359000000000E+01
5100000000.000000      1.738586000000000E-01     -2.292578000000000E+01      3.394012000000000E-01     -9.852734000000000E+01
5120000000.000000      1.795425000000000E-01     -2.655176000000000E+01      3.327637000000000E-01     -1.259570000000000E+02
5140000000.000000      1.817093000000000E-01     -2.953613000000000E+01      3.303375000000000E-01     -1.541328000000000E+02
5160000000.000000      1.847763000000000E-01     -3.221680000000000E+01      3.276215000000000E-01      1.763203000000000E+02
5180000000.000000      1.885834000000000E-01     -3.553125000000000E+01      3.232880000000000E-01      1.466250000000000E+02
5200000000.000000      1.914215000000000E-01     -4.029687000000000E+01      3.218536000000000E-01      1.165625000000000E+02
5220000000.000000      1.864548000000000E-01     -4.492969000000000E+01      3.215485000000000E-01      8.678514000000000E+01
5240000000.000000      1.766968000000000E-01     -4.786718000000000E+01      3.266602000000000E-01      5.696094000000000E+01
5260000000.000000      1.677856000000000E-01     -4.800976000000000E+01      3.317108000000000E-01      2.742676000000000E+01
5280000000.000000      1.648865000000000E-01     -4.670312000000000E+01      3.375397000000000E-01     -1.781189000000000E+00
5300000000.000000      1.688309000000000E-01     -4.690234000000000E+01      3.401642000000000E-01     -2.986816000000000E+01
5320000000.000000      1.729431000000000E-01     -4.945117000000000E+01      3.454742000000000E-01     -5.682812000000000E+01
5340000000.000000      1.719437000000000E-01     -5.320703000000000E+01      3.500977000000000E-01     -8.468750000000000E+01
5360000000.000000      1.650085000000000E-01     -5.638085000000000E+01      3.452606000000000E-01     -1.119180000000000E+02
5380000000.000000      1.585617000000000E-01     -5.728516000000000E+01      3.396301000000000E-01     -1.382266000000000E+02
5400000000.000000      1.588211000000000E-01     -5.646289000000000E+01      3.379822000000000E-01     -1.656797000000000E+02
5420000000.000000      1.679306000000000E-01     -5.619922000000000E+01      3.317871000000000E-01      1.658516000000000E+02
5440000000.000000      1.797943000000000E-01     -5.940039000000000E+01      3.252716000000000E-01      1.368984000000000E+02
5460000000.000000      1.861343000000000E-01     -6.553905000000000E+01      3.147736000000000E-01      1.070742000000000E+02
5480000000.000000      1.812515000000000E-01     -7.267968000000000E+01      3.086090000000000E-01      7.754296000000000E+01
5500000000.000000      1.638184000000000E-01     -7.907421000000000E+01      3.110046000000000E-01      4.770703000000000E+01
5520000000.000000      1.410065000000000E-01     -8.310938000000000E+01      3.128815000000000E-01      1.730273000000000E+01
5540000000.000000      1.210403000000000E-01     -8.225780000000000E+01      3.176117000000000E-01     -1.233398000000000E+01
5560000000.000000      1.086884000000000E-01     -7.815624000000000E+01      3.242950000000000E-01     -4.126758000000000E+01
5580000000.000000      1.029625000000000E-01     -7.292969000000000E+01      3.316193000000000E-01     -6.971093000000000E+01
5600000000.000000      1.005707000000000E-01     -6.720312000000000E+01      3.373566000000000E-01     -9.753124000000000E+01
5620000000.000000      1.037636000000000E-01     -5.958789000000000E+01      3.388977000000000E-01     -1.252070000000000E+02
5640000000.000000      1.183662000000000E-01     -5.272851000000000E+01      3.372192000000000E-01     -1.527344000000000E+02
5660000000.000000      1.429596000000000E-01     -5.197656000000000E+01      3.309326000000000E-01     -1.798906000000000E+02
5680000000.000000      1.700516000000000E-01     -5.761132000000000E+01      3.222046000000000E-01      1.523047000000000E+02
5700000000.000000      1.893311000000000E-01     -6.780078000000000E+01      3.092957000000000E-01      1.241562000000000E+02
5720000000.000000      1.929779000000000E-01     -8.017969000000000E+01      2.952423000000000E-01      9.643358000000000E+01
5740000000.000000      1.793137000000000E-01     -9.266016000000000E+01      2.891846000000000E-01      6.759375000000000E+01
5760000000.000000      1.513443000000000E-01     -1.026055000000000E+02      2.853241000000000E-01      3.662500000000000E+01
5780000000.000000      1.184464000000000E-01     -1.050625000000000E+02      2.808228000000000E-01      5.889893000000000E+00
5800000000.000000      9.869766000000000E-02     -9.666405000000000E+01      2.829437000000000E-01     -2.437109000000000E+01
5820000000.000000      1.017761000000000E-01     -8.810938000000000E+01      2.894287000000000E-01     -5.458789000000000E+01
5840000000.000000      1.129913000000000E-01     -8.916407000000000E+01      2.993774000000000E-01     -8.515234000000000E+01
5860000000.000000      1.171074000000000E-01     -9.739843000000000E+01      3.014526000000000E-01     -1.141484000000000E+02
5880000000.000000      1.084518000000000E-01     -1.078633000000000E+02      3.031311000000000E-01     -1.411797000000000E+02
5900000000.000000      9.080505000000000E-02     -1.152851000000000E+02      3.132935000000000E-01     -1.677578000000000E+02
5920000000.000000      7.201385000000000E-02     -1.142070000000000E+02      3.184967000000000E-01      1.643594000000000E+02
5940000000.000000      6.351471000000000E-02     -1.050391000000000E+02      3.129730000000000E-01      1.360156000000000E+02
5960000000.000000      6.171608000000000E-02     -9.979296000000000E+01      2.978668000000000E-01      1.084727000000000E+02
5980000000.000000      5.266190000000000E-02     -9.970312000000000E+01      2.870941000000000E-01      8.176561000000000E+01
6000000000.000000      3.237152000000000E-02     -8.783594000000000E+01      2.807922000000000E-01      5.244531000000000E+01
6020000000.000000      3.169632000000000E-02     -2.808105000000000E+01      2.682648000000000E-01      2.149707000000000E+01
6040000000.000000      6.609726000000000E-02     -1.239258000000000E+01      2.536469000000000E-01     -8.838867000000000E+00
6060000000.000000      1.019974000000000E-01     -2.107520000000000E+01      2.491837000000000E-01     -3.928711000000000E+01
6080000000.000000      1.297379000000000E-01     -3.569921000000000E+01      2.550659000000000E-01     -7.017968000000000E+01
