! Network Analyzer HP8722D
! Hewlett-Packard
! Data name: Linha & Wilkinson
! Saver's name: Rodrigo Anjos
! Comments: Teste da utilização de aquisição
continua pelo VNA HP8722D
! Time and date: 3/9/2025 18:15
!              Frequency                     S11                                                   S21                                                   S12                                                   S22
# HZ  S  MA R 50
3000000000.000000      7.690811000000000E-02      8.722265000000000E+01      4.565887000000000E-01      2.510449000000000E+01
3020000000.000000      9.315872000000000E-02      7.266796000000000E+01      4.565277000000000E-01     -3.736816000000000E+00
3040000000.000000      9.513092000000000E-02      5.639257000000000E+01      4.565277000000000E-01     -3.274023000000000E+01
3060000000.000000      8.364487000000000E-02      4.134375000000000E+01      4.547119000000000E-01     -6.106835000000000E+01
3080000000.000000      6.385422000000000E-02      3.034277000000000E+01      4.548645000000000E-01     -8.975389000000000E+01
3100000000.000000      4.530716000000000E-02      3.037793000000000E+01      4.530640000000000E-01     -1.181641000000000E+02
3120000000.000000      3.808594000000000E-02      4.349023000000000E+01      4.507599000000000E-01     -1.466328000000000E+02
3140000000.000000      3.772545000000000E-02      4.887109000000000E+01      4.462433000000000E-01     -1.751641000000000E+02
3160000000.000000      2.997398000000000E-02      4.897461000000000E+01      4.427490000000000E-01      1.563516000000000E+02
3180000000.000000      1.642418000000000E-02      9.666405000000000E+01      4.414063000000000E-01      1.274609000000000E+02
3200000000.000000      4.651833000000000E-02      1.448359000000000E+02      4.358673000000000E-01      9.814453000000000E+01
3220000000.000000      9.822083000000000E-02      1.372578000000000E+02      4.230499000000000E-01      6.882421000000000E+01
3240000000.000000      1.489105000000000E-01      1.217422000000000E+02      4.114685000000000E-01      4.156446000000000E+01
3260000000.000000      1.910553000000000E-01      1.048086000000000E+02      4.158478000000000E-01      1.425293000000000E+01
3280000000.000000      2.187958000000000E-01      8.728125000000000E+01      4.194183000000000E-01     -1.505713000000000E+01
3300000000.000000      2.292099000000000E-01      7.052734000000000E+01      4.156494000000000E-01     -4.382617000000000E+01
3320000000.000000      2.244263000000000E-01      5.523046000000000E+01      4.176178000000000E-01     -7.144531000000000E+01
3340000000.000000      2.083817000000000E-01      4.242773000000000E+01      4.238586000000000E-01     -1.002148000000000E+02
3360000000.000000      1.850128000000000E-01      3.314648000000000E+01      4.246674000000000E-01     -1.285391000000000E+02
3380000000.000000      1.610794000000000E-01      2.814258000000000E+01      4.301910000000000E-01     -1.568594000000000E+02
3400000000.000000      1.426544000000000E-01      2.636914000000000E+01      4.325256000000000E-01      1.744609000000000E+02
3420000000.000000      1.285934000000000E-01      2.604394000000000E+01      4.333496000000000E-01      1.457969000000000E+02
3440000000.000000      1.162033000000000E-01      2.590820000000000E+01      4.306946000000000E-01      1.169336000000000E+02
3460000000.000000      1.045876000000000E-01      2.693945000000000E+01      4.278107000000000E-01      8.865234000000000E+01
3480000000.000000      9.683228000000000E-02      2.950879000000000E+01      4.292603000000000E-01      5.993750000000000E+01
3500000000.000000      9.299850000000000E-02      3.316211000000000E+01      4.246063000000000E-01      3.089160000000000E+01
3520000000.000000      9.181213000000000E-02      3.661523000000000E+01      4.233398000000000E-01      2.595459000000000E+00
3540000000.000000      9.217834000000000E-02      3.996679000000000E+01      4.256592000000000E-01     -2.596484000000000E+01
3560000000.000000      9.427261000000000E-02      4.521289000000000E+01      4.259949000000000E-01     -5.513281000000000E+01
3580000000.000000      1.018524000000000E-01      5.056445000000000E+01      4.262848000000000E-01     -8.374609000000000E+01
3600000000.000000      1.152687000000000E-01      5.181641000000000E+01      4.251404000000000E-01     -1.119805000000000E+02
3620000000.000000      1.286163000000000E-01      4.863086000000000E+01      4.267273000000000E-01     -1.402344000000000E+02
3640000000.000000      1.341171000000000E-01      4.245117000000000E+01      4.272308000000000E-01     -1.685313000000000E+02
3660000000.000000      1.289978000000000E-01      3.573437000000000E+01      4.243011000000000E-01      1.637812000000000E+02
3680000000.000000      1.160583000000000E-01      3.240625000000000E+01      4.280548000000000E-01      1.361406000000000E+02
3700000000.000000      1.033936000000000E-01      3.583984000000000E+01      4.304199000000000E-01      1.074375000000000E+02
3720000000.000000      1.047668000000000E-01      4.475586000000000E+01      4.289398000000000E-01      7.888672000000000E+01
3740000000.000000      1.225090000000000E-01      4.875000000000000E+01      4.222717000000000E-01      5.040625000000000E+01
3760000000.000000      1.407471000000000E-01      4.542578000000000E+01      4.167633000000000E-01      2.259863000000000E+01
3780000000.000000      1.484299000000000E-01      3.800000000000000E+01      4.173279000000000E-01     -5.394287000000000E+00
3800000000.000000      1.411819000000000E-01      3.064550000000000E+01      4.168854000000000E-01     -3.380078000000000E+01
3820000000.000000      1.225510000000000E-01      2.750683000000000E+01      4.174500000000000E-01     -6.259960000000000E+01
3840000000.000000      1.084175000000000E-01      3.267969000000000E+01      4.164429000000000E-01     -9.162500000000000E+01
3860000000.000000      1.127129000000000E-01      4.091406000000000E+01      4.163971000000000E-01     -1.202187000000000E+02
3880000000.000000      1.313171000000000E-01      4.241406000000000E+01      4.125519000000000E-01     -1.496484000000000E+02
3900000000.000000      1.457138000000000E-01      3.661133000000000E+01      4.048157000000000E-01     -1.777734000000000E+02
3920000000.000000      1.434860000000000E-01      2.882519000000000E+01      4.066620000000000E-01      1.551719000000000E+02
3940000000.000000      1.255493000000000E-01      2.509668000000000E+01      4.163818000000000E-01      1.263750000000000E+02
3960000000.000000      1.076851000000000E-01      3.179101000000000E+01      4.152374000000000E-01      9.726563000000000E+01
3980000000.000000      1.146660000000000E-01      4.544531000000000E+01      4.063568000000000E-01      6.858984000000000E+01
4000000000.000000      1.468048000000000E-01      4.881640000000000E+01      3.996735000000000E-01      4.149804000000000E+01
4020000000.000000      1.792145000000000E-01      4.131836000000000E+01      4.038544000000000E-01      1.391553000000000E+01
4040000000.000000      1.978531000000000E-01      2.836621000000000E+01      4.038696000000000E-01     -1.619531000000000E+01
4060000000.000000      1.920624000000000E-01      1.436035000000000E+01      3.910370000000000E-01     -4.492188000000000E+01
4080000000.000000      1.636429000000000E-01      8.473206000000000E-01      3.902740000000000E-01     -7.166406000000000E+01
4100000000.000000      1.176453000000000E-01     -6.792480000000000E+00      4.011230000000000E-01     -1.005078000000000E+02
4120000000.000000      7.514191000000000E-02      4.097900000000000E+00      4.002228000000000E-01     -1.305078000000000E+02
4140000000.000000      7.325363000000000E-02      3.370703000000000E+01      3.956299000000000E-01     -1.592500000000000E+02
4160000000.000000      9.826660000000000E-02      4.295898000000000E+01      3.955994000000000E-01      1.728828000000000E+02
4180000000.000000      1.156654000000000E-01      3.976758000000000E+01      4.035034000000000E-01      1.441015000000000E+02
4200000000.000000      1.172943000000000E-01      3.591015000000000E+01      4.059296000000000E-01      1.141250000000000E+02
4220000000.000000      1.146812000000000E-01      3.825390000000000E+01      3.974152000000000E-01      8.484375000000000E+01
4240000000.000000      1.239014000000000E-01      4.505273000000000E+01      3.905182000000000E-01      5.655859000000000E+01
4260000000.000000      1.489716000000000E-01      4.696289000000000E+01      3.867950000000000E-01      2.833496000000000E+01
4280000000.000000      1.762695000000000E-01      4.212304000000000E+01      3.874664000000000E-01     -1.098633000000000E-02
4300000000.000000      1.917648000000000E-01      3.399219000000000E+01      3.828125000000000E-01     -2.891797000000000E+01
4320000000.000000      1.910400000000000E-01      2.558984000000000E+01      3.801270000000000E-01     -5.757813000000000E+01
4340000000.000000      1.769485000000000E-01      1.970312000000000E+01      3.794708000000000E-01     -8.630468000000000E+01
4360000000.000000      1.632767000000000E-01      1.896777000000000E+01      3.773804000000000E-01     -1.156641000000000E+02
4380000000.000000      1.622925000000000E-01      2.163867000000000E+01      3.763885000000000E-01     -1.450938000000000E+02
4400000000.000000      1.734238000000000E-01      2.149024000000000E+01      3.720551000000000E-01     -1.742188000000000E+02
4420000000.000000      1.833191000000000E-01      1.721777000000000E+01      3.746948000000000E-01      1.571016000000000E+02
4440000000.000000      1.801300000000000E-01      1.120850000000000E+01      3.767548000000000E-01      1.272890000000000E+02
4460000000.000000      1.638031000000000E-01      8.214844000000000E+00      3.692627000000000E-01      9.794531000000000E+01
4480000000.000000      1.451569000000000E-01      1.178418000000000E+01      3.663330000000000E-01      6.959765000000000E+01
4500000000.000000      1.474915000000000E-01      2.092187000000000E+01      3.660431000000000E-01      4.072461000000000E+01
4520000000.000000      1.731796000000000E-01      2.523828000000000E+01      3.614655000000000E-01      1.120605000000000E+01
4540000000.000000      2.042694000000000E-01      2.091797000000000E+01      3.524780000000000E-01     -1.814258000000000E+01
4560000000.000000      2.244949000000000E-01      1.262842000000000E+01      3.456116000000000E-01     -4.633594000000000E+01
4580000000.000000      2.294464000000000E-01      3.595215000000000E+00      3.467865000000000E-01     -7.580468000000000E+01
4600000000.000000      2.211533000000000E-01     -3.559570000000000E+00      3.439178000000000E-01     -1.063008000000000E+02
4620000000.000000      2.091675000000000E-01     -7.719482000000000E+00      3.393707000000000E-01     -1.357734000000000E+02
4640000000.000000      2.029190000000000E-01     -9.967773000000000E+00      3.388977000000000E-01     -1.652031000000000E+02
4660000000.000000      2.031097000000000E-01     -1.274561000000000E+01      3.381653000000000E-01      1.657500000000000E+02
4680000000.000000      2.036667000000000E-01     -1.794141000000000E+01      3.423004000000000E-01      1.367109000000000E+02
4700000000.000000      1.973495000000000E-01     -2.506543000000000E+01      3.431091000000000E-01      1.069922000000000E+02
4720000000.000000      1.815872000000000E-01     -3.232617000000000E+01      3.400879000000000E-01      7.917578000000000E+01
4740000000.000000      1.608734000000000E-01     -3.882421000000000E+01      3.467407000000000E-01      5.146289000000000E+01
4760000000.000000      1.364822000000000E-01     -4.417773000000000E+01      3.473358000000000E-01      2.277442000000000E+01
4780000000.000000      1.110764000000000E-01     -4.879492000000000E+01      3.435211000000000E-01     -5.544189000000000E+00
4800000000.000000      7.920456000000000E-02     -5.379687000000000E+01      3.398743000000000E-01     -3.411133000000000E+01
4820000000.000000      3.678894000000000E-02     -4.869922000000000E+01      3.314667000000000E-01     -6.312304000000000E+01
4840000000.000000      3.308296000000000E-02      5.619726000000000E+01      3.244019000000000E-01     -9.227343000000000E+01
4860000000.000000      9.996033000000000E-02      6.205078000000000E+01      3.165894000000000E-01     -1.230312000000000E+02
4880000000.000000      1.688843000000000E-01      4.880859000000000E+01      2.976074000000000E-01     -1.540313000000000E+02
4900000000.000000      2.283173000000000E-01      3.296289000000000E+01      2.744904000000000E-01      1.782891000000000E+02
4920000000.000000      2.710266000000000E-01      1.663672000000000E+01      2.748718000000000E-01      1.527266000000000E+02
4940000000.000000      2.905273000000000E-01      5.603027000000000E-01      2.885437000000000E-01      1.241680000000000E+02
4960000000.000000      2.877960000000000E-01     -1.457373000000000E+01      2.934265000000000E-01      9.433594000000000E+01
4980000000.000000      2.621613000000000E-01     -2.827246000000000E+01      2.989044000000000E-01      6.712500000000000E+01
5000000000.000000      2.192459000000000E-01     -3.836133000000000E+01      3.127899000000000E-01      3.979883000000000E+01
5020000000.000000      1.724014000000000E-01     -4.106835000000000E+01      3.247070000000000E-01      1.172363000000000E+01
5040000000.000000      1.432419000000000E-01     -3.367773000000000E+01      3.316956000000000E-01     -1.539209000000000E+01
5060000000.000000      1.445923000000000E-01     -2.360156000000000E+01      3.397827000000000E-01     -4.275781000000000E+01
5080000000.000000      1.606903000000000E-01     -2.076855000000000E+01      3.451843000000000E-01     -7.085155000000000E+01
5100000000.000000      1.739273000000000E-01     -2.288867000000000E+01      3.394623000000000E-01     -9.919140000000000E+01
5120000000.000000      1.798248000000000E-01     -2.653223000000000E+01      3.330994000000000E-01     -1.265586000000000E+02
5140000000.000000      1.822433000000000E-01     -2.933691000000000E+01      3.314209000000000E-01     -1.548906000000000E+02
5160000000.000000      1.850357000000000E-01     -3.209179000000000E+01      3.279419000000000E-01      1.757187000000000E+02
5180000000.000000      1.888962000000000E-01     -3.542969000000000E+01      3.236694000000000E-01      1.459375000000000E+02
5200000000.000000      1.909103000000000E-01     -4.026172000000000E+01      3.227081000000000E-01      1.157773000000000E+02
5220000000.000000      1.857758000000000E-01     -4.476563000000000E+01      3.222198000000000E-01      8.595312000000000E+01
5240000000.000000      1.763153000000000E-01     -4.766015000000000E+01      3.279724000000000E-01      5.630077000000000E+01
5260000000.000000      1.680374000000000E-01     -4.783008000000000E+01      3.336334000000000E-01      2.655762000000000E+01
5280000000.000000      1.648788000000000E-01     -4.662695000000000E+01      3.381958000000000E-01     -2.466431000000000E+00
5300000000.000000      1.697235000000000E-01     -4.661133000000000E+01      3.413849000000000E-01     -3.057910000000000E+01
5320000000.000000      1.738510000000000E-01     -4.936328000000000E+01      3.456268000000000E-01     -5.742969000000000E+01
5340000000.000000      1.719437000000000E-01     -5.309765000000000E+01      3.502655000000000E-01     -8.524218000000000E+01
5360000000.000000      1.653748000000000E-01     -5.623632000000000E+01      3.454590000000000E-01     -1.126836000000000E+02
5380000000.000000      1.589279000000000E-01     -5.715038000000000E+01      3.402405000000000E-01     -1.390156000000000E+02
5400000000.000000      1.595383000000000E-01     -5.629492000000000E+01      3.386078000000000E-01     -1.665313000000000E+02
5420000000.000000      1.687851000000000E-01     -5.633789000000000E+01      3.321228000000000E-01      1.652812000000000E+02
5440000000.000000      1.808167000000000E-01     -5.944726000000000E+01      3.265686000000000E-01      1.360859000000000E+02
5460000000.000000      1.868973000000000E-01     -6.563671000000000E+01      3.158112000000000E-01      1.062266000000000E+02
5480000000.000000      1.816711000000000E-01     -7.286718000000000E+01      3.091125000000000E-01      7.673046000000000E+01
5500000000.000000      1.640167000000000E-01     -7.927734000000000E+01      3.118591000000000E-01      4.687696000000000E+01
5520000000.000000      1.406555000000000E-01     -8.281641000000000E+01      3.141785000000000E-01      1.660937000000000E+01
5540000000.000000      1.207352000000000E-01     -8.194530000000000E+01      3.185272000000000E-01     -1.309326000000000E+01
5560000000.000000      1.086349000000000E-01     -7.788280000000000E+01      3.247070000000000E-01     -4.212304000000000E+01
5580000000.000000      1.029167000000000E-01     -7.276953000000000E+01      3.319092000000000E-01     -7.049609000000000E+01
5600000000.000000      1.003418000000000E-01     -6.712891000000000E+01      3.372040000000000E-01     -9.836327000000000E+01
5620000000.000000      1.040573000000000E-01     -5.976563000000000E+01      3.394623000000000E-01     -1.259336000000000E+02
5640000000.000000      1.193085000000000E-01     -5.259375000000000E+01      3.374023000000000E-01     -1.535781000000000E+02
5660000000.000000      1.439133000000000E-01     -5.195703000000000E+01      3.311310000000000E-01      1.794297000000000E+02
5680000000.000000      1.708069000000000E-01     -5.752930000000000E+01      3.223114000000000E-01      1.515234000000000E+02
5700000000.000000      1.899719000000000E-01     -6.799218000000000E+01      3.091888000000000E-01      1.233320000000000E+02
5720000000.000000      1.930695000000000E-01     -8.033594000000000E+01      2.952728000000000E-01      9.557032000000000E+01
5740000000.000000      1.788406000000000E-01     -9.269531000000000E+01      2.899170000000000E-01      6.682812000000000E+01
5760000000.000000      1.501312000000000E-01     -1.025000000000000E+02      2.855530000000000E-01      3.579297000000000E+01
5780000000.000000      1.176414000000000E-01     -1.045078000000000E+02      2.810059000000000E-01      4.946533000000000E+00
5800000000.000000      9.871674000000000E-02     -9.600780000000000E+01      2.835083000000000E-01     -2.522265000000000E+01
5820000000.000000      1.025391000000000E-01     -8.765625000000000E+01      2.902374000000000E-01     -5.561718000000000E+01
5840000000.000000      1.140518000000000E-01     -8.900391000000000E+01      3.002319000000000E-01     -8.582811000000000E+01
5860000000.000000      1.174278000000000E-01     -9.767187000000000E+01      3.019562000000000E-01     -1.148476000000000E+02
5880000000.000000      1.085625000000000E-01     -1.077187000000000E+02      3.046265000000000E-01     -1.418203000000000E+02
5900000000.000000      9.041977000000000E-02     -1.149844000000000E+02      3.136597000000000E-01     -1.684297000000000E+02
5920000000.000000      7.154083000000000E-02     -1.132500000000000E+02      3.184967000000000E-01      1.636172000000000E+02
5940000000.000000      6.377029000000000E-02     -1.046875000000000E+02      3.125000000000000E-01      1.352266000000000E+02
5960000000.000000      6.200790000000000E-02     -1.001250000000000E+02      2.977905000000000E-01      1.078242000000000E+02
5980000000.000000      5.292320000000000E-02     -9.974218000000000E+01      2.868347000000000E-01      8.093750000000000E+01
6000000000.000000      3.255272000000000E-02     -8.780077000000000E+01      2.802124000000000E-01      5.163086000000000E+01
6020000000.000000      3.219223000000000E-02     -2.749121000000000E+01      2.678223000000000E-01      2.053711000000000E+01
6040000000.000000      6.767273000000000E-02     -1.271826000000000E+01      2.540436000000000E-01     -9.865723000000000E+00
6060000000.000000      1.038475000000000E-01     -2.139941000000000E+01      2.496185000000000E-01     -4.027929000000000E+01
6080000000.000000      1.312943000000000E-01     -3.591992000000000E+01      2.555847000000000E-01     -7.117188000000000E+01
