! Network Analyzer HP8722D
! Hewlett-Packard
! Data name: Linha & Wilkinson
! Saver's name: Rodrigo Anjos
! Comments: Teste da utilização de aquisição
continua pelo VNA HP8722D
! Time and date: 3/9/2025 17:33
!              Frequency                     S11                                                   S21                                                   S12                                                   S22
# HZ  S  MA R 50
3000000000.000000      7.622528000000000E-02      8.702343000000000E+01      4.540405000000000E-01      2.564160000000000E+01
3020000000.000000      9.291077000000000E-02      7.256640000000000E+01      4.557648000000000E-01     -3.258911000000000E+00
3040000000.000000      9.510803000000000E-02      5.620507000000000E+01      4.550018000000000E-01     -3.232226000000000E+01
3060000000.000000      8.405685000000000E-02      4.114258000000000E+01      4.520416000000000E-01     -6.074413000000000E+01
3080000000.000000      6.442261000000000E-02      3.013476000000000E+01      4.517670000000000E-01     -8.922655000000000E+01
3100000000.000000      4.608917000000000E-02      2.975781000000000E+01      4.504547000000000E-01     -1.177187000000000E+02
3120000000.000000      3.864861000000000E-02      4.258985000000000E+01      4.486389000000000E-01     -1.463359000000000E+02
3140000000.000000      3.831291000000000E-02      4.857812000000000E+01      4.444885000000000E-01     -1.749297000000000E+02
3160000000.000000      3.030300000000000E-02      4.812304000000000E+01      4.407043000000000E-01      1.567578000000000E+02
3180000000.000000      1.643181000000000E-02      9.251171000000000E+01      4.399414000000000E-01      1.281172000000000E+02
3200000000.000000      4.532814000000000E-02      1.438906000000000E+02      4.351044000000000E-01      9.860937000000000E+01
3220000000.000000      9.597778000000000E-02      1.370781000000000E+02      4.203186000000000E-01      6.936718000000000E+01
3240000000.000000      1.472549000000000E-01      1.215937000000000E+02      4.089203000000000E-01      4.200391000000000E+01
3260000000.000000      1.893539000000000E-01      1.045937000000000E+02      4.125214000000000E-01      1.463623000000000E+01
3280000000.000000      2.170563000000000E-01      8.717188000000000E+01      4.173737000000000E-01     -1.464795000000000E+01
3300000000.000000      2.283173000000000E-01      7.049999000000000E+01      4.124756000000000E-01     -4.344727000000000E+01
3320000000.000000      2.244720000000000E-01      5.514257000000000E+01      4.152985000000000E-01     -7.089453000000000E+01
3340000000.000000      2.083130000000000E-01      4.236524000000000E+01      4.217682000000000E-01     -9.958984000000000E+01
3360000000.000000      1.854553000000000E-01      3.307812000000000E+01      4.215698000000000E-01     -1.278867000000000E+02
3380000000.000000      1.613388000000000E-01      2.801758000000000E+01      4.266205000000000E-01     -1.564844000000000E+02
3400000000.000000      1.427155000000000E-01      2.589160000000000E+01      4.296570000000000E-01      1.748828000000000E+02
3420000000.000000      1.287766000000000E-01      2.556641000000000E+01      4.312744000000000E-01      1.462578000000000E+02
3440000000.000000      1.166878000000000E-01      2.545898000000000E+01      4.297638000000000E-01      1.174101000000000E+02
3460000000.000000      1.049690000000000E-01      2.623730000000000E+01      4.261322000000000E-01      8.921093000000000E+01
3480000000.000000      9.687805000000000E-02      2.903906000000000E+01      4.275360000000000E-01      6.037109000000000E+01
3500000000.000000      9.260178000000000E-02      3.273633000000000E+01      4.230194000000000E-01      3.123926000000000E+01
3520000000.000000      9.133911000000000E-02      3.609961000000000E+01      4.203796000000000E-01      3.111816000000000E+00
3540000000.000000      9.160233000000000E-02      3.977148000000000E+01      4.234467000000000E-01     -2.522656000000000E+01
3560000000.000000      9.374237000000000E-02      4.480859000000000E+01      4.243927000000000E-01     -5.449023000000000E+01
3580000000.000000      1.009178000000000E-01      4.998047000000000E+01      4.232941000000000E-01     -8.326172000000000E+01
3600000000.000000      1.144867000000000E-01      5.118164000000000E+01      4.229431000000000E-01     -1.113515000000000E+02
3620000000.000000      1.278381000000000E-01      4.824804000000000E+01      4.248047000000000E-01     -1.396406000000000E+02
3640000000.000000      1.341248000000000E-01      4.232226000000000E+01      4.244995000000000E-01     -1.680547000000000E+02
3660000000.000000      1.290741000000000E-01      3.539063000000000E+01      4.223022000000000E-01      1.641250000000000E+02
3680000000.000000      1.167831000000000E-01      3.214062000000000E+01      4.259338000000000E-01      1.364219000000000E+02
3700000000.000000      1.039925000000000E-01      3.549219000000000E+01      4.276428000000000E-01      1.077851000000000E+02
3720000000.000000      1.040611000000000E-01      4.450195000000000E+01      4.279022000000000E-01      7.943749000000000E+01
3740000000.000000      1.214523000000000E-01      4.852734000000000E+01      4.207764000000000E-01      5.101171000000000E+01
3760000000.000000      1.402969000000000E-01      4.503711000000000E+01      4.157410000000000E-01      2.283984000000000E+01
3780000000.000000      1.477356000000000E-01      3.755078000000000E+01      4.143982000000000E-01     -4.644531000000000E+00
3800000000.000000      1.411972000000000E-01      3.005566000000000E+01      4.167175000000000E-01     -3.322266000000000E+01
3820000000.000000      1.229210000000000E-01      2.687597000000000E+01      4.148560000000000E-01     -6.209374000000000E+01
3840000000.000000      1.083794000000000E-01      3.192480000000000E+01      4.156494000000000E-01     -9.103516000000000E+01
3860000000.000000      1.128006000000000E-01      4.033008000000000E+01      4.132385000000000E-01     -1.199492000000000E+02
3880000000.000000      1.307449000000000E-01      4.200195000000000E+01      4.113007000000000E-01     -1.489297000000000E+02
3900000000.000000      1.450348000000000E-01      3.634375000000000E+01      4.033508000000000E-01     -1.772734000000000E+02
3920000000.000000      1.430817000000000E-01      2.879590000000000E+01      4.046936000000000E-01      1.556015000000000E+02
3940000000.000000      1.258240000000000E-01      2.477636000000000E+01      4.138641000000000E-01      1.271289000000000E+02
3960000000.000000      1.073647000000000E-01      3.105078000000000E+01      4.118652000000000E-01      9.789063000000000E+01
3980000000.000000      1.136894000000000E-01      4.437500000000000E+01      4.025726000000000E-01      6.922265000000000E+01
4000000000.000000      1.453323000000000E-01      4.832031000000000E+01      3.973541000000000E-01      4.207812000000000E+01
4020000000.000000      1.788940000000000E-01      4.092773000000000E+01      4.035034000000000E-01      1.430811000000000E+01
4040000000.000000      1.972275000000000E-01      2.828808000000000E+01      4.032288000000000E-01     -1.576563000000000E+01
4060000000.000000      1.920624000000000E-01      1.444971000000000E+01      3.896484000000000E-01     -4.432031000000000E+01
4080000000.000000      1.633835000000000E-01      9.736633000000000E-01      3.882294000000000E-01     -7.105469000000000E+01
4100000000.000000      1.179924000000000E-01     -7.075195000000000E+00      3.974152000000000E-01     -9.997656000000000E+01
4120000000.000000      7.553864000000000E-02      2.835815000000000E+00      3.981934000000000E-01     -1.300390000000000E+02
4140000000.000000      7.257462000000000E-02      3.240234000000000E+01      3.928986000000000E-01     -1.587656000000000E+02
4160000000.000000      9.709167000000000E-02      4.247656000000000E+01      3.939667000000000E-01      1.735000000000000E+02
4180000000.000000      1.148643000000000E-01      3.911133000000000E+01      4.010620000000000E-01      1.445547000000000E+02
4200000000.000000      1.171570000000000E-01      3.563867000000000E+01      4.030304000000000E-01      1.146601000000000E+02
4220000000.000000      1.148415000000000E-01      3.775000000000000E+01      3.950958000000000E-01      8.551172000000000E+01
4240000000.000000      1.228485000000000E-01      4.439258000000000E+01      3.902435000000000E-01      5.725976000000000E+01
4260000000.000000      1.476517000000000E-01      4.667773000000000E+01      3.854218000000000E-01      2.902246000000000E+01
4280000000.000000      1.743851000000000E-01      4.208593000000000E+01      3.843384000000000E-01      6.578064000000000E-01
4300000000.000000      1.896744000000000E-01      3.369726000000000E+01      3.816071000000000E-01     -2.837011000000000E+01
4320000000.000000      1.901169000000000E-01      2.516797000000000E+01      3.786774000000000E-01     -5.692577000000000E+01
4340000000.000000      1.766739000000000E-01      1.933301000000000E+01      3.780823000000000E-01     -8.590624000000000E+01
4360000000.000000      1.629486000000000E-01      1.825098000000000E+01      3.757782000000000E-01     -1.151445000000000E+02
4380000000.000000      1.613464000000000E-01      2.090234000000000E+01      3.734436000000000E-01     -1.443594000000000E+02
4400000000.000000      1.722260000000000E-01      2.105078000000000E+01      3.710175000000000E-01     -1.736484000000000E+02
4420000000.000000      1.824875000000000E-01      1.708984000000000E+01      3.727417000000000E-01      1.576406000000000E+02
4440000000.000000      1.803131000000000E-01      1.110840000000000E+01      3.747864000000000E-01      1.279570000000000E+02
4460000000.000000      1.633148000000000E-01      8.044434000000000E+00      3.687897000000000E-01      9.849609000000000E+01
4480000000.000000      1.442413000000000E-01      1.126074000000000E+01      3.653564000000000E-01      7.012500000000000E+01
4500000000.000000      1.460037000000000E-01      2.036231000000000E+01      3.655090000000000E-01      4.135547000000000E+01
4520000000.000000      1.711807000000000E-01      2.455566000000000E+01      3.603668000000000E-01      1.166309000000000E+01
4540000000.000000      2.022781000000000E-01      2.067578000000000E+01      3.508148000000000E-01     -1.765137000000000E+01
4560000000.000000      2.233429000000000E-01      1.250635000000000E+01      3.450623000000000E-01     -4.575000000000000E+01
4580000000.000000      2.288132000000000E-01      3.540283000000000E+00      3.459778000000000E-01     -7.516015000000000E+01
4600000000.000000      2.207565000000000E-01     -3.681885000000000E+00      3.428955000000000E-01     -1.054726000000000E+02
4620000000.000000      2.085800000000000E-01     -7.915771000000000E+00      3.364105000000000E-01     -1.350312000000000E+02
4640000000.000000      2.021484000000000E-01     -1.015967000000000E+01      3.368225000000000E-01     -1.645781000000000E+02
4660000000.000000      2.019577000000000E-01     -1.308203000000000E+01      3.354492000000000E-01      1.662344000000000E+02
4680000000.000000      2.029572000000000E-01     -1.825293000000000E+01      3.406372000000000E-01      1.373594000000000E+02
4700000000.000000      1.968155000000000E-01     -2.532129000000000E+01      3.417664000000000E-01      1.076601000000000E+02
4720000000.000000      1.823502000000000E-01     -3.244141000000000E+01      3.385010000000000E-01      7.979297000000000E+01
4740000000.000000      1.609726000000000E-01     -3.911133000000000E+01      3.450928000000000E-01      5.203125000000000E+01
4760000000.000000      1.372375000000000E-01     -4.431641000000000E+01      3.462067000000000E-01      2.346875000000000E+01
4780000000.000000      1.117134000000000E-01     -4.900976000000000E+01      3.419647000000000E-01     -4.989258000000000E+00
4800000000.000000      8.080292000000000E-02     -5.396289000000000E+01      3.380890000000000E-01     -3.339062000000000E+01
4820000000.000000      3.800774000000000E-02     -5.168945000000000E+01      3.295593000000000E-01     -6.235742000000000E+01
4840000000.000000      3.079987000000000E-02      5.464844000000000E+01      3.226471000000000E-01     -9.147655000000000E+01
4860000000.000000      9.617996000000000E-02      6.220898000000000E+01      3.148956000000000E-01     -1.222109000000000E+02
4880000000.000000      1.660767000000000E-01      4.905273000000000E+01      2.955017000000000E-01     -1.533516000000000E+02
4900000000.000000      2.251434000000000E-01      3.306055000000000E+01      2.729187000000000E-01      1.790469000000000E+02
4920000000.000000      2.669678000000000E-01      1.668457000000000E+01      2.735748000000000E-01      1.535547000000000E+02
4940000000.000000      2.890167000000000E-01      8.898926000000000E-01      2.867889000000000E-01      1.248516000000000E+02
4960000000.000000      2.866821000000000E-01     -1.438818000000000E+01      2.913055000000000E-01      9.489061000000000E+01
4980000000.000000      2.621918000000000E-01     -2.812500000000000E+01      2.966461000000000E-01      6.792187000000000E+01
5000000000.000000      2.198868000000000E-01     -3.837305000000000E+01      3.116608000000000E-01      4.041992000000000E+01
5020000000.000000      1.733932000000000E-01     -4.118360000000000E+01      3.223877000000000E-01      1.236914000000000E+01
5040000000.000000      1.431808000000000E-01     -3.425390000000000E+01      3.295898000000000E-01     -1.486328000000000E+01
5060000000.000000      1.442032000000000E-01     -2.416894000000000E+01      3.383484000000000E-01     -4.196094000000000E+01
5080000000.000000      1.598892000000000E-01     -2.104492000000000E+01      3.431854000000000E-01     -7.022265000000000E+01
5100000000.000000      1.737747000000000E-01     -2.321582000000000E+01      3.378448000000000E-01     -9.851952000000000E+01
5120000000.000000      1.788788000000000E-01     -2.672168000000000E+01      3.313904000000000E-01     -1.259531000000000E+02
5140000000.000000      1.815567000000000E-01     -2.974609000000000E+01      3.293304000000000E-01     -1.541719000000000E+02
5160000000.000000      1.848373000000000E-01     -3.246484000000000E+01      3.260803000000000E-01      1.764375000000000E+02
5180000000.000000      1.884384000000000E-01     -3.590429000000000E+01      3.220367000000000E-01      1.465781000000000E+02
5200000000.000000      1.911621000000000E-01     -4.054296000000000E+01      3.209076000000000E-01      1.165351000000000E+02
5220000000.000000      1.864624000000000E-01     -4.517187000000000E+01      3.206177000000000E-01      8.677734000000000E+01
5240000000.000000      1.767578000000000E-01     -4.803124000000000E+01      3.254700000000000E-01      5.705078000000000E+01
5260000000.000000      1.679077000000000E-01     -4.812890000000000E+01      3.314667000000000E-01      2.733105000000000E+01
5280000000.000000      1.645737000000000E-01     -4.690625000000000E+01      3.363495000000000E-01     -1.803162000000000E+00
5300000000.000000      1.687622000000000E-01     -4.699023000000000E+01      3.394165000000000E-01     -2.984668000000000E+01
5320000000.000000      1.731796000000000E-01     -4.967187000000000E+01      3.442078000000000E-01     -5.687890000000000E+01
5340000000.000000      1.715698000000000E-01     -5.350976000000000E+01      3.490295000000000E-01     -8.446875000000000E+01
5360000000.000000      1.656036000000000E-01     -5.680664000000000E+01      3.435516000000000E-01     -1.118516000000000E+02
5380000000.000000      1.587906000000000E-01     -5.765820000000000E+01      3.385925000000000E-01     -1.382578000000000E+02
5400000000.000000      1.588287000000000E-01     -5.691211000000000E+01      3.377228000000000E-01     -1.656797000000000E+02
5420000000.000000      1.681061000000000E-01     -5.646679000000000E+01      3.302307000000000E-01      1.660781000000000E+02
5440000000.000000      1.795578000000000E-01     -5.948047000000000E+01      3.250275000000000E-01      1.368359000000000E+02
5460000000.000000      1.859131000000000E-01     -6.572656000000000E+01      3.135529000000000E-01      1.070273000000000E+02
5480000000.000000      1.806564000000000E-01     -7.274609000000000E+01      3.072968000000000E-01      7.767968000000000E+01
5500000000.000000      1.637268000000000E-01     -7.936328000000000E+01      3.097229000000000E-01      4.771289000000000E+01
5520000000.000000      1.411362000000000E-01     -8.312500000000000E+01      3.121033000000000E-01      1.740918000000000E+01
5540000000.000000      1.213493000000000E-01     -8.242188000000000E+01      3.165131000000000E-01     -1.217578000000000E+01
5560000000.000000      1.087875000000000E-01     -7.841015000000000E+01      3.231506000000000E-01     -4.121289000000000E+01
5580000000.000000      1.032600000000000E-01     -7.306250000000000E+01      3.302307000000000E-01     -6.973437000000000E+01
5600000000.000000      1.008759000000000E-01     -6.732422000000000E+01      3.353271000000000E-01     -9.751171000000000E+01
5620000000.000000      1.038742000000000E-01     -5.984961000000000E+01      3.381195000000000E-01     -1.252773000000000E+02
5640000000.000000      1.181831000000000E-01     -5.292578000000000E+01      3.363037000000000E-01     -1.527500000000000E+02
5660000000.000000      1.425247000000000E-01     -5.212891000000000E+01      3.296814000000000E-01     -1.797656000000000E+02
5680000000.000000      1.694794000000000E-01     -5.776367000000000E+01      3.212128000000000E-01      1.524765000000000E+02
5700000000.000000      1.886292000000000E-01     -6.810937000000000E+01      3.075562000000000E-01      1.241875000000000E+02
5720000000.000000      1.925812000000000E-01     -8.049608000000000E+01      2.943573000000000E-01      9.646873000000000E+01
5740000000.000000      1.796112000000000E-01     -9.289843000000000E+01      2.885132000000000E-01      6.771484000000000E+01
5760000000.000000      1.515656000000000E-01     -1.025469000000000E+02      2.836761000000000E-01      3.656250000000000E+01
5780000000.000000      1.193962000000000E-01     -1.050391000000000E+02      2.801819000000000E-01      5.920166000000000E+00
5800000000.000000      9.881592000000000E-02     -9.653124000000000E+01      2.817230000000000E-01     -2.445313000000000E+01
5820000000.000000      1.020966000000000E-01     -8.796093000000000E+01      2.886200000000000E-01     -5.464062000000000E+01
5840000000.000000      1.131210000000000E-01     -8.955858000000000E+01      2.984314000000000E-01     -8.494921000000000E+01
5860000000.000000      1.169128000000000E-01     -9.735546000000000E+01      3.007050000000000E-01     -1.140820000000000E+02
5880000000.000000      1.085625000000000E-01     -1.082422000000000E+02      3.025360000000000E-01     -1.412266000000000E+02
5900000000.000000      9.077072000000000E-02     -1.159062000000000E+02      3.125153000000000E-01     -1.677891000000000E+02
5920000000.000000      7.240295000000000E-02     -1.149883000000000E+02      3.168945000000000E-01      1.643437000000000E+02
5940000000.000000      6.432724000000000E-02     -1.058047000000000E+02      3.114319000000000E-01      1.360156000000000E+02
5960000000.000000      6.258774000000000E-02     -1.005898000000000E+02      2.967682000000000E-01      1.086367000000000E+02
5980000000.000000      5.278587000000000E-02     -9.982031000000000E+01      2.858887000000000E-01      8.164843000000000E+01
6000000000.000000      3.293800000000000E-02     -8.740625000000000E+01      2.800140000000000E-01      5.255273000000000E+01
6020000000.000000      3.100681000000000E-02     -2.730566000000000E+01      2.668457000000000E-01      2.160937000000000E+01
6040000000.000000      6.568146000000000E-02     -1.210156000000000E+01      2.525177000000000E-01     -8.790527000000000E+00
6060000000.000000      1.015244000000000E-01     -2.111328000000000E+01      2.484589000000000E-01     -3.932812000000000E+01
6080000000.000000      1.284943000000000E-01     -3.586328000000000E+01      2.540894000000000E-01     -7.017968000000000E+01
