! Network Analyzer HP8722D
! Hewlett-Packard
! Data name: Linha & Wilkinson
! Saver's name: Rodrigo Anjos
! Comments: Teste da utilização de aquisição
continua pelo VNA HP8722D
! Time and date: 3/9/2025 18:55
!              Frequency                     S11                                                   S21                                                   S12                                                   S22
# HZ  S  MA R 50
3000000000.000000      7.706451000000000E-02      8.703905000000000E+01      4.563141000000000E-01      2.487793000000000E+01
3020000000.000000      9.338760000000000E-02      7.266015000000000E+01      4.576416000000000E-01     -3.967529000000000E+00
3040000000.000000      9.560394000000000E-02      5.617382000000000E+01      4.572296000000000E-01     -3.290430000000000E+01
3060000000.000000      8.378601000000000E-02      4.118360000000000E+01      4.542084000000000E-01     -6.139648000000000E+01
3080000000.000000      6.372070000000000E-02      3.020801000000000E+01      4.542999000000000E-01     -8.996485000000000E+01
3100000000.000000      4.514122000000000E-02      3.061816000000000E+01      4.541321000000000E-01     -1.184062000000000E+02
3120000000.000000      3.810501000000000E-02      4.334374000000000E+01      4.527588000000000E-01     -1.470156000000000E+02
3140000000.000000      3.773689000000000E-02      4.857422000000000E+01      4.474487000000000E-01     -1.757500000000000E+02
3160000000.000000      2.981281000000000E-02      4.805469000000000E+01      4.444122000000000E-01      1.559922000000000E+02
3180000000.000000      1.638508000000000E-02      9.668749000000000E+01      4.418640000000000E-01      1.272070000000000E+02
3200000000.000000      4.719353000000000E-02      1.450000000000000E+02      4.369812000000000E-01      9.785156000000000E+01
3220000000.000000      9.848785000000000E-02      1.371016000000000E+02      4.243927000000000E-01      6.871875000000000E+01
3240000000.000000      1.495590000000000E-01      1.216484000000000E+02      4.118347000000000E-01      4.118750000000000E+01
3260000000.000000      1.917877000000000E-01      1.046172000000000E+02      4.165192000000000E-01      1.376172000000000E+01
3280000000.000000      2.191086000000000E-01      8.721874000000000E+01      4.207001000000000E-01     -1.557471000000000E+01
3300000000.000000      2.298203000000000E-01      7.037109000000000E+01      4.149475000000000E-01     -4.407617000000000E+01
3320000000.000000      2.242126000000000E-01      5.511523000000000E+01      4.196472000000000E-01     -7.183594000000000E+01
3340000000.000000      2.079620000000000E-01      4.246484000000000E+01      4.257813000000000E-01     -1.004102000000000E+02
3360000000.000000      1.841125000000000E-01      3.325586000000000E+01      4.236145000000000E-01     -1.288516000000000E+02
3380000000.000000      1.610184000000000E-01      2.831250000000000E+01      4.300842000000000E-01     -1.570781000000000E+02
3400000000.000000      1.420975000000000E-01      2.654101000000000E+01      4.315643000000000E-01      1.741094000000000E+02
3420000000.000000      1.285477000000000E-01      2.632715000000000E+01      4.329529000000000E-01      1.455000000000000E+02
3440000000.000000      1.167030000000000E-01      2.611230000000000E+01      4.323730000000000E-01      1.167461000000000E+02
3460000000.000000      1.048126000000000E-01      2.713476000000000E+01      4.288483000000000E-01      8.864843000000000E+01
3480000000.000000      9.672165000000000E-02      2.957715000000000E+01      4.293976000000000E-01      5.942187000000000E+01
3500000000.000000      9.340286000000000E-02      3.317773000000000E+01      4.257050000000000E-01      3.050293000000000E+01
3520000000.000000      9.186172000000000E-02      3.645508000000000E+01      4.226379000000000E-01      2.286499000000000E+00
3540000000.000000      9.242630000000000E-02      4.021484000000000E+01      4.263306000000000E-01     -2.616601000000000E+01
3560000000.000000      9.461975000000000E-02      4.537499000000000E+01      4.278564000000000E-01     -5.538671000000000E+01
3580000000.000000      1.023712000000000E-01      5.049414000000000E+01      4.265594000000000E-01     -8.413671000000000E+01
3600000000.000000      1.152725000000000E-01      5.195117000000000E+01      4.261932000000000E-01     -1.121953000000000E+02
3620000000.000000      1.289825000000000E-01      4.888866000000000E+01      4.271851000000000E-01     -1.405703000000000E+02
3640000000.000000      1.342697000000000E-01      4.261719000000000E+01      4.266815000000000E-01     -1.689844000000000E+02
3660000000.000000      1.288757000000000E-01      3.560937000000000E+01      4.258575000000000E-01      1.633281000000000E+02
3680000000.000000      1.162033000000000E-01      3.267969000000000E+01      4.301453000000000E-01      1.356406000000000E+02
3700000000.000000      1.037140000000000E-01      3.612109000000000E+01      4.304657000000000E-01      1.070273000000000E+02
3720000000.000000      1.046104000000000E-01      4.518555000000000E+01      4.297028000000000E-01      7.844140000000000E+01
3740000000.000000      1.225090000000000E-01      4.897265000000000E+01      4.223785000000000E-01      5.001367000000000E+01
3760000000.000000      1.411743000000000E-01      4.555664000000000E+01      4.176025000000000E-01      2.202148000000000E+01
3780000000.000000      1.487350000000000E-01      3.789258000000000E+01      4.177246000000000E-01     -5.540039000000000E+00
3800000000.000000      1.410904000000000E-01      3.062695000000000E+01      4.181671000000000E-01     -3.414844000000000E+01
3820000000.000000      1.225090000000000E-01      2.765332000000000E+01      4.176331000000000E-01     -6.300195000000000E+01
3840000000.000000      1.084251000000000E-01      3.273828000000000E+01      4.175720000000000E-01     -9.181641000000000E+01
3860000000.000000      1.133308000000000E-01      4.105273000000000E+01      4.162445000000000E-01     -1.208398000000000E+02
3880000000.000000      1.316833000000000E-01      4.246289000000000E+01      4.147644000000000E-01     -1.497422000000000E+02
3900000000.000000      1.457748000000000E-01      3.653320000000000E+01      4.058533000000000E-01     -1.782187000000000E+02
3920000000.000000      1.434402000000000E-01      2.888672000000000E+01      4.078827000000000E-01      1.546484000000000E+02
3940000000.000000      1.252747000000000E-01      2.550000000000000E+01      4.151001000000000E-01      1.260703000000000E+02
3960000000.000000      1.067696000000000E-01      3.224609000000000E+01      4.131775000000000E-01      9.708593000000000E+01
3980000000.000000      1.148682000000000E-01      4.597852000000000E+01      4.057465000000000E-01      6.828125000000000E+01
4000000000.000000      1.472397000000000E-01      4.899023000000000E+01      3.986664000000000E-01      4.119336000000000E+01
4020000000.000000      1.804428000000000E-01      4.127930000000000E+01      4.048157000000000E-01      1.340430000000000E+01
4040000000.000000      1.982040000000000E-01      2.828125000000000E+01      4.055023000000000E-01     -1.669238000000000E+01
4060000000.000000      1.921997000000000E-01      1.423926000000000E+01      3.904114000000000E-01     -4.523633000000000E+01
4080000000.000000      1.633835000000000E-01      8.486938000000000E-01      3.906403000000000E-01     -7.217968000000000E+01
4100000000.000000      1.165619000000000E-01     -6.762207000000000E+00      4.012299000000000E-01     -1.008711000000000E+02
4120000000.000000      7.469559000000000E-02      4.674561000000000E+00      3.999786000000000E-01     -1.308828000000000E+02
4140000000.000000      7.424164000000000E-02      3.478125000000000E+01      3.956299000000000E-01     -1.598984000000000E+02
4160000000.000000      9.896088000000000E-02      4.337110000000000E+01      3.975983000000000E-01      1.722656000000000E+02
4180000000.000000      1.157875000000000E-01      3.978516000000000E+01      4.034729000000000E-01      1.436797000000000E+02
4200000000.000000      1.172218000000000E-01      3.616406000000000E+01      4.062195000000000E-01      1.136914000000000E+02
4220000000.000000      1.146889000000000E-01      3.854101000000000E+01      3.980255000000000E-01      8.455078000000000E+01
4240000000.000000      1.237373000000000E-01      4.535937000000000E+01      3.909607000000000E-01      5.606445000000000E+01
4260000000.000000      1.495514000000000E-01      4.718750000000000E+01      3.875580000000000E-01      2.791601000000000E+01
4280000000.000000      1.762772000000000E-01      4.224414000000000E+01      3.859253000000000E-01     -1.812744000000000E-01
4300000000.000000      1.928253000000000E-01      3.410937000000000E+01      3.837738000000000E-01     -2.925879000000000E+01
4320000000.000000      1.913071000000000E-01      2.560742000000000E+01      3.812103000000000E-01     -5.795116000000000E+01
4340000000.000000      1.772461000000000E-01      1.979101000000000E+01      3.798523000000000E-01     -8.685938000000000E+01
4360000000.000000      1.636581000000000E-01      1.917773000000000E+01      3.779449000000000E-01     -1.161172000000000E+02
4380000000.000000      1.629333000000000E-01      2.181543000000000E+01      3.757324000000000E-01     -1.457187000000000E+02
4400000000.000000      1.742249000000000E-01      2.167871000000000E+01      3.726501000000000E-01     -1.747422000000000E+02
4420000000.000000      1.838760000000000E-01      1.732226000000000E+01      3.739624000000000E-01      1.565469000000000E+02
4440000000.000000      1.806259000000000E-01      1.136084000000000E+01      3.777924000000000E-01      1.269922000000000E+02
4460000000.000000      1.640854000000000E-01      8.448242000000000E+00      3.700562000000000E-01      9.725780000000000E+01
4480000000.000000      1.449738000000000E-01      1.195996000000000E+01      3.668976000000000E-01      6.892968000000000E+01
4500000000.000000      1.479034000000000E-01      2.117188000000000E+01      3.665924000000000E-01      4.017774000000000E+01
4520000000.000000      1.740036000000000E-01      2.520898000000000E+01      3.615570000000000E-01      1.053711000000000E+01
4540000000.000000      2.048569000000000E-01      2.098731000000000E+01      3.531189000000000E-01     -1.879395000000000E+01
4560000000.000000      2.246399000000000E-01      1.263281000000000E+01      3.452454000000000E-01     -4.686523000000000E+01
4580000000.000000      2.295532000000000E-01      3.574585000000000E+00      3.483276000000000E-01     -7.620703000000000E+01
4600000000.000000      2.211685000000000E-01     -3.471680000000000E+00      3.444366000000000E-01     -1.066640000000000E+02
4620000000.000000      2.093201000000000E-01     -7.668457000000000E+00      3.393555000000000E-01     -1.363047000000000E+02
4640000000.000000      2.033234000000000E-01     -9.841309000000000E+00      3.392487000000000E-01     -1.657031000000000E+02
4660000000.000000      2.033844000000000E-01     -1.271973000000000E+01      3.377838000000000E-01      1.651094000000000E+02
4680000000.000000      2.035675000000000E-01     -1.789063000000000E+01      3.439941000000000E-01      1.361875000000000E+02
4700000000.000000      1.973724000000000E-01     -2.502344000000000E+01      3.441010000000000E-01      1.064570000000000E+02
4720000000.000000      1.812820000000000E-01     -3.225976000000000E+01      3.408203000000000E-01      7.873047000000000E+01
4740000000.000000      1.604233000000000E-01     -3.866015000000000E+01      3.476563000000000E-01      5.091601000000000E+01
4760000000.000000      1.360855000000000E-01     -4.414063000000000E+01      3.480225000000000E-01      2.246777000000000E+01
4780000000.000000      1.103935000000000E-01     -4.866796000000000E+01      3.443756000000000E-01     -5.965576000000000E+00
4800000000.000000      7.870865000000000E-02     -5.348046000000000E+01      3.392029000000000E-01     -3.453906000000000E+01
4820000000.000000      3.571701000000000E-02     -4.873437000000000E+01      3.311005000000000E-01     -6.366211000000000E+01
4840000000.000000      3.436661000000000E-02      5.722461000000000E+01      3.244171000000000E-01     -9.263672000000000E+01
4860000000.000000      1.016693000000000E-01      6.194336000000000E+01      3.164978000000000E-01     -1.234258000000000E+02
4880000000.000000      1.712494000000000E-01      4.859375000000000E+01      2.974396000000000E-01     -1.547656000000000E+02
4900000000.000000      2.303085000000000E-01      3.275000000000000E+01      2.751160000000000E-01      1.776875000000000E+02
4920000000.000000      2.708435000000000E-01      1.634277000000000E+01      2.751465000000000E-01      1.521563000000000E+02
4940000000.000000      2.919464000000000E-01      5.094910000000000E-01      2.891693000000000E-01      1.236133000000000E+02
4960000000.000000      2.879639000000000E-01     -1.487305000000000E+01      2.937927000000000E-01      9.382813000000000E+01
4980000000.000000      2.616425000000000E-01     -2.837793000000000E+01      2.996063000000000E-01      6.672265000000000E+01
5000000000.000000      2.185516000000000E-01     -3.843750000000000E+01      3.139954000000000E-01      3.934179000000000E+01
5020000000.000000      1.715088000000000E-01     -4.082617000000000E+01      3.250732000000000E-01      1.122900000000000E+01
5040000000.000000      1.425858000000000E-01     -3.341015000000000E+01      3.321381000000000E-01     -1.590723000000000E+01
5060000000.000000      1.450577000000000E-01     -2.362793000000000E+01      3.402405000000000E-01     -4.308594000000000E+01
5080000000.000000      1.610870000000000E-01     -2.048340000000000E+01      3.452911000000000E-01     -7.126562000000000E+01
5100000000.000000      1.742859000000000E-01     -2.287793000000000E+01      3.393860000000000E-01     -9.982422000000000E+01
5120000000.000000      1.793060000000000E-01     -2.642773000000000E+01      3.332520000000000E-01     -1.271133000000000E+02
5140000000.000000      1.815033000000000E-01     -2.908496000000000E+01      3.307953000000000E-01     -1.554688000000000E+02
5160000000.000000      1.847687000000000E-01     -3.180761000000000E+01      3.274078000000000E-01      1.751172000000000E+02
5180000000.000000      1.890182000000000E-01     -3.537500000000000E+01      3.239899000000000E-01      1.454609000000000E+02
5200000000.000000      1.907120000000000E-01     -4.006640000000000E+01      3.226013000000000E-01      1.152383000000000E+02
5220000000.000000      1.856766000000000E-01     -4.475390000000000E+01      3.225403000000000E-01      8.542578000000000E+01
5240000000.000000      1.765289000000000E-01     -4.742969000000000E+01      3.278809000000000E-01      5.570313000000000E+01
5260000000.000000      1.678696000000000E-01     -4.775781000000000E+01      3.335266000000000E-01      2.612793000000000E+01
5280000000.000000      1.651611000000000E-01     -4.614648000000000E+01      3.388367000000000E-01     -3.004761000000000E+00
5300000000.000000      1.699219000000000E-01     -4.642578000000000E+01      3.421478000000000E-01     -3.112207000000000E+01
5320000000.000000      1.739426000000000E-01     -4.900781000000000E+01      3.458405000000000E-01     -5.803124000000000E+01
5340000000.000000      1.720963000000000E-01     -5.299999000000000E+01      3.512115000000000E-01     -8.577734000000000E+01
5360000000.000000      1.651382000000000E-01     -5.616796000000000E+01      3.448334000000000E-01     -1.132031000000000E+02
5380000000.000000      1.588669000000000E-01     -5.692577000000000E+01      3.403473000000000E-01     -1.395703000000000E+02
5400000000.000000      1.593170000000000E-01     -5.621875000000000E+01      3.388062000000000E-01     -1.669922000000000E+02
5420000000.000000      1.694794000000000E-01     -5.610742000000000E+01      3.317261000000000E-01      1.647344000000000E+02
5440000000.000000      1.818085000000000E-01     -5.939453000000000E+01      3.260956000000000E-01      1.355547000000000E+02
5460000000.000000      1.873856000000000E-01     -6.568359000000000E+01      3.150024000000000E-01      1.057070000000000E+02
5480000000.000000      1.819305000000000E-01     -7.289844000000000E+01      3.094788000000000E-01      7.613281000000000E+01
5500000000.000000      1.639023000000000E-01     -7.914063000000000E+01      3.121033000000000E-01      4.646093000000000E+01
5520000000.000000      1.404953000000000E-01     -8.262110000000000E+01      3.137817000000000E-01      1.607812000000000E+01
5540000000.000000      1.206360000000000E-01     -8.169922000000000E+01      3.187408000000000E-01     -1.367139000000000E+01
5560000000.000000      1.085587000000000E-01     -7.800390000000000E+01      3.250885000000000E-01     -4.259766000000000E+01
5580000000.000000      1.026649000000000E-01     -7.254296000000000E+01      3.326263000000000E-01     -7.094921000000000E+01
5600000000.000000      1.004066000000000E-01     -6.700781000000000E+01      3.368530000000000E-01     -9.880077000000000E+01
5620000000.000000      1.040955000000000E-01     -5.942383000000000E+01      3.398438000000000E-01     -1.263515000000000E+02
5640000000.000000      1.190720000000000E-01     -5.260351000000000E+01      3.376770000000000E-01     -1.540234000000000E+02
5660000000.000000      1.447678000000000E-01     -5.183398000000000E+01      3.306732000000000E-01      1.790000000000000E+02
5680000000.000000      1.714554000000000E-01     -5.743750000000000E+01      3.221436000000000E-01      1.510313000000000E+02
5700000000.000000      1.907272000000000E-01     -6.804296000000000E+01      3.087311000000000E-01      1.226445000000000E+02
5720000000.000000      1.929092000000000E-01     -8.041407000000000E+01      2.952423000000000E-01      9.512890000000000E+01
5740000000.000000      1.781158000000000E-01     -9.281641000000000E+01      2.899933000000000E-01      6.621875000000000E+01
5760000000.000000      1.493225000000000E-01     -1.023476000000000E+02      2.859650000000000E-01      3.508203000000000E+01
5780000000.000000      1.171150000000000E-01     -1.042422000000000E+02      2.818451000000000E-01      4.412354000000000E+00
5800000000.000000      9.872818000000000E-02     -9.556250000000000E+01      2.835388000000000E-01     -2.588281000000000E+01
5820000000.000000      1.029472000000000E-01     -8.730078000000000E+01      2.909851000000000E-01     -5.605273000000000E+01
5840000000.000000      1.143036000000000E-01     -8.904297000000000E+01      3.013000000000000E-01     -8.640234000000000E+01
5860000000.000000      1.169739000000000E-01     -9.752342000000000E+01      3.022461000000000E-01     -1.156445000000000E+02
5880000000.000000      1.080437000000000E-01     -1.075859000000000E+02      3.043060000000000E-01     -1.424375000000000E+02
5900000000.000000      8.980942000000000E-02     -1.147539000000000E+02      3.140106000000000E-01     -1.690000000000000E+02
5920000000.000000      7.074738000000000E-02     -1.134258000000000E+02      3.190613000000000E-01      1.630781000000000E+02
5940000000.000000      6.413651000000000E-02     -1.038125000000000E+02      3.122253000000000E-01      1.348438000000000E+02
5960000000.000000      6.214333000000000E-02     -1.000430000000000E+02      2.977295000000000E-01      1.073047000000000E+02
5980000000.000000      5.326271000000000E-02     -9.985937000000000E+01      2.869873000000000E-01      8.028906000000000E+01
6000000000.000000      3.244400000000000E-02     -8.707422000000000E+01      2.807465000000000E-01      5.090038000000000E+01
6020000000.000000      3.319931000000000E-02     -2.659570000000000E+01      2.678986000000000E-01      1.992871000000000E+01
6040000000.000000      6.891632000000000E-02     -1.285303000000000E+01      2.542419000000000E-01     -1.051953000000000E+01
6060000000.000000      1.051064000000000E-01     -2.167773000000000E+01      2.498322000000000E-01     -4.099999000000000E+01
6080000000.000000      1.316147000000000E-01     -3.605859000000000E+01      2.557983000000000E-01     -7.178124000000000E+01
