! Network Analyzer HP8722D
! Hewlett-Packard
! Data name: Linha & Wilkinson
! Saver's name: Rodrigo Anjos
! Comments: Teste da utilização de aquisição
continua pelo VNA HP8722D
! Time and date: 3/9/2025 19:22
!              Frequency                     S11                                                   S21                                                   S12                                                   S22
# HZ  S  MA R 50
3000000000.000000      7.627869000000000E-02      8.792578000000000E+01      4.563446000000000E-01      2.604394000000000E+01
3020000000.000000      9.299850000000000E-02      7.365624000000000E+01      4.569702000000000E-01     -2.787842000000000E+00
3040000000.000000      9.547806000000000E-02      5.734765000000000E+01      4.577026000000000E-01     -3.166992000000000E+01
3060000000.000000      8.388138000000000E-02      4.193749000000000E+01      4.550781000000000E-01     -6.014453000000000E+01
3080000000.000000      6.412506000000000E-02      3.028613000000000E+01      4.549866000000000E-01     -8.859766000000000E+01
3100000000.000000      4.536438000000000E-02      3.060644000000000E+01      4.532776000000000E-01     -1.173359000000000E+02
3120000000.000000      3.763962000000000E-02      4.335546000000000E+01      4.512787000000000E-01     -1.458594000000000E+02
3140000000.000000      3.744507000000000E-02      4.967187000000000E+01      4.471893000000000E-01     -1.742891000000000E+02
3160000000.000000      2.990627000000000E-02      4.928320000000000E+01      4.423981000000000E-01      1.573125000000000E+02
3180000000.000000      1.687813000000000E-02      9.616014000000000E+01      4.429626000000000E-01      1.285312000000000E+02
3200000000.000000      4.611397000000000E-02      1.436875000000000E+02      4.366302000000000E-01      9.917187000000000E+01
3220000000.000000      9.749222000000000E-02      1.374453000000000E+02      4.238586000000000E-01      6.998828000000000E+01
3240000000.000000      1.484146000000000E-01      1.223438000000000E+02      4.129333000000000E-01      4.246094000000000E+01
3260000000.000000      1.909790000000000E-01      1.055898000000000E+02      4.160614000000000E-01      1.506592000000000E+01
3280000000.000000      2.187881000000000E-01      8.797655000000000E+01      4.204865000000000E-01     -1.410791000000000E+01
3300000000.000000      2.291794000000000E-01      7.120312000000000E+01      4.147644000000000E-01     -4.263085000000000E+01
3320000000.000000      2.252121000000000E-01      5.579102000000000E+01      4.176788000000000E-01     -7.048046000000000E+01
3340000000.000000      2.091751000000000E-01      4.288867000000000E+01      4.244080000000000E-01     -9.914063000000000E+01
3360000000.000000      1.857681000000000E-01      3.348242000000000E+01      4.235840000000000E-01     -1.274570000000000E+02
3380000000.000000      1.623154000000000E-01      2.852539000000000E+01      4.298248000000000E-01     -1.558984000000000E+02
3400000000.000000      1.426392000000000E-01      2.641602000000000E+01      4.311676000000000E-01      1.754844000000000E+02
3420000000.000000      1.286240000000000E-01      2.599414000000000E+01      4.326324000000000E-01      1.468828000000000E+02
3440000000.000000      1.162453000000000E-01      2.573730000000000E+01      4.319611000000000E-01      1.179648000000000E+02
3460000000.000000      1.042175000000000E-01      2.674121000000000E+01      4.287415000000000E-01      8.963671000000000E+01
3480000000.000000      9.604645000000000E-02      2.930566000000000E+01      4.301453000000000E-01      6.101563000000000E+01
3500000000.000000      9.201813000000000E-02      3.350390000000000E+01      4.269104000000000E-01      3.188769000000000E+01
3520000000.000000      9.098816000000000E-02      3.692383000000000E+01      4.228058000000000E-01      3.853394000000000E+00
3540000000.000000      9.182739000000000E-02      4.053711000000000E+01      4.244385000000000E-01     -2.480175000000000E+01
3560000000.000000      9.436798000000000E-02      4.587304000000000E+01      4.276276000000000E-01     -5.384179000000000E+01
3580000000.000000      1.016846000000000E-01      5.080468000000000E+01      4.255676000000000E-01     -8.264843000000000E+01
3600000000.000000      1.148758000000000E-01      5.225780000000000E+01      4.256439000000000E-01     -1.108320000000000E+02
3620000000.000000      1.281204000000000E-01      4.932422000000000E+01      4.268799000000000E-01     -1.392266000000000E+02
3640000000.000000      1.335907000000000E-01      4.308789000000000E+01      4.267273000000000E-01     -1.673750000000000E+02
3660000000.000000      1.292877000000000E-01      3.612695000000000E+01      4.246368000000000E-01      1.647734000000000E+02
3680000000.000000      1.167183000000000E-01      3.281445000000000E+01      4.300690000000000E-01      1.370859000000000E+02
3700000000.000000      1.036530000000000E-01      3.608789000000000E+01      4.304352000000000E-01      1.085586000000000E+02
3720000000.000000      1.046944000000000E-01      4.500781000000000E+01      4.289703000000000E-01      8.008984000000000E+01
3740000000.000000      1.219139000000000E-01      4.931054000000000E+01      4.221497000000000E-01      5.164453000000000E+01
3760000000.000000      1.406250000000000E-01      4.602735000000000E+01      4.177551000000000E-01      2.355957000000000E+01
3780000000.000000      1.479645000000000E-01      3.849609000000000E+01      4.166107000000000E-01     -4.003174000000000E+00
3800000000.000000      1.414337000000000E-01      3.098828000000000E+01      4.176636000000000E-01     -3.251953000000000E+01
3820000000.000000      1.226311000000000E-01      2.777148000000000E+01      4.178467000000000E-01     -6.135547000000000E+01
3840000000.000000      1.084900000000000E-01      3.250000000000000E+01      4.167480000000000E-01     -9.042578000000000E+01
3860000000.000000      1.124001000000000E-01      4.117188000000000E+01      4.162292000000000E-01     -1.194141000000000E+02
3880000000.000000      1.307831000000000E-01      4.300000000000000E+01      4.140778000000000E-01     -1.484531000000000E+02
3900000000.000000      1.452484000000000E-01      3.717968000000000E+01      4.047394000000000E-01     -1.765703000000000E+02
3920000000.000000      1.437988000000000E-01      2.961328000000000E+01      4.060059000000000E-01      1.561641000000000E+02
3940000000.000000      1.260910000000000E-01      2.558691000000000E+01      4.155579000000000E-01      1.277109000000000E+02
3960000000.000000      1.079102000000000E-01      3.173047000000000E+01      4.154358000000000E-01      9.832811000000000E+01
3980000000.000000      1.133118000000000E-01      4.535937000000000E+01      4.063721000000000E-01      6.989452000000000E+01
4000000000.000000      1.453247000000000E-01      4.901172000000000E+01      3.998718000000000E-01      4.267968000000000E+01
4020000000.000000      1.787033000000000E-01      4.181641000000000E+01      4.051056000000000E-01      1.496045000000000E+01
4040000000.000000      1.977615000000000E-01      2.920801000000000E+01      4.055939000000000E-01     -1.497998000000000E+01
4060000000.000000      1.925201000000000E-01      1.499463000000000E+01      3.901520000000000E-01     -4.355273000000000E+01
4080000000.000000      1.644058000000000E-01      1.684998000000000E+00      3.910217000000000E-01     -7.055859000000000E+01
4100000000.000000      1.185112000000000E-01     -6.230713000000000E+00      4.010010000000000E-01     -9.926561000000000E+01
4120000000.000000      7.587433000000000E-02      3.753174000000000E+00      4.006958000000000E-01     -1.293359000000000E+02
4140000000.000000      7.249069000000000E-02      3.369531000000000E+01      3.953857000000000E-01     -1.582578000000000E+02
4160000000.000000      9.743881000000000E-02      4.367578000000000E+01      3.957062000000000E-01      1.741094000000000E+02
4180000000.000000      1.155357000000000E-01      4.034375000000000E+01      4.041901000000000E-01      1.453750000000000E+02
4200000000.000000      1.174088000000000E-01      3.658984000000000E+01      4.052277000000000E-01      1.155156000000000E+02
4220000000.000000      1.149483000000000E-01      3.866601000000000E+01      3.969879000000000E-01      8.613672000000000E+01
4240000000.000000      1.235390000000000E-01      4.515038000000000E+01      3.923340000000000E-01      5.783593000000000E+01
4260000000.000000      1.484070000000000E-01      4.729101000000000E+01      3.877411000000000E-01      2.992188000000000E+01
4280000000.000000      1.753998000000000E-01      4.271289000000000E+01      3.869781000000000E-01      1.334839000000000E+00
4300000000.000000      1.922379000000000E-01      3.457031000000000E+01      3.851624000000000E-01     -2.758886000000000E+01
4320000000.000000      1.914673000000000E-01      2.599023000000000E+01      3.804321000000000E-01     -5.613281000000000E+01
4340000000.000000      1.777115000000000E-01      2.000586000000000E+01      3.799438000000000E-01     -8.512110000000000E+01
4360000000.000000      1.639786000000000E-01      1.894433000000000E+01      3.778534000000000E-01     -1.143476000000000E+02
4380000000.000000      1.620941000000000E-01      2.159766000000000E+01      3.766785000000000E-01     -1.437578000000000E+02
4400000000.000000      1.727219000000000E-01      2.179199000000000E+01      3.733521000000000E-01     -1.727578000000000E+02
4420000000.000000      1.832809000000000E-01      1.781250000000000E+01      3.752594000000000E-01      1.583594000000000E+02
4440000000.000000      1.810379000000000E-01      1.189648000000000E+01      3.768005000000000E-01      1.286016000000000E+02
4460000000.000000      1.644135000000000E-01      8.679199000000000E+00      3.705902000000000E-01      9.903124000000000E+01
4480000000.000000      1.456375000000000E-01      1.203369000000000E+01      3.670959000000000E-01      7.110546000000000E+01
4500000000.000000      1.467896000000000E-01      2.123730000000000E+01      3.668365000000000E-01      4.223437000000000E+01
4520000000.000000      1.725006000000000E-01      2.537207000000000E+01      3.622742000000000E-01      1.265186000000000E+01
4540000000.000000      2.033463000000000E-01      2.157519000000000E+01      3.530426000000000E-01     -1.682324000000000E+01
4560000000.000000      2.242203000000000E-01      1.324121000000000E+01      3.460083000000000E-01     -4.503125000000000E+01
4580000000.000000      2.300339000000000E-01      4.273682000000000E+00      3.472290000000000E-01     -7.443749000000000E+01
4600000000.000000      2.222214000000000E-01     -3.057007000000000E+00      3.448334000000000E-01     -1.048359000000000E+02
4620000000.000000      2.098618000000000E-01     -7.514648000000000E+00      3.389282000000000E-01     -1.341328000000000E+02
4640000000.000000      2.033386000000000E-01     -9.724609000000000E+00      3.393402000000000E-01     -1.638515000000000E+02
4660000000.000000      2.027817000000000E-01     -1.251904000000000E+01      3.385315000000000E-01      1.671406000000000E+02
4680000000.000000      2.035141000000000E-01     -1.751269000000000E+01      3.426819000000000E-01      1.380312000000000E+02
4700000000.000000      1.975021000000000E-01     -2.443652000000000E+01      3.444214000000000E-01      1.083672000000000E+02
4720000000.000000      1.817703000000000E-01     -3.181836000000000E+01      3.399048000000000E-01      8.051952000000000E+01
4740000000.000000      1.614761000000000E-01     -3.843164000000000E+01      3.470459000000000E-01      5.287304000000000E+01
4760000000.000000      1.372299000000000E-01     -4.382226000000000E+01      3.479462000000000E-01      2.425781000000000E+01
4780000000.000000      1.117821000000000E-01     -4.836328000000000E+01      3.442993000000000E-01     -4.072021000000000E+00
4800000000.000000      8.053970000000000E-02     -5.319921000000000E+01      3.399811000000000E-01     -3.266406000000000E+01
4820000000.000000      3.814316000000000E-02     -4.957226000000000E+01      3.314514000000000E-01     -6.166797000000000E+01
4840000000.000000      3.123856000000000E-02      5.524804000000000E+01      3.244019000000000E-01     -9.065233000000000E+01
4860000000.000000      9.704590000000000E-02      6.287304000000000E+01      3.176117000000000E-01     -1.214687000000000E+02
4880000000.000000      1.666870000000000E-01      5.005468000000000E+01      2.983398000000000E-01     -1.525000000000000E+02
4900000000.000000      2.260666000000000E-01      3.411523000000000E+01      2.749786000000000E-01      1.796484000000000E+02
4920000000.000000      2.685852000000000E-01      1.749512000000000E+01      2.753143000000000E-01      1.541797000000000E+02
4940000000.000000      2.903900000000000E-01      1.646545000000000E+00      2.885132000000000E-01      1.254922000000000E+02
4960000000.000000      2.888489000000000E-01     -1.361621000000000E+01      2.924652000000000E-01      9.562500000000000E+01
4980000000.000000      2.637787000000000E-01     -2.737011000000000E+01      2.984924000000000E-01      6.853125000000000E+01
5000000000.000000      2.213745000000000E-01     -3.753906000000000E+01      3.128967000000000E-01      4.115820000000000E+01
5020000000.000000      1.743088000000000E-01     -4.066796000000000E+01      3.241577000000000E-01      1.322607000000000E+01
5040000000.000000      1.438217000000000E-01     -3.376953000000000E+01      3.320160000000000E-01     -1.394873000000000E+01
5060000000.000000      1.442337000000000E-01     -2.375586000000000E+01      3.400574000000000E-01     -4.112305000000000E+01
5080000000.000000      1.604385000000000E-01     -2.040234000000000E+01      3.454742000000000E-01     -6.938281000000000E+01
5100000000.000000      1.740036000000000E-01     -2.266894000000000E+01      3.393555000000000E-01     -9.768749000000000E+01
5120000000.000000      1.794128000000000E-01     -2.620117000000000E+01      3.337555000000000E-01     -1.251445000000000E+02
5140000000.000000      1.820526000000000E-01     -2.912402000000000E+01      3.311462000000000E-01     -1.532578000000000E+02
5160000000.000000      1.847000000000000E-01     -3.171289000000000E+01      3.282623000000000E-01      1.772812000000000E+02
5180000000.000000      1.885681000000000E-01     -3.512500000000000E+01      3.235779000000000E-01      1.475469000000000E+02
5200000000.000000      1.911163000000000E-01     -3.983593000000000E+01      3.224030000000000E-01      1.174219000000000E+02
5220000000.000000      1.866074000000000E-01     -4.453711000000000E+01      3.223877000000000E-01      8.760937000000000E+01
5240000000.000000      1.765442000000000E-01     -4.740039000000000E+01      3.273315000000000E-01      5.786718000000000E+01
5260000000.000000      1.682587000000000E-01     -4.785937000000000E+01      3.334351000000000E-01      2.820996000000000E+01
5280000000.000000      1.644516000000000E-01     -4.655273000000000E+01      3.386078000000000E-01     -9.146118000000000E-01
5300000000.000000      1.686554000000000E-01     -4.648046000000000E+01      3.414917000000000E-01     -2.899902000000000E+01
5320000000.000000      1.732941000000000E-01     -4.900781000000000E+01      3.461761000000000E-01     -5.592968000000000E+01
5340000000.000000      1.714401000000000E-01     -5.284961000000000E+01      3.505707000000000E-01     -8.360937000000000E+01
5360000000.000000      1.648026000000000E-01     -5.606445000000000E+01      3.461456000000000E-01     -1.111094000000000E+02
5380000000.000000      1.580734000000000E-01     -5.710351000000000E+01      3.403473000000000E-01     -1.374609000000000E+02
5400000000.000000      1.580124000000000E-01     -5.640038000000000E+01      3.392639000000000E-01     -1.648359000000000E+02
5420000000.000000      1.672363000000000E-01     -5.593750000000000E+01      3.324127000000000E-01      1.668984000000000E+02
5440000000.000000      1.799469000000000E-01     -5.892968000000000E+01      3.263855000000000E-01      1.377891000000000E+02
5460000000.000000      1.864700000000000E-01     -6.505077000000000E+01      3.159485000000000E-01      1.078984000000000E+02
5480000000.000000      1.813812000000000E-01     -7.215234000000000E+01      3.095703000000000E-01      7.848437000000000E+01
5500000000.000000      1.643448000000000E-01     -7.871875000000000E+01      3.115387000000000E-01      4.873632000000000E+01
5520000000.000000      1.410751000000000E-01     -8.240625000000000E+01      3.140411000000000E-01      1.840820000000000E+01
5540000000.000000      1.207352000000000E-01     -8.173437000000000E+01      3.184967000000000E-01     -1.125732000000000E+01
5560000000.000000      1.083679000000000E-01     -7.781640000000000E+01      3.248138000000000E-01     -4.036914000000000E+01
5580000000.000000      1.024437000000000E-01     -7.249218000000000E+01      3.323212000000000E-01     -6.877734000000000E+01
5600000000.000000      1.005363000000000E-01     -6.698047000000000E+01      3.372498000000000E-01     -9.667969000000000E+01
5620000000.000000      1.039810000000000E-01     -5.929101000000000E+01      3.400421000000000E-01     -1.242617000000000E+02
5640000000.000000      1.181183000000000E-01     -5.256640000000000E+01      3.377686000000000E-01     -1.517734000000000E+02
5660000000.000000      1.430511000000000E-01     -5.155859000000000E+01      3.317871000000000E-01     -1.788828000000000E+02
5680000000.000000      1.697769000000000E-01     -5.687304000000000E+01      3.238220000000000E-01      1.532891000000000E+02
5700000000.000000      1.893845000000000E-01     -6.703515000000000E+01      3.097076000000000E-01      1.251172000000000E+02
5720000000.000000      1.931076000000000E-01     -7.958984000000000E+01      2.958221000000000E-01      9.726952000000000E+01
5740000000.000000      1.791000000000000E-01     -9.210155000000000E+01      2.904663000000000E-01      6.855859000000000E+01
5760000000.000000      1.517868000000000E-01     -1.021641000000000E+02      2.866058000000000E-01      3.754883000000000E+01
5780000000.000000      1.193886000000000E-01     -1.046719000000000E+02      2.817993000000000E-01      6.893799000000000E+00
5800000000.000000      9.862137000000000E-02     -9.640234000000000E+01      2.831268000000000E-01     -2.321289000000000E+01
5820000000.000000      1.012650000000000E-01     -8.773829000000000E+01      2.905731000000000E-01     -5.366015000000000E+01
5840000000.000000      1.130867000000000E-01     -8.870312000000000E+01      3.000488000000000E-01     -8.387890000000000E+01
5860000000.000000      1.172028000000000E-01     -9.671484000000000E+01      3.020172000000000E-01     -1.131953000000000E+02
5880000000.000000      1.087036000000000E-01     -1.071875000000000E+02      3.035278000000000E-01     -1.401094000000000E+02
5900000000.000000      9.070206000000000E-02     -1.145391000000000E+02      3.140717000000000E-01     -1.668516000000000E+02
5920000000.000000      7.139969000000000E-02     -1.144609000000000E+02      3.187866000000000E-01      1.653125000000000E+02
5940000000.000000      6.264114000000000E-02     -1.047617000000000E+02      3.136139000000000E-01      1.369609000000000E+02
5960000000.000000      6.104279000000000E-02     -9.946875000000000E+01      2.985077000000000E-01      1.095469000000000E+02
5980000000.000000      5.252838000000000E-02     -9.910545000000000E+01      2.885742000000000E-01      8.267578000000000E+01
6000000000.000000      3.355598000000000E-02     -8.766016000000000E+01      2.817841000000000E-01      5.345703000000000E+01
6020000000.000000      3.123665000000000E-02     -2.849804000000000E+01      2.690582000000000E-01      2.253808000000000E+01
6040000000.000000      6.643677000000000E-02     -1.161963000000000E+01      2.547607000000000E-01     -8.000977000000000E+00
6060000000.000000      1.028137000000000E-01     -2.020312000000000E+01      2.502899000000000E-01     -3.827929000000000E+01
6080000000.000000      1.301804000000000E-01     -3.454883000000000E+01      2.561035000000000E-01     -6.910937000000000E+01
