! Network Analyzer HP8722D
! Hewlett-Packard
! Data name: Linha & Wilkinson
! Saver's name: Rodrigo Anjos
! Comments: Teste da utilização de aquisição
continua pelo VNA HP8722D
! Time and date: 3/9/2025 17:42
!              Frequency                     S11                                                   S21                                                   S12                                                   S22
# HZ  S  MA R 50
3000000000.000000      7.636642000000000E-02      8.748438000000000E+01      4.552002000000000E-01      2.543945000000000E+01
3020000000.000000      9.277344000000000E-02      7.287499000000000E+01      4.562683000000000E-01     -3.376953000000000E+00
3040000000.000000      9.556580000000000E-02      5.638866000000000E+01      4.554596000000000E-01     -3.240039000000000E+01
3060000000.000000      8.408737000000000E-02      4.093750000000000E+01      4.529114000000000E-01     -6.071289000000000E+01
3080000000.000000      6.409836000000000E-02      3.006933000000000E+01      4.532166000000000E-01     -8.925390000000000E+01
3100000000.000000      4.540443000000000E-02      3.039160000000000E+01      4.517365000000000E-01     -1.179102000000000E+02
3120000000.000000      3.787804000000000E-02      4.267774000000000E+01      4.499969000000000E-01     -1.464219000000000E+02
3140000000.000000      3.776741000000000E-02      4.879883000000000E+01      4.454193000000000E-01     -1.749375000000000E+02
3160000000.000000      3.004456000000000E-02      4.974609000000000E+01      4.421692000000000E-01      1.566250000000000E+02
3180000000.000000      1.671124000000000E-02      9.363281000000000E+01      4.407043000000000E-01      1.280078000000000E+02
3200000000.000000      4.592705000000000E-02      1.444844000000000E+02      4.357758000000000E-01      9.849998000000000E+01
3220000000.000000      9.710693000000000E-02      1.371094000000000E+02      4.227905000000000E-01      6.927734000000000E+01
3240000000.000000      1.478043000000000E-01      1.217500000000000E+02      4.109497000000000E-01      4.198242000000000E+01
3260000000.000000      1.903229000000000E-01      1.047227000000000E+02      4.140930000000000E-01      1.461865000000000E+01
3280000000.000000      2.176590000000000E-01      8.744141000000000E+01      4.192963000000000E-01     -1.487305000000000E+01
3300000000.000000      2.286987000000000E-01      7.045703000000000E+01      4.141235000000000E-01     -4.338086000000000E+01
3320000000.000000      2.239609000000000E-01      5.519531000000000E+01      4.168396000000000E-01     -7.109375000000000E+01
3340000000.000000      2.084579000000000E-01      4.244531000000000E+01      4.226990000000000E-01     -9.970703000000000E+01
3360000000.000000      1.847763000000000E-01      3.309765000000000E+01      4.233551000000000E-01     -1.282422000000000E+02
3380000000.000000      1.614914000000000E-01      2.818457000000000E+01      4.277191000000000E-01     -1.564609000000000E+02
3400000000.000000      1.425552000000000E-01      2.626758000000000E+01      4.305420000000000E-01      1.748828000000000E+02
3420000000.000000      1.285477000000000E-01      2.592187000000000E+01      4.316406000000000E-01      1.460469000000000E+02
3440000000.000000      1.162529000000000E-01      2.543945000000000E+01      4.295654000000000E-01      1.174844000000000E+02
3460000000.000000      1.045189000000000E-01      2.652832000000000E+01      4.269104000000000E-01      8.896093000000000E+01
3480000000.000000      9.616852000000000E-02      2.921191000000000E+01      4.285278000000000E-01      6.024023000000000E+01
3500000000.000000      9.276962000000000E-02      3.298828000000000E+01      4.250793000000000E-01      3.113379000000000E+01
3520000000.000000      9.138489000000000E-02      3.659375000000000E+01      4.215393000000000E-01      3.209351000000000E+00
3540000000.000000      9.212494000000000E-02      3.977148000000000E+01      4.248047000000000E-01     -2.559961000000000E+01
3560000000.000000      9.391403000000000E-02      4.512109000000000E+01      4.257355000000000E-01     -5.454883000000000E+01
3580000000.000000      1.013603000000000E-01      5.015234000000000E+01      4.257355000000000E-01     -8.335938000000000E+01
3600000000.000000      1.149940000000000E-01      5.154882000000000E+01      4.247589000000000E-01     -1.115977000000000E+02
3620000000.000000      1.282806000000000E-01      4.864258000000000E+01      4.260101000000000E-01     -1.398984000000000E+02
3640000000.000000      1.336060000000000E-01      4.235937000000000E+01      4.252319000000000E-01     -1.682500000000000E+02
3660000000.000000      1.292267000000000E-01      3.564648000000000E+01      4.244537000000000E-01      1.640312000000000E+02
3680000000.000000      1.162567000000000E-01      3.251953000000000E+01      4.274139000000000E-01      1.363437000000000E+02
3700000000.000000      1.038132000000000E-01      3.572266000000000E+01      4.295807000000000E-01      1.078867000000000E+02
3720000000.000000      1.043243000000000E-01      4.487890000000000E+01      4.279480000000000E-01      7.922656000000000E+01
3740000000.000000      1.218491000000000E-01      4.869922000000000E+01      4.213562000000000E-01      5.091991000000000E+01
3760000000.000000      1.402283000000000E-01      4.532422000000000E+01      4.146576000000000E-01      2.274707000000000E+01
3780000000.000000      1.476288000000000E-01      3.775391000000000E+01      4.152374000000000E-01     -4.866943000000000E+00
3800000000.000000      1.409073000000000E-01      3.052734000000000E+01      4.170837000000000E-01     -3.339062000000000E+01
3820000000.000000      1.229095000000000E-01      2.724316000000000E+01      4.161530000000000E-01     -6.210155000000000E+01
3840000000.000000      1.087646000000000E-01      3.232226000000000E+01      4.163055000000000E-01     -9.122265000000000E+01
3860000000.000000      1.126137000000000E-01      4.066015000000000E+01      4.156342000000000E-01     -1.199258000000000E+02
3880000000.000000      1.306610000000000E-01      4.238867000000000E+01      4.131165000000000E-01     -1.491719000000000E+02
3900000000.000000      1.452942000000000E-01      3.662695000000000E+01      4.053955000000000E-01     -1.773750000000000E+02
3920000000.000000      1.431427000000000E-01      2.890332000000000E+01      4.066467000000000E-01      1.554844000000000E+02
3940000000.000000      1.255264000000000E-01      2.494629000000000E+01      4.137878000000000E-01      1.267500000000000E+02
3960000000.000000      1.077309000000000E-01      3.138184000000000E+01      4.131317000000000E-01      9.771093000000000E+01
3980000000.000000      1.145287000000000E-01      4.507617000000000E+01      4.058685000000000E-01      6.908984000000000E+01
4000000000.000000      1.455536000000000E-01      4.850780000000000E+01      3.985901000000000E-01      4.197461000000000E+01
4020000000.000000      1.784592000000000E-01      4.125781000000000E+01      4.034729000000000E-01      1.420654000000000E+01
4040000000.000000      1.978302000000000E-01      2.839941000000000E+01      4.044037000000000E-01     -1.599756000000000E+01
4060000000.000000      1.922531000000000E-01      1.440820000000000E+01      3.902283000000000E-01     -4.455274000000000E+01
4080000000.000000      1.633377000000000E-01      1.001099000000000E+00      3.900452000000000E-01     -7.145702000000000E+01
4100000000.000000      1.176910000000000E-01     -6.954346000000000E+00      4.002838000000000E-01     -1.001914000000000E+02
4120000000.000000      7.518387000000000E-02      3.047241000000000E+00      3.988953000000000E-01     -1.300390000000000E+02
4140000000.000000      7.269287000000000E-02      3.340234000000000E+01      3.940277000000000E-01     -1.589531000000000E+02
4160000000.000000      9.740448000000000E-02      4.288086000000000E+01      3.947601000000000E-01      1.732344000000000E+02
4180000000.000000      1.152534000000000E-01      3.958203000000000E+01      4.025421000000000E-01      1.445625000000000E+02
4200000000.000000      1.170197000000000E-01      3.577929000000000E+01      4.037476000000000E-01      1.146641000000000E+02
4220000000.000000      1.145325000000000E-01      3.792969000000000E+01      3.970642000000000E-01      8.534374000000000E+01
4240000000.000000      1.232986000000000E-01      4.469336000000000E+01      3.896942000000000E-01      5.695703000000000E+01
4260000000.000000      1.479797000000000E-01      4.689649000000000E+01      3.862152000000000E-01      2.898926000000000E+01
4280000000.000000      1.750793000000000E-01      4.224609000000000E+01      3.861389000000000E-01      6.138611000000000E-01
4300000000.000000      1.910782000000000E-01      3.392969000000000E+01      3.824921000000000E-01     -2.851855000000000E+01
4320000000.000000      1.905365000000000E-01      2.554004000000000E+01      3.790894000000000E-01     -5.696289000000000E+01
4340000000.000000      1.774139000000000E-01      1.950586000000000E+01      3.780670000000000E-01     -8.609375000000000E+01
4360000000.000000      1.634903000000000E-01      1.858398000000000E+01      3.770294000000000E-01     -1.153984000000000E+02
4380000000.000000      1.616669000000000E-01      2.128516000000000E+01      3.754425000000000E-01     -1.446563000000000E+02
4400000000.000000      1.726685000000000E-01      2.132129000000000E+01      3.719177000000000E-01     -1.737500000000000E+02
4420000000.000000      1.825943000000000E-01      1.727930000000000E+01      3.736115000000000E-01      1.575703000000000E+02
4440000000.000000      1.800537000000000E-01      1.130859000000000E+01      3.757935000000000E-01      1.280469000000000E+02
4460000000.000000      1.636810000000000E-01      8.210449000000000E+00      3.693848000000000E-01      9.811718000000000E+01
4480000000.000000      1.451874000000000E-01      1.162891000000000E+01      3.655853000000000E-01      6.988281000000000E+01
4500000000.000000      1.469345000000000E-01      2.066797000000000E+01      3.657532000000000E-01      4.108007000000000E+01
4520000000.000000      1.724014000000000E-01      2.494531000000000E+01      3.616791000000000E-01      1.159570000000000E+01
4540000000.000000      2.033157000000000E-01      2.091992000000000E+01      3.521271000000000E-01     -1.771777000000000E+01
4560000000.000000      2.240143000000000E-01      1.273584000000000E+01      3.447266000000000E-01     -4.582812000000000E+01
4580000000.000000      2.294464000000000E-01      3.655640000000000E+00      3.466949000000000E-01     -7.518359000000000E+01
4600000000.000000      2.208252000000000E-01     -3.644775000000000E+00      3.430176000000000E-01     -1.055820000000000E+02
4620000000.000000      2.090683000000000E-01     -7.914307000000000E+00      3.376617000000000E-01     -1.353594000000000E+02
4640000000.000000      2.028122000000000E-01     -1.012158000000000E+01      3.362732000000000E-01     -1.645703000000000E+02
4660000000.000000      2.022705000000000E-01     -1.291455000000000E+01      3.373413000000000E-01      1.660938000000000E+02
4680000000.000000      2.035370000000000E-01     -1.810351000000000E+01      3.424225000000000E-01      1.369688000000000E+02
4700000000.000000      1.970520000000000E-01     -2.506445000000000E+01      3.416595000000000E-01      1.074101000000000E+02
4720000000.000000      1.817703000000000E-01     -3.239843000000000E+01      3.388214000000000E-01      7.963672000000000E+01
4740000000.000000      1.614380000000000E-01     -3.889257000000000E+01      3.459320000000000E-01      5.182031000000000E+01
4760000000.000000      1.367493000000000E-01     -4.433398000000000E+01      3.469238000000000E-01      2.343457000000000E+01
4780000000.000000      1.116066000000000E-01     -4.891406000000000E+01      3.430481000000000E-01     -5.078613000000000E+00
4800000000.000000      7.994080000000000E-02     -5.402148000000000E+01      3.384399000000000E-01     -3.352344000000000E+01
4820000000.000000      3.792191000000000E-02     -5.075976000000000E+01      3.299408000000000E-01     -6.256054000000000E+01
4840000000.000000      3.179741000000000E-02      5.570898000000000E+01      3.235168000000000E-01     -9.159374000000000E+01
4860000000.000000      9.765244000000000E-02      6.199413000000000E+01      3.157349000000000E-01     -1.223789000000000E+02
4880000000.000000      1.674728000000000E-01      4.906054000000000E+01      2.968445000000000E-01     -1.536328000000000E+02
4900000000.000000      2.258759000000000E-01      3.327343000000000E+01      2.735138000000000E-01      1.788672000000000E+02
4920000000.000000      2.685852000000000E-01      1.688867000000000E+01      2.738647000000000E-01      1.533672000000000E+02
4940000000.000000      2.902374000000000E-01      8.830261000000000E-01      2.876740000000000E-01      1.246601000000000E+02
4960000000.000000      2.878418000000000E-01     -1.437988000000000E+01      2.916565000000000E-01      9.498827000000000E+01
4980000000.000000      2.624512000000000E-01     -2.803613000000000E+01      2.979126000000000E-01      6.765234000000000E+01
5000000000.000000      2.196503000000000E-01     -3.829297000000000E+01      3.121796000000000E-01      4.025391000000000E+01
5020000000.000000      1.730042000000000E-01     -4.094140000000000E+01      3.234406000000000E-01      1.219482000000000E+01
5040000000.000000      1.429749000000000E-01     -3.390234000000000E+01      3.309174000000000E-01     -1.497754000000000E+01
5060000000.000000      1.443863000000000E-01     -2.407812000000000E+01      3.390503000000000E-01     -4.213867000000000E+01
5080000000.000000      1.601410000000000E-01     -2.071777000000000E+01      3.444519000000000E-01     -7.025391000000000E+01
5100000000.000000      1.740875000000000E-01     -2.298633000000000E+01      3.392029000000000E-01     -9.878124000000000E+01
5120000000.000000      1.790161000000000E-01     -2.663379000000000E+01      3.325348000000000E-01     -1.260547000000000E+02
5140000000.000000      1.814575000000000E-01     -2.946680000000000E+01      3.306885000000000E-01     -1.543516000000000E+02
5160000000.000000      1.845245000000000E-01     -3.214258000000000E+01      3.270416000000000E-01      1.763047000000000E+02
5180000000.000000      1.886749000000000E-01     -3.562891000000000E+01      3.229370000000000E-01      1.465156000000000E+02
5200000000.000000      1.917114000000000E-01     -4.027148000000000E+01      3.218384000000000E-01      1.164492000000000E+02
5220000000.000000      1.859436000000000E-01     -4.484961000000000E+01      3.217468000000000E-01      8.668749000000000E+01
5240000000.000000      1.764069000000000E-01     -4.770117000000000E+01      3.264771000000000E-01      5.693945000000000E+01
5260000000.000000      1.674423000000000E-01     -4.804296000000000E+01      3.316498000000000E-01      2.717187000000000E+01
5280000000.000000      1.649323000000000E-01     -4.671484000000000E+01      3.380280000000000E-01     -1.841614000000000E+00
5300000000.000000      1.689758000000000E-01     -4.687304000000000E+01      3.404846000000000E-01     -2.998535000000000E+01
5320000000.000000      1.734085000000000E-01     -4.948047000000000E+01      3.453369000000000E-01     -5.695507000000000E+01
5340000000.000000      1.718292000000000E-01     -5.325976000000000E+01      3.498230000000000E-01     -8.487499000000000E+01
5360000000.000000      1.653519000000000E-01     -5.638281000000000E+01      3.442383000000000E-01     -1.120547000000000E+02
5380000000.000000      1.588745000000000E-01     -5.751562000000000E+01      3.394623000000000E-01     -1.384844000000000E+02
5400000000.000000      1.587753000000000E-01     -5.659180000000000E+01      3.384247000000000E-01     -1.659219000000000E+02
5420000000.000000      1.683960000000000E-01     -5.634179000000000E+01      3.317719000000000E-01      1.658125000000000E+02
5440000000.000000      1.802216000000000E-01     -5.936132000000000E+01      3.260803000000000E-01      1.366953000000000E+02
5460000000.000000      1.865158000000000E-01     -6.551171000000000E+01      3.143616000000000E-01      1.069102000000000E+02
5480000000.000000      1.812744000000000E-01     -7.269140000000000E+01      3.085632000000000E-01      7.732422000000000E+01
5500000000.000000      1.638565000000000E-01     -7.924999000000000E+01      3.109741000000000E-01      4.759375000000000E+01
5520000000.000000      1.406326000000000E-01     -8.301561000000000E+01      3.129578000000000E-01      1.729492000000000E+01
5540000000.000000      1.209488000000000E-01     -8.221483000000000E+01      3.177795000000000E-01     -1.252881000000000E+01
5560000000.000000      1.085320000000000E-01     -7.835546000000000E+01      3.239746000000000E-01     -4.141211000000000E+01
5580000000.000000      1.026878000000000E-01     -7.292969000000000E+01      3.315735000000000E-01     -6.979297000000000E+01
5600000000.000000      1.006775000000000E-01     -6.710155000000000E+01      3.365021000000000E-01     -9.763672000000000E+01
5620000000.000000      1.040955000000000E-01     -5.964257000000000E+01      3.389435000000000E-01     -1.253594000000000E+02
5640000000.000000      1.181107000000000E-01     -5.282421000000000E+01      3.365479000000000E-01     -1.529140000000000E+02
5660000000.000000      1.430359000000000E-01     -5.201953000000000E+01      3.303070000000000E-01      1.799375000000000E+02
5680000000.000000      1.700058000000000E-01     -5.774219000000000E+01      3.215942000000000E-01      1.520937000000000E+02
5700000000.000000      1.891251000000000E-01     -6.796875000000000E+01      3.087463000000000E-01      1.238906000000000E+02
5720000000.000000      1.925583000000000E-01     -8.039063000000000E+01      2.941742000000000E-01      9.617968000000000E+01
5740000000.000000      1.793213000000000E-01     -9.282812000000000E+01      2.892761000000000E-01      6.742578000000000E+01
5760000000.000000      1.510315000000000E-01     -1.023828000000000E+02      2.847137000000000E-01      3.648633000000000E+01
5780000000.000000      1.184196000000000E-01     -1.049766000000000E+02      2.809296000000000E-01      5.756836000000000E+00
5800000000.000000      9.904861000000000E-02     -9.655859000000000E+01      2.824554000000000E-01     -2.465625000000000E+01
5820000000.000000      1.021500000000000E-01     -8.773829000000000E+01      2.893829000000000E-01     -5.486523000000000E+01
5840000000.000000      1.129608000000000E-01     -8.921484000000000E+01      2.994843000000000E-01     -8.524218000000000E+01
5860000000.000000      1.171570000000000E-01     -9.766796000000000E+01      3.016968000000000E-01     -1.143476000000000E+02
5880000000.000000      1.083145000000000E-01     -1.080703000000000E+02      3.032684000000000E-01     -1.412500000000000E+02
5900000000.000000      9.055328000000000E-02     -1.152969000000000E+02      3.127899000000000E-01     -1.680312000000000E+02
5920000000.000000      7.202148000000000E-02     -1.145195000000000E+02      3.184357000000000E-01      1.642578000000000E+02
5940000000.000000      6.406021000000000E-02     -1.055742000000000E+02      3.118591000000000E-01      1.359453000000000E+02
5960000000.000000      6.145668000000000E-02     -1.005742000000000E+02      2.974243000000000E-01      1.083945000000000E+02
5980000000.000000      5.296135000000000E-02     -1.002851000000000E+02      2.870026000000000E-01      8.144531000000000E+01
6000000000.000000      3.261757000000000E-02     -8.777735000000000E+01      2.805023000000000E-01      5.219140000000000E+01
6020000000.000000      3.172302000000000E-02     -2.729785000000000E+01      2.677765000000000E-01      2.121582000000000E+01
6040000000.000000      6.655884000000000E-02     -1.223877000000000E+01      2.540283000000000E-01     -9.145020000000000E+00
6060000000.000000      1.023216000000000E-01     -2.116015000000000E+01      2.487564000000000E-01     -3.951953000000000E+01
6080000000.000000      1.297073000000000E-01     -3.574219000000000E+01      2.547760000000000E-01     -7.041016000000000E+01
