! Network Analyzer HP8722D
! Hewlett-Packard
! Data name: Linha & Wilkinson
! Saver's name: Rodrigo Anjos
! Comments: Teste da utilização de aquisição
continua pelo VNA HP8722D
! Time and date: 3/9/2025 19:46
!              Frequency                     S11                                                   S21                                                   S12                                                   S22
# HZ  S  MA R 50
3000000000.000000      7.785797000000000E-02      8.730860000000000E+01      4.576416000000000E-01      2.438672000000000E+01
3020000000.000000      9.416199000000000E-02      7.264843000000000E+01      4.581909000000000E-01     -4.409668000000000E+00
3040000000.000000      9.510040000000000E-02      5.644531000000000E+01      4.576416000000000E-01     -3.316406000000000E+01
3060000000.000000      8.297729000000000E-02      4.118554000000000E+01      4.555969000000000E-01     -6.187109000000000E+01
3080000000.000000      6.254578000000000E-02      3.068750000000000E+01      4.565125000000000E-01     -9.032421000000000E+01
3100000000.000000      4.478836000000000E-02      3.157324000000000E+01      4.551544000000000E-01     -1.189375000000000E+02
3120000000.000000      3.809929000000000E-02      4.454102000000000E+01      4.529266000000000E-01     -1.474766000000000E+02
3140000000.000000      3.780746000000000E-02      4.930273000000000E+01      4.476318000000000E-01     -1.760469000000000E+02
3160000000.000000      2.953911000000000E-02      4.911523000000000E+01      4.447784000000000E-01      1.555938000000000E+02
3180000000.000000      1.610374000000000E-02      9.941015000000000E+01      4.444580000000000E-01      1.268672000000000E+02
3200000000.000000      4.848289000000000E-02      1.451328000000000E+02      4.381561000000000E-01      9.741014000000000E+01
3220000000.000000      1.002579000000000E-01      1.371953000000000E+02      4.249878000000000E-01      6.816015000000000E+01
3240000000.000000      1.512222000000000E-01      1.217383000000000E+02      4.129791000000000E-01      4.063281000000000E+01
3260000000.000000      1.929855000000000E-01      1.045781000000000E+02      4.173431000000000E-01      1.336719000000000E+01
3280000000.000000      2.199249000000000E-01      8.720312000000000E+01      4.210968000000000E-01     -1.581250000000000E+01
3300000000.000000      2.298965000000000E-01      7.026562000000000E+01      4.158630000000000E-01     -4.453906000000000E+01
3320000000.000000      2.242966000000000E-01      5.508398000000000E+01      4.194946000000000E-01     -7.232812000000000E+01
3340000000.000000      2.078629000000000E-01      4.236524000000000E+01      4.250488000000000E-01     -1.008594000000000E+02
3360000000.000000      1.842804000000000E-01      3.327734000000000E+01      4.262543000000000E-01     -1.293750000000000E+02
3380000000.000000      1.606293000000000E-01      2.871777000000000E+01      4.313812000000000E-01     -1.575312000000000E+02
3400000000.000000      1.415253000000000E-01      2.691504000000000E+01      4.323730000000000E-01      1.735859000000000E+02
3420000000.000000      1.281662000000000E-01      2.672363000000000E+01      4.332275000000000E-01      1.450703000000000E+02
3440000000.000000      1.163101000000000E-01      2.642578000000000E+01      4.317932000000000E-01      1.162656000000000E+02
3460000000.000000      1.043396000000000E-01      2.760644000000000E+01      4.303436000000000E-01      8.785547000000000E+01
3480000000.000000      9.706879000000000E-02      2.987695000000000E+01      4.309998000000000E-01      5.900000000000000E+01
3500000000.000000      9.370804000000000E-02      3.378711000000000E+01      4.266510000000000E-01      3.005566000000000E+01
3520000000.000000      9.241104000000000E-02      3.700586000000000E+01      4.229584000000000E-01      1.763306000000000E+00
3540000000.000000      9.279633000000000E-02      4.034180000000000E+01      4.261017000000000E-01     -2.668750000000000E+01
3560000000.000000      9.492111000000000E-02      4.586914000000000E+01      4.275970000000000E-01     -5.582421000000000E+01
3580000000.000000      1.021729000000000E-01      5.075195000000000E+01      4.264069000000000E-01     -8.462500000000000E+01
3600000000.000000      1.159973000000000E-01      5.212695000000000E+01      4.263153000000000E-01     -1.128789000000000E+02
3620000000.000000      1.289749000000000E-01      4.903125000000000E+01      4.275208000000000E-01     -1.410547000000000E+02
3640000000.000000      1.341324000000000E-01      4.275586000000000E+01      4.278107000000000E-01     -1.694375000000000E+02
3660000000.000000      1.289825000000000E-01      3.590429000000000E+01      4.259033000000000E-01      1.628750000000000E+02
3680000000.000000      1.158600000000000E-01      3.265234000000000E+01      4.302521000000000E-01      1.349844000000000E+02
3700000000.000000      1.029701000000000E-01      3.662304000000000E+01      4.312286000000000E-01      1.066094000000000E+02
3720000000.000000      1.050415000000000E-01      4.568359000000000E+01      4.304199000000000E-01      7.802343000000000E+01
3740000000.000000      1.230774000000000E-01      4.947656000000000E+01      4.236298000000000E-01      4.956249000000000E+01
3760000000.000000      1.416016000000000E-01      4.582617000000000E+01      4.175720000000000E-01      2.153125000000000E+01
3780000000.000000      1.481094000000000E-01      3.810351000000000E+01      4.166260000000000E-01     -6.190918000000000E+00
3800000000.000000      1.409378000000000E-01      3.086816000000000E+01      4.185944000000000E-01     -3.470312000000000E+01
3820000000.000000      1.220245000000000E-01      2.795312000000000E+01      4.188995000000000E-01     -6.340038000000000E+01
3840000000.000000      1.088066000000000E-01      3.349414000000000E+01      4.177246000000000E-01     -9.262499000000000E+01
3860000000.000000      1.141243000000000E-01      4.162695000000000E+01      4.176178000000000E-01     -1.213750000000000E+02
3880000000.000000      1.323471000000000E-01      4.269336000000000E+01      4.146423000000000E-01     -1.503047000000000E+02
3900000000.000000      1.460571000000000E-01      3.671093000000000E+01      4.064026000000000E-01     -1.786172000000000E+02
3920000000.000000      1.430817000000000E-01      2.900781000000000E+01      4.077148000000000E-01      1.541641000000000E+02
3940000000.000000      1.243248000000000E-01      2.575390000000000E+01      4.157715000000000E-01      1.254180000000000E+02
3960000000.000000      1.069412000000000E-01      3.305469000000000E+01      4.149017000000000E-01      9.630468000000000E+01
3980000000.000000      1.155396000000000E-01      4.679296000000000E+01      4.055328000000000E-01      6.763281000000000E+01
4000000000.000000      1.483688000000000E-01      4.915429000000000E+01      3.996429000000000E-01      4.064258000000000E+01
4020000000.000000      1.811829000000000E-01      4.130273000000000E+01      4.069672000000000E-01      1.281396000000000E+01
4040000000.000000      1.989288000000000E-01      2.822461000000000E+01      4.068146000000000E-01     -1.727637000000000E+01
4060000000.000000      1.920013000000000E-01      1.424609000000000E+01      3.925629000000000E-01     -4.597852000000000E+01
4080000000.000000      1.621933000000000E-01      9.489441000000000E-01      3.910217000000000E-01     -7.268749000000000E+01
4100000000.000000      1.158333000000000E-01     -6.291260000000000E+00      4.020844000000000E-01     -1.016797000000000E+02
4120000000.000000      7.338333000000000E-02      5.931152000000000E+00      4.014130000000000E-01     -1.316484000000000E+02
4140000000.000000      7.439804000000000E-02      3.553320000000000E+01      3.950806000000000E-01     -1.602969000000000E+02
4160000000.000000      9.921265000000000E-02      4.364062000000000E+01      3.978271000000000E-01      1.716953000000000E+02
4180000000.000000      1.164169000000000E-01      3.994726000000000E+01      4.049072000000000E-01      1.431328000000000E+02
4200000000.000000      1.171951000000000E-01      3.648828000000000E+01      4.053802000000000E-01      1.128594000000000E+02
4220000000.000000      1.152306000000000E-01      3.907617000000000E+01      3.982239000000000E-01      8.390625000000000E+01
4240000000.000000      1.252670000000000E-01      4.567968000000000E+01      3.914642000000000E-01      5.567773000000000E+01
4260000000.000000      1.510849000000000E-01      4.741796000000000E+01      3.868713000000000E-01      2.748828000000000E+01
4280000000.000000      1.775665000000000E-01      4.239648000000000E+01      3.867493000000000E-01     -8.528137000000000E-01
4300000000.000000      1.925507000000000E-01      3.407031000000000E+01      3.841858000000000E-01     -2.979687000000000E+01
4320000000.000000      1.915207000000000E-01      2.567773000000000E+01      3.816681000000000E-01     -5.857226000000000E+01
4340000000.000000      1.769638000000000E-01      2.020215000000000E+01      3.795319000000000E-01     -8.753515000000000E+01
4360000000.000000      1.635666000000000E-01      1.947656000000000E+01      3.794250000000000E-01     -1.168203000000000E+02
4380000000.000000      1.634521000000000E-01      2.218750000000000E+01      3.780975000000000E-01     -1.462969000000000E+02
4400000000.000000      1.748428000000000E-01      2.185254000000000E+01      3.742828000000000E-01     -1.753515000000000E+02
4420000000.000000      1.847076000000000E-01      1.748535000000000E+01      3.755188000000000E-01      1.559766000000000E+02
4440000000.000000      1.816788000000000E-01      1.154492000000000E+01      3.777771000000000E-01      1.263750000000000E+02
4460000000.000000      1.638947000000000E-01      8.501953000000000E+00      3.707733000000000E-01      9.669922000000000E+01
4480000000.000000      1.459122000000000E-01      1.256836000000000E+01      3.666687000000000E-01      6.819921000000000E+01
4500000000.000000      1.492310000000000E-01      2.166602000000000E+01      3.676147000000000E-01      3.958203000000000E+01
4520000000.000000      1.752243000000000E-01      2.545312000000000E+01      3.623352000000000E-01      1.008789000000000E+01
4540000000.000000      2.062759000000000E-01      2.094922000000000E+01      3.532104000000000E-01     -1.928418000000000E+01
4560000000.000000      2.254028000000000E-01      1.260107000000000E+01      3.461609000000000E-01     -4.773046000000000E+01
4580000000.000000      2.297745000000000E-01      3.681763000000000E+00      3.488312000000000E-01     -7.700781000000000E+01
4600000000.000000      2.213974000000000E-01     -3.409912000000000E+00      3.452148000000000E-01     -1.073281000000000E+02
4620000000.000000      2.092133000000000E-01     -7.477783000000000E+00      3.391418000000000E-01     -1.369375000000000E+02
4640000000.000000      2.033463000000000E-01     -9.625488000000000E+00      3.395691000000000E-01     -1.664844000000000E+02
4660000000.000000      2.036514000000000E-01     -1.252344000000000E+01      3.396759000000000E-01      1.645000000000000E+02
4680000000.000000      2.041321000000000E-01     -1.783398000000000E+01      3.441467000000000E-01      1.353906000000000E+02
4700000000.000000      1.969833000000000E-01     -2.491211000000000E+01      3.435211000000000E-01      1.059180000000000E+02
4720000000.000000      1.807175000000000E-01     -3.204883000000000E+01      3.410492000000000E-01      7.805078000000000E+01
4740000000.000000      1.602859000000000E-01     -3.866601000000000E+01      3.467255000000000E-01      5.046679000000000E+01
4760000000.000000      1.355820000000000E-01     -4.386328000000000E+01      3.476410000000000E-01      2.167969000000000E+01
4780000000.000000      1.097527000000000E-01     -4.847461000000000E+01      3.440399000000000E-01     -6.774658000000000E+00
4800000000.000000      7.747269000000000E-02     -5.281640000000000E+01      3.393097000000000E-01     -3.530468000000000E+01
4820000000.000000      3.450012000000000E-02     -4.659180000000000E+01      3.312378000000000E-01     -6.437500000000000E+01
4840000000.000000      3.690147000000000E-02      5.893945000000000E+01      3.244324000000000E-01     -9.345312000000000E+01
4860000000.000000      1.041565000000000E-01      6.184960000000000E+01      3.167419000000000E-01     -1.241367000000000E+02
4880000000.000000      1.733017000000000E-01      4.835155000000000E+01      2.971954000000000E-01     -1.554609000000000E+02
4900000000.000000      2.317429000000000E-01      3.247851000000000E+01      2.745056000000000E-01      1.768906000000000E+02
4920000000.000000      2.727203000000000E-01      1.606934000000000E+01      2.750397000000000E-01      1.515625000000000E+02
4940000000.000000      2.923431000000000E-01      8.102417000000000E-02      2.892914000000000E-01      1.229219000000000E+02
4960000000.000000      2.885437000000000E-01     -1.504590000000000E+01      2.938080000000000E-01      9.312891000000000E+01
4980000000.000000      2.614594000000000E-01     -2.859668000000000E+01      2.997284000000000E-01      6.604687000000000E+01
5000000000.000000      2.174911000000000E-01     -3.844727000000000E+01      3.150177000000000E-01      3.869531000000000E+01
5020000000.000000      1.706543000000000E-01     -4.072656000000000E+01      3.253479000000000E-01      1.058789000000000E+01
5040000000.000000      1.422577000000000E-01     -3.293164000000000E+01      3.329163000000000E-01     -1.663281000000000E+01
5060000000.000000      1.450806000000000E-01     -2.313086000000000E+01      3.404083000000000E-01     -4.373828000000000E+01
5080000000.000000      1.616364000000000E-01     -2.030468000000000E+01      3.454132000000000E-01     -7.201562000000000E+01
5100000000.000000      1.744461000000000E-01     -2.283301000000000E+01      3.394318000000000E-01     -1.004219000000000E+02
5120000000.000000      1.793289000000000E-01     -2.632519000000000E+01      3.329773000000000E-01     -1.278750000000000E+02
5140000000.000000      1.815338000000000E-01     -2.908789000000000E+01      3.313751000000000E-01     -1.561250000000000E+02
5160000000.000000      1.848907000000000E-01     -3.162304000000000E+01      3.274231000000000E-01      1.744922000000000E+02
5180000000.000000      1.888275000000000E-01     -3.505468000000000E+01      3.234558000000000E-01      1.446953000000000E+02
5200000000.000000      1.909790000000000E-01     -3.989648000000000E+01      3.222504000000000E-01      1.145039000000000E+02
5220000000.000000      1.859283000000000E-01     -4.443749000000000E+01      3.236084000000000E-01      8.460546000000000E+01
5240000000.000000      1.756744000000000E-01     -4.709570000000000E+01      3.286133000000000E-01      5.495507000000000E+01
5260000000.000000      1.680603000000000E-01     -4.726563000000000E+01      3.339081000000000E-01      2.520117000000000E+01
5280000000.000000      1.652832000000000E-01     -4.579687000000000E+01      3.390656000000000E-01     -3.746338000000000E+00
5300000000.000000      1.705551000000000E-01     -4.611524000000000E+01      3.418427000000000E-01     -3.172363000000000E+01
5320000000.000000      1.746826000000000E-01     -4.883398000000000E+01      3.460083000000000E-01     -5.874609000000000E+01
5340000000.000000      1.722412000000000E-01     -5.275000000000000E+01      3.504333000000000E-01     -8.637499000000000E+01
5360000000.000000      1.650925000000000E-01     -5.596484000000000E+01      3.453064000000000E-01     -1.138164000000000E+02
5380000000.000000      1.590347000000000E-01     -5.677734000000000E+01      3.397522000000000E-01     -1.402422000000000E+02
5400000000.000000      1.596146000000000E-01     -5.582812000000000E+01      3.387299000000000E-01     -1.676953000000000E+02
5420000000.000000      1.699982000000000E-01     -5.598242000000000E+01      3.320160000000000E-01      1.639688000000000E+02
5440000000.000000      1.818161000000000E-01     -5.927148000000000E+01      3.253632000000000E-01      1.347109000000000E+02
5460000000.000000      1.877365000000000E-01     -6.548046000000000E+01      3.155975000000000E-01      1.048164000000000E+02
5480000000.000000      1.818695000000000E-01     -7.286718000000000E+01      3.094177000000000E-01      7.524609000000000E+01
5500000000.000000      1.633987000000000E-01     -7.910937000000000E+01      3.119507000000000E-01      4.562500000000000E+01
5520000000.000000      1.400070000000000E-01     -8.236328000000000E+01      3.148499000000000E-01      1.531055000000000E+01
5540000000.000000      1.203156000000000E-01     -8.147655000000000E+01      3.193054000000000E-01     -1.445020000000000E+01
5560000000.000000      1.078568000000000E-01     -7.751171000000000E+01      3.257141000000000E-01     -4.328906000000000E+01
5580000000.000000      1.024017000000000E-01     -7.229687000000000E+01      3.324738000000000E-01     -7.175390000000000E+01
5600000000.000000      1.001091000000000E-01     -6.643359000000000E+01      3.380432000000000E-01     -9.949999000000000E+01
5620000000.000000      1.044579000000000E-01     -5.862695000000000E+01      3.394318000000000E-01     -1.272148000000000E+02
5640000000.000000      1.199341000000000E-01     -5.183788000000000E+01      3.377228000000000E-01     -1.546641000000000E+02
5660000000.000000      1.455078000000000E-01     -5.154491000000000E+01      3.303680000000000E-01      1.781406000000000E+02
5680000000.000000      1.726990000000000E-01     -5.752343000000000E+01      3.223114000000000E-01      1.501172000000000E+02
5700000000.000000      1.907501000000000E-01     -6.805078000000000E+01      3.086548000000000E-01      1.217812000000000E+02
5720000000.000000      1.928329000000000E-01     -8.048828000000000E+01      2.948303000000000E-01      9.424608000000000E+01
5740000000.000000      1.771011000000000E-01     -9.282812000000000E+01      2.900848000000000E-01      6.532812000000000E+01
5760000000.000000      1.484222000000000E-01     -1.022734000000000E+02      2.857361000000000E-01      3.410742000000000E+01
5780000000.000000      1.162376000000000E-01     -1.039101000000000E+02      2.817078000000000E-01      3.530640000000000E+00
5800000000.000000      9.905243000000000E-02     -9.502344000000000E+01      2.838135000000000E-01     -2.675879000000000E+01
5820000000.000000      1.035309000000000E-01     -8.670702000000000E+01      2.915955000000000E-01     -5.700976000000000E+01
5840000000.000000      1.148720000000000E-01     -8.907030000000000E+01      3.016357000000000E-01     -8.725389000000000E+01
5860000000.000000      1.168785000000000E-01     -9.722656000000000E+01      3.030701000000000E-01     -1.163828000000000E+02
5880000000.000000      1.070557000000000E-01     -1.073945000000000E+02      3.042450000000000E-01     -1.431562000000000E+02
5900000000.000000      8.865356000000000E-02     -1.143711000000000E+02      3.141327000000000E-01     -1.698828000000000E+02
5920000000.000000      7.046890000000000E-02     -1.124687000000000E+02      3.185577000000000E-01      1.622890000000000E+02
5940000000.000000      6.380844000000000E-02     -1.028516000000000E+02      3.124084000000000E-01      1.338828000000000E+02
5960000000.000000      6.225777000000000E-02     -9.930468000000000E+01      2.967072000000000E-01      1.065156000000000E+02
5980000000.000000      5.270576000000000E-02     -9.952343000000000E+01      2.866364000000000E-01      7.939453000000000E+01
6000000000.000000      3.223228000000000E-02     -8.504297000000000E+01      2.799683000000000E-01      4.994335000000000E+01
6020000000.000000      3.426743000000000E-02     -2.508594000000000E+01      2.670288000000000E-01      1.890039000000000E+01
6040000000.000000      7.003403000000000E-02     -1.269482000000000E+01      2.536469000000000E-01     -1.161426000000000E+01
6060000000.000000      1.062546000000000E-01     -2.168359000000000E+01      2.499008000000000E-01     -4.211523000000000E+01
6080000000.000000      1.323853000000000E-01     -3.616992000000000E+01      2.568970000000000E-01     -7.289063000000000E+01
