! Network Analyzer HP8722D
! Hewlett-Packard
! Data name: Linha & Wilkinson
! Saver's name: Rodrigo Anjos
! Comments: Teste da utilização de aquisição
continua pelo VNA HP8722D
! Time and date: 3/9/2025 19:45
!              Frequency                     S11                                                   S21                                                   S12                                                   S22
# HZ  S  MA R 50
3000000000.000000      7.743454000000000E-02      8.728907000000000E+01      4.584198000000000E-01      2.451855000000000E+01
3020000000.000000      9.392929000000000E-02      7.266796000000000E+01      4.584503000000000E-01     -4.228516000000000E+00
3040000000.000000      9.526062000000000E-02      5.628320000000000E+01      4.585724000000000E-01     -3.347265000000000E+01
3060000000.000000      8.297348000000000E-02      4.125781000000000E+01      4.556427000000000E-01     -6.184570000000000E+01
3080000000.000000      6.256866000000000E-02      3.069921000000000E+01      4.556580000000000E-01     -9.041407000000000E+01
3100000000.000000      4.442787000000000E-02      3.095996000000000E+01      4.548187000000000E-01     -1.187656000000000E+02
3120000000.000000      3.816032000000000E-02      4.453515000000000E+01      4.527893000000000E-01     -1.475937000000000E+02
3140000000.000000      3.773689000000000E-02      4.895702000000000E+01      4.470978000000000E-01     -1.759219000000000E+02
3160000000.000000      2.950954000000000E-02      4.896874000000000E+01      4.443665000000000E-01      1.556172000000000E+02
3180000000.000000      1.644230000000000E-02      9.896484000000000E+01      4.431000000000000E-01      1.268437000000000E+02
3200000000.000000      4.800224000000000E-02      1.453984000000000E+02      4.378815000000000E-01      9.733593000000000E+01
3220000000.000000      1.000252000000000E-01      1.371406000000000E+02      4.242249000000000E-01      6.800781000000000E+01
3240000000.000000      1.512756000000000E-01      1.217305000000000E+02      4.145813000000000E-01      4.077148000000000E+01
3260000000.000000      1.928024000000000E-01      1.046758000000000E+02      4.172211000000000E-01      1.333301000000000E+01
3280000000.000000      2.198257000000000E-01      8.729296000000000E+01      4.219208000000000E-01     -1.581934000000000E+01
3300000000.000000      2.297287000000000E-01      7.034765000000000E+01      4.149933000000000E-01     -4.438086000000000E+01
3320000000.000000      2.243958000000000E-01      5.503320000000000E+01      4.191895000000000E-01     -7.208984000000000E+01
3340000000.000000      2.080841000000000E-01      4.239453000000000E+01      4.250183000000000E-01     -1.008711000000000E+02
3360000000.000000      1.840439000000000E-01      3.330273000000000E+01      4.259644000000000E-01     -1.292266000000000E+02
3380000000.000000      1.606445000000000E-01      2.870800000000000E+01      4.313507000000000E-01     -1.575938000000000E+02
3400000000.000000      1.414871000000000E-01      2.704102000000000E+01      4.327240000000000E-01      1.737578000000000E+02
3420000000.000000      1.278000000000000E-01      2.686523000000000E+01      4.341431000000000E-01      1.450312000000000E+02
3440000000.000000      1.160355000000000E-01      2.643945000000000E+01      4.325714000000000E-01      1.162187000000000E+02
3460000000.000000      1.044388000000000E-01      2.741308000000000E+01      4.287567000000000E-01      8.782812000000000E+01
3480000000.000000      9.720230000000000E-02      3.004980000000000E+01      4.306488000000000E-01      5.904687000000000E+01
3500000000.000000      9.332657000000000E-02      3.358984000000000E+01      4.265747000000000E-01      3.004590000000000E+01
3520000000.000000      9.241486000000000E-02      3.693945000000000E+01      4.226990000000000E-01      1.778381000000000E+00
3540000000.000000      9.260559000000000E-02      4.034765000000000E+01      4.265442000000000E-01     -2.657129000000000E+01
3560000000.000000      9.470749000000000E-02      4.584180000000000E+01      4.278412000000000E-01     -5.582031000000000E+01
3580000000.000000      1.020203000000000E-01      5.090820000000000E+01      4.269257000000000E-01     -8.464453000000000E+01
3600000000.000000      1.159973000000000E-01      5.220703000000000E+01      4.270020000000000E-01     -1.127461000000000E+02
3620000000.000000      1.291275000000000E-01      4.888085000000000E+01      4.279480000000000E-01     -1.408437000000000E+02
3640000000.000000      1.343384000000000E-01      4.268555000000000E+01      4.277344000000000E-01     -1.692891000000000E+02
3660000000.000000      1.290131000000000E-01      3.585351000000000E+01      4.266663000000000E-01      1.627578000000000E+02
3680000000.000000      1.158180000000000E-01      3.286328000000000E+01      4.291992000000000E-01      1.351250000000000E+02
3700000000.000000      1.035347000000000E-01      3.661718000000000E+01      4.308167000000000E-01      1.064961000000000E+02
3720000000.000000      1.051254000000000E-01      4.581250000000000E+01      4.296875000000000E-01      7.814062000000000E+01
3740000000.000000      1.232491000000000E-01      4.948242000000000E+01      4.229584000000000E-01      4.940234000000000E+01
3760000000.000000      1.416397000000000E-01      4.581640000000000E+01      4.164581000000000E-01      2.154687000000000E+01
3780000000.000000      1.483688000000000E-01      3.814062000000000E+01      4.176331000000000E-01     -6.023438000000000E+00
3800000000.000000      1.407928000000000E-01      3.083789000000000E+01      4.177551000000000E-01     -3.475000000000000E+01
3820000000.000000      1.219025000000000E-01      2.798535000000000E+01      4.179535000000000E-01     -6.348046000000000E+01
3840000000.000000      1.084023000000000E-01      3.325390000000000E+01      4.170380000000000E-01     -9.250000000000000E+01
3860000000.000000      1.137657000000000E-01      4.139648000000000E+01      4.169006000000000E-01     -1.213515000000000E+02
3880000000.000000      1.325302000000000E-01      4.273242000000000E+01      4.137726000000000E-01     -1.503750000000000E+02
3900000000.000000      1.459427000000000E-01      3.662109000000000E+01      4.066772000000000E-01     -1.788203000000000E+02
3920000000.000000      1.428070000000000E-01      2.917773000000000E+01      4.068146000000000E-01      1.541016000000000E+02
3940000000.000000      1.244659000000000E-01      2.549609000000000E+01      4.158783000000000E-01      1.256328000000000E+02
3960000000.000000      1.070137000000000E-01      3.296679000000000E+01      4.154358000000000E-01      9.639061000000000E+01
3980000000.000000      1.154671000000000E-01      4.663086000000000E+01      4.054718000000000E-01      6.778515000000000E+01
4000000000.000000      1.483994000000000E-01      4.934179000000000E+01      4.001923000000000E-01      4.050586000000000E+01
4020000000.000000      1.811523000000000E-01      4.127930000000000E+01      4.057159000000000E-01      1.291162000000000E+01
4040000000.000000      1.990204000000000E-01      2.821680000000000E+01      4.065247000000000E-01     -1.727539000000000E+01
4060000000.000000      1.923218000000000E-01      1.427393000000000E+01      3.926697000000000E-01     -4.582421000000000E+01
4080000000.000000      1.621170000000000E-01      9.873962000000000E-01      3.915253000000000E-01     -7.270702000000000E+01
4100000000.000000      1.153946000000000E-01     -6.240234000000000E+00      4.001617000000000E-01     -1.013867000000000E+02
4120000000.000000      7.350159000000000E-02      5.747070000000000E+00      3.997040000000000E-01     -1.314609000000000E+02
4140000000.000000      7.482147000000000E-02      3.543750000000000E+01      3.951111000000000E-01     -1.603750000000000E+02
4160000000.000000      9.939575000000000E-02      4.355273000000000E+01      3.968048000000000E-01      1.717969000000000E+02
4180000000.000000      1.160889000000000E-01      4.000586000000000E+01      4.036102000000000E-01      1.432500000000000E+02
4200000000.000000      1.173325000000000E-01      3.648828000000000E+01      4.043121000000000E-01      1.130234000000000E+02
4220000000.000000      1.149864000000000E-01      3.892578000000000E+01      3.983917000000000E-01      8.397655000000000E+01
4240000000.000000      1.250763000000000E-01      4.574414000000000E+01      3.913879000000000E-01      5.559765000000000E+01
4260000000.000000      1.511536000000000E-01      4.740820000000000E+01      3.871460000000000E-01      2.750977000000000E+01
4280000000.000000      1.773987000000000E-01      4.245507000000000E+01      3.863678000000000E-01     -9.146118000000000E-01
4300000000.000000      1.929169000000000E-01      3.408594000000000E+01      3.837738000000000E-01     -2.977441000000000E+01
4320000000.000000      1.910400000000000E-01      2.572656000000000E+01      3.811340000000000E-01     -5.850586000000000E+01
4340000000.000000      1.772232000000000E-01      1.995312000000000E+01      3.792572000000000E-01     -8.751171000000000E+01
4360000000.000000      1.635666000000000E-01      1.949219000000000E+01      3.776855000000000E-01     -1.168086000000000E+02
4380000000.000000      1.634598000000000E-01      2.218359000000000E+01      3.776093000000000E-01     -1.461172000000000E+02
4400000000.000000      1.748352000000000E-01      2.185449000000000E+01      3.722992000000000E-01     -1.754844000000000E+02
4420000000.000000      1.847229000000000E-01      1.748730000000000E+01      3.755646000000000E-01      1.558984000000000E+02
4440000000.000000      1.813736000000000E-01      1.152979000000000E+01      3.779297000000000E-01      1.263125000000000E+02
4460000000.000000      1.643448000000000E-01      8.585449000000000E+00      3.692474000000000E-01      9.678123000000000E+01
4480000000.000000      1.455078000000000E-01      1.265186000000000E+01      3.676453000000000E-01      6.851563000000000E+01
4500000000.000000      1.487961000000000E-01      2.159863000000000E+01      3.667755000000000E-01      3.955664000000000E+01
4520000000.000000      1.752777000000000E-01      2.546289000000000E+01      3.625793000000000E-01      1.011523000000000E+01
4540000000.000000      2.059326000000000E-01      2.090332000000000E+01      3.526764000000000E-01     -1.940625000000000E+01
4560000000.000000      2.257767000000000E-01      1.264355000000000E+01      3.453369000000000E-01     -4.768359000000000E+01
4580000000.000000      2.299347000000000E-01      3.591064000000000E+00      3.496094000000000E-01     -7.700781000000000E+01
4600000000.000000      2.212143000000000E-01     -3.547241000000000E+00      3.455353000000000E-01     -1.074453000000000E+02
4620000000.000000      2.090225000000000E-01     -7.461182000000000E+00      3.396606000000000E-01     -1.370312000000000E+02
4640000000.000000      2.035522000000000E-01     -9.535156000000000E+00      3.388977000000000E-01     -1.662734000000000E+02
4660000000.000000      2.036667000000000E-01     -1.252197000000000E+01      3.387146000000000E-01      1.646484000000000E+02
4680000000.000000      2.041092000000000E-01     -1.773828000000000E+01      3.432617000000000E-01      1.354375000000000E+02
4700000000.000000      1.969604000000000E-01     -2.486523000000000E+01      3.431091000000000E-01      1.057851000000000E+02
4720000000.000000      1.807404000000000E-01     -3.204297000000000E+01      3.408661000000000E-01      7.804688000000000E+01
4740000000.000000      1.594391000000000E-01     -3.853516000000000E+01      3.475647000000000E-01      5.037890000000000E+01
4760000000.000000      1.355743000000000E-01     -4.375196000000000E+01      3.476410000000000E-01      2.177051000000000E+01
4780000000.000000      1.098480000000000E-01     -4.835351000000000E+01      3.442993000000000E-01     -6.748535000000000E+00
4800000000.000000      7.715225000000000E-02     -5.256640000000000E+01      3.395538000000000E-01     -3.522656000000000E+01
4820000000.000000      3.379631000000000E-02     -4.712695000000000E+01      3.315887000000000E-01     -6.428124000000000E+01
4840000000.000000      3.699875000000000E-02      5.916797000000000E+01      3.240356000000000E-01     -9.332031000000000E+01
4860000000.000000      1.036148000000000E-01      6.164648000000000E+01      3.166199000000000E-01     -1.242734000000000E+02
4880000000.000000      1.730270000000000E-01      4.840625000000000E+01      2.969513000000000E-01     -1.555156000000000E+02
4900000000.000000      2.314606000000000E-01      3.262304000000000E+01      2.746582000000000E-01      1.769766000000000E+02
4920000000.000000      2.724457000000000E-01      1.575146000000000E+01      2.750092000000000E-01      1.514297000000000E+02
4940000000.000000      2.922211000000000E-01      1.771545000000000E-01      2.893524000000000E-01      1.228945000000000E+02
4960000000.000000      2.882690000000000E-01     -1.501855000000000E+01      2.940674000000000E-01      9.310938000000000E+01
4980000000.000000      2.615051000000000E-01     -2.858789000000000E+01      3.000183000000000E-01      6.593359000000000E+01
5000000000.000000      2.172928000000000E-01     -3.846875000000000E+01      3.146362000000000E-01      3.869141000000000E+01
5020000000.000000      1.704865000000000E-01     -4.060937000000000E+01      3.250427000000000E-01      1.051904000000000E+01
5040000000.000000      1.422882000000000E-01     -3.293164000000000E+01      3.327179000000000E-01     -1.657617000000000E+01
5060000000.000000      1.450500000000000E-01     -2.318262000000000E+01      3.403320000000000E-01     -4.372266000000000E+01
5080000000.000000      1.613617000000000E-01     -2.029883000000000E+01      3.445129000000000E-01     -7.193749000000000E+01
5100000000.000000      1.742554000000000E-01     -2.277930000000000E+01      3.392944000000000E-01     -1.004883000000000E+02
5120000000.000000      1.794434000000000E-01     -2.621094000000000E+01      3.332214000000000E-01     -1.277734000000000E+02
5140000000.000000      1.815262000000000E-01     -2.897656000000000E+01      3.306732000000000E-01     -1.562422000000000E+02
5160000000.000000      1.845856000000000E-01     -3.159668000000000E+01      3.273468000000000E-01      1.744062000000000E+02
5180000000.000000      1.889038000000000E-01     -3.512500000000000E+01      3.242035000000000E-01      1.445078000000000E+02
5200000000.000000      1.904907000000000E-01     -3.996484000000000E+01      3.227539000000000E-01      1.145273000000000E+02
5220000000.000000      1.853333000000000E-01     -4.439843000000000E+01      3.227997000000000E-01      8.468359000000000E+01
5240000000.000000      1.755066000000000E-01     -4.715429000000000E+01      3.279724000000000E-01      5.494922000000000E+01
5260000000.000000      1.678314000000000E-01     -4.726367000000000E+01      3.339233000000000E-01      2.524511000000000E+01
5280000000.000000      1.655350000000000E-01     -4.584180000000000E+01      3.385773000000000E-01     -3.802734000000000E+00
5300000000.000000      1.704559000000000E-01     -4.625000000000000E+01      3.418427000000000E-01     -3.184961000000000E+01
5320000000.000000      1.742172000000000E-01     -4.899804000000000E+01      3.460999000000000E-01     -5.867188000000000E+01
5340000000.000000      1.720352000000000E-01     -5.284570000000000E+01      3.506012000000000E-01     -8.635546000000000E+01
5360000000.000000      1.651306000000000E-01     -5.598242000000000E+01      3.452759000000000E-01     -1.137773000000000E+02
5380000000.000000      1.587296000000000E-01     -5.659180000000000E+01      3.402710000000000E-01     -1.401328000000000E+02
5400000000.000000      1.594391000000000E-01     -5.585351000000000E+01      3.391113000000000E-01     -1.678125000000000E+02
5420000000.000000      1.699600000000000E-01     -5.592968000000000E+01      3.314514000000000E-01      1.640078000000000E+02
5440000000.000000      1.816635000000000E-01     -5.920898000000000E+01      3.263245000000000E-01      1.348047000000000E+02
5460000000.000000      1.876221000000000E-01     -6.566796000000000E+01      3.150482000000000E-01      1.048320000000000E+02
5480000000.000000      1.818542000000000E-01     -7.270312000000000E+01      3.091736000000000E-01      7.530468000000000E+01
5500000000.000000      1.637650000000000E-01     -7.899219000000000E+01      3.117981000000000E-01      4.555078000000000E+01
5520000000.000000      1.398849000000000E-01     -8.261719000000000E+01      3.146362000000000E-01      1.528174000000000E+01
5540000000.000000      1.202469000000000E-01     -8.144922000000000E+01      3.192902000000000E-01     -1.439941000000000E+01
5560000000.000000      1.081734000000000E-01     -7.734765000000000E+01      3.255768000000000E-01     -4.328125000000000E+01
5580000000.000000      1.022835000000000E-01     -7.244922000000000E+01      3.326416000000000E-01     -7.169922000000000E+01
5600000000.000000      1.005020000000000E-01     -6.642187000000000E+01      3.378143000000000E-01     -9.951561000000000E+01
5620000000.000000      1.044083000000000E-01     -5.854297000000000E+01      3.397675000000000E-01     -1.272812000000000E+02
5640000000.000000      1.198082000000000E-01     -5.208008000000000E+01      3.369293000000000E-01     -1.547266000000000E+02
5660000000.000000      1.458359000000000E-01     -5.156640000000000E+01      3.305054000000000E-01      1.781875000000000E+02
5680000000.000000      1.725235000000000E-01     -5.748437000000000E+01      3.216705000000000E-01      1.502812000000000E+02
5700000000.000000      1.908798000000000E-01     -6.786718000000000E+01      3.086700000000000E-01      1.219297000000000E+02
5720000000.000000      1.933746000000000E-01     -8.049608000000000E+01      2.949219000000000E-01      9.410156000000000E+01
5740000000.000000      1.774826000000000E-01     -9.288280000000000E+01      2.899323000000000E-01      6.523438000000000E+01
5760000000.000000      1.482620000000000E-01     -1.022539000000000E+02      2.859192000000000E-01      3.431836000000000E+01
5780000000.000000      1.162910000000000E-01     -1.037109000000000E+02      2.819824000000000E-01      3.551270000000000E+00
5800000000.000000      9.883118000000000E-02     -9.480078000000000E+01      2.843018000000000E-01     -2.682129000000000E+01
5820000000.000000      1.034737000000000E-01     -8.668749000000000E+01      2.917633000000000E-01     -5.693164000000000E+01
5840000000.000000      1.148262000000000E-01     -8.885546000000000E+01      3.014069000000000E-01     -8.720312000000000E+01
5860000000.000000      1.168404000000000E-01     -9.696093000000000E+01      3.037720000000000E-01     -1.163125000000000E+02
5880000000.000000      1.071663000000000E-01     -1.075352000000000E+02      3.051605000000000E-01     -1.430781000000000E+02
5900000000.000000      8.892822000000000E-02     -1.146484000000000E+02      3.144989000000000E-01     -1.698281000000000E+02
5920000000.000000      7.036591000000000E-02     -1.126406000000000E+02      3.184662000000000E-01      1.622734000000000E+02
5940000000.000000      6.346130000000000E-02     -1.031641000000000E+02      3.120575000000000E-01      1.339297000000000E+02
5960000000.000000      6.233215000000000E-02     -9.926952000000000E+01      2.969208000000000E-01      1.063515000000000E+02
5980000000.000000      5.248833000000000E-02     -9.940624000000000E+01      2.867126000000000E-01      7.936718000000000E+01
6000000000.000000      3.237343000000000E-02     -8.500000000000000E+01      2.798920000000000E-01      5.005664000000000E+01
6020000000.000000      3.396988000000000E-02     -2.569629000000000E+01      2.675171000000000E-01      1.907227000000000E+01
6040000000.000000      7.065201000000000E-02     -1.286670000000000E+01      2.540894000000000E-01     -1.165674000000000E+01
6060000000.000000      1.063385000000000E-01     -2.196777000000000E+01      2.496796000000000E-01     -4.206640000000000E+01
6080000000.000000      1.325531000000000E-01     -3.618359000000000E+01      2.563629000000000E-01     -7.280468000000000E+01
