! Network Analyzer HP8722D
! Hewlett-Packard
! Data name: Linha & Wilkinson
! Saver's name: Rodrigo Anjos
! Comments: Teste da utilização de aquisição
continua pelo VNA HP8722D
! Time and date: 3/9/2025 17:34
!              Frequency                     S11                                                   S21                                                   S12                                                   S22
# HZ  S  MA R 50
3000000000.000000      7.604980000000000E-02      8.714844000000000E+01      4.537659000000000E-01      2.556836000000000E+01
3020000000.000000      9.318161000000000E-02      7.282031000000000E+01      4.555359000000000E-01     -3.269897000000000E+00
3040000000.000000      9.521484000000000E-02      5.649023000000000E+01      4.547882000000000E-01     -3.225195000000000E+01
3060000000.000000      8.365631000000000E-02      4.091992000000000E+01      4.515533000000000E-01     -6.082226000000000E+01
3080000000.000000      6.432343000000000E-02      3.015429000000000E+01      4.527893000000000E-01     -8.928905000000000E+01
3100000000.000000      4.533195000000000E-02      2.975488000000000E+01      4.512939000000000E-01     -1.177422000000000E+02
3120000000.000000      3.862190000000000E-02      4.282617000000000E+01      4.494171000000000E-01     -1.463281000000000E+02
3140000000.000000      3.781509000000000E-02      4.792188000000000E+01      4.451752000000000E-01     -1.749609000000000E+02
3160000000.000000      3.042030000000000E-02      4.891211000000000E+01      4.411316000000000E-01      1.567422000000000E+02
3180000000.000000      1.646423000000000E-02      9.330469000000000E+01      4.395142000000000E-01      1.280156000000000E+02
3200000000.000000      4.581070000000000E-02      1.440156000000000E+02      4.341431000000000E-01      9.852734000000000E+01
3220000000.000000      9.629822000000000E-02      1.372578000000000E+02      4.210968000000000E-01      6.932422000000000E+01
3240000000.000000      1.471710000000000E-01      1.215859000000000E+02      4.097595000000000E-01      4.193749000000000E+01
3260000000.000000      1.896744000000000E-01      1.047734000000000E+02      4.128571000000000E-01      1.452930000000000E+01
3280000000.000000      2.171402000000000E-01      8.740234000000000E+01      4.174805000000000E-01     -1.459277000000000E+01
3300000000.000000      2.286835000000000E-01      7.055078000000000E+01      4.128723000000000E-01     -4.340429000000000E+01
3320000000.000000      2.239075000000000E-01      5.524219000000000E+01      4.154510000000000E-01     -7.097656000000000E+01
3340000000.000000      2.084045000000000E-01      4.242773000000000E+01      4.209900000000000E-01     -9.969530000000000E+01
3360000000.000000      1.847763000000000E-01      3.324414000000000E+01      4.224091000000000E-01     -1.281328000000000E+02
3380000000.000000      1.618271000000000E-01      2.818750000000000E+01      4.264374000000000E-01     -1.563047000000000E+02
3400000000.000000      1.425247000000000E-01      2.600683000000000E+01      4.295044000000000E-01      1.749375000000000E+02
3420000000.000000      1.281662000000000E-01      2.570215000000000E+01      4.307556000000000E-01      1.461719000000000E+02
3440000000.000000      1.163483000000000E-01      2.531054000000000E+01      4.309845000000000E-01      1.175508000000000E+02
3460000000.000000      1.047249000000000E-01      2.630762000000000E+01      4.261932000000000E-01      8.915625000000000E+01
3480000000.000000      9.651947000000000E-02      2.887695000000000E+01      4.277649000000000E-01      6.021874000000000E+01
3500000000.000000      9.259033000000000E-02      3.295898000000000E+01      4.235687000000000E-01      3.125683000000000E+01
3520000000.000000      9.133530000000000E-02      3.643750000000000E+01      4.209137000000000E-01      3.111816000000000E+00
3540000000.000000      9.191513000000000E-02      3.996094000000000E+01      4.233704000000000E-01     -2.539551000000000E+01
3560000000.000000      9.365845000000000E-02      4.528710000000000E+01      4.255066000000000E-01     -5.456836000000000E+01
3580000000.000000      1.014633000000000E-01      5.005468000000000E+01      4.249115000000000E-01     -8.336718000000000E+01
3600000000.000000      1.148491000000000E-01      5.134960000000000E+01      4.234619000000000E-01     -1.115117000000000E+02
3620000000.000000      1.281052000000000E-01      4.820507000000000E+01      4.227448000000000E-01     -1.396641000000000E+02
3640000000.000000      1.336594000000000E-01      4.237890000000000E+01      4.251251000000000E-01     -1.680156000000000E+02
3660000000.000000      1.289444000000000E-01      3.552343000000000E+01      4.230652000000000E-01      1.641406000000000E+02
3680000000.000000      1.169243000000000E-01      3.234179000000000E+01      4.270630000000000E-01      1.364766000000000E+02
3700000000.000000      1.038666000000000E-01      3.565430000000000E+01      4.295654000000000E-01      1.079648000000000E+02
3720000000.000000      1.040039000000000E-01      4.458203000000000E+01      4.265289000000000E-01      7.946875000000000E+01
3740000000.000000      1.218262000000000E-01      4.867188000000000E+01      4.205780000000000E-01      5.092968000000000E+01
3760000000.000000      1.400375000000000E-01      4.525391000000000E+01      4.143524000000000E-01      2.303515000000000E+01
3780000000.000000      1.478577000000000E-01      3.774023000000000E+01      4.135437000000000E-01     -4.844971000000000E+00
3800000000.000000      1.410599000000000E-01      3.025683000000000E+01      4.154053000000000E-01     -3.322266000000000E+01
3820000000.000000      1.230621000000000E-01      2.687500000000000E+01      4.161530000000000E-01     -6.196289000000000E+01
3840000000.000000      1.085167000000000E-01      3.199707000000000E+01      4.144135000000000E-01     -9.108593000000000E+01
3860000000.000000      1.126213000000000E-01      4.040625000000000E+01      4.152222000000000E-01     -1.199375000000000E+02
3880000000.000000      1.306305000000000E-01      4.219531000000000E+01      4.106598000000000E-01     -1.489609000000000E+02
3900000000.000000      1.451645000000000E-01      3.638086000000000E+01      4.034729000000000E-01     -1.771641000000000E+02
3920000000.000000      1.426544000000000E-01      2.881152000000000E+01      4.060211000000000E-01      1.556484000000000E+02
3940000000.000000      1.255341000000000E-01      2.470605000000000E+01      4.142456000000000E-01      1.269922000000000E+02
3960000000.000000      1.072388000000000E-01      3.112109000000000E+01      4.129486000000000E-01      9.790234000000000E+01
3980000000.000000      1.138992000000000E-01      4.474023000000000E+01      4.054718000000000E-01      6.923828000000000E+01
4000000000.000000      1.451645000000000E-01      4.839844000000000E+01      3.982391000000000E-01      4.212304000000000E+01
4020000000.000000      1.784973000000000E-01      4.101953000000000E+01      4.036102000000000E-01      1.434912000000000E+01
4040000000.000000      1.975784000000000E-01      2.842382000000000E+01      4.042816000000000E-01     -1.570117000000000E+01
4060000000.000000      1.920624000000000E-01      1.446729000000000E+01      3.897705000000000E-01     -4.437109000000000E+01
4080000000.000000      1.637039000000000E-01      8.761597000000000E-01      3.893433000000000E-01     -7.134766000000000E+01
4100000000.000000      1.183891000000000E-01     -6.795166000000000E+00      3.988037000000000E-01     -9.997265000000000E+01
4120000000.000000      7.540512000000000E-02      3.037720000000000E+00      3.970490000000000E-01     -1.299375000000000E+02
4140000000.000000      7.225800000000000E-02      3.272461000000000E+01      3.939667000000000E-01     -1.588047000000000E+02
4160000000.000000      9.704590000000000E-02      4.256640000000000E+01      3.932800000000000E-01      1.731484000000000E+02
4180000000.000000      1.151390000000000E-01      3.936718000000000E+01      4.018707000000000E-01      1.447031000000000E+02
4200000000.000000      1.171951000000000E-01      3.555664000000000E+01      4.041748000000000E-01      1.145430000000000E+02
4220000000.000000      1.147575000000000E-01      3.787500000000000E+01      3.943939000000000E-01      8.557032000000000E+01
4240000000.000000      1.231232000000000E-01      4.455664000000000E+01      3.890228000000000E-01      5.717187000000000E+01
4260000000.000000      1.478729000000000E-01      4.680860000000000E+01      3.846130000000000E-01      2.912109000000000E+01
4280000000.000000      1.745682000000000E-01      4.205664000000000E+01      3.848572000000000E-01      6.660461000000000E-01
4300000000.000000      1.904984000000000E-01      3.384570000000000E+01      3.815155000000000E-01     -2.819531000000000E+01
4320000000.000000      1.901016000000000E-01      2.527246000000000E+01      3.783417000000000E-01     -5.689843000000000E+01
4340000000.000000      1.767044000000000E-01      1.937793000000000E+01      3.779449000000000E-01     -8.596483000000000E+01
4360000000.000000      1.628952000000000E-01      1.856055000000000E+01      3.764343000000000E-01     -1.150234000000000E+02
4380000000.000000      1.616745000000000E-01      2.096875000000000E+01      3.731537000000000E-01     -1.444922000000000E+02
4400000000.000000      1.720657000000000E-01      2.119922000000000E+01      3.702087000000000E-01     -1.736328000000000E+02
4420000000.000000      1.824188000000000E-01      1.719336000000000E+01      3.728027000000000E-01      1.574766000000000E+02
4440000000.000000      1.796799000000000E-01      1.128271000000000E+01      3.758698000000000E-01      1.278750000000000E+02
4460000000.000000      1.630554000000000E-01      8.052734000000000E+00      3.686218000000000E-01      9.839062000000000E+01
4480000000.000000      1.448822000000000E-01      1.173877000000000E+01      3.657074000000000E-01      7.008203000000000E+01
4500000000.000000      1.464767000000000E-01      2.044824000000000E+01      3.657227000000000E-01      4.126367000000000E+01
4520000000.000000      1.714783000000000E-01      2.483301000000000E+01      3.600769000000000E-01      1.185107000000000E+01
4540000000.000000      2.028275000000000E-01      2.073242000000000E+01      3.514099000000000E-01     -1.766602000000000E+01
4560000000.000000      2.232819000000000E-01      1.249414000000000E+01      3.444672000000000E-01     -4.586523000000000E+01
4580000000.000000      2.292480000000000E-01      3.651489000000000E+00      3.463898000000000E-01     -7.519921000000000E+01
4600000000.000000      2.208328000000000E-01     -3.613159000000000E+00      3.421936000000000E-01     -1.055039000000000E+02
4620000000.000000      2.081757000000000E-01     -7.965088000000000E+00      3.368530000000000E-01     -1.351484000000000E+02
4640000000.000000      2.022171000000000E-01     -1.012256000000000E+01      3.368835000000000E-01     -1.645469000000000E+02
4660000000.000000      2.019348000000000E-01     -1.301611000000000E+01      3.354645000000000E-01      1.662266000000000E+02
4680000000.000000      2.027512000000000E-01     -1.817480000000000E+01      3.426971000000000E-01      1.372031000000000E+02
4700000000.000000      1.967621000000000E-01     -2.523242000000000E+01      3.421936000000000E-01      1.074687000000000E+02
4720000000.000000      1.817856000000000E-01     -3.242773000000000E+01      3.386383000000000E-01      7.968359000000000E+01
4740000000.000000      1.615372000000000E-01     -3.901953000000000E+01      3.457184000000000E-01      5.211328000000000E+01
4760000000.000000      1.375427000000000E-01     -4.439258000000000E+01      3.460999000000000E-01      2.346094000000000E+01
4780000000.000000      1.119423000000000E-01     -4.891992000000000E+01      3.424225000000000E-01     -4.946777000000000E+00
4800000000.000000      8.038712000000000E-02     -5.365624000000000E+01      3.378906000000000E-01     -3.350586000000000E+01
4820000000.000000      3.769875000000000E-02     -5.057031000000000E+01      3.296814000000000E-01     -6.260547000000000E+01
4840000000.000000      3.118420000000000E-02      5.541797000000000E+01      3.225403000000000E-01     -9.143749000000000E+01
4860000000.000000      9.695435000000000E-02      6.208593000000000E+01      3.154907000000000E-01     -1.221289000000000E+02
4880000000.000000      1.658020000000000E-01      4.903320000000000E+01      2.955322000000000E-01     -1.533906000000000E+02
4900000000.000000      2.256699000000000E-01      3.312304000000000E+01      2.731934000000000E-01      1.789375000000000E+02
4920000000.000000      2.675934000000000E-01      1.668652000000000E+01      2.732849000000000E-01      1.534297000000000E+02
4940000000.000000      2.883301000000000E-01      9.132385000000000E-01      2.869415000000000E-01      1.247930000000000E+02
4960000000.000000      2.865753000000000E-01     -1.448828000000000E+01      2.911987000000000E-01      9.501562000000000E+01
4980000000.000000      2.622375000000000E-01     -2.810351000000000E+01      2.971802000000000E-01      6.769140000000000E+01
5000000000.000000      2.201157000000000E-01     -3.826953000000000E+01      3.118744000000000E-01      4.032031000000000E+01
5020000000.000000      1.729202000000000E-01     -4.114843000000000E+01      3.226318000000000E-01      1.225928000000000E+01
5040000000.000000      1.431274000000000E-01     -3.413476000000000E+01      3.305359000000000E-01     -1.483594000000000E+01
5060000000.000000      1.445618000000000E-01     -2.417187000000000E+01      3.386841000000000E-01     -4.204102000000000E+01
5080000000.000000      1.603851000000000E-01     -2.100586000000000E+01      3.436890000000000E-01     -7.014453000000000E+01
5100000000.000000      1.740265000000000E-01     -2.308789000000000E+01      3.378601000000000E-01     -9.867577000000000E+01
5120000000.000000      1.789856000000000E-01     -2.664258000000000E+01      3.319855000000000E-01     -1.259805000000000E+02
5140000000.000000      1.816559000000000E-01     -2.978320000000000E+01      3.295135000000000E-01     -1.542187000000000E+02
5160000000.000000      1.843796000000000E-01     -3.231250000000000E+01      3.259735000000000E-01      1.764375000000000E+02
5180000000.000000      1.891708000000000E-01     -3.575000000000000E+01      3.221130000000000E-01      1.467891000000000E+02
5200000000.000000      1.911087000000000E-01     -4.038281000000000E+01      3.209839000000000E-01      1.166094000000000E+02
5220000000.000000      1.860657000000000E-01     -4.499413000000000E+01      3.207397000000000E-01      8.678905000000000E+01
5240000000.000000      1.765213000000000E-01     -4.780663000000000E+01      3.258514000000000E-01      5.693945000000000E+01
5260000000.000000      1.674957000000000E-01     -4.827538000000000E+01      3.314819000000000E-01      2.731152000000000E+01
5280000000.000000      1.646729000000000E-01     -4.698047000000000E+01      3.366241000000000E-01     -1.812744000000000E+00
5300000000.000000      1.689758000000000E-01     -4.702538000000000E+01      3.401031000000000E-01     -2.995605000000000E+01
5320000000.000000      1.728897000000000E-01     -4.956055000000000E+01      3.441162000000000E-01     -5.684765000000000E+01
5340000000.000000      1.714783000000000E-01     -5.342382000000000E+01      3.489532000000000E-01     -8.461329000000000E+01
5360000000.000000      1.655807000000000E-01     -5.661718000000000E+01      3.433533000000000E-01     -1.118828000000000E+02
5380000000.000000      1.585693000000000E-01     -5.763866000000000E+01      3.387451000000000E-01     -1.384219000000000E+02
5400000000.000000      1.587601000000000E-01     -5.685937000000000E+01      3.375702000000000E-01     -1.657031000000000E+02
5420000000.000000      1.680984000000000E-01     -5.634375000000000E+01      3.311462000000000E-01      1.658594000000000E+02
5440000000.000000      1.801605000000000E-01     -5.943749000000000E+01      3.252716000000000E-01      1.368984000000000E+02
5460000000.000000      1.866760000000000E-01     -6.560156000000000E+01      3.143158000000000E-01      1.070273000000000E+02
5480000000.000000      1.800156000000000E-01     -7.283593000000000E+01      3.080444000000000E-01      7.754296000000000E+01
5500000000.000000      1.633911000000000E-01     -7.941796000000000E+01      3.096619000000000E-01      4.781446000000000E+01
5520000000.000000      1.409683000000000E-01     -8.308594000000000E+01      3.125000000000000E-01      1.717969000000000E+01
5540000000.000000      1.212234000000000E-01     -8.233202000000000E+01      3.165741000000000E-01     -1.228418000000000E+01
5560000000.000000      1.088371000000000E-01     -7.832812000000000E+01      3.235931000000000E-01     -4.125390000000000E+01
5580000000.000000      1.032448000000000E-01     -7.294922000000000E+01      3.306274000000000E-01     -6.968359000000000E+01
5600000000.000000      1.008263000000000E-01     -6.725780000000000E+01      3.360443000000000E-01     -9.756639000000000E+01
5620000000.000000      1.037064000000000E-01     -5.969727000000000E+01      3.381500000000000E-01     -1.252500000000000E+02
5640000000.000000      1.185684000000000E-01     -5.260351000000000E+01      3.359222000000000E-01     -1.526406000000000E+02
5660000000.000000      1.424026000000000E-01     -5.197266000000000E+01      3.292542000000000E-01     -1.797734000000000E+02
5680000000.000000      1.697617000000000E-01     -5.775781000000000E+01      3.211060000000000E-01      1.523047000000000E+02
5700000000.000000      1.889343000000000E-01     -6.803905000000000E+01      3.085022000000000E-01      1.240781000000000E+02
5720000000.000000      1.927567000000000E-01     -8.045313000000000E+01      2.944183000000000E-01      9.639061000000000E+01
5740000000.000000      1.792221000000000E-01     -9.285156000000000E+01      2.891541000000000E-01      6.763672000000000E+01
5760000000.000000      1.515732000000000E-01     -1.024531000000000E+02      2.845154000000000E-01      3.667187000000000E+01
5780000000.000000      1.188354000000000E-01     -1.048555000000000E+02      2.799225000000000E-01      5.837646000000000E+00
5800000000.000000      9.885788000000000E-02     -9.654686000000000E+01      2.815704000000000E-01     -2.441211000000000E+01
5820000000.000000      1.018181000000000E-01     -8.791407000000000E+01      2.885742000000000E-01     -5.468554000000000E+01
5840000000.000000      1.127892000000000E-01     -8.913671000000000E+01      2.986755000000000E-01     -8.508984000000000E+01
5860000000.000000      1.164894000000000E-01     -9.766405000000000E+01      3.008270000000000E-01     -1.141445000000000E+02
5880000000.000000      1.082039000000000E-01     -1.079844000000000E+02      3.031311000000000E-01     -1.412188000000000E+02
5900000000.000000      9.104156000000000E-02     -1.155859000000000E+02      3.120575000000000E-01     -1.677578000000000E+02
5920000000.000000      7.246017000000000E-02     -1.150781000000000E+02      3.172455000000000E-01      1.643125000000000E+02
5940000000.000000      6.425476000000000E-02     -1.054805000000000E+02      3.114624000000000E-01      1.360703000000000E+02
5960000000.000000      6.221581000000000E-02     -1.006211000000000E+02      2.970581000000000E-01      1.085508000000000E+02
5980000000.000000      5.284119000000000E-02     -1.002109000000000E+02      2.861786000000000E-01      8.168360000000000E+01
6000000000.000000      3.326416000000000E-02     -8.837109000000000E+01      2.798462000000000E-01      5.249804000000000E+01
6020000000.000000      3.132057000000000E-02     -2.769140000000000E+01      2.669220000000000E-01      2.144531000000000E+01
6040000000.000000      6.651688000000000E-02     -1.228711000000000E+01      2.531281000000000E-01     -8.884277000000000E+00
6060000000.000000      1.017265000000000E-01     -2.100586000000000E+01      2.489090000000000E-01     -3.933789000000000E+01
6080000000.000000      1.290588000000000E-01     -3.578125000000000E+01      2.543030000000000E-01     -7.022265000000000E+01
