! Network Analyzer HP8722D
! Hewlett-Packard
! Data name: Linha & Wilkinson
! Saver's name: Rodrigo Anjos
! Comments: Teste da utilização de aquisição
continua pelo VNA HP8722D
! Time and date: 3/9/2025 19:41
!              Frequency                     S11                                                   S21                                                   S12                                                   S22
# HZ  S  MA R 50
3000000000.000000      7.747650000000000E-02      8.721483000000000E+01      4.569550000000000E-01      2.438379000000000E+01
3020000000.000000      9.384155000000000E-02      7.273046000000000E+01      4.581757000000000E-01     -4.229736000000000E+00
3040000000.000000      9.503937000000000E-02      5.620117000000000E+01      4.570465000000000E-01     -3.323242000000000E+01
3060000000.000000      8.321762000000000E-02      4.154297000000000E+01      4.554443000000000E-01     -6.196875000000000E+01
3080000000.000000      6.279755000000000E-02      3.049316000000000E+01      4.568787000000000E-01     -9.030859000000000E+01
3100000000.000000      4.497147000000000E-02      3.136914000000000E+01      4.556122000000000E-01     -1.187070000000000E+02
3120000000.000000      3.792763000000000E-02      4.485352000000000E+01      4.525604000000000E-01     -1.474609000000000E+02
3140000000.000000      3.765488000000000E-02      4.908593000000000E+01      4.481964000000000E-01     -1.758750000000000E+02
3160000000.000000      2.970314000000000E-02      4.920898000000000E+01      4.434814000000000E-01      1.556015000000000E+02
3180000000.000000      1.645660000000000E-02      9.973436000000000E+01      4.432831000000000E-01      1.268516000000000E+02
3200000000.000000      4.802322000000000E-02      1.452266000000000E+02      4.372864000000000E-01      9.742577000000000E+01
3220000000.000000      1.000519000000000E-01      1.373594000000000E+02      4.239807000000000E-01      6.816406000000000E+01
3240000000.000000      1.506958000000000E-01      1.216562000000000E+02      4.131927000000000E-01      4.080274000000000E+01
3260000000.000000      1.931915000000000E-01      1.045703000000000E+02      4.172516000000000E-01      1.336719000000000E+01
3280000000.000000      2.191544000000000E-01      8.719530000000000E+01      4.216003000000000E-01     -1.585205000000000E+01
3300000000.000000      2.296600000000000E-01      7.035937000000000E+01      4.162750000000000E-01     -4.429101000000000E+01
3320000000.000000      2.244110000000000E-01      5.505468000000000E+01      4.194946000000000E-01     -7.220312000000000E+01
3340000000.000000      2.080841000000000E-01      4.240624000000000E+01      4.240417000000000E-01     -1.009453000000000E+02
3360000000.000000      1.841202000000000E-01      3.331055000000000E+01      4.246216000000000E-01     -1.292578000000000E+02
3380000000.000000      1.602859000000000E-01      2.856640000000000E+01      4.311676000000000E-01     -1.576015000000000E+02
3400000000.000000      1.418076000000000E-01      2.693945000000000E+01      4.324493000000000E-01      1.737813000000000E+02
3420000000.000000      1.285095000000000E-01      2.667285000000000E+01      4.333496000000000E-01      1.450703000000000E+02
3440000000.000000      1.161385000000000E-01      2.634082000000000E+01      4.331512000000000E-01      1.162266000000000E+02
3460000000.000000      1.047935000000000E-01      2.737890000000000E+01      4.294434000000000E-01      8.783203000000000E+01
3480000000.000000      9.688950000000000E-02      3.002148000000000E+01      4.305115000000000E-01      5.904687000000000E+01
3500000000.000000      9.330368000000000E-02      3.370117000000000E+01      4.255066000000000E-01      3.007715000000000E+01
3520000000.000000      9.225845000000000E-02      3.673437000000000E+01      4.241028000000000E-01      2.058472000000000E+00
3540000000.000000      9.244919000000000E-02      4.036328000000000E+01      4.253845000000000E-01     -2.670507000000000E+01
3560000000.000000      9.465408000000000E-02      4.589453000000000E+01      4.279480000000000E-01     -5.580078000000000E+01
3580000000.000000      1.022224000000000E-01      5.099999000000000E+01      4.269104000000000E-01     -8.444139000000000E+01
3600000000.000000      1.155815000000000E-01      5.222070000000000E+01      4.252472000000000E-01     -1.126328000000000E+02
3620000000.000000      1.290588000000000E-01      4.910742000000000E+01      4.280396000000000E-01     -1.409609000000000E+02
3640000000.000000      1.342850000000000E-01      4.267383000000000E+01      4.275208000000000E-01     -1.692422000000000E+02
3660000000.000000      1.288147000000000E-01      3.578516000000000E+01      4.261017000000000E-01      1.629531000000000E+02
3680000000.000000      1.158943000000000E-01      3.265039000000000E+01      4.303589000000000E-01      1.353125000000000E+02
3700000000.000000      1.031952000000000E-01      3.669922000000000E+01      4.305878000000000E-01      1.064844000000000E+02
3720000000.000000      1.047554000000000E-01      4.565820000000000E+01      4.294739000000000E-01      7.800390000000000E+01
3740000000.000000      1.229706000000000E-01      4.947656000000000E+01      4.234772000000000E-01      4.949023000000000E+01
3760000000.000000      1.416016000000000E-01      4.581250000000000E+01      4.179535000000000E-01      2.172070000000000E+01
3780000000.000000      1.483536000000000E-01      3.814453000000000E+01      4.158936000000000E-01     -6.031494000000000E+00
3800000000.000000      1.406479000000000E-01      3.078418000000000E+01      4.187012000000000E-01     -3.479297000000000E+01
3820000000.000000      1.219597000000000E-01      2.795117000000000E+01      4.183807000000000E-01     -6.349023000000000E+01
3840000000.000000      1.084785000000000E-01      3.328711000000000E+01      4.170990000000000E-01     -9.245703000000000E+01
3860000000.000000      1.137085000000000E-01      4.150195000000000E+01      4.163208000000000E-01     -1.211367000000000E+02
3880000000.000000      1.323318000000000E-01      4.277929000000000E+01      4.134674000000000E-01     -1.502734000000000E+02
3900000000.000000      1.457748000000000E-01      3.663281000000000E+01      4.063721000000000E-01     -1.785156000000000E+02
3920000000.000000      1.426926000000000E-01      2.919336000000000E+01      4.085541000000000E-01      1.541406000000000E+02
3940000000.000000      1.246223000000000E-01      2.571191000000000E+01      4.161835000000000E-01      1.256953000000000E+02
3960000000.000000      1.070976000000000E-01      3.287890000000000E+01      4.137573000000000E-01      9.647264000000000E+01
3980000000.000000      1.154556000000000E-01      4.655859000000000E+01      4.067688000000000E-01      6.783203000000000E+01
4000000000.000000      1.484375000000000E-01      4.927343000000000E+01      4.003143000000000E-01      4.069336000000000E+01
4020000000.000000      1.810989000000000E-01      4.135351000000000E+01      4.060974000000000E-01      1.293066000000000E+01
4040000000.000000      1.990814000000000E-01      2.843457000000000E+01      4.067535000000000E-01     -1.730273000000000E+01
4060000000.000000      1.921463000000000E-01      1.420654000000000E+01      3.914795000000000E-01     -4.589844000000000E+01
4080000000.000000      1.618500000000000E-01      8.184814000000000E-01      3.923187000000000E-01     -7.276562000000000E+01
4100000000.000000      1.155357000000000E-01     -6.490234000000000E+00      4.012146000000000E-01     -1.013477000000000E+02
4120000000.000000      7.371521000000000E-02      5.368164000000000E+00      4.011993000000000E-01     -1.315156000000000E+02
4140000000.000000      7.434082000000000E-02      3.558984000000000E+01      3.965607000000000E-01     -1.602734000000000E+02
4160000000.000000      9.901047000000000E-02      4.370898000000000E+01      3.966370000000000E-01      1.717734000000000E+02
4180000000.000000      1.163483000000000E-01      3.994141000000000E+01      4.048462000000000E-01      1.431015000000000E+02
4200000000.000000      1.175652000000000E-01      3.636719000000000E+01      4.053040000000000E-01      1.132265000000000E+02
4220000000.000000      1.150017000000000E-01      3.908008000000000E+01      3.986206000000000E-01      8.384766000000000E+01
4240000000.000000      1.248016000000000E-01      4.569336000000000E+01      3.919525000000000E-01      5.554688000000000E+01
4260000000.000000      1.509705000000000E-01      4.735352000000000E+01      3.882904000000000E-01      2.742188000000000E+01
4280000000.000000      1.772003000000000E-01      4.245898000000000E+01      3.867493000000000E-01     -7.635498000000000E-01
4300000000.000000      1.928177000000000E-01      3.408203000000000E+01      3.849945000000000E-01     -2.986035000000000E+01
4320000000.000000      1.916122000000000E-01      2.562793000000000E+01      3.806458000000000E-01     -5.853906000000000E+01
4340000000.000000      1.767883000000000E-01      2.002051000000000E+01      3.798828000000000E-01     -8.731640000000000E+01
4360000000.000000      1.634827000000000E-01      1.954590000000000E+01      3.778381000000000E-01     -1.166914000000000E+02
4380000000.000000      1.630630000000000E-01      2.209961000000000E+01      3.757019000000000E-01     -1.460938000000000E+02
4400000000.000000      1.747665000000000E-01      2.180371000000000E+01      3.745422000000000E-01     -1.753047000000000E+02
4420000000.000000      1.845169000000000E-01      1.753906000000000E+01      3.749237000000000E-01      1.561484000000000E+02
4440000000.000000      1.810455000000000E-01      1.148193000000000E+01      3.774109000000000E-01      1.262148000000000E+02
4460000000.000000      1.637573000000000E-01      8.541504000000000E+00      3.708496000000000E-01      9.674608000000000E+01
4480000000.000000      1.454849000000000E-01      1.263525000000000E+01      3.679047000000000E-01      6.843750000000000E+01
4500000000.000000      1.486588000000000E-01      2.159472000000000E+01      3.676147000000000E-01      3.965625000000000E+01
4520000000.000000      1.752548000000000E-01      2.550879000000000E+01      3.618622000000000E-01      1.018018000000000E+01
4540000000.000000      2.061386000000000E-01      2.097754000000000E+01      3.534241000000000E-01     -1.928125000000000E+01
4560000000.000000      2.253036000000000E-01      1.261475000000000E+01      3.466644000000000E-01     -4.749413000000000E+01
4580000000.000000      2.297821000000000E-01      3.700928000000000E+00      3.476257000000000E-01     -7.677343000000000E+01
4600000000.000000      2.213440000000000E-01     -3.462158000000000E+00      3.441467000000000E-01     -1.072890000000000E+02
4620000000.000000      2.092590000000000E-01     -7.429688000000000E+00      3.394012000000000E-01     -1.368281000000000E+02
4640000000.000000      2.033310000000000E-01     -9.609375000000000E+00      3.389282000000000E-01     -1.665390000000000E+02
4660000000.000000      2.033997000000000E-01     -1.256055000000000E+01      3.385468000000000E-01      1.646094000000000E+02
4680000000.000000      2.038498000000000E-01     -1.786328000000000E+01      3.442688000000000E-01      1.355078000000000E+02
4700000000.000000      1.969299000000000E-01     -2.492285000000000E+01      3.436127000000000E-01      1.059531000000000E+02
4720000000.000000      1.808853000000000E-01     -3.214062000000000E+01      3.409119000000000E-01      7.807812000000000E+01
4740000000.000000      1.601181000000000E-01     -3.856640000000000E+01      3.470764000000000E-01      5.039648000000000E+01
4760000000.000000      1.355515000000000E-01     -4.392383000000000E+01      3.482513000000000E-01      2.174805000000000E+01
4780000000.000000      1.099281000000000E-01     -4.855273000000000E+01      3.441467000000000E-01     -6.711426000000000E+00
4800000000.000000      7.786942000000000E-02     -5.301367000000000E+01      3.394318000000000E-01     -3.523633000000000E+01
4820000000.000000      3.434563000000000E-02     -4.661523000000000E+01      3.307190000000000E-01     -6.433984000000000E+01
4840000000.000000      3.676987000000000E-02      5.891406000000000E+01      3.241882000000000E-01     -9.352343000000000E+01
4860000000.000000      1.037941000000000E-01      6.168359000000000E+01      3.168793000000000E-01     -1.241602000000000E+02
4880000000.000000      1.732864000000000E-01      4.845508000000000E+01      2.974396000000000E-01     -1.552891000000000E+02
4900000000.000000      2.322159000000000E-01      3.252148000000000E+01      2.737427000000000E-01      1.772266000000000E+02
4920000000.000000      2.727814000000000E-01      1.604004000000000E+01      2.753143000000000E-01      1.517266000000000E+02
4940000000.000000      2.919769000000000E-01      1.222229000000000E-01      2.888794000000000E-01      1.230195000000000E+02
4960000000.000000      2.877350000000000E-01     -1.501709000000000E+01      2.939758000000000E-01      9.313671000000000E+01
4980000000.000000      2.612000000000000E-01     -2.856250000000000E+01      3.003235000000000E-01      6.608593000000000E+01
5000000000.000000      2.174988000000000E-01     -3.843750000000000E+01      3.148804000000000E-01      3.873828000000000E+01
5020000000.000000      1.705856000000000E-01     -4.072266000000000E+01      3.249359000000000E-01      1.067432000000000E+01
5040000000.000000      1.425171000000000E-01     -3.295703000000000E+01      3.323364000000000E-01     -1.652539000000000E+01
5060000000.000000      1.446915000000000E-01     -2.316504000000000E+01      3.404541000000000E-01     -4.376953000000000E+01
5080000000.000000      1.614227000000000E-01     -2.036621000000000E+01      3.453522000000000E-01     -7.200000000000000E+01
5100000000.000000      1.744690000000000E-01     -2.266016000000000E+01      3.388367000000000E-01     -1.003125000000000E+02
5120000000.000000      1.791611000000000E-01     -2.618066000000000E+01      3.332977000000000E-01     -1.278828000000000E+02
5140000000.000000      1.816864000000000E-01     -2.914160000000000E+01      3.305664000000000E-01     -1.561094000000000E+02
5160000000.000000      1.846771000000000E-01     -3.149805000000000E+01      3.274078000000000E-01      1.744531000000000E+02
5180000000.000000      1.889343000000000E-01     -3.514257000000000E+01      3.237152000000000E-01      1.446953000000000E+02
5200000000.000000      1.909943000000000E-01     -3.998632000000000E+01      3.229065000000000E-01      1.144961000000000E+02
5220000000.000000      1.849442000000000E-01     -4.443555000000000E+01      3.230286000000000E-01      8.476563000000000E+01
5240000000.000000      1.760788000000000E-01     -4.723046000000000E+01      3.279877000000000E-01      5.502930000000000E+01
5260000000.000000      1.680069000000000E-01     -4.736524000000000E+01      3.341064000000000E-01      2.533398000000000E+01
5280000000.000000      1.656265000000000E-01     -4.588476000000000E+01      3.392029000000000E-01     -3.522583000000000E+00
5300000000.000000      1.701584000000000E-01     -4.615234000000000E+01      3.419952000000000E-01     -3.171777000000000E+01
5320000000.000000      1.739197000000000E-01     -4.893749000000000E+01      3.464203000000000E-01     -5.863476000000000E+01
5340000000.000000      1.722565000000000E-01     -5.281445000000000E+01      3.506012000000000E-01     -8.633204000000000E+01
5360000000.000000      1.653214000000000E-01     -5.582812000000000E+01      3.457642000000000E-01     -1.137891000000000E+02
5380000000.000000      1.584778000000000E-01     -5.670312000000000E+01      3.401947000000000E-01     -1.401328000000000E+02
5400000000.000000      1.596756000000000E-01     -5.580664000000000E+01      3.383636000000000E-01     -1.676484000000000E+02
5420000000.000000      1.699829000000000E-01     -5.598633000000000E+01      3.309631000000000E-01      1.640312000000000E+02
5440000000.000000      1.816788000000000E-01     -5.926758000000000E+01      3.262482000000000E-01      1.349375000000000E+02
5460000000.000000      1.876755000000000E-01     -6.548437000000000E+01      3.151398000000000E-01      1.049492000000000E+02
5480000000.000000      1.815643000000000E-01     -7.289844000000000E+01      3.090973000000000E-01      7.545312000000000E+01
5500000000.000000      1.628418000000000E-01     -7.915625000000000E+01      3.120117000000000E-01      4.575781000000000E+01
5520000000.000000      1.398315000000000E-01     -8.259375000000000E+01      3.145294000000000E-01      1.529541000000000E+01
5540000000.000000      1.201935000000000E-01     -8.135157000000000E+01      3.193359000000000E-01     -1.438672000000000E+01
5560000000.000000      1.080475000000000E-01     -7.766015000000000E+01      3.257141000000000E-01     -4.323828000000000E+01
5580000000.000000      1.021729000000000E-01     -7.241796000000000E+01      3.323822000000000E-01     -7.158203000000000E+01
5600000000.000000      1.003532000000000E-01     -6.664453000000000E+01      3.382721000000000E-01     -9.942968000000000E+01
5620000000.000000      1.045876000000000E-01     -5.863281000000000E+01      3.396912000000000E-01     -1.271875000000000E+02
5640000000.000000      1.197586000000000E-01     -5.200781000000000E+01      3.370361000000000E-01     -1.547344000000000E+02
5660000000.000000      1.455612000000000E-01     -5.144921000000000E+01      3.304749000000000E-01      1.782109000000000E+02
5680000000.000000      1.726303000000000E-01     -5.734375000000000E+01      3.224792000000000E-01      1.502187000000000E+02
5700000000.000000      1.905136000000000E-01     -6.794922000000000E+01      3.087769000000000E-01      1.221094000000000E+02
5720000000.000000      1.927109000000000E-01     -8.041407000000000E+01      2.948303000000000E-01      9.417578000000000E+01
5740000000.000000      1.774521000000000E-01     -9.270311000000000E+01      2.897339000000000E-01      6.540234000000000E+01
5760000000.000000      1.483307000000000E-01     -1.024453000000000E+02      2.856598000000000E-01      3.431445000000000E+01
5780000000.000000      1.166306000000000E-01     -1.038594000000000E+02      2.820892000000000E-01      3.490845000000000E+00
5800000000.000000      9.863281000000000E-02     -9.507813000000000E+01      2.837830000000000E-01     -2.678418000000000E+01
5820000000.000000      1.034966000000000E-01     -8.655077000000000E+01      2.911987000000000E-01     -5.685741000000000E+01
5840000000.000000      1.148262000000000E-01     -8.890234000000000E+01      3.010254000000000E-01     -8.723047000000000E+01
5860000000.000000      1.175041000000000E-01     -9.705858000000000E+01      3.028107000000000E-01     -1.161055000000000E+02
5880000000.000000      1.072540000000000E-01     -1.074414000000000E+02      3.050690000000000E-01     -1.431719000000000E+02
5900000000.000000      8.847427000000000E-02     -1.144258000000000E+02      3.145447000000000E-01     -1.696640000000000E+02
5920000000.000000      7.056427000000000E-02     -1.123359000000000E+02      3.182678000000000E-01      1.623516000000000E+02
5940000000.000000      6.354904000000000E-02     -1.031680000000000E+02      3.127594000000000E-01      1.338906000000000E+02
5960000000.000000      6.215858000000000E-02     -9.906639000000000E+01      2.971802000000000E-01      1.065625000000000E+02
5980000000.000000      5.210876000000000E-02     -9.958202000000000E+01      2.864838000000000E-01      7.935937000000000E+01
6000000000.000000      3.255081000000000E-02     -8.501953000000000E+01      2.801819000000000E-01      5.000390000000000E+01
6020000000.000000      3.405952000000000E-02     -2.513867000000000E+01      2.679443000000000E-01      1.916113000000000E+01
6040000000.000000      7.023621000000000E-02     -1.261377000000000E+01      2.541656000000000E-01     -1.141797000000000E+01
6060000000.000000      1.059608000000000E-01     -2.197558000000000E+01      2.500458000000000E-01     -4.199023000000000E+01
6080000000.000000      1.321487000000000E-01     -3.616601000000000E+01      2.561646000000000E-01     -7.279297000000000E+01
