! Network Analyzer HP8722D
! Hewlett-Packard
! Data name: Linha & Wilkinson
! Saver's name: Rodrigo Anjos
! Comments: Teste da utilização de aquisição
continua pelo VNA HP8722D
! Time and date: 3/9/2025 18:47
!              Frequency                     S11                                                   S21                                                   S12                                                   S22
# HZ  S  MA R 50
3000000000.000000      7.606125000000000E-02      8.767578000000000E+01      4.574890000000000E-01      2.543554000000000E+01
3020000000.000000      9.275055000000000E-02      7.295312000000000E+01      4.567719000000000E-01     -3.316528000000000E+00
3040000000.000000      9.508133000000000E-02      5.697070000000000E+01      4.566650000000000E-01     -3.215429000000000E+01
3060000000.000000      8.347702000000000E-02      4.178515000000000E+01      4.545898000000000E-01     -6.069921000000000E+01
3080000000.000000      6.358719000000000E-02      3.041699000000000E+01      4.556427000000000E-01     -8.921875000000000E+01
3100000000.000000      4.542542000000000E-02      3.099707000000000E+01      4.532166000000000E-01     -1.176641000000000E+02
3120000000.000000      3.775215000000000E-02      4.300977000000000E+01      4.516144000000000E-01     -1.462500000000000E+02
3140000000.000000      3.741837000000000E-02      4.870507000000000E+01      4.452972000000000E-01     -1.747187000000000E+02
3160000000.000000      3.003311000000000E-02      4.949023000000000E+01      4.430542000000000E-01      1.567188000000000E+02
3180000000.000000      1.649952000000000E-02      9.457422000000000E+01      4.417725000000000E-01      1.280937000000000E+02
3200000000.000000      4.628944000000000E-02      1.440234000000000E+02      4.369659000000000E-01      9.855858000000000E+01
3220000000.000000      9.735489000000000E-02      1.374922000000000E+02      4.233551000000000E-01      6.927343000000000E+01
3240000000.000000      1.482086000000000E-01      1.221601000000000E+02      4.115448000000000E-01      4.202344000000000E+01
3260000000.000000      1.911240000000000E-01      1.051211000000000E+02      4.164886000000000E-01      1.466357000000000E+01
3280000000.000000      2.183075000000000E-01      8.772655000000000E+01      4.209747000000000E-01     -1.447900000000000E+01
3300000000.000000      2.295456000000000E-01      7.093750000000000E+01      4.158173000000000E-01     -4.326757000000000E+01
3320000000.000000      2.244873000000000E-01      5.546679000000000E+01      4.178925000000000E-01     -7.090234000000000E+01
3340000000.000000      2.087708000000000E-01      4.265625000000000E+01      4.241791000000000E-01     -9.966797000000000E+01
3360000000.000000      1.858063000000000E-01      3.323828000000000E+01      4.239044000000000E-01     -1.278984000000000E+02
3380000000.000000      1.623077000000000E-01      2.824804000000000E+01      4.307251000000000E-01     -1.561953000000000E+02
3400000000.000000      1.426849000000000E-01      2.630371000000000E+01      4.306488000000000E-01      1.749141000000000E+02
3420000000.000000      1.288452000000000E-01      2.592968000000000E+01      4.317780000000000E-01      1.463359000000000E+02
3440000000.000000      1.166191000000000E-01      2.556152000000000E+01      4.306793000000000E-01      1.174023000000000E+02
3460000000.000000      1.046982000000000E-01      2.697363000000000E+01      4.287567000000000E-01      8.919140000000000E+01
3480000000.000000      9.629059000000000E-02      2.923242000000000E+01      4.304657000000000E-01      6.044335000000000E+01
3500000000.000000      9.253311000000000E-02      3.297070000000000E+01      4.259186000000000E-01      3.124707000000000E+01
3520000000.000000      9.133911000000000E-02      3.647851000000000E+01      4.220123000000000E-01      3.228516000000000E+00
3540000000.000000      9.185410000000000E-02      3.990039000000000E+01      4.254303000000000E-01     -2.548437000000000E+01
3560000000.000000      9.400558000000000E-02      4.539648000000000E+01      4.269104000000000E-01     -5.434375000000000E+01
3580000000.000000      1.015701000000000E-01      5.052929000000000E+01      4.267426000000000E-01     -8.329687000000000E+01
3600000000.000000      1.149864000000000E-01      5.213085000000000E+01      4.259033000000000E-01     -1.113594000000000E+02
3620000000.000000      1.285248000000000E-01      4.896679000000000E+01      4.275818000000000E-01     -1.394922000000000E+02
3640000000.000000      1.338272000000000E-01      4.280273000000000E+01      4.274597000000000E-01     -1.680781000000000E+02
3660000000.000000      1.290512000000000E-01      3.600586000000000E+01      4.243622000000000E-01      1.642344000000000E+02
3680000000.000000      1.165695000000000E-01      3.261133000000000E+01      4.285889000000000E-01      1.364375000000000E+02
3700000000.000000      1.039162000000000E-01      3.567773000000000E+01      4.298096000000000E-01      1.078164000000000E+02
3720000000.000000      1.042252000000000E-01      4.489258000000000E+01      4.290314000000000E-01      7.940234000000000E+01
3740000000.000000      1.221390000000000E-01      4.896679000000000E+01      4.230347000000000E-01      5.086719000000000E+01
3760000000.000000      1.408691000000000E-01      4.564649000000000E+01      4.164276000000000E-01      2.316797000000000E+01
3780000000.000000      1.482620000000000E-01      3.815039000000000E+01      4.165039000000000E-01     -4.736572000000000E+00
3800000000.000000      1.409912000000000E-01      3.076660000000000E+01      4.187775000000000E-01     -3.314258000000000E+01
3820000000.000000      1.228180000000000E-01      2.750097000000000E+01      4.181976000000000E-01     -6.202929000000000E+01
3840000000.000000      1.085701000000000E-01      3.238672000000000E+01      4.175720000000000E-01     -9.087500000000000E+01
3860000000.000000      1.124496000000000E-01      4.083203000000000E+01      4.157410000000000E-01     -1.196719000000000E+02
3880000000.000000      1.307678000000000E-01      4.264257000000000E+01      4.127350000000000E-01     -1.490156000000000E+02
3900000000.000000      1.450043000000000E-01      3.688672000000000E+01      4.062958000000000E-01     -1.772266000000000E+02
3920000000.000000      1.431656000000000E-01      2.917187000000000E+01      4.070129000000000E-01      1.555469000000000E+02
3940000000.000000      1.260452000000000E-01      2.541211000000000E+01      4.153595000000000E-01      1.271328000000000E+02
3960000000.000000      1.076012000000000E-01      3.160840000000000E+01      4.148102000000000E-01      9.788671000000000E+01
3980000000.000000      1.136742000000000E-01      4.564649000000000E+01      4.062347000000000E-01      6.921093000000000E+01
4000000000.000000      1.455765000000000E-01      4.899414000000000E+01      4.003754000000000E-01      4.210938000000000E+01
4020000000.000000      1.787491000000000E-01      4.167382000000000E+01      4.047089000000000E-01      1.441650000000000E+01
4040000000.000000      1.974792000000000E-01      2.873828000000000E+01      4.055634000000000E-01     -1.550195000000000E+01
4060000000.000000      1.921692000000000E-01      1.470654000000000E+01      3.907776000000000E-01     -4.417773000000000E+01
4080000000.000000      1.639328000000000E-01      1.301880000000000E+00      3.903961000000000E-01     -7.121875000000000E+01
4100000000.000000      1.178589000000000E-01     -6.432617000000000E+00      4.004822000000000E-01     -9.997656000000000E+01
4120000000.000000      7.551956000000000E-02      3.810791000000000E+00      3.995667000000000E-01     -1.297734000000000E+02
4140000000.000000      7.275772000000000E-02      3.364258000000000E+01      3.957672000000000E-01     -1.586016000000000E+02
4160000000.000000      9.793091000000000E-02      4.330274000000000E+01      3.950806000000000E-01      1.734688000000000E+02
4180000000.000000      1.154861000000000E-01      4.002734000000000E+01      4.053955000000000E-01      1.446250000000000E+02
4200000000.000000      1.171303000000000E-01      3.630664000000000E+01      4.044342000000000E-01      1.147031000000000E+02
4220000000.000000      1.147385000000000E-01      3.840039000000000E+01      3.971710000000000E-01      8.544140000000000E+01
4240000000.000000      1.234322000000000E-01      4.499023000000000E+01      3.907776000000000E-01      5.731835000000000E+01
4260000000.000000      1.484833000000000E-01      4.718163000000000E+01      3.874969000000000E-01      2.909180000000000E+01
4280000000.000000      1.759338000000000E-01      4.251953000000000E+01      3.878479000000000E-01      7.305908000000000E-01
4300000000.000000      1.912003000000000E-01      3.417969000000000E+01      3.843536000000000E-01     -2.793848000000000E+01
4320000000.000000      1.909180000000000E-01      2.577929000000000E+01      3.794861000000000E-01     -5.694921000000000E+01
4340000000.000000      1.774139000000000E-01      1.984082000000000E+01      3.787079000000000E-01     -8.586329000000000E+01
4360000000.000000      1.638947000000000E-01      1.902539000000000E+01      3.775940000000000E-01     -1.149453000000000E+02
4380000000.000000      1.620255000000000E-01      2.174707000000000E+01      3.768768000000000E-01     -1.443750000000000E+02
4400000000.000000      1.730576000000000E-01      2.154101000000000E+01      3.737335000000000E-01     -1.734297000000000E+02
4420000000.000000      1.829300000000000E-01      1.750098000000000E+01      3.737030000000000E-01      1.576562000000000E+02
4440000000.000000      1.805725000000000E-01      1.149854000000000E+01      3.768921000000000E-01      1.280313000000000E+02
4460000000.000000      1.643829000000000E-01      8.464844000000000E+00      3.688812000000000E-01      9.849998000000000E+01
4480000000.000000      1.455841000000000E-01      1.156445000000000E+01      3.672485000000000E-01      7.014453000000000E+01
4500000000.000000      1.472931000000000E-01      2.089942000000000E+01      3.665314000000000E-01      4.140625000000000E+01
4520000000.000000      1.727676000000000E-01      2.520508000000000E+01      3.625031000000000E-01      1.191309000000000E+01
4540000000.000000      2.036972000000000E-01      2.114160000000000E+01      3.528748000000000E-01     -1.751562000000000E+01
4560000000.000000      2.235489000000000E-01      1.308057000000000E+01      3.462982000000000E-01     -4.569531000000000E+01
4580000000.000000      2.297974000000000E-01      3.871216000000000E+00      3.480072000000000E-01     -7.517968000000000E+01
4600000000.000000      2.214279000000000E-01     -3.361816000000000E+00      3.444061000000000E-01     -1.056602000000000E+02
4620000000.000000      2.094955000000000E-01     -7.532715000000000E+00      3.391876000000000E-01     -1.349375000000000E+02
4640000000.000000      2.030640000000000E-01     -9.857910000000000E+00      3.379822000000000E-01     -1.645781000000000E+02
4660000000.000000      2.031631000000000E-01     -1.268115000000000E+01      3.382721000000000E-01      1.665547000000000E+02
4680000000.000000      2.035065000000000E-01     -1.772656000000000E+01      3.433685000000000E-01      1.373203000000000E+02
4700000000.000000      1.973877000000000E-01     -2.471289000000000E+01      3.441467000000000E-01      1.074922000000000E+02
4720000000.000000      1.818466000000000E-01     -3.207617000000000E+01      3.394928000000000E-01      7.992578000000000E+01
4740000000.000000      1.612625000000000E-01     -3.851953000000000E+01      3.467102000000000E-01      5.215820000000000E+01
4760000000.000000      1.371689000000000E-01     -4.384961000000000E+01      3.481293000000000E-01      2.354590000000000E+01
4780000000.000000      1.118851000000000E-01     -4.843750000000000E+01      3.443146000000000E-01     -4.844971000000000E+00
4800000000.000000      8.030319000000000E-02     -5.348242000000000E+01      3.394775000000000E-01     -3.336523000000000E+01
4820000000.000000      3.765297000000000E-02     -5.009766000000000E+01      3.315125000000000E-01     -6.225976000000000E+01
4840000000.000000      3.174400000000000E-02      5.665039000000000E+01      3.245544000000000E-01     -9.133984000000000E+01
4860000000.000000      9.791565000000000E-02      6.261523000000000E+01      3.171387000000000E-01     -1.222461000000000E+02
4880000000.000000      1.673813000000000E-01      4.968750000000000E+01      2.977448000000000E-01     -1.532812000000000E+02
4900000000.000000      2.271194000000000E-01      3.380468000000000E+01      2.750854000000000E-01      1.788906000000000E+02
4920000000.000000      2.693329000000000E-01      1.723828000000000E+01      2.754517000000000E-01      1.533906000000000E+02
4940000000.000000      2.912445000000000E-01      1.380127000000000E+00      2.885437000000000E-01      1.249062000000000E+02
4960000000.000000      2.882385000000000E-01     -1.398877000000000E+01      2.927094000000000E-01      9.507421000000000E+01
4980000000.000000      2.631073000000000E-01     -2.776172000000000E+01      2.983856000000000E-01      6.800781000000000E+01
5000000000.000000      2.201843000000000E-01     -3.788476000000000E+01      3.135986000000000E-01      4.053515000000000E+01
5020000000.000000      1.734314000000000E-01     -4.089844000000000E+01      3.246155000000000E-01      1.240332000000000E+01
5040000000.000000      1.437454000000000E-01     -3.382226000000000E+01      3.319855000000000E-01     -1.471240000000000E+01
5060000000.000000      1.445313000000000E-01     -2.378613000000000E+01      3.405151000000000E-01     -4.191015000000000E+01
5080000000.000000      1.604004000000000E-01     -2.055762000000000E+01      3.458862000000000E-01     -6.999609000000000E+01
5100000000.000000      1.740494000000000E-01     -2.284082000000000E+01      3.398895000000000E-01     -9.844530000000000E+01
5120000000.000000      1.793060000000000E-01     -2.640234000000000E+01      3.333893000000000E-01     -1.258750000000000E+02
5140000000.000000      1.819458000000000E-01     -2.927343000000000E+01      3.312683000000000E-01     -1.541094000000000E+02
5160000000.000000      1.848984000000000E-01     -3.181641000000000E+01      3.277740000000000E-01      1.764531000000000E+02
5180000000.000000      1.893692000000000E-01     -3.527734000000000E+01      3.237610000000000E-01      1.467187000000000E+02
5200000000.000000      1.915512000000000E-01     -4.001367000000000E+01      3.226624000000000E-01      1.166680000000000E+02
5220000000.000000      1.863861000000000E-01     -4.470899000000000E+01      3.224487000000000E-01      8.682032000000000E+01
5240000000.000000      1.767044000000000E-01     -4.762891000000000E+01      3.271942000000000E-01      5.709179000000000E+01
5260000000.000000      1.683731000000000E-01     -4.793554000000000E+01      3.329468000000000E-01      2.744726000000000E+01
5280000000.000000      1.649017000000000E-01     -4.646680000000000E+01      3.387451000000000E-01     -1.605408000000000E+00
5300000000.000000      1.690750000000000E-01     -4.681250000000000E+01      3.422394000000000E-01     -2.971484000000000E+01
5320000000.000000      1.734848000000000E-01     -4.921288000000000E+01      3.466949000000000E-01     -5.675976000000000E+01
5340000000.000000      1.714172000000000E-01     -5.298828000000000E+01      3.509979000000000E-01     -8.438671000000000E+01
5360000000.000000      1.653442000000000E-01     -5.629883000000000E+01      3.461151000000000E-01     -1.118789000000000E+02
5380000000.000000      1.581573000000000E-01     -5.724999000000000E+01      3.406372000000000E-01     -1.382734000000000E+02
5400000000.000000      1.580734000000000E-01     -5.637890000000000E+01      3.392487000000000E-01     -1.657266000000000E+02
5420000000.000000      1.680374000000000E-01     -5.618164000000000E+01      3.322296000000000E-01      1.660469000000000E+02
5440000000.000000      1.802216000000000E-01     -5.916797000000000E+01      3.271484000000000E-01      1.368828000000000E+02
5460000000.000000      1.864548000000000E-01     -6.531640000000000E+01      3.157654000000000E-01      1.070586000000000E+02
5480000000.000000      1.807175000000000E-01     -7.247656000000000E+01      3.092041000000000E-01      7.768359000000000E+01
5500000000.000000      1.642075000000000E-01     -7.882421000000000E+01      3.118591000000000E-01      4.792188000000000E+01
5520000000.000000      1.406174000000000E-01     -8.258593000000000E+01      3.143616000000000E-01      1.750586000000000E+01
5540000000.000000      1.208649000000000E-01     -8.178514000000000E+01      3.180847000000000E-01     -1.215918000000000E+01
5560000000.000000      1.083183000000000E-01     -7.796093000000000E+01      3.248749000000000E-01     -4.124023000000000E+01
5580000000.000000      1.028595000000000E-01     -7.293359000000000E+01      3.327637000000000E-01     -6.960155000000000E+01
5600000000.000000      1.005363000000000E-01     -6.723827000000000E+01      3.378601000000000E-01     -9.743359000000000E+01
5620000000.000000      1.036263000000000E-01     -5.950976000000000E+01      3.399811000000000E-01     -1.250469000000000E+02
5640000000.000000      1.185684000000000E-01     -5.267187000000000E+01      3.379517000000000E-01     -1.525859000000000E+02
5660000000.000000      1.431122000000000E-01     -5.190820000000000E+01      3.315430000000000E-01     -1.796484000000000E+02
5680000000.000000      1.707916000000000E-01     -5.714844000000000E+01      3.230743000000000E-01      1.524453000000000E+02
5700000000.000000      1.897659000000000E-01     -6.746094000000000E+01      3.096466000000000E-01      1.240937000000000E+02
5720000000.000000      1.931992000000000E-01     -7.985937000000000E+01      2.957458000000000E-01      9.648827000000000E+01
5740000000.000000      1.795044000000000E-01     -9.240234000000000E+01      2.906647000000000E-01      6.771874000000000E+01
5760000000.000000      1.511230000000000E-01     -1.022227000000000E+02      2.860260000000000E-01      3.659765000000000E+01
5780000000.000000      1.187897000000000E-01     -1.048555000000000E+02      2.814178000000000E-01      5.933838000000000E+00
5800000000.000000      9.864426000000000E-02     -9.674608000000000E+01      2.838593000000000E-01     -2.421972000000000E+01
5820000000.000000      1.018600000000000E-01     -8.802734000000000E+01      2.904663000000000E-01     -5.457226000000000E+01
5840000000.000000      1.128235000000000E-01     -8.900000000000000E+01      3.006592000000000E-01     -8.500000000000000E+01
5860000000.000000      1.170883000000000E-01     -9.728905000000000E+01      3.031769000000000E-01     -1.140664000000000E+02
5880000000.000000      1.085625000000000E-01     -1.075469000000000E+02      3.039856000000000E-01     -1.410938000000000E+02
5900000000.000000      9.083939000000000E-02     -1.150820000000000E+02      3.141632000000000E-01     -1.676094000000000E+02
5920000000.000000      7.140732000000000E-02     -1.141914000000000E+02      3.187561000000000E-01      1.645078000000000E+02
5940000000.000000      6.322861000000000E-02     -1.052344000000000E+02      3.132172000000000E-01      1.361562000000000E+02
5960000000.000000      6.126404000000000E-02     -1.002656000000000E+02      2.977448000000000E-01      1.087852000000000E+02
5980000000.000000      5.243874000000000E-02     -1.005312000000000E+02      2.876282000000000E-01      8.173437000000000E+01
6000000000.000000      3.256226000000000E-02     -8.828905000000000E+01      2.809601000000000E-01      5.242382000000000E+01
6020000000.000000      3.126526000000000E-02     -2.759277000000000E+01      2.691193000000000E-01      2.149609000000000E+01
6040000000.000000      6.670761000000000E-02     -1.180518000000000E+01      2.546082000000000E-01     -8.922363000000000E+00
6060000000.000000      1.026764000000000E-01     -2.094141000000000E+01      2.499466000000000E-01     -3.926172000000000E+01
6080000000.000000      1.298447000000000E-01     -3.501367000000000E+01      2.555542000000000E-01     -7.025391000000000E+01
