! Network Analyzer HP8722D
! Hewlett-Packard
! Data name: Linha & Wilkinson
! Saver's name: Rodrigo Anjos
! Comments: Teste da utilização de aquisição
continua pelo VNA HP8722D
! Time and date: 3/9/2025 18:27
!              Frequency                     S11                                                   S21                                                   S12                                                   S22
# HZ  S  MA R 50
3000000000.000000      7.669067000000000E-02      8.746094000000000E+01      4.565735000000000E-01      2.549902000000000E+01
3020000000.000000      9.347153000000000E-02      7.325781000000000E+01      4.569244000000000E-01     -3.354980000000000E+00
3040000000.000000      9.572220000000000E-02      5.656054000000000E+01      4.572601000000000E-01     -3.244141000000000E+01
3060000000.000000      8.384705000000000E-02      4.135351000000000E+01      4.542389000000000E-01     -6.072460000000000E+01
3080000000.000000      6.374359000000000E-02      3.041797000000000E+01      4.562531000000000E-01     -8.937891000000000E+01
3100000000.000000      4.578590000000000E-02      3.049511000000000E+01      4.536896000000000E-01     -1.178789000000000E+02
3120000000.000000      3.827477000000000E-02      4.344922000000000E+01      4.512787000000000E-01     -1.463203000000000E+02
3140000000.000000      3.744316000000000E-02      4.909374000000000E+01      4.464264000000000E-01     -1.747422000000000E+02
3160000000.000000      3.031921000000000E-02      4.921875000000000E+01      4.429169000000000E-01      1.566328000000000E+02
3180000000.000000      1.665878000000000E-02      9.502344000000000E+01      4.416656000000000E-01      1.279453000000000E+02
3200000000.000000      4.657936000000000E-02      1.445234000000000E+02      4.361725000000000E-01      9.860937000000000E+01
3220000000.000000      9.729004000000000E-02      1.372656000000000E+02      4.236145000000000E-01      6.925781000000000E+01
3240000000.000000      1.485367000000000E-01      1.219297000000000E+02      4.121246000000000E-01      4.187696000000000E+01
3260000000.000000      1.913071000000000E-01      1.048828000000000E+02      4.160309000000000E-01      1.457568000000000E+01
3280000000.000000      2.182236000000000E-01      8.749218000000000E+01      4.205475000000000E-01     -1.460107000000000E+01
3300000000.000000      2.293701000000000E-01      7.072656000000000E+01      4.148865000000000E-01     -4.342578000000000E+01
3320000000.000000      2.247925000000000E-01      5.534180000000000E+01      4.184113000000000E-01     -7.085155000000000E+01
3340000000.000000      2.088547000000000E-01      4.257031000000000E+01      4.236298000000000E-01     -9.972656000000000E+01
3360000000.000000      1.855392000000000E-01      3.328125000000000E+01      4.235840000000000E-01     -1.281016000000000E+02
3380000000.000000      1.617050000000000E-01      2.820019000000000E+01      4.292145000000000E-01     -1.562578000000000E+02
3400000000.000000      1.426926000000000E-01      2.636523000000000E+01      4.317474000000000E-01      1.748359000000000E+02
3420000000.000000      1.291656000000000E-01      2.613086000000000E+01      4.332581000000000E-01      1.462109000000000E+02
3440000000.000000      1.165810000000000E-01      2.572558000000000E+01      4.318390000000000E-01      1.173633000000000E+02
3460000000.000000      1.046829000000000E-01      2.688477000000000E+01      4.280853000000000E-01      8.912109000000000E+01
3480000000.000000      9.676743000000000E-02      2.938672000000000E+01      4.300690000000000E-01      6.032031000000000E+01
3500000000.000000      9.300995000000000E-02      3.332031000000000E+01      4.255524000000000E-01      3.121484000000000E+01
3520000000.000000      9.174347000000000E-02      3.675586000000000E+01      4.223175000000000E-01      3.034912000000000E+00
3540000000.000000      9.264374000000000E-02      4.007617000000000E+01      4.255676000000000E-01     -2.556250000000000E+01
3560000000.000000      9.473801000000000E-02      4.533593000000000E+01      4.267731000000000E-01     -5.446094000000000E+01
3580000000.000000      1.021881000000000E-01      5.041601000000000E+01      4.263153000000000E-01     -8.329687000000000E+01
3600000000.000000      1.150246000000000E-01      5.192773000000000E+01      4.269562000000000E-01     -1.115156000000000E+02
3620000000.000000      1.286011000000000E-01      4.890234000000000E+01      4.268494000000000E-01     -1.398125000000000E+02
3640000000.000000      1.340942000000000E-01      4.274414000000000E+01      4.280853000000000E-01     -1.679844000000000E+02
3660000000.000000      1.290894000000000E-01      3.580664000000000E+01      4.237976000000000E-01      1.639922000000000E+02
3680000000.000000      1.162682000000000E-01      3.263672000000000E+01      4.291382000000000E-01      1.364141000000000E+02
3700000000.000000      1.035767000000000E-01      3.592968000000000E+01      4.314728000000000E-01      1.078047000000000E+02
3720000000.000000      1.045456000000000E-01      4.483007000000000E+01      4.292603000000000E-01      7.950781000000000E+01
3740000000.000000      1.223755000000000E-01      4.893555000000000E+01      4.231720000000000E-01      5.070117000000000E+01
3760000000.000000      1.410904000000000E-01      4.562304000000000E+01      4.180756000000000E-01      2.313086000000000E+01
3780000000.000000      1.482925000000000E-01      3.808398000000000E+01      4.159088000000000E-01     -4.787354000000000E+00
3800000000.000000      1.414337000000000E-01      3.076953000000000E+01      4.192352000000000E-01     -3.332812000000000E+01
3820000000.000000      1.228333000000000E-01      2.748144000000000E+01      4.171600000000000E-01     -6.190820000000000E+01
3840000000.000000      1.084976000000000E-01      3.256054000000000E+01      4.164886000000000E-01     -9.100389000000000E+01
3860000000.000000      1.127205000000000E-01      4.090039000000000E+01      4.147491000000000E-01     -1.200000000000000E+02
3880000000.000000      1.308975000000000E-01      4.253711000000000E+01      4.134216000000000E-01     -1.489766000000000E+02
3900000000.000000      1.451416000000000E-01      3.668164000000000E+01      4.054413000000000E-01     -1.773672000000000E+02
3920000000.000000      1.440125000000000E-01      2.925879000000000E+01      4.074097000000000E-01      1.555000000000000E+02
3940000000.000000      1.253204000000000E-01      2.526367000000000E+01      4.157257000000000E-01      1.270703000000000E+02
3960000000.000000      1.074486000000000E-01      3.198047000000000E+01      4.141083000000000E-01      9.787498000000000E+01
3980000000.000000      1.143494000000000E-01      4.569921000000000E+01      4.064178000000000E-01      6.907031000000000E+01
4000000000.000000      1.459503000000000E-01      4.899609000000000E+01      3.996735000000000E-01      4.208984000000000E+01
4020000000.000000      1.790466000000000E-01      4.140429000000000E+01      4.043121000000000E-01      1.426709000000000E+01
4040000000.000000      1.979675000000000E-01      2.855469000000000E+01      4.057465000000000E-01     -1.576416000000000E+01
4060000000.000000      1.922150000000000E-01      1.458838000000000E+01      3.895111000000000E-01     -4.448438000000000E+01
4080000000.000000      1.640778000000000E-01      9.640503000000000E-01      3.905334000000000E-01     -7.098827000000000E+01
4100000000.000000      1.181564000000000E-01     -6.650879000000000E+00      4.006805000000000E-01     -9.991014000000000E+01
4120000000.000000      7.572174000000000E-02      3.662476000000000E+00      4.001312000000000E-01     -1.298437000000000E+02
4140000000.000000      7.306290000000000E-02      3.384180000000000E+01      3.950653000000000E-01     -1.588672000000000E+02
4160000000.000000      9.762955000000000E-02      4.318164000000000E+01      3.951569000000000E-01      1.731250000000000E+02
4180000000.000000      1.157379000000000E-01      3.985937000000000E+01      4.036713000000000E-01      1.446563000000000E+02
4200000000.000000      1.172218000000000E-01      3.614062000000000E+01      4.044189000000000E-01      1.147070000000000E+02
4220000000.000000      1.150627000000000E-01      3.808398000000000E+01      3.982697000000000E-01      8.532030000000000E+01
4240000000.000000      1.236763000000000E-01      4.488086000000000E+01      3.921509000000000E-01      5.699804000000000E+01
4260000000.000000      1.487961000000000E-01      4.708593000000000E+01      3.859558000000000E-01      2.907227000000000E+01
4280000000.000000      1.753082000000000E-01      4.243164000000000E+01      3.867493000000000E-01      6.825256000000000E-01
4300000000.000000      1.913910000000000E-01      3.406836000000000E+01      3.833618000000000E-01     -2.817773000000000E+01
4320000000.000000      1.916733000000000E-01      2.560449000000000E+01      3.810577000000000E-01     -5.696484000000000E+01
4340000000.000000      1.776733000000000E-01      1.975586000000000E+01      3.806610000000000E-01     -8.569921000000000E+01
4360000000.000000      1.635818000000000E-01      1.890723000000000E+01      3.782959000000000E-01     -1.150430000000000E+02
4380000000.000000      1.620865000000000E-01      2.148633000000000E+01      3.755035000000000E-01     -1.445859000000000E+02
4400000000.000000      1.729202000000000E-01      2.157227000000000E+01      3.730927000000000E-01     -1.736875000000000E+02
4420000000.000000      1.832047000000000E-01      1.747461000000000E+01      3.729706000000000E-01      1.577344000000000E+02
4440000000.000000      1.803741000000000E-01      1.144629000000000E+01      3.777618000000000E-01      1.278984000000000E+02
4460000000.000000      1.640244000000000E-01      8.333008000000000E+00      3.700409000000000E-01      9.808983000000000E+01
4480000000.000000      1.455078000000000E-01      1.179785000000000E+01      3.656616000000000E-01      7.018749000000000E+01
4500000000.000000      1.472549000000000E-01      2.079297000000000E+01      3.673859000000000E-01      4.120117000000000E+01
4520000000.000000      1.728897000000000E-01      2.530468000000000E+01      3.629608000000000E-01      1.187891000000000E+01
4540000000.000000      2.042542000000000E-01      2.113183000000000E+01      3.527069000000000E-01     -1.764355000000000E+01
4560000000.000000      2.246323000000000E-01      1.283301000000000E+01      3.457336000000000E-01     -4.594140000000000E+01
4580000000.000000      2.299728000000000E-01      3.799805000000000E+00      3.479156000000000E-01     -7.517187000000000E+01
4600000000.000000      2.215500000000000E-01     -3.481323000000000E+00      3.442841000000000E-01     -1.056836000000000E+02
4620000000.000000      2.092361000000000E-01     -7.669922000000000E+00      3.382416000000000E-01     -1.350156000000000E+02
4640000000.000000      2.030640000000000E-01     -1.001270000000000E+01      3.387909000000000E-01     -1.646250000000000E+02
4660000000.000000      2.033844000000000E-01     -1.273730000000000E+01      3.385620000000000E-01      1.662266000000000E+02
4680000000.000000      2.038879000000000E-01     -1.785449000000000E+01      3.422241000000000E-01      1.374297000000000E+02
4700000000.000000      1.971512000000000E-01     -2.489843000000000E+01      3.429718000000000E-01      1.076484000000000E+02
4720000000.000000      1.818695000000000E-01     -3.217578000000000E+01      3.398438000000000E-01      7.979297000000000E+01
4740000000.000000      1.615448000000000E-01     -3.855859000000000E+01      3.470764000000000E-01      5.195507000000000E+01
4760000000.000000      1.364899000000000E-01     -4.408789000000000E+01      3.480530000000000E-01      2.346386000000000E+01
4780000000.000000      1.110497000000000E-01     -4.854882000000000E+01      3.439941000000000E-01     -4.890381000000000E+00
4800000000.000000      7.954407000000000E-02     -5.345312000000000E+01      3.399048000000000E-01     -3.351953000000000E+01
4820000000.000000      3.654861000000000E-02     -4.964062000000000E+01      3.315430000000000E-01     -6.253515000000000E+01
4840000000.000000      3.260803000000000E-02      5.578320000000000E+01      3.248291000000000E-01     -9.144922000000000E+01
4860000000.000000      9.873581000000000E-02      6.190430000000000E+01      3.171387000000000E-01     -1.222305000000000E+02
4880000000.000000      1.682510000000000E-01      4.926952000000000E+01      2.973938000000000E-01     -1.534844000000000E+02
4900000000.000000      2.279053000000000E-01      3.332422000000000E+01      2.759399000000000E-01      1.786641000000000E+02
4920000000.000000      2.699432000000000E-01      1.670019000000000E+01      2.754364000000000E-01      1.533359000000000E+02
4940000000.000000      2.918396000000000E-01      1.031311000000000E+00      2.885590000000000E-01      1.247656000000000E+02
4960000000.000000      2.885590000000000E-01     -1.427686000000000E+01      2.929840000000000E-01      9.480860000000000E+01
4980000000.000000      2.629700000000000E-01     -2.793554000000000E+01      2.991180000000000E-01      6.771874000000000E+01
5000000000.000000      2.202988000000000E-01     -3.816015000000000E+01      3.130951000000000E-01      4.019336000000000E+01
5020000000.000000      1.729202000000000E-01     -4.091992000000000E+01      3.244629000000000E-01      1.239355000000000E+01
5040000000.000000      1.434174000000000E-01     -3.379101000000000E+01      3.319855000000000E-01     -1.483887000000000E+01
5060000000.000000      1.445084000000000E-01     -2.385547000000000E+01      3.398132000000000E-01     -4.204883000000000E+01
5080000000.000000      1.610718000000000E-01     -2.063574000000000E+01      3.459778000000000E-01     -7.023046000000000E+01
5100000000.000000      1.743164000000000E-01     -2.285742000000000E+01      3.395844000000000E-01     -9.867188000000000E+01
5120000000.000000      1.798630000000000E-01     -2.646093000000000E+01      3.336487000000000E-01     -1.259805000000000E+02
5140000000.000000      1.817169000000000E-01     -2.933496000000000E+01      3.314514000000000E-01     -1.541641000000000E+02
5160000000.000000      1.848221000000000E-01     -3.198730000000000E+01      3.274384000000000E-01      1.763594000000000E+02
5180000000.000000      1.886444000000000E-01     -3.546289000000000E+01      3.233337000000000E-01      1.466328000000000E+02
5200000000.000000      1.908340000000000E-01     -4.011523000000000E+01      3.225250000000000E-01      1.165195000000000E+02
5220000000.000000      1.857452000000000E-01     -4.467187000000000E+01      3.226166000000000E-01      8.677734000000000E+01
5240000000.000000      1.767883000000000E-01     -4.754102000000000E+01      3.271179000000000E-01      5.696094000000000E+01
5260000000.000000      1.676941000000000E-01     -4.787499000000000E+01      3.332367000000000E-01      2.725683000000000E+01
5280000000.000000      1.649704000000000E-01     -4.640429000000000E+01      3.384094000000000E-01     -1.870422000000000E+00
5300000000.000000      1.695328000000000E-01     -4.670507000000000E+01      3.420105000000000E-01     -2.983105000000000E+01
5320000000.000000      1.734543000000000E-01     -4.933398000000000E+01      3.457489000000000E-01     -5.684375000000000E+01
5340000000.000000      1.720581000000000E-01     -5.301367000000000E+01      3.505249000000000E-01     -8.461718000000000E+01
5360000000.000000      1.654129000000000E-01     -5.630273000000000E+01      3.455353000000000E-01     -1.120195000000000E+02
5380000000.000000      1.588974000000000E-01     -5.708789000000000E+01      3.405457000000000E-01     -1.383203000000000E+02
5400000000.000000      1.586914000000000E-01     -5.639062000000000E+01      3.395996000000000E-01     -1.658281000000000E+02
5420000000.000000      1.682816000000000E-01     -5.617188000000000E+01      3.321075000000000E-01      1.659375000000000E+02
5440000000.000000      1.808395000000000E-01     -5.925586000000000E+01      3.271942000000000E-01      1.368515000000000E+02
5460000000.000000      1.870117000000000E-01     -6.535156000000000E+01      3.156891000000000E-01      1.069531000000000E+02
5480000000.000000      1.810608000000000E-01     -7.267968000000000E+01      3.094482000000000E-01      7.741405000000000E+01
5500000000.000000      1.646271000000000E-01     -7.892578000000000E+01      3.114777000000000E-01      4.773242000000000E+01
5520000000.000000      1.409454000000000E-01     -8.266405000000000E+01      3.133698000000000E-01      1.722656000000000E+01
5540000000.000000      1.214180000000000E-01     -8.172655000000000E+01      3.185120000000000E-01     -1.236279000000000E+01
5560000000.000000      1.081924000000000E-01     -7.792578000000000E+01      3.249969000000000E-01     -4.138867000000000E+01
5580000000.000000      1.030006000000000E-01     -7.268749000000000E+01      3.326721000000000E-01     -6.970703000000000E+01
5600000000.000000      1.004601000000000E-01     -6.701172000000000E+01      3.369293000000000E-01     -9.745703000000000E+01
5620000000.000000      1.041336000000000E-01     -5.948047000000000E+01      3.401489000000000E-01     -1.253203000000000E+02
5640000000.000000      1.186943000000000E-01     -5.292773000000000E+01      3.372955000000000E-01     -1.527734000000000E+02
5660000000.000000      1.433868000000000E-01     -5.191406000000000E+01      3.311157000000000E-01     -1.799922000000000E+02
5680000000.000000      1.706467000000000E-01     -5.744141000000000E+01      3.223419000000000E-01      1.522500000000000E+02
5700000000.000000      1.901550000000000E-01     -6.775391000000000E+01      3.096619000000000E-01      1.240703000000000E+02
5720000000.000000      1.934967000000000E-01     -8.001171000000000E+01      2.958527000000000E-01      9.630859000000000E+01
5740000000.000000      1.790085000000000E-01     -9.258593000000000E+01      2.902069000000000E-01      6.748047000000000E+01
5760000000.000000      1.509705000000000E-01     -1.023086000000000E+02      2.857361000000000E-01      3.659570000000000E+01
5780000000.000000      1.182480000000000E-01     -1.048164000000000E+02      2.813263000000000E-01      5.907715000000000E+00
5800000000.000000      9.897232000000000E-02     -9.636328000000000E+01      2.836304000000000E-01     -2.457031000000000E+01
5820000000.000000      1.024323000000000E-01     -8.772655000000000E+01      2.907104000000000E-01     -5.469336000000000E+01
5840000000.000000      1.134377000000000E-01     -8.903515000000000E+01      3.007813000000000E-01     -8.507813000000000E+01
5860000000.000000      1.173706000000000E-01     -9.723436000000000E+01      3.021851000000000E-01     -1.141992000000000E+02
5880000000.000000      1.089821000000000E-01     -1.074023000000000E+02      3.041534000000000E-01     -1.412109000000000E+02
5900000000.000000      9.032440000000000E-02     -1.148398000000000E+02      3.142090000000000E-01     -1.677422000000000E+02
5920000000.000000      7.162857000000000E-02     -1.140273000000000E+02      3.190155000000000E-01      1.642344000000000E+02
5940000000.000000      6.341171000000000E-02     -1.044883000000000E+02      3.130493000000000E-01      1.358828000000000E+02
5960000000.000000      6.174660000000000E-02     -9.991014000000000E+01      2.984161000000000E-01      1.085469000000000E+02
5980000000.000000      5.287552000000000E-02     -9.940624000000000E+01      2.873535000000000E-01      8.162889000000000E+01
6000000000.000000      3.306198000000000E-02     -8.778906000000000E+01      2.813416000000000E-01      5.228320000000000E+01
6020000000.000000      3.197670000000000E-02     -2.889160000000000E+01      2.689667000000000E-01      2.143359000000000E+01
6040000000.000000      6.689453000000000E-02     -1.236133000000000E+01      2.545166000000000E-01     -9.110840000000000E+00
6060000000.000000      1.030960000000000E-01     -2.120117000000000E+01      2.502136000000000E-01     -3.953125000000000E+01
6080000000.000000      1.306763000000000E-01     -3.542187000000000E+01      2.559509000000000E-01     -7.039844000000000E+01
