! Network Analyzer HP8722D
! Hewlett-Packard
! Data name: Linha & Wilkinson
! Saver's name: Rodrigo Anjos
! Comments: Teste da utilização de aquisição
continua pelo VNA HP8722D
! Time and date: 3/9/2025 17:30
!              Frequency                     S11                                                   S21                                                   S12                                                   S22
# HZ  S  MA R 50
3000000000.000000      2.850952000000000E-01      2.155468000000000E+01      3.288879000000000E-01      2.897754000000000E+01
3020000000.000000      2.998352000000000E-01      2.163476000000000E+01      3.334656000000000E-01      3.199768000000000E-01
3040000000.000000      3.119507000000000E-01      1.924805000000000E+01      3.339539000000000E-01     -2.893945000000000E+01
3060000000.000000      3.146057000000000E-01      1.599609000000000E+01      3.328552000000000E-01     -5.765625000000000E+01
3080000000.000000      3.097992000000000E-01      1.279492000000000E+01      3.306427000000000E-01     -8.659374000000000E+01
3100000000.000000      2.996063000000000E-01      1.086670000000000E+01      3.286438000000000E-01     -1.148828000000000E+02
3120000000.000000      2.943420000000000E-01      1.081836000000000E+01      3.270569000000000E-01     -1.433516000000000E+02
3140000000.000000      2.949219000000000E-01      1.022412000000000E+01      3.222809000000000E-01     -1.719531000000000E+02
3160000000.000000      2.929535000000000E-01      8.996094000000000E+00      3.174286000000000E-01      1.596328000000000E+02
3180000000.000000      2.845764000000000E-01      7.315430000000000E+00      3.137512000000000E-01      1.310469000000000E+02
3200000000.000000      2.641907000000000E-01      7.646484000000000E+00      3.078613000000000E-01      1.021875000000000E+02
3220000000.000000      2.498093000000000E-01      1.134180000000000E+01      2.956696000000000E-01      7.337500000000000E+01
3240000000.000000      2.481537000000000E-01      1.612793000000000E+01      2.878571000000000E-01      4.715039000000000E+01
3260000000.000000      2.618256000000000E-01      2.150293000000000E+01      2.959747000000000E-01      2.057715000000000E+01
3280000000.000000      2.945251000000000E-01      2.301465000000000E+01      3.030853000000000E-01     -8.597168000000000E+00
3300000000.000000      3.268738000000000E-01      2.058692000000000E+01      3.041077000000000E-01     -3.719531000000000E+01
3320000000.000000      3.507538000000000E-01      1.643555000000000E+01      3.115387000000000E-01     -6.560156000000000E+01
3340000000.000000      3.618317000000000E-01      1.162061000000000E+01      3.174744000000000E-01     -9.493750000000000E+01
3360000000.000000      3.610840000000000E-01      7.609375000000000E+00      3.190460000000000E-01     -1.242461000000000E+02
3380000000.000000      3.559723000000000E-01      4.758301000000000E+00      3.202972000000000E-01     -1.528984000000000E+02
3400000000.000000      3.463287000000000E-01      2.746582000000000E+00      3.207397000000000E-01      1.783203000000000E+02
3420000000.000000      3.400879000000000E-01      1.608093000000000E+00      3.194427000000000E-01      1.493203000000000E+02
3440000000.000000      3.332062000000000E-01     -3.021240000000000E-01      3.162689000000000E-01      1.208672000000000E+02
3460000000.000000      3.251343000000000E-01     -1.089050000000000E+00      3.147888000000000E-01      9.239452000000000E+01
3480000000.000000      3.217926000000000E-01     -1.980286000000000E+00      3.137665000000000E-01      6.365039000000000E+01
3500000000.000000      3.162384000000000E-01     -2.734253000000000E+00      3.102417000000000E-01      3.487695000000000E+01
3520000000.000000      3.135986000000000E-01     -2.697144000000000E+00      3.094025000000000E-01      6.400879000000000E+00
3540000000.000000      3.159637000000000E-01     -3.499146000000000E+00      3.071747000000000E-01     -2.198925000000000E+01
3560000000.000000      3.106689000000000E-01     -3.911133000000000E+00      3.086090000000000E-01     -5.066796000000000E+01
3580000000.000000      3.083191000000000E-01     -3.636475000000000E+00      3.076935000000000E-01     -7.933594000000000E+01
3600000000.000000      3.087769000000000E-01     -3.492310000000000E+00      3.078461000000000E-01     -1.071367000000000E+02
3620000000.000000      3.131866000000000E-01     -3.242432000000000E+00      3.110962000000000E-01     -1.353437000000000E+02
3640000000.000000      3.200531000000000E-01     -4.356201000000000E+00      3.123322000000000E-01     -1.637109000000000E+02
3660000000.000000      3.226166000000000E-01     -6.328125000000000E+00      3.123627000000000E-01      1.681406000000000E+02
3680000000.000000      3.232574000000000E-01     -8.384277000000000E+00      3.131561000000000E-01      1.400938000000000E+02
3700000000.000000      3.138885000000000E-01     -1.027100000000000E+01      3.117065000000000E-01      1.119765000000000E+02
3720000000.000000      3.037720000000000E-01     -9.848145000000000E+00      3.118896000000000E-01      8.347265000000000E+01
3740000000.000000      3.060760000000000E-01     -8.694336000000000E+00      3.063812000000000E-01      5.522265000000000E+01
3760000000.000000      3.115387000000000E-01     -8.058594000000000E+00      3.038483000000000E-01      2.770312000000000E+01
3780000000.000000      3.218842000000000E-01     -8.929199000000000E+00      3.052826000000000E-01     -5.067444000000000E-01
3800000000.000000      3.291321000000000E-01     -1.147949000000000E+01      3.055267000000000E-01     -2.935547000000000E+01
3820000000.000000      3.247070000000000E-01     -1.437012000000000E+01      3.041687000000000E-01     -5.807226000000000E+01
3840000000.000000      3.134460000000000E-01     -1.586572000000000E+01      3.034210000000000E-01     -8.697266000000000E+01
3860000000.000000      3.061066000000000E-01     -1.525879000000000E+01      3.034058000000000E-01     -1.157734000000000E+02
3880000000.000000      3.094482000000000E-01     -1.456934000000000E+01      3.005524000000000E-01     -1.446016000000000E+02
3900000000.000000      3.163300000000000E-01     -1.505420000000000E+01      2.975769000000000E-01     -1.725547000000000E+02
3920000000.000000      3.233948000000000E-01     -1.653809000000000E+01      2.997284000000000E-01      1.597578000000000E+02
3940000000.000000      3.227844000000000E-01     -1.962500000000000E+01      3.027802000000000E-01      1.311484000000000E+02
3960000000.000000      3.090820000000000E-01     -2.122851000000000E+01      3.019714000000000E-01      1.022578000000000E+02
3980000000.000000      2.972412000000000E-01     -2.024707000000000E+01      2.941589000000000E-01      7.372265000000000E+01
4000000000.000000      2.952576000000000E-01     -1.810449000000000E+01      2.891693000000000E-01      4.737500000000000E+01
4020000000.000000      3.097687000000000E-01     -1.607617000000000E+01      2.968292000000000E-01      1.964453000000000E+01
4040000000.000000      3.360748000000000E-01     -1.756738000000000E+01      2.984467000000000E-01     -1.046338000000000E+01
4060000000.000000      3.511200000000000E-01     -2.178320000000000E+01      2.905731000000000E-01     -3.935742000000000E+01
4080000000.000000      3.528900000000000E-01     -2.697168000000000E+01      2.900696000000000E-01     -6.726563000000000E+01
4100000000.000000      3.369598000000000E-01     -3.172363000000000E+01      2.942047000000000E-01     -9.647655000000000E+01
4120000000.000000      3.115234000000000E-01     -3.368164000000000E+01      2.912445000000000E-01     -1.267344000000000E+02
4140000000.000000      2.956848000000000E-01     -3.287890000000000E+01      2.839355000000000E-01     -1.552266000000000E+02
4160000000.000000      2.881927000000000E-01     -3.146289000000000E+01      2.856293000000000E-01      1.776094000000000E+02
4180000000.000000      2.935486000000000E-01     -3.043652000000000E+01      2.920990000000000E-01      1.488047000000000E+02
4200000000.000000      2.970123000000000E-01     -3.210351000000000E+01      2.916870000000000E-01      1.194102000000000E+02
4220000000.000000      2.902222000000000E-01     -3.314062000000000E+01      2.887268000000000E-01      9.073828000000000E+01
4240000000.000000      2.837830000000000E-01     -3.234179000000000E+01      2.829895000000000E-01      6.198437000000000E+01
4260000000.000000      2.827759000000000E-01     -3.109863000000000E+01      2.781982000000000E-01      3.455469000000000E+01
4280000000.000000      2.872467000000000E-01     -2.957324000000000E+01      2.787170000000000E-01      6.752441000000000E+00
4300000000.000000      3.010406000000000E-01     -2.958301000000000E+01      2.768097000000000E-01     -2.209570000000000E+01
4320000000.000000      3.128967000000000E-01     -3.162207000000000E+01      2.767487000000000E-01     -5.078125000000000E+01
4340000000.000000      3.166656000000000E-01     -3.467187000000000E+01      2.769012000000000E-01     -8.010546000000000E+01
4360000000.000000      3.123627000000000E-01     -3.693750000000000E+01      2.762909000000000E-01     -1.097695000000000E+02
4380000000.000000      3.080597000000000E-01     -3.747461000000000E+01      2.740784000000000E-01     -1.395313000000000E+02
4400000000.000000      3.073578000000000E-01     -3.764257000000000E+01      2.723389000000000E-01     -1.682500000000000E+02
4420000000.000000      3.137512000000000E-01     -3.774805000000000E+01      2.758026000000000E-01      1.629219000000000E+02
4440000000.000000      3.210907000000000E-01     -3.988086000000000E+01      2.783051000000000E-01      1.332500000000000E+02
4460000000.000000      3.187408000000000E-01     -4.274023000000000E+01      2.744598000000000E-01      1.038008000000000E+02
4480000000.000000      3.080292000000000E-01     -4.459765000000000E+01      2.713623000000000E-01      7.529687000000000E+01
4500000000.000000      2.974701000000000E-01     -4.486133000000000E+01      2.682037000000000E-01      4.688867000000000E+01
4520000000.000000      2.916718000000000E-01     -4.333984000000000E+01      2.644958000000000E-01      1.817090000000000E+01
4540000000.000000      3.010864000000000E-01     -4.205859000000000E+01      2.571869000000000E-01     -1.060498000000000E+01
4560000000.000000      3.160400000000000E-01     -4.228320000000000E+01      2.546234000000000E-01     -3.849609000000000E+01
4580000000.000000      3.329926000000000E-01     -4.417773000000000E+01      2.565308000000000E-01     -6.826562000000000E+01
4600000000.000000      3.395691000000000E-01     -4.737305000000000E+01      2.543182000000000E-01     -9.900391000000000E+01
4620000000.000000      3.383636000000000E-01     -4.957617000000000E+01      2.515717000000000E-01     -1.293750000000000E+02
4640000000.000000      3.405151000000000E-01     -5.112109000000000E+01      2.497864000000000E-01     -1.596250000000000E+02
4660000000.000000      3.419189000000000E-01     -5.279882000000000E+01      2.510986000000000E-01      1.712422000000000E+02
4680000000.000000      3.476868000000000E-01     -5.443945000000000E+01      2.570496000000000E-01      1.416641000000000E+02
4700000000.000000      3.543243000000000E-01     -5.743359000000000E+01      2.595062000000000E-01      1.118984000000000E+02
4720000000.000000      3.535767000000000E-01     -6.064258000000000E+01      2.598419000000000E-01      8.379297000000000E+01
4740000000.000000      3.520660000000000E-01     -6.379101000000000E+01      2.640076000000000E-01      5.566406000000000E+01
4760000000.000000      3.445435000000000E-01     -6.733203000000000E+01      2.640686000000000E-01      2.738281000000000E+01
4780000000.000000      3.341675000000000E-01     -7.017187000000000E+01      2.593231000000000E-01     -8.830261000000000E-01
4800000000.000000      3.216248000000000E-01     -7.345312000000000E+01      2.515411000000000E-01     -2.905273000000000E+01
4820000000.000000      2.999573000000000E-01     -7.640234000000000E+01      2.417831000000000E-01     -5.727734000000000E+01
4840000000.000000      2.705383000000000E-01     -7.776172000000000E+01      2.299423000000000E-01     -8.577343000000000E+01
4860000000.000000      2.397079000000000E-01     -7.546875000000000E+01      2.214127000000000E-01     -1.155742000000000E+02
4880000000.000000      2.226639000000000E-01     -6.790625000000000E+01      2.040253000000000E-01     -1.462265000000000E+02
4900000000.000000      2.305832000000000E-01     -5.980469000000000E+01      1.875534000000000E-01     -1.729063000000000E+02
4920000000.000000      2.595215000000000E-01     -5.496875000000000E+01      1.914978000000000E-01      1.618281000000000E+02
4940000000.000000      2.996216000000000E-01     -5.459961000000000E+01      2.059784000000000E-01      1.326016000000000E+02
4960000000.000000      3.363647000000000E-01     -5.896679000000000E+01      2.146988000000000E-01      1.015859000000000E+02
4980000000.000000      3.560333000000000E-01     -6.519531000000000E+01      2.241058000000000E-01      7.330078000000000E+01
5000000000.000000      3.562775000000000E-01     -7.150391000000000E+01      2.376251000000000E-01      4.481054000000000E+01
5020000000.000000      3.407745000000000E-01     -7.600780000000000E+01      2.457275000000000E-01      1.604004000000000E+01
5040000000.000000      3.214722000000000E-01     -7.813281000000000E+01      2.497711000000000E-01     -1.070215000000000E+01
5060000000.000000      3.074188000000000E-01     -7.816406000000000E+01      2.556763000000000E-01     -3.655664000000000E+01
5080000000.000000      3.027039000000000E-01     -7.698437000000000E+01      2.612457000000000E-01     -6.401953000000000E+01
5100000000.000000      3.063965000000000E-01     -7.691796000000000E+01      2.570953000000000E-01     -9.173828000000000E+01
5120000000.000000      3.098145000000000E-01     -7.748437000000000E+01      2.527313000000000E-01     -1.188906000000000E+02
5140000000.000000      3.161621000000000E-01     -7.825000000000000E+01      2.483826000000000E-01     -1.470547000000000E+02
5160000000.000000      3.210754000000000E-01     -7.948437000000000E+01      2.428818000000000E-01     -1.763594000000000E+02
5180000000.000000      3.282776000000000E-01     -8.055468000000000E+01      2.384949000000000E-01      1.535156000000000E+02
5200000000.000000      3.371735000000000E-01     -8.258204000000000E+01      2.357101000000000E-01      1.230039000000000E+02
5220000000.000000      3.401947000000000E-01     -8.503906000000000E+01      2.366714000000000E-01      9.251562000000000E+01
5240000000.000000      3.392334000000000E-01     -8.729296000000000E+01      2.407074000000000E-01      6.179492000000000E+01
5260000000.000000      3.348236000000000E-01     -8.920702000000000E+01      2.467957000000000E-01      3.158691000000000E+01
5280000000.000000      3.301697000000000E-01     -9.022264000000000E+01      2.523193000000000E-01      2.231567000000000E+00
5300000000.000000      3.290253000000000E-01     -9.115234000000000E+01      2.569275000000000E-01     -2.539160000000000E+01
5320000000.000000      3.289185000000000E-01     -9.216797000000000E+01      2.640991000000000E-01     -5.206836000000000E+01
5340000000.000000      3.320007000000000E-01     -9.364452000000000E+01      2.691193000000000E-01     -7.950390000000000E+01
5360000000.000000      3.308716000000000E-01     -9.564062000000000E+01      2.661285000000000E-01     -1.062422000000000E+02
5380000000.000000      3.290253000000000E-01     -9.650780000000000E+01      2.619171000000000E-01     -1.325000000000000E+02
5400000000.000000      3.312225000000000E-01     -9.735155000000000E+01      2.566681000000000E-01     -1.595547000000000E+02
5420000000.000000      3.345947000000000E-01     -9.772655000000000E+01      2.496643000000000E-01      1.728750000000000E+02
5440000000.000000      3.432617000000000E-01     -9.804296000000000E+01      2.433395000000000E-01      1.436172000000000E+02
5460000000.000000      3.536835000000000E-01     -1.004648000000000E+02      2.320023000000000E-01      1.137461000000000E+02
5480000000.000000      3.571777000000000E-01     -1.034961000000000E+02      2.268982000000000E-01      8.327343000000000E+01
5500000000.000000      3.553009000000000E-01     -1.070078000000000E+02      2.277679000000000E-01      5.220117000000000E+01
5520000000.000000      3.451843000000000E-01     -1.100469000000000E+02      2.295456000000000E-01      2.091015000000000E+01
5540000000.000000      3.347015000000000E-01     -1.120391000000000E+02      2.330093000000000E-01     -9.632324000000000E+00
5560000000.000000      3.243408000000000E-01     -1.137695000000000E+02      2.404861000000000E-01     -3.833984000000000E+01
5580000000.000000      3.133698000000000E-01     -1.144727000000000E+02      2.491837000000000E-01     -6.655468000000000E+01
5600000000.000000      3.076324000000000E-01     -1.146172000000000E+02      2.550964000000000E-01     -9.406250000000000E+01
5620000000.000000      3.004913000000000E-01     -1.144609000000000E+02      2.583923000000000E-01     -1.208086000000000E+02
5640000000.000000      2.971802000000000E-01     -1.133711000000000E+02      2.573242000000000E-01     -1.472891000000000E+02
5660000000.000000      3.010559000000000E-01     -1.118789000000000E+02      2.518005000000000E-01     -1.732109000000000E+02
5680000000.000000      3.142853000000000E-01     -1.113359000000000E+02      2.449951000000000E-01      1.600000000000000E+02
5700000000.000000      3.328247000000000E-01     -1.130117000000000E+02      2.333908000000000E-01      1.324141000000000E+02
5720000000.000000      3.489838000000000E-01     -1.164297000000000E+02      2.215576000000000E-01      1.045976000000000E+02
5740000000.000000      3.550873000000000E-01     -1.211328000000000E+02      2.136917000000000E-01      7.483593000000000E+01
5760000000.000000      3.468170000000000E-01     -1.258828000000000E+02      2.058640000000000E-01      4.248047000000000E+01
5780000000.000000      3.291168000000000E-01     -1.289297000000000E+02      1.991882000000000E-01      1.007568000000000E+01
5800000000.000000      3.116608000000000E-01     -1.298672000000000E+02      1.998367000000000E-01     -2.138965000000000E+01
5820000000.000000      3.012543000000000E-01     -1.291797000000000E+02      2.076263000000000E-01     -5.232812000000000E+01
5840000000.000000      3.038177000000000E-01     -1.291016000000000E+02      2.196045000000000E-01     -8.313671000000000E+01
5860000000.000000      3.106079000000000E-01     -1.308047000000000E+02      2.268219000000000E-01     -1.122383000000000E+02
5880000000.000000      3.130341000000000E-01     -1.335312000000000E+02      2.333450000000000E-01     -1.391172000000000E+02
5900000000.000000      3.127594000000000E-01     -1.360547000000000E+02      2.412262000000000E-01     -1.652969000000000E+02
5920000000.000000      3.058319000000000E-01     -1.383906000000000E+02      2.446442000000000E-01      1.679688000000000E+02
5940000000.000000      2.998047000000000E-01     -1.392344000000000E+02      2.391586000000000E-01      1.408125000000000E+02
5960000000.000000      2.949371000000000E-01     -1.406953000000000E+02      2.270660000000000E-01      1.153594000000000E+02
5980000000.000000      2.848663000000000E-01     -1.423516000000000E+02      2.166595000000000E-01      8.898829000000000E+01
6000000000.000000      2.702484000000000E-01     -1.444844000000000E+02      2.059250000000000E-01      6.047265000000000E+01
6020000000.000000      2.488098000000000E-01     -1.457813000000000E+02      1.898346000000000E-01      2.986425000000000E+01
6040000000.000000      2.281036000000000E-01     -1.441250000000000E+02      1.731339000000000E-01     -1.080811000000000E+00
6060000000.000000      2.204437000000000E-01     -1.410703000000000E+02      1.652527000000000E-01     -3.195996000000000E+01
6080000000.000000      2.257004000000000E-01     -1.368906000000000E+02      1.697388000000000E-01     -6.398438000000000E+01
