! Network Analyzer HP8722D
! Hewlett-Packard
! Data name: Linha & Wilkinson
! Saver's name: Rodrigo Anjos
! Comments: Teste da utilização de aquisição
continua pelo VNA HP8722D
! Time and date: 3/9/2025 18:35
!              Frequency                     S11                                                   S21                                                   S12                                                   S22
# HZ  S  MA R 50
3000000000.000000      7.600784000000000E-02      8.765234000000000E+01      4.556580000000000E-01      2.593262000000000E+01
3020000000.000000      9.344482000000000E-02      7.323047000000000E+01      4.556732000000000E-01     -2.872925000000000E+00
3040000000.000000      9.580612000000000E-02      5.697460000000000E+01      4.566498000000000E-01     -3.202929000000000E+01
3060000000.000000      8.404160000000000E-02      4.164648000000000E+01      4.542084000000000E-01     -6.040039000000000E+01
3080000000.000000      6.459045000000000E-02      3.072851000000000E+01      4.542084000000000E-01     -8.873827000000000E+01
3100000000.000000      4.538345000000000E-02      3.018066000000000E+01      4.527893000000000E-01     -1.174414000000000E+02
3120000000.000000      3.789520000000000E-02      4.294922000000000E+01      4.508209000000000E-01     -1.460312000000000E+02
3140000000.000000      3.768539000000000E-02      4.904101000000000E+01      4.472046000000000E-01     -1.743438000000000E+02
3160000000.000000      3.036499000000000E-02      4.958398000000000E+01      4.418030000000000E-01      1.571250000000000E+02
3180000000.000000      1.658154000000000E-02      9.438280000000000E+01      4.411469000000000E-01      1.284531000000000E+02
3200000000.000000      4.594040000000000E-02      1.443125000000000E+02      4.370880000000000E-01      9.880859000000000E+01
3220000000.000000      9.701920000000000E-02      1.372656000000000E+02      4.233398000000000E-01      6.983203000000000E+01
3240000000.000000      1.479034000000000E-01      1.220430000000000E+02      4.127502000000000E-01      4.233984000000000E+01
3260000000.000000      1.905518000000000E-01      1.051875000000000E+02      4.148560000000000E-01      1.506201000000000E+01
3280000000.000000      2.183304000000000E-01      8.775391000000000E+01      4.194031000000000E-01     -1.419580000000000E+01
3300000000.000000      2.296677000000000E-01      7.101953000000000E+01      4.149475000000000E-01     -4.289453000000000E+01
3320000000.000000      2.248077000000000E-01      5.558007000000000E+01      4.180908000000000E-01     -7.053515000000000E+01
3340000000.000000      2.092972000000000E-01      4.262304000000000E+01      4.224854000000000E-01     -9.921093000000000E+01
3360000000.000000      1.857376000000000E-01      3.325781000000000E+01      4.234009000000000E-01     -1.274492000000000E+02
3380000000.000000      1.623688000000000E-01      2.830761000000000E+01      4.294739000000000E-01     -1.558203000000000E+02
3400000000.000000      1.432495000000000E-01      2.621191000000000E+01      4.307709000000000E-01      1.752734000000000E+02
3420000000.000000      1.291046000000000E-01      2.591797000000000E+01      4.335632000000000E-01      1.467656000000000E+02
3440000000.000000      1.167603000000000E-01      2.559668000000000E+01      4.313507000000000E-01      1.178594000000000E+02
3460000000.000000      1.045914000000000E-01      2.661914000000000E+01      4.280548000000000E-01      8.939062000000000E+01
3480000000.000000      9.622574000000000E-02      2.908691000000000E+01      4.291992000000000E-01      6.075976000000000E+01
3500000000.000000      9.256363000000000E-02      3.299219000000000E+01      4.246674000000000E-01      3.170605000000000E+01
3520000000.000000      9.151459000000000E-02      3.672461000000000E+01      4.230652000000000E-01      3.544434000000000E+00
3540000000.000000      9.231567000000000E-02      3.994922000000000E+01      4.239349000000000E-01     -2.491699000000000E+01
3560000000.000000      9.407806000000000E-02      4.537109000000000E+01      4.263153000000000E-01     -5.405859000000000E+01
3580000000.000000      1.017799000000000E-01      5.039257000000000E+01      4.265289000000000E-01     -8.264063000000000E+01
3600000000.000000      1.150208000000000E-01      5.179296000000000E+01      4.255219000000000E-01     -1.109180000000000E+02
3620000000.000000      1.285782000000000E-01      4.904101000000000E+01      4.262085000000000E-01     -1.392266000000000E+02
3640000000.000000      1.339111000000000E-01      4.274610000000000E+01      4.273834000000000E-01     -1.675859000000000E+02
3660000000.000000      1.295013000000000E-01      3.603516000000000E+01      4.243164000000000E-01      1.647031000000000E+02
3680000000.000000      1.171799000000000E-01      3.259375000000000E+01      4.285126000000000E-01      1.369766000000000E+02
3700000000.000000      1.039925000000000E-01      3.587891000000000E+01      4.304352000000000E-01      1.082305000000000E+02
3720000000.000000      1.044426000000000E-01      4.477929000000000E+01      4.279022000000000E-01      7.973437000000000E+01
3740000000.000000      1.217422000000000E-01      4.889843000000000E+01      4.223022000000000E-01      5.132813000000000E+01
3760000000.000000      1.406021000000000E-01      4.562890000000000E+01      4.163361000000000E-01      2.354004000000000E+01
3780000000.000000      1.484451000000000E-01      3.817383000000000E+01      4.171295000000000E-01     -4.281982000000000E+00
3800000000.000000      1.414795000000000E-01      3.083691000000000E+01      4.165802000000000E-01     -3.287890000000000E+01
3820000000.000000      1.232529000000000E-01      2.736816000000000E+01      4.168854000000000E-01     -6.156640000000000E+01
3840000000.000000      1.086998000000000E-01      3.226367000000000E+01      4.159546000000000E-01     -9.042969000000000E+01
3860000000.000000      1.122398000000000E-01      4.077929000000000E+01      4.153442000000000E-01     -1.194492000000000E+02
3880000000.000000      1.305389000000000E-01      4.260938000000000E+01      4.125977000000000E-01     -1.484531000000000E+02
3900000000.000000      1.454544000000000E-01      3.709570000000000E+01      4.046783000000000E-01     -1.769219000000000E+02
3920000000.000000      1.442871000000000E-01      2.936718000000000E+01      4.060516000000000E-01      1.561328000000000E+02
3940000000.000000      1.266327000000000E-01      2.533105000000000E+01      4.155884000000000E-01      1.274141000000000E+02
3960000000.000000      1.085701000000000E-01      3.146875000000000E+01      4.122925000000000E-01      9.834373000000000E+01
3980000000.000000      1.141701000000000E-01      4.499023000000000E+01      4.050903000000000E-01      6.977344000000000E+01
4000000000.000000      1.451492000000000E-01      4.883789000000000E+01      3.979340000000000E-01      4.269921000000000E+01
4020000000.000000      1.784821000000000E-01      4.159180000000000E+01      4.040527000000000E-01      1.483008000000000E+01
4040000000.000000      1.975861000000000E-01      2.881640000000000E+01      4.052734000000000E-01     -1.521240000000000E+01
4060000000.000000      1.927567000000000E-01      1.468848000000000E+01      3.897095000000000E-01     -4.396484000000000E+01
4080000000.000000      1.643143000000000E-01      1.218079000000000E+00      3.899078000000000E-01     -7.068749000000000E+01
4100000000.000000      1.191559000000000E-01     -6.786865000000000E+00      3.996887000000000E-01     -9.946484000000000E+01
4120000000.000000      7.624817000000000E-02      3.188721000000000E+00      3.995361000000000E-01     -1.293672000000000E+02
4140000000.000000      7.300949000000000E-02      3.312891000000000E+01      3.950806000000000E-01     -1.582813000000000E+02
4160000000.000000      9.756851000000000E-02      4.332031000000000E+01      3.951569000000000E-01      1.739219000000000E+02
4180000000.000000      1.156960000000000E-01      4.013867000000000E+01      4.035034000000000E-01      1.452188000000000E+02
4200000000.000000      1.172905000000000E-01      3.621679000000000E+01      4.036255000000000E-01      1.152226000000000E+02
4220000000.000000      1.147156000000000E-01      3.817578000000000E+01      3.967133000000000E-01      8.595703000000000E+01
4240000000.000000      1.232605000000000E-01      4.481835000000000E+01      3.905945000000000E-01      5.759570000000000E+01
4260000000.000000      1.481857000000000E-01      4.686328000000000E+01      3.871155000000000E-01      2.965137000000000E+01
4280000000.000000      1.753006000000000E-01      4.241992000000000E+01      3.862762000000000E-01      1.061523000000000E+00
4300000000.000000      1.917496000000000E-01      3.425976000000000E+01      3.852539000000000E-01     -2.768750000000000E+01
4320000000.000000      1.915283000000000E-01      2.568164000000000E+01      3.805084000000000E-01     -5.627343000000000E+01
4340000000.000000      1.780472000000000E-01      1.969238000000000E+01      3.797913000000000E-01     -8.528906000000000E+01
4360000000.000000      1.640396000000000E-01      1.875293000000000E+01      3.769531000000000E-01     -1.145351000000000E+02
4380000000.000000      1.622391000000000E-01      2.132031000000000E+01      3.755188000000000E-01     -1.439375000000000E+02
4400000000.000000      1.723938000000000E-01      2.143555000000000E+01      3.722687000000000E-01     -1.731484000000000E+02
4420000000.000000      1.826019000000000E-01      1.757617000000000E+01      3.746643000000000E-01      1.581250000000000E+02
4440000000.000000      1.806793000000000E-01      1.154492000000000E+01      3.766632000000000E-01      1.286250000000000E+02
4460000000.000000      1.644745000000000E-01      8.305664000000000E+00      3.701477000000000E-01      9.880859000000000E+01
4480000000.000000      1.453476000000000E-01      1.173193000000000E+01      3.672791000000000E-01      7.079296000000000E+01
4500000000.000000      1.468887000000000E-01      2.093554000000000E+01      3.681946000000000E-01      4.178711000000000E+01
4520000000.000000      1.719055000000000E-01      2.527539000000000E+01      3.627625000000000E-01      1.249414000000000E+01
4540000000.000000      2.037582000000000E-01      2.136133000000000E+01      3.522339000000000E-01     -1.693750000000000E+01
4560000000.000000      2.242432000000000E-01      1.304346000000000E+01      3.460846000000000E-01     -4.529297000000000E+01
4580000000.000000      2.301407000000000E-01      4.007080000000000E+00      3.480682000000000E-01     -7.465234000000000E+01
4600000000.000000      2.222366000000000E-01     -3.328857000000000E+00      3.442230000000000E-01     -1.052266000000000E+02
4620000000.000000      2.096024000000000E-01     -7.741455000000000E+00      3.383789000000000E-01     -1.344219000000000E+02
4640000000.000000      2.033386000000000E-01     -9.946777000000000E+00      3.389893000000000E-01     -1.641016000000000E+02
4660000000.000000      2.030945000000000E-01     -1.270752000000000E+01      3.386078000000000E-01      1.668750000000000E+02
4680000000.000000      2.036972000000000E-01     -1.787012000000000E+01      3.427734000000000E-01      1.378359000000000E+02
4700000000.000000      1.974716000000000E-01     -2.474707000000000E+01      3.438873000000000E-01      1.081406000000000E+02
4720000000.000000      1.821136000000000E-01     -3.204883000000000E+01      3.401489000000000E-01      8.041796000000000E+01
4740000000.000000      1.618118000000000E-01     -3.856640000000000E+01      3.475647000000000E-01      5.269140000000000E+01
4760000000.000000      1.376801000000000E-01     -4.396484000000000E+01      3.479462000000000E-01      2.412598000000000E+01
4780000000.000000      1.119308000000000E-01     -4.856250000000000E+01      3.442230000000000E-01     -4.354736000000000E+00
4800000000.000000      8.075714000000000E-02     -5.310547000000000E+01      3.401794000000000E-01     -3.280273000000000E+01
4820000000.000000      3.833199000000000E-02     -5.062500000000000E+01      3.315430000000000E-01     -6.182031000000000E+01
4840000000.000000      3.112411000000000E-02      5.481054000000000E+01      3.247986000000000E-01     -9.087500000000000E+01
4860000000.000000      9.681320000000000E-02      6.227344000000000E+01      3.171387000000000E-01     -1.215351000000000E+02
4880000000.000000      1.659927000000000E-01      4.951366000000000E+01      2.975311000000000E-01     -1.525781000000000E+02
4900000000.000000      2.261963000000000E-01      3.377539000000000E+01      2.751160000000000E-01      1.794844000000000E+02
4920000000.000000      2.683105000000000E-01      1.729297000000000E+01      2.750702000000000E-01      1.539922000000000E+02
4940000000.000000      2.905426000000000E-01      1.516113000000000E+00      2.881165000000000E-01      1.253867000000000E+02
4960000000.000000      2.889709000000000E-01     -1.387061000000000E+01      2.924805000000000E-01      9.558203000000000E+01
4980000000.000000      2.631683000000000E-01     -2.766504000000000E+01      2.982025000000000E-01      6.844921000000000E+01
5000000000.000000      2.213974000000000E-01     -3.788281000000000E+01      3.128052000000000E-01      4.090039000000000E+01
5020000000.000000      1.739807000000000E-01     -4.096680000000000E+01      3.233643000000000E-01      1.294873000000000E+01
5040000000.000000      1.436005000000000E-01     -3.400000000000000E+01      3.314362000000000E-01     -1.415625000000000E+01
5060000000.000000      1.449509000000000E-01     -2.390429000000000E+01      3.399200000000000E-01     -4.130859000000000E+01
5080000000.000000      1.606064000000000E-01     -2.065625000000000E+01      3.452301000000000E-01     -6.948047000000000E+01
5100000000.000000      1.741104000000000E-01     -2.280957000000000E+01      3.395844000000000E-01     -9.795311000000000E+01
5120000000.000000      1.796341000000000E-01     -2.646679000000000E+01      3.334656000000000E-01     -1.253320000000000E+02
5140000000.000000      1.824875000000000E-01     -2.936718000000000E+01      3.311462000000000E-01     -1.535234000000000E+02
5160000000.000000      1.849670000000000E-01     -3.202148000000000E+01      3.276215000000000E-01      1.770859000000000E+02
5180000000.000000      1.891632000000000E-01     -3.536133000000000E+01      3.241272000000000E-01      1.474688000000000E+02
5200000000.000000      1.910248000000000E-01     -4.011328000000000E+01      3.224640000000000E-01      1.173281000000000E+02
5220000000.000000      1.865845000000000E-01     -4.474218000000000E+01      3.218689000000000E-01      8.751171000000000E+01
5240000000.000000      1.770477000000000E-01     -4.773046000000000E+01      3.266754000000000E-01      5.772655000000000E+01
5260000000.000000      1.680527000000000E-01     -4.808203000000000E+01      3.328552000000000E-01      2.795996000000000E+01
5280000000.000000      1.647949000000000E-01     -4.681054000000000E+01      3.381042000000000E-01     -1.101379000000000E+00
5300000000.000000      1.694031000000000E-01     -4.674024000000000E+01      3.415375000000000E-01     -2.924707000000000E+01
5320000000.000000      1.731033000000000E-01     -4.930273000000000E+01      3.461609000000000E-01     -5.622460000000000E+01
5340000000.000000      1.717834000000000E-01     -5.298437000000000E+01      3.503876000000000E-01     -8.401562000000000E+01
5360000000.000000      1.648712000000000E-01     -5.635547000000000E+01      3.451080000000000E-01     -1.113047000000000E+02
5380000000.000000      1.585159000000000E-01     -5.732031000000000E+01      3.404846000000000E-01     -1.377266000000000E+02
5400000000.000000      1.582947000000000E-01     -5.645312000000000E+01      3.389282000000000E-01     -1.651172000000000E+02
5420000000.000000      1.677399000000000E-01     -5.615820000000000E+01      3.320923000000000E-01      1.665781000000000E+02
5440000000.000000      1.802063000000000E-01     -5.917773000000000E+01      3.270416000000000E-01      1.376016000000000E+02
5460000000.000000      1.864700000000000E-01     -6.533203000000000E+01      3.155365000000000E-01      1.077422000000000E+02
5480000000.000000      1.817398000000000E-01     -7.246484000000000E+01      3.094635000000000E-01      7.823828000000000E+01
5500000000.000000      1.651688000000000E-01     -7.885547000000000E+01      3.115082000000000E-01      4.862109000000000E+01
5520000000.000000      1.413956000000000E-01     -8.283203000000000E+01      3.135986000000000E-01      1.812793000000000E+01
5540000000.000000      1.212234000000000E-01     -8.205858000000000E+01      3.177643000000000E-01     -1.151807000000000E+01
5560000000.000000      1.085587000000000E-01     -7.808594000000000E+01      3.248444000000000E-01     -4.055078000000000E+01
5580000000.000000      1.029167000000000E-01     -7.303124000000000E+01      3.317719000000000E-01     -6.904687000000000E+01
5600000000.000000      1.008911000000000E-01     -6.731250000000000E+01      3.369904000000000E-01     -9.688280000000000E+01
5620000000.000000      1.040344000000000E-01     -5.977344000000000E+01      3.395386000000000E-01     -1.244765000000000E+02
5640000000.000000      1.179962000000000E-01     -5.284374000000000E+01      3.376312000000000E-01     -1.519453000000000E+02
5660000000.000000      1.429138000000000E-01     -5.208398000000000E+01      3.311157000000000E-01     -1.792187000000000E+02
5680000000.000000      1.696777000000000E-01     -5.730469000000000E+01      3.227844000000000E-01      1.529375000000000E+02
5700000000.000000      1.897430000000000E-01     -6.752343000000000E+01      3.091125000000000E-01      1.247812000000000E+02
5720000000.000000      1.934128000000000E-01     -7.979687000000000E+01      2.961273000000000E-01      9.697655000000000E+01
5740000000.000000      1.798782000000000E-01     -9.221483000000000E+01      2.902222000000000E-01      6.840625000000000E+01
5760000000.000000      1.519699000000000E-01     -1.022148000000000E+02      2.862091000000000E-01      3.743164000000000E+01
5780000000.000000      1.195221000000000E-01     -1.047578000000000E+02      2.814636000000000E-01      6.713867000000000E+00
5800000000.000000      9.930038000000000E-02     -9.690233000000000E+01      2.828064000000000E-01     -2.355762000000000E+01
5820000000.000000      1.021690000000000E-01     -8.803514000000000E+01      2.909088000000000E-01     -5.391211000000000E+01
5840000000.000000      1.135254000000000E-01     -8.918360000000000E+01      2.995453000000000E-01     -8.422655000000000E+01
5860000000.000000      1.172142000000000E-01     -9.697266000000000E+01      3.015747000000000E-01     -1.134609000000000E+02
5880000000.000000      1.096878000000000E-01     -1.075430000000000E+02      3.037262000000000E-01     -1.403047000000000E+02
5900000000.000000      9.102631000000000E-02     -1.151289000000000E+02      3.135681000000000E-01     -1.669688000000000E+02
5920000000.000000      7.162094000000000E-02     -1.143945000000000E+02      3.184662000000000E-01      1.650703000000000E+02
5940000000.000000      6.327057000000000E-02     -1.051094000000000E+02      3.132172000000000E-01      1.367031000000000E+02
5960000000.000000      6.147385000000000E-02     -1.001289000000000E+02      2.984009000000000E-01      1.093125000000000E+02
5980000000.000000      5.313301000000000E-02     -9.959764000000000E+01      2.877655000000000E-01      8.233593000000000E+01
6000000000.000000      3.322411000000000E-02     -8.875391000000000E+01      2.816620000000000E-01      5.312695000000000E+01
6020000000.000000      3.130913000000000E-02     -2.881054000000000E+01      2.686157000000000E-01      2.220117000000000E+01
6040000000.000000      6.616211000000000E-02     -1.221582000000000E+01      2.546539000000000E-01     -8.201660000000000E+00
6060000000.000000      1.025467000000000E-01     -2.068750000000000E+01      2.495804000000000E-01     -3.853906000000000E+01
6080000000.000000      1.300049000000000E-01     -3.512695000000000E+01      2.553406000000000E-01     -6.950390000000000E+01
