! Network Analyzer HP8722D
! Hewlett-Packard
! Data name: Linha & Wilkinson
! Saver's name: Rodrigo Anjos
! Comments: Teste da utilização de aquisição
continua pelo VNA HP8722D
! Time and date: 8/5/2025 12:56
!              Frequency                     S11                                                   S21                                                   S12                                                   S22
# HZ  S  MA R 50
4800000000.000000      6.127014000000000E-01     -4.766992000000000E+01      4.170074000000000E-01     -2.205176000000000E+01      4.849701000000000E-01     -1.756797000000000E+02      4.908142000000000E-01     -1.798594000000000E+02
4801000000.000000      6.135254000000000E-01     -4.816406000000000E+01      4.174042000000000E-01     -2.233203000000000E+01      4.888916000000000E-01     -1.759063000000000E+02      4.912109000000000E-01      1.796250000000000E+02
4802000000.000000      6.154175000000000E-01     -4.884960000000000E+01      4.170227000000000E-01     -2.288867000000000E+01      4.911499000000000E-01     -1.762656000000000E+02      4.927673000000000E-01      1.792578000000000E+02
4803000000.000000      6.166687000000000E-01     -4.945507000000000E+01      4.204559000000000E-01     -2.325879000000000E+01      4.929657000000000E-01     -1.765781000000000E+02      4.965668000000000E-01      1.787891000000000E+02
4804000000.000000      6.194458000000000E-01     -5.000195000000000E+01      4.197998000000000E-01     -2.384375000000000E+01      4.958801000000000E-01     -1.766953000000000E+02      4.982147000000000E-01      1.788125000000000E+02
4805000000.000000      6.247559000000000E-01     -5.073437000000000E+01      4.204712000000000E-01     -2.456445000000000E+01      4.997101000000000E-01     -1.771094000000000E+02      5.016785000000000E-01      1.778203000000000E+02
4806000000.000000      6.240845000000000E-01     -5.108788000000000E+01      4.212189000000000E-01     -2.477832000000000E+01      5.014343000000000E-01     -1.771328000000000E+02      5.048218000000000E-01      1.777734000000000E+02
4807000000.000000      6.267395000000000E-01     -5.156836000000000E+01      4.229279000000000E-01     -2.537304000000000E+01      5.052795000000000E-01     -1.777109000000000E+02      5.039978000000000E-01      1.774844000000000E+02
4808000000.000000      6.278992000000000E-01     -5.224804000000000E+01      4.221649000000000E-01     -2.575000000000000E+01      5.067444000000000E-01     -1.777812000000000E+02      5.060730000000000E-01      1.769297000000000E+02
4809000000.000000      6.314087000000000E-01     -5.288280000000000E+01      4.242859000000000E-01     -2.655273000000000E+01      5.115051000000000E-01     -1.784297000000000E+02      5.092163000000000E-01      1.763203000000000E+02
4810000000.000000      6.334839000000000E-01     -5.346093000000000E+01      4.246826000000000E-01     -2.690625000000000E+01      5.134888000000000E-01     -1.784531000000000E+02      5.093079000000000E-01      1.761406000000000E+02
4811000000.000000      6.360474000000000E-01     -5.390234000000000E+01      4.250641000000000E-01     -2.750977000000000E+01      5.180054000000000E-01     -1.787891000000000E+02      5.102844000000000E-01      1.756875000000000E+02
4812000000.000000      6.400146000000000E-01     -5.426758000000000E+01      4.255524000000000E-01     -2.798828000000000E+01      5.213318000000000E-01     -1.792109000000000E+02      5.162659000000000E-01      1.755078000000000E+02
4813000000.000000      6.399231000000000E-01     -5.500586000000000E+01      4.248810000000000E-01     -2.832422000000000E+01      5.242310000000000E-01     -1.795312000000000E+02      5.201721000000000E-01      1.749297000000000E+02
4814000000.000000      6.399231000000000E-01     -5.567187000000000E+01      4.251862000000000E-01     -2.886425000000000E+01      5.256653000000000E-01     -1.799766000000000E+02      5.175781000000000E-01      1.745234000000000E+02
4815000000.000000      6.417542000000000E-01     -5.598046000000000E+01      4.261322000000000E-01     -2.948047000000000E+01      5.292664000000000E-01      1.796094000000000E+02      5.197754000000000E-01      1.740156000000000E+02
4816000000.000000      6.444702000000000E-01     -5.622265000000000E+01      4.254150000000000E-01     -2.999023000000000E+01      5.323486000000000E-01      1.794453000000000E+02      5.214539000000000E-01      1.738203000000000E+02
4817000000.000000      6.474915000000000E-01     -5.682031000000000E+01      4.245148000000000E-01     -3.055078000000000E+01      5.332031000000000E-01      1.786562000000000E+02      5.243225000000000E-01      1.733906000000000E+02
4818000000.000000      6.483459000000000E-01     -5.717968000000000E+01      4.226685000000000E-01     -3.118652000000000E+01      5.397339000000000E-01      1.782109000000000E+02      5.271912000000000E-01      1.727734000000000E+02
4819000000.000000      6.499939000000000E-01     -5.759179000000000E+01      4.236145000000000E-01     -3.161133000000000E+01      5.414429000000000E-01      1.779063000000000E+02      5.292969000000000E-01      1.724609000000000E+02
4820000000.000000      6.502075000000000E-01     -5.790234000000000E+01      4.252014000000000E-01     -3.214258000000000E+01      5.450134000000000E-01      1.773594000000000E+02      5.306091000000000E-01      1.720547000000000E+02
4821000000.000000      6.521912000000000E-01     -5.847851000000000E+01      4.253387000000000E-01     -3.267773000000000E+01      5.439148000000000E-01      1.767187000000000E+02      5.279236000000000E-01      1.713516000000000E+02
4822000000.000000      6.523438000000000E-01     -5.890234000000000E+01      4.216156000000000E-01     -3.297656000000000E+01      5.476685000000000E-01      1.763438000000000E+02      5.301819000000000E-01      1.710156000000000E+02
4823000000.000000      6.542969000000000E-01     -5.920116000000000E+01      4.214020000000000E-01     -3.370898000000000E+01      5.492554000000000E-01      1.758125000000000E+02      5.314941000000000E-01      1.704687000000000E+02
4824000000.000000      6.552124000000000E-01     -5.941015000000000E+01      4.202423000000000E-01     -3.411328000000000E+01      5.516663000000000E-01      1.750859000000000E+02      5.320435000000000E-01      1.698437000000000E+02
4825000000.000000      6.558838000000000E-01     -5.985937000000000E+01      4.217834000000000E-01     -3.474414000000000E+01      5.543518000000000E-01      1.748359000000000E+02      5.306091000000000E-01      1.696640000000000E+02
4826000000.000000      6.567688000000000E-01     -6.038476000000000E+01      4.199219000000000E-01     -3.509375000000000E+01      5.553284000000000E-01      1.742578000000000E+02      5.311279000000000E-01      1.690781000000000E+02
4827000000.000000      6.584167000000000E-01     -6.032617000000000E+01      4.190826000000000E-01     -3.576562000000000E+01      5.564575000000000E-01      1.736641000000000E+02      5.307007000000000E-01      1.686328000000000E+02
4828000000.000000      6.607361000000000E-01     -6.077929000000000E+01      4.177704000000000E-01     -3.606445000000000E+01      5.610352000000000E-01      1.733281000000000E+02      5.315857000000000E-01      1.680234000000000E+02
4829000000.000000      6.595764000000000E-01     -6.075390000000000E+01      4.169922000000000E-01     -3.663281000000000E+01      5.602417000000000E-01      1.727422000000000E+02      5.271301000000000E-01      1.677266000000000E+02
4830000000.000000      6.596680000000000E-01     -6.116405000000000E+01      4.158783000000000E-01     -3.717187000000000E+01      5.628357000000000E-01      1.720000000000000E+02      5.284119000000000E-01      1.667969000000000E+02
4831000000.000000      6.595459000000000E-01     -6.131640000000000E+01      4.154205000000000E-01     -3.765429000000000E+01      5.629578000000000E-01      1.713594000000000E+02      5.264587000000000E-01      1.664922000000000E+02
4832000000.000000      6.611023000000000E-01     -6.124609000000000E+01      4.144592000000000E-01     -3.786328000000000E+01      5.630493000000000E-01      1.707344000000000E+02      5.241089000000000E-01      1.658359000000000E+02
4833000000.000000      6.605225000000000E-01     -6.164648000000000E+01      4.138641000000000E-01     -3.831445000000000E+01      5.644531000000000E-01      1.698359000000000E+02      5.204163000000000E-01      1.653672000000000E+02
4834000000.000000      6.619873000000000E-01     -6.181641000000000E+01      4.117584000000000E-01     -3.893750000000000E+01      5.638428000000000E-01      1.694609000000000E+02      5.210876000000000E-01      1.650469000000000E+02
4835000000.000000      6.599731000000000E-01     -6.170507000000000E+01      4.120789000000000E-01     -3.942187000000000E+01      5.640869000000000E-01      1.687500000000000E+02      5.162964000000000E-01      1.645234000000000E+02
4836000000.000000      6.617432000000000E-01     -6.155273000000000E+01      4.095459000000000E-01     -3.957031000000000E+01      5.621643000000000E-01      1.682500000000000E+02      5.102539000000000E-01      1.641875000000000E+02
4837000000.000000      6.623840000000000E-01     -6.164257000000000E+01      4.061432000000000E-01     -4.056641000000000E+01      5.609741000000000E-01      1.674062000000000E+02      5.065918000000000E-01      1.634063000000000E+02
4838000000.000000      6.623230000000000E-01     -6.173633000000000E+01      4.088593000000000E-01     -4.057617000000000E+01      5.625305000000000E-01      1.666875000000000E+02      5.004272000000000E-01      1.628515000000000E+02
4839000000.000000      6.630554000000000E-01     -6.151172000000000E+01      4.067535000000000E-01     -4.113867000000000E+01      5.605774000000000E-01      1.662969000000000E+02      4.969788000000000E-01      1.624297000000000E+02
4840000000.000000      6.639709000000000E-01     -6.171679000000000E+01      4.038544000000000E-01     -4.154297000000000E+01      5.587463000000000E-01      1.656484000000000E+02      4.897003000000000E-01      1.620078000000000E+02
4841000000.000000      6.632385000000000E-01     -6.147655000000000E+01      4.044189000000000E-01     -4.192383000000000E+01      5.580139000000000E-01      1.648906000000000E+02      4.854431000000000E-01      1.615156000000000E+02
4842000000.000000      6.644897000000000E-01     -6.145117000000000E+01      4.022980000000000E-01     -4.248828000000000E+01      5.531311000000000E-01      1.645078000000000E+02      4.802246000000000E-01      1.613672000000000E+02
4843000000.000000      6.645203000000000E-01     -6.150195000000000E+01      4.020081000000000E-01     -4.313672000000000E+01      5.534363000000000E-01      1.635781000000000E+02      4.736481000000000E-01      1.610156000000000E+02
4844000000.000000      6.620483000000000E-01     -6.128906000000000E+01      4.011230000000000E-01     -4.347461000000000E+01      5.531616000000000E-01      1.628594000000000E+02      4.677887000000000E-01      1.606016000000000E+02
4845000000.000000      6.655273000000000E-01     -6.114258000000000E+01      3.988647000000000E-01     -4.398828000000000E+01      5.494995000000000E-01      1.624531000000000E+02      4.583893000000000E-01      1.601563000000000E+02
4846000000.000000      6.641235000000000E-01     -6.086328000000000E+01      3.965302000000000E-01     -4.419531000000000E+01      5.479431000000000E-01      1.617891000000000E+02      4.522247000000000E-01      1.597578000000000E+02
4847000000.000000      6.647949000000000E-01     -6.075781000000000E+01      3.960724000000000E-01     -4.460742000000000E+01      5.456543000000000E-01      1.611484000000000E+02      4.437714000000000E-01      1.598672000000000E+02
4848000000.000000      6.660461000000000E-01     -6.048828000000000E+01      3.946075000000000E-01     -4.485547000000000E+01      5.415344000000000E-01      1.602187000000000E+02      4.378510000000000E-01      1.596484000000000E+02
4849000000.000000      6.652222000000000E-01     -6.035937000000000E+01      3.957520000000000E-01     -4.536718000000000E+01      5.378418000000000E-01      1.596953000000000E+02      4.275818000000000E-01      1.593203000000000E+02
4850000000.000000      6.651001000000000E-01     -5.987695000000000E+01      3.929749000000000E-01     -4.591210000000000E+01      5.354309000000000E-01      1.591953000000000E+02      4.214325000000000E-01      1.591016000000000E+02
4851000000.000000      6.682434000000000E-01     -5.970508000000000E+01      3.926544000000000E-01     -4.642187000000000E+01      5.314331000000000E-01      1.585234000000000E+02      4.121704000000000E-01      1.592500000000000E+02
4852000000.000000      6.690979000000000E-01     -5.960546000000000E+01      3.894501000000000E-01     -4.675781000000000E+01      5.271301000000000E-01      1.580703000000000E+02      4.021301000000000E-01      1.592187000000000E+02
4853000000.000000      6.680298000000000E-01     -5.917187000000000E+01      3.889618000000000E-01     -4.704492000000000E+01      5.240173000000000E-01      1.574297000000000E+02      3.932343000000000E-01      1.590156000000000E+02
4854000000.000000      6.708069000000000E-01     -5.901757000000000E+01      3.879547000000000E-01     -4.779101000000000E+01      5.194092000000000E-01      1.569766000000000E+02      3.858948000000000E-01      1.591875000000000E+02
4855000000.000000      6.689758000000000E-01     -5.863086000000000E+01      3.870392000000000E-01     -4.825781000000000E+01      5.144043000000000E-01      1.563984000000000E+02      3.751068000000000E-01      1.592187000000000E+02
4856000000.000000      6.711121000000000E-01     -5.830859000000000E+01      3.865509000000000E-01     -4.857616000000000E+01      5.119934000000000E-01      1.558281000000000E+02      3.671112000000000E-01      1.593672000000000E+02
4857000000.000000      6.711121000000000E-01     -5.825781000000000E+01      3.859863000000000E-01     -4.912695000000000E+01      5.066833000000000E-01      1.554453000000000E+02      3.584290000000000E-01      1.596172000000000E+02
4858000000.000000      6.707153000000000E-01     -5.788671000000000E+01      3.834381000000000E-01     -4.944921000000000E+01      5.025635000000000E-01      1.547578000000000E+02      3.489685000000000E-01      1.600937000000000E+02
4859000000.000000      6.711731000000000E-01     -5.768945000000000E+01      3.834076000000000E-01     -4.989843000000000E+01      4.979401000000000E-01      1.543828000000000E+02      3.416595000000000E-01      1.605859000000000E+02
4860000000.000000      6.724854000000000E-01     -5.716797000000000E+01      3.816528000000000E-01     -5.026367000000000E+01      4.926758000000000E-01      1.536328000000000E+02      3.307190000000000E-01      1.609297000000000E+02
4861000000.000000      6.732483000000000E-01     -5.695507000000000E+01      3.809357000000000E-01     -5.090625000000000E+01      4.883728000000000E-01      1.533203000000000E+02      3.232727000000000E-01      1.616719000000000E+02
4862000000.000000      6.743774000000000E-01     -5.647851000000000E+01      3.784027000000000E-01     -5.116015000000000E+01      4.863586000000000E-01      1.529687000000000E+02      3.147278000000000E-01      1.626250000000000E+02
4863000000.000000      6.748962000000000E-01     -5.636523000000000E+01      3.752289000000000E-01     -5.192383000000000E+01      4.781342000000000E-01      1.524531000000000E+02      3.055878000000000E-01      1.630234000000000E+02
4864000000.000000      6.770630000000000E-01     -5.582226000000000E+01      3.755951000000000E-01     -5.237499000000000E+01      4.744873000000000E-01      1.521016000000000E+02      2.973633000000000E-01      1.637266000000000E+02
4865000000.000000      6.770020000000000E-01     -5.563671000000000E+01      3.744507000000000E-01     -5.265820000000000E+01      4.706421000000000E-01      1.516172000000000E+02      2.899323000000000E-01      1.647578000000000E+02
4866000000.000000      6.778564000000000E-01     -5.520508000000000E+01      3.710175000000000E-01     -5.356445000000000E+01      4.664307000000000E-01      1.510937000000000E+02      2.825012000000000E-01      1.656563000000000E+02
4867000000.000000      6.778870000000000E-01     -5.488476000000000E+01      3.696442000000000E-01     -5.383203000000000E+01      4.608307000000000E-01      1.509140000000000E+02      2.743530000000000E-01      1.670312000000000E+02
4868000000.000000      6.800537000000000E-01     -5.474999000000000E+01      3.701935000000000E-01     -5.449219000000000E+01      4.553680000000000E-01      1.503047000000000E+02      2.665253000000000E-01      1.679062000000000E+02
4869000000.000000      6.796265000000000E-01     -5.433788000000000E+01      3.671112000000000E-01     -5.492578000000000E+01      4.514771000000000E-01      1.499687000000000E+02      2.613220000000000E-01      1.692969000000000E+02
4870000000.000000      6.806641000000000E-01     -5.380664000000000E+01      3.657227000000000E-01     -5.536327000000000E+01      4.460602000000000E-01      1.496406000000000E+02      2.540741000000000E-01      1.708828000000000E+02
4871000000.000000      6.821594000000000E-01     -5.363671000000000E+01      3.634491000000000E-01     -5.590820000000000E+01      4.422760000000000E-01      1.492188000000000E+02      2.471542000000000E-01      1.722031000000000E+02
4872000000.000000      6.818542000000000E-01     -5.329883000000000E+01      3.609619000000000E-01     -5.625977000000000E+01      4.364929000000000E-01      1.487500000000000E+02      2.414322000000000E-01      1.737500000000000E+02
4873000000.000000      6.812134000000000E-01     -5.287499000000000E+01      3.586121000000000E-01     -5.701562000000000E+01      4.317474000000000E-01      1.483906000000000E+02      2.351532000000000E-01      1.757969000000000E+02
4874000000.000000      6.830750000000000E-01     -5.236133000000000E+01      3.572388000000000E-01     -5.756445000000000E+01      4.293823000000000E-01      1.480625000000000E+02      2.310944000000000E-01      1.771016000000000E+02
4875000000.000000      6.832581000000000E-01     -5.217968000000000E+01      3.556824000000000E-01     -5.795116000000000E+01      4.232483000000000E-01      1.479141000000000E+02      2.255859000000000E-01      1.792891000000000E+02
4876000000.000000      6.833191000000000E-01     -5.177343000000000E+01      3.547363000000000E-01     -5.855273000000000E+01      4.205475000000000E-01      1.475859000000000E+02      2.235031000000000E-01     -1.788359000000000E+02
4877000000.000000      6.824341000000000E-01     -5.172656000000000E+01      3.508759000000000E-01     -5.938671000000000E+01      4.146423000000000E-01      1.470859000000000E+02      2.182617000000000E-01     -1.771641000000000E+02
4878000000.000000      6.843567000000000E-01     -5.110156000000000E+01      3.498840000000000E-01     -5.953125000000000E+01      4.111938000000000E-01      1.468672000000000E+02      2.174530000000000E-01     -1.749922000000000E+02
4879000000.000000      6.829834000000000E-01     -5.091015000000000E+01      3.467407000000000E-01     -6.010156000000000E+01      4.054413000000000E-01      1.463906000000000E+02      2.127151000000000E-01     -1.726094000000000E+02
4880000000.000000      6.829529000000000E-01     -5.050586000000000E+01      3.463593000000000E-01     -6.071094000000000E+01      4.024200000000000E-01      1.461875000000000E+02      2.101898000000000E-01     -1.708750000000000E+02
4881000000.000000      6.835022000000000E-01     -5.020508000000000E+01      3.433533000000000E-01     -6.121484000000000E+01      3.966064000000000E-01      1.458047000000000E+02      2.089920000000000E-01     -1.689141000000000E+02
4882000000.000000      6.846008000000000E-01     -4.976757000000000E+01      3.414917000000000E-01     -6.167382000000000E+01      3.934174000000000E-01      1.454766000000000E+02      2.082825000000000E-01     -1.664141000000000E+02
