! Network Analyzer HP8722D
! Hewlett-Packard
! Data name: Linha & Wilkinson
! Saver's name: Rodrigo Anjos
! Comments: Teste da utilização de aquisição
continua pelo VNA HP8722D
! Time and date: 8/5/2025 16:11
!              Frequency                     S11                                                   S21                                                   S12                                                   S22
# HZ  S  MA R 50
4800000000.000000      8.966064000000000E-01      1.152539000000000E+02      3.232574000000000E-01     -1.712109000000000E+02      2.589874000000000E-01     -8.642187000000000E+01      9.754028000000000E-01     -4.837109000000000E+01
4801000000.000000      8.944702000000000E-01      1.155508000000000E+02      3.228912000000000E-01     -1.710156000000000E+02      2.588654000000000E-01     -8.642969000000000E+01      9.715271000000000E-01     -4.849999000000000E+01
4802000000.000000      8.917236000000000E-01      1.157969000000000E+02      3.228607000000000E-01     -1.709531000000000E+02      2.597656000000000E-01     -8.613672000000000E+01      9.665222000000000E-01     -4.839844000000000E+01
4803000000.000000      8.881226000000000E-01      1.159687000000000E+02      3.240204000000000E-01     -1.710078000000000E+02      2.587280000000000E-01     -8.604687000000000E+01      9.606323000000000E-01     -4.858203000000000E+01
4804000000.000000      8.908691000000000E-01      1.163086000000000E+02      3.245087000000000E-01     -1.709687000000000E+02      2.596436000000000E-01     -8.596483000000000E+01      9.546814000000000E-01     -4.853906000000000E+01
4805000000.000000      8.894653000000000E-01      1.165351000000000E+02      3.252411000000000E-01     -1.709844000000000E+02      2.587585000000000E-01     -8.571093000000000E+01      9.492188000000000E-01     -4.874218000000000E+01
4806000000.000000      8.854370000000000E-01      1.167226000000000E+02      3.247681000000000E-01     -1.708437000000000E+02      2.580109000000000E-01     -8.546484000000000E+01      9.437866000000000E-01     -4.891015000000000E+01
4807000000.000000      8.836365000000000E-01      1.169727000000000E+02      3.260803000000000E-01     -1.709766000000000E+02      2.590179000000000E-01     -8.532421000000000E+01      9.379272000000000E-01     -4.874023000000000E+01
4808000000.000000      8.815918000000000E-01      1.172344000000000E+02      3.269501000000000E-01     -1.708750000000000E+02      2.589264000000000E-01     -8.507421000000000E+01      9.337158000000000E-01     -4.886913000000000E+01
4809000000.000000      8.789673000000000E-01      1.174101000000000E+02      3.268890000000000E-01     -1.710078000000000E+02      2.597504000000000E-01     -8.495312000000000E+01      9.287109000000000E-01     -4.887695000000000E+01
4810000000.000000      8.760986000000000E-01      1.177109000000000E+02      3.275299000000000E-01     -1.708437000000000E+02      2.592163000000000E-01     -8.473436000000000E+01      9.220276000000000E-01     -4.913671000000000E+01
4811000000.000000      8.739319000000000E-01      1.179102000000000E+02      3.284912000000000E-01     -1.709063000000000E+02      2.602692000000000E-01     -8.439062000000000E+01      9.176941000000000E-01     -4.894531000000000E+01
4812000000.000000      8.716736000000000E-01      1.183633000000000E+02      3.283386000000000E-01     -1.710391000000000E+02      2.593536000000000E-01     -8.416407000000000E+01      9.101868000000000E-01     -4.909180000000000E+01
4813000000.000000      8.674011000000000E-01      1.184727000000000E+02      3.295288000000000E-01     -1.708828000000000E+02      2.592316000000000E-01     -8.392187000000000E+01      9.071350000000000E-01     -4.913671000000000E+01
4814000000.000000      8.651733000000000E-01      1.186758000000000E+02      3.297119000000000E-01     -1.709687000000000E+02      2.594147000000000E-01     -8.362108000000000E+01      9.018250000000000E-01     -4.920507000000000E+01
4815000000.000000      8.605347000000000E-01      1.189297000000000E+02      3.300476000000000E-01     -1.711016000000000E+02      2.594299000000000E-01     -8.337109000000000E+01      8.951721000000000E-01     -4.921484000000000E+01
4816000000.000000      8.606873000000000E-01      1.192305000000000E+02      3.317413000000000E-01     -1.710156000000000E+02      2.602386000000000E-01     -8.316797000000000E+01      8.901062000000000E-01     -4.931835000000000E+01
4817000000.000000      8.568115000000000E-01      1.194453000000000E+02      3.319397000000000E-01     -1.712734000000000E+02      2.598267000000000E-01     -8.286327000000000E+01      8.843689000000000E-01     -4.933984000000000E+01
4818000000.000000      8.537598000000000E-01      1.196601000000000E+02      3.322601000000000E-01     -1.711953000000000E+02      2.596893000000000E-01     -8.251562000000000E+01      8.790894000000000E-01     -4.939453000000000E+01
4819000000.000000      8.523865000000000E-01      1.198047000000000E+02      3.330383000000000E-01     -1.713281000000000E+02      2.594452000000000E-01     -8.235155000000000E+01      8.736877000000000E-01     -4.954296000000000E+01
4820000000.000000      8.442078000000000E-01      1.200742000000000E+02      3.332825000000000E-01     -1.713516000000000E+02      2.597961000000000E-01     -8.188280000000000E+01      8.686523000000000E-01     -4.951172000000000E+01
4821000000.000000      8.473816000000000E-01      1.201758000000000E+02      3.349152000000000E-01     -1.714844000000000E+02      2.600861000000000E-01     -8.172266000000000E+01      8.637695000000000E-01     -4.961132000000000E+01
4822000000.000000      8.419800000000000E-01      1.203203000000000E+02      3.350983000000000E-01     -1.716328000000000E+02      2.586823000000000E-01     -8.141796000000000E+01      8.586426000000000E-01     -4.969140000000000E+01
4823000000.000000      8.373108000000000E-01      1.204805000000000E+02      3.364410000000000E-01     -1.718437000000000E+02      2.590942000000000E-01     -8.096874000000000E+01      8.532410000000000E-01     -4.973633000000000E+01
4824000000.000000      8.330078000000000E-01      1.205976000000000E+02      3.367462000000000E-01     -1.720000000000000E+02      2.594452000000000E-01     -8.076563000000000E+01      8.474426000000000E-01     -4.974023000000000E+01
4825000000.000000      8.297729000000000E-01      1.208008000000000E+02      3.368988000000000E-01     -1.720391000000000E+02      2.598572000000000E-01     -8.045313000000000E+01      8.446045000000000E-01     -4.983398000000000E+01
4826000000.000000      8.264465000000000E-01      1.209961000000000E+02      3.383942000000000E-01     -1.722109000000000E+02      2.591705000000000E-01     -8.021093000000000E+01      8.395081000000000E-01     -5.006054000000000E+01
4827000000.000000      8.211365000000000E-01      1.210938000000000E+02      3.385468000000000E-01     -1.723281000000000E+02      2.591705000000000E-01     -7.982422000000000E+01      8.342590000000000E-01     -5.002343000000000E+01
4828000000.000000      8.192139000000000E-01      1.213242000000000E+02      3.387604000000000E-01     -1.723906000000000E+02      2.584076000000000E-01     -7.952734000000000E+01      8.297424000000000E-01     -5.017773000000000E+01
4829000000.000000      8.119507000000000E-01      1.216211000000000E+02      3.386688000000000E-01     -1.725469000000000E+02      2.602539000000000E-01     -7.922265000000000E+01      8.280029000000000E-01     -5.010351000000000E+01
4830000000.000000      8.094482000000000E-01      1.214297000000000E+02      3.397980000000000E-01     -1.728516000000000E+02      2.597656000000000E-01     -7.872265000000000E+01      8.195190000000000E-01     -5.028125000000000E+01
4831000000.000000      8.055420000000000E-01      1.216289000000000E+02      3.399811000000000E-01     -1.731016000000000E+02      2.599640000000000E-01     -7.844140000000000E+01      8.157654000000000E-01     -5.025976000000000E+01
4832000000.000000      8.012695000000000E-01      1.216836000000000E+02      3.404388000000000E-01     -1.733203000000000E+02      2.596741000000000E-01     -7.807031000000000E+01      8.118896000000000E-01     -5.029687000000000E+01
4833000000.000000      7.956848000000000E-01      1.218164000000000E+02      3.406830000000000E-01     -1.735469000000000E+02      2.600403000000000E-01     -7.781250000000000E+01      8.066406000000000E-01     -5.041210000000000E+01
4834000000.000000      7.891846000000000E-01      1.219336000000000E+02      3.411407000000000E-01     -1.736406000000000E+02      2.599335000000000E-01     -7.746875000000000E+01      8.028564000000000E-01     -5.046875000000000E+01
4835000000.000000      7.859497000000000E-01      1.218906000000000E+02      3.412170000000000E-01     -1.739063000000000E+02      2.606354000000000E-01     -7.717578000000000E+01      7.995300000000000E-01     -5.057031000000000E+01
4836000000.000000      7.830505000000000E-01      1.220898000000000E+02      3.413391000000000E-01     -1.742656000000000E+02      2.605133000000000E-01     -7.679688000000000E+01      7.953796000000000E-01     -5.057031000000000E+01
4837000000.000000      7.753906000000000E-01      1.222266000000000E+02      3.408966000000000E-01     -1.746094000000000E+02      2.609558000000000E-01     -7.656250000000000E+01      7.911377000000000E-01     -5.058398000000000E+01
4838000000.000000      7.711182000000000E-01      1.220469000000000E+02      3.417969000000000E-01     -1.746562000000000E+02      2.606354000000000E-01     -7.602734000000000E+01      7.869263000000000E-01     -5.068554000000000E+01
4839000000.000000      7.686462000000000E-01      1.222461000000000E+02      3.416290000000000E-01     -1.748359000000000E+02      2.608490000000000E-01     -7.593359000000000E+01      7.844543000000000E-01     -5.086328000000000E+01
4840000000.000000      7.591553000000000E-01      1.221680000000000E+02      3.417969000000000E-01     -1.749375000000000E+02      2.615051000000000E-01     -7.554688000000000E+01      7.802734000000000E-01     -5.087304000000000E+01
4841000000.000000      7.556152000000000E-01      1.221601000000000E+02      3.418274000000000E-01     -1.754062000000000E+02      2.617798000000000E-01     -7.516406000000000E+01      7.772522000000000E-01     -5.088867000000000E+01
4842000000.000000      7.507324000000000E-01      1.221875000000000E+02      3.412781000000000E-01     -1.756016000000000E+02      2.615356000000000E-01     -7.489062000000000E+01      7.744141000000000E-01     -5.094336000000000E+01
4843000000.000000      7.449646000000000E-01      1.220664000000000E+02      3.415833000000000E-01     -1.758750000000000E+02      2.620392000000000E-01     -7.461328000000000E+01      7.709656000000000E-01     -5.097070000000000E+01
4844000000.000000      7.388000000000000E-01      1.219375000000000E+02      3.413391000000000E-01     -1.761328000000000E+02      2.619934000000000E-01     -7.407031000000000E+01      7.662964000000000E-01     -5.111718000000000E+01
4845000000.000000      7.311096000000000E-01      1.220976000000000E+02      3.398285000000000E-01     -1.763359000000000E+02      2.625885000000000E-01     -7.392187000000000E+01      7.623291000000000E-01     -5.117188000000000E+01
4846000000.000000      7.279663000000000E-01      1.219492000000000E+02      3.406830000000000E-01     -1.766328000000000E+02      2.635345000000000E-01     -7.350780000000000E+01      7.594910000000000E-01     -5.123241000000000E+01
4847000000.000000      7.219543000000000E-01      1.219219000000000E+02      3.395691000000000E-01     -1.767031000000000E+02      2.635040000000000E-01     -7.340625000000000E+01      7.574463000000000E-01     -5.137500000000000E+01
4848000000.000000      7.151184000000000E-01      1.217383000000000E+02      3.387451000000000E-01     -1.770156000000000E+02      2.635803000000000E-01     -7.292187000000000E+01      7.530212000000000E-01     -5.140234000000000E+01
4849000000.000000      7.095337000000000E-01      1.214648000000000E+02      3.386230000000000E-01     -1.774531000000000E+02      2.641602000000000E-01     -7.251562000000000E+01      7.503967000000000E-01     -5.135937000000000E+01
4850000000.000000      7.036438000000000E-01      1.215156000000000E+02      3.378143000000000E-01     -1.775859000000000E+02      2.641144000000000E-01     -7.232031000000000E+01      7.469177000000000E-01     -5.145898000000000E+01
4851000000.000000      6.978149000000000E-01      1.213984000000000E+02      3.378754000000000E-01     -1.779766000000000E+02      2.647400000000000E-01     -7.218750000000000E+01      7.458496000000000E-01     -5.154687000000000E+01
4852000000.000000      6.902466000000000E-01      1.211406000000000E+02      3.367004000000000E-01     -1.781328000000000E+02      2.649231000000000E-01     -7.173437000000000E+01      7.418823000000000E-01     -5.152929000000000E+01
4853000000.000000      6.876221000000000E-01      1.211875000000000E+02      3.351288000000000E-01     -1.785547000000000E+02      2.655182000000000E-01     -7.153125000000000E+01      7.390137000000000E-01     -5.175390000000000E+01
4854000000.000000      6.775818000000000E-01      1.207617000000000E+02      3.352051000000000E-01     -1.787266000000000E+02      2.654724000000000E-01     -7.130468000000000E+01      7.370605000000000E-01     -5.174609000000000E+01
4855000000.000000      6.720276000000000E-01      1.206836000000000E+02      3.343811000000000E-01     -1.788750000000000E+02      2.660675000000000E-01     -7.093750000000000E+01      7.311401000000000E-01     -5.172265000000000E+01
4856000000.000000      6.667480000000000E-01      1.204688000000000E+02      3.331451000000000E-01     -1.791328000000000E+02      2.658691000000000E-01     -7.065234000000000E+01      7.308044000000000E-01     -5.186913000000000E+01
4857000000.000000      6.600037000000000E-01      1.202383000000000E+02      3.329010000000000E-01     -1.793906000000000E+02      2.667999000000000E-01     -7.041797000000000E+01      7.270203000000000E-01     -5.189258000000000E+01
4858000000.000000      6.514893000000000E-01      1.199141000000000E+02      3.316498000000000E-01     -1.794765000000000E+02      2.669373000000000E-01     -7.015234000000000E+01      7.243347000000000E-01     -5.197460000000000E+01
4859000000.000000      6.458435000000000E-01      1.196328000000000E+02      3.308716000000000E-01     -1.797812000000000E+02      2.675934000000000E-01     -6.996484000000000E+01      7.241516000000000E-01     -5.203711000000000E+01
4860000000.000000      6.403809000000000E-01      1.194180000000000E+02      3.296661000000000E-01      1.799609000000000E+02      2.673187000000000E-01     -6.973437000000000E+01      7.202148000000000E-01     -5.206249000000000E+01
4861000000.000000      6.349182000000000E-01      1.192656000000000E+02      3.281555000000000E-01      1.796875000000000E+02      2.681885000000000E-01     -6.954296000000000E+01      7.164917000000000E-01     -5.212304000000000E+01
4862000000.000000      6.282043000000000E-01      1.189063000000000E+02      3.281097000000000E-01      1.795312000000000E+02      2.686310000000000E-01     -6.937500000000000E+01      7.169189000000000E-01     -5.210155000000000E+01
4863000000.000000      6.222229000000000E-01      1.185820000000000E+02      3.262482000000000E-01      1.792422000000000E+02      2.693634000000000E-01     -6.907421000000000E+01      7.144775000000000E-01     -5.209179000000000E+01
4864000000.000000      6.157837000000000E-01      1.180937000000000E+02      3.256836000000000E-01      1.792578000000000E+02      2.688751000000000E-01     -6.875390000000000E+01      7.104797000000000E-01     -5.228710000000000E+01
4865000000.000000      6.094971000000000E-01      1.178555000000000E+02      3.238983000000000E-01      1.790313000000000E+02      2.689972000000000E-01     -6.878906000000000E+01      7.091064000000000E-01     -5.221093000000000E+01
4866000000.000000      6.020813000000000E-01      1.174726000000000E+02      3.221893000000000E-01      1.788281000000000E+02      2.694855000000000E-01     -6.864452000000000E+01      7.066040000000000E-01     -5.221680000000000E+01
4867000000.000000      5.960999000000000E-01      1.171601000000000E+02      3.215942000000000E-01      1.785312000000000E+02      2.695007000000000E-01     -6.849218000000000E+01      7.054749000000000E-01     -5.225976000000000E+01
4868000000.000000      5.908813000000000E-01      1.165820000000000E+02      3.203583000000000E-01      1.783281000000000E+02      2.702942000000000E-01     -6.821875000000000E+01      7.021179000000000E-01     -5.226757000000000E+01
4869000000.000000      5.840149000000000E-01      1.163477000000000E+02      3.191528000000000E-01      1.782500000000000E+02      2.707672000000000E-01     -6.824219000000000E+01      7.007141000000000E-01     -5.237890000000000E+01
4870000000.000000      5.788574000000000E-01      1.159961000000000E+02      3.176880000000000E-01      1.781328000000000E+02      2.706451000000000E-01     -6.804296000000000E+01      6.980591000000000E-01     -5.229101000000000E+01
4871000000.000000      5.744934000000000E-01      1.154414000000000E+02      3.166199000000000E-01      1.778516000000000E+02      2.708435000000000E-01     -6.790625000000000E+01      6.962280000000000E-01     -5.241211000000000E+01
4872000000.000000      5.686951000000000E-01      1.149570000000000E+02      3.150024000000000E-01      1.778984000000000E+02      2.709045000000000E-01     -6.797656000000000E+01      6.950073000000000E-01     -5.251367000000000E+01
4873000000.000000      5.630798000000000E-01      1.146328000000000E+02      3.139954000000000E-01      1.776875000000000E+02      2.708282000000000E-01     -6.773438000000000E+01      6.916199000000000E-01     -5.242578000000000E+01
4874000000.000000      5.549316000000000E-01      1.140820000000000E+02      3.126678000000000E-01      1.774844000000000E+02      2.713470000000000E-01     -6.764453000000000E+01      6.894531000000000E-01     -5.237499000000000E+01
4875000000.000000      5.514526000000000E-01      1.135390000000000E+02      3.110809000000000E-01      1.773828000000000E+02      2.712708000000000E-01     -6.753906000000000E+01      6.879883000000000E-01     -5.253711000000000E+01
4876000000.000000      5.462952000000000E-01      1.133125000000000E+02      3.099060000000000E-01      1.773203000000000E+02      2.710724000000000E-01     -6.757813000000000E+01      6.856384000000000E-01     -5.268945000000000E+01
4877000000.000000      5.415344000000000E-01      1.124258000000000E+02      3.089294000000000E-01      1.771406000000000E+02      2.711945000000000E-01     -6.752343000000000E+01      6.834412000000000E-01     -5.250586000000000E+01
4878000000.000000      5.370789000000000E-01      1.120195000000000E+02      3.080750000000000E-01      1.769844000000000E+02      2.714996000000000E-01     -6.738281000000000E+01      6.813965000000000E-01     -5.255859000000000E+01
4879000000.000000      5.327759000000000E-01      1.113984000000000E+02      3.063507000000000E-01      1.769219000000000E+02      2.711945000000000E-01     -6.735546000000000E+01      6.795044000000000E-01     -5.255468000000000E+01
4880000000.000000      5.264587000000000E-01      1.110547000000000E+02      3.052063000000000E-01      1.767422000000000E+02      2.714233000000000E-01     -6.726953000000000E+01      6.765442000000000E-01     -5.240039000000000E+01
4881000000.000000      5.231323000000000E-01      1.105703000000000E+02      3.046570000000000E-01      1.768906000000000E+02      2.715302000000000E-01     -6.730469000000000E+01      6.747437000000000E-01     -5.238671000000000E+01
4882000000.000000      5.170593000000000E-01      1.099531000000000E+02      3.036346000000000E-01      1.766484000000000E+02      2.714081000000000E-01     -6.721874000000000E+01      6.725769000000000E-01     -5.247656000000000E+01
