! Network Analyzer HP8722D
! Hewlett-Packard
! Data name: Linha & Wilkinson
! Saver's name: Rodrigo Anjos
! Comments: Teste da utilização de aquisição
continua pelo VNA HP8722D
! Time and date: 8/5/2025 15:16
!              Frequency                     S11                                                   S21                                                   S12                                                   S22
# HZ  S  MA R 50
4800000000.000000      5.237427000000000E-01     -2.488867000000000E+01      3.826141000000000E-01     -1.525859000000000E+02      4.007874000000000E-01      7.121826000000000E+00      4.917450000000000E-01      5.589294000000000E-01
4801000000.000000      5.224915000000000E-01     -2.452929000000000E+01      3.863983000000000E-01     -1.526016000000000E+02      4.044342000000000E-01      6.744141000000000E+00      4.887543000000000E-01      6.001282000000000E-01
4802000000.000000      5.202026000000000E-01     -2.436718000000000E+01      3.893738000000000E-01     -1.532500000000000E+02      4.073029000000000E-01      6.624756000000000E+00      4.806519000000000E-01      1.012085000000000E+00
4803000000.000000      5.202942000000000E-01     -2.413476000000000E+01      3.952637000000000E-01     -1.534453000000000E+02      4.113007000000000E-01      6.463867000000000E+00      4.754486000000000E-01      9.091187000000000E-01
4804000000.000000      5.182190000000000E-01     -2.379687000000000E+01      3.990479000000000E-01     -1.539844000000000E+02      4.155884000000000E-01      6.403564000000000E+00      4.661865000000000E-01      1.117859000000000E+00
4805000000.000000      5.184937000000000E-01     -2.355469000000000E+01      4.023590000000000E-01     -1.542109000000000E+02      4.198914000000000E-01      6.093262000000000E+00      4.612885000000000E-01      1.341675000000000E+00
4806000000.000000      5.170288000000000E-01     -2.332812000000000E+01      4.053192000000000E-01     -1.547656000000000E+02      4.227600000000000E-01      6.139893000000000E+00      4.537048000000000E-01      1.271667000000000E+00
4807000000.000000      5.156555000000000E-01     -2.312402000000000E+01      4.091187000000000E-01     -1.551953000000000E+02      4.272766000000000E-01      5.737549000000000E+00      4.459076000000000E-01      1.660278000000000E+00
4808000000.000000      5.137024000000000E-01     -2.271484000000000E+01      4.137573000000000E-01     -1.554453000000000E+02      4.306183000000000E-01      5.579590000000000E+00      4.396515000000000E-01      1.855286000000000E+00
4809000000.000000      5.144348000000000E-01     -2.243066000000000E+01      4.169922000000000E-01     -1.562266000000000E+02      4.353943000000000E-01      5.614014000000000E+00      4.321747000000000E-01      2.209595000000000E+00
4810000000.000000      5.126648000000000E-01     -2.229492000000000E+01      4.195709000000000E-01     -1.563437000000000E+02      4.373322000000000E-01      5.524658000000000E+00      4.245605000000000E-01      2.172485000000000E+00
4811000000.000000      5.133667000000000E-01     -2.213086000000000E+01      4.236755000000000E-01     -1.569687000000000E+02      4.420166000000000E-01      5.603027000000000E+00      4.167175000000000E-01      2.743774000000000E+00
4812000000.000000      5.121765000000000E-01     -2.171093000000000E+01      4.274750000000000E-01     -1.572187000000000E+02      4.459229000000000E-01      5.166260000000000E+00      4.092560000000000E-01      2.753418000000000E+00
4813000000.000000      5.106201000000000E-01     -2.200293000000000E+01      4.302826000000000E-01     -1.578984000000000E+02      4.487610000000000E-01      5.149658000000000E+00      4.020538000000000E-01      3.312378000000000E+00
4814000000.000000      5.064392000000000E-01     -2.166699000000000E+01      4.333649000000000E-01     -1.582031000000000E+02      4.529724000000000E-01      4.907959000000000E+00      3.934937000000000E-01      3.518311000000000E+00
4815000000.000000      5.069275000000000E-01     -2.125195000000000E+01      4.371490000000000E-01     -1.585625000000000E+02      4.545746000000000E-01      4.836670000000000E+00      3.850555000000000E-01      3.946777000000000E+00
4816000000.000000      5.071716000000000E-01     -2.101563000000000E+01      4.394226000000000E-01     -1.589687000000000E+02      4.604950000000000E-01      4.766602000000000E+00      3.773804000000000E-01      4.321533000000000E+00
4817000000.000000      5.054016000000000E-01     -2.099512000000000E+01      4.421539000000000E-01     -1.595703000000000E+02      4.619904000000000E-01      4.557861000000000E+00      3.666840000000000E-01      4.854492000000000E+00
4818000000.000000      5.026550000000000E-01     -2.086230000000000E+01      4.458466000000000E-01     -1.599297000000000E+02      4.675140000000000E-01      4.277588000000000E+00      3.587036000000000E-01      5.178467000000000E+00
4819000000.000000      5.026855000000000E-01     -2.058887000000000E+01      4.473724000000000E-01     -1.602890000000000E+02      4.692688000000000E-01      4.288574000000000E+00      3.490448000000000E-01      5.526123000000000E+00
4820000000.000000      5.017700000000000E-01     -2.050195000000000E+01      4.511871000000000E-01     -1.606953000000000E+02      4.732971000000000E-01      4.088135000000000E+00      3.412323000000000E-01      6.189209000000000E+00
4821000000.000000      5.006714000000000E-01     -2.040918000000000E+01      4.536438000000000E-01     -1.614766000000000E+02      4.753418000000000E-01      3.868530000000000E+00      3.317566000000000E-01      6.973389000000000E+00
4822000000.000000      4.960327000000000E-01     -2.001172000000000E+01      4.548187000000000E-01     -1.617500000000000E+02      4.802246000000000E-01      3.624023000000000E+00      3.238220000000000E-01      7.245361000000000E+00
4823000000.000000      4.977570000000000E-01     -2.002734000000000E+01      4.591522000000000E-01     -1.624141000000000E+02      4.827576000000000E-01      3.725708000000000E+00      3.140259000000000E-01      8.020996000000000E+00
4824000000.000000      4.947357000000000E-01     -1.982129000000000E+01      4.604492000000000E-01     -1.628594000000000E+02      4.864502000000000E-01      3.299927000000000E+00      3.050385000000000E-01      8.527832000000000E+00
4825000000.000000      4.940796000000000E-01     -1.977832000000000E+01      4.634094000000000E-01     -1.631797000000000E+02      4.895172000000000E-01      3.298584000000000E+00      2.967377000000000E-01      9.427246000000000E+00
4826000000.000000      4.899750000000000E-01     -1.975390000000000E+01      4.656372000000000E-01     -1.638281000000000E+02      4.928284000000000E-01      3.212036000000000E+00      2.875671000000000E-01      1.032422000000000E+01
4827000000.000000      4.908752000000000E-01     -1.956445000000000E+01      4.676666000000000E-01     -1.639922000000000E+02      4.953613000000000E-01      2.986816000000000E+00      2.788239000000000E-01      1.114697000000000E+01
4828000000.000000      4.902802000000000E-01     -1.942871000000000E+01      4.705658000000000E-01     -1.645156000000000E+02      4.984741000000000E-01      2.915405000000000E+00      2.698975000000000E-01      1.187061000000000E+01
4829000000.000000      4.867859000000000E-01     -1.897949000000000E+01      4.727173000000000E-01     -1.649765000000000E+02      5.017700000000000E-01      2.830322000000000E+00      2.621155000000000E-01      1.342383000000000E+01
4830000000.000000      4.875336000000000E-01     -1.915527000000000E+01      4.743042000000000E-01     -1.654063000000000E+02      5.040894000000000E-01      2.664185000000000E+00      2.514191000000000E-01      1.471582000000000E+01
4831000000.000000      4.830780000000000E-01     -1.902637000000000E+01      4.751434000000000E-01     -1.661016000000000E+02      5.072327000000000E-01      2.302979000000000E+00      2.428055000000000E-01      1.579688000000000E+01
4832000000.000000      4.826050000000000E-01     -1.891894000000000E+01      4.772034000000000E-01     -1.663281000000000E+02      5.101013000000000E-01      2.052979000000000E+00      2.342072000000000E-01      1.751953000000000E+01
4833000000.000000      4.791565000000000E-01     -1.858789000000000E+01      4.789581000000000E-01     -1.666719000000000E+02      5.133667000000000E-01      1.884155000000000E+00      2.254028000000000E-01      1.887109000000000E+01
4834000000.000000      4.781189000000000E-01     -1.853320000000000E+01      4.810944000000000E-01     -1.674375000000000E+02      5.171509000000000E-01      1.801758000000000E+00      2.179947000000000E-01      2.068164000000000E+01
4835000000.000000      4.778137000000000E-01     -1.830664000000000E+01      4.832458000000000E-01     -1.676094000000000E+02      5.185852000000000E-01      1.564148000000000E+00      2.098389000000000E-01      2.248145000000000E+01
4836000000.000000      4.760590000000000E-01     -1.796191000000000E+01      4.843292000000000E-01     -1.680859000000000E+02      5.199585000000000E-01      1.697388000000000E+00      2.019501000000000E-01      2.477636000000000E+01
4837000000.000000      4.746704000000000E-01     -1.812891000000000E+01      4.851532000000000E-01     -1.685937000000000E+02      5.229187000000000E-01      1.307373000000000E+00      1.945724000000000E-01      2.725488000000000E+01
4838000000.000000      4.708557000000000E-01     -1.776953000000000E+01      4.879303000000000E-01     -1.687500000000000E+02      5.243835000000000E-01      1.106873000000000E+00      1.882019000000000E-01      2.927637000000000E+01
4839000000.000000      4.722595000000000E-01     -1.767187000000000E+01      4.895172000000000E-01     -1.693516000000000E+02      5.279846000000000E-01      1.119202000000000E+00      1.819916000000000E-01      3.165430000000000E+01
4840000000.000000      4.700775000000000E-01     -1.750488000000000E+01      4.891052000000000E-01     -1.699844000000000E+02      5.298157000000000E-01      8.143616000000000E-01      1.755524000000000E-01      3.447656000000000E+01
4841000000.000000      4.662933000000000E-01     -1.726660000000000E+01      4.900665000000000E-01     -1.702422000000000E+02      5.323181000000000E-01      6.990051000000000E-01      1.706848000000000E-01      3.774609000000000E+01
4842000000.000000      4.651794000000000E-01     -1.721875000000000E+01      4.915466000000000E-01     -1.705625000000000E+02      5.337219000000000E-01      5.836487000000000E-01      1.661148000000000E-01      4.116211000000000E+01
4843000000.000000      4.667511000000000E-01     -1.700000000000000E+01      4.943848000000000E-01     -1.712891000000000E+02      5.370483000000000E-01      2.925110000000000E-01      1.620178000000000E-01      4.455274000000000E+01
4844000000.000000      4.641571000000000E-01     -1.685449000000000E+01      4.950714000000000E-01     -1.715156000000000E+02      5.386047000000000E-01      2.087402000000000E-01      1.570511000000000E-01      4.818749000000000E+01
4845000000.000000      4.615173000000000E-01     -1.652637000000000E+01      4.950409000000000E-01     -1.719609000000000E+02      5.409851000000000E-01      4.119873000000000E-03      1.555557000000000E-01      5.171093000000000E+01
4846000000.000000      4.627533000000000E-01     -1.609570000000000E+01      4.960022000000000E-01     -1.723047000000000E+02      5.430298000000000E-01     -2.444458000000000E-01      1.533890000000000E-01      5.593554000000000E+01
4847000000.000000      4.594574000000000E-01     -1.606641000000000E+01      4.974213000000000E-01     -1.725312000000000E+02      5.451965000000000E-01     -4.106140000000000E-01      1.525192000000000E-01      5.916016000000000E+01
4848000000.000000      4.599457000000000E-01     -1.586426000000000E+01      4.961243000000000E-01     -1.730547000000000E+02      5.475159000000000E-01     -5.300903000000000E-01      1.531067000000000E-01      6.302929000000000E+01
4849000000.000000      4.579620000000000E-01     -1.560205000000000E+01      4.990540000000000E-01     -1.733281000000000E+02      5.476685000000000E-01     -8.116150000000000E-01      1.518631000000000E-01      6.714453000000000E+01
4850000000.000000      4.585571000000000E-01     -1.545410000000000E+01      4.999390000000000E-01     -1.737969000000000E+02      5.485840000000000E-01     -9.530640000000000E-01      1.548615000000000E-01      7.076562000000000E+01
4851000000.000000      4.581146000000000E-01     -1.493896000000000E+01      5.010071000000000E-01     -1.741641000000000E+02      5.506287000000000E-01     -1.060181000000000E+00      1.566849000000000E-01      7.411327000000000E+01
4852000000.000000      4.580383000000000E-01     -1.470410000000000E+01      5.017700000000000E-01     -1.745000000000000E+02      5.525818000000000E-01     -1.164551000000000E+00      1.587601000000000E-01      7.753906000000000E+01
4853000000.000000      4.567871000000000E-01     -1.453516000000000E+01      4.994202000000000E-01     -1.748437000000000E+02      5.547791000000000E-01     -1.380188000000000E+00      1.621246000000000E-01      8.081249000000000E+01
4854000000.000000      4.570160000000000E-01     -1.428516000000000E+01      5.027466000000000E-01     -1.751484000000000E+02      5.542603000000000E-01     -1.517517000000000E+00      1.667480000000000E-01      8.385157000000000E+01
4855000000.000000      4.554138000000000E-01     -1.393213000000000E+01      5.034485000000000E-01     -1.755703000000000E+02      5.567322000000000E-01     -1.808655000000000E+00      1.702881000000000E-01      8.687500000000000E+01
4856000000.000000      4.560852000000000E-01     -1.347070000000000E+01      5.036316000000000E-01     -1.757656000000000E+02      5.575562000000000E-01     -2.022949000000000E+00      1.762619000000000E-01      8.942968000000000E+01
4857000000.000000      4.559021000000000E-01     -1.343115000000000E+01      5.057373000000000E-01     -1.762187000000000E+02      5.576477000000000E-01     -2.040771000000000E+00      1.795731000000000E-01      9.184374000000000E+01
4858000000.000000      4.557800000000000E-01     -1.309180000000000E+01      5.060120000000000E-01     -1.766172000000000E+02      5.573120000000000E-01     -2.245361000000000E+00      1.854782000000000E-01      9.384375000000000E+01
4859000000.000000      4.537354000000000E-01     -1.307373000000000E+01      5.059204000000000E-01     -1.768359000000000E+02      5.590210000000000E-01     -2.195923000000000E+00      1.895752000000000E-01      9.564062000000000E+01
4860000000.000000      4.558563000000000E-01     -1.271143000000000E+01      5.056152000000000E-01     -1.772031000000000E+02      5.588379000000000E-01     -2.584595000000000E+00      1.962204000000000E-01      9.755077000000000E+01
4861000000.000000      4.580383000000000E-01     -1.245166000000000E+01      5.079041000000000E-01     -1.776250000000000E+02      5.602722000000000E-01     -2.721924000000000E+00      2.027283000000000E-01      9.968750000000000E+01
4862000000.000000      4.557495000000000E-01     -1.198340000000000E+01      5.090637000000000E-01     -1.779140000000000E+02      5.612183000000000E-01     -2.789185000000000E+00      2.094040000000000E-01      1.014492000000000E+02
4863000000.000000      4.591827000000000E-01     -1.167871000000000E+01      5.075378000000000E-01     -1.783516000000000E+02      5.603943000000000E-01     -3.036377000000000E+00      2.145462000000000E-01      1.023750000000000E+02
4864000000.000000      4.607391000000000E-01     -1.135449000000000E+01      5.109863000000000E-01     -1.785156000000000E+02      5.610962000000000E-01     -2.973267000000000E+00      2.206345000000000E-01      1.035976000000000E+02
4865000000.000000      4.601135000000000E-01     -1.137402000000000E+01      5.102844000000000E-01     -1.789219000000000E+02      5.601807000000000E-01     -3.179199000000000E+00      2.283707000000000E-01      1.051015000000000E+02
4866000000.000000      4.628143000000000E-01     -1.117480000000000E+01      5.103455000000000E-01     -1.794375000000000E+02      5.606995000000000E-01     -3.444214000000000E+00      2.327576000000000E-01      1.055820000000000E+02
4867000000.000000      4.649506000000000E-01     -1.090430000000000E+01      5.121155000000000E-01     -1.796562000000000E+02      5.604553000000000E-01     -3.455200000000000E+00      2.378006000000000E-01      1.071406000000000E+02
4868000000.000000      4.662781000000000E-01     -1.053760000000000E+01      5.119019000000000E-01      1.797969000000000E+02      5.602112000000000E-01     -3.576050000000000E+00      2.439041000000000E-01      1.076641000000000E+02
4869000000.000000      4.673157000000000E-01     -1.041504000000000E+01      5.136719000000000E-01      1.796562000000000E+02      5.615540000000000E-01     -3.600830000000000E+00      2.487335000000000E-01      1.088711000000000E+02
4870000000.000000      4.678040000000000E-01     -9.887695000000000E+00      5.128479000000000E-01      1.794375000000000E+02      5.616455000000000E-01     -3.821899000000000E+00      2.561340000000000E-01      1.096406000000000E+02
4871000000.000000      4.700317000000000E-01     -9.966309000000000E+00      5.149231000000000E-01      1.789375000000000E+02      5.601196000000000E-01     -3.705200000000000E+00      2.612610000000000E-01      1.098789000000000E+02
4872000000.000000      4.745178000000000E-01     -9.639160000000000E+00      5.152283000000000E-01      1.787422000000000E+02      5.591736000000000E-01     -4.023926000000000E+00      2.657013000000000E-01      1.105430000000000E+02
4873000000.000000      4.768524000000000E-01     -9.397461000000000E+00      5.168762000000000E-01      1.781484000000000E+02      5.585938000000000E-01     -4.006104000000000E+00      2.728577000000000E-01      1.110469000000000E+02
4874000000.000000      4.779968000000000E-01     -9.293457000000000E+00      5.151672000000000E-01      1.777422000000000E+02      5.612183000000000E-01     -4.203857000000000E+00      2.757263000000000E-01      1.114375000000000E+02
4875000000.000000      4.821320000000000E-01     -8.889648000000000E+00      5.160522000000000E-01      1.775469000000000E+02      5.582581000000000E-01     -4.059570000000000E+00      2.794647000000000E-01      1.117188000000000E+02
4876000000.000000      4.837189000000000E-01     -8.860840000000000E+00      5.178223000000000E-01      1.770703000000000E+02      5.599060000000000E-01     -3.966064000000000E+00      2.871399000000000E-01      1.125469000000000E+02
4877000000.000000      4.870758000000000E-01     -8.922363000000000E+00      5.178833000000000E-01      1.768047000000000E+02      5.574341000000000E-01     -4.371338000000000E+00      2.917023000000000E-01      1.126055000000000E+02
4878000000.000000      4.905090000000000E-01     -8.532715000000000E+00      5.182800000000000E-01      1.764062000000000E+02      5.564270000000000E-01     -4.375488000000000E+00      2.948456000000000E-01      1.129375000000000E+02
4879000000.000000      4.931488000000000E-01     -8.476074000000000E+00      5.196838000000000E-01      1.762812000000000E+02      5.579834000000000E-01     -4.294434000000000E+00      2.995911000000000E-01      1.131133000000000E+02
4880000000.000000      4.961700000000000E-01     -8.535156000000000E+00      5.208435000000000E-01      1.756719000000000E+02      5.558167000000000E-01     -4.347900000000000E+00      3.034668000000000E-01      1.135586000000000E+02
4881000000.000000      4.978333000000000E-01     -8.159180000000000E+00      5.209351000000000E-01      1.753438000000000E+02      5.560913000000000E-01     -4.264160000000000E+00      3.079834000000000E-01      1.136445000000000E+02
4882000000.000000      5.027771000000000E-01     -8.186523000000000E+00      5.220337000000000E-01      1.748594000000000E+02      5.545044000000000E-01     -4.323242000000000E+00      3.116150000000000E-01      1.138242000000000E+02
