! Network Analyzer HP8722D
! Hewlett-Packard
! Data name: Linha & Wilkinson
! Saver's name: Rodrigo Anjos
! Comments: Teste da utilização de aquisição
continua pelo VNA HP8722D
! Time and date: 8/5/2025 14:47
!              Frequency                     S11                                                   S21                                                   S12                                                   S22
# HZ  S  MA R 50
4800000000.000000      5.248108000000000E-01     -2.503320000000000E+01      3.795471000000000E-01     -1.520937000000000E+02      3.994751000000000E-01      7.373047000000000E+00      4.924164000000000E-01      5.108643000000000E-01
4801000000.000000      5.237732000000000E-01     -2.451953000000000E+01      3.833466000000000E-01     -1.523516000000000E+02      4.011078000000000E-01      7.212402000000000E+00      4.891357000000000E-01      7.223511000000000E-01
4802000000.000000      5.213928000000000E-01     -2.432031000000000E+01      3.883514000000000E-01     -1.526406000000000E+02      4.057465000000000E-01      7.095703000000000E+00      4.836121000000000E-01      1.027222000000000E+00
4803000000.000000      5.209961000000000E-01     -2.416894000000000E+01      3.933411000000000E-01     -1.531016000000000E+02      4.101105000000000E-01      6.744141000000000E+00      4.765472000000000E-01      1.079407000000000E+00
4804000000.000000      5.216370000000000E-01     -2.375293000000000E+01      3.970032000000000E-01     -1.533047000000000E+02      4.149017000000000E-01      6.690674000000000E+00      4.692841000000000E-01      1.311462000000000E+00
4805000000.000000      5.218811000000000E-01     -2.376074000000000E+01      3.993835000000000E-01     -1.538047000000000E+02      4.179688000000000E-01      6.560059000000000E+00      4.627991000000000E-01      1.318359000000000E+00
4806000000.000000      5.191650000000000E-01     -2.334668000000000E+01      4.027405000000000E-01     -1.541953000000000E+02      4.209747000000000E-01      6.571045000000000E+00      4.553833000000000E-01      1.378784000000000E+00
4807000000.000000      5.165405000000000E-01     -2.312109000000000E+01      4.061279000000000E-01     -1.549531000000000E+02      4.250793000000000E-01      6.392578000000000E+00      4.480286000000000E-01      1.669922000000000E+00
4808000000.000000      5.152588000000000E-01     -2.304004000000000E+01      4.120178000000000E-01     -1.550156000000000E+02      4.281158000000000E-01      6.142578000000000E+00      4.414673000000000E-01      1.932190000000000E+00
4809000000.000000      5.147400000000000E-01     -2.256543000000000E+01      4.138641000000000E-01     -1.556406000000000E+02      4.334564000000000E-01      5.910645000000000E+00      4.337311000000000E-01      2.150513000000000E+00
4810000000.000000      5.145569000000000E-01     -2.240429000000000E+01      4.187775000000000E-01     -1.558516000000000E+02      4.370575000000000E-01      6.019043000000000E+00      4.267273000000000E-01      2.204102000000000E+00
4811000000.000000      5.147400000000000E-01     -2.218750000000000E+01      4.217224000000000E-01     -1.565156000000000E+02      4.414368000000000E-01      5.852783000000000E+00      4.187164000000000E-01      2.627075000000000E+00
4812000000.000000      5.138855000000000E-01     -2.195410000000000E+01      4.244385000000000E-01     -1.569062000000000E+02      4.440155000000000E-01      5.572754000000000E+00      4.107971000000000E-01      2.716309000000000E+00
4813000000.000000      5.089111000000000E-01     -2.190136000000000E+01      4.279480000000000E-01     -1.573047000000000E+02      4.463806000000000E-01      5.534180000000000E+00      4.036407000000000E-01      3.380981000000000E+00
4814000000.000000      5.077515000000000E-01     -2.162988000000000E+01      4.336090000000000E-01     -1.577734000000000E+02      4.500732000000000E-01      5.427246000000000E+00      3.949127000000000E-01      3.440063000000000E+00
4815000000.000000      5.078430000000000E-01     -2.137305000000000E+01      4.343719000000000E-01     -1.581016000000000E+02      4.532318000000000E-01      5.239014000000000E+00      3.870544000000000E-01      3.878174000000000E+00
4816000000.000000      5.063782000000000E-01     -2.139355000000000E+01      4.383392000000000E-01     -1.586328000000000E+02      4.587555000000000E-01      5.201904000000000E+00      3.793488000000000E-01      4.167725000000000E+00
4817000000.000000      5.057983000000000E-01     -2.102246000000000E+01      4.419250000000000E-01     -1.591563000000000E+02      4.616699000000000E-01      4.898438000000000E+00      3.688812000000000E-01      4.714355000000000E+00
4818000000.000000      5.036011000000000E-01     -2.086230000000000E+01      4.444122000000000E-01     -1.596172000000000E+02      4.639130000000000E-01      4.950684000000000E+00      3.601074000000000E-01      5.065918000000000E+00
4819000000.000000      5.032959000000000E-01     -2.074512000000000E+01      4.466858000000000E-01     -1.599375000000000E+02      4.692383000000000E-01      4.636230000000000E+00      3.506927000000000E-01      5.391357000000000E+00
4820000000.000000      5.018921000000000E-01     -2.050097000000000E+01      4.491119000000000E-01     -1.604297000000000E+02      4.728241000000000E-01      4.357422000000000E+00      3.431091000000000E-01      5.990234000000000E+00
4821000000.000000      4.996490000000000E-01     -2.046679000000000E+01      4.534912000000000E-01     -1.608750000000000E+02      4.738922000000000E-01      4.302490000000000E+00      3.338928000000000E-01      6.709717000000000E+00
4822000000.000000      4.984589000000000E-01     -2.040039000000000E+01      4.544525000000000E-01     -1.614375000000000E+02      4.766998000000000E-01      4.096436000000000E+00      3.252716000000000E-01      7.177979000000000E+00
4823000000.000000      4.989777000000000E-01     -2.000000000000000E+01      4.566345000000000E-01     -1.618672000000000E+02      4.809265000000000E-01      3.928955000000000E+00      3.161621000000000E-01      7.684814000000000E+00
4824000000.000000      4.958649000000000E-01     -1.992188000000000E+01      4.589691000000000E-01     -1.624219000000000E+02      4.835358000000000E-01      3.850708000000000E+00      3.065033000000000E-01      8.273926000000000E+00
4825000000.000000      4.950256000000000E-01     -1.987305000000000E+01      4.616089000000000E-01     -1.627500000000000E+02      4.873199000000000E-01      3.791626000000000E+00      2.986298000000000E-01      9.104492000000000E+00
4826000000.000000      4.936371000000000E-01     -2.004395000000000E+01      4.641876000000000E-01     -1.634219000000000E+02      4.884949000000000E-01      3.503174000000000E+00      2.892303000000000E-01      9.861328000000000E+00
4827000000.000000      4.917603000000000E-01     -1.960742000000000E+01      4.674377000000000E-01     -1.634844000000000E+02      4.936066000000000E-01      3.157104000000000E+00      2.808990000000000E-01      1.079639000000000E+01
4828000000.000000      4.910431000000000E-01     -1.952734000000000E+01      4.688568000000000E-01     -1.642109000000000E+02      4.949188000000000E-01      3.301392000000000E+00      2.708588000000000E-01      1.150244000000000E+01
4829000000.000000      4.893036000000000E-01     -1.918164000000000E+01      4.709625000000000E-01     -1.646875000000000E+02      4.989624000000000E-01      3.305420000000000E+00      2.639160000000000E-01      1.286084000000000E+01
4830000000.000000      4.882050000000000E-01     -1.902734000000000E+01      4.722443000000000E-01     -1.650156000000000E+02      5.002136000000000E-01      2.971802000000000E+00      2.532654000000000E-01      1.400732000000000E+01
4831000000.000000      4.860840000000000E-01     -1.909375000000000E+01      4.741211000000000E-01     -1.655547000000000E+02      5.049744000000000E-01      2.926392000000000E+00      2.440948000000000E-01      1.523486000000000E+01
4832000000.000000      4.839478000000000E-01     -1.862890000000000E+01      4.773865000000000E-01     -1.659922000000000E+02      5.070496000000000E-01      2.734131000000000E+00      2.352142000000000E-01      1.690918000000000E+01
4833000000.000000      4.804840000000000E-01     -1.894238000000000E+01      4.786682000000000E-01     -1.663516000000000E+02      5.108643000000000E-01      2.419678000000000E+00      2.265091000000000E-01      1.827832000000000E+01
4834000000.000000      4.804688000000000E-01     -1.859375000000000E+01      4.795380000000000E-01     -1.668750000000000E+02      5.130005000000000E-01      2.205444000000000E+00      2.181702000000000E-01      2.006836000000000E+01
4835000000.000000      4.788055000000000E-01     -1.848047000000000E+01      4.824066000000000E-01     -1.673047000000000E+02      5.169983000000000E-01      2.055786000000000E+00      2.107849000000000E-01      2.174805000000000E+01
4836000000.000000      4.777069000000000E-01     -1.826758000000000E+01      4.822083000000000E-01     -1.678125000000000E+02      5.183716000000000E-01      2.135376000000000E+00      2.026062000000000E-01      2.378808000000000E+01
4837000000.000000      4.740753000000000E-01     -1.813867000000000E+01      4.839020000000000E-01     -1.683906000000000E+02      5.196228000000000E-01      1.684998000000000E+00      1.951141000000000E-01      2.615137000000000E+01
4838000000.000000      4.734039000000000E-01     -1.802051000000000E+01      4.863434000000000E-01     -1.683984000000000E+02      5.224915000000000E-01      1.593018000000000E+00      1.879196000000000E-01      2.855957000000000E+01
4839000000.000000      4.746399000000000E-01     -1.736816000000000E+01      4.876556000000000E-01     -1.689844000000000E+02      5.243530000000000E-01      1.594360000000000E+00      1.819458000000000E-01      3.069921000000000E+01
4840000000.000000      4.716034000000000E-01     -1.780664000000000E+01      4.896698000000000E-01     -1.693281000000000E+02      5.277405000000000E-01      1.424072000000000E+00      1.755371000000000E-01      3.336133000000000E+01
4841000000.000000      4.702148000000000E-01     -1.720410000000000E+01      4.898682000000000E-01     -1.698594000000000E+02      5.313416000000000E-01      1.042297000000000E+00      1.699524000000000E-01      3.663086000000000E+01
4842000000.000000      4.688721000000000E-01     -1.719238000000000E+01      4.913940000000000E-01     -1.702812000000000E+02      5.314941000000000E-01      1.112366000000000E+00      1.654816000000000E-01      3.995703000000000E+01
4843000000.000000      4.674988000000000E-01     -1.689355000000000E+01      4.925995000000000E-01     -1.706719000000000E+02      5.347595000000000E-01      8.006287000000000E-01      1.602402000000000E-01      4.349218000000000E+01
4844000000.000000      4.661407000000000E-01     -1.684277000000000E+01      4.921417000000000E-01     -1.711172000000000E+02      5.364075000000000E-01      6.481934000000000E-01      1.554642000000000E-01      4.689843000000000E+01
4845000000.000000      4.633026000000000E-01     -1.650293000000000E+01      4.946442000000000E-01     -1.713750000000000E+02      5.381470000000000E-01      3.735352000000000E-01      1.538620000000000E-01      5.049609000000000E+01
4846000000.000000      4.626160000000000E-01     -1.639160000000000E+01      4.956207000000000E-01     -1.719844000000000E+02      5.414124000000000E-01      2.265930000000000E-01      1.513367000000000E-01      5.451366000000000E+01
4847000000.000000      4.630585000000000E-01     -1.600390000000000E+01      4.978485000000000E-01     -1.721641000000000E+02      5.424805000000000E-01     -5.767822000000000E-02      1.493607000000000E-01      5.833008000000000E+01
4848000000.000000      4.600067000000000E-01     -1.591553000000000E+01      4.955597000000000E-01     -1.724844000000000E+02      5.438232000000000E-01      4.119873000000000E-03      1.490021000000000E-01      6.236133000000000E+01
4849000000.000000      4.591522000000000E-01     -1.570801000000000E+01      4.979553000000000E-01     -1.729063000000000E+02      5.457764000000000E-01     -3.433228000000000E-01      1.485977000000000E-01      6.634375000000000E+01
4850000000.000000      4.588165000000000E-01     -1.532227000000000E+01      4.978180000000000E-01     -1.733281000000000E+02      5.473328000000000E-01     -5.877686000000000E-01      1.503906000000000E-01      6.987890000000000E+01
4851000000.000000      4.583740000000000E-01     -1.507080000000000E+01      5.009460000000000E-01     -1.737344000000000E+02      5.483398000000000E-01     -5.740356000000000E-01      1.523056000000000E-01      7.353125000000000E+01
4852000000.000000      4.577789000000000E-01     -1.486768000000000E+01      4.993134000000000E-01     -1.740625000000000E+02      5.509644000000000E-01     -6.825256000000000E-01      1.542206000000000E-01      7.720312000000000E+01
4853000000.000000      4.571533000000000E-01     -1.458057000000000E+01      4.989319000000000E-01     -1.743203000000000E+02      5.515747000000000E-01     -8.624268000000000E-01      1.570740000000000E-01      8.030859000000000E+01
4854000000.000000      4.569855000000000E-01     -1.437744000000000E+01      4.997253000000000E-01     -1.747734000000000E+02      5.534058000000000E-01     -1.080811000000000E+00      1.619339000000000E-01      8.339844000000000E+01
4855000000.000000      4.573517000000000E-01     -1.425488000000000E+01      5.021362000000000E-01     -1.752891000000000E+02      5.541992000000000E-01     -1.505127000000000E+00      1.651077000000000E-01      8.702734000000000E+01
4856000000.000000      4.575958000000000E-01     -1.401074000000000E+01      5.022888000000000E-01     -1.754922000000000E+02      5.544128000000000E-01     -1.479065000000000E+00      1.713715000000000E-01      8.932032000000000E+01
4857000000.000000      4.563293000000000E-01     -1.362451000000000E+01      5.043030000000000E-01     -1.758047000000000E+02      5.561218000000000E-01     -1.587524000000000E+00      1.754684000000000E-01      9.198437000000000E+01
4858000000.000000      4.557953000000000E-01     -1.323486000000000E+01      5.044861000000000E-01     -1.762578000000000E+02      5.575867000000000E-01     -1.752319000000000E+00      1.804123000000000E-01      9.358202000000000E+01
4859000000.000000      4.566040000000000E-01     -1.298730000000000E+01      5.069580000000000E-01     -1.766016000000000E+02      5.578003000000000E-01     -1.799011000000000E+00      1.856689000000000E-01      9.586329000000000E+01
4860000000.000000      4.572296000000000E-01     -1.265918000000000E+01      5.068359000000000E-01     -1.768437000000000E+02      5.556946000000000E-01     -2.083374000000000E+00      1.918716000000000E-01      9.787109000000000E+01
4861000000.000000      4.584045000000000E-01     -1.254932000000000E+01      5.061035000000000E-01     -1.773359000000000E+02      5.600891000000000E-01     -2.235718000000000E+00      1.976929000000000E-01      1.003828000000000E+02
4862000000.000000      4.572449000000000E-01     -1.205908000000000E+01      5.094299000000000E-01     -1.773750000000000E+02      5.599365000000000E-01     -2.238525000000000E+00      2.034988000000000E-01      1.016133000000000E+02
4863000000.000000      4.604187000000000E-01     -1.183936000000000E+01      5.084229000000000E-01     -1.780547000000000E+02      5.609436000000000E-01     -2.493896000000000E+00      2.102509000000000E-01      1.031094000000000E+02
4864000000.000000      4.607086000000000E-01     -1.145508000000000E+01      5.098877000000000E-01     -1.782031000000000E+02      5.596619000000000E-01     -2.502197000000000E+00      2.178345000000000E-01      1.043711000000000E+02
4865000000.000000      4.629059000000000E-01     -1.130225000000000E+01      5.082397000000000E-01     -1.785703000000000E+02      5.595093000000000E-01     -2.723267000000000E+00      2.203522000000000E-01      1.056836000000000E+02
4866000000.000000      4.625702000000000E-01     -1.110596000000000E+01      5.111389000000000E-01     -1.789922000000000E+02      5.593872000000000E-01     -2.882568000000000E+00      2.281876000000000E-01      1.065742000000000E+02
4867000000.000000      4.628296000000000E-01     -1.077930000000000E+01      5.121155000000000E-01     -1.793594000000000E+02      5.581055000000000E-01     -2.911377000000000E+00      2.344666000000000E-01      1.075039000000000E+02
4868000000.000000      4.668579000000000E-01     -1.072998000000000E+01      5.126038000000000E-01     -1.797031000000000E+02      5.592346000000000E-01     -3.153076000000000E+00      2.394257000000000E-01      1.084844000000000E+02
4869000000.000000      4.691162000000000E-01     -1.048828000000000E+01      5.131226000000000E-01     -1.800000000000000E+02      5.599670000000000E-01     -3.251953000000000E+00      2.455750000000000E-01      1.092656000000000E+02
4870000000.000000      4.714813000000000E-01     -1.011035000000000E+01      5.137329000000000E-01      1.799687000000000E+02      5.596313000000000E-01     -3.162720000000000E+00      2.528839000000000E-01      1.101406000000000E+02
4871000000.000000      4.724121000000000E-01     -9.982910000000000E+00      5.145569000000000E-01      1.792500000000000E+02      5.593872000000000E-01     -3.367310000000000E+00      2.566071000000000E-01      1.109570000000000E+02
4872000000.000000      4.748993000000000E-01     -9.750488000000000E+00      5.137024000000000E-01      1.791250000000000E+02      5.573730000000000E-01     -3.587036000000000E+00      2.637177000000000E-01      1.112070000000000E+02
4873000000.000000      4.774628000000000E-01     -9.639160000000000E+00      5.140381000000000E-01      1.785234000000000E+02      5.576477000000000E-01     -3.507446000000000E+00      2.681122000000000E-01      1.120039000000000E+02
4874000000.000000      4.784546000000000E-01     -9.051758000000000E+00      5.140076000000000E-01      1.784062000000000E+02      5.589600000000000E-01     -3.690063000000000E+00      2.728119000000000E-01      1.125078000000000E+02
4875000000.000000      4.831543000000000E-01     -9.170898000000000E+00      5.156860000000000E-01      1.779844000000000E+02      5.579834000000000E-01     -3.662598000000000E+00      2.760925000000000E-01      1.127773000000000E+02
4876000000.000000      4.831543000000000E-01     -8.951172000000000E+00      5.182800000000000E-01      1.774922000000000E+02      5.575562000000000E-01     -3.611816000000000E+00      2.829590000000000E-01      1.129375000000000E+02
4877000000.000000      4.874115000000000E-01     -8.680664000000000E+00      5.172424000000000E-01      1.770078000000000E+02      5.577698000000000E-01     -3.832886000000000E+00      2.873383000000000E-01      1.134336000000000E+02
4878000000.000000      4.891815000000000E-01     -8.607910000000000E+00      5.189819000000000E-01      1.768125000000000E+02      5.563049000000000E-01     -3.732666000000000E+00      2.907562000000000E-01      1.136992000000000E+02
4879000000.000000      4.939575000000000E-01     -8.541992000000000E+00      5.185547000000000E-01      1.765078000000000E+02      5.553589000000000E-01     -3.841187000000000E+00      2.980499000000000E-01      1.139609000000000E+02
4880000000.000000      4.970245000000000E-01     -8.182129000000000E+00      5.191345000000000E-01      1.760078000000000E+02      5.538330000000000E-01     -3.838379000000000E+00      2.993164000000000E-01      1.144727000000000E+02
4881000000.000000      4.997864000000000E-01     -8.529785000000000E+00      5.193176000000000E-01      1.758047000000000E+02      5.546570000000000E-01     -3.832886000000000E+00      3.038025000000000E-01      1.145703000000000E+02
4882000000.000000      5.025330000000000E-01     -8.107910000000000E+00      5.207520000000000E-01      1.751797000000000E+02      5.546570000000000E-01     -4.050049000000000E+00      3.091278000000000E-01      1.147109000000000E+02
