! Network Analyzer HP8722D
! Hewlett-Packard
! Data name: Linha & Wilkinson
! Saver's name: Rodrigo Anjos
! Comments: Teste da utilização de aquisição
continua pelo VNA HP8722D
! Time and date: 8/5/2025 13:48
!              Frequency                     S11                                                   S21                                                   S12                                                   S22
# HZ  S  MA R 50
4800000000.000000      5.314026000000000E-01     -2.556152000000000E+01      3.709717000000000E-01     -1.502969000000000E+02      3.901672000000000E-01      8.994629000000000E+00      4.990082000000000E-01      9.983826000000000E-01
4801000000.000000      5.287170000000000E-01     -2.504199000000000E+01      3.750916000000000E-01     -1.505781000000000E+02      3.919373000000000E-01      8.827148000000000E+00      4.934692000000000E-01      1.163147000000000E+00
4802000000.000000      5.294189000000000E-01     -2.481836000000000E+01      3.789978000000000E-01     -1.510078000000000E+02      3.956909000000000E-01      8.882324000000000E+00      4.888763000000000E-01      1.502380000000000E+00
4803000000.000000      5.273132000000000E-01     -2.455175000000000E+01      3.841095000000000E-01     -1.512969000000000E+02      3.999023000000000E-01      8.545898000000000E+00      4.817352000000000E-01      1.411743000000000E+00
4804000000.000000      5.253906000000000E-01     -2.421972000000000E+01      3.875885000000000E-01     -1.516172000000000E+02      4.052124000000000E-01      8.477051000000000E+00      4.752655000000000E-01      1.577881000000000E+00
4805000000.000000      5.278931000000000E-01     -2.408691000000000E+01      3.912354000000000E-01     -1.522031000000000E+02      4.076538000000000E-01      8.382324000000000E+00      4.693146000000000E-01      1.457031000000000E+00
4806000000.000000      5.260010000000000E-01     -2.380762000000000E+01      3.944550000000000E-01     -1.525156000000000E+02      4.117889000000000E-01      8.316406000000000E+00      4.615784000000000E-01      1.560059000000000E+00
4807000000.000000      5.233459000000000E-01     -2.346582000000000E+01      3.988037000000000E-01     -1.531250000000000E+02      4.168396000000000E-01      8.071777000000000E+00      4.537201000000000E-01      1.890991000000000E+00
4808000000.000000      5.210571000000000E-01     -2.329297000000000E+01      4.025574000000000E-01     -1.533594000000000E+02      4.202576000000000E-01      7.757568000000000E+00      4.481201000000000E-01      2.028320000000000E+00
4809000000.000000      5.212708000000000E-01     -2.298535000000000E+01      4.064636000000000E-01     -1.539531000000000E+02      4.228668000000000E-01      7.662842000000000E+00      4.402161000000000E-01      2.359253000000000E+00
4810000000.000000      5.198364000000000E-01     -2.268555000000000E+01      4.102478000000000E-01     -1.542266000000000E+02      4.265594000000000E-01      7.691650000000000E+00      4.333801000000000E-01      2.228760000000000E+00
4811000000.000000      5.176086000000000E-01     -2.247265000000000E+01      4.136658000000000E-01     -1.547734000000000E+02      4.316254000000000E-01      7.454102000000000E+00      4.251099000000000E-01      2.694336000000000E+00
4812000000.000000      5.181274000000000E-01     -2.219043000000000E+01      4.173279000000000E-01     -1.552656000000000E+02      4.347229000000000E-01      7.514648000000000E+00      4.177856000000000E-01      2.653198000000000E+00
4813000000.000000      5.155334000000000E-01     -2.201172000000000E+01      4.204254000000000E-01     -1.556015000000000E+02      4.382172000000000E-01      7.401855000000000E+00      4.108734000000000E-01      3.166748000000000E+00
4814000000.000000      5.148926000000000E-01     -2.188477000000000E+01      4.242859000000000E-01     -1.559844000000000E+02      4.403076000000000E-01      7.058594000000000E+00      4.015045000000000E-01      3.361816000000000E+00
4815000000.000000      5.134888000000000E-01     -2.174805000000000E+01      4.265442000000000E-01     -1.565078000000000E+02      4.446411000000000E-01      7.143799000000000E+00      3.941803000000000E-01      3.677612000000000E+00
4816000000.000000      5.103149000000000E-01     -2.153906000000000E+01      4.308319000000000E-01     -1.569062000000000E+02      4.488525000000000E-01      6.832031000000000E+00      3.868408000000000E-01      3.869873000000000E+00
4817000000.000000      5.115967000000000E-01     -2.129297000000000E+01      4.334106000000000E-01     -1.574297000000000E+02      4.518280000000000E-01      6.718018000000000E+00      3.759003000000000E-01      4.401367000000000E+00
4818000000.000000      5.068359000000000E-01     -2.133887000000000E+01      4.362335000000000E-01     -1.578984000000000E+02      4.555206000000000E-01      6.604004000000000E+00      3.674011000000000E-01      4.676025000000000E+00
4819000000.000000      5.089722000000000E-01     -2.108984000000000E+01      4.391785000000000E-01     -1.583203000000000E+02      4.587708000000000E-01      6.564209000000000E+00      3.581696000000000E-01      4.793945000000000E+00
4820000000.000000      5.060120000000000E-01     -2.084179000000000E+01      4.425964000000000E-01     -1.587344000000000E+02      4.637604000000000E-01      6.183838000000000E+00      3.494720000000000E-01      5.364014000000000E+00
4821000000.000000      5.059204000000000E-01     -2.073047000000000E+01      4.449921000000000E-01     -1.592734000000000E+02      4.645233000000000E-01      6.036865000000000E+00      3.400726000000000E-01      6.031494000000000E+00
4822000000.000000      5.028076000000000E-01     -2.060840000000000E+01      4.475098000000000E-01     -1.596172000000000E+02      4.678497000000000E-01      5.836426000000000E+00      3.321075000000000E-01      6.229248000000000E+00
4823000000.000000      5.032043000000000E-01     -2.062304000000000E+01      4.508667000000000E-01     -1.601875000000000E+02      4.703674000000000E-01      5.782715000000000E+00      3.227539000000000E-01      6.800537000000000E+00
4824000000.000000      5.005798000000000E-01     -2.021484000000000E+01      4.528961000000000E-01     -1.606172000000000E+02      4.742432000000000E-01      5.571289000000000E+00      3.130035000000000E-01      7.238525000000000E+00
4825000000.000000      4.988556000000000E-01     -2.027539000000000E+01      4.555664000000000E-01     -1.610859000000000E+02      4.785767000000000E-01      5.344727000000000E+00      3.055878000000000E-01      7.973145000000000E+00
4826000000.000000      4.976807000000000E-01     -2.022461000000000E+01      4.582062000000000E-01     -1.616406000000000E+02      4.809265000000000E-01      5.256836000000000E+00      2.951813000000000E-01      8.684570000000000E+00
4827000000.000000      4.963074000000000E-01     -1.969238000000000E+01      4.601440000000000E-01     -1.619609000000000E+02      4.838257000000000E-01      5.120850000000000E+00      2.864685000000000E-01      9.360352000000000E+00
4828000000.000000      4.957275000000000E-01     -1.953027000000000E+01      4.633789000000000E-01     -1.624219000000000E+02      4.875488000000000E-01      4.903809000000000E+00      2.768860000000000E-01      9.989258000000000E+00
4829000000.000000      4.931183000000000E-01     -1.945019000000000E+01      4.654083000000000E-01     -1.629219000000000E+02      4.896851000000000E-01      4.782959000000000E+00      2.691956000000000E-01      1.120996000000000E+01
4830000000.000000      4.917755000000000E-01     -1.946582000000000E+01      4.666595000000000E-01     -1.634687000000000E+02      4.928741000000000E-01      4.812012000000000E+00      2.583923000000000E-01      1.215869000000000E+01
4831000000.000000      4.890137000000000E-01     -1.926270000000000E+01      4.688416000000000E-01     -1.639219000000000E+02      4.973755000000000E-01      4.630615000000000E+00      2.491913000000000E-01      1.312988000000000E+01
4832000000.000000      4.866180000000000E-01     -1.912598000000000E+01      4.702606000000000E-01     -1.642344000000000E+02      4.994354000000000E-01      4.376465000000000E+00      2.391357000000000E-01      1.452930000000000E+01
4833000000.000000      4.844666000000000E-01     -1.914844000000000E+01      4.727478000000000E-01     -1.647109000000000E+02      5.020142000000000E-01      3.952271000000000E+00      2.299423000000000E-01      1.579102000000000E+01
4834000000.000000      4.836578000000000E-01     -1.904004000000000E+01      4.741364000000000E-01     -1.652187000000000E+02      5.042725000000000E-01      4.042969000000000E+00      2.221527000000000E-01      1.723047000000000E+01
4835000000.000000      4.846649000000000E-01     -1.885058000000000E+01      4.762115000000000E-01     -1.657187000000000E+02      5.071411000000000E-01      3.750366000000000E+00      2.132874000000000E-01      1.870508000000000E+01
4836000000.000000      4.807129000000000E-01     -1.836035000000000E+01      4.769745000000000E-01     -1.659765000000000E+02      5.098267000000000E-01      3.960571000000000E+00      2.047195000000000E-01      2.058692000000000E+01
4837000000.000000      4.796753000000000E-01     -1.829687000000000E+01      4.785004000000000E-01     -1.666953000000000E+02      5.122681000000000E-01      3.589722000000000E+00      1.965408000000000E-01      2.261719000000000E+01
4838000000.000000      4.771271000000000E-01     -1.810840000000000E+01      4.812469000000000E-01     -1.668203000000000E+02      5.141296000000000E-01      3.338379000000000E+00      1.891479000000000E-01      2.473340000000000E+01
4839000000.000000      4.778595000000000E-01     -1.784668000000000E+01      4.821014000000000E-01     -1.672969000000000E+02      5.183105000000000E-01      3.419434000000000E+00      1.819229000000000E-01      2.673925000000000E+01
4840000000.000000      4.742584000000000E-01     -1.817090000000000E+01      4.840851000000000E-01     -1.678281000000000E+02      5.205994000000000E-01      3.164063000000000E+00      1.740341000000000E-01      2.920215000000000E+01
4841000000.000000      4.730225000000000E-01     -1.766797000000000E+01      4.857941000000000E-01     -1.683203000000000E+02      5.224304000000000E-01      2.975830000000000E+00      1.681519000000000E-01      3.237109000000000E+01
4842000000.000000      4.734497000000000E-01     -1.759766000000000E+01      4.862061000000000E-01     -1.685625000000000E+02      5.235596000000000E-01      2.833008000000000E+00      1.621704000000000E-01      3.539063000000000E+01
4843000000.000000      4.714355000000000E-01     -1.756445000000000E+01      4.876556000000000E-01     -1.691172000000000E+02      5.287781000000000E-01      2.724609000000000E+00      1.553116000000000E-01      3.864843000000000E+01
4844000000.000000      4.678955000000000E-01     -1.702539000000000E+01      4.883881000000000E-01     -1.695313000000000E+02      5.276489000000000E-01      2.399048000000000E+00      1.502762000000000E-01      4.197070000000000E+01
4845000000.000000      4.682159000000000E-01     -1.682324000000000E+01      4.898834000000000E-01     -1.698047000000000E+02      5.324707000000000E-01      2.268677000000000E+00      1.463776000000000E-01      4.556641000000000E+01
4846000000.000000      4.664307000000000E-01     -1.644824000000000E+01      4.908142000000000E-01     -1.702500000000000E+02      5.343018000000000E-01      2.106567000000000E+00      1.426315000000000E-01      4.992578000000000E+01
4847000000.000000      4.667053000000000E-01     -1.646094000000000E+01      4.915771000000000E-01     -1.706328000000000E+02      5.363464000000000E-01      1.822327000000000E+00      1.396866000000000E-01      5.368164000000000E+01
4848000000.000000      4.632721000000000E-01     -1.621387000000000E+01      4.911652000000000E-01     -1.709453000000000E+02      5.374451000000000E-01      1.759155000000000E+00      1.383896000000000E-01      5.819921000000000E+01
4849000000.000000      4.620972000000000E-01     -1.597314000000000E+01      4.938965000000000E-01     -1.713281000000000E+02      5.389099000000000E-01      1.385620000000000E+00      1.372147000000000E-01      6.235937000000000E+01
4850000000.000000      4.624634000000000E-01     -1.565967000000000E+01      4.937744000000000E-01     -1.717578000000000E+02      5.411377000000000E-01      1.466675000000000E+00      1.375504000000000E-01      6.669140000000000E+01
4851000000.000000      4.597931000000000E-01     -1.540723000000000E+01      4.964294000000000E-01     -1.721875000000000E+02      5.413818000000000E-01      1.263428000000000E+00      1.390381000000000E-01      7.061718000000000E+01
4852000000.000000      4.619293000000000E-01     -1.514893000000000E+01      4.960022000000000E-01     -1.725547000000000E+02      5.435181000000000E-01      1.145325000000000E+00      1.398544000000000E-01      7.468750000000000E+01
4853000000.000000      4.591827000000000E-01     -1.489502000000000E+01      4.954376000000000E-01     -1.728359000000000E+02      5.454712000000000E-01      9.365845000000000E-01      1.417313000000000E-01      7.860156000000000E+01
4854000000.000000      4.594879000000000E-01     -1.466699000000000E+01      4.972382000000000E-01     -1.733281000000000E+02      5.471497000000000E-01      6.962585000000000E-01      1.457596000000000E-01      8.210938000000000E+01
4855000000.000000      4.591675000000000E-01     -1.448438000000000E+01      4.982452000000000E-01     -1.736406000000000E+02      5.476685000000000E-01      5.644226000000000E-01      1.490250000000000E-01      8.614452000000000E+01
4856000000.000000      4.594879000000000E-01     -1.416016000000000E+01      4.992065000000000E-01     -1.739141000000000E+02      5.488586000000000E-01      3.762817000000000E-01      1.542358000000000E-01      8.920313000000000E+01
4857000000.000000      4.583893000000000E-01     -1.368799000000000E+01      5.007629000000000E-01     -1.742734000000000E+02      5.490723000000000E-01      1.977539000000000E-01      1.578369000000000E-01      9.207031000000000E+01
4858000000.000000      4.578247000000000E-01     -1.367969000000000E+01      5.022278000000000E-01     -1.745234000000000E+02      5.500793000000000E-01      3.433228000000000E-02      1.626205000000000E-01      9.464453000000000E+01
4859000000.000000      4.593201000000000E-01     -1.337891000000000E+01      5.025330000000000E-01     -1.750234000000000E+02      5.515137000000000E-01      5.081177000000000E-02      1.683655000000000E-01      9.720312000000000E+01
4860000000.000000      4.592743000000000E-01     -1.287598000000000E+01      5.023804000000000E-01     -1.751094000000000E+02      5.513611000000000E-01     -3.144836000000000E-01      1.748657000000000E-01      9.946484000000000E+01
4861000000.000000      4.587097000000000E-01     -1.257666000000000E+01      5.041199000000000E-01     -1.758516000000000E+02      5.526733000000000E-01     -4.490662000000000E-01      1.788254000000000E-01      1.015039000000000E+02
4862000000.000000      4.594879000000000E-01     -1.242041000000000E+01      5.036926000000000E-01     -1.760156000000000E+02      5.538635000000000E-01     -5.177307000000000E-01      1.863251000000000E-01      1.031211000000000E+02
4863000000.000000      4.598083000000000E-01     -1.199170000000000E+01      5.051270000000000E-01     -1.765391000000000E+02      5.531616000000000E-01     -6.797791000000000E-01      1.930389000000000E-01      1.046836000000000E+02
4864000000.000000      4.630280000000000E-01     -1.183643000000000E+01      5.067139000000000E-01     -1.765156000000000E+02      5.549622000000000E-01     -6.468201000000000E-01      1.984253000000000E-01      1.063125000000000E+02
4865000000.000000      4.620667000000000E-01     -1.164014000000000E+01      5.076294000000000E-01     -1.769453000000000E+02      5.555115000000000E-01     -9.640503000000000E-01      2.059937000000000E-01      1.075586000000000E+02
4866000000.000000      4.651184000000000E-01     -1.141113000000000E+01      5.057983000000000E-01     -1.773281000000000E+02      5.573120000000000E-01     -1.150818000000000E+00      2.112350000000000E-01      1.086680000000000E+02
4867000000.000000      4.650879000000000E-01     -1.102246000000000E+01      5.075073000000000E-01     -1.777812000000000E+02      5.551147000000000E-01     -1.203003000000000E+00      2.163391000000000E-01      1.101719000000000E+02
4868000000.000000      4.668427000000000E-01     -1.102490000000000E+01      5.085754000000000E-01     -1.781875000000000E+02      5.558472000000000E-01     -1.126099000000000E+00      2.242966000000000E-01      1.106953000000000E+02
4869000000.000000      4.691010000000000E-01     -1.033154000000000E+01      5.104980000000000E-01     -1.785469000000000E+02      5.564575000000000E-01     -1.246948000000000E+00      2.290115000000000E-01      1.124336000000000E+02
4870000000.000000      4.689484000000000E-01     -1.021729000000000E+01      5.097656000000000E-01     -1.786250000000000E+02      5.565186000000000E-01     -1.376038000000000E+00      2.355804000000000E-01      1.130859000000000E+02
4871000000.000000      4.712830000000000E-01     -1.015967000000000E+01      5.112000000000000E-01     -1.792656000000000E+02      5.559082000000000E-01     -1.533997000000000E+00      2.405090000000000E-01      1.136875000000000E+02
4872000000.000000      4.755554000000000E-01     -9.795898000000000E+00      5.115662000000000E-01     -1.793125000000000E+02      5.542297000000000E-01     -1.741333000000000E+00      2.480774000000000E-01      1.145195000000000E+02
4873000000.000000      4.776764000000000E-01     -9.651855000000000E+00      5.111084000000000E-01     -1.798516000000000E+02      5.539551000000000E-01     -1.704285000000000E+00      2.525635000000000E-01      1.147617000000000E+02
4874000000.000000      4.808502000000000E-01     -9.400391000000000E+00      5.130615000000000E-01      1.795547000000000E+02      5.549927000000000E-01     -1.915771000000000E+00      2.587585000000000E-01      1.152695000000000E+02
4875000000.000000      4.809113000000000E-01     -9.254883000000000E+00      5.131226000000000E-01      1.794062000000000E+02      5.539856000000000E-01     -1.820984000000000E+00      2.636261000000000E-01      1.159687000000000E+02
4876000000.000000      4.843445000000000E-01     -9.006348000000000E+00      5.148010000000000E-01      1.789453000000000E+02      5.547485000000000E-01     -1.833374000000000E+00      2.704315000000000E-01      1.160664000000000E+02
4877000000.000000      4.882660000000000E-01     -9.099609000000000E+00      5.141296000000000E-01      1.785391000000000E+02      5.537109000000000E-01     -1.917114000000000E+00      2.733002000000000E-01      1.168555000000000E+02
4878000000.000000      4.895172000000000E-01     -8.704102000000000E+00      5.149231000000000E-01      1.784219000000000E+02      5.532227000000000E-01     -2.066895000000000E+00      2.787628000000000E-01      1.167812000000000E+02
4879000000.000000      4.946899000000000E-01     -8.663086000000000E+00      5.148315000000000E-01      1.778672000000000E+02      5.533142000000000E-01     -2.139648000000000E+00      2.843628000000000E-01      1.173320000000000E+02
4880000000.000000      4.968872000000000E-01     -8.371582000000000E+00      5.177307000000000E-01      1.775859000000000E+02      5.538330000000000E-01     -2.134155000000000E+00      2.881927000000000E-01      1.174844000000000E+02
4881000000.000000      4.984283000000000E-01     -8.319824000000000E+00      5.182495000000000E-01      1.771875000000000E+02      5.514832000000000E-01     -2.117676000000000E+00      2.935944000000000E-01      1.176601000000000E+02
4882000000.000000      5.032654000000000E-01     -8.151855000000000E+00      5.188904000000000E-01      1.767109000000000E+02      5.529785000000000E-01     -2.146484000000000E+00      2.988739000000000E-01      1.179805000000000E+02
