! Network Analyzer HP8722D
! Hewlett-Packard
! Data name: Linha & Wilkinson
! Saver's name: Rodrigo Anjos
! Comments: Teste da utilização de aquisição
continua pelo VNA HP8722D
! Time and date: 8/5/2025 12:55
!              Frequency                     S11                                                   S21                                                   S12                                                   S22
# HZ  S  MA R 50
4800000000.000000      6.108398000000000E-01     -4.774414000000000E+01      4.160156000000000E-01     -2.202929000000000E+01      4.855804000000000E-01     -1.758516000000000E+02      4.889221000000000E-01     -1.797109000000000E+02
4801000000.000000      6.130981000000000E-01     -4.812304000000000E+01      4.172974000000000E-01     -2.244922000000000E+01      4.882355000000000E-01     -1.759140000000000E+02      4.929810000000000E-01      1.797891000000000E+02
4802000000.000000      6.142578000000000E-01     -4.878124000000000E+01      4.181671000000000E-01     -2.277637000000000E+01      4.900818000000000E-01     -1.764453000000000E+02      4.938660000000000E-01      1.790390000000000E+02
4803000000.000000      6.181030000000000E-01     -4.946679000000000E+01      4.206696000000000E-01     -2.338769000000000E+01      4.923553000000000E-01     -1.762891000000000E+02      4.967041000000000E-01      1.786953000000000E+02
4804000000.000000      6.207886000000000E-01     -5.004687000000000E+01      4.199524000000000E-01     -2.357129000000000E+01      4.965668000000000E-01     -1.767031000000000E+02      4.978485000000000E-01      1.788203000000000E+02
4805000000.000000      6.250610000000000E-01     -5.075585000000000E+01      4.212189000000000E-01     -2.443164000000000E+01      4.993591000000000E-01     -1.771641000000000E+02      5.008545000000000E-01      1.782500000000000E+02
4806000000.000000      6.259460000000000E-01     -5.100976000000000E+01      4.209900000000000E-01     -2.478808000000000E+01      5.014954000000000E-01     -1.771094000000000E+02      5.031433000000000E-01      1.776172000000000E+02
4807000000.000000      6.262512000000000E-01     -5.174023000000000E+01      4.219971000000000E-01     -2.533789000000000E+01      5.053101000000000E-01     -1.779219000000000E+02      5.057983000000000E-01      1.773750000000000E+02
4808000000.000000      6.282349000000000E-01     -5.223633000000000E+01      4.240570000000000E-01     -2.568554000000000E+01      5.084534000000000E-01     -1.779609000000000E+02      5.056458000000000E-01      1.768594000000000E+02
4809000000.000000      6.304321000000000E-01     -5.285156000000000E+01      4.226837000000000E-01     -2.643945000000000E+01      5.108032000000000E-01     -1.783125000000000E+02      5.105896000000000E-01      1.764766000000000E+02
4810000000.000000      6.330566000000000E-01     -5.328125000000000E+01      4.240112000000000E-01     -2.672656000000000E+01      5.147095000000000E-01     -1.787266000000000E+02      5.097961000000000E-01      1.761016000000000E+02
4811000000.000000      6.365967000000000E-01     -5.390625000000000E+01      4.256134000000000E-01     -2.750879000000000E+01      5.156250000000000E-01     -1.790156000000000E+02      5.148010000000000E-01      1.759297000000000E+02
4812000000.000000      6.392517000000000E-01     -5.438086000000000E+01      4.245911000000000E-01     -2.785058000000000E+01      5.224609000000000E-01     -1.793828000000000E+02      5.150452000000000E-01      1.755156000000000E+02
4813000000.000000      6.396179000000000E-01     -5.496875000000000E+01      4.266052000000000E-01     -2.858691000000000E+01      5.241089000000000E-01     -1.795156000000000E+02      5.195007000000000E-01      1.751484000000000E+02
4814000000.000000      6.415710000000000E-01     -5.550195000000000E+01      4.258575000000000E-01     -2.904394000000000E+01      5.256653000000000E-01     -1.799844000000000E+02      5.183716000000000E-01      1.746875000000000E+02
4815000000.000000      6.424561000000000E-01     -5.578125000000000E+01      4.249420000000000E-01     -2.934473000000000E+01      5.279846000000000E-01      1.795859000000000E+02      5.191040000000000E-01      1.741797000000000E+02
4816000000.000000      6.455383000000000E-01     -5.633789000000000E+01      4.255676000000000E-01     -2.991211000000000E+01      5.327148000000000E-01      1.793594000000000E+02      5.217896000000000E-01      1.738516000000000E+02
4817000000.000000      6.473083000000000E-01     -5.683594000000000E+01      4.252777000000000E-01     -3.049023000000000E+01      5.344543000000000E-01      1.786484000000000E+02      5.242920000000000E-01      1.736797000000000E+02
4818000000.000000      6.478271000000000E-01     -5.729101000000000E+01      4.245300000000000E-01     -3.120312000000000E+01      5.368958000000000E-01      1.783359000000000E+02      5.273743000000000E-01      1.729375000000000E+02
4819000000.000000      6.500244000000000E-01     -5.779101000000000E+01      4.228363000000000E-01     -3.144433000000000E+01      5.412292000000000E-01      1.780078000000000E+02      5.294495000000000E-01      1.726797000000000E+02
4820000000.000000      6.499023000000000E-01     -5.806835000000000E+01      4.265289000000000E-01     -3.208593000000000E+01      5.429382000000000E-01      1.776016000000000E+02      5.292969000000000E-01      1.717656000000000E+02
4821000000.000000      6.492615000000000E-01     -5.857812000000000E+01      4.226379000000000E-01     -3.249414000000000E+01      5.433655000000000E-01      1.766250000000000E+02      5.285339000000000E-01      1.715469000000000E+02
4822000000.000000      6.536560000000000E-01     -5.900195000000000E+01      4.226379000000000E-01     -3.301562000000000E+01      5.474548000000000E-01      1.763672000000000E+02      5.321350000000000E-01      1.710625000000000E+02
4823000000.000000      6.524963000000000E-01     -5.938281000000000E+01      4.226379000000000E-01     -3.350586000000000E+01      5.498047000000000E-01      1.759140000000000E+02      5.309448000000000E-01      1.708047000000000E+02
4824000000.000000      6.546326000000000E-01     -5.939258000000000E+01      4.202728000000000E-01     -3.393555000000000E+01      5.518494000000000E-01      1.752734000000000E+02      5.314636000000000E-01      1.698906000000000E+02
4825000000.000000      6.557312000000000E-01     -5.996679000000000E+01      4.199829000000000E-01     -3.450586000000000E+01      5.551453000000000E-01      1.749219000000000E+02      5.319519000000000E-01      1.695703000000000E+02
4826000000.000000      6.562500000000000E-01     -6.035937000000000E+01      4.183960000000000E-01     -3.526172000000000E+01      5.563354000000000E-01      1.742188000000000E+02      5.309143000000000E-01      1.689297000000000E+02
4827000000.000000      6.560059000000000E-01     -6.026562000000000E+01      4.189758000000000E-01     -3.555859000000000E+01      5.582581000000000E-01      1.737813000000000E+02      5.323181000000000E-01      1.683594000000000E+02
4828000000.000000      6.590271000000000E-01     -6.039257000000000E+01      4.198914000000000E-01     -3.601758000000000E+01      5.610046000000000E-01      1.730781000000000E+02      5.301819000000000E-01      1.681094000000000E+02
4829000000.000000      6.593018000000000E-01     -6.086328000000000E+01      4.185181000000000E-01     -3.664258000000000E+01      5.597534000000000E-01      1.728125000000000E+02      5.275879000000000E-01      1.676016000000000E+02
4830000000.000000      6.600037000000000E-01     -6.091406000000000E+01      4.167938000000000E-01     -3.694726000000000E+01      5.617371000000000E-01      1.718906000000000E+02      5.301514000000000E-01      1.669688000000000E+02
4831000000.000000      6.589355000000000E-01     -6.130468000000000E+01      4.155121000000000E-01     -3.771484000000000E+01      5.631104000000000E-01      1.714297000000000E+02      5.242004000000000E-01      1.665703000000000E+02
4832000000.000000      6.614075000000000E-01     -6.129687000000000E+01      4.130096000000000E-01     -3.794531000000000E+01      5.612183000000000E-01      1.707578000000000E+02      5.220337000000000E-01      1.657734000000000E+02
4833000000.000000      6.593933000000000E-01     -6.147265000000000E+01      4.134064000000000E-01     -3.832031000000000E+01      5.629883000000000E-01      1.701015000000000E+02      5.215759000000000E-01      1.654609000000000E+02
4834000000.000000      6.610413000000000E-01     -6.171288000000000E+01      4.113312000000000E-01     -3.877930000000000E+01      5.634766000000000E-01      1.693672000000000E+02      5.183105000000000E-01      1.651328000000000E+02
4835000000.000000      6.632690000000000E-01     -6.161133000000000E+01      4.112701000000000E-01     -3.939258000000000E+01      5.632019000000000E-01      1.686563000000000E+02      5.134583000000000E-01      1.645313000000000E+02
4836000000.000000      6.621094000000000E-01     -6.164844000000000E+01      4.095612000000000E-01     -3.974023000000000E+01      5.609436000000000E-01      1.683516000000000E+02      5.093994000000000E-01      1.641328000000000E+02
4837000000.000000      6.616516000000000E-01     -6.158008000000000E+01      4.053497000000000E-01     -4.063867000000000E+01      5.610657000000000E-01      1.675703000000000E+02      5.060730000000000E-01      1.635625000000000E+02
4838000000.000000      6.629333000000000E-01     -6.175781000000000E+01      4.071960000000000E-01     -4.056250000000000E+01      5.604858000000000E-01      1.668828000000000E+02      5.025635000000000E-01      1.629531000000000E+02
4839000000.000000      6.631470000000000E-01     -6.155273000000000E+01      4.061584000000000E-01     -4.123632000000000E+01      5.615540000000000E-01      1.664687000000000E+02      4.971313000000000E-01      1.626094000000000E+02
4840000000.000000      6.623535000000000E-01     -6.166601000000000E+01      4.046631000000000E-01     -4.174609000000000E+01      5.583801000000000E-01      1.655937000000000E+02      4.887390000000000E-01      1.621797000000000E+02
4841000000.000000      6.648865000000000E-01     -6.154297000000000E+01      4.036407000000000E-01     -4.204492000000000E+01      5.571289000000000E-01      1.648125000000000E+02      4.851227000000000E-01      1.616094000000000E+02
4842000000.000000      6.647034000000000E-01     -6.153515000000000E+01      4.026794000000000E-01     -4.234961000000000E+01      5.540466000000000E-01      1.643437000000000E+02      4.790344000000000E-01      1.615937000000000E+02
4843000000.000000      6.652832000000000E-01     -6.146093000000000E+01      4.020233000000000E-01     -4.288476000000000E+01      5.563049000000000E-01      1.636719000000000E+02      4.755554000000000E-01      1.609609000000000E+02
4844000000.000000      6.614380000000000E-01     -6.135937000000000E+01      4.002380000000000E-01     -4.334961000000000E+01      5.519714000000000E-01      1.628984000000000E+02      4.661713000000000E-01      1.606016000000000E+02
4845000000.000000      6.636658000000000E-01     -6.093750000000000E+01      3.981934000000000E-01     -4.368750000000000E+01      5.489502000000000E-01      1.621953000000000E+02      4.567566000000000E-01      1.601641000000000E+02
4846000000.000000      6.646729000000000E-01     -6.076953000000000E+01      3.985901000000000E-01     -4.404297000000000E+01      5.481567000000000E-01      1.617812000000000E+02      4.522705000000000E-01      1.602187000000000E+02
4847000000.000000      6.662598000000000E-01     -6.058788000000000E+01      3.963776000000000E-01     -4.449414000000000E+01      5.446472000000000E-01      1.610312000000000E+02      4.443359000000000E-01      1.599141000000000E+02
4848000000.000000      6.634827000000000E-01     -6.041601000000000E+01      3.939514000000000E-01     -4.492188000000000E+01      5.416565000000000E-01      1.603281000000000E+02      4.374695000000000E-01      1.597734000000000E+02
4849000000.000000      6.645203000000000E-01     -6.055664000000000E+01      3.952484000000000E-01     -4.532227000000000E+01      5.375061000000000E-01      1.597500000000000E+02      4.280090000000000E-01      1.593281000000000E+02
4850000000.000000      6.675415000000000E-01     -5.991992000000000E+01      3.921051000000000E-01     -4.587500000000000E+01      5.346375000000000E-01      1.592031000000000E+02      4.191437000000000E-01      1.591875000000000E+02
4851000000.000000      6.675720000000000E-01     -5.975390000000000E+01      3.918457000000000E-01     -4.652148000000000E+01      5.295410000000000E-01      1.586953000000000E+02      4.115753000000000E-01      1.592656000000000E+02
4852000000.000000      6.677856000000000E-01     -5.960546000000000E+01      3.918762000000000E-01     -4.663476000000000E+01      5.272522000000000E-01      1.579219000000000E+02      4.020691000000000E-01      1.591328000000000E+02
4853000000.000000      6.682739000000000E-01     -5.927734000000000E+01      3.882141000000000E-01     -4.736914000000000E+01      5.227356000000000E-01      1.575938000000000E+02      3.928375000000000E-01      1.592422000000000E+02
4854000000.000000      6.701355000000000E-01     -5.904101000000000E+01      3.884583000000000E-01     -4.761914000000000E+01      5.191040000000000E-01      1.570000000000000E+02      3.828430000000000E-01      1.590391000000000E+02
4855000000.000000      6.685486000000000E-01     -5.874218000000000E+01      3.876495000000000E-01     -4.829296000000000E+01      5.158997000000000E-01      1.562891000000000E+02      3.761292000000000E-01      1.594063000000000E+02
4856000000.000000      6.697388000000000E-01     -5.834570000000000E+01      3.849335000000000E-01     -4.846093000000000E+01      5.108948000000000E-01      1.556172000000000E+02      3.678131000000000E-01      1.596406000000000E+02
4857000000.000000      6.694946000000000E-01     -5.822070000000000E+01      3.854675000000000E-01     -4.899414000000000E+01      5.058289000000000E-01      1.554531000000000E+02      3.581085000000000E-01      1.600391000000000E+02
4858000000.000000      6.714172000000000E-01     -5.778320000000000E+01      3.831329000000000E-01     -4.942577000000000E+01      5.019531000000000E-01      1.548047000000000E+02      3.487854000000000E-01      1.601563000000000E+02
4859000000.000000      6.717224000000000E-01     -5.776367000000000E+01      3.820038000000000E-01     -5.000781000000000E+01      4.982758000000000E-01      1.543906000000000E+02      3.398895000000000E-01      1.602187000000000E+02
4860000000.000000      6.723633000000000E-01     -5.715625000000000E+01      3.803253000000000E-01     -5.034765000000000E+01      4.922638000000000E-01      1.537500000000000E+02      3.321075000000000E-01      1.609375000000000E+02
4861000000.000000      6.731873000000000E-01     -5.679688000000000E+01      3.798065000000000E-01     -5.102148000000000E+01      4.906311000000000E-01      1.533281000000000E+02      3.232117000000000E-01      1.614453000000000E+02
4862000000.000000      6.737976000000000E-01     -5.652344000000000E+01      3.785095000000000E-01     -5.136719000000000E+01      4.833832000000000E-01      1.530156000000000E+02      3.143921000000000E-01      1.627891000000000E+02
4863000000.000000      6.754761000000000E-01     -5.608593000000000E+01      3.766632000000000E-01     -5.187109000000000E+01      4.799805000000000E-01      1.525391000000000E+02      3.066711000000000E-01      1.630312000000000E+02
4864000000.000000      6.768799000000000E-01     -5.578125000000000E+01      3.768005000000000E-01     -5.216991000000000E+01      4.736176000000000E-01      1.521250000000000E+02      2.973175000000000E-01      1.637344000000000E+02
4865000000.000000      6.766052000000000E-01     -5.564062000000000E+01      3.743134000000000E-01     -5.267773000000000E+01      4.700623000000000E-01      1.516641000000000E+02      2.887726000000000E-01      1.649453000000000E+02
4866000000.000000      6.783752000000000E-01     -5.516602000000000E+01      3.721466000000000E-01     -5.354101000000000E+01      4.677887000000000E-01      1.511562000000000E+02      2.828827000000000E-01      1.658828000000000E+02
4867000000.000000      6.781921000000000E-01     -5.490039000000000E+01      3.709259000000000E-01     -5.391015000000000E+01      4.600220000000000E-01      1.508437000000000E+02      2.741089000000000E-01      1.668984000000000E+02
4868000000.000000      6.791992000000000E-01     -5.454883000000000E+01      3.695831000000000E-01     -5.457617000000000E+01      4.562836000000000E-01      1.503984000000000E+02      2.670593000000000E-01      1.680234000000000E+02
4869000000.000000      6.808472000000000E-01     -5.431054000000000E+01      3.674316000000000E-01     -5.487305000000000E+01      4.508057000000000E-01      1.498672000000000E+02      2.603760000000000E-01      1.695469000000000E+02
4870000000.000000      6.801758000000000E-01     -5.375781000000000E+01      3.655396000000000E-01     -5.501953000000000E+01      4.466400000000000E-01      1.496094000000000E+02      2.537079000000000E-01      1.708750000000000E+02
4871000000.000000      6.800537000000000E-01     -5.351953000000000E+01      3.637695000000000E-01     -5.592382000000000E+01      4.425659000000000E-01      1.494219000000000E+02      2.473450000000000E-01      1.723516000000000E+02
4872000000.000000      6.827393000000000E-01     -5.320117000000000E+01      3.618164000000000E-01     -5.629296000000000E+01      4.376678000000000E-01      1.487109000000000E+02      2.413788000000000E-01      1.736719000000000E+02
4873000000.000000      6.813354000000000E-01     -5.304101000000000E+01      3.587494000000000E-01     -5.692968000000000E+01      4.326935000000000E-01      1.484062000000000E+02      2.353363000000000E-01      1.755078000000000E+02
4874000000.000000      6.818542000000000E-01     -5.241601000000000E+01      3.579712000000000E-01     -5.754687000000000E+01      4.305267000000000E-01      1.481406000000000E+02      2.298889000000000E-01      1.774219000000000E+02
4875000000.000000      6.831665000000000E-01     -5.225586000000000E+01      3.558960000000000E-01     -5.782421000000000E+01      4.226837000000000E-01      1.479375000000000E+02      2.272339000000000E-01      1.795156000000000E+02
4876000000.000000      6.828003000000000E-01     -5.192187000000000E+01      3.543243000000000E-01     -5.870117000000000E+01      4.211731000000000E-01      1.477187000000000E+02      2.240753000000000E-01     -1.787500000000000E+02
4877000000.000000      6.828613000000000E-01     -5.161718000000000E+01      3.504791000000000E-01     -5.925195000000000E+01      4.147797000000000E-01      1.471875000000000E+02      2.190170000000000E-01     -1.770000000000000E+02
4878000000.000000      6.837769000000000E-01     -5.124023000000000E+01      3.517303000000000E-01     -5.938477000000000E+01      4.095917000000000E-01      1.468125000000000E+02      2.158279000000000E-01     -1.749531000000000E+02
4879000000.000000      6.831665000000000E-01     -5.088867000000000E+01      3.467407000000000E-01     -5.984961000000000E+01      4.064026000000000E-01      1.464766000000000E+02      2.131958000000000E-01     -1.726719000000000E+02
4880000000.000000      6.849060000000000E-01     -5.056641000000000E+01      3.450317000000000E-01     -6.041601000000000E+01      4.015503000000000E-01      1.461172000000000E+02      2.115707000000000E-01     -1.703828000000000E+02
4881000000.000000      6.828613000000000E-01     -5.010742000000000E+01      3.428802000000000E-01     -6.092773000000000E+01      3.969727000000000E-01      1.459453000000000E+02      2.090454000000000E-01     -1.683125000000000E+02
4882000000.000000      6.838989000000000E-01     -4.984375000000000E+01      3.407745000000000E-01     -6.174218000000000E+01      3.934937000000000E-01      1.453906000000000E+02      2.083282000000000E-01     -1.662969000000000E+02
