! Network Analyzer HP8722D
! Hewlett-Packard
! Data name: Linha & Wilkinson
! Saver's name: Rodrigo Anjos
! Comments: Teste da utilização de aquisição
continua pelo VNA HP8722D
! Time and date: 8/5/2025 16:48
!              Frequency                     S11                                                   S21                                                   S12                                                   S22
# HZ  S  MA R 50
4800000000.000000      4.932709000000000E-01     -1.673203000000000E+02      2.631531000000000E-01     -2.086230000000000E+01      2.597656000000000E-01     -1.419453000000000E+02      6.524658000000000E-01     -8.019140000000000E+01
4801000000.000000      4.952393000000000E-01     -1.673984000000000E+02      2.671204000000000E-01     -2.092968000000000E+01      2.635345000000000E-01     -1.420703000000000E+02      6.513062000000000E-01     -7.991405000000000E+01
4802000000.000000      4.963531000000000E-01     -1.674844000000000E+02      2.714996000000000E-01     -2.138086000000000E+01      2.670441000000000E-01     -1.421875000000000E+02      6.508484000000000E-01     -7.958593000000000E+01
4803000000.000000      4.978943000000000E-01     -1.675781000000000E+02      2.753906000000000E-01     -2.156152000000000E+01      2.701416000000000E-01     -1.421875000000000E+02      6.487732000000000E-01     -7.951562000000000E+01
4804000000.000000      5.006409000000000E-01     -1.675156000000000E+02      2.795563000000000E-01     -2.190820000000000E+01      2.736969000000000E-01     -1.424219000000000E+02      6.499939000000000E-01     -7.929688000000000E+01
4805000000.000000      5.037842000000000E-01     -1.676250000000000E+02      2.832947000000000E-01     -2.219238000000000E+01      2.773438000000000E-01     -1.425000000000000E+02      6.507263000000000E-01     -7.913280000000000E+01
4806000000.000000      5.049133000000000E-01     -1.675234000000000E+02      2.872162000000000E-01     -2.245215000000000E+01      2.804565000000000E-01     -1.424687000000000E+02      6.497803000000000E-01     -7.904687000000000E+01
4807000000.000000      5.083618000000000E-01     -1.675703000000000E+02      2.913971000000000E-01     -2.296973000000000E+01      2.847137000000000E-01     -1.427969000000000E+02      6.495056000000000E-01     -7.868359000000000E+01
4808000000.000000      5.106201000000000E-01     -1.675469000000000E+02      2.960815000000000E-01     -2.311816000000000E+01      2.874146000000000E-01     -1.430234000000000E+02      6.497803000000000E-01     -7.853906000000000E+01
4809000000.000000      5.132141000000000E-01     -1.675469000000000E+02      2.991180000000000E-01     -2.374023000000000E+01      2.913666000000000E-01     -1.431719000000000E+02      6.512756000000000E-01     -7.827343000000000E+01
4810000000.000000      5.169373000000000E-01     -1.676406000000000E+02      3.034973000000000E-01     -2.408203000000000E+01      2.946930000000000E-01     -1.431641000000000E+02      6.522522000000000E-01     -7.819140000000000E+01
4811000000.000000      5.201721000000000E-01     -1.675781000000000E+02      3.069153000000000E-01     -2.445996000000000E+01      2.985382000000000E-01     -1.433828000000000E+02      6.518860000000000E-01     -7.791406000000000E+01
4812000000.000000      5.238953000000000E-01     -1.675000000000000E+02      3.099365000000000E-01     -2.489160000000000E+01      3.008575000000000E-01     -1.434922000000000E+02      6.528320000000000E-01     -7.778125000000000E+01
4813000000.000000      5.273743000000000E-01     -1.674453000000000E+02      3.140717000000000E-01     -2.536133000000000E+01      3.039398000000000E-01     -1.436016000000000E+02      6.536865000000000E-01     -7.748828000000000E+01
4814000000.000000      5.298157000000000E-01     -1.675469000000000E+02      3.172150000000000E-01     -2.569726000000000E+01      3.071289000000000E-01     -1.438750000000000E+02      6.546936000000000E-01     -7.746484000000000E+01
4815000000.000000      5.339661000000000E-01     -1.674531000000000E+02      3.202362000000000E-01     -2.609961000000000E+01      3.103485000000000E-01     -1.440000000000000E+02      6.553345000000000E-01     -7.712109000000000E+01
4816000000.000000      5.387268000000000E-01     -1.673672000000000E+02      3.243713000000000E-01     -2.644824000000000E+01      3.140106000000000E-01     -1.441719000000000E+02      6.569519000000000E-01     -7.691015000000000E+01
4817000000.000000      5.439148000000000E-01     -1.672578000000000E+02      3.277588000000000E-01     -2.700879000000000E+01      3.167725000000000E-01     -1.444062000000000E+02      6.579285000000000E-01     -7.687500000000000E+01
4818000000.000000      5.472717000000000E-01     -1.672891000000000E+02      3.307800000000000E-01     -2.749414000000000E+01      3.200073000000000E-01     -1.444844000000000E+02      6.598816000000000E-01     -7.675781000000000E+01
4819000000.000000      5.525208000000000E-01     -1.672109000000000E+02      3.341370000000000E-01     -2.796582000000000E+01      3.216858000000000E-01     -1.446953000000000E+02      6.628418000000000E-01     -7.675390000000000E+01
4820000000.000000      5.553284000000000E-01     -1.671719000000000E+02      3.370819000000000E-01     -2.839160000000000E+01      3.247681000000000E-01     -1.449297000000000E+02      6.640930000000000E-01     -7.646874000000000E+01
4821000000.000000      5.615540000000000E-01     -1.671094000000000E+02      3.400574000000000E-01     -2.894140000000000E+01      3.274231000000000E-01     -1.451953000000000E+02      6.658630000000000E-01     -7.637890000000000E+01
4822000000.000000      5.682068000000000E-01     -1.670469000000000E+02      3.437042000000000E-01     -2.932714000000000E+01      3.295746000000000E-01     -1.454375000000000E+02      6.684570000000000E-01     -7.626171000000000E+01
4823000000.000000      5.717773000000000E-01     -1.669453000000000E+02      3.466187000000000E-01     -2.997656000000000E+01      3.322754000000000E-01     -1.454062000000000E+02      6.701355000000000E-01     -7.619922000000000E+01
4824000000.000000      5.789185000000000E-01     -1.669141000000000E+02      3.494720000000000E-01     -3.038476000000000E+01      3.359375000000000E-01     -1.456953000000000E+02      6.729736000000000E-01     -7.601563000000000E+01
4825000000.000000      5.831604000000000E-01     -1.668516000000000E+02      3.513794000000000E-01     -3.082715000000000E+01      3.384094000000000E-01     -1.459141000000000E+02      6.754761000000000E-01     -7.591406000000000E+01
4826000000.000000      5.893250000000000E-01     -1.667422000000000E+02      3.551941000000000E-01     -3.144726000000000E+01      3.402405000000000E-01     -1.462109000000000E+02      6.784973000000000E-01     -7.588281000000000E+01
4827000000.000000      5.956726000000000E-01     -1.666328000000000E+02      3.580933000000000E-01     -3.170019000000000E+01      3.427582000000000E-01     -1.463125000000000E+02      6.818542000000000E-01     -7.575390000000000E+01
4828000000.000000      6.025696000000000E-01     -1.665469000000000E+02      3.605957000000000E-01     -3.238086000000000E+01      3.443298000000000E-01     -1.465547000000000E+02      6.849670000000000E-01     -7.568359000000000E+01
4829000000.000000      6.059265000000000E-01     -1.664609000000000E+02      3.620605000000000E-01     -3.293164000000000E+01      3.475647000000000E-01     -1.466953000000000E+02      6.879578000000000E-01     -7.560937000000000E+01
4830000000.000000      6.140747000000000E-01     -1.664766000000000E+02      3.651733000000000E-01     -3.360156000000000E+01      3.493195000000000E-01     -1.468359000000000E+02      6.897583000000000E-01     -7.550390000000000E+01
4831000000.000000      6.189270000000000E-01     -1.663906000000000E+02      3.663177000000000E-01     -3.399023000000000E+01      3.521576000000000E-01     -1.470781000000000E+02      6.936340000000000E-01     -7.543359000000000E+01
4832000000.000000      6.273499000000000E-01     -1.663203000000000E+02      3.696899000000000E-01     -3.466211000000000E+01      3.540192000000000E-01     -1.471562000000000E+02      6.966858000000000E-01     -7.543359000000000E+01
4833000000.000000      6.337891000000000E-01     -1.663125000000000E+02      3.720703000000000E-01     -3.506640000000000E+01      3.563385000000000E-01     -1.474609000000000E+02      6.994324000000000E-01     -7.541406000000000E+01
4834000000.000000      6.400452000000000E-01     -1.662344000000000E+02      3.745270000000000E-01     -3.566797000000000E+01      3.585968000000000E-01     -1.476797000000000E+02      7.028198000000000E-01     -7.529687000000000E+01
4835000000.000000      6.466370000000000E-01     -1.661641000000000E+02      3.749237000000000E-01     -3.616796000000000E+01      3.601990000000000E-01     -1.479375000000000E+02      7.071838000000000E-01     -7.530859000000000E+01
4836000000.000000      6.550598000000000E-01     -1.660469000000000E+02      3.771515000000000E-01     -3.671679000000000E+01      3.623047000000000E-01     -1.479687000000000E+02      7.109070000000000E-01     -7.525000000000000E+01
4837000000.000000      6.618042000000000E-01     -1.659844000000000E+02      3.786011000000000E-01     -3.743750000000000E+01      3.635101000000000E-01     -1.483203000000000E+02      7.138062000000000E-01     -7.523438000000000E+01
4838000000.000000      6.681824000000000E-01     -1.660859000000000E+02      3.813019000000000E-01     -3.788476000000000E+01      3.663788000000000E-01     -1.484062000000000E+02      7.186890000000000E-01     -7.508984000000000E+01
4839000000.000000      6.759033000000000E-01     -1.659531000000000E+02      3.822784000000000E-01     -3.834179000000000E+01      3.674774000000000E-01     -1.485547000000000E+02      7.225037000000000E-01     -7.505468000000000E+01
4840000000.000000      6.815796000000000E-01     -1.660078000000000E+02      3.832703000000000E-01     -3.888086000000000E+01      3.696442000000000E-01     -1.488281000000000E+02      7.257080000000000E-01     -7.511328000000000E+01
4841000000.000000      6.892700000000000E-01     -1.660156000000000E+02      3.851166000000000E-01     -3.969141000000000E+01      3.714905000000000E-01     -1.490781000000000E+02      7.310791000000000E-01     -7.512109000000000E+01
4842000000.000000      6.961975000000000E-01     -1.659062000000000E+02      3.860626000000000E-01     -4.007813000000000E+01      3.731537000000000E-01     -1.492031000000000E+02      7.352295000000000E-01     -7.513281000000000E+01
4843000000.000000      7.035522000000000E-01     -1.659688000000000E+02      3.873444000000000E-01     -4.075585000000000E+01      3.751831000000000E-01     -1.493594000000000E+02      7.387085000000000E-01     -7.509375000000000E+01
4844000000.000000      7.098389000000000E-01     -1.658750000000000E+02      3.877106000000000E-01     -4.125390000000000E+01      3.759308000000000E-01     -1.495000000000000E+02      7.431946000000000E-01     -7.521484000000000E+01
4845000000.000000      7.171326000000000E-01     -1.658359000000000E+02      3.884583000000000E-01     -4.168750000000000E+01      3.780518000000000E-01     -1.497031000000000E+02      7.475586000000000E-01     -7.514843000000000E+01
4846000000.000000      7.247314000000000E-01     -1.657656000000000E+02      3.892365000000000E-01     -4.229688000000000E+01      3.798676000000000E-01     -1.498359000000000E+02      7.505188000000000E-01     -7.517578000000000E+01
4847000000.000000      7.323303000000000E-01     -1.657891000000000E+02      3.897095000000000E-01     -4.283984000000000E+01      3.814850000000000E-01     -1.501094000000000E+02      7.554626000000000E-01     -7.521484000000000E+01
4848000000.000000      7.391357000000000E-01     -1.658594000000000E+02      3.905334000000000E-01     -4.320898000000000E+01      3.829803000000000E-01     -1.502500000000000E+02      7.598877000000000E-01     -7.527734000000000E+01
4849000000.000000      7.466736000000000E-01     -1.660391000000000E+02      3.917694000000000E-01     -4.392383000000000E+01      3.843079000000000E-01     -1.503203000000000E+02      7.648621000000000E-01     -7.513281000000000E+01
4850000000.000000      7.536316000000000E-01     -1.658828000000000E+02      3.918304000000000E-01     -4.444531000000000E+01      3.861084000000000E-01     -1.504922000000000E+02      7.684021000000000E-01     -7.523438000000000E+01
4851000000.000000      7.605896000000000E-01     -1.658359000000000E+02      3.920441000000000E-01     -4.495313000000000E+01      3.866119000000000E-01     -1.506328000000000E+02      7.742615000000000E-01     -7.524609000000000E+01
4852000000.000000      7.674255000000000E-01     -1.658594000000000E+02      3.924561000000000E-01     -4.555664000000000E+01      3.884735000000000E-01     -1.508047000000000E+02      7.781677000000000E-01     -7.528125000000000E+01
4853000000.000000      7.742615000000000E-01     -1.658906000000000E+02      3.901978000000000E-01     -4.590820000000000E+01      3.900146000000000E-01     -1.509766000000000E+02      7.829590000000000E-01     -7.545703000000000E+01
4854000000.000000      7.803650000000000E-01     -1.658906000000000E+02      3.913879000000000E-01     -4.647851000000000E+01      3.906555000000000E-01     -1.511562000000000E+02      7.890320000000000E-01     -7.537109000000000E+01
4855000000.000000      7.860413000000000E-01     -1.659219000000000E+02      3.903046000000000E-01     -4.690820000000000E+01      3.918457000000000E-01     -1.513281000000000E+02      7.902832000000000E-01     -7.543750000000000E+01
4856000000.000000      7.936707000000000E-01     -1.658594000000000E+02      3.905029000000000E-01     -4.734375000000000E+01      3.930664000000000E-01     -1.514297000000000E+02      7.967224000000000E-01     -7.550781000000000E+01
4857000000.000000      7.994080000000000E-01     -1.659922000000000E+02      3.908081000000000E-01     -4.777344000000000E+01      3.945160000000000E-01     -1.516016000000000E+02      8.011169000000000E-01     -7.555078000000000E+01
4858000000.000000      8.033752000000000E-01     -1.659844000000000E+02      3.905334000000000E-01     -4.832812000000000E+01      3.945313000000000E-01     -1.518047000000000E+02      8.064880000000000E-01     -7.569140000000000E+01
4859000000.000000      8.097839000000000E-01     -1.660312000000000E+02      3.905640000000000E-01     -4.876171000000000E+01      3.960724000000000E-01     -1.520469000000000E+02      8.121338000000000E-01     -7.584374000000000E+01
4860000000.000000      8.173523000000000E-01     -1.661484000000000E+02      3.888702000000000E-01     -4.926562000000000E+01      3.971405000000000E-01     -1.520859000000000E+02      8.150024000000000E-01     -7.569921000000000E+01
4861000000.000000      8.227234000000000E-01     -1.659609000000000E+02      3.883972000000000E-01     -4.964062000000000E+01      3.984680000000000E-01     -1.522187000000000E+02      8.204346000000000E-01     -7.584765000000000E+01
4862000000.000000      8.273315000000000E-01     -1.660156000000000E+02      3.886719000000000E-01     -4.994335000000000E+01      3.995972000000000E-01     -1.523750000000000E+02      8.268433000000000E-01     -7.585546000000000E+01
4863000000.000000      8.321533000000000E-01     -1.659141000000000E+02      3.868866000000000E-01     -5.057226000000000E+01      4.011841000000000E-01     -1.525156000000000E+02      8.312073000000000E-01     -7.599218000000000E+01
4864000000.000000      8.384094000000000E-01     -1.659219000000000E+02      3.862457000000000E-01     -5.077538000000000E+01      4.004211000000000E-01     -1.526016000000000E+02      8.345032000000000E-01     -7.610937000000000E+01
4865000000.000000      8.398132000000000E-01     -1.661953000000000E+02      3.844757000000000E-01     -5.123241000000000E+01      4.017029000000000E-01     -1.528984000000000E+02      8.400574000000000E-01     -7.605859000000000E+01
4866000000.000000      8.458862000000000E-01     -1.661484000000000E+02      3.826904000000000E-01     -5.167187000000000E+01      4.027557000000000E-01     -1.530781000000000E+02      8.447571000000000E-01     -7.621094000000000E+01
4867000000.000000      8.526611000000000E-01     -1.660859000000000E+02      3.832092000000000E-01     -5.201757000000000E+01      4.031982000000000E-01     -1.531797000000000E+02      8.507996000000000E-01     -7.625781000000000E+01
4868000000.000000      8.560791000000000E-01     -1.662500000000000E+02      3.822174000000000E-01     -5.249609000000000E+01      4.044495000000000E-01     -1.532812000000000E+02      8.543396000000000E-01     -7.630468000000000E+01
4869000000.000000      8.586121000000000E-01     -1.660703000000000E+02      3.794861000000000E-01     -5.281640000000000E+01      4.046173000000000E-01     -1.535078000000000E+02      8.594971000000000E-01     -7.654297000000000E+01
4870000000.000000      8.630676000000000E-01     -1.660469000000000E+02      3.791351000000000E-01     -5.298437000000000E+01      4.051056000000000E-01     -1.536484000000000E+02      8.628845000000000E-01     -7.651172000000000E+01
4871000000.000000      8.669739000000000E-01     -1.661094000000000E+02      3.781281000000000E-01     -5.337500000000000E+01      4.050751000000000E-01     -1.538437000000000E+02      8.666382000000000E-01     -7.674999000000000E+01
4872000000.000000      8.718872000000000E-01     -1.660859000000000E+02      3.758240000000000E-01     -5.346484000000000E+01      4.060974000000000E-01     -1.540859000000000E+02      8.721924000000000E-01     -7.693749000000000E+01
4873000000.000000      8.730774000000000E-01     -1.660078000000000E+02      3.748627000000000E-01     -5.399804000000000E+01      4.061584000000000E-01     -1.540859000000000E+02      8.759766000000000E-01     -7.696094000000000E+01
4874000000.000000      8.765869000000000E-01     -1.658984000000000E+02      3.731995000000000E-01     -5.433398000000000E+01      4.071655000000000E-01     -1.542734000000000E+02      8.793945000000000E-01     -7.687890000000000E+01
4875000000.000000      8.816223000000000E-01     -1.659375000000000E+02      3.713379000000000E-01     -5.460938000000000E+01      4.075775000000000E-01     -1.545312000000000E+02      8.839722000000000E-01     -7.716406000000000E+01
4876000000.000000      8.819275000000000E-01     -1.658984000000000E+02      3.713074000000000E-01     -5.471093000000000E+01      4.063721000000000E-01     -1.545859000000000E+02      8.887024000000000E-01     -7.727734000000000E+01
4877000000.000000      8.866577000000000E-01     -1.659141000000000E+02      3.690796000000000E-01     -5.485937000000000E+01      4.078217000000000E-01     -1.548125000000000E+02      8.930054000000000E-01     -7.743750000000000E+01
4878000000.000000      8.884888000000000E-01     -1.656406000000000E+02      3.687744000000000E-01     -5.517968000000000E+01      4.078064000000000E-01     -1.547969000000000E+02      8.972473000000000E-01     -7.751171000000000E+01
4879000000.000000      8.903809000000000E-01     -1.658125000000000E+02      3.652954000000000E-01     -5.536523000000000E+01      4.076843000000000E-01     -1.550313000000000E+02      8.994751000000000E-01     -7.751953000000000E+01
4880000000.000000      8.919373000000000E-01     -1.656250000000000E+02      3.643646000000000E-01     -5.558594000000000E+01      4.082489000000000E-01     -1.550547000000000E+02      9.037476000000000E-01     -7.757030000000000E+01
4881000000.000000      8.960266000000000E-01     -1.654844000000000E+02      3.644562000000000E-01     -5.573437000000000E+01      4.083099000000000E-01     -1.553750000000000E+02      9.075623000000000E-01     -7.778515000000000E+01
4882000000.000000      8.941650000000000E-01     -1.654140000000000E+02      3.622589000000000E-01     -5.586914000000000E+01      4.080658000000000E-01     -1.554297000000000E+02      9.108887000000000E-01     -7.792969000000000E+01
