! Network Analyzer HP8722D
! Hewlett-Packard
! Data name: Linha & Wilkinson
! Saver's name: Rodrigo Anjos
! Comments: Teste da utilização de aquisição
continua pelo VNA HP8722D
! Time and date: 8/5/2025 16:39
!              Frequency                     S11                                                   S21                                                   S12                                                   S22
# HZ  S  MA R 50
4800000000.000000      4.934235000000000E-01     -1.675156000000000E+02      2.609711000000000E-01     -2.055078000000000E+01      2.568512000000000E-01     -1.417266000000000E+02      6.512756000000000E-01     -8.019531000000000E+01
4801000000.000000      4.951477000000000E-01     -1.675625000000000E+02      2.646942000000000E-01     -2.073437000000000E+01      2.606354000000000E-01     -1.418437000000000E+02      6.499634000000000E-01     -7.990624000000000E+01
4802000000.000000      4.958649000000000E-01     -1.676563000000000E+02      2.684174000000000E-01     -2.099512000000000E+01      2.645416000000000E-01     -1.417578000000000E+02      6.497803000000000E-01     -7.976563000000000E+01
4803000000.000000      4.979553000000000E-01     -1.676953000000000E+02      2.731018000000000E-01     -2.122851000000000E+01      2.677307000000000E-01     -1.419062000000000E+02      6.488647000000000E-01     -7.947266000000000E+01
4804000000.000000      5.005493000000000E-01     -1.676797000000000E+02      2.763367000000000E-01     -2.149121000000000E+01      2.716980000000000E-01     -1.421875000000000E+02      6.490479000000000E-01     -7.926562000000000E+01
4805000000.000000      5.031128000000000E-01     -1.677422000000000E+02      2.809143000000000E-01     -2.193750000000000E+01      2.748718000000000E-01     -1.421250000000000E+02      6.481628000000000E-01     -7.912890000000000E+01
4806000000.000000      5.048523000000000E-01     -1.677031000000000E+02      2.842407000000000E-01     -2.213477000000000E+01      2.779541000000000E-01     -1.421172000000000E+02      6.481323000000000E-01     -7.906640000000000E+01
4807000000.000000      5.078735000000000E-01     -1.677344000000000E+02      2.887268000000000E-01     -2.268555000000000E+01      2.817993000000000E-01     -1.424219000000000E+02      6.484070000000000E-01     -7.876562000000000E+01
4808000000.000000      5.104980000000000E-01     -1.676875000000000E+02      2.933655000000000E-01     -2.278906000000000E+01      2.850800000000000E-01     -1.425937000000000E+02      6.480408000000000E-01     -7.852734000000000E+01
4809000000.000000      5.127258000000000E-01     -1.677422000000000E+02      2.969971000000000E-01     -2.340820000000000E+01      2.893372000000000E-01     -1.427500000000000E+02      6.481018000000000E-01     -7.840234000000000E+01
4810000000.000000      5.160522000000000E-01     -1.677656000000000E+02      3.002930000000000E-01     -2.357422000000000E+01      2.922668000000000E-01     -1.428203000000000E+02      6.496582000000000E-01     -7.818359000000000E+01
4811000000.000000      5.192871000000000E-01     -1.676563000000000E+02      3.043823000000000E-01     -2.424902000000000E+01      2.963104000000000E-01     -1.429688000000000E+02      6.494751000000000E-01     -7.787109000000000E+01
4812000000.000000      5.236206000000000E-01     -1.676563000000000E+02      3.080597000000000E-01     -2.454102000000000E+01      2.989349000000000E-01     -1.431562000000000E+02      6.506653000000000E-01     -7.780859000000000E+01
4813000000.000000      5.260925000000000E-01     -1.676016000000000E+02      3.113556000000000E-01     -2.493847000000000E+01      3.014374000000000E-01     -1.431641000000000E+02      6.519470000000000E-01     -7.750390000000000E+01
4814000000.000000      5.291748000000000E-01     -1.676641000000000E+02      3.150940000000000E-01     -2.532812000000000E+01      3.047791000000000E-01     -1.434766000000000E+02      6.524963000000000E-01     -7.736718000000000E+01
4815000000.000000      5.335693000000000E-01     -1.675156000000000E+02      3.175964000000000E-01     -2.565234000000000E+01      3.079987000000000E-01     -1.436094000000000E+02      6.538391000000000E-01     -7.715625000000000E+01
4816000000.000000      5.379333000000000E-01     -1.674141000000000E+02      3.230591000000000E-01     -2.600390000000000E+01      3.117218000000000E-01     -1.436250000000000E+02      6.544189000000000E-01     -7.702343000000000E+01
4817000000.000000      5.430298000000000E-01     -1.673594000000000E+02      3.256989000000000E-01     -2.660547000000000E+01      3.140564000000000E-01     -1.439219000000000E+02      6.568298000000000E-01     -7.691015000000000E+01
4818000000.000000      5.464783000000000E-01     -1.673672000000000E+02      3.287506000000000E-01     -2.699512000000000E+01      3.174438000000000E-01     -1.440547000000000E+02      6.575928000000000E-01     -7.680859000000000E+01
4819000000.000000      5.513916000000000E-01     -1.672734000000000E+02      3.321686000000000E-01     -2.745508000000000E+01      3.199615000000000E-01     -1.443672000000000E+02      6.597290000000000E-01     -7.671093000000000E+01
4820000000.000000      5.541992000000000E-01     -1.672031000000000E+02      3.350220000000000E-01     -2.787793000000000E+01      3.224945000000000E-01     -1.444609000000000E+02      6.624451000000000E-01     -7.656250000000000E+01
4821000000.000000      5.606079000000000E-01     -1.671172000000000E+02      3.384399000000000E-01     -2.846484000000000E+01      3.250427000000000E-01     -1.447891000000000E+02      6.631165000000000E-01     -7.643749000000000E+01
4822000000.000000      5.672913000000000E-01     -1.671172000000000E+02      3.414307000000000E-01     -2.894824000000000E+01      3.281555000000000E-01     -1.450078000000000E+02      6.659546000000000E-01     -7.620703000000000E+01
4823000000.000000      5.702820000000000E-01     -1.670000000000000E+02      3.443146000000000E-01     -2.941601000000000E+01      3.307953000000000E-01     -1.449531000000000E+02      6.679993000000000E-01     -7.608593000000000E+01
4824000000.000000      5.780029000000000E-01     -1.669688000000000E+02      3.477783000000000E-01     -3.000293000000000E+01      3.333740000000000E-01     -1.453516000000000E+02      6.710205000000000E-01     -7.605078000000000E+01
4825000000.000000      5.824585000000000E-01     -1.669141000000000E+02      3.501587000000000E-01     -3.045019000000000E+01      3.363037000000000E-01     -1.454219000000000E+02      6.730957000000000E-01     -7.583593000000000E+01
4826000000.000000      5.885315000000000E-01     -1.667734000000000E+02      3.533783000000000E-01     -3.103418000000000E+01      3.389587000000000E-01     -1.457891000000000E+02      6.764832000000000E-01     -7.577734000000000E+01
4827000000.000000      5.942383000000000E-01     -1.666250000000000E+02      3.558197000000000E-01     -3.134961000000000E+01      3.417664000000000E-01     -1.458359000000000E+02      6.779480000000000E-01     -7.568359000000000E+01
4828000000.000000      6.014404000000000E-01     -1.666563000000000E+02      3.592072000000000E-01     -3.195996000000000E+01      3.433380000000000E-01     -1.461328000000000E+02      6.833191000000000E-01     -7.564453000000000E+01
4829000000.000000      6.048584000000000E-01     -1.664922000000000E+02      3.604736000000000E-01     -3.247851000000000E+01      3.459778000000000E-01     -1.462812000000000E+02      6.849365000000000E-01     -7.548437000000000E+01
4830000000.000000      6.121216000000000E-01     -1.665469000000000E+02      3.637085000000000E-01     -3.306055000000000E+01      3.478088000000000E-01     -1.465156000000000E+02      6.881409000000000E-01     -7.540234000000000E+01
4831000000.000000      6.168213000000000E-01     -1.664219000000000E+02      3.656921000000000E-01     -3.360742000000000E+01      3.510895000000000E-01     -1.466172000000000E+02      6.914673000000000E-01     -7.537890000000000E+01
4832000000.000000      6.264343000000000E-01     -1.662891000000000E+02      3.682709000000000E-01     -3.414453000000000E+01      3.518677000000000E-01     -1.467969000000000E+02      6.935730000000000E-01     -7.538280000000000E+01
4833000000.000000      6.325378000000000E-01     -1.663828000000000E+02      3.707581000000000E-01     -3.471289000000000E+01      3.547821000000000E-01     -1.470781000000000E+02      6.983948000000000E-01     -7.520312000000000E+01
4834000000.000000      6.386414000000000E-01     -1.662656000000000E+02      3.719482000000000E-01     -3.525000000000000E+01      3.572998000000000E-01     -1.472031000000000E+02      7.008057000000000E-01     -7.519140000000000E+01
4835000000.000000      6.448364000000000E-01     -1.661875000000000E+02      3.746033000000000E-01     -3.572461000000000E+01      3.588867000000000E-01     -1.475000000000000E+02      7.049255000000000E-01     -7.519531000000000E+01
4836000000.000000      6.536255000000000E-01     -1.661406000000000E+02      3.760376000000000E-01     -3.634375000000000E+01      3.607330000000000E-01     -1.475625000000000E+02      7.077026000000000E-01     -7.511719000000000E+01
4837000000.000000      6.593323000000000E-01     -1.660469000000000E+02      3.776093000000000E-01     -3.711523000000000E+01      3.636932000000000E-01     -1.478672000000000E+02      7.117615000000000E-01     -7.507813000000000E+01
4838000000.000000      6.664734000000000E-01     -1.660938000000000E+02      3.803101000000000E-01     -3.749414000000000E+01      3.654480000000000E-01     -1.479609000000000E+02      7.168579000000000E-01     -7.508594000000000E+01
4839000000.000000      6.735840000000000E-01     -1.659375000000000E+02      3.810272000000000E-01     -3.792773000000000E+01      3.666687000000000E-01     -1.482188000000000E+02      7.198792000000000E-01     -7.502734000000000E+01
4840000000.000000      6.792603000000000E-01     -1.659609000000000E+02      3.818665000000000E-01     -3.851171000000000E+01      3.690643000000000E-01     -1.483359000000000E+02      7.236938000000000E-01     -7.502343000000000E+01
4841000000.000000      6.877747000000000E-01     -1.660078000000000E+02      3.830261000000000E-01     -3.922461000000000E+01      3.708344000000000E-01     -1.485859000000000E+02      7.286072000000000E-01     -7.497656000000000E+01
4842000000.000000      6.949768000000000E-01     -1.658359000000000E+02      3.852539000000000E-01     -3.964453000000000E+01      3.720398000000000E-01     -1.487969000000000E+02      7.326965000000000E-01     -7.500390000000000E+01
4843000000.000000      7.012939000000000E-01     -1.659297000000000E+02      3.862610000000000E-01     -4.013476000000000E+01      3.741302000000000E-01     -1.489063000000000E+02      7.361450000000000E-01     -7.492578000000000E+01
4844000000.000000      7.082214000000000E-01     -1.658359000000000E+02      3.873138000000000E-01     -4.079492000000000E+01      3.754425000000000E-01     -1.491016000000000E+02      7.404175000000000E-01     -7.493750000000000E+01
4845000000.000000      7.145691000000000E-01     -1.658203000000000E+02      3.885498000000000E-01     -4.119336000000000E+01      3.777313000000000E-01     -1.493359000000000E+02      7.445068000000000E-01     -7.491405000000000E+01
4846000000.000000      7.219543000000000E-01     -1.657422000000000E+02      3.884430000000000E-01     -4.173242000000000E+01      3.794403000000000E-01     -1.495078000000000E+02      7.487183000000000E-01     -7.497265000000000E+01
4847000000.000000      7.310181000000000E-01     -1.657734000000000E+02      3.901520000000000E-01     -4.240624000000000E+01      3.813934000000000E-01     -1.496875000000000E+02      7.543945000000000E-01     -7.501953000000000E+01
4848000000.000000      7.380676000000000E-01     -1.657734000000000E+02      3.898468000000000E-01     -4.272656000000000E+01      3.818970000000000E-01     -1.497813000000000E+02      7.579651000000000E-01     -7.500390000000000E+01
4849000000.000000      7.443848000000000E-01     -1.660312000000000E+02      3.912201000000000E-01     -4.352929000000000E+01      3.842316000000000E-01     -1.499609000000000E+02      7.625732000000000E-01     -7.505468000000000E+01
4850000000.000000      7.512817000000000E-01     -1.657969000000000E+02      3.912964000000000E-01     -4.385742000000000E+01      3.857727000000000E-01     -1.500391000000000E+02      7.664185000000000E-01     -7.502734000000000E+01
4851000000.000000      7.586365000000000E-01     -1.657891000000000E+02      3.922272000000000E-01     -4.452148000000000E+01      3.868103000000000E-01     -1.502656000000000E+02      7.721252000000000E-01     -7.509375000000000E+01
4852000000.000000      7.658386000000000E-01     -1.658359000000000E+02      3.918762000000000E-01     -4.500586000000000E+01      3.878937000000000E-01     -1.504609000000000E+02      7.758484000000000E-01     -7.517578000000000E+01
4853000000.000000      7.724609000000000E-01     -1.658047000000000E+02      3.908997000000000E-01     -4.547656000000000E+01      3.897552000000000E-01     -1.506406000000000E+02      7.811279000000000E-01     -7.516406000000000E+01
4854000000.000000      7.785034000000000E-01     -1.658906000000000E+02      3.919983000000000E-01     -4.618554000000000E+01      3.911591000000000E-01     -1.507891000000000E+02      7.864380000000000E-01     -7.519921000000000E+01
4855000000.000000      7.834167000000000E-01     -1.658672000000000E+02      3.909912000000000E-01     -4.642968000000000E+01      3.918304000000000E-01     -1.508594000000000E+02      7.891846000000000E-01     -7.519140000000000E+01
4856000000.000000      7.916260000000000E-01     -1.657812000000000E+02      3.910217000000000E-01     -4.694531000000000E+01      3.929596000000000E-01     -1.511406000000000E+02      7.952881000000000E-01     -7.533984000000000E+01
4857000000.000000      7.977600000000000E-01     -1.659219000000000E+02      3.909607000000000E-01     -4.743945000000000E+01      3.944244000000000E-01     -1.512031000000000E+02      7.998047000000000E-01     -7.540234000000000E+01
4858000000.000000      8.008423000000000E-01     -1.659219000000000E+02      3.909149000000000E-01     -4.795507000000000E+01      3.947449000000000E-01     -1.514766000000000E+02      8.043823000000000E-01     -7.539453000000000E+01
4859000000.000000      8.087769000000000E-01     -1.660078000000000E+02      3.900757000000000E-01     -4.855469000000000E+01      3.968048000000000E-01     -1.516953000000000E+02      8.101807000000000E-01     -7.550390000000000E+01
4860000000.000000      8.173523000000000E-01     -1.659297000000000E+02      3.893738000000000E-01     -4.874023000000000E+01      3.965454000000000E-01     -1.517578000000000E+02      8.133850000000000E-01     -7.550781000000000E+01
4861000000.000000      8.202209000000000E-01     -1.658516000000000E+02      3.895721000000000E-01     -4.932226000000000E+01      3.982239000000000E-01     -1.519687000000000E+02      8.190002000000000E-01     -7.560156000000000E+01
4862000000.000000      8.269348000000000E-01     -1.658750000000000E+02      3.882751000000000E-01     -4.967968000000000E+01      3.997192000000000E-01     -1.519844000000000E+02      8.244629000000000E-01     -7.560156000000000E+01
4863000000.000000      8.322449000000000E-01     -1.661484000000000E+02      3.870239000000000E-01     -5.030273000000000E+01      4.007874000000000E-01     -1.521797000000000E+02      8.286743000000000E-01     -7.571875000000000E+01
4864000000.000000      8.382263000000000E-01     -1.659062000000000E+02      3.864899000000000E-01     -5.043554000000000E+01      4.008026000000000E-01     -1.523828000000000E+02      8.329773000000000E-01     -7.592578000000000E+01
4865000000.000000      8.425293000000000E-01     -1.661172000000000E+02      3.847961000000000E-01     -5.094336000000000E+01      4.018555000000000E-01     -1.525469000000000E+02      8.396606000000000E-01     -7.587500000000000E+01
4866000000.000000      8.439331000000000E-01     -1.660156000000000E+02      3.832245000000000E-01     -5.131054000000000E+01      4.031219000000000E-01     -1.526250000000000E+02      8.426208000000000E-01     -7.576562000000000E+01
4867000000.000000      8.504944000000000E-01     -1.659688000000000E+02      3.836365000000000E-01     -5.174999000000000E+01      4.036407000000000E-01     -1.527734000000000E+02      8.483582000000000E-01     -7.601953000000000E+01
4868000000.000000      8.548279000000000E-01     -1.659609000000000E+02      3.817139000000000E-01     -5.213867000000000E+01      4.047394000000000E-01     -1.529375000000000E+02      8.524170000000000E-01     -7.612109000000000E+01
4869000000.000000      8.566284000000000E-01     -1.660703000000000E+02      3.802795000000000E-01     -5.246288000000000E+01      4.048920000000000E-01     -1.531641000000000E+02      8.579102000000000E-01     -7.630859000000000E+01
4870000000.000000      8.621521000000000E-01     -1.659531000000000E+02      3.805237000000000E-01     -5.260351000000000E+01      4.049683000000000E-01     -1.533437000000000E+02      8.625183000000000E-01     -7.633203000000000E+01
4871000000.000000      8.674622000000000E-01     -1.660078000000000E+02      3.784790000000000E-01     -5.299414000000000E+01      4.057007000000000E-01     -1.535312000000000E+02      8.651428000000000E-01     -7.658593000000000E+01
4872000000.000000      8.701172000000000E-01     -1.659765000000000E+02      3.767548000000000E-01     -5.323437000000000E+01      4.058380000000000E-01     -1.538281000000000E+02      8.718567000000000E-01     -7.658593000000000E+01
4873000000.000000      8.754272000000000E-01     -1.658359000000000E+02      3.742523000000000E-01     -5.357422000000000E+01      4.059448000000000E-01     -1.538359000000000E+02      8.755798000000000E-01     -7.670312000000000E+01
4874000000.000000      8.756714000000000E-01     -1.659062000000000E+02      3.742218000000000E-01     -5.409374000000000E+01      4.072876000000000E-01     -1.539609000000000E+02      8.780518000000000E-01     -7.666016000000000E+01
4875000000.000000      8.807373000000000E-01     -1.657969000000000E+02      3.724518000000000E-01     -5.413280000000000E+01      4.076843000000000E-01     -1.542187000000000E+02      8.828735000000000E-01     -7.686718000000000E+01
4876000000.000000      8.824768000000000E-01     -1.656406000000000E+02      3.713226000000000E-01     -5.443164000000000E+01      4.066315000000000E-01     -1.543672000000000E+02      8.879395000000000E-01     -7.700000000000000E+01
4877000000.000000      8.839722000000000E-01     -1.656797000000000E+02      3.699951000000000E-01     -5.456445000000000E+01      4.078217000000000E-01     -1.545781000000000E+02      8.917542000000000E-01     -7.713672000000000E+01
4878000000.000000      8.877563000000000E-01     -1.656328000000000E+02      3.687286000000000E-01     -5.484961000000000E+01      4.076691000000000E-01     -1.544922000000000E+02      8.965454000000000E-01     -7.726563000000000E+01
4879000000.000000      8.898010000000000E-01     -1.656563000000000E+02      3.661041000000000E-01     -5.506445000000000E+01      4.079895000000000E-01     -1.547578000000000E+02      8.990784000000000E-01     -7.726171000000000E+01
4880000000.000000      8.921509000000000E-01     -1.655078000000000E+02      3.651276000000000E-01     -5.527734000000000E+01      4.085846000000000E-01     -1.548359000000000E+02      9.024658000000000E-01     -7.741796000000000E+01
4881000000.000000      8.939819000000000E-01     -1.654922000000000E+02      3.641205000000000E-01     -5.529297000000000E+01      4.084473000000000E-01     -1.550937000000000E+02      9.069824000000000E-01     -7.755468000000000E+01
4882000000.000000      8.948364000000000E-01     -1.653281000000000E+02      3.627167000000000E-01     -5.560351000000000E+01      4.083099000000000E-01     -1.550937000000000E+02      9.097290000000000E-01     -7.771484000000000E+01
