! Network Analyzer HP8722D
! Hewlett-Packard
! Data name: Linha & Wilkinson
! Saver's name: Rodrigo Anjos
! Comments: Teste da utilização de aquisição
continua pelo VNA HP8722D
! Time and date: 8/5/2025 16:31
!              Frequency                     S11                                                   S21                                                   S12                                                   S22
# HZ  S  MA R 50
4800000000.000000      4.930573000000000E-01     -1.674766000000000E+02      2.612000000000000E-01     -2.054590000000000E+01      2.572479000000000E-01     -1.417969000000000E+02      6.513367000000000E-01     -8.010546000000000E+01
4801000000.000000      4.942322000000000E-01     -1.676016000000000E+02      2.648315000000000E-01     -2.077246000000000E+01      2.605591000000000E-01     -1.418906000000000E+02      6.497498000000000E-01     -8.003124000000000E+01
4802000000.000000      4.955902000000000E-01     -1.676016000000000E+02      2.687836000000000E-01     -2.107812000000000E+01      2.642822000000000E-01     -1.417891000000000E+02      6.488953000000000E-01     -7.976563000000000E+01
4803000000.000000      4.975433000000000E-01     -1.676797000000000E+02      2.736511000000000E-01     -2.141699000000000E+01      2.677612000000000E-01     -1.419609000000000E+02      6.499023000000000E-01     -7.956249000000000E+01
4804000000.000000      4.999847000000000E-01     -1.676797000000000E+02      2.769623000000000E-01     -2.160254000000000E+01      2.713776000000000E-01     -1.422500000000000E+02      6.484680000000000E-01     -7.922656000000000E+01
4805000000.000000      5.027771000000000E-01     -1.677656000000000E+02      2.811432000000000E-01     -2.192871000000000E+01      2.753906000000000E-01     -1.421719000000000E+02      6.484680000000000E-01     -7.914453000000000E+01
4806000000.000000      5.044250000000000E-01     -1.677031000000000E+02      2.841949000000000E-01     -2.227149000000000E+01      2.773743000000000E-01     -1.422109000000000E+02      6.486511000000000E-01     -7.902734000000000E+01
4807000000.000000      5.078125000000000E-01     -1.677109000000000E+02      2.890625000000000E-01     -2.263770000000000E+01      2.820435000000000E-01     -1.424687000000000E+02      6.482849000000000E-01     -7.874609000000000E+01
4808000000.000000      5.104065000000000E-01     -1.676484000000000E+02      2.936554000000000E-01     -2.282617000000000E+01      2.852783000000000E-01     -1.426016000000000E+02      6.484680000000000E-01     -7.855859000000000E+01
4809000000.000000      5.132751000000000E-01     -1.677031000000000E+02      2.967224000000000E-01     -2.349219000000000E+01      2.889709000000000E-01     -1.427500000000000E+02      6.481628000000000E-01     -7.832421000000000E+01
4810000000.000000      5.160522000000000E-01     -1.677266000000000E+02      3.003998000000000E-01     -2.372949000000000E+01      2.923737000000000E-01     -1.428672000000000E+02      6.496887000000000E-01     -7.819140000000000E+01
4811000000.000000      5.194092000000000E-01     -1.676875000000000E+02      3.043823000000000E-01     -2.416504000000000E+01      2.963715000000000E-01     -1.430391000000000E+02      6.498413000000000E-01     -7.784374000000000E+01
4812000000.000000      5.230103000000000E-01     -1.676094000000000E+02      3.081970000000000E-01     -2.450586000000000E+01      2.990112000000000E-01     -1.431328000000000E+02      6.515503000000000E-01     -7.777734000000000E+01
4813000000.000000      5.256348000000000E-01     -1.675469000000000E+02      3.113556000000000E-01     -2.485742000000000E+01      3.018036000000000E-01     -1.432344000000000E+02      6.506958000000000E-01     -7.748047000000000E+01
4814000000.000000      5.288391000000000E-01     -1.676797000000000E+02      3.152161000000000E-01     -2.531054000000000E+01      3.052216000000000E-01     -1.434531000000000E+02      6.525574000000000E-01     -7.740624000000000E+01
4815000000.000000      5.328979000000000E-01     -1.675313000000000E+02      3.188782000000000E-01     -2.583984000000000E+01      3.084106000000000E-01     -1.436563000000000E+02      6.531982000000000E-01     -7.717968000000000E+01
4816000000.000000      5.380249000000000E-01     -1.673906000000000E+02      3.227692000000000E-01     -2.615234000000000E+01      3.122101000000000E-01     -1.437891000000000E+02      6.539307000000000E-01     -7.701172000000000E+01
4817000000.000000      5.426025000000000E-01     -1.673672000000000E+02      3.255463000000000E-01     -2.676172000000000E+01      3.142548000000000E-01     -1.438984000000000E+02      6.557007000000000E-01     -7.691406000000000E+01
4818000000.000000      5.464478000000000E-01     -1.673750000000000E+02      3.283234000000000E-01     -2.722851000000000E+01      3.177490000000000E-01     -1.442266000000000E+02      6.583252000000000E-01     -7.678515000000000E+01
4819000000.000000      5.512695000000000E-01     -1.672891000000000E+02      3.323364000000000E-01     -2.750879000000000E+01      3.199310000000000E-01     -1.444062000000000E+02      6.609802000000000E-01     -7.664844000000000E+01
4820000000.000000      5.541077000000000E-01     -1.671875000000000E+02      3.354492000000000E-01     -2.806250000000000E+01      3.240967000000000E-01     -1.445781000000000E+02      6.624451000000000E-01     -7.655468000000000E+01
4821000000.000000      5.603027000000000E-01     -1.671250000000000E+02      3.392792000000000E-01     -2.857910000000000E+01      3.251495000000000E-01     -1.448984000000000E+02      6.627197000000000E-01     -7.638672000000000E+01
4822000000.000000      5.671082000000000E-01     -1.671484000000000E+02      3.419189000000000E-01     -2.895312000000000E+01      3.283691000000000E-01     -1.450078000000000E+02      6.663513000000000E-01     -7.621094000000000E+01
4823000000.000000      5.700989000000000E-01     -1.670156000000000E+02      3.450165000000000E-01     -2.950879000000000E+01      3.304749000000000E-01     -1.450156000000000E+02      6.681213000000000E-01     -7.612109000000000E+01
4824000000.000000      5.778503000000000E-01     -1.670078000000000E+02      3.475037000000000E-01     -3.006348000000000E+01      3.343964000000000E-01     -1.453984000000000E+02      6.713257000000000E-01     -7.599999000000000E+01
4825000000.000000      5.817566000000000E-01     -1.668594000000000E+02      3.502350000000000E-01     -3.040918000000000E+01      3.371277000000000E-01     -1.455547000000000E+02      6.732788000000000E-01     -7.584374000000000E+01
4826000000.000000      5.884705000000000E-01     -1.668203000000000E+02      3.532257000000000E-01     -3.099707000000000E+01      3.387604000000000E-01     -1.457578000000000E+02      6.756897000000000E-01     -7.578515000000000E+01
4827000000.000000      5.940857000000000E-01     -1.667187000000000E+02      3.562622000000000E-01     -3.132421000000000E+01      3.418732000000000E-01     -1.458984000000000E+02      6.788635000000000E-01     -7.565234000000000E+01
4828000000.000000      6.015320000000000E-01     -1.666484000000000E+02      3.598480000000000E-01     -3.196484000000000E+01      3.431396000000000E-01     -1.460859000000000E+02      6.828918000000000E-01     -7.558203000000000E+01
4829000000.000000      6.040039000000000E-01     -1.665390000000000E+02      3.602753000000000E-01     -3.262890000000000E+01      3.462219000000000E-01     -1.464297000000000E+02      6.849976000000000E-01     -7.545703000000000E+01
4830000000.000000      6.125183000000000E-01     -1.664922000000000E+02      3.627472000000000E-01     -3.324219000000000E+01      3.481293000000000E-01     -1.464922000000000E+02      6.878052000000000E-01     -7.549609000000000E+01
4831000000.000000      6.177673000000000E-01     -1.664063000000000E+02      3.663330000000000E-01     -3.365429000000000E+01      3.503723000000000E-01     -1.466563000000000E+02      6.915894000000000E-01     -7.535546000000000E+01
4832000000.000000      6.264038000000000E-01     -1.663594000000000E+02      3.687439000000000E-01     -3.425586000000000E+01      3.531342000000000E-01     -1.468203000000000E+02      6.947021000000000E-01     -7.533203000000000E+01
4833000000.000000      6.323853000000000E-01     -1.663516000000000E+02      3.710785000000000E-01     -3.461328000000000E+01      3.543091000000000E-01     -1.471328000000000E+02      6.981201000000000E-01     -7.524609000000000E+01
4834000000.000000      6.387024000000000E-01     -1.663047000000000E+02      3.726349000000000E-01     -3.541211000000000E+01      3.572083000000000E-01     -1.472188000000000E+02      7.011108000000000E-01     -7.526562000000000E+01
4835000000.000000      6.448059000000000E-01     -1.662188000000000E+02      3.752289000000000E-01     -3.593945000000000E+01      3.603210000000000E-01     -1.474453000000000E+02      7.053223000000000E-01     -7.520702000000000E+01
4836000000.000000      6.533813000000000E-01     -1.661016000000000E+02      3.764801000000000E-01     -3.631640000000000E+01      3.607635000000000E-01     -1.476406000000000E+02      7.074585000000000E-01     -7.508984000000000E+01
4837000000.000000      6.600647000000000E-01     -1.660000000000000E+02      3.773346000000000E-01     -3.715820000000000E+01      3.632965000000000E-01     -1.479531000000000E+02      7.122192000000000E-01     -7.504296000000000E+01
4838000000.000000      6.671143000000000E-01     -1.661172000000000E+02      3.800049000000000E-01     -3.742773000000000E+01      3.656616000000000E-01     -1.480781000000000E+02      7.156067000000000E-01     -7.504687000000000E+01
4839000000.000000      6.745605000000000E-01     -1.659531000000000E+02      3.807526000000000E-01     -3.797266000000000E+01      3.671417000000000E-01     -1.481094000000000E+02      7.202148000000000E-01     -7.496875000000000E+01
4840000000.000000      6.796265000000000E-01     -1.659609000000000E+02      3.818512000000000E-01     -3.848242000000000E+01      3.695221000000000E-01     -1.484844000000000E+02      7.231445000000000E-01     -7.496875000000000E+01
4841000000.000000      6.873779000000000E-01     -1.660234000000000E+02      3.840942000000000E-01     -3.933203000000000E+01      3.709412000000000E-01     -1.486172000000000E+02      7.270508000000000E-01     -7.502734000000000E+01
4842000000.000000      6.951904000000000E-01     -1.659297000000000E+02      3.847656000000000E-01     -3.969336000000000E+01      3.720398000000000E-01     -1.487656000000000E+02      7.324524000000000E-01     -7.501953000000000E+01
4843000000.000000      7.015991000000000E-01     -1.660000000000000E+02      3.866272000000000E-01     -4.037499000000000E+01      3.738403000000000E-01     -1.490859000000000E+02      7.357788000000000E-01     -7.496875000000000E+01
4844000000.000000      7.086182000000000E-01     -1.658750000000000E+02      3.873291000000000E-01     -4.070117000000000E+01      3.754272000000000E-01     -1.491719000000000E+02      7.404175000000000E-01     -7.496875000000000E+01
4845000000.000000      7.151184000000000E-01     -1.658047000000000E+02      3.872986000000000E-01     -4.134179000000000E+01      3.776093000000000E-01     -1.493281000000000E+02      7.435913000000000E-01     -7.493750000000000E+01
4846000000.000000      7.229919000000000E-01     -1.657656000000000E+02      3.888092000000000E-01     -4.175781000000000E+01      3.793030000000000E-01     -1.494609000000000E+02      7.492981000000000E-01     -7.495312000000000E+01
4847000000.000000      7.304993000000000E-01     -1.658047000000000E+02      3.894501000000000E-01     -4.243750000000000E+01      3.812408000000000E-01     -1.497734000000000E+02      7.550049000000000E-01     -7.513672000000000E+01
4848000000.000000      7.380981000000000E-01     -1.657422000000000E+02      3.897705000000000E-01     -4.282617000000000E+01      3.821411000000000E-01     -1.497734000000000E+02      7.581482000000000E-01     -7.508203000000000E+01
4849000000.000000      7.445068000000000E-01     -1.660078000000000E+02      3.912811000000000E-01     -4.350586000000000E+01      3.840942000000000E-01     -1.499844000000000E+02      7.622986000000000E-01     -7.497265000000000E+01
4850000000.000000      7.517395000000000E-01     -1.658203000000000E+02      3.912811000000000E-01     -4.402929000000000E+01      3.854218000000000E-01     -1.502266000000000E+02      7.666931000000000E-01     -7.512109000000000E+01
4851000000.000000      7.590637000000000E-01     -1.658047000000000E+02      3.917847000000000E-01     -4.472265000000000E+01      3.864288000000000E-01     -1.503438000000000E+02      7.727356000000000E-01     -7.504296000000000E+01
4852000000.000000      7.665405000000000E-01     -1.658672000000000E+02      3.921814000000000E-01     -4.520508000000000E+01      3.880920000000000E-01     -1.503984000000000E+02      7.769775000000000E-01     -7.511328000000000E+01
4853000000.000000      7.728271000000000E-01     -1.658516000000000E+02      3.908997000000000E-01     -4.543164000000000E+01      3.898010000000000E-01     -1.507734000000000E+02      7.807922000000000E-01     -7.524219000000000E+01
4854000000.000000      7.780762000000000E-01     -1.658828000000000E+02      3.917542000000000E-01     -4.616406000000000E+01      3.907776000000000E-01     -1.509297000000000E+02      7.862854000000000E-01     -7.523438000000000E+01
4855000000.000000      7.836914000000000E-01     -1.658984000000000E+02      3.907623000000000E-01     -4.654492000000000E+01      3.916626000000000E-01     -1.509297000000000E+02      7.897949000000000E-01     -7.519531000000000E+01
4856000000.000000      7.927551000000000E-01     -1.658437000000000E+02      3.911896000000000E-01     -4.691602000000000E+01      3.932495000000000E-01     -1.511875000000000E+02      7.958679000000000E-01     -7.530859000000000E+01
4857000000.000000      7.975159000000000E-01     -1.658984000000000E+02      3.910370000000000E-01     -4.751367000000000E+01      3.942719000000000E-01     -1.513359000000000E+02      7.998657000000000E-01     -7.532031000000000E+01
4858000000.000000      8.009949000000000E-01     -1.659844000000000E+02      3.900909000000000E-01     -4.794335000000000E+01      3.950348000000000E-01     -1.514922000000000E+02      8.044739000000000E-01     -7.542969000000000E+01
4859000000.000000      8.094788000000000E-01     -1.659765000000000E+02      3.898926000000000E-01     -4.851171000000000E+01      3.961182000000000E-01     -1.517812000000000E+02      8.101196000000000E-01     -7.555859000000000E+01
4860000000.000000      8.170471000000000E-01     -1.659453000000000E+02      3.892822000000000E-01     -4.885937000000000E+01      3.969269000000000E-01     -1.517969000000000E+02      8.143921000000000E-01     -7.549609000000000E+01
4861000000.000000      8.217773000000000E-01     -1.658594000000000E+02      3.883209000000000E-01     -4.933594000000000E+01      3.983612000000000E-01     -1.519219000000000E+02      8.180542000000000E-01     -7.557031000000000E+01
4862000000.000000      8.252563000000000E-01     -1.660859000000000E+02      3.887482000000000E-01     -4.984961000000000E+01      3.994904000000000E-01     -1.520156000000000E+02      8.243408000000000E-01     -7.567187000000000E+01
4863000000.000000      8.309326000000000E-01     -1.659219000000000E+02      3.868866000000000E-01     -5.021874000000000E+01      4.009094000000000E-01     -1.522266000000000E+02      8.292542000000000E-01     -7.572266000000000E+01
4864000000.000000      8.374634000000000E-01     -1.660469000000000E+02      3.871460000000000E-01     -5.050781000000000E+01      4.004517000000000E-01     -1.522969000000000E+02      8.331299000000000E-01     -7.592968000000000E+01
4865000000.000000      8.414001000000000E-01     -1.661172000000000E+02      3.853149000000000E-01     -5.100195000000000E+01      4.022675000000000E-01     -1.525547000000000E+02      8.377380000000000E-01     -7.576953000000000E+01
4866000000.000000      8.454590000000000E-01     -1.660078000000000E+02      3.837891000000000E-01     -5.138085000000000E+01      4.025879000000000E-01     -1.527734000000000E+02      8.443298000000000E-01     -7.587891000000000E+01
4867000000.000000      8.492126000000000E-01     -1.660781000000000E+02      3.829803000000000E-01     -5.187695000000000E+01      4.031830000000000E-01     -1.529140000000000E+02      8.477783000000000E-01     -7.592578000000000E+01
4868000000.000000      8.545532000000000E-01     -1.660547000000000E+02      3.816071000000000E-01     -5.216210000000000E+01      4.051361000000000E-01     -1.530000000000000E+02      8.519897000000000E-01     -7.611718000000000E+01
4869000000.000000      8.563232000000000E-01     -1.660547000000000E+02      3.805237000000000E-01     -5.258398000000000E+01      4.053345000000000E-01     -1.532578000000000E+02      8.578491000000000E-01     -7.637890000000000E+01
4870000000.000000      8.623047000000000E-01     -1.660781000000000E+02      3.792877000000000E-01     -5.266992000000000E+01      4.052582000000000E-01     -1.534062000000000E+02      8.623047000000000E-01     -7.623828000000000E+01
4871000000.000000      8.658142000000000E-01     -1.660625000000000E+02      3.788452000000000E-01     -5.320313000000000E+01      4.049683000000000E-01     -1.535703000000000E+02      8.645325000000000E-01     -7.647655000000000E+01
4872000000.000000      8.692322000000000E-01     -1.659922000000000E+02      3.766174000000000E-01     -5.320313000000000E+01      4.061127000000000E-01     -1.538516000000000E+02      8.710327000000000E-01     -7.656640000000000E+01
4873000000.000000      8.731384000000000E-01     -1.659375000000000E+02      3.749695000000000E-01     -5.372265000000000E+01      4.061432000000000E-01     -1.538750000000000E+02      8.750916000000000E-01     -7.671484000000000E+01
4874000000.000000      8.770142000000000E-01     -1.660000000000000E+02      3.735962000000000E-01     -5.410351000000000E+01      4.074554000000000E-01     -1.539453000000000E+02      8.784790000000000E-01     -7.659765000000000E+01
4875000000.000000      8.806152000000000E-01     -1.659609000000000E+02      3.726501000000000E-01     -5.427148000000000E+01      4.077301000000000E-01     -1.542969000000000E+02      8.823547000000000E-01     -7.689062000000000E+01
4876000000.000000      8.818665000000000E-01     -1.658437000000000E+02      3.713074000000000E-01     -5.451562000000000E+01      4.070587000000000E-01     -1.543281000000000E+02      8.872375000000000E-01     -7.700000000000000E+01
4877000000.000000      8.828125000000000E-01     -1.657031000000000E+02      3.698883000000000E-01     -5.466210000000000E+01      4.080200000000000E-01     -1.545859000000000E+02      8.916321000000000E-01     -7.710155000000000E+01
4878000000.000000      8.889160000000000E-01     -1.656641000000000E+02      3.686829000000000E-01     -5.483007000000000E+01      4.081421000000000E-01     -1.545781000000000E+02      8.955994000000000E-01     -7.721484000000000E+01
4879000000.000000      8.914490000000000E-01     -1.657344000000000E+02      3.659668000000000E-01     -5.511132000000000E+01      4.077454000000000E-01     -1.548047000000000E+02      8.978882000000000E-01     -7.736328000000000E+01
4880000000.000000      8.894653000000000E-01     -1.656641000000000E+02      3.658752000000000E-01     -5.535156000000000E+01      4.085388000000000E-01     -1.548516000000000E+02      9.044495000000000E-01     -7.738671000000000E+01
4881000000.000000      8.938599000000000E-01     -1.655234000000000E+02      3.651886000000000E-01     -5.539453000000000E+01      4.084930000000000E-01     -1.551406000000000E+02      9.059448000000000E-01     -7.752343000000000E+01
4882000000.000000      8.941956000000000E-01     -1.655469000000000E+02      3.628693000000000E-01     -5.563671000000000E+01      4.079285000000000E-01     -1.551719000000000E+02      9.099121000000000E-01     -7.775000000000000E+01
