! Network Analyzer HP8722D
! Hewlett-Packard
! Data name: Linha & Wilkinson
! Saver's name: Rodrigo Anjos
! Comments: Teste da utilização de aquisição
continua pelo VNA HP8722D
! Time and date: 8/5/2025 15:21
!              Frequency                     S11                                                   S21                                                   S12                                                   S22
# HZ  S  MA R 50
4800000000.000000      5.243225000000000E-01     -2.499121000000000E+01      3.822479000000000E-01     -1.525703000000000E+02      4.014587000000000E-01      6.994141000000000E+00      4.909515000000000E-01      5.300903000000000E-01
4801000000.000000      5.214844000000000E-01     -2.464844000000000E+01      3.868103000000000E-01     -1.526094000000000E+02      4.039917000000000E-01      6.742676000000000E+00      4.879303000000000E-01      5.699158000000000E-01
4802000000.000000      5.214233000000000E-01     -2.439550000000000E+01      3.902130000000000E-01     -1.532734000000000E+02      4.089508000000000E-01      6.744141000000000E+00      4.815063000000000E-01      1.126099000000000E+00
4803000000.000000      5.196838000000000E-01     -2.412793000000000E+01      3.958893000000000E-01     -1.535859000000000E+02      4.127655000000000E-01      6.440674000000000E+00      4.754486000000000E-01      8.569336000000000E-01
4804000000.000000      5.189819000000000E-01     -2.381738000000000E+01      4.002075000000000E-01     -1.539141000000000E+02      4.161530000000000E-01      6.164551000000000E+00      4.670105000000000E-01      1.164551000000000E+00
4805000000.000000      5.177612000000000E-01     -2.353222000000000E+01      4.021759000000000E-01     -1.544141000000000E+02      4.196320000000000E-01      6.237305000000000E+00      4.604187000000000E-01      1.230469000000000E+00
4806000000.000000      5.176086000000000E-01     -2.328613000000000E+01      4.068298000000000E-01     -1.546328000000000E+02      4.222412000000000E-01      5.983398000000000E+00      4.531097000000000E-01      1.330688000000000E+00
4807000000.000000      5.168762000000000E-01     -2.307715000000000E+01      4.099884000000000E-01     -1.551719000000000E+02      4.278259000000000E-01      5.767822000000000E+00      4.464569000000000E-01      1.641052000000000E+00
4808000000.000000      5.147400000000000E-01     -2.279297000000000E+01      4.142609000000000E-01     -1.555859000000000E+02      4.302063000000000E-01      5.548096000000000E+00      4.397125000000000E-01      1.831970000000000E+00
4809000000.000000      5.154724000000000E-01     -2.246192000000000E+01      4.172058000000000E-01     -1.560156000000000E+02      4.355469000000000E-01      5.527344000000000E+00      4.318390000000000E-01      2.205444000000000E+00
4810000000.000000      5.158691000000000E-01     -2.225879000000000E+01      4.209442000000000E-01     -1.563203000000000E+02      4.376526000000000E-01      5.626221000000000E+00      4.241180000000000E-01      2.209595000000000E+00
4811000000.000000      5.126648000000000E-01     -2.211621000000000E+01      4.256439000000000E-01     -1.569297000000000E+02      4.423523000000000E-01      5.228027000000000E+00      4.169617000000000E-01      2.698486000000000E+00
4812000000.000000      5.122070000000000E-01     -2.166992000000000E+01      4.286804000000000E-01     -1.572969000000000E+02      4.442902000000000E-01      5.311768000000000E+00      4.092407000000000E-01      2.749268000000000E+00
4813000000.000000      5.100708000000000E-01     -2.178125000000000E+01      4.314270000000000E-01     -1.578438000000000E+02      4.496002000000000E-01      5.034424000000000E+00      4.013977000000000E-01      3.319214000000000E+00
4814000000.000000      5.070496000000000E-01     -2.155273000000000E+01      4.343719000000000E-01     -1.582422000000000E+02      4.534149000000000E-01      4.934082000000000E+00      3.921814000000000E-01      3.541626000000000E+00
4815000000.000000      5.075073000000000E-01     -2.141602000000000E+01      4.368591000000000E-01     -1.587188000000000E+02      4.554596000000000E-01      4.692383000000000E+00      3.847809000000000E-01      3.993530000000000E+00
4816000000.000000      5.077820000000000E-01     -2.100586000000000E+01      4.406738000000000E-01     -1.592187000000000E+02      4.599304000000000E-01      4.737793000000000E+00      3.778534000000000E-01      4.250244000000000E+00
4817000000.000000      5.055847000000000E-01     -2.080859000000000E+01      4.430847000000000E-01     -1.595156000000000E+02      4.617615000000000E-01      4.526367000000000E+00      3.661499000000000E-01      4.883301000000000E+00
4818000000.000000      5.034485000000000E-01     -2.102149000000000E+01      4.465332000000000E-01     -1.598750000000000E+02      4.658356000000000E-01      4.331299000000000E+00      3.580933000000000E-01      5.252686000000000E+00
4819000000.000000      5.036316000000000E-01     -2.077051000000000E+01      4.499054000000000E-01     -1.603984000000000E+02      4.704590000000000E-01      4.143066000000000E+00      3.489990000000000E-01      5.440918000000000E+00
4820000000.000000      4.995575000000000E-01     -2.060645000000000E+01      4.500732000000000E-01     -1.608594000000000E+02      4.733429000000000E-01      4.210449000000000E+00      3.411560000000000E-01      6.182373000000000E+00
4821000000.000000      4.994354000000000E-01     -2.040527000000000E+01      4.539032000000000E-01     -1.615859000000000E+02      4.762421000000000E-01      3.986572000000000E+00      3.316498000000000E-01      6.885498000000000E+00
4822000000.000000      4.966125000000000E-01     -2.032227000000000E+01      4.558868000000000E-01     -1.617344000000000E+02      4.792023000000000E-01      3.577393000000000E+00      3.234406000000000E-01      7.309814000000000E+00
4823000000.000000      4.964905000000000E-01     -2.010156000000000E+01      4.597778000000000E-01     -1.623047000000000E+02      4.823456000000000E-01      3.688599000000000E+00      3.136749000000000E-01      7.955322000000000E+00
4824000000.000000      4.951019000000000E-01     -1.987988000000000E+01      4.624481000000000E-01     -1.627734000000000E+02      4.863586000000000E-01      3.424927000000000E+00      3.043976000000000E-01      8.552734000000000E+00
4825000000.000000      4.935913000000000E-01     -1.972265000000000E+01      4.639282000000000E-01     -1.634219000000000E+02      4.902344000000000E-01      3.261475000000000E+00      2.971954000000000E-01      9.599121000000000E+00
4826000000.000000      4.932098000000000E-01     -1.973633000000000E+01      4.663239000000000E-01     -1.637187000000000E+02      4.928436000000000E-01      3.048706000000000E+00      2.867279000000000E-01      1.034912000000000E+01
4827000000.000000      4.915771000000000E-01     -1.953711000000000E+01      4.684296000000000E-01     -1.639922000000000E+02      4.950409000000000E-01      2.978638000000000E+00      2.786407000000000E-01      1.121289000000000E+01
4828000000.000000      4.895782000000000E-01     -1.926465000000000E+01      4.702148000000000E-01     -1.646641000000000E+02      4.976501000000000E-01      2.849487000000000E+00      2.694092000000000E-01      1.206299000000000E+01
4829000000.000000      4.879303000000000E-01     -1.925293000000000E+01      4.740295000000000E-01     -1.650000000000000E+02      5.016174000000000E-01      2.823486000000000E+00      2.613220000000000E-01      1.347461000000000E+01
4830000000.000000      4.854736000000000E-01     -1.875586000000000E+01      4.743347000000000E-01     -1.655000000000000E+02      5.040588000000000E-01      2.629761000000000E+00      2.511292000000000E-01      1.472559000000000E+01
4831000000.000000      4.832153000000000E-01     -1.904297000000000E+01      4.763336000000000E-01     -1.660312000000000E+02      5.068054000000000E-01      2.497925000000000E+00      2.426605000000000E-01      1.578027000000000E+01
4832000000.000000      4.829407000000000E-01     -1.868457000000000E+01      4.776611000000000E-01     -1.664609000000000E+02      5.103149000000000E-01      2.175293000000000E+00      2.330322000000000E-01      1.765039000000000E+01
4833000000.000000      4.809418000000000E-01     -1.853320000000000E+01      4.797211000000000E-01     -1.667187000000000E+02      5.142212000000000E-01      1.757813000000000E+00      2.251816000000000E-01      1.897265000000000E+01
4834000000.000000      4.792938000000000E-01     -1.843164000000000E+01      4.820099000000000E-01     -1.673359000000000E+02      5.160522000000000E-01      1.687744000000000E+00      2.176437000000000E-01      2.084473000000000E+01
4835000000.000000      4.790497000000000E-01     -1.845215000000000E+01      4.825287000000000E-01     -1.677969000000000E+02      5.188293000000000E-01      1.680908000000000E+00      2.097473000000000E-01      2.272363000000000E+01
4836000000.000000      4.772339000000000E-01     -1.805469000000000E+01      4.839478000000000E-01     -1.680078000000000E+02      5.192871000000000E-01      1.579285000000000E+00      2.013626000000000E-01      2.484472000000000E+01
4837000000.000000      4.740601000000000E-01     -1.793555000000000E+01      4.865112000000000E-01     -1.687500000000000E+02      5.238342000000000E-01      1.455688000000000E+00      1.952744000000000E-01      2.728125000000000E+01
4838000000.000000      4.730530000000000E-01     -1.775195000000000E+01      4.881897000000000E-01     -1.688828000000000E+02      5.250244000000000E-01      1.172791000000000E+00      1.877594000000000E-01      2.938477000000000E+01
4839000000.000000      4.723358000000000E-01     -1.775879000000000E+01      4.886627000000000E-01     -1.693750000000000E+02      5.276184000000000E-01      1.071167000000000E+00      1.826096000000000E-01      3.180176000000000E+01
4840000000.000000      4.711456000000000E-01     -1.748633000000000E+01      4.890137000000000E-01     -1.699922000000000E+02      5.295105000000000E-01      6.578064000000000E-01      1.752625000000000E-01      3.462305000000000E+01
4841000000.000000      4.675446000000000E-01     -1.707324000000000E+01      4.907074000000000E-01     -1.702266000000000E+02      5.322571000000000E-01      5.781555000000000E-01      1.710510000000000E-01      3.781836000000000E+01
4842000000.000000      4.679413000000000E-01     -1.705273000000000E+01      4.931030000000000E-01     -1.706172000000000E+02      5.336304000000000E-01      6.358337000000000E-01      1.662521000000000E-01      4.125000000000000E+01
4843000000.000000      4.673309000000000E-01     -1.702832000000000E+01      4.932556000000000E-01     -1.710000000000000E+02      5.360107000000000E-01      2.485657000000000E-01      1.622696000000000E-01      4.483788000000000E+01
4844000000.000000      4.651337000000000E-01     -1.683008000000000E+01      4.953156000000000E-01     -1.715156000000000E+02      5.370178000000000E-01      1.469421000000000E-01      1.576691000000000E-01      4.837304000000000E+01
4845000000.000000      4.642029000000000E-01     -1.646191000000000E+01      4.944000000000000E-01     -1.718828000000000E+02      5.412292000000000E-01     -9.063721000000000E-02      1.558533000000000E-01      5.181835000000000E+01
4846000000.000000      4.637451000000000E-01     -1.626465000000000E+01      4.959412000000000E-01     -1.723125000000000E+02      5.434570000000000E-01     -1.744080000000000E-01      1.537476000000000E-01      5.580078000000000E+01
4847000000.000000      4.610138000000000E-01     -1.580664000000000E+01      4.964600000000000E-01     -1.725781000000000E+02      5.453491000000000E-01     -4.943848000000000E-01      1.518402000000000E-01      5.960351000000000E+01
4848000000.000000      4.596863000000000E-01     -1.601758000000000E+01      4.955902000000000E-01     -1.730156000000000E+02      5.476379000000000E-01     -6.838989000000000E-01      1.529388000000000E-01      6.354297000000000E+01
4849000000.000000      4.589386000000000E-01     -1.573389000000000E+01      4.982910000000000E-01     -1.735000000000000E+02      5.476990000000000E-01     -8.294678000000000E-01      1.526489000000000E-01      6.713281000000000E+01
4850000000.000000      4.582367000000000E-01     -1.517627000000000E+01      4.993134000000000E-01     -1.736406000000000E+02      5.494690000000000E-01     -9.448242000000000E-01      1.542740000000000E-01      7.098046000000000E+01
4851000000.000000      4.597168000000000E-01     -1.504590000000000E+01      5.015259000000000E-01     -1.741562000000000E+02      5.524902000000000E-01     -1.234619000000000E+00      1.564255000000000E-01      7.446875000000000E+01
4852000000.000000      4.569702000000000E-01     -1.469434000000000E+01      4.994354000000000E-01     -1.744922000000000E+02      5.533142000000000E-01     -1.301880000000000E+00      1.593018000000000E-01      7.750781000000000E+01
4853000000.000000      4.574890000000000E-01     -1.461475000000000E+01      4.992218000000000E-01     -1.745937000000000E+02      5.553284000000000E-01     -1.514771000000000E+00      1.623917000000000E-01      8.066406000000000E+01
4854000000.000000      4.561005000000000E-01     -1.408057000000000E+01      5.014954000000000E-01     -1.752578000000000E+02      5.554504000000000E-01     -1.705627000000000E+00      1.676102000000000E-01      8.367188000000000E+01
4855000000.000000      4.545746000000000E-01     -1.373877000000000E+01      5.013733000000000E-01     -1.754844000000000E+02      5.566406000000000E-01     -1.764709000000000E+00      1.704254000000000E-01      8.708202000000000E+01
4856000000.000000      4.556732000000000E-01     -1.384570000000000E+01      5.040588000000000E-01     -1.758516000000000E+02      5.570984000000000E-01     -1.989929000000000E+00      1.758728000000000E-01      8.964453000000000E+01
4857000000.000000      4.554291000000000E-01     -1.322070000000000E+01      5.062561000000000E-01     -1.762187000000000E+02      5.572205000000000E-01     -2.142334000000000E+00      1.801453000000000E-01      9.209375000000000E+01
4858000000.000000      4.569550000000000E-01     -1.308887000000000E+01      5.046082000000000E-01     -1.766250000000000E+02      5.591125000000000E-01     -2.336060000000000E+00      1.857986000000000E-01      9.376171000000000E+01
4859000000.000000      4.558563000000000E-01     -1.303564000000000E+01      5.064392000000000E-01     -1.769531000000000E+02      5.589600000000000E-01     -2.355225000000000E+00      1.907806000000000E-01      9.631639000000000E+01
4860000000.000000      4.573212000000000E-01     -1.257275000000000E+01      5.068970000000000E-01     -1.771797000000000E+02      5.599060000000000E-01     -2.588745000000000E+00      1.966553000000000E-01      9.800390000000000E+01
4861000000.000000      4.578094000000000E-01     -1.241357000000000E+01      5.078735000000000E-01     -1.777422000000000E+02      5.596619000000000E-01     -2.831787000000000E+00      2.018356000000000E-01      1.000000000000000E+02
4862000000.000000      4.583740000000000E-01     -1.199707000000000E+01      5.081177000000000E-01     -1.779531000000000E+02      5.606689000000000E-01     -2.844116000000000E+00      2.086334000000000E-01      1.009609000000000E+02
4863000000.000000      4.577942000000000E-01     -1.162256000000000E+01      5.086060000000000E-01     -1.783594000000000E+02      5.597534000000000E-01     -2.978760000000000E+00      2.152634000000000E-01      1.027187000000000E+02
4864000000.000000      4.595642000000000E-01     -1.149316000000000E+01      5.093384000000000E-01     -1.785156000000000E+02      5.595398000000000E-01     -3.232788000000000E+00      2.209167000000000E-01      1.036367000000000E+02
4865000000.000000      4.606781000000000E-01     -1.128613000000000E+01      5.090027000000000E-01     -1.788984000000000E+02      5.599060000000000E-01     -3.293213000000000E+00      2.261276000000000E-01      1.049805000000000E+02
4866000000.000000      4.634399000000000E-01     -1.088086000000000E+01      5.113831000000000E-01     -1.794375000000000E+02      5.606384000000000E-01     -3.541748000000000E+00      2.324982000000000E-01      1.053828000000000E+02
4867000000.000000      4.645386000000000E-01     -1.083838000000000E+01      5.110168000000000E-01     -1.796562000000000E+02      5.596924000000000E-01     -3.453857000000000E+00      2.387695000000000E-01      1.067617000000000E+02
4868000000.000000      4.653015000000000E-01     -1.040137000000000E+01      5.116882000000000E-01     -1.799844000000000E+02      5.612488000000000E-01     -3.672241000000000E+00      2.443771000000000E-01      1.076211000000000E+02
4869000000.000000      4.660339000000000E-01     -1.036865000000000E+01      5.133667000000000E-01      1.795234000000000E+02      5.609436000000000E-01     -3.677734000000000E+00      2.494431000000000E-01      1.088867000000000E+02
4870000000.000000      4.702301000000000E-01     -9.863281000000000E+00      5.149841000000000E-01      1.793437000000000E+02      5.606995000000000E-01     -3.710693000000000E+00      2.554169000000000E-01      1.094297000000000E+02
4871000000.000000      4.720917000000000E-01     -9.618652000000000E+00      5.140381000000000E-01      1.788984000000000E+02      5.594788000000000E-01     -3.871338000000000E+00      2.604218000000000E-01      1.096367000000000E+02
4872000000.000000      4.752197000000000E-01     -9.422363000000000E+00      5.149536000000000E-01      1.787344000000000E+02      5.574646000000000E-01     -4.152832000000000E+00      2.670135000000000E-01      1.103320000000000E+02
4873000000.000000      4.771423000000000E-01     -9.432129000000000E+00      5.162354000000000E-01      1.781953000000000E+02      5.579224000000000E-01     -3.904297000000000E+00      2.721710000000000E-01      1.110430000000000E+02
4874000000.000000      4.809875000000000E-01     -9.104980000000000E+00      5.166626000000000E-01      1.777891000000000E+02      5.593567000000000E-01     -4.332764000000000E+00      2.763977000000000E-01      1.113477000000000E+02
4875000000.000000      4.827271000000000E-01     -9.087402000000000E+00      5.154724000000000E-01      1.776953000000000E+02      5.583496000000000E-01     -4.102051000000000E+00      2.803650000000000E-01      1.121875000000000E+02
4876000000.000000      4.837189000000000E-01     -8.942871000000000E+00      5.184937000000000E-01      1.771094000000000E+02      5.586853000000000E-01     -4.028076000000000E+00      2.859955000000000E-01      1.125430000000000E+02
4877000000.000000      4.912567000000000E-01     -8.682129000000000E+00      5.176086000000000E-01      1.765469000000000E+02      5.568542000000000E-01     -4.390625000000000E+00      2.910614000000000E-01      1.124570000000000E+02
4878000000.000000      4.899292000000000E-01     -8.597168000000000E+00      5.199585000000000E-01      1.764375000000000E+02      5.563660000000000E-01     -4.290283000000000E+00      2.945862000000000E-01      1.128164000000000E+02
4879000000.000000      4.944458000000000E-01     -8.406250000000000E+00      5.196228000000000E-01      1.761016000000000E+02      5.592041000000000E-01     -4.335693000000000E+00      2.985992000000000E-01      1.130625000000000E+02
4880000000.000000      4.969330000000000E-01     -8.225098000000000E+00      5.190125000000000E-01      1.755625000000000E+02      5.552063000000000E-01     -4.428955000000000E+00      3.033600000000000E-01      1.135039000000000E+02
4881000000.000000      4.991302000000000E-01     -8.425293000000000E+00      5.207825000000000E-01      1.754062000000000E+02      5.541992000000000E-01     -4.446777000000000E+00      3.080444000000000E-01      1.135703000000000E+02
4882000000.000000      5.026855000000000E-01     -8.117676000000000E+00      5.220947000000000E-01      1.748359000000000E+02      5.558777000000000E-01     -4.369873000000000E+00      3.108215000000000E-01      1.138672000000000E+02
