! Network Analyzer HP8722D
! Hewlett-Packard
! Data name: Linha & Wilkinson
! Saver's name: Rodrigo Anjos
! Comments: Teste da utilização de aquisição
continua pelo VNA HP8722D
! Time and date: 8/5/2025 13:28
!              Frequency                     S11                                                   S21                                                   S12                                                   S22
# HZ  S  MA R 50
4800000000.000000      5.369568000000000E-01     -2.551660000000000E+01      3.603363000000000E-01     -1.483359000000000E+02      3.785553000000000E-01      1.112598000000000E+01      5.033264000000000E-01      1.489990000000000E+00
4801000000.000000      5.358887000000000E-01     -2.495410000000000E+01      3.637695000000000E-01     -1.485156000000000E+02      3.817596000000000E-01      1.089697000000000E+01      5.002136000000000E-01      1.649292000000000E+00
4802000000.000000      5.364075000000000E-01     -2.488574000000000E+01      3.679199000000000E-01     -1.488906000000000E+02      3.854675000000000E-01      1.078955000000000E+01      4.946442000000000E-01      1.961060000000000E+00
4803000000.000000      5.328674000000000E-01     -2.483105000000000E+01      3.735657000000000E-01     -1.492109000000000E+02      3.894958000000000E-01      1.074707000000000E+01      4.896545000000000E-01      1.842957000000000E+00
4804000000.000000      5.335083000000000E-01     -2.438477000000000E+01      3.772278000000000E-01     -1.497266000000000E+02      3.940125000000000E-01      1.068945000000000E+01      4.826355000000000E-01      1.886902000000000E+00
4805000000.000000      5.326843000000000E-01     -2.413574000000000E+01      3.807983000000000E-01     -1.501641000000000E+02      3.983917000000000E-01      1.052197000000000E+01      4.755554000000000E-01      2.099731000000000E+00
4806000000.000000      5.302429000000000E-01     -2.368164000000000E+01      3.840790000000000E-01     -1.505156000000000E+02      4.020691000000000E-01      1.019385000000000E+01      4.682770000000000E-01      1.926697000000000E+00
4807000000.000000      5.287476000000000E-01     -2.356250000000000E+01      3.876648000000000E-01     -1.510781000000000E+02      4.039917000000000E-01      9.771973000000000E+00      4.615021000000000E-01      2.179321000000000E+00
4808000000.000000      5.275574000000000E-01     -2.365723000000000E+01      3.922729000000000E-01     -1.512656000000000E+02      4.087830000000000E-01      1.003857000000000E+01      4.556274000000000E-01      2.349609000000000E+00
4809000000.000000      5.259705000000000E-01     -2.316406000000000E+01      3.964081000000000E-01     -1.519063000000000E+02      4.122925000000000E-01      9.822754000000000E+00      4.483795000000000E-01      2.600952000000000E+00
4810000000.000000      5.238953000000000E-01     -2.296093000000000E+01      4.002991000000000E-01     -1.521250000000000E+02      4.159546000000000E-01      9.603027000000000E+00      4.410706000000000E-01      2.437500000000000E+00
4811000000.000000      5.229492000000000E-01     -2.288672000000000E+01      4.034576000000000E-01     -1.527344000000000E+02      4.204102000000000E-01      9.559082000000000E+00      4.335632000000000E-01      2.865967000000000E+00
4812000000.000000      5.252686000000000E-01     -2.235254000000000E+01      4.072571000000000E-01     -1.531719000000000E+02      4.241791000000000E-01      9.484863000000000E+00      4.261475000000000E-01      2.793213000000000E+00
4813000000.000000      5.212708000000000E-01     -2.233203000000000E+01      4.109497000000000E-01     -1.535391000000000E+02      4.285736000000000E-01      9.280273000000000E+00      4.187469000000000E-01      3.224487000000000E+00
4814000000.000000      5.200806000000000E-01     -2.214844000000000E+01      4.145813000000000E-01     -1.539609000000000E+02      4.315796000000000E-01      9.075684000000000E+00      4.099274000000000E-01      3.305420000000000E+00
4815000000.000000      5.180969000000000E-01     -2.183984000000000E+01      4.173584000000000E-01     -1.544297000000000E+02      4.333496000000000E-01      9.014160000000000E+00      4.026794000000000E-01      3.576050000000000E+00
4816000000.000000      5.156555000000000E-01     -2.150781000000000E+01      4.211884000000000E-01     -1.548047000000000E+02      4.387054000000000E-01      8.843750000000000E+00      3.951416000000000E-01      3.729858000000000E+00
4817000000.000000      5.168457000000000E-01     -2.141602000000000E+01      4.239044000000000E-01     -1.553359000000000E+02      4.417725000000000E-01      8.661133000000000E+00      3.847809000000000E-01      4.136230000000000E+00
4818000000.000000      5.148010000000000E-01     -2.139062000000000E+01      4.269257000000000E-01     -1.558828000000000E+02      4.463501000000000E-01      8.733887000000000E+00      3.755798000000000E-01      4.413574000000000E+00
4819000000.000000      5.140381000000000E-01     -2.104102000000000E+01      4.305725000000000E-01     -1.562813000000000E+02      4.496155000000000E-01      8.508789000000000E+00      3.665924000000000E-01      4.399902000000000E+00
4820000000.000000      5.110779000000000E-01     -2.092090000000000E+01      4.335022000000000E-01     -1.565703000000000E+02      4.523010000000000E-01      8.191406000000000E+00      3.588409000000000E-01      4.961670000000000E+00
4821000000.000000      5.112610000000000E-01     -2.053809000000000E+01      4.366302000000000E-01     -1.571640000000000E+02      4.547729000000000E-01      7.867432000000000E+00      3.488922000000000E-01      5.402344000000000E+00
4822000000.000000      5.083923000000000E-01     -2.090918000000000E+01      4.381866000000000E-01     -1.576015000000000E+02      4.579926000000000E-01      8.017090000000000E+00      3.413391000000000E-01      5.579590000000000E+00
4823000000.000000      5.057068000000000E-01     -2.051856000000000E+01      4.423218000000000E-01     -1.581640000000000E+02      4.603729000000000E-01      7.833252000000000E+00      3.314209000000000E-01      6.016357000000000E+00
4824000000.000000      5.054932000000000E-01     -2.062988000000000E+01      4.445038000000000E-01     -1.585938000000000E+02      4.636383000000000E-01      7.656006000000000E+00      3.216400000000000E-01      6.288086000000000E+00
4825000000.000000      5.046082000000000E-01     -2.009863000000000E+01      4.472504000000000E-01     -1.590156000000000E+02      4.678040000000000E-01      7.552979000000000E+00      3.141174000000000E-01      6.972168000000000E+00
4826000000.000000      5.028076000000000E-01     -2.046973000000000E+01      4.500122000000000E-01     -1.596406000000000E+02      4.710083000000000E-01      7.313965000000000E+00      3.035583000000000E-01      7.491211000000000E+00
4827000000.000000      5.009766000000000E-01     -2.001172000000000E+01      4.519958000000000E-01     -1.599062000000000E+02      4.742737000000000E-01      7.396484000000000E+00      2.951355000000000E-01      8.036133000000000E+00
4828000000.000000      5.014038000000000E-01     -1.988965000000000E+01      4.554291000000000E-01     -1.603672000000000E+02      4.772186000000000E-01      7.077881000000000E+00      2.857056000000000E-01      8.544434000000000E+00
4829000000.000000      4.976654000000000E-01     -1.958398000000000E+01      4.575043000000000E-01     -1.608516000000000E+02      4.800873000000000E-01      7.072266000000000E+00      2.774353000000000E-01      9.559082000000000E+00
4830000000.000000      4.953156000000000E-01     -1.961133000000000E+01      4.592743000000000E-01     -1.613672000000000E+02      4.823303000000000E-01      6.951416000000000E+00      2.656708000000000E-01      1.035156000000000E+01
4831000000.000000      4.950562000000000E-01     -1.972265000000000E+01      4.613342000000000E-01     -1.619062000000000E+02      4.868317000000000E-01      6.752441000000000E+00      2.572327000000000E-01      1.103809000000000E+01
4832000000.000000      4.921722000000000E-01     -1.924707000000000E+01      4.629211000000000E-01     -1.622109000000000E+02      4.878693000000000E-01      6.561523000000000E+00      2.466507000000000E-01      1.223877000000000E+01
4833000000.000000      4.903259000000000E-01     -1.915137000000000E+01      4.658661000000000E-01     -1.626250000000000E+02      4.940186000000000E-01      6.311523000000000E+00      2.371140000000000E-01      1.327002000000000E+01
4834000000.000000      4.899292000000000E-01     -1.909765000000000E+01      4.668427000000000E-01     -1.631562000000000E+02      4.949188000000000E-01      6.123291000000000E+00      2.283478000000000E-01      1.453467000000000E+01
4835000000.000000      4.880371000000000E-01     -1.886914000000000E+01      4.694977000000000E-01     -1.637266000000000E+02      4.986725000000000E-01      5.946289000000000E+00      2.189102000000000E-01      1.573633000000000E+01
4836000000.000000      4.838104000000000E-01     -1.864941000000000E+01      4.701233000000000E-01     -1.639688000000000E+02      4.994049000000000E-01      6.003906000000000E+00      2.105026000000000E-01      1.728418000000000E+01
4837000000.000000      4.837494000000000E-01     -1.832324000000000E+01      4.716034000000000E-01     -1.647344000000000E+02      5.033264000000000E-01      5.653809000000000E+00      2.009888000000000E-01      1.892383000000000E+01
4838000000.000000      4.822845000000000E-01     -1.868262000000000E+01      4.745331000000000E-01     -1.648047000000000E+02      5.060120000000000E-01      5.539795000000000E+00      1.924667000000000E-01      2.070508000000000E+01
4839000000.000000      4.830017000000000E-01     -1.798535000000000E+01      4.762421000000000E-01     -1.654375000000000E+02      5.087585000000000E-01      5.472412000000000E+00      1.851730000000000E-01      2.225684000000000E+01
4840000000.000000      4.791107000000000E-01     -1.814941000000000E+01      4.767761000000000E-01     -1.656953000000000E+02      5.104980000000000E-01      5.343262000000000E+00      1.758041000000000E-01      2.449316000000000E+01
4841000000.000000      4.766235000000000E-01     -1.781348000000000E+01      4.785461000000000E-01     -1.662734000000000E+02      5.133057000000000E-01      5.064697000000000E+00      1.686172000000000E-01      2.719433000000000E+01
4842000000.000000      4.783630000000000E-01     -1.773828000000000E+01      4.804840000000000E-01     -1.666406000000000E+02      5.137329000000000E-01      5.083740000000000E+00      1.615677000000000E-01      3.012500000000000E+01
4843000000.000000      4.760895000000000E-01     -1.753027000000000E+01      4.819489000000000E-01     -1.671719000000000E+02      5.186462000000000E-01      4.870850000000000E+00      1.540833000000000E-01      3.306250000000000E+01
4844000000.000000      4.740601000000000E-01     -1.736621000000000E+01      4.821167000000000E-01     -1.676094000000000E+02      5.196533000000000E-01      4.509766000000000E+00      1.459503000000000E-01      3.622656000000000E+01
4845000000.000000      4.719391000000000E-01     -1.690820000000000E+01      4.835510000000000E-01     -1.679141000000000E+02      5.220642000000000E-01      4.351807000000000E+00      1.419220000000000E-01      3.966797000000000E+01
4846000000.000000      4.720154000000000E-01     -1.666113000000000E+01      4.848785000000000E-01     -1.682734000000000E+02      5.260315000000000E-01      4.270752000000000E+00      1.364365000000000E-01      4.356054000000000E+01
4847000000.000000      4.697876000000000E-01     -1.641699000000000E+01      4.866333000000000E-01     -1.686406000000000E+02      5.274963000000000E-01      4.100586000000000E+00      1.310425000000000E-01      4.763672000000000E+01
4848000000.000000      4.674530000000000E-01     -1.649609000000000E+01      4.853821000000000E-01     -1.690781000000000E+02      5.275269000000000E-01      4.035889000000000E+00      1.291962000000000E-01      5.222070000000000E+01
4849000000.000000      4.666138000000000E-01     -1.635058000000000E+01      4.881592000000000E-01     -1.695000000000000E+02      5.306702000000000E-01      3.718872000000000E+00      1.260300000000000E-01      5.666016000000000E+01
4850000000.000000      4.649353000000000E-01     -1.579297000000000E+01      4.883270000000000E-01     -1.697656000000000E+02      5.314636000000000E-01      3.633667000000000E+00      1.252213000000000E-01      6.142773000000000E+01
4851000000.000000      4.659729000000000E-01     -1.567773000000000E+01      4.907837000000000E-01     -1.703828000000000E+02      5.341797000000000E-01      3.419434000000000E+00      1.238174000000000E-01      6.609375000000000E+01
4852000000.000000      4.636078000000000E-01     -1.543066000000000E+01      4.908905000000000E-01     -1.706406000000000E+02      5.355225000000000E-01      3.345337000000000E+00      1.242027000000000E-01      7.048828000000000E+01
4853000000.000000      4.633179000000000E-01     -1.494727000000000E+01      4.905548000000000E-01     -1.710312000000000E+02      5.379333000000000E-01      3.150269000000000E+00      1.244469000000000E-01      7.517968000000000E+01
4854000000.000000      4.643097000000000E-01     -1.478906000000000E+01      4.923706000000000E-01     -1.714062000000000E+02      5.382996000000000E-01      2.911377000000000E+00      1.282120000000000E-01      7.926952000000000E+01
4855000000.000000      4.621582000000000E-01     -1.458203000000000E+01      4.935455000000000E-01     -1.718203000000000E+02      5.404053000000000E-01      2.724609000000000E+00      1.306381000000000E-01      8.395311000000000E+01
4856000000.000000      4.613800000000000E-01     -1.445020000000000E+01      4.941559000000000E-01     -1.720234000000000E+02      5.408630000000000E-01      2.618774000000000E+00      1.349106000000000E-01      8.794922000000000E+01
4857000000.000000      4.611969000000000E-01     -1.399414000000000E+01      4.963074000000000E-01     -1.723906000000000E+02      5.418091000000000E-01      2.466431000000000E+00      1.385498000000000E-01      9.160547000000000E+01
4858000000.000000      4.602814000000000E-01     -1.379883000000000E+01      4.964752000000000E-01     -1.728203000000000E+02      5.445251000000000E-01      2.375732000000000E+00      1.429825000000000E-01      9.459764000000000E+01
4859000000.000000      4.613037000000000E-01     -1.340625000000000E+01      4.974365000000000E-01     -1.732812000000000E+02      5.446167000000000E-01      2.353760000000000E+00      1.482468000000000E-01      9.803905000000000E+01
4860000000.000000      4.615479000000000E-01     -1.317822000000000E+01      4.980469000000000E-01     -1.734297000000000E+02      5.455017000000000E-01      2.018677000000000E+00      1.545105000000000E-01      1.002773000000000E+02
4861000000.000000      4.607086000000000E-01     -1.279541000000000E+01      4.981689000000000E-01     -1.739453000000000E+02      5.471802000000000E-01      1.999512000000000E+00      1.594238000000000E-01      1.030117000000000E+02
4862000000.000000      4.606934000000000E-01     -1.263037000000000E+01      5.009460000000000E-01     -1.741406000000000E+02      5.478516000000000E-01      1.783875000000000E+00      1.652908000000000E-01      1.051445000000000E+02
4863000000.000000      4.625397000000000E-01     -1.225830000000000E+01      4.998474000000000E-01     -1.747344000000000E+02      5.486755000000000E-01      1.684998000000000E+00      1.719971000000000E-01      1.067578000000000E+02
4864000000.000000      4.649048000000000E-01     -1.209082000000000E+01      5.016479000000000E-01     -1.749687000000000E+02      5.480042000000000E-01      1.521606000000000E+00      1.785965000000000E-01      1.089023000000000E+02
4865000000.000000      4.637299000000000E-01     -1.171729000000000E+01      5.019226000000000E-01     -1.751172000000000E+02      5.484314000000000E-01      1.632813000000000E+00      1.860504000000000E-01      1.099570000000000E+02
4866000000.000000      4.669189000000000E-01     -1.145361000000000E+01      5.025330000000000E-01     -1.755312000000000E+02      5.497437000000000E-01      1.040955000000000E+00      1.900330000000000E-01      1.116602000000000E+02
4867000000.000000      4.662476000000000E-01     -1.115430000000000E+01      5.038452000000000E-01     -1.760000000000000E+02      5.508728000000000E-01      1.097229000000000E+00      1.978989000000000E-01      1.133711000000000E+02
4868000000.000000      4.671936000000000E-01     -1.121582000000000E+01      5.061951000000000E-01     -1.763750000000000E+02      5.497437000000000E-01      8.679199000000000E-01      2.047424000000000E-01      1.142148000000000E+02
4869000000.000000      4.690552000000000E-01     -1.085059000000000E+01      5.043335000000000E-01     -1.768203000000000E+02      5.511169000000000E-01      8.665466000000000E-01      2.105865000000000E-01      1.154180000000000E+02
4870000000.000000      4.701538000000000E-01     -1.037256000000000E+01      5.052490000000000E-01     -1.770781000000000E+02      5.500793000000000E-01      9.599304000000000E-01      2.177429000000000E-01      1.164766000000000E+02
4871000000.000000      4.727631000000000E-01     -9.970215000000000E+00      5.061646000000000E-01     -1.773906000000000E+02      5.513916000000000E-01      6.468201000000000E-01      2.241364000000000E-01      1.173125000000000E+02
4872000000.000000      4.768066000000000E-01     -9.808105000000000E+00      5.073242000000000E-01     -1.777734000000000E+02      5.507202000000000E-01      4.353333000000000E-01      2.296066000000000E-01      1.175078000000000E+02
4873000000.000000      4.784393000000000E-01     -9.661133000000000E+00      5.073547000000000E-01     -1.781016000000000E+02      5.502014000000000E-01      5.191040000000000E-01      2.356186000000000E-01      1.188047000000000E+02
4874000000.000000      4.790039000000000E-01     -9.276855000000000E+00      5.086670000000000E-01     -1.783984000000000E+02      5.513916000000000E-01      1.208496000000000E-01      2.405777000000000E-01      1.191562000000000E+02
4875000000.000000      4.831085000000000E-01     -9.260254000000000E+00      5.094604000000000E-01     -1.788594000000000E+02      5.494995000000000E-01      3.048706000000000E-01      2.470245000000000E-01      1.196211000000000E+02
4876000000.000000      4.863586000000000E-01     -8.823730000000000E+00      5.119934000000000E-01     -1.791016000000000E+02      5.511780000000000E-01      3.996277000000000E-01      2.519836000000000E-01      1.201523000000000E+02
4877000000.000000      4.870453000000000E-01     -8.919922000000000E+00      5.122070000000000E-01     -1.793906000000000E+02      5.509338000000000E-01      3.240967000000000E-01      2.585754000000000E-01      1.204062000000000E+02
4878000000.000000      4.880524000000000E-01     -8.429688000000000E+00      5.127258000000000E-01      1.799453000000000E+02      5.506592000000000E-01      1.510620000000000E-02      2.643127000000000E-01      1.205508000000000E+02
4879000000.000000      4.925537000000000E-01     -8.205566000000000E+00      5.124207000000000E-01      1.798281000000000E+02      5.489502000000000E-01     -4.119873000000000E-03      2.701569000000000E-01      1.215430000000000E+02
4880000000.000000      4.964447000000000E-01     -8.151855000000000E+00      5.147095000000000E-01      1.792109000000000E+02      5.488281000000000E-01     -2.334595000000000E-02      2.731781000000000E-01      1.213906000000000E+02
4881000000.000000      4.974976000000000E-01     -8.227539000000000E+00      5.146790000000000E-01      1.791563000000000E+02      5.486755000000000E-01     -1.922607000000000E-02      2.794495000000000E-01      1.216016000000000E+02
4882000000.000000      5.009766000000000E-01     -7.996826000000000E+00      5.150146000000000E-01      1.786016000000000E+02      5.486450000000000E-01     -2.032471000000000E-01      2.839355000000000E-01      1.216797000000000E+02
