! Network Analyzer HP8722D
! Hewlett-Packard
! Data name: Linha & Wilkinson
! Saver's name: Rodrigo Anjos
! Comments: Teste da utilização de aquisição
continua pelo VNA HP8722D
! Time and date: 8/5/2025 15:42
!              Frequency                     S11                                                   S21                                                   S12                                                   S22
# HZ  S  MA R 50
4800000000.000000      9.370728000000000E-01      1.629141000000000E+02      4.537659000000000E-01      1.199844000000000E+02      4.466400000000000E-01      1.536426000000000E+01      9.325256000000000E-01     -3.960742000000000E+01
4801000000.000000      9.356689000000000E-01      1.629297000000000E+02      4.552155000000000E-01      1.196172000000000E+02      4.457550000000000E-01      1.486719000000000E+01      9.284058000000000E-01     -4.003906000000000E+01
4802000000.000000      9.361572000000000E-01      1.629219000000000E+02      4.569702000000000E-01      1.193906000000000E+02      4.484711000000000E-01      1.474219000000000E+01      9.245300000000000E-01     -4.025586000000000E+01
4803000000.000000      9.329834000000000E-01      1.628203000000000E+02      4.575500000000000E-01      1.187656000000000E+02      4.468689000000000E-01      1.432715000000000E+01      9.199829000000000E-01     -4.092578000000000E+01
4804000000.000000      9.316406000000000E-01      1.631953000000000E+02      4.597321000000000E-01      1.184062000000000E+02      4.490356000000000E-01      1.395654000000000E+01      9.129944000000000E-01     -4.133203000000000E+01
4805000000.000000      9.318542000000000E-01      1.631250000000000E+02      4.621277000000000E-01      1.179414000000000E+02      4.479980000000000E-01      1.386035000000000E+01      9.077454000000000E-01     -4.184570000000000E+01
4806000000.000000      9.291382000000000E-01      1.631797000000000E+02      4.629211000000000E-01      1.175352000000000E+02      4.470673000000000E-01      1.339893000000000E+01      9.018555000000000E-01     -4.244726000000000E+01
4807000000.000000      9.278564000000000E-01      1.631797000000000E+02      4.668427000000000E-01      1.168359000000000E+02      4.502411000000000E-01      1.299121000000000E+01      8.965454000000000E-01     -4.266015000000000E+01
4808000000.000000      9.294739000000000E-01      1.632344000000000E+02      4.686127000000000E-01      1.165820000000000E+02      4.508057000000000E-01      1.262158000000000E+01      8.912659000000000E-01     -4.324804000000000E+01
4809000000.000000      9.248657000000000E-01      1.633203000000000E+02      4.702606000000000E-01      1.156680000000000E+02      4.513092000000000E-01      1.219043000000000E+01      8.857727000000000E-01     -4.359961000000000E+01
4810000000.000000      9.228210000000000E-01      1.634375000000000E+02      4.727631000000000E-01      1.153828000000000E+02      4.511414000000000E-01      1.192529000000000E+01      8.794861000000000E-01     -4.424609000000000E+01
4811000000.000000      9.247742000000000E-01      1.635859000000000E+02      4.751587000000000E-01      1.146172000000000E+02      4.533234000000000E-01      1.185107000000000E+01      8.740234000000000E-01     -4.453515000000000E+01
4812000000.000000      9.223938000000000E-01      1.636641000000000E+02      4.714203000000000E-01      1.143203000000000E+02      4.526978000000000E-01      1.154932000000000E+01      8.660583000000000E-01     -4.515625000000000E+01
4813000000.000000      9.199829000000000E-01      1.637812000000000E+02      4.750824000000000E-01      1.137578000000000E+02      4.538574000000000E-01      1.120459000000000E+01      8.613281000000000E-01     -4.540039000000000E+01
4814000000.000000      9.154663000000000E-01      1.635313000000000E+02      4.780579000000000E-01      1.131680000000000E+02      4.523010000000000E-01      1.112500000000000E+01      8.557434000000000E-01     -4.599414000000000E+01
4815000000.000000      9.130554000000000E-01      1.637031000000000E+02      4.791565000000000E-01      1.125898000000000E+02      4.541321000000000E-01      1.062891000000000E+01      8.483582000000000E-01     -4.629102000000000E+01
4816000000.000000      9.110413000000000E-01      1.638906000000000E+02      4.807892000000000E-01      1.122148000000000E+02      4.563599000000000E-01      1.017432000000000E+01      8.427734000000000E-01     -4.700976000000000E+01
4817000000.000000      9.118347000000000E-01      1.639531000000000E+02      4.830933000000000E-01      1.115469000000000E+02      4.543610000000000E-01      9.883301000000000E+00      8.344421000000000E-01     -4.728906000000000E+01
4818000000.000000      9.070129000000000E-01      1.639531000000000E+02      4.822388000000000E-01      1.109883000000000E+02      4.547424000000000E-01      9.618164000000000E+00      8.276978000000000E-01     -4.775781000000000E+01
4819000000.000000      9.043274000000000E-01      1.638828000000000E+02      4.844818000000000E-01      1.104297000000000E+02      4.540863000000000E-01      9.265137000000000E+00      8.204651000000000E-01     -4.830078000000000E+01
4820000000.000000      8.996887000000000E-01      1.640000000000000E+02      4.842072000000000E-01      1.096601000000000E+02      4.561157000000000E-01      8.911133000000000E+00      8.144226000000000E-01     -4.866405000000000E+01
4821000000.000000      8.979187000000000E-01      1.642109000000000E+02      4.875946000000000E-01      1.092070000000000E+02      4.560852000000000E-01      8.708984000000000E+00      8.077393000000000E-01     -4.910351000000000E+01
4822000000.000000      9.002075000000000E-01      1.639844000000000E+02      4.890594000000000E-01      1.083476000000000E+02      4.548950000000000E-01      8.225586000000000E+00      8.013000000000000E-01     -4.967773000000000E+01
4823000000.000000      8.937378000000000E-01      1.642109000000000E+02      4.888611000000000E-01      1.078477000000000E+02      4.537964000000000E-01      8.475586000000000E+00      7.948608000000000E-01     -5.007030000000000E+01
4824000000.000000      8.924561000000000E-01      1.641953000000000E+02      4.909058000000000E-01      1.069648000000000E+02      4.556580000000000E-01      7.688965000000000E+00      7.863159000000000E-01     -5.055273000000000E+01
4825000000.000000      8.889771000000000E-01      1.642578000000000E+02      4.904938000000000E-01      1.065547000000000E+02      4.570313000000000E-01      7.437744000000000E+00      7.801514000000000E-01     -5.099609000000000E+01
4826000000.000000      8.864441000000000E-01      1.642422000000000E+02      4.922485000000000E-01      1.056133000000000E+02      4.565125000000000E-01      7.088867000000000E+00      7.736206000000000E-01     -5.152148000000000E+01
4827000000.000000      8.845215000000000E-01      1.643437000000000E+02      4.934387000000000E-01      1.052891000000000E+02      4.560547000000000E-01      6.742676000000000E+00      7.665710000000000E-01     -5.188867000000000E+01
4828000000.000000      8.825684000000000E-01      1.643125000000000E+02      4.952545000000000E-01      1.043789000000000E+02      4.566345000000000E-01      6.253906000000000E+00      7.594604000000000E-01     -5.237890000000000E+01
4829000000.000000      8.761902000000000E-01      1.645156000000000E+02      4.927521000000000E-01      1.037305000000000E+02      4.578857000000000E-01      6.220947000000000E+00      7.525024000000000E-01     -5.284374000000000E+01
4830000000.000000      8.740540000000000E-01      1.643750000000000E+02      4.923248000000000E-01      1.030351000000000E+02      4.563446000000000E-01      5.917480000000000E+00      7.429810000000000E-01     -5.319336000000000E+01
4831000000.000000      8.676147000000000E-01      1.645234000000000E+02      4.935913000000000E-01      1.021484000000000E+02      4.557190000000000E-01      5.649658000000000E+00      7.367249000000000E-01     -5.367969000000000E+01
4832000000.000000      8.672485000000000E-01      1.644297000000000E+02      4.934082000000000E-01      1.015625000000000E+02      4.553986000000000E-01      5.182617000000000E+00      7.283325000000000E-01     -5.404101000000000E+01
4833000000.000000      8.627625000000000E-01      1.644922000000000E+02      4.946747000000000E-01      1.010664000000000E+02      4.557190000000000E-01      4.839355000000000E+00      7.220154000000000E-01     -5.441406000000000E+01
4834000000.000000      8.588257000000000E-01      1.645625000000000E+02      4.953003000000000E-01      1.002539000000000E+02      4.561768000000000E-01      4.504395000000000E+00      7.137451000000000E-01     -5.484375000000000E+01
4835000000.000000      8.559875000000000E-01      1.645625000000000E+02      4.932861000000000E-01      9.940624000000000E+01      4.559784000000000E-01      4.075928000000000E+00      7.066040000000000E-01     -5.527734000000000E+01
4836000000.000000      8.540649000000000E-01      1.645391000000000E+02      4.944153000000000E-01      9.875780000000000E+01      4.557343000000000E-01      3.927612000000000E+00      6.992798000000000E-01     -5.553905000000000E+01
4837000000.000000      8.488770000000000E-01      1.646797000000000E+02      4.920349000000000E-01      9.780468000000000E+01      4.552155000000000E-01      3.308228000000000E+00      6.908569000000000E-01     -5.589648000000000E+01
4838000000.000000      8.463440000000000E-01      1.646094000000000E+02      4.931641000000000E-01      9.701561000000000E+01      4.545288000000000E-01      3.205200000000000E+00      6.842957000000000E-01     -5.634179000000000E+01
4839000000.000000      8.435059000000000E-01      1.646719000000000E+02      4.908295000000000E-01      9.644531000000000E+01      4.549561000000000E-01      2.672363000000000E+00      6.773987000000000E-01     -5.666016000000000E+01
4840000000.000000      8.364868000000000E-01      1.647344000000000E+02      4.893494000000000E-01      9.583984000000000E+01      4.561615000000000E-01      2.349609000000000E+00      6.683044000000000E-01     -5.699413000000000E+01
4841000000.000000      8.331299000000000E-01      1.645703000000000E+02      4.893341000000000E-01      9.488672000000000E+01      4.548492000000000E-01      1.999512000000000E+00      6.611328000000000E-01     -5.735742000000000E+01
4842000000.000000      8.303833000000000E-01      1.647578000000000E+02      4.892120000000000E-01      9.423437000000000E+01      4.536438000000000E-01      1.672668000000000E+00      6.535645000000000E-01     -5.764843000000000E+01
4843000000.000000      8.268433000000000E-01      1.648203000000000E+02      4.856415000000000E-01      9.351171000000000E+01      4.538116000000000E-01      1.186523000000000E+00      6.446838000000000E-01     -5.797461000000000E+01
4844000000.000000      8.217468000000000E-01      1.647578000000000E+02      4.845428000000000E-01      9.287109000000000E+01      4.530334000000000E-01      7.498169000000000E-01      6.365356000000000E-01     -5.825195000000000E+01
4845000000.000000      8.196716000000000E-01      1.648594000000000E+02      4.826508000000000E-01      9.200390000000000E+01      4.537048000000000E-01      3.392029000000000E-01      6.289978000000000E-01     -5.849023000000000E+01
4846000000.000000      8.146667000000000E-01      1.648828000000000E+02      4.833679000000000E-01      9.147264000000000E+01      4.537201000000000E-01     -1.661682000000000E-01      6.209717000000000E-01     -5.873632000000000E+01
4847000000.000000      8.107910000000000E-01      1.648125000000000E+02      4.803162000000000E-01      9.071875000000000E+01      4.528809000000000E-01     -4.669189000000000E-01      6.136780000000000E-01     -5.916601000000000E+01
4848000000.000000      8.086548000000000E-01      1.649531000000000E+02      4.783173000000000E-01      8.988672000000000E+01      4.521027000000000E-01     -9.283447000000000E-01      6.045532000000000E-01     -5.938671000000000E+01
4849000000.000000      8.047180000000000E-01      1.647969000000000E+02      4.768524000000000E-01      8.909765000000000E+01      4.506531000000000E-01     -1.373291000000000E+00      5.961609000000000E-01     -5.938867000000000E+01
4850000000.000000      7.998657000000000E-01      1.647891000000000E+02      4.721527000000000E-01      8.857422000000000E+01      4.494019000000000E-01     -1.529846000000000E+00      5.883179000000000E-01     -5.972656000000000E+01
4851000000.000000      7.967834000000000E-01      1.648984000000000E+02      4.722748000000000E-01      8.767969000000000E+01      4.499359000000000E-01     -2.208252000000000E+00      5.814209000000000E-01     -5.988086000000000E+01
4852000000.000000      7.949524000000000E-01      1.649609000000000E+02      4.688568000000000E-01      8.702734000000000E+01      4.496155000000000E-01     -2.602417000000000E+00      5.723877000000000E-01     -5.997265000000000E+01
4853000000.000000      7.897034000000000E-01      1.648750000000000E+02      4.654999000000000E-01      8.632421000000000E+01      4.492035000000000E-01     -3.118774000000000E+00      5.641785000000000E-01     -6.020508000000000E+01
4854000000.000000      7.857971000000000E-01      1.648438000000000E+02      4.648590000000000E-01      8.556641000000000E+01      4.465332000000000E-01     -3.753296000000000E+00      5.565796000000000E-01     -6.021093000000000E+01
4855000000.000000      7.804260000000000E-01      1.648906000000000E+02      4.617462000000000E-01      8.507421000000000E+01      4.452972000000000E-01     -3.955078000000000E+00      5.470886000000000E-01     -6.028906000000000E+01
4856000000.000000      7.807312000000000E-01      1.649453000000000E+02      4.598083000000000E-01      8.442186000000000E+01      4.447174000000000E-01     -4.560791000000000E+00      5.412292000000000E-01     -6.036327000000000E+01
4857000000.000000      7.743530000000000E-01      1.648359000000000E+02      4.564819000000000E-01      8.359375000000000E+01      4.445496000000000E-01     -4.971436000000000E+00      5.310974000000000E-01     -6.038671000000000E+01
4858000000.000000      7.700806000000000E-01      1.648359000000000E+02      4.529572000000000E-01      8.298437000000000E+01      4.433746000000000E-01     -5.410889000000000E+00      5.234375000000000E-01     -6.045507000000000E+01
4859000000.000000      7.655334000000000E-01      1.648516000000000E+02      4.500732000000000E-01      8.237499000000000E+01      4.411621000000000E-01     -6.034424000000000E+00      5.152588000000000E-01     -6.038671000000000E+01
4860000000.000000      7.645874000000000E-01      1.648359000000000E+02      4.474792000000000E-01      8.189844000000000E+01      4.392548000000000E-01     -6.587891000000000E+00      5.067749000000000E-01     -6.013281000000000E+01
4861000000.000000      7.608643000000000E-01      1.649219000000000E+02      4.457855000000000E-01      8.097656000000000E+01      4.387360000000000E-01     -7.068359000000000E+00      4.987183000000000E-01     -6.024414000000000E+01
4862000000.000000      7.566223000000000E-01      1.648281000000000E+02      4.411316000000000E-01      8.059765000000000E+01      4.373169000000000E-01     -7.470703000000000E+00      4.917145000000000E-01     -6.010156000000000E+01
4863000000.000000      7.541199000000000E-01      1.650156000000000E+02      4.369202000000000E-01      7.974999000000000E+01      4.364014000000000E-01     -8.014648000000000E+00      4.839020000000000E-01     -5.975780000000000E+01
4864000000.000000      7.511902000000000E-01      1.649141000000000E+02      4.363251000000000E-01      7.935937000000000E+01      4.334564000000000E-01     -8.414551000000000E+00      4.756622000000000E-01     -5.963281000000000E+01
4865000000.000000      7.447510000000000E-01      1.647812000000000E+02      4.312897000000000E-01      7.878906000000000E+01      4.328918000000000E-01     -9.176758000000000E+00      4.685974000000000E-01     -5.920312000000000E+01
4866000000.000000      7.427979000000000E-01      1.648828000000000E+02      4.281616000000000E-01      7.808594000000000E+01      4.311981000000000E-01     -9.569336000000000E+00      4.614410000000000E-01     -5.896679000000000E+01
4867000000.000000      7.408752000000000E-01      1.649375000000000E+02      4.256592000000000E-01      7.729687000000000E+01      4.291687000000000E-01     -1.020801000000000E+01      4.534760000000000E-01     -5.853125000000000E+01
4868000000.000000      7.375488000000000E-01      1.648438000000000E+02      4.220734000000000E-01      7.679688000000000E+01      4.272461000000000E-01     -1.058008000000000E+01      4.459839000000000E-01     -5.811523000000000E+01
4869000000.000000      7.341003000000000E-01      1.650547000000000E+02      4.194336000000000E-01      7.611718000000000E+01      4.257507000000000E-01     -1.129004000000000E+01      4.389954000000000E-01     -5.776757000000000E+01
4870000000.000000      7.310486000000000E-01      1.649219000000000E+02      4.154358000000000E-01      7.596874000000000E+01      4.233856000000000E-01     -1.174609000000000E+01      4.328156000000000E-01     -5.705273000000000E+01
4871000000.000000      7.284851000000000E-01      1.648672000000000E+02      4.140778000000000E-01      7.502343000000000E+01      4.194336000000000E-01     -1.237061000000000E+01      4.253693000000000E-01     -5.666210000000000E+01
4872000000.000000      7.278442000000000E-01      1.648906000000000E+02      4.087524000000000E-01      7.480078000000000E+01      4.178467000000000E-01     -1.314551000000000E+01      4.195557000000000E-01     -5.592382000000000E+01
4873000000.000000      7.239075000000000E-01      1.650156000000000E+02      4.048920000000000E-01      7.386328000000000E+01      4.135590000000000E-01     -1.369482000000000E+01      4.125214000000000E-01     -5.529687000000000E+01
4874000000.000000      7.225647000000000E-01      1.650000000000000E+02      4.013367000000000E-01      7.331640000000000E+01      4.145050000000000E-01     -1.414502000000000E+01      4.067078000000000E-01     -5.443359000000000E+01
4875000000.000000      7.188721000000000E-01      1.648750000000000E+02      3.991394000000000E-01      7.283984000000000E+01      4.097900000000000E-01     -1.469189000000000E+01      4.006500000000000E-01     -5.365039000000000E+01
4876000000.000000      7.165527000000000E-01      1.649375000000000E+02      3.945618000000000E-01      7.214453000000000E+01      4.075928000000000E-01     -1.529883000000000E+01      3.962250000000000E-01     -5.302148000000000E+01
4877000000.000000      7.151184000000000E-01      1.650703000000000E+02      3.910980000000000E-01      7.178905000000000E+01      4.064636000000000E-01     -1.603516000000000E+01      3.907623000000000E-01     -5.196484000000000E+01
4878000000.000000      7.128296000000000E-01      1.647969000000000E+02      3.888702000000000E-01      7.106250000000000E+01      4.017639000000000E-01     -1.633594000000000E+01      3.864136000000000E-01     -5.102148000000000E+01
4879000000.000000      7.128296000000000E-01      1.651250000000000E+02      3.841095000000000E-01      7.073437000000000E+01      3.987732000000000E-01     -1.720215000000000E+01      3.824005000000000E-01     -5.005273000000000E+01
4880000000.000000      7.086182000000000E-01      1.648906000000000E+02      3.806915000000000E-01      7.003124000000000E+01      3.968048000000000E-01     -1.761523000000000E+01      3.783875000000000E-01     -4.897461000000000E+01
4881000000.000000      7.083740000000000E-01      1.650703000000000E+02      3.785858000000000E-01      6.958984000000000E+01      3.926697000000000E-01     -1.836035000000000E+01      3.751831000000000E-01     -4.784961000000000E+01
4882000000.000000      7.077942000000000E-01      1.649765000000000E+02      3.744049000000000E-01      6.904297000000000E+01      3.908997000000000E-01     -1.871289000000000E+01      3.717957000000000E-01     -4.677343000000000E+01
