! Network Analyzer HP8722D
! Hewlett-Packard
! Data name: Linha & Wilkinson
! Saver's name: Rodrigo Anjos
! Comments: Teste da utilização de aquisição
continua pelo VNA HP8722D
! Time and date: 8/5/2025 12:48
!              Frequency                     S11                                                   S21                                                   S12                                                   S22
# HZ  S  MA R 50
4800000000.000000      8.684082000000000E-01      8.878124000000000E+01      1.389084000000000E-01     -2.863770000000000E+01      1.293030000000000E-01      9.961718000000000E+01      2.248535000000000E-01      6.557031000000000E+01
4801000000.000000      8.703613000000000E-01      8.904688000000000E+01      1.359024000000000E-01     -2.742383000000000E+01      1.266022000000000E-01      1.004062000000000E+02      2.320404000000000E-01      6.454687000000000E+01
4802000000.000000      8.749084000000000E-01      8.935938000000000E+01      1.330795000000000E-01     -2.623437000000000E+01      1.241646000000000E-01      1.013437000000000E+02      2.361450000000000E-01      6.436328000000000E+01
4803000000.000000      8.753357000000000E-01      8.956249000000000E+01      1.307220000000000E-01     -2.499121000000000E+01      1.218529000000000E-01      1.024961000000000E+02      2.413712000000000E-01      6.430078000000000E+01
4804000000.000000      8.816223000000000E-01      8.991796000000000E+01      1.278458000000000E-01     -2.335449000000000E+01      1.197472000000000E-01      1.036367000000000E+02      2.431183000000000E-01      6.417969000000000E+01
4805000000.000000      8.858948000000000E-01      9.011328000000000E+01      1.255493000000000E-01     -2.220117000000000E+01      1.175308000000000E-01      1.047695000000000E+02      2.489548000000000E-01      6.367773000000000E+01
4806000000.000000      8.863220000000000E-01      9.048828000000000E+01      1.235046000000000E-01     -2.075879000000000E+01      1.153183000000000E-01      1.062812000000000E+02      2.519531000000000E-01      6.360937000000000E+01
4807000000.000000      8.896484000000000E-01      9.069530000000000E+01      1.221390000000000E-01     -1.928125000000000E+01      1.140556000000000E-01      1.075273000000000E+02      2.555389000000000E-01      6.283789000000000E+01
4808000000.000000      8.906250000000000E-01      9.098827000000000E+01      1.206474000000000E-01     -1.741504000000000E+01      1.125603000000000E-01      1.090273000000000E+02      2.583160000000000E-01      6.209961000000000E+01
4809000000.000000      8.936462000000000E-01      9.139452000000000E+01      1.186028000000000E-01     -1.598535000000000E+01      1.114464000000000E-01      1.103164000000000E+02      2.625427000000000E-01      6.241015000000000E+01
4810000000.000000      8.965149000000000E-01      9.156250000000000E+01      1.176682000000000E-01     -1.433887000000000E+01      1.101418000000000E-01      1.120664000000000E+02      2.673492000000000E-01      6.153515000000000E+01
4811000000.000000      8.969727000000000E-01      9.208984000000000E+01      1.164093000000000E-01     -1.245850000000000E+01      1.093597000000000E-01      1.134219000000000E+02      2.695160000000000E-01      6.114452000000000E+01
4812000000.000000      9.003906000000000E-01      9.231640000000000E+01      1.158142000000000E-01     -1.081787000000000E+01      1.087837000000000E-01      1.150430000000000E+02      2.728729000000000E-01      6.020508000000000E+01
4813000000.000000      8.981934000000000E-01      9.269922000000000E+01      1.154327000000000E-01     -8.908691000000000E+00      1.084099000000000E-01      1.167578000000000E+02      2.775421000000000E-01      6.036914000000000E+01
4814000000.000000      8.998413000000000E-01      9.285156000000000E+01      1.149406000000000E-01     -6.970947000000000E+00      1.078987000000000E-01      1.185312000000000E+02      2.798767000000000E-01      5.946094000000000E+01
4815000000.000000      9.013367000000000E-01      9.324999000000000E+01      1.148834000000000E-01     -5.351807000000000E+00      1.076775000000000E-01      1.200430000000000E+02      2.809601000000000E-01      5.908008000000000E+01
4816000000.000000      9.056091000000000E-01      9.344921000000000E+01      1.148682000000000E-01     -3.371460000000000E+00      1.083221000000000E-01      1.217226000000000E+02      2.840576000000000E-01      5.816406000000000E+01
4817000000.000000      9.040833000000000E-01      9.380859000000000E+01      1.150398000000000E-01     -1.836121000000000E+00      1.083260000000000E-01      1.232891000000000E+02      2.866974000000000E-01      5.816796000000000E+01
4818000000.000000      9.044495000000000E-01      9.400782000000000E+01      1.156464000000000E-01      6.179810000000000E-02      1.089478000000000E-01      1.250273000000000E+02      2.885284000000000E-01      5.729882000000000E+01
4819000000.000000      9.072266000000000E-01      9.432812000000000E+01      1.163750000000000E-01      1.735840000000000E+00      1.090927000000000E-01      1.265742000000000E+02      2.900085000000000E-01      5.670703000000000E+01
4820000000.000000      9.009705000000000E-01      9.464062000000000E+01      1.171951000000000E-01      3.467529000000000E+00      1.102829000000000E-01      1.281016000000000E+02      2.917480000000000E-01      5.638866000000000E+01
4821000000.000000      9.087219000000000E-01      9.489452000000000E+01      1.182938000000000E-01      5.016602000000000E+00      1.108055000000000E-01      1.295547000000000E+02      2.954559000000000E-01      5.595703000000000E+01
4822000000.000000      9.050903000000000E-01      9.500780000000000E+01      1.190758000000000E-01      6.315674000000000E+00      1.117249000000000E-01      1.309062000000000E+02      2.966309000000000E-01      5.463085000000000E+01
4823000000.000000      9.059753000000000E-01      9.548437000000000E+01      1.209755000000000E-01      7.989746000000000E+00      1.131172000000000E-01      1.325859000000000E+02      2.971954000000000E-01      5.405273000000000E+01
4824000000.000000      9.050598000000000E-01      9.567186000000000E+01      1.221962000000000E-01      9.413574000000000E+00      1.146851000000000E-01      1.338516000000000E+02      2.975616000000000E-01      5.346874000000000E+01
4825000000.000000      9.034424000000000E-01      9.599609000000000E+01      1.237869000000000E-01      1.094482000000000E+01      1.164322000000000E-01      1.351719000000000E+02      2.997894000000000E-01      5.275781000000000E+01
4826000000.000000      9.038391000000000E-01      9.616405000000000E+01      1.263199000000000E-01      1.223438000000000E+01      1.178360000000000E-01      1.364844000000000E+02      3.010864000000000E-01      5.225780000000000E+01
4827000000.000000      9.039917000000000E-01      9.639061000000000E+01      1.278992000000000E-01      1.356787000000000E+01      1.194839000000000E-01      1.376094000000000E+02      3.012848000000000E-01      5.145898000000000E+01
4828000000.000000      9.045105000000000E-01      9.673828000000000E+01      1.302185000000000E-01      1.467773000000000E+01      1.214066000000000E-01      1.386563000000000E+02      3.037109000000000E-01      5.054492000000000E+01
4829000000.000000      9.010315000000000E-01      9.713671000000000E+01      1.322327000000000E-01      1.587793000000000E+01      1.239395000000000E-01      1.399531000000000E+02      3.042755000000000E-01      5.010156000000000E+01
4830000000.000000      8.980103000000000E-01      9.726952000000000E+01      1.345062000000000E-01      1.681641000000000E+01      1.257706000000000E-01      1.410547000000000E+02      3.051453000000000E-01      4.964257000000000E+01
4831000000.000000      8.970642000000000E-01      9.757030000000000E+01      1.371994000000000E-01      1.787695000000000E+01      1.275711000000000E-01      1.420078000000000E+02      3.055573000000000E-01      4.877734000000000E+01
4832000000.000000      8.962708000000000E-01      9.776953000000000E+01      1.394958000000000E-01      1.883691000000000E+01      1.300964000000000E-01      1.430234000000000E+02      3.062439000000000E-01      4.849414000000000E+01
4833000000.000000      8.928223000000000E-01      9.797655000000000E+01      1.418076000000000E-01      1.971289000000000E+01      1.320114000000000E-01      1.438125000000000E+02      3.043213000000000E-01      4.779297000000000E+01
4834000000.000000      8.911438000000000E-01      9.817968000000000E+01      1.445694000000000E-01      2.051758000000000E+01      1.345901000000000E-01      1.444531000000000E+02      3.065186000000000E-01      4.721484000000000E+01
4835000000.000000      8.914795000000000E-01      9.855858000000000E+01      1.474686000000000E-01      2.120215000000000E+01      1.371002000000000E-01      1.453359000000000E+02      3.072205000000000E-01      4.638867000000000E+01
4836000000.000000      8.902893000000000E-01      9.875389000000000E+01      1.503143000000000E-01      2.202734000000000E+01      1.394501000000000E-01      1.460938000000000E+02      3.055878000000000E-01      4.586914000000000E+01
4837000000.000000      8.850098000000000E-01      9.896873000000000E+01      1.532822000000000E-01      2.248047000000000E+01      1.421967000000000E-01      1.468281000000000E+02      3.062897000000000E-01      4.519727000000000E+01
4838000000.000000      8.805542000000000E-01      9.914063000000000E+01      1.561050000000000E-01      2.336328000000000E+01      1.447678000000000E-01      1.474531000000000E+02      3.059540000000000E-01      4.467969000000000E+01
4839000000.000000      8.831787000000000E-01      9.950781000000000E+01      1.594162000000000E-01      2.379981000000000E+01      1.477509000000000E-01      1.479141000000000E+02      3.078461000000000E-01      4.386719000000000E+01
4840000000.000000      8.766174000000000E-01      9.963280000000000E+01      1.621399000000000E-01      2.441699000000000E+01      1.504669000000000E-01      1.485156000000000E+02      3.063660000000000E-01      4.344727000000000E+01
4841000000.000000      8.734131000000000E-01      9.987890000000000E+01      1.653595000000000E-01      2.470410000000000E+01      1.531448000000000E-01      1.491250000000000E+02      3.065491000000000E-01      4.268164000000000E+01
4842000000.000000      8.714905000000000E-01      9.998827000000000E+01      1.684341000000000E-01      2.529980000000000E+01      1.558762000000000E-01      1.497656000000000E+02      3.067932000000000E-01      4.232422000000000E+01
4843000000.000000      8.690796000000000E-01      1.002226000000000E+02      1.715469000000000E-01      2.554785000000000E+01      1.587601000000000E-01      1.501953000000000E+02      3.078461000000000E-01      4.181054000000000E+01
4844000000.000000      8.654785000000000E-01      1.004023000000000E+02      1.749573000000000E-01      2.585742000000000E+01      1.613693000000000E-01      1.505781000000000E+02      3.049927000000000E-01      4.095703000000000E+01
4845000000.000000      8.591309000000000E-01      1.005273000000000E+02      1.776886000000000E-01      2.623632000000000E+01      1.645584000000000E-01      1.509453000000000E+02      3.055115000000000E-01      4.037305000000000E+01
4846000000.000000      8.581543000000000E-01      1.007148000000000E+02      1.811371000000000E-01      2.646875000000000E+01      1.675797000000000E-01      1.513515000000000E+02      3.051605000000000E-01      3.991992000000000E+01
4847000000.000000      8.547058000000000E-01      1.009883000000000E+02      1.840134000000000E-01      2.676953000000000E+01      1.703796000000000E-01      1.516172000000000E+02      3.036652000000000E-01      3.948633000000000E+01
4848000000.000000      8.507385000000000E-01      1.009101000000000E+02      1.871872000000000E-01      2.693262000000000E+01      1.731796000000000E-01      1.519609000000000E+02      3.040161000000000E-01      3.884961000000000E+01
4849000000.000000      8.448792000000000E-01      1.011367000000000E+02      1.909180000000000E-01      2.702148000000000E+01      1.763687000000000E-01      1.522812000000000E+02      3.028259000000000E-01      3.834961000000000E+01
4850000000.000000      8.416138000000000E-01      1.012148000000000E+02      1.938477000000000E-01      2.733105000000000E+01      1.793060000000000E-01      1.526328000000000E+02      3.020172000000000E-01      3.807226000000000E+01
4851000000.000000      8.369751000000000E-01      1.015000000000000E+02      1.978760000000000E-01      2.753808000000000E+01      1.823578000000000E-01      1.527812000000000E+02      3.034210000000000E-01      3.736523000000000E+01
4852000000.000000      8.321533000000000E-01      1.016289000000000E+02      2.009811000000000E-01      2.752344000000000E+01      1.854706000000000E-01      1.531016000000000E+02      3.017426000000000E-01      3.706640000000000E+01
4853000000.000000      8.298035000000000E-01      1.016953000000000E+02      2.039108000000000E-01      2.774707000000000E+01      1.886292000000000E-01      1.534375000000000E+02      3.017426000000000E-01      3.639453000000000E+01
4854000000.000000      8.230286000000000E-01      1.017031000000000E+02      2.072449000000000E-01      2.762988000000000E+01      1.918640000000000E-01      1.535391000000000E+02      3.004456000000000E-01      3.629883000000000E+01
4855000000.000000      8.188782000000000E-01      1.020039000000000E+02      2.110519000000000E-01      2.781836000000000E+01      1.946640000000000E-01      1.537734000000000E+02      2.994995000000000E-01      3.563086000000000E+01
4856000000.000000      8.156738000000000E-01      1.018984000000000E+02      2.141113000000000E-01      2.769043000000000E+01      1.982193000000000E-01      1.539063000000000E+02      3.009644000000000E-01      3.514843000000000E+01
4857000000.000000      8.114014000000000E-01      1.021445000000000E+02      2.177505000000000E-01      2.791894000000000E+01      2.010040000000000E-01      1.540313000000000E+02      2.988739000000000E-01      3.492383000000000E+01
4858000000.000000      8.038025000000000E-01      1.020859000000000E+02      2.214355000000000E-01      2.764941000000000E+01      2.041855000000000E-01      1.542109000000000E+02      2.994080000000000E-01      3.435937000000000E+01
4859000000.000000      8.004456000000000E-01      1.021211000000000E+02      2.250748000000000E-01      2.774316000000000E+01      2.075424000000000E-01      1.543359000000000E+02      3.002014000000000E-01      3.387890000000000E+01
4860000000.000000      7.958069000000000E-01      1.021719000000000E+02      2.284164000000000E-01      2.779590000000000E+01      2.102432000000000E-01      1.544453000000000E+02      2.992554000000000E-01      3.366992000000000E+01
4861000000.000000      7.906494000000000E-01      1.022969000000000E+02      2.313232000000000E-01      2.746777000000000E+01      2.144012000000000E-01      1.545859000000000E+02      2.974854000000000E-01      3.338672000000000E+01
4862000000.000000      7.856445000000000E-01      1.022422000000000E+02      2.350769000000000E-01      2.759180000000000E+01      2.173080000000000E-01      1.546172000000000E+02      2.995605000000000E-01      3.265625000000000E+01
4863000000.000000      7.790527000000000E-01      1.022539000000000E+02      2.381744000000000E-01      2.738574000000000E+01      2.209854000000000E-01      1.547734000000000E+02      2.988586000000000E-01      3.254297000000000E+01
4864000000.000000      7.766418000000000E-01      1.020625000000000E+02      2.423630000000000E-01      2.736914000000000E+01      2.236557000000000E-01      1.547578000000000E+02      2.978668000000000E-01      3.210351000000000E+01
4865000000.000000      7.688904000000000E-01      1.020547000000000E+02      2.454300000000000E-01      2.740723000000000E+01      2.270889000000000E-01      1.547031000000000E+02      2.987366000000000E-01      3.177246000000000E+01
4866000000.000000      7.660522000000000E-01      1.020976000000000E+02      2.488251000000000E-01      2.708203000000000E+01      2.305298000000000E-01      1.545781000000000E+02      2.986450000000000E-01      3.123632000000000E+01
4867000000.000000      7.592468000000000E-01      1.019961000000000E+02      2.527008000000000E-01      2.696094000000000E+01      2.331467000000000E-01      1.547578000000000E+02      2.985840000000000E-01      3.084375000000000E+01
4868000000.000000      7.555237000000000E-01      1.019141000000000E+02      2.558136000000000E-01      2.682910000000000E+01      2.371521000000000E-01      1.547188000000000E+02      2.975006000000000E-01      3.077051000000000E+01
4869000000.000000      7.489319000000000E-01      1.018633000000000E+02      2.591400000000000E-01      2.664258000000000E+01      2.406387000000000E-01      1.546641000000000E+02      2.979279000000000E-01      3.036035000000000E+01
4870000000.000000      7.448120000000000E-01      1.015859000000000E+02      2.634277000000000E-01      2.660254000000000E+01      2.440643000000000E-01      1.545859000000000E+02      2.984161000000000E-01      3.037988000000000E+01
4871000000.000000      7.401123000000000E-01      1.015664000000000E+02      2.667847000000000E-01      2.623242000000000E+01      2.470779000000000E-01      1.544844000000000E+02      2.998352000000000E-01      2.996582000000000E+01
4872000000.000000      7.366028000000000E-01      1.013828000000000E+02      2.700043000000000E-01      2.620214000000000E+01      2.502289000000000E-01      1.542812000000000E+02      3.012390000000000E-01      2.957520000000000E+01
4873000000.000000      7.318420000000000E-01      1.013398000000000E+02      2.734375000000000E-01      2.589550000000000E+01      2.532959000000000E-01      1.543359000000000E+02      3.006134000000000E-01      2.923047000000000E+01
4874000000.000000      7.256165000000000E-01      1.010508000000000E+02      2.767792000000000E-01      2.559863000000000E+01      2.575836000000000E-01      1.542734000000000E+02      3.004150000000000E-01      2.877246000000000E+01
4875000000.000000      7.221375000000000E-01      1.009336000000000E+02      2.811890000000000E-01      2.553711000000000E+01      2.606354000000000E-01      1.540625000000000E+02      3.007965000000000E-01      2.878125000000000E+01
4876000000.000000      7.173462000000000E-01      1.008398000000000E+02      2.842560000000000E-01      2.527637000000000E+01      2.640076000000000E-01      1.539453000000000E+02      3.016815000000000E-01      2.828222000000000E+01
4877000000.000000      7.124939000000000E-01      1.002812000000000E+02      2.884674000000000E-01      2.498242000000000E+01      2.666779000000000E-01      1.539219000000000E+02      3.031769000000000E-01      2.828222000000000E+01
4878000000.000000      7.071838000000000E-01      1.002031000000000E+02      2.922668000000000E-01      2.471289000000000E+01      2.701111000000000E-01      1.538672000000000E+02      3.037567000000000E-01      2.765234000000000E+01
4879000000.000000      7.030640000000000E-01      9.996094000000000E+01      2.947998000000000E-01      2.444726000000000E+01      2.738190000000000E-01      1.534219000000000E+02      3.040924000000000E-01      2.739551000000000E+01
4880000000.000000      6.987915000000000E-01      9.959373000000000E+01      2.989044000000000E-01      2.412695000000000E+01      2.769623000000000E-01      1.533203000000000E+02      3.037872000000000E-01      2.720215000000000E+01
4881000000.000000      6.951599000000000E-01      9.941015000000000E+01      3.031769000000000E-01      2.400488000000000E+01      2.803955000000000E-01      1.531484000000000E+02      3.063354000000000E-01      2.695215000000000E+01
4882000000.000000      6.906738000000000E-01      9.913280000000000E+01      3.066711000000000E-01      2.349609000000000E+01      2.838287000000000E-01      1.529766000000000E+02      3.067017000000000E-01      2.681738000000000E+01
