! Network Analyzer HP8722D
! Hewlett-Packard
! Data name: Linha & Wilkinson
! Saver's name: Rodrigo Anjos
! Comments: Teste da utilização de aquisição
continua pelo VNA HP8722D
! Time and date: 8/5/2025 13:33
!              Frequency                     S11                                                   S21                                                   S12                                                   S22
# HZ  S  MA R 50
4800000000.000000      5.357971000000000E-01     -2.573339000000000E+01      3.601837000000000E-01     -1.482578000000000E+02      3.774109000000000E-01      1.113037000000000E+01      5.036621000000000E-01      1.680908000000000E+00
4801000000.000000      5.359192000000000E-01     -2.523633000000000E+01      3.638153000000000E-01     -1.484453000000000E+02      3.811646000000000E-01      1.109863000000000E+01      5.010376000000000E-01      1.507874000000000E+00
4802000000.000000      5.362854000000000E-01     -2.500781000000000E+01      3.676758000000000E-01     -1.487422000000000E+02      3.845215000000000E-01      1.069092000000000E+01      4.958038000000000E-01      2.066772000000000E+00
4803000000.000000      5.341492000000000E-01     -2.462891000000000E+01      3.731079000000000E-01     -1.493125000000000E+02      3.886108000000000E-01      1.094775000000000E+01      4.889069000000000E-01      1.988525000000000E+00
4804000000.000000      5.332642000000000E-01     -2.446386000000000E+01      3.759155000000000E-01     -1.495312000000000E+02      3.936157000000000E-01      1.068945000000000E+01      4.831696000000000E-01      2.018677000000000E+00
4805000000.000000      5.321960000000000E-01     -2.437402000000000E+01      3.798523000000000E-01     -1.500469000000000E+02      3.967285000000000E-01      1.042188000000000E+01      4.759979000000000E-01      2.061279000000000E+00
4806000000.000000      5.316772000000000E-01     -2.393164000000000E+01      3.838806000000000E-01     -1.503984000000000E+02      4.001617000000000E-01      1.051904000000000E+01      4.690552000000000E-01      1.972046000000000E+00
4807000000.000000      5.281067000000000E-01     -2.365234000000000E+01      3.875732000000000E-01     -1.510391000000000E+02      4.039764000000000E-01      1.024170000000000E+01      4.624939000000000E-01      2.116211000000000E+00
4808000000.000000      5.263367000000000E-01     -2.340723000000000E+01      3.918457000000000E-01     -1.512109000000000E+02      4.084625000000000E-01      1.001514000000000E+01      4.558258000000000E-01      2.366089000000000E+00
4809000000.000000      5.265808000000000E-01     -2.323340000000000E+01      3.951263000000000E-01     -1.517187000000000E+02      4.134521000000000E-01      9.982422000000000E+00      4.487762000000000E-01      2.578979000000000E+00
4810000000.000000      5.253601000000000E-01     -2.316406000000000E+01      4.001312000000000E-01     -1.521484000000000E+02      4.152985000000000E-01      9.596191000000000E+00      4.420776000000000E-01      2.475952000000000E+00
4811000000.000000      5.263672000000000E-01     -2.278613000000000E+01      4.033661000000000E-01     -1.526094000000000E+02      4.199677000000000E-01      9.704590000000000E+00      4.342651000000000E-01      2.841309000000000E+00
4812000000.000000      5.226746000000000E-01     -2.249121000000000E+01      4.069061000000000E-01     -1.529844000000000E+02      4.227295000000000E-01      9.354492000000000E+00      4.267120000000000E-01      2.793213000000000E+00
4813000000.000000      5.218506000000000E-01     -2.235742000000000E+01      4.104614000000000E-01     -1.534531000000000E+02      4.265900000000000E-01      9.523438000000000E+00      4.197083000000000E-01      3.299927000000000E+00
4814000000.000000      5.213623000000000E-01     -2.240137000000000E+01      4.141541000000000E-01     -1.537969000000000E+02      4.295807000000000E-01      9.386230000000000E+00      4.104004000000000E-01      3.309570000000000E+00
4815000000.000000      5.188293000000000E-01     -2.191406000000000E+01      4.168854000000000E-01     -1.542734000000000E+02      4.321442000000000E-01      9.141602000000000E+00      4.032440000000000E-01      3.592529000000000E+00
4816000000.000000      5.184937000000000E-01     -2.189258000000000E+01      4.208069000000000E-01     -1.547656000000000E+02      4.395142000000000E-01      9.071777000000000E+00      3.953705000000000E-01      3.787476000000000E+00
4817000000.000000      5.166626000000000E-01     -2.168750000000000E+01      4.240265000000000E-01     -1.551953000000000E+02      4.420471000000000E-01      8.799805000000000E+00      3.852692000000000E-01      4.169189000000000E+00
4818000000.000000      5.146790000000000E-01     -2.151953000000000E+01      4.267883000000000E-01     -1.556641000000000E+02      4.447327000000000E-01      8.607422000000000E+00      3.771210000000000E-01      4.263916000000000E+00
4819000000.000000      5.119629000000000E-01     -2.128418000000000E+01      4.298096000000000E-01     -1.562109000000000E+02      4.493866000000000E-01      8.603516000000000E+00      3.670807000000000E-01      4.450684000000000E+00
4820000000.000000      5.120544000000000E-01     -2.098340000000000E+01      4.329681000000000E-01     -1.565000000000000E+02      4.523163000000000E-01      8.422363000000000E+00      3.596802000000000E-01      4.861328000000000E+00
4821000000.000000      5.096130000000000E-01     -2.078516000000000E+01      4.359436000000000E-01     -1.571172000000000E+02      4.534912000000000E-01      8.026855000000000E+00      3.496857000000000E-01      5.425781000000000E+00
4822000000.000000      5.093994000000000E-01     -2.118066000000000E+01      4.379272000000000E-01     -1.575234000000000E+02      4.581909000000000E-01      8.062500000000000E+00      3.421478000000000E-01      5.597412000000000E+00
4823000000.000000      5.065918000000000E-01     -2.063574000000000E+01      4.417572000000000E-01     -1.579844000000000E+02      4.592438000000000E-01      8.066406000000000E+00      3.320618000000000E-01      5.931152000000000E+00
4824000000.000000      5.033875000000000E-01     -2.034961000000000E+01      4.440918000000000E-01     -1.584375000000000E+02      4.644470000000000E-01      7.698486000000000E+00      3.224945000000000E-01      6.297852000000000E+00
4825000000.000000      5.038147000000000E-01     -2.024512000000000E+01      4.464417000000000E-01     -1.589297000000000E+02      4.695129000000000E-01      7.716309000000000E+00      3.147583000000000E-01      6.929443000000000E+00
4826000000.000000      5.024109000000000E-01     -2.043750000000000E+01      4.496155000000000E-01     -1.595469000000000E+02      4.700928000000000E-01      7.309814000000000E+00      3.044586000000000E-01      7.466553000000000E+00
4827000000.000000      5.013123000000000E-01     -2.016992000000000E+01      4.519043000000000E-01     -1.598125000000000E+02      4.730377000000000E-01      7.248047000000000E+00      2.955322000000000E-01      8.037598000000000E+00
4828000000.000000      5.003967000000000E-01     -1.997656000000000E+01      4.542847000000000E-01     -1.602344000000000E+02      4.762878000000000E-01      7.062744000000000E+00      2.861633000000000E-01      8.455078000000000E+00
4829000000.000000      4.969482000000000E-01     -1.939453000000000E+01      4.563141000000000E-01     -1.608047000000000E+02      4.803314000000000E-01      7.135498000000000E+00      2.781982000000000E-01      9.361328000000000E+00
4830000000.000000      4.965057000000000E-01     -1.962305000000000E+01      4.589844000000000E-01     -1.612969000000000E+02      4.833221000000000E-01      6.929443000000000E+00      2.664185000000000E-01      1.026221000000000E+01
4831000000.000000      4.954987000000000E-01     -1.965918000000000E+01      4.610443000000000E-01     -1.618125000000000E+02      4.863129000000000E-01      6.854004000000000E+00      2.576599000000000E-01      1.097510000000000E+01
4832000000.000000      4.924774000000000E-01     -1.926074000000000E+01      4.629517000000000E-01     -1.621172000000000E+02      4.884949000000000E-01      6.595703000000000E+00      2.469025000000000E-01      1.221240000000000E+01
4833000000.000000      4.915924000000000E-01     -1.923926000000000E+01      4.648895000000000E-01     -1.625469000000000E+02      4.910431000000000E-01      6.375977000000000E+00      2.371368000000000E-01      1.314746000000000E+01
4834000000.000000      4.888458000000000E-01     -1.918555000000000E+01      4.667206000000000E-01     -1.631641000000000E+02      4.952545000000000E-01      6.233154000000000E+00      2.286606000000000E-01      1.439990000000000E+01
4835000000.000000      4.870758000000000E-01     -1.876465000000000E+01      4.686737000000000E-01     -1.635391000000000E+02      4.975433000000000E-01      6.139893000000000E+00      2.200165000000000E-01      1.546436000000000E+01
4836000000.000000      4.846802000000000E-01     -1.873047000000000E+01      4.706573000000000E-01     -1.639453000000000E+02      4.997864000000000E-01      6.116455000000000E+00      2.098618000000000E-01      1.712012000000000E+01
4837000000.000000      4.833069000000000E-01     -1.860742000000000E+01      4.714355000000000E-01     -1.646641000000000E+02      5.021667000000000E-01      5.704590000000000E+00      2.017746000000000E-01      1.874609000000000E+01
4838000000.000000      4.815674000000000E-01     -1.852051000000000E+01      4.740753000000000E-01     -1.647031000000000E+02      5.025330000000000E-01      5.847412000000000E+00      1.930618000000000E-01      2.053711000000000E+01
4839000000.000000      4.835968000000000E-01     -1.795508000000000E+01      4.756927000000000E-01     -1.652812000000000E+02      5.077820000000000E-01      5.556152000000000E+00      1.852112000000000E-01      2.211230000000000E+01
4840000000.000000      4.804535000000000E-01     -1.809766000000000E+01      4.775238000000000E-01     -1.657344000000000E+02      5.103455000000000E-01      5.324219000000000E+00      1.758118000000000E-01      2.429199000000000E+01
4841000000.000000      4.786835000000000E-01     -1.786816000000000E+01      4.785614000000000E-01     -1.662344000000000E+02      5.133057000000000E-01      5.236328000000000E+00      1.696548000000000E-01      2.696680000000000E+01
4842000000.000000      4.775696000000000E-01     -1.775195000000000E+01      4.799347000000000E-01     -1.664844000000000E+02      5.139771000000000E-01      5.094727000000000E+00      1.614685000000000E-01      2.949609000000000E+01
4843000000.000000      4.747467000000000E-01     -1.739551000000000E+01      4.817963000000000E-01     -1.671016000000000E+02      5.167542000000000E-01      4.939697000000000E+00      1.544800000000000E-01      3.275976000000000E+01
4844000000.000000      4.712219000000000E-01     -1.740430000000000E+01      4.821625000000000E-01     -1.675156000000000E+02      5.177917000000000E-01      4.755615000000000E+00      1.465683000000000E-01      3.602539000000000E+01
4845000000.000000      4.722900000000000E-01     -1.700000000000000E+01      4.838104000000000E-01     -1.677500000000000E+02      5.220642000000000E-01      4.283203000000000E+00      1.419296000000000E-01      3.939844000000000E+01
4846000000.000000      4.721375000000000E-01     -1.675488000000000E+01      4.848328000000000E-01     -1.682109000000000E+02      5.243835000000000E-01      4.475342000000000E+00      1.371155000000000E-01      4.319921000000000E+01
4847000000.000000      4.706726000000000E-01     -1.646875000000000E+01      4.863739000000000E-01     -1.686094000000000E+02      5.263977000000000E-01      4.211670000000000E+00      1.312256000000000E-01      4.734961000000000E+01
4848000000.000000      4.675446000000000E-01     -1.641309000000000E+01      4.856262000000000E-01     -1.690391000000000E+02      5.286560000000000E-01      4.011230000000000E+00      1.283340000000000E-01      5.153710000000000E+01
4849000000.000000      4.673462000000000E-01     -1.641797000000000E+01      4.883881000000000E-01     -1.694844000000000E+02      5.307922000000000E-01      3.808105000000000E+00      1.256332000000000E-01      5.635547000000000E+01
4850000000.000000      4.652405000000000E-01     -1.597412000000000E+01      4.888458000000000E-01     -1.697578000000000E+02      5.324097000000000E-01      3.753174000000000E+00      1.242142000000000E-01      6.119726000000000E+01
4851000000.000000      4.655304000000000E-01     -1.565430000000000E+01      4.913635000000000E-01     -1.702188000000000E+02      5.336914000000000E-01      3.613037000000000E+00      1.235771000000000E-01      6.561718000000000E+01
4852000000.000000      4.653168000000000E-01     -1.551416000000000E+01      4.907532000000000E-01     -1.704687000000000E+02      5.352783000000000E-01      3.486694000000000E+00      1.236534000000000E-01      7.035156000000000E+01
4853000000.000000      4.626160000000000E-01     -1.515332000000000E+01      4.904327000000000E-01     -1.708984000000000E+02      5.357666000000000E-01      3.277954000000000E+00      1.242561000000000E-01      7.492969000000000E+01
4854000000.000000      4.636841000000000E-01     -1.503906000000000E+01      4.924164000000000E-01     -1.713047000000000E+02      5.381165000000000E-01      3.205200000000000E+00      1.272659000000000E-01      7.948047000000000E+01
4855000000.000000      4.632416000000000E-01     -1.467773000000000E+01      4.930725000000000E-01     -1.717266000000000E+02      5.396423000000000E-01      2.894897000000000E+00      1.292496000000000E-01      8.380077000000000E+01
4856000000.000000      4.605713000000000E-01     -1.444727000000000E+01      4.942627000000000E-01     -1.720156000000000E+02      5.415039000000000E-01      2.742432000000000E+00      1.342621000000000E-01      8.761719000000000E+01
4857000000.000000      4.601746000000000E-01     -1.393896000000000E+01      4.963837000000000E-01     -1.722812000000000E+02      5.432739000000000E-01      2.514404000000000E+00      1.376801000000000E-01      9.136328000000000E+01
4858000000.000000      4.616547000000000E-01     -1.391602000000000E+01      4.964142000000000E-01     -1.727890000000000E+02      5.439148000000000E-01      2.340088000000000E+00      1.422348000000000E-01      9.471483000000000E+01
4859000000.000000      4.619293000000000E-01     -1.358203000000000E+01      4.974213000000000E-01     -1.731953000000000E+02      5.444336000000000E-01      2.315308000000000E+00      1.475372000000000E-01      9.753124000000000E+01
4860000000.000000      4.607697000000000E-01     -1.312598000000000E+01      4.979401000000000E-01     -1.733281000000000E+02      5.451660000000000E-01      2.110718000000000E+00      1.534042000000000E-01      1.001484000000000E+02
4861000000.000000      4.594116000000000E-01     -1.306592000000000E+01      4.988861000000000E-01     -1.738359000000000E+02      5.481567000000000E-01      1.967896000000000E+00      1.584244000000000E-01      1.031680000000000E+02
4862000000.000000      4.624329000000000E-01     -1.266748000000000E+01      4.999084000000000E-01     -1.741172000000000E+02      5.476990000000000E-01      1.800354000000000E+00      1.645203000000000E-01      1.052500000000000E+02
4863000000.000000      4.635315000000000E-01     -1.241357000000000E+01      4.999542000000000E-01     -1.744531000000000E+02      5.486450000000000E-01      1.682251000000000E+00      1.722412000000000E-01      1.065586000000000E+02
4864000000.000000      4.647980000000000E-01     -1.209326000000000E+01      5.019226000000000E-01     -1.748281000000000E+02      5.493469000000000E-01      1.642456000000000E+00      1.784592000000000E-01      1.086250000000000E+02
4865000000.000000      4.643555000000000E-01     -1.173926000000000E+01      5.014954000000000E-01     -1.750313000000000E+02      5.496216000000000E-01      1.459778000000000E+00      1.831589000000000E-01      1.101836000000000E+02
4866000000.000000      4.658051000000000E-01     -1.147412000000000E+01      5.017395000000000E-01     -1.755234000000000E+02      5.499268000000000E-01      1.271667000000000E+00      1.907578000000000E-01      1.119297000000000E+02
4867000000.000000      4.669342000000000E-01     -1.109375000000000E+01      5.029907000000000E-01     -1.759453000000000E+02      5.499573000000000E-01      1.157654000000000E+00      1.968765000000000E-01      1.134648000000000E+02
4868000000.000000      4.682922000000000E-01     -1.102246000000000E+01      5.052185000000000E-01     -1.763984000000000E+02      5.509949000000000E-01      1.091736000000000E+00      2.040405000000000E-01      1.144414000000000E+02
4869000000.000000      4.702911000000000E-01     -1.061865000000000E+01      5.042114000000000E-01     -1.766328000000000E+02      5.505676000000000E-01      9.091187000000000E-01      2.094498000000000E-01      1.153281000000000E+02
4870000000.000000      4.705811000000000E-01     -1.031787000000000E+01      5.066833000000000E-01     -1.769063000000000E+02      5.515747000000000E-01      8.775330000000000E-01      2.191696000000000E-01      1.161680000000000E+02
4871000000.000000      4.736481000000000E-01     -1.017090000000000E+01      5.074768000000000E-01     -1.773828000000000E+02      5.511780000000000E-01      7.676697000000000E-01      2.213974000000000E-01      1.172461000000000E+02
4872000000.000000      4.756165000000000E-01     -9.854980000000000E+00      5.090942000000000E-01     -1.774062000000000E+02      5.503845000000000E-01      4.902649000000000E-01      2.277069000000000E-01      1.180039000000000E+02
4873000000.000000      4.778900000000000E-01     -9.660156000000000E+00      5.088196000000000E-01     -1.781172000000000E+02      5.498352000000000E-01      4.957581000000000E-01      2.340851000000000E-01      1.183828000000000E+02
4874000000.000000      4.800110000000000E-01     -9.334473000000000E+00      5.090332000000000E-01     -1.786641000000000E+02      5.499878000000000E-01      3.460693000000000E-01      2.411270000000000E-01      1.190351000000000E+02
4875000000.000000      4.806366000000000E-01     -9.253418000000000E+00      5.090942000000000E-01     -1.785781000000000E+02      5.502625000000000E-01      4.545593000000000E-01      2.462540000000000E-01      1.198164000000000E+02
4876000000.000000      4.845734000000000E-01     -9.060059000000000E+00      5.117188000000000E-01     -1.792656000000000E+02      5.519714000000000E-01      4.998779000000000E-01      2.532959000000000E-01      1.202656000000000E+02
4877000000.000000      4.875183000000000E-01     -8.937500000000000E+00      5.121765000000000E-01     -1.796719000000000E+02      5.483704000000000E-01      2.513123000000000E-01      2.578125000000000E-01      1.206797000000000E+02
4878000000.000000      4.901428000000000E-01     -8.498047000000000E+00      5.128479000000000E-01     -1.799844000000000E+02      5.487976000000000E-01      2.554321000000000E-01      2.633820000000000E-01      1.205312000000000E+02
4879000000.000000      4.918518000000000E-01     -8.498047000000000E+00      5.133362000000000E-01      1.798672000000000E+02      5.509644000000000E-01      1.867676000000000E-01      2.682037000000000E-01      1.213945000000000E+02
4880000000.000000      4.982758000000000E-01     -8.097168000000000E+00      5.149841000000000E-01      1.792266000000000E+02      5.487061000000000E-01      5.081177000000000E-02      2.718048000000000E-01      1.216875000000000E+02
4881000000.000000      5.003052000000000E-01     -8.291992000000000E+00      5.155334000000000E-01      1.790000000000000E+02      5.497131000000000E-01     -5.355835000000000E-02      2.782745000000000E-01      1.217109000000000E+02
4882000000.000000      5.011597000000000E-01     -7.854004000000000E+00      5.175476000000000E-01      1.785000000000000E+02      5.491333000000000E-01     -1.181030000000000E-01      2.832794000000000E-01      1.218750000000000E+02
