! Network Analyzer HP8722D
! Hewlett-Packard
! Data name: Linha & Wilkinson
! Saver's name: Rodrigo Anjos
! Comments: Teste da utilização de aquisição
continua pelo VNA HP8722D
! Time and date: 8/5/2025 14:04
!              Frequency                     S11                                                   S21                                                   S12                                                   S22
# HZ  S  MA R 50
4800000000.000000      5.386658000000000E-01     -2.548437000000000E+01      3.609467000000000E-01     -1.484453000000000E+02      3.784180000000000E-01      1.095166000000000E+01      5.037231000000000E-01      1.634216000000000E+00
4801000000.000000      5.355835000000000E-01     -2.507813000000000E+01      3.651428000000000E-01     -1.486875000000000E+02      3.822174000000000E-01      1.090625000000000E+01      5.006714000000000E-01      1.577881000000000E+00
4802000000.000000      5.342407000000000E-01     -2.470019000000000E+01      3.689423000000000E-01     -1.489453000000000E+02      3.862152000000000E-01      1.041211000000000E+01      4.955902000000000E-01      1.884155000000000E+00
4803000000.000000      5.337830000000000E-01     -2.471191000000000E+01      3.742981000000000E-01     -1.493906000000000E+02      3.894196000000000E-01      1.058496000000000E+01      4.877625000000000E-01      1.816833000000000E+00
4804000000.000000      5.308228000000000E-01     -2.425586000000000E+01      3.777008000000000E-01     -1.498281000000000E+02      3.948669000000000E-01      1.030615000000000E+01      4.828491000000000E-01      1.860779000000000E+00
4805000000.000000      5.333252000000000E-01     -2.407715000000000E+01      3.813019000000000E-01     -1.503047000000000E+02      3.982086000000000E-01      1.021289000000000E+01      4.757690000000000E-01      1.862183000000000E+00
4806000000.000000      5.311890000000000E-01     -2.380078000000000E+01      3.853302000000000E-01     -1.505469000000000E+02      4.021454000000000E-01      1.030225000000000E+01      4.699097000000000E-01      1.889648000000000E+00
4807000000.000000      5.284119000000000E-01     -2.360352000000000E+01      3.891907000000000E-01     -1.512187000000000E+02      4.053040000000000E-01      9.909668000000000E+00      4.620514000000000E-01      2.282349000000000E+00
4808000000.000000      5.264587000000000E-01     -2.344238000000000E+01      3.934021000000000E-01     -1.514844000000000E+02      4.085999000000000E-01      9.868164000000000E+00      4.555206000000000E-01      2.298828000000000E+00
4809000000.000000      5.263062000000000E-01     -2.317383000000000E+01      3.973999000000000E-01     -1.520234000000000E+02      4.132843000000000E-01      9.549805000000000E+00      4.483185000000000E-01      2.507568000000000E+00
4810000000.000000      5.229797000000000E-01     -2.302734000000000E+01      4.012299000000000E-01     -1.522969000000000E+02      4.180603000000000E-01      9.537109000000000E+00      4.413757000000000E-01      2.415527000000000E+00
4811000000.000000      5.247498000000000E-01     -2.281250000000000E+01      4.047699000000000E-01     -1.529063000000000E+02      4.219208000000000E-01      9.453613000000000E+00      4.336548000000000E-01      2.849487000000000E+00
4812000000.000000      5.238647000000000E-01     -2.245215000000000E+01      4.085236000000000E-01     -1.531719000000000E+02      4.266968000000000E-01      9.152832000000000E+00      4.257507000000000E-01      2.775391000000000E+00
4813000000.000000      5.214844000000000E-01     -2.219824000000000E+01      4.114532000000000E-01     -1.537109000000000E+02      4.273682000000000E-01      9.170410000000000E+00      4.186249000000000E-01      3.273926000000000E+00
4814000000.000000      5.198669000000000E-01     -2.206055000000000E+01      4.155579000000000E-01     -1.540937000000000E+02      4.321594000000000E-01      8.818848000000000E+00      4.100037000000000E-01      3.269775000000000E+00
4815000000.000000      5.177002000000000E-01     -2.175195000000000E+01      4.179382000000000E-01     -1.546094000000000E+02      4.346313000000000E-01      8.764160000000000E+00      4.025879000000000E-01      3.580078000000000E+00
4816000000.000000      5.178833000000000E-01     -2.161621000000000E+01      4.223022000000000E-01     -1.550781000000000E+02      4.390106000000000E-01      8.732422000000000E+00      3.949585000000000E-01      3.731201000000000E+00
4817000000.000000      5.179749000000000E-01     -2.158496000000000E+01      4.248657000000000E-01     -1.554922000000000E+02      4.397736000000000E-01      8.451172000000000E+00      3.848724000000000E-01      4.182861000000000E+00
4818000000.000000      5.149231000000000E-01     -2.146094000000000E+01      4.279327000000000E-01     -1.560156000000000E+02      4.470673000000000E-01      8.392090000000000E+00      3.756409000000000E-01      4.382080000000000E+00
4819000000.000000      5.136719000000000E-01     -2.136035000000000E+01      4.310303000000000E-01     -1.564375000000000E+02      4.501648000000000E-01      8.159668000000000E+00      3.671417000000000E-01      4.496094000000000E+00
4820000000.000000      5.119934000000000E-01     -2.097363000000000E+01      4.339294000000000E-01     -1.566953000000000E+02      4.528503000000000E-01      7.995117000000000E+00      3.587494000000000E-01      4.940918000000000E+00
4821000000.000000      5.104370000000000E-01     -2.086719000000000E+01      4.373627000000000E-01     -1.573516000000000E+02      4.548492000000000E-01      7.776855000000000E+00      3.490295000000000E-01      5.520508000000000E+00
4822000000.000000      5.084839000000000E-01     -2.070605000000000E+01      4.392242000000000E-01     -1.576094000000000E+02      4.573517000000000E-01      7.804199000000000E+00      3.408203000000000E-01      5.530029000000000E+00
4823000000.000000      5.080872000000000E-01     -2.069434000000000E+01      4.431610000000000E-01     -1.583125000000000E+02      4.614563000000000E-01      7.642334000000000E+00      3.317413000000000E-01      6.024414000000000E+00
4824000000.000000      5.037231000000000E-01     -2.040234000000000E+01      4.451752000000000E-01     -1.587031000000000E+02      4.648438000000000E-01      7.312744000000000E+00      3.217163000000000E-01      6.447510000000000E+00
4825000000.000000      5.038757000000000E-01     -1.993652000000000E+01      4.477997000000000E-01     -1.591016000000000E+02      4.698944000000000E-01      7.416992000000000E+00      3.130493000000000E-01      7.043457000000000E+00
4826000000.000000      5.014343000000000E-01     -2.012500000000000E+01      4.506226000000000E-01     -1.596953000000000E+02      4.717560000000000E-01      7.166992000000000E+00      3.032837000000000E-01      7.518555000000000E+00
4827000000.000000      5.025330000000000E-01     -1.964844000000000E+01      4.527740000000000E-01     -1.599688000000000E+02      4.761200000000000E-01      6.919922000000000E+00      2.949829000000000E-01      8.114746000000000E+00
4828000000.000000      5.008850000000000E-01     -1.984277000000000E+01      4.560547000000000E-01     -1.605547000000000E+02      4.783936000000000E-01      6.980225000000000E+00      2.852936000000000E-01      8.593750000000000E+00
4829000000.000000      4.964905000000000E-01     -1.951953000000000E+01      4.580841000000000E-01     -1.610469000000000E+02      4.806213000000000E-01      6.657715000000000E+00      2.771912000000000E-01      9.646973000000000E+00
4830000000.000000      4.956360000000000E-01     -1.953516000000000E+01      4.603577000000000E-01     -1.614219000000000E+02      4.842377000000000E-01      6.502441000000000E+00      2.659149000000000E-01      1.045313000000000E+01
4831000000.000000      4.962463000000000E-01     -1.925781000000000E+01      4.622498000000000E-01     -1.620547000000000E+02      4.881439000000000E-01      6.525879000000000E+00      2.566986000000000E-01      1.102051000000000E+01
4832000000.000000      4.926910000000000E-01     -1.925586000000000E+01      4.638672000000000E-01     -1.623125000000000E+02      4.885559000000000E-01      6.318359000000000E+00      2.460861000000000E-01      1.244189000000000E+01
4833000000.000000      4.904633000000000E-01     -1.928808000000000E+01      4.661255000000000E-01     -1.627891000000000E+02      4.927826000000000E-01      6.106934000000000E+00      2.377396000000000E-01      1.337695000000000E+01
4834000000.000000      4.873962000000000E-01     -1.906054000000000E+01      4.675751000000000E-01     -1.631406000000000E+02      4.957428000000000E-01      6.062988000000000E+00      2.285233000000000E-01      1.463086000000000E+01
4835000000.000000      4.874573000000000E-01     -1.871191000000000E+01      4.693298000000000E-01     -1.637422000000000E+02      4.981689000000000E-01      5.775879000000000E+00      2.190399000000000E-01      1.588330000000000E+01
4836000000.000000      4.863892000000000E-01     -1.870312000000000E+01      4.709625000000000E-01     -1.641016000000000E+02      4.997101000000000E-01      5.694824000000000E+00      2.101517000000000E-01      1.742285000000000E+01
4837000000.000000      4.838104000000000E-01     -1.830371000000000E+01      4.721832000000000E-01     -1.648281000000000E+02      5.025024000000000E-01      5.473877000000000E+00      2.016678000000000E-01      1.918262000000000E+01
4838000000.000000      4.812164000000000E-01     -1.836816000000000E+01      4.753113000000000E-01     -1.649844000000000E+02      5.054626000000000E-01      5.307617000000000E+00      1.921539000000000E-01      2.090918000000000E+01
4839000000.000000      4.828491000000000E-01     -1.800977000000000E+01      4.767151000000000E-01     -1.654219000000000E+02      5.084229000000000E-01      5.189453000000000E+00      1.849594000000000E-01      2.264551000000000E+01
4840000000.000000      4.793243000000000E-01     -1.798340000000000E+01      4.784088000000000E-01     -1.659141000000000E+02      5.127258000000000E-01      5.179932000000000E+00      1.764603000000000E-01      2.473828000000000E+01
4841000000.000000      4.769897000000000E-01     -1.783496000000000E+01      4.793701000000000E-01     -1.663750000000000E+02      5.137939000000000E-01      4.755615000000000E+00      1.692429000000000E-01      2.764355000000000E+01
4842000000.000000      4.756622000000000E-01     -1.768945000000000E+01      4.807434000000000E-01     -1.667109000000000E+02      5.160522000000000E-01      4.847656000000000E+00      1.621323000000000E-01      3.055273000000000E+01
4843000000.000000      4.759216000000000E-01     -1.748828000000000E+01      4.829102000000000E-01     -1.673359000000000E+02      5.188904000000000E-01      4.621094000000000E+00      1.544952000000000E-01      3.352734000000000E+01
4844000000.000000      4.709473000000000E-01     -1.713379000000000E+01      4.831238000000000E-01     -1.677031000000000E+02      5.207825000000000E-01      4.368408000000000E+00      1.466599000000000E-01      3.652539000000000E+01
4845000000.000000      4.714050000000000E-01     -1.694140000000000E+01      4.844513000000000E-01     -1.679844000000000E+02      5.220337000000000E-01      4.206299000000000E+00      1.427536000000000E-01      4.000390000000000E+01
4846000000.000000      4.686432000000000E-01     -1.675488000000000E+01      4.854889000000000E-01     -1.684375000000000E+02      5.257874000000000E-01      4.086914000000000E+00      1.369324000000000E-01      4.403710000000000E+01
4847000000.000000      4.684143000000000E-01     -1.674316000000000E+01      4.866333000000000E-01     -1.687734000000000E+02      5.281067000000000E-01      3.982544000000000E+00      1.321945000000000E-01      4.803124000000000E+01
4848000000.000000      4.674530000000000E-01     -1.625586000000000E+01      4.862518000000000E-01     -1.692266000000000E+02      5.305176000000000E-01      3.858887000000000E+00      1.296616000000000E-01      5.238281000000000E+01
4849000000.000000      4.666138000000000E-01     -1.620898000000000E+01      4.891663000000000E-01     -1.695469000000000E+02      5.318909000000000E-01      3.588379000000000E+00      1.269379000000000E-01      5.689258000000000E+01
4850000000.000000      4.652100000000000E-01     -1.590283000000000E+01      4.896240000000000E-01     -1.699687000000000E+02      5.338135000000000E-01      3.536133000000000E+00      1.259613000000000E-01      6.181250000000000E+01
4851000000.000000      4.665070000000000E-01     -1.556934000000000E+01      4.911957000000000E-01     -1.703984000000000E+02      5.343018000000000E-01      3.405762000000000E+00      1.253891000000000E-01      6.627343000000000E+01
4852000000.000000      4.650574000000000E-01     -1.538672000000000E+01      4.911499000000000E-01     -1.708203000000000E+02      5.366211000000000E-01      3.106323000000000E+00      1.259766000000000E-01      7.083984000000000E+01
4853000000.000000      4.639893000000000E-01     -1.506934000000000E+01      4.914398000000000E-01     -1.710859000000000E+02      5.379944000000000E-01      3.052734000000000E+00      1.263428000000000E-01      7.553515000000000E+01
4854000000.000000      4.641113000000000E-01     -1.489209000000000E+01      4.931641000000000E-01     -1.715625000000000E+02      5.396729000000000E-01      2.871460000000000E+00      1.301117000000000E-01      7.958984000000000E+01
4855000000.000000      4.603119000000000E-01     -1.448730000000000E+01      4.937286000000000E-01     -1.719141000000000E+02      5.405579000000000E-01      2.591309000000000E+00      1.320801000000000E-01      8.407030000000000E+01
4856000000.000000      4.600677000000000E-01     -1.436328000000000E+01      4.945679000000000E-01     -1.722578000000000E+02      5.420837000000000E-01      2.458130000000000E+00      1.365891000000000E-01      8.791796000000000E+01
4857000000.000000      4.612885000000000E-01     -1.394727000000000E+01      4.962463000000000E-01     -1.724688000000000E+02      5.421753000000000E-01      2.480103000000000E+00      1.402359000000000E-01      9.135157000000000E+01
4858000000.000000      4.603424000000000E-01     -1.363965000000000E+01      4.976349000000000E-01     -1.730234000000000E+02      5.457153000000000E-01      2.132690000000000E+00      1.446304000000000E-01      9.471094000000000E+01
4859000000.000000      4.600677000000000E-01     -1.341602000000000E+01      4.991608000000000E-01     -1.733047000000000E+02      5.448303000000000E-01      2.011841000000000E+00      1.500320000000000E-01      9.764843000000000E+01
4860000000.000000      4.593201000000000E-01     -1.311377000000000E+01      4.984131000000000E-01     -1.735547000000000E+02      5.451965000000000E-01      1.904724000000000E+00      1.555099000000000E-01      1.003437000000000E+02
4861000000.000000      4.603577000000000E-01     -1.284180000000000E+01      4.991302000000000E-01     -1.740391000000000E+02      5.483093000000000E-01      1.712463000000000E+00      1.611481000000000E-01      1.028711000000000E+02
4862000000.000000      4.603424000000000E-01     -1.269629000000000E+01      5.009155000000000E-01     -1.742109000000000E+02      5.484009000000000E-01      1.597107000000000E+00      1.678391000000000E-01      1.048086000000000E+02
4863000000.000000      4.634705000000000E-01     -1.214160000000000E+01      5.000916000000000E-01     -1.746562000000000E+02      5.489197000000000E-01      1.373291000000000E+00      1.751709000000000E-01      1.069687000000000E+02
4864000000.000000      4.634552000000000E-01     -1.191504000000000E+01      5.017395000000000E-01     -1.749219000000000E+02      5.480652000000000E-01      1.343079000000000E+00      1.807327000000000E-01      1.086484000000000E+02
4865000000.000000      4.636688000000000E-01     -1.155762000000000E+01      5.016785000000000E-01     -1.752969000000000E+02      5.485535000000000E-01      1.201599000000000E+00      1.881866000000000E-01      1.099180000000000E+02
4866000000.000000      4.640045000000000E-01     -1.158936000000000E+01      5.035400000000000E-01     -1.757031000000000E+02      5.500793000000000E-01      8.995056000000000E-01      1.942978000000000E-01      1.110742000000000E+02
4867000000.000000      4.651337000000000E-01     -1.105664000000000E+01      5.030518000000000E-01     -1.762187000000000E+02      5.502014000000000E-01      9.503174000000000E-01      1.997528000000000E-01      1.125273000000000E+02
4868000000.000000      4.678040000000000E-01     -1.082178000000000E+01      5.054932000000000E-01     -1.765391000000000E+02      5.515442000000000E-01      6.632996000000000E-01      2.058868000000000E-01      1.140625000000000E+02
4869000000.000000      4.700928000000000E-01     -1.042920000000000E+01      5.057068000000000E-01     -1.767344000000000E+02      5.517578000000000E-01      6.811523000000000E-01      2.132950000000000E-01      1.150820000000000E+02
4870000000.000000      4.719238000000000E-01     -1.027246000000000E+01      5.063477000000000E-01     -1.769609000000000E+02      5.519409000000000E-01      5.836487000000000E-01      2.192459000000000E-01      1.159961000000000E+02
4871000000.000000      4.713135000000000E-01     -9.912598000000000E+00      5.072021000000000E-01     -1.775547000000000E+02      5.512085000000000E-01      4.229736000000000E-01      2.251053000000000E-01      1.168789000000000E+02
4872000000.000000      4.749298000000000E-01     -9.753418000000000E+00      5.074768000000000E-01     -1.777031000000000E+02      5.511475000000000E-01      3.172302000000000E-01      2.320175000000000E-01      1.171992000000000E+02
4873000000.000000      4.780121000000000E-01     -9.335938000000000E+00      5.094910000000000E-01     -1.781953000000000E+02      5.501099000000000E-01      1.400757000000000E-01      2.371368000000000E-01      1.182187000000000E+02
4874000000.000000      4.798126000000000E-01     -9.361816000000000E+00      5.104065000000000E-01     -1.786953000000000E+02      5.518799000000000E-01      2.732849000000000E-01      2.424698000000000E-01      1.187383000000000E+02
4875000000.000000      4.825439000000000E-01     -9.079102000000000E+00      5.111084000000000E-01     -1.789531000000000E+02      5.512085000000000E-01      1.812744000000000E-01      2.490387000000000E-01      1.192539000000000E+02
4876000000.000000      4.836731000000000E-01     -8.782227000000000E+00      5.117798000000000E-01     -1.793750000000000E+02      5.520325000000000E-01      1.208496000000000E-01      2.547455000000000E-01      1.198672000000000E+02
4877000000.000000      4.881592000000000E-01     -8.886719000000000E+00      5.119324000000000E-01     -1.797422000000000E+02      5.519104000000000E-01     -6.317139000000000E-02      2.600708000000000E-01      1.198398000000000E+02
4878000000.000000      4.891663000000000E-01     -8.459473000000000E+00      5.132446000000000E-01      1.798516000000000E+02      5.497742000000000E-01     -8.926392000000000E-02      2.659912000000000E-01      1.201875000000000E+02
4879000000.000000      4.935455000000000E-01     -8.373047000000000E+00      5.123596000000000E-01      1.797656000000000E+02      5.501404000000000E-01     -1.235962000000000E-01      2.695770000000000E-01      1.205664000000000E+02
4880000000.000000      4.965210000000000E-01     -8.267578000000000E+00      5.166931000000000E-01      1.789609000000000E+02      5.507202000000000E-01     -1.016235000000000E-01      2.747955000000000E-01      1.210859000000000E+02
4881000000.000000      4.993439000000000E-01     -8.115234000000000E+00      5.151672000000000E-01      1.788281000000000E+02      5.495605000000000E-01     -3.309631000000000E-01      2.810516000000000E-01      1.214492000000000E+02
4882000000.000000      5.021973000000000E-01     -7.963867000000000E+00      5.182495000000000E-01      1.784765000000000E+02      5.507507000000000E-01     -3.309631000000000E-01      2.853851000000000E-01      1.215078000000000E+02
