! Network Analyzer HP8722D
! Hewlett-Packard
! Data name: Linha & Wilkinson
! Saver's name: Rodrigo Anjos
! Comments: Teste da utilização de aquisição
continua pelo VNA HP8722D
! Time and date: 8/5/2025 14:34
!              Frequency                     S11                                                   S21                                                   S12                                                   S22
# HZ  S  MA R 50
4800000000.000000      5.364990000000000E-01     -2.528125000000000E+01      3.623810000000000E-01     -1.487187000000000E+02      3.815613000000000E-01      1.071143000000000E+01      5.028992000000000E-01      1.450195000000000E+00
4801000000.000000      5.341187000000000E-01     -2.486523000000000E+01      3.664551000000000E-01     -1.488672000000000E+02      3.827515000000000E-01      1.079932000000000E+01      4.991455000000000E-01      1.477661000000000E+00
4802000000.000000      5.333252000000000E-01     -2.482226000000000E+01      3.709412000000000E-01     -1.492109000000000E+02      3.886414000000000E-01      1.032568000000000E+01      4.952545000000000E-01      1.793518000000000E+00
4803000000.000000      5.328369000000000E-01     -2.449609000000000E+01      3.760529000000000E-01     -1.496094000000000E+02      3.913727000000000E-01      1.011670000000000E+01      4.873657000000000E-01      1.735840000000000E+00
4804000000.000000      5.326233000000000E-01     -2.418262000000000E+01      3.796692000000000E-01     -1.500703000000000E+02      3.956909000000000E-01      1.020898000000000E+01      4.814758000000000E-01      1.713867000000000E+00
4805000000.000000      5.326538000000000E-01     -2.417871000000000E+01      3.838043000000000E-01     -1.506406000000000E+02      3.997192000000000E-01      1.023926000000000E+01      4.746857000000000E-01      1.709717000000000E+00
4806000000.000000      5.287781000000000E-01     -2.365820000000000E+01      3.875275000000000E-01     -1.508594000000000E+02      4.045258000000000E-01      9.902344000000000E+00      4.682617000000000E-01      1.733093000000000E+00
4807000000.000000      5.287170000000000E-01     -2.351953000000000E+01      3.910065000000000E-01     -1.514141000000000E+02      4.091797000000000E-01      9.482422000000000E+00      4.608002000000000E-01      2.098389000000000E+00
4808000000.000000      5.264587000000000E-01     -2.313477000000000E+01      3.948059000000000E-01     -1.516250000000000E+02      4.109497000000000E-01      9.695313000000000E+00      4.542389000000000E-01      2.282349000000000E+00
4809000000.000000      5.245972000000000E-01     -2.315918000000000E+01      3.984375000000000E-01     -1.523281000000000E+02      4.154510000000000E-01      9.426270000000000E+00      4.468536000000000E-01      2.481445000000000E+00
4810000000.000000      5.246582000000000E-01     -2.288672000000000E+01      4.030914000000000E-01     -1.524531000000000E+02      4.188080000000000E-01      9.308105000000000E+00      4.400482000000000E-01      2.404541000000000E+00
4811000000.000000      5.251465000000000E-01     -2.265820000000000E+01      4.061584000000000E-01     -1.531016000000000E+02      4.224854000000000E-01      9.230957000000000E+00      4.323578000000000E-01      2.845459000000000E+00
4812000000.000000      5.228882000000000E-01     -2.227539000000000E+01      4.096832000000000E-01     -1.535000000000000E+02      4.259949000000000E-01      8.792969000000000E+00      4.246063000000000E-01      2.739624000000000E+00
4813000000.000000      5.212402000000000E-01     -2.220898000000000E+01      4.130096000000000E-01     -1.538906000000000E+02      4.290466000000000E-01      8.842285000000000E+00      4.178009000000000E-01      3.224487000000000E+00
4814000000.000000      5.184631000000000E-01     -2.193066000000000E+01      4.170227000000000E-01     -1.543047000000000E+02      4.333954000000000E-01      8.899902000000000E+00      4.089661000000000E-01      3.253296000000000E+00
4815000000.000000      5.187683000000000E-01     -2.184668000000000E+01      4.191284000000000E-01     -1.548359000000000E+02      4.355164000000000E-01      8.441406000000000E+00      4.010162000000000E-01      3.606201000000000E+00
4816000000.000000      5.168762000000000E-01     -2.155176000000000E+01      4.237061000000000E-01     -1.551563000000000E+02      4.401703000000000E-01      8.395996000000000E+00      3.933258000000000E-01      3.772339000000000E+00
4817000000.000000      5.156555000000000E-01     -2.157031000000000E+01      4.263000000000000E-01     -1.557422000000000E+02      4.445496000000000E-01      8.395996000000000E+00      3.832703000000000E-01      4.152832000000000E+00
4818000000.000000      5.149231000000000E-01     -2.129785000000000E+01      4.294434000000000E-01     -1.561563000000000E+02      4.478149000000000E-01      8.096680000000000E+00      3.745270000000000E-01      4.427490000000000E+00
4819000000.000000      5.124817000000000E-01     -2.109961000000000E+01      4.324493000000000E-01     -1.566562000000000E+02      4.520264000000000E-01      7.974609000000000E+00      3.651276000000000E-01      4.498779000000000E+00
4820000000.000000      5.122681000000000E-01     -2.075098000000000E+01      4.358368000000000E-01     -1.569766000000000E+02      4.539337000000000E-01      7.866211000000000E+00      3.570404000000000E-01      5.071533000000000E+00
4821000000.000000      5.099487000000000E-01     -2.061621000000000E+01      4.388580000000000E-01     -1.576719000000000E+02      4.557037000000000E-01      7.680664000000000E+00      3.478851000000000E-01      5.497070000000000E+00
4822000000.000000      5.068665000000000E-01     -2.055762000000000E+01      4.404144000000000E-01     -1.579375000000000E+02      4.589996000000000E-01      7.559814000000000E+00      3.401337000000000E-01      5.697754000000000E+00
4823000000.000000      5.062256000000000E-01     -2.038574000000000E+01      4.447327000000000E-01     -1.584531000000000E+02      4.626007000000000E-01      7.477539000000000E+00      3.299866000000000E-01      6.138428000000000E+00
4824000000.000000      5.037231000000000E-01     -2.041308000000000E+01      4.465942000000000E-01     -1.589687000000000E+02      4.671631000000000E-01      7.264648000000000E+00      3.198700000000000E-01      6.511963000000000E+00
4825000000.000000      5.044250000000000E-01     -2.021484000000000E+01      4.490356000000000E-01     -1.594766000000000E+02      4.723053000000000E-01      7.226074000000000E+00      3.122864000000000E-01      7.252197000000000E+00
4826000000.000000      5.024414000000000E-01     -2.015723000000000E+01      4.521484000000000E-01     -1.599531000000000E+02      4.738922000000000E-01      6.948730000000000E+00      3.023529000000000E-01      7.682129000000000E+00
4827000000.000000      5.006104000000000E-01     -1.974316000000000E+01      4.541168000000000E-01     -1.602031000000000E+02      4.745026000000000E-01      6.936279000000000E+00      2.939453000000000E-01      8.299805000000000E+00
4828000000.000000      5.014038000000000E-01     -1.973340000000000E+01      4.569550000000000E-01     -1.607500000000000E+02      4.799347000000000E-01      6.610840000000000E+00      2.841034000000000E-01      8.798340000000000E+00
4829000000.000000      4.971313000000000E-01     -1.952344000000000E+01      4.596100000000000E-01     -1.613047000000000E+02      4.833069000000000E-01      6.546387000000000E+00      2.753601000000000E-01      9.873535000000000E+00
4830000000.000000      4.960175000000000E-01     -1.951758000000000E+01      4.615021000000000E-01     -1.617266000000000E+02      4.852448000000000E-01      6.491455000000000E+00      2.645874000000000E-01      1.075830000000000E+01
4831000000.000000      4.934540000000000E-01     -1.929101000000000E+01      4.632416000000000E-01     -1.621797000000000E+02      4.878998000000000E-01      6.341797000000000E+00      2.555542000000000E-01      1.144775000000000E+01
4832000000.000000      4.932404000000000E-01     -1.906152000000000E+01      4.647522000000000E-01     -1.626094000000000E+02      4.916992000000000E-01      6.230469000000000E+00      2.448425000000000E-01      1.278809000000000E+01
4833000000.000000      4.903564000000000E-01     -1.919531000000000E+01      4.666595000000000E-01     -1.630234000000000E+02      4.964294000000000E-01      5.906494000000000E+00      2.356491000000000E-01      1.383008000000000E+01
4834000000.000000      4.883423000000000E-01     -1.894043000000000E+01      4.686890000000000E-01     -1.635625000000000E+02      4.972229000000000E-01      5.683838000000000E+00      2.271500000000000E-01      1.507031000000000E+01
4835000000.000000      4.884796000000000E-01     -1.879102000000000E+01      4.713440000000000E-01     -1.639531000000000E+02      4.998016000000000E-01      5.517822000000000E+00      2.180328000000000E-01      1.638867000000000E+01
4836000000.000000      4.856873000000000E-01     -1.845019000000000E+01      4.714050000000000E-01     -1.643828000000000E+02      5.031128000000000E-01      5.597412000000000E+00      2.083664000000000E-01      1.811035000000000E+01
4837000000.000000      4.831390000000000E-01     -1.834863000000000E+01      4.732971000000000E-01     -1.650156000000000E+02      5.061340000000000E-01      5.314453000000000E+00      1.999893000000000E-01      1.974707000000000E+01
4838000000.000000      4.826965000000000E-01     -1.830371000000000E+01      4.759979000000000E-01     -1.652266000000000E+02      5.070801000000000E-01      5.120850000000000E+00      1.919632000000000E-01      2.155371000000000E+01
4839000000.000000      4.816742000000000E-01     -1.807422000000000E+01      4.777527000000000E-01     -1.657109000000000E+02      5.102844000000000E-01      5.163574000000000E+00      1.844177000000000E-01      2.350293000000000E+01
4840000000.000000      4.790039000000000E-01     -1.793457000000000E+01      4.793701000000000E-01     -1.661328000000000E+02      5.128174000000000E-01      5.017822000000000E+00      1.757660000000000E-01      2.565820000000000E+01
4841000000.000000      4.750366000000000E-01     -1.760449000000000E+01      4.807129000000000E-01     -1.666406000000000E+02      5.138855000000000E-01      4.682861000000000E+00      1.690750000000000E-01      2.837207000000000E+01
4842000000.000000      4.738312000000000E-01     -1.745605000000000E+01      4.812469000000000E-01     -1.669922000000000E+02      5.160828000000000E-01      4.612793000000000E+00      1.613312000000000E-01      3.139160000000000E+01
4843000000.000000      4.754639000000000E-01     -1.743457000000000E+01      4.842834000000000E-01     -1.675313000000000E+02      5.190430000000000E-01      4.360107000000000E+00      1.542130000000000E-01      3.433008000000000E+01
4844000000.000000      4.707794000000000E-01     -1.714648000000000E+01      4.840088000000000E-01     -1.679531000000000E+02      5.221558000000000E-01      4.182861000000000E+00      1.472015000000000E-01      3.778515000000000E+01
4845000000.000000      4.718018000000000E-01     -1.665137000000000E+01      4.856415000000000E-01     -1.682109000000000E+02      5.234985000000000E-01      4.097900000000000E+00      1.429138000000000E-01      4.116015000000000E+01
4846000000.000000      4.709473000000000E-01     -1.654004000000000E+01      4.868317000000000E-01     -1.687266000000000E+02      5.267029000000000E-01      3.895996000000000E+00      1.380234000000000E-01      4.519727000000000E+01
4847000000.000000      4.686432000000000E-01     -1.641699000000000E+01      4.877319000000000E-01     -1.688594000000000E+02      5.296326000000000E-01      3.607544000000000E+00      1.333542000000000E-01      4.920312000000000E+01
4848000000.000000      4.667358000000000E-01     -1.627441000000000E+01      4.876862000000000E-01     -1.694062000000000E+02      5.312195000000000E-01      3.540283000000000E+00      1.304626000000000E-01      5.367773000000000E+01
4849000000.000000      4.652252000000000E-01     -1.597705000000000E+01      4.903412000000000E-01     -1.699297000000000E+02      5.322876000000000E-01      3.378296000000000E+00      1.284637000000000E-01      5.829296000000000E+01
4850000000.000000      4.656067000000000E-01     -1.575439000000000E+01      4.904022000000000E-01     -1.701406000000000E+02      5.341187000000000E-01      3.104980000000000E+00      1.275711000000000E-01      6.283203000000000E+01
4851000000.000000      4.640808000000000E-01     -1.549512000000000E+01      4.926453000000000E-01     -1.706797000000000E+02      5.358887000000000E-01      3.114624000000000E+00      1.276779000000000E-01      6.712891000000000E+01
4852000000.000000      4.636993000000000E-01     -1.529053000000000E+01      4.921570000000000E-01     -1.709219000000000E+02      5.379028000000000E-01      2.802856000000000E+00      1.278839000000000E-01      7.139453000000000E+01
4853000000.000000      4.623260000000000E-01     -1.503076000000000E+01      4.921875000000000E-01     -1.713828000000000E+02      5.389099000000000E-01      2.794556000000000E+00      1.286163000000000E-01      7.627734000000000E+01
4854000000.000000      4.623260000000000E-01     -1.471240000000000E+01      4.938507000000000E-01     -1.717031000000000E+02      5.412292000000000E-01      2.558350000000000E+00      1.330261000000000E-01      8.012499000000000E+01
4855000000.000000      4.610901000000000E-01     -1.433057000000000E+01      4.950714000000000E-01     -1.721406000000000E+02      5.425415000000000E-01      2.301636000000000E+00      1.341476000000000E-01      8.490625000000000E+01
4856000000.000000      4.609985000000000E-01     -1.418213000000000E+01      4.951324000000000E-01     -1.724219000000000E+02      5.434265000000000E-01      2.228760000000000E+00      1.390305000000000E-01      8.870703000000000E+01
4857000000.000000      4.614563000000000E-01     -1.396240000000000E+01      4.977722000000000E-01     -1.727266000000000E+02      5.457458000000000E-01      2.098389000000000E+00      1.419601000000000E-01      9.188280000000000E+01
4858000000.000000      4.605865000000000E-01     -1.371094000000000E+01      4.978943000000000E-01     -1.731641000000000E+02      5.463867000000000E-01      1.859436000000000E+00      1.476440000000000E-01      9.485937000000000E+01
4859000000.000000      4.615479000000000E-01     -1.345557000000000E+01      4.990997000000000E-01     -1.735156000000000E+02      5.470581000000000E-01      1.859436000000000E+00      1.527481000000000E-01      9.788671000000000E+01
4860000000.000000      4.598389000000000E-01     -1.297900000000000E+01      4.983063000000000E-01     -1.738906000000000E+02      5.463867000000000E-01      1.536682000000000E+00      1.591721000000000E-01      1.000156000000000E+02
4861000000.000000      4.613342000000000E-01     -1.267285000000000E+01      5.000305000000000E-01     -1.741953000000000E+02      5.506897000000000E-01      1.498230000000000E+00      1.641388000000000E-01      1.031133000000000E+02
4862000000.000000      4.618683000000000E-01     -1.238037000000000E+01      5.018005000000000E-01     -1.745937000000000E+02      5.509033000000000E-01      1.273010000000000E+00      1.706924000000000E-01      1.048359000000000E+02
4863000000.000000      4.629211000000000E-01     -1.225000000000000E+01      5.001221000000000E-01     -1.750469000000000E+02      5.506287000000000E-01      1.229065000000000E+00      1.775894000000000E-01      1.064726000000000E+02
4864000000.000000      4.624176000000000E-01     -1.179004000000000E+01      5.023499000000000E-01     -1.751250000000000E+02      5.505676000000000E-01      1.174133000000000E+00      1.847534000000000E-01      1.084453000000000E+02
4865000000.000000      4.649963000000000E-01     -1.177051000000000E+01      5.037537000000000E-01     -1.755156000000000E+02      5.509644000000000E-01      9.049988000000000E-01      1.907349000000000E-01      1.099219000000000E+02
4866000000.000000      4.647827000000000E-01     -1.130811000000000E+01      5.026550000000000E-01     -1.756406000000000E+02      5.527344000000000E-01      6.289673000000000E-01      1.979218000000000E-01      1.108359000000000E+02
4867000000.000000      4.657440000000000E-01     -1.095752000000000E+01      5.054932000000000E-01     -1.763515000000000E+02      5.517273000000000E-01      7.099915000000000E-01      2.033234000000000E-01      1.124453000000000E+02
4868000000.000000      4.686279000000000E-01     -1.083984000000000E+01      5.054321000000000E-01     -1.767266000000000E+02      5.509338000000000E-01      4.188538000000000E-01      2.097778000000000E-01      1.135000000000000E+02
4869000000.000000      4.693451000000000E-01     -1.044531000000000E+01      5.058289000000000E-01     -1.770078000000000E+02      5.518188000000000E-01      3.666687000000000E-01      2.157669000000000E-01      1.146914000000000E+02
4870000000.000000      4.715576000000000E-01     -1.035742000000000E+01      5.078430000000000E-01     -1.771563000000000E+02      5.531616000000000E-01      1.455688000000000E-01      2.229691000000000E-01      1.155508000000000E+02
4871000000.000000      4.741974000000000E-01     -9.750488000000000E+00      5.078430000000000E-01     -1.778594000000000E+02      5.518799000000000E-01      3.240967000000000E-01      2.268600000000000E-01      1.165273000000000E+02
4872000000.000000      4.759369000000000E-01     -9.816406000000000E+00      5.090332000000000E-01     -1.778984000000000E+02      5.502625000000000E-01      0.000000000000000E+00      2.350311000000000E-01      1.168594000000000E+02
4873000000.000000      4.768677000000000E-01     -9.374512000000000E+00      5.110168000000000E-01     -1.785156000000000E+02      5.513916000000000E-01      7.278442000000000E-02      2.399521000000000E-01      1.175156000000000E+02
4874000000.000000      4.804840000000000E-01     -9.283691000000000E+00      5.098572000000000E-01     -1.788281000000000E+02      5.528259000000000E-01     -2.499390000000000E-01      2.445450000000000E-01      1.180820000000000E+02
4875000000.000000      4.807434000000000E-01     -9.080566000000000E+00      5.093079000000000E-01     -1.791484000000000E+02      5.520325000000000E-01     -9.750366000000000E-02      2.510681000000000E-01      1.190664000000000E+02
4876000000.000000      4.828949000000000E-01     -8.694336000000000E+00      5.126953000000000E-01     -1.796953000000000E+02      5.528564000000000E-01     -6.317139000000000E-02      2.591095000000000E-01      1.192969000000000E+02
4877000000.000000      4.889069000000000E-01     -9.083008000000000E+00      5.141602000000000E-01     -1.799062000000000E+02      5.527954000000000E-01     -3.666687000000000E-01      2.629089000000000E-01      1.198242000000000E+02
4878000000.000000      4.898224000000000E-01     -8.514648000000000E+00      5.136719000000000E-01      1.795625000000000E+02      5.516052000000000E-01     -1.455688000000000E-01      2.668915000000000E-01      1.200586000000000E+02
4879000000.000000      4.943695000000000E-01     -8.134277000000000E+00      5.139465000000000E-01      1.795391000000000E+02      5.529480000000000E-01     -3.227234000000000E-01      2.740936000000000E-01      1.200898000000000E+02
4880000000.000000      4.965057000000000E-01     -8.060059000000000E+00      5.157166000000000E-01      1.790469000000000E+02      5.502930000000000E-01     -4.545593000000000E-01      2.774506000000000E-01      1.201055000000000E+02
4881000000.000000      4.981384000000000E-01     -8.171387000000000E+00      5.151367000000000E-01      1.785703000000000E+02      5.493469000000000E-01     -5.314636000000000E-01      2.843933000000000E-01      1.208398000000000E+02
4882000000.000000      5.013428000000000E-01     -7.822266000000000E+00      5.170593000000000E-01      1.781484000000000E+02      5.522156000000000E-01     -6.083679000000000E-01      2.872772000000000E-01      1.210976000000000E+02
