! Network Analyzer HP8722D
! Hewlett-Packard
! Data name: Linha & Wilkinson
! Saver's name: Rodrigo Anjos
! Comments: Teste da utilização de aquisição
continua pelo VNA HP8722D
! Time and date: 8/5/2025 15:43
!              Frequency                     S11                                                   S21                                                   S12                                                   S22
# HZ  S  MA R 50
4800000000.000000      9.383850000000000E-01      1.629688000000000E+02      4.536896000000000E-01      1.201992000000000E+02      4.453583000000000E-01      1.530762000000000E+01      9.348145000000000E-01     -3.955078000000000E+01
4801000000.000000      9.351807000000000E-01      1.629141000000000E+02      4.571228000000000E-01      1.197031000000000E+02      4.456482000000000E-01      1.495215000000000E+01      9.287720000000000E-01     -4.001562000000000E+01
4802000000.000000      9.329224000000000E-01      1.630078000000000E+02      4.571075000000000E-01      1.191445000000000E+02      4.466553000000000E-01      1.487402000000000E+01      9.239807000000000E-01     -4.028516000000000E+01
4803000000.000000      9.355164000000000E-01      1.629609000000000E+02      4.589081000000000E-01      1.188789000000000E+02      4.468079000000000E-01      1.427637000000000E+01      9.187317000000000E-01     -4.094336000000000E+01
4804000000.000000      9.335938000000000E-01      1.631562000000000E+02      4.609680000000000E-01      1.183945000000000E+02      4.486389000000000E-01      1.399365000000000E+01      9.146423000000000E-01     -4.129883000000000E+01
4805000000.000000      9.339294000000000E-01      1.631016000000000E+02      4.624329000000000E-01      1.178984000000000E+02      4.493866000000000E-01      1.380957000000000E+01      9.077148000000000E-01     -4.174414000000000E+01
4806000000.000000      9.297180000000000E-01      1.632656000000000E+02      4.644775000000000E-01      1.173516000000000E+02      4.487610000000000E-01      1.354736000000000E+01      9.011841000000000E-01     -4.235937000000000E+01
4807000000.000000      9.311829000000000E-01      1.632734000000000E+02      4.680786000000000E-01      1.166289000000000E+02      4.497528000000000E-01      1.301465000000000E+01      8.968201000000000E-01     -4.268555000000000E+01
4808000000.000000      9.300842000000000E-01      1.633828000000000E+02      4.681549000000000E-01      1.163203000000000E+02      4.512939000000000E-01      1.266699000000000E+01      8.916931000000000E-01     -4.322070000000000E+01
4809000000.000000      9.263306000000000E-01      1.632813000000000E+02      4.688263000000000E-01      1.157695000000000E+02      4.511719000000000E-01      1.252686000000000E+01      8.848267000000000E-01     -4.364453000000000E+01
4810000000.000000      9.236755000000000E-01      1.633437000000000E+02      4.705353000000000E-01      1.153008000000000E+02      4.517212000000000E-01      1.219873000000000E+01      8.789978000000000E-01     -4.421484000000000E+01
4811000000.000000      9.226074000000000E-01      1.634219000000000E+02      4.727325000000000E-01      1.148594000000000E+02      4.542236000000000E-01      1.205859000000000E+01      8.742676000000000E-01     -4.453321000000000E+01
4812000000.000000      9.228821000000000E-01      1.635625000000000E+02      4.748993000000000E-01      1.141523000000000E+02      4.519348000000000E-01      1.157666000000000E+01      8.665466000000000E-01     -4.507813000000000E+01
4813000000.000000      9.184570000000000E-01      1.635156000000000E+02      4.751740000000000E-01      1.137305000000000E+02      4.526825000000000E-01      1.142285000000000E+01      8.614502000000000E-01     -4.545117000000000E+01
4814000000.000000      9.138489000000000E-01      1.635313000000000E+02      4.773407000000000E-01      1.130976000000000E+02      4.531860000000000E-01      1.095313000000000E+01      8.537292000000000E-01     -4.599999000000000E+01
4815000000.000000      9.116821000000000E-01      1.637422000000000E+02      4.782410000000000E-01      1.126133000000000E+02      4.540863000000000E-01      1.068115000000000E+01      8.485107000000000E-01     -4.635742000000000E+01
4816000000.000000      9.133911000000000E-01      1.638984000000000E+02      4.811249000000000E-01      1.121172000000000E+02      4.548798000000000E-01      1.025146000000000E+01      8.433838000000000E-01     -4.692578000000000E+01
4817000000.000000      9.097595000000000E-01      1.638672000000000E+02      4.824066000000000E-01      1.116758000000000E+02      4.549561000000000E-01      1.001514000000000E+01      8.355713000000000E-01     -4.730273000000000E+01
4818000000.000000      9.063110000000000E-01      1.638828000000000E+02      4.825592000000000E-01      1.108398000000000E+02      4.554596000000000E-01      9.758301000000000E+00      8.274841000000000E-01     -4.772851000000000E+01
4819000000.000000      9.064636000000000E-01      1.638438000000000E+02      4.851074000000000E-01      1.102773000000000E+02      4.552612000000000E-01      9.354492000000000E+00      8.219604000000000E-01     -4.839844000000000E+01
4820000000.000000      8.985596000000000E-01      1.640469000000000E+02      4.846649000000000E-01      1.097031000000000E+02      4.541626000000000E-01      9.151367000000000E+00      8.143921000000000E-01     -4.872656000000000E+01
4821000000.000000      8.992004000000000E-01      1.640469000000000E+02      4.865417000000000E-01      1.091914000000000E+02      4.557343000000000E-01      8.820313000000000E+00      8.072815000000000E-01     -4.919922000000000E+01
4822000000.000000      9.000244000000000E-01      1.639688000000000E+02      4.891205000000000E-01      1.082656000000000E+02      4.544373000000000E-01      8.312500000000000E+00      8.007813000000000E-01     -4.962500000000000E+01
4823000000.000000      8.941956000000000E-01      1.641641000000000E+02      4.888763000000000E-01      1.079453000000000E+02      4.554749000000000E-01      8.269531000000000E+00      7.932434000000000E-01     -5.007617000000000E+01
4824000000.000000      8.946228000000000E-01      1.639531000000000E+02      4.892120000000000E-01      1.070000000000000E+02      4.557190000000000E-01      7.716309000000000E+00      7.859192000000000E-01     -5.056835000000000E+01
4825000000.000000      8.894653000000000E-01      1.641172000000000E+02      4.898834000000000E-01      1.062930000000000E+02      4.565735000000000E-01      7.511719000000000E+00      7.800903000000000E-01     -5.099023000000000E+01
4826000000.000000      8.851318000000000E-01      1.642031000000000E+02      4.939575000000000E-01      1.058203000000000E+02      4.551849000000000E-01      7.243896000000000E+00      7.725830000000000E-01     -5.151172000000000E+01
4827000000.000000      8.827820000000000E-01      1.643203000000000E+02      4.941101000000000E-01      1.053711000000000E+02      4.552002000000000E-01      6.871826000000000E+00      7.659302000000000E-01     -5.190234000000000E+01
4828000000.000000      8.806458000000000E-01      1.642734000000000E+02      4.959106000000000E-01      1.045469000000000E+02      4.553680000000000E-01      6.525879000000000E+00      7.588501000000000E-01     -5.238867000000000E+01
4829000000.000000      8.753967000000000E-01      1.643906000000000E+02      4.928741000000000E-01      1.038672000000000E+02      4.566193000000000E-01      6.053467000000000E+00      7.528687000000000E-01     -5.278125000000000E+01
4830000000.000000      8.738708000000000E-01      1.645000000000000E+02      4.946899000000000E-01      1.032227000000000E+02      4.552155000000000E-01      6.036865000000000E+00      7.434082000000000E-01     -5.324804000000000E+01
4831000000.000000      8.659973000000000E-01      1.645469000000000E+02      4.943390000000000E-01      1.022969000000000E+02      4.565887000000000E-01      5.541016000000000E+00      7.360535000000000E-01     -5.354101000000000E+01
4832000000.000000      8.676147000000000E-01      1.645313000000000E+02      4.961090000000000E-01      1.016094000000000E+02      4.564056000000000E-01      5.243164000000000E+00      7.300415000000000E-01     -5.408203000000000E+01
4833000000.000000      8.652954000000000E-01      1.644687000000000E+02      4.954529000000000E-01      1.009609000000000E+02      4.559174000000000E-01      4.810547000000000E+00      7.207947000000000E-01     -5.440430000000000E+01
4834000000.000000      8.607483000000000E-01      1.646719000000000E+02      4.935608000000000E-01      1.003516000000000E+02      4.560089000000000E-01      4.533203000000000E+00      7.143860000000000E-01     -5.486133000000000E+01
4835000000.000000      8.550110000000000E-01      1.645234000000000E+02      4.953156000000000E-01      9.932812000000000E+01      4.562531000000000E-01      4.118408000000000E+00      7.066650000000000E-01     -5.523828000000000E+01
4836000000.000000      8.545227000000000E-01      1.646172000000000E+02      4.944153000000000E-01      9.885155000000000E+01      4.559631000000000E-01      3.926147000000000E+00      6.997681000000000E-01     -5.550586000000000E+01
4837000000.000000      8.494263000000000E-01      1.646641000000000E+02      4.938354000000000E-01      9.773046000000000E+01      4.566345000000000E-01      3.382324000000000E+00      6.911316000000000E-01     -5.589844000000000E+01
4838000000.000000      8.464050000000000E-01      1.645937000000000E+02      4.943390000000000E-01      9.728125000000000E+01      4.553833000000000E-01      3.203857000000000E+00      6.831055000000000E-01     -5.632617000000000E+01
4839000000.000000      8.419800000000000E-01      1.646641000000000E+02      4.930725000000000E-01      9.653515000000000E+01      4.557495000000000E-01      2.752075000000000E+00      6.771240000000000E-01     -5.663476000000000E+01
4840000000.000000      8.363647000000000E-01      1.647734000000000E+02      4.911499000000000E-01      9.561718000000000E+01      4.558563000000000E-01      2.447144000000000E+00      6.695862000000000E-01     -5.701562000000000E+01
4841000000.000000      8.338623000000000E-01      1.646797000000000E+02      4.901123000000000E-01      9.483593000000000E+01      4.549713000000000E-01      2.074951000000000E+00      6.613159000000000E-01     -5.736914000000000E+01
4842000000.000000      8.318481000000000E-01      1.646797000000000E+02      4.891205000000000E-01      9.431250000000000E+01      4.543457000000000E-01      1.527100000000000E+00      6.538696000000000E-01     -5.760742000000000E+01
4843000000.000000      8.271790000000000E-01      1.647266000000000E+02      4.875946000000000E-01      9.354687000000000E+01      4.536285000000000E-01      1.128845000000000E+00      6.449585000000000E-01     -5.788476000000000E+01
4844000000.000000      8.231506000000000E-01      1.648281000000000E+02      4.862213000000000E-01      9.294922000000000E+01      4.523773000000000E-01      9.091187000000000E-01      6.366272000000000E-01     -5.831445000000000E+01
4845000000.000000      8.188171000000000E-01      1.648594000000000E+02      4.835205000000000E-01      9.207422000000000E+01      4.535675000000000E-01      2.348328000000000E-01      6.287537000000000E-01     -5.851953000000000E+01
4846000000.000000      8.157349000000000E-01      1.648594000000000E+02      4.835052000000000E-01      9.130077000000000E+01      4.545441000000000E-01     -5.355835000000000E-02      6.207886000000000E-01     -5.874023000000000E+01
4847000000.000000      8.131409000000000E-01      1.648750000000000E+02      4.816895000000000E-01      9.076172000000000E+01      4.526672000000000E-01     -4.490662000000000E-01      6.130066000000000E-01     -5.915039000000000E+01
4848000000.000000      8.080750000000000E-01      1.648828000000000E+02      4.792938000000000E-01      8.996485000000000E+01      4.524689000000000E-01     -8.843994000000000E-01      6.043396000000000E-01     -5.927539000000000E+01
4849000000.000000      8.040466000000000E-01      1.644453000000000E+02      4.771576000000000E-01      8.909374000000000E+01      4.508514000000000E-01     -1.284058000000000E+00      5.963745000000000E-01     -5.941992000000000E+01
4850000000.000000      8.010254000000000E-01      1.649765000000000E+02      4.759064000000000E-01      8.845312000000000E+01      4.502411000000000E-01     -1.825134000000000E+00      5.892639000000000E-01     -5.965234000000000E+01
4851000000.000000      7.963257000000000E-01      1.649844000000000E+02      4.739532000000000E-01      8.747265000000000E+01      4.499817000000000E-01     -2.219238000000000E+00      5.810242000000000E-01     -5.986328000000000E+01
4852000000.000000      7.940979000000000E-01      1.649297000000000E+02      4.717102000000000E-01      8.721094000000000E+01      4.477081000000000E-01     -2.605225000000000E+00      5.722656000000000E-01     -5.998437000000000E+01
4853000000.000000      7.919006000000000E-01      1.648984000000000E+02      4.668732000000000E-01      8.655468000000000E+01      4.480286000000000E-01     -3.111938000000000E+00      5.644226000000000E-01     -6.018359000000000E+01
4854000000.000000      7.860718000000000E-01      1.648125000000000E+02      4.640961000000000E-01      8.564453000000000E+01      4.483337000000000E-01     -3.629639000000000E+00      5.575867000000000E-01     -6.018164000000000E+01
4855000000.000000      7.810364000000000E-01      1.648594000000000E+02      4.623260000000000E-01      8.511328000000000E+01      4.457397000000000E-01     -3.938599000000000E+00      5.460815000000000E-01     -6.035742000000000E+01
4856000000.000000      7.792053000000000E-01      1.649688000000000E+02      4.593811000000000E-01      8.429296000000000E+01      4.451447000000000E-01     -4.636230000000000E+00      5.393677000000000E-01     -6.034570000000000E+01
4857000000.000000      7.739563000000000E-01      1.649141000000000E+02      4.560089000000000E-01      8.367968000000000E+01      4.436340000000000E-01     -4.946777000000000E+00      5.304565000000000E-01     -6.042382000000000E+01
4858000000.000000      7.681885000000000E-01      1.647656000000000E+02      4.539185000000000E-01      8.310156000000000E+01      4.430695000000000E-01     -5.483643000000000E+00      5.224304000000000E-01     -6.039844000000000E+01
4859000000.000000      7.689819000000000E-01      1.646797000000000E+02      4.500885000000000E-01      8.248827000000000E+01      4.416809000000000E-01     -5.994629000000000E+00      5.164490000000000E-01     -6.040429000000000E+01
4860000000.000000      7.632446000000000E-01      1.648750000000000E+02      4.484253000000000E-01      8.181641000000000E+01      4.403839000000000E-01     -6.423096000000000E+00      5.067139000000000E-01     -6.022851000000000E+01
4861000000.000000      7.591248000000000E-01      1.648672000000000E+02      4.440460000000000E-01      8.096094000000000E+01      4.391632000000000E-01     -7.069824000000000E+00      4.987946000000000E-01     -6.020898000000000E+01
4862000000.000000      7.572632000000000E-01      1.649765000000000E+02      4.416504000000000E-01      8.043360000000000E+01      4.374695000000000E-01     -7.466797000000000E+00      4.920044000000000E-01     -6.002343000000000E+01
4863000000.000000      7.543030000000000E-01      1.649609000000000E+02      4.375458000000000E-01      7.966406000000000E+01      4.364166000000000E-01     -7.804443000000000E+00      4.837341000000000E-01     -5.973437000000000E+01
4864000000.000000      7.494202000000000E-01      1.650312000000000E+02      4.369354000000000E-01      7.928515000000000E+01      4.337006000000000E-01     -8.348633000000000E+00      4.757690000000000E-01     -5.959570000000000E+01
4865000000.000000      7.464294000000000E-01      1.647891000000000E+02      4.293976000000000E-01      7.876171000000000E+01      4.320831000000000E-01     -8.891113000000000E+00      4.689636000000000E-01     -5.923242000000000E+01
4866000000.000000      7.436523000000000E-01      1.648906000000000E+02      4.281464000000000E-01      7.809765000000000E+01      4.316406000000000E-01     -9.594238000000000E+00      4.608002000000000E-01     -5.895508000000000E+01
4867000000.000000      7.415466000000000E-01      1.649141000000000E+02      4.267578000000000E-01      7.758203000000000E+01      4.281158000000000E-01     -1.003613000000000E+01      4.540405000000000E-01     -5.852734000000000E+01
4868000000.000000      7.374573000000000E-01      1.647734000000000E+02      4.229431000000000E-01      7.675781000000000E+01      4.268494000000000E-01     -1.052393000000000E+01      4.456787000000000E-01     -5.811913000000000E+01
4869000000.000000      7.337036000000000E-01      1.649844000000000E+02      4.180450000000000E-01      7.622656000000000E+01      4.248962000000000E-01     -1.140381000000000E+01      4.394989000000000E-01     -5.775391000000000E+01
4870000000.000000      7.321472000000000E-01      1.648594000000000E+02      4.152832000000000E-01      7.584374000000000E+01      4.231415000000000E-01     -1.188477000000000E+01      4.324951000000000E-01     -5.710155000000000E+01
4871000000.000000      7.295227000000000E-01      1.648984000000000E+02      4.134369000000000E-01      7.509375000000000E+01      4.209900000000000E-01     -1.221973000000000E+01      4.253845000000000E-01     -5.665820000000000E+01
4872000000.000000      7.273560000000000E-01      1.648906000000000E+02      4.098358000000000E-01      7.471484000000000E+01      4.177704000000000E-01     -1.306152000000000E+01      4.193726000000000E-01     -5.590820000000000E+01
4873000000.000000      7.237244000000000E-01      1.649297000000000E+02      4.056396000000000E-01      7.403906000000000E+01      4.149780000000000E-01     -1.350537000000000E+01      4.123077000000000E-01     -5.532617000000000E+01
4874000000.000000      7.182312000000000E-01      1.651172000000000E+02      4.002838000000000E-01      7.339453000000000E+01      4.136810000000000E-01     -1.408594000000000E+01      4.066162000000000E-01     -5.447656000000000E+01
4875000000.000000      7.204590000000000E-01      1.650391000000000E+02      3.984528000000000E-01      7.265625000000000E+01      4.109802000000000E-01     -1.459277000000000E+01      4.011230000000000E-01     -5.364648000000000E+01
4876000000.000000      7.162170000000000E-01      1.650469000000000E+02      3.971558000000000E-01      7.229687000000000E+01      4.074097000000000E-01     -1.507471000000000E+01      3.965912000000000E-01     -5.302734000000000E+01
4877000000.000000      7.159729000000000E-01      1.650703000000000E+02      3.918304000000000E-01      7.178905000000000E+01      4.056702000000000E-01     -1.596729000000000E+01      3.908386000000000E-01     -5.201366000000000E+01
4878000000.000000      7.133789000000000E-01      1.650625000000000E+02      3.904419000000000E-01      7.125000000000000E+01      4.028015000000000E-01     -1.647949000000000E+01      3.865356000000000E-01     -5.112695000000000E+01
4879000000.000000      7.124939000000000E-01      1.650703000000000E+02      3.832092000000000E-01      7.067968000000000E+01      3.983154000000000E-01     -1.713086000000000E+01      3.820190000000000E-01     -5.000586000000000E+01
4880000000.000000      7.108765000000000E-01      1.649922000000000E+02      3.820953000000000E-01      6.990624000000000E+01      3.966522000000000E-01     -1.750488000000000E+01      3.783264000000000E-01     -4.901953000000000E+01
4881000000.000000      7.087097000000000E-01      1.650469000000000E+02      3.781586000000000E-01      6.965625000000000E+01      3.928223000000000E-01     -1.819140000000000E+01      3.752747000000000E-01     -4.792969000000000E+01
4882000000.000000      7.073364000000000E-01      1.650859000000000E+02      3.744049000000000E-01      6.900000000000000E+01      3.901520000000000E-01     -1.880469000000000E+01      3.719330000000000E-01     -4.677539000000000E+01
