! Network Analyzer HP8722D
! Hewlett-Packard
! Data name: Linha & Wilkinson
! Saver's name: Rodrigo Anjos
! Comments: Teste da utilização de aquisição
continua pelo VNA HP8722D
! Time and date: 8/5/2025 14:07
!              Frequency                     S11                                                   S21                                                   S12                                                   S22
# HZ  S  MA R 50
4800000000.000000      5.380554000000000E-01     -2.537793000000000E+01      3.667450000000000E-01     -1.493984000000000E+02      3.851166000000000E-01      9.971191000000000E+00      4.998779000000000E-01      1.157654000000000E+00
4801000000.000000      5.336914000000000E-01     -2.505762000000000E+01      3.705292000000000E-01     -1.497734000000000E+02      3.879852000000000E-01      9.549805000000000E+00      4.962006000000000E-01      1.192017000000000E+00
4802000000.000000      5.334778000000000E-01     -2.475000000000000E+01      3.744659000000000E-01     -1.500625000000000E+02      3.933716000000000E-01      9.555176000000000E+00      4.921112000000000E-01      1.381531000000000E+00
4803000000.000000      5.316162000000000E-01     -2.460254000000000E+01      3.798218000000000E-01     -1.505469000000000E+02      3.981628000000000E-01      9.450684000000000E+00      4.841309000000000E-01      1.480408000000000E+00
4804000000.000000      5.309448000000000E-01     -2.430469000000000E+01      3.833008000000000E-01     -1.508984000000000E+02      4.010010000000000E-01      9.121094000000000E+00      4.767761000000000E-01      1.627319000000000E+00
4805000000.000000      5.299377000000000E-01     -2.407031000000000E+01      3.870544000000000E-01     -1.513750000000000E+02      4.061584000000000E-01      9.162598000000000E+00      4.715118000000000E-01      1.428223000000000E+00
4806000000.000000      5.294495000000000E-01     -2.378027000000000E+01      3.908081000000000E-01     -1.517734000000000E+02      4.082031000000000E-01      9.122559000000000E+00      4.636688000000000E-01      1.557312000000000E+00
4807000000.000000      5.275269000000000E-01     -2.358301000000000E+01      3.947296000000000E-01     -1.522656000000000E+02      4.120941000000000E-01      8.847656000000000E+00      4.564056000000000E-01      1.851196000000000E+00
4808000000.000000      5.251160000000000E-01     -2.331250000000000E+01      3.981628000000000E-01     -1.525312000000000E+02      4.159241000000000E-01      8.761230000000000E+00      4.499512000000000E-01      2.036499000000000E+00
4809000000.000000      5.241089000000000E-01     -2.301562000000000E+01      4.022980000000000E-01     -1.531016000000000E+02      4.212189000000000E-01      8.527832000000000E+00      4.422913000000000E-01      2.257690000000000E+00
4810000000.000000      5.229492000000000E-01     -2.281543000000000E+01      4.067841000000000E-01     -1.534453000000000E+02      4.228058000000000E-01      8.441406000000000E+00      4.351959000000000E-01      2.187622000000000E+00
4811000000.000000      5.242615000000000E-01     -2.267578000000000E+01      4.098969000000000E-01     -1.539531000000000E+02      4.268036000000000E-01      8.312500000000000E+00      4.278259000000000E-01      2.683350000000000E+00
4812000000.000000      5.233154000000000E-01     -2.259277000000000E+01      4.131775000000000E-01     -1.543750000000000E+02      4.310913000000000E-01      8.044434000000000E+00      4.202881000000000E-01      2.518555000000000E+00
4813000000.000000      5.211792000000000E-01     -2.201855000000000E+01      4.160156000000000E-01     -1.547812000000000E+02      4.340668000000000E-01      7.842773000000000E+00      4.122925000000000E-01      3.124146000000000E+00
4814000000.000000      5.183716000000000E-01     -2.205859000000000E+01      4.203644000000000E-01     -1.552578000000000E+02      4.374542000000000E-01      7.737061000000000E+00      4.041901000000000E-01      3.180542000000000E+00
4815000000.000000      5.167542000000000E-01     -2.168359000000000E+01      4.227142000000000E-01     -1.555938000000000E+02      4.407043000000000E-01      7.639404000000000E+00      3.959503000000000E-01      3.614502000000000E+00
4816000000.000000      5.170593000000000E-01     -2.157910000000000E+01      4.269104000000000E-01     -1.560625000000000E+02      4.465485000000000E-01      7.638184000000000E+00      3.885651000000000E-01      3.801270000000000E+00
4817000000.000000      5.158386000000000E-01     -2.136914000000000E+01      4.295044000000000E-01     -1.565703000000000E+02      4.476471000000000E-01      7.264648000000000E+00      3.782043000000000E-01      4.268066000000000E+00
4818000000.000000      5.141296000000000E-01     -2.120019000000000E+01      4.327240000000000E-01     -1.571094000000000E+02      4.535522000000000E-01      7.335938000000000E+00      3.689270000000000E-01      4.511230000000000E+00
4819000000.000000      5.124817000000000E-01     -2.119043000000000E+01      4.357300000000000E-01     -1.575000000000000E+02      4.560089000000000E-01      6.980225000000000E+00      3.600464000000000E-01      4.662109000000000E+00
4820000000.000000      5.117188000000000E-01     -2.099121000000000E+01      4.388733000000000E-01     -1.577734000000000E+02      4.580383000000000E-01      6.886963000000000E+00      3.519897000000000E-01      5.200439000000000E+00
4821000000.000000      5.107727000000000E-01     -2.080859000000000E+01      4.419556000000000E-01     -1.584687000000000E+02      4.607086000000000E-01      6.724854000000000E+00      3.424225000000000E-01      5.753906000000000E+00
4822000000.000000      5.067444000000000E-01     -2.078125000000000E+01      4.431458000000000E-01     -1.588281000000000E+02      4.647675000000000E-01      6.422852000000000E+00      3.345490000000000E-01      6.008057000000000E+00
4823000000.000000      5.072632000000000E-01     -2.059863000000000E+01      4.470673000000000E-01     -1.595156000000000E+02      4.682312000000000E-01      6.575195000000000E+00      3.246613000000000E-01      6.527100000000000E+00
4824000000.000000      5.033264000000000E-01     -2.024707000000000E+01      4.495697000000000E-01     -1.599141000000000E+02      4.711761000000000E-01      6.284180000000000E+00      3.145599000000000E-01      6.968018000000000E+00
4825000000.000000      5.031738000000000E-01     -2.022656000000000E+01      4.516907000000000E-01     -1.602656000000000E+02      4.753113000000000E-01      6.236084000000000E+00      3.071136000000000E-01      7.712402000000000E+00
4826000000.000000      5.003662000000000E-01     -2.013476000000000E+01      4.545135000000000E-01     -1.608906000000000E+02      4.770966000000000E-01      6.046387000000000E+00      2.970581000000000E-01      8.239746000000000E+00
4827000000.000000      5.010071000000000E-01     -1.994726000000000E+01      4.569244000000000E-01     -1.611484000000000E+02      4.803467000000000E-01      5.855713000000000E+00      2.879028000000000E-01      8.979492000000000E+00
4828000000.000000      4.977264000000000E-01     -1.985644000000000E+01      4.599152000000000E-01     -1.616016000000000E+02      4.842529000000000E-01      5.764893000000000E+00      2.785492000000000E-01      9.470215000000000E+00
4829000000.000000      4.972382000000000E-01     -1.948730000000000E+01      4.614410000000000E-01     -1.620859000000000E+02      4.869843000000000E-01      5.616699000000000E+00      2.701416000000000E-01      1.075830000000000E+01
4830000000.000000      4.958954000000000E-01     -1.947949000000000E+01      4.638824000000000E-01     -1.626406000000000E+02      4.881439000000000E-01      5.506836000000000E+00      2.599030000000000E-01      1.158887000000000E+01
4831000000.000000      4.922791000000000E-01     -1.930762000000000E+01      4.658508000000000E-01     -1.631641000000000E+02      4.926758000000000E-01      5.337891000000000E+00      2.508392000000000E-01      1.250635000000000E+01
4832000000.000000      4.916534000000000E-01     -1.913965000000000E+01      4.673309000000000E-01     -1.635000000000000E+02      4.955902000000000E-01      5.083740000000000E+00      2.406464000000000E-01      1.404297000000000E+01
4833000000.000000      4.901886000000000E-01     -1.914551000000000E+01      4.691467000000000E-01     -1.638906000000000E+02      4.988556000000000E-01      4.898438000000000E+00      2.317352000000000E-01      1.503857000000000E+01
4834000000.000000      4.860992000000000E-01     -1.922070000000000E+01      4.710846000000000E-01     -1.644297000000000E+02      5.016174000000000E-01      4.637451000000000E+00      2.229080000000000E-01      1.656836000000000E+01
4835000000.000000      4.867706000000000E-01     -1.865430000000000E+01      4.730377000000000E-01     -1.649062000000000E+02      5.031433000000000E-01      4.692383000000000E+00      2.148743000000000E-01      1.784863000000000E+01
4836000000.000000      4.857788000000000E-01     -1.853711000000000E+01      4.744263000000000E-01     -1.652734000000000E+02      5.061035000000000E-01      4.616943000000000E+00      2.059708000000000E-01      1.978320000000000E+01
4837000000.000000      4.815521000000000E-01     -1.823340000000000E+01      4.749908000000000E-01     -1.660234000000000E+02      5.091248000000000E-01      4.166504000000000E+00      1.975784000000000E-01      2.184277000000000E+01
4838000000.000000      4.813232000000000E-01     -1.844629000000000E+01      4.779205000000000E-01     -1.659765000000000E+02      5.117493000000000E-01      4.404053000000000E+00      1.888885000000000E-01      2.380566000000000E+01
4839000000.000000      4.816437000000000E-01     -1.792480000000000E+01      4.785767000000000E-01     -1.665156000000000E+02      5.153198000000000E-01      4.033203000000000E+00      1.819687000000000E-01      2.571875000000000E+01
4840000000.000000      4.784393000000000E-01     -1.811719000000000E+01      4.809418000000000E-01     -1.670703000000000E+02      5.166626000000000E-01      3.816284000000000E+00      1.736755000000000E-01      2.820313000000000E+01
4841000000.000000      4.765625000000000E-01     -1.772265000000000E+01      4.827881000000000E-01     -1.674297000000000E+02      5.193787000000000E-01      3.567749000000000E+00      1.673965000000000E-01      3.108301000000000E+01
4842000000.000000      4.761505000000000E-01     -1.758301000000000E+01      4.831238000000000E-01     -1.678359000000000E+02      5.199890000000000E-01      3.441406000000000E+00      1.610641000000000E-01      3.416406000000000E+01
4843000000.000000      4.756165000000000E-01     -1.752051000000000E+01      4.858246000000000E-01     -1.683906000000000E+02      5.227356000000000E-01      3.360352000000000E+00      1.545486000000000E-01      3.761719000000000E+01
4844000000.000000      4.703217000000000E-01     -1.722168000000000E+01      4.855347000000000E-01     -1.687422000000000E+02      5.256348000000000E-01      3.238159000000000E+00      1.482239000000000E-01      4.101367000000000E+01
4845000000.000000      4.721680000000000E-01     -1.694824000000000E+01      4.868469000000000E-01     -1.690938000000000E+02      5.260315000000000E-01      2.915405000000000E+00      1.448822000000000E-01      4.455078000000000E+01
4846000000.000000      4.677277000000000E-01     -1.672070000000000E+01      4.876556000000000E-01     -1.694844000000000E+02      5.307312000000000E-01      2.876953000000000E+00      1.404343000000000E-01      4.878320000000000E+01
4847000000.000000      4.687500000000000E-01     -1.654492000000000E+01      4.892120000000000E-01     -1.697969000000000E+02      5.324707000000000E-01      2.692993000000000E+00      1.362228000000000E-01      5.272265000000000E+01
4848000000.000000      4.658813000000000E-01     -1.617773000000000E+01      4.889679000000000E-01     -1.702344000000000E+02      5.341187000000000E-01      2.412842000000000E+00      1.354294000000000E-01      5.698828000000000E+01
4849000000.000000      4.666901000000000E-01     -1.601758000000000E+01      4.914093000000000E-01     -1.706953000000000E+02      5.366516000000000E-01      2.215088000000000E+00      1.338806000000000E-01      6.123632000000000E+01
4850000000.000000      4.655304000000000E-01     -1.572998000000000E+01      4.911041000000000E-01     -1.709922000000000E+02      5.369568000000000E-01      2.116211000000000E+00      1.341629000000000E-01      6.590625000000000E+01
4851000000.000000      4.648285000000000E-01     -1.529053000000000E+01      4.939880000000000E-01     -1.715625000000000E+02      5.388489000000000E-01      2.009033000000000E+00      1.347733000000000E-01      7.000000000000000E+01
4852000000.000000      4.639740000000000E-01     -1.516699000000000E+01      4.933777000000000E-01     -1.717578000000000E+02      5.398254000000000E-01      1.735840000000000E+00      1.356735000000000E-01      7.423046000000000E+01
4853000000.000000      4.630890000000000E-01     -1.509521000000000E+01      4.933319000000000E-01     -1.720781000000000E+02      5.429077000000000E-01      1.654785000000000E+00      1.378021000000000E-01      7.842968000000000E+01
4854000000.000000      4.630127000000000E-01     -1.462012000000000E+01      4.955902000000000E-01     -1.725391000000000E+02      5.440369000000000E-01      1.580627000000000E+00      1.418228000000000E-01      8.208593000000000E+01
4855000000.000000      4.607697000000000E-01     -1.451855000000000E+01      4.957275000000000E-01     -1.730000000000000E+02      5.452271000000000E-01      1.138428000000000E+00      1.445999000000000E-01      8.603907000000000E+01
4856000000.000000      4.625549000000000E-01     -1.429492000000000E+01      4.963379000000000E-01     -1.732109000000000E+02      5.456543000000000E-01      1.175537000000000E+00      1.493454000000000E-01      8.930859000000000E+01
4857000000.000000      4.601746000000000E-01     -1.393506000000000E+01      4.985046000000000E-01     -1.735312000000000E+02      5.469055000000000E-01      9.750366000000000E-01      1.531601000000000E-01      9.230469000000000E+01
4858000000.000000      4.606476000000000E-01     -1.352588000000000E+01      4.988403000000000E-01     -1.739453000000000E+02      5.483398000000000E-01      7.978821000000000E-01      1.578598000000000E-01      9.541796000000000E+01
4859000000.000000      4.615479000000000E-01     -1.313281000000000E+01      5.001526000000000E-01     -1.743359000000000E+02      5.496216000000000E-01      6.427002000000000E-01      1.639404000000000E-01      9.754295000000000E+01
4860000000.000000      4.628601000000000E-01     -1.304639000000000E+01      4.989166000000000E-01     -1.746328000000000E+02      5.481567000000000E-01      5.067444000000000E-01      1.703644000000000E-01      1.001563000000000E+02
4861000000.000000      4.611359000000000E-01     -1.274023000000000E+01      4.998322000000000E-01     -1.750625000000000E+02      5.519714000000000E-01      4.463196000000000E-01      1.756134000000000E-01      1.020859000000000E+02
4862000000.000000      4.614563000000000E-01     -1.238721000000000E+01      5.037842000000000E-01     -1.753359000000000E+02      5.526428000000000E-01      2.952576000000000E-01      1.819077000000000E-01      1.039492000000000E+02
4863000000.000000      4.640961000000000E-01     -1.200537000000000E+01      5.032043000000000E-01     -1.758281000000000E+02      5.521851000000000E-01      6.042480000000000E-02      1.879120000000000E-01      1.057461000000000E+02
4864000000.000000      4.639282000000000E-01     -1.181201000000000E+01      5.042419000000000E-01     -1.759140000000000E+02      5.523987000000000E-01      4.669189000000000E-02      1.951752000000000E-01      1.074492000000000E+02
4865000000.000000      4.662933000000000E-01     -1.181445000000000E+01      5.033264000000000E-01     -1.763281000000000E+02      5.524902000000000E-01     -1.112366000000000E-01      2.007980000000000E-01      1.088008000000000E+02
4866000000.000000      4.664764000000000E-01     -1.130518000000000E+01      5.040588000000000E-01     -1.767422000000000E+02      5.545044000000000E-01     -3.598022000000000E-01      2.067490000000000E-01      1.097500000000000E+02
4867000000.000000      4.676361000000000E-01     -1.085742000000000E+01      5.054321000000000E-01     -1.771016000000000E+02      5.527954000000000E-01     -3.034973000000000E-01      2.131042000000000E-01      1.110898000000000E+02
4868000000.000000      4.675751000000000E-01     -1.081494000000000E+01      5.070190000000000E-01     -1.775078000000000E+02      5.527039000000000E-01     -6.179810000000000E-01      2.196503000000000E-01      1.125039000000000E+02
4869000000.000000      4.713745000000000E-01     -1.044971000000000E+01      5.057983000000000E-01     -1.778828000000000E+02      5.535278000000000E-01     -6.509399000000000E-01      2.267303000000000E-01      1.129062000000000E+02
4870000000.000000      4.717102000000000E-01     -1.032861000000000E+01      5.079346000000000E-01     -1.780078000000000E+02      5.531616000000000E-01     -6.990051000000000E-01      2.329559000000000E-01      1.141914000000000E+02
4871000000.000000      4.726868000000000E-01     -1.001172000000000E+01      5.086670000000000E-01     -1.786172000000000E+02      5.534058000000000E-01     -8.061218000000000E-01      2.384186000000000E-01      1.144570000000000E+02
4872000000.000000      4.789886000000000E-01     -9.738281000000000E+00      5.096741000000000E-01     -1.786797000000000E+02      5.530396000000000E-01     -1.065674000000000E+00      2.440109000000000E-01      1.151992000000000E+02
4873000000.000000      4.789429000000000E-01     -9.493652000000000E+00      5.101013000000000E-01     -1.791563000000000E+02      5.536194000000000E-01     -1.073914000000000E+00      2.495956000000000E-01      1.155976000000000E+02
4874000000.000000      4.795532000000000E-01     -9.199707000000000E+00      5.123901000000000E-01     -1.795703000000000E+02      5.535889000000000E-01     -1.054688000000000E+00      2.547913000000000E-01      1.164141000000000E+02
4875000000.000000      4.831085000000000E-01     -9.297363000000000E+00      5.116577000000000E-01     -1.796719000000000E+02      5.516663000000000E-01     -1.198914000000000E+00      2.595673000000000E-01      1.168047000000000E+02
4876000000.000000      4.861145000000000E-01     -8.794922000000000E+00      5.134888000000000E-01      1.797188000000000E+02      5.536194000000000E-01     -1.333496000000000E+00      2.675476000000000E-01      1.177383000000000E+02
4877000000.000000      4.898071000000000E-01     -8.822266000000000E+00      5.140686000000000E-01      1.792812000000000E+02      5.521545000000000E-01     -1.311523000000000E+00      2.699738000000000E-01      1.176836000000000E+02
4878000000.000000      4.913635000000000E-01     -8.673828000000000E+00      5.140381000000000E-01      1.790234000000000E+02      5.521240000000000E-01     -1.343079000000000E+00      2.760162000000000E-01      1.178164000000000E+02
4879000000.000000      4.946594000000000E-01     -8.392578000000000E+00      5.131531000000000E-01      1.786328000000000E+02      5.529175000000000E-01     -1.463928000000000E+00      2.813416000000000E-01      1.182734000000000E+02
4880000000.000000      4.983521000000000E-01     -8.242676000000000E+00      5.138245000000000E-01      1.781484000000000E+02      5.505981000000000E-01     -1.599915000000000E+00      2.846527000000000E-01      1.184922000000000E+02
4881000000.000000      4.999390000000000E-01     -8.104004000000000E+00      5.162048000000000E-01      1.779687000000000E+02      5.495911000000000E-01     -1.491394000000000E+00      2.909546000000000E-01      1.190703000000000E+02
4882000000.000000      5.043945000000000E-01     -7.980225000000000E+00      5.172729000000000E-01      1.774062000000000E+02      5.512695000000000E-01     -1.380188000000000E+00      2.966003000000000E-01      1.193047000000000E+02
