! Network Analyzer HP8722D
! Hewlett-Packard
! Data name: Linha & Wilkinson
! Saver's name: Rodrigo Anjos
! Comments: Teste da utilização de aquisição
continua pelo VNA HP8722D
! Time and date: 8/5/2025 12:45
!              Frequency                     S11                                                   S21                                                   S12                                                   S22
# HZ  S  MA R 50
4800000000.000000      6.384583000000000E-01      1.033252000000000E+01      4.728394000000000E-01     -9.514843000000000E+01      4.450378000000000E-01     -8.154297000000000E+01      1.912079000000000E-01     -1.447344000000000E+02
4801000000.000000      6.350708000000000E-01      1.036377000000000E+01      4.728851000000000E-01     -9.597265000000000E+01      4.468536000000000E-01     -8.234766000000000E+01      1.817169000000000E-01     -1.464922000000000E+02
4802000000.000000      6.340637000000000E-01      1.038037000000000E+01      4.753265000000000E-01     -9.671093000000000E+01      4.501343000000000E-01     -8.338282000000000E+01      1.729660000000000E-01     -1.480859000000000E+02
4803000000.000000      6.315308000000000E-01      1.040771000000000E+01      4.790344000000000E-01     -9.730078000000000E+01      4.536591000000000E-01     -8.412500000000000E+01      1.667786000000000E-01     -1.485000000000000E+02
4804000000.000000      6.314087000000000E-01      1.034912000000000E+01      4.807739000000000E-01     -9.823437000000000E+01      4.561615000000000E-01     -8.510157000000000E+01      1.593857000000000E-01     -1.495156000000000E+02
4805000000.000000      6.302185000000000E-01      1.031982000000000E+01      4.813385000000000E-01     -9.890625000000000E+01      4.579163000000000E-01     -8.581640000000000E+01      1.512375000000000E-01     -1.509609000000000E+02
4806000000.000000      6.281738000000000E-01      1.046973000000000E+01      4.824829000000000E-01     -9.970703000000000E+01      4.612579000000000E-01     -8.675781000000000E+01      1.444397000000000E-01     -1.516953000000000E+02
4807000000.000000      6.243591000000000E-01      1.039404000000000E+01      4.823761000000000E-01     -1.006602000000000E+02      4.638824000000000E-01     -8.789843000000000E+01      1.355820000000000E-01     -1.532031000000000E+02
4808000000.000000      6.231384000000000E-01      1.042871000000000E+01      4.849548000000000E-01     -1.012773000000000E+02      4.655914000000000E-01     -8.875780000000000E+01      1.272964000000000E-01     -1.534141000000000E+02
4809000000.000000      6.221008000000000E-01      1.055908000000000E+01      4.863434000000000E-01     -1.020000000000000E+02      4.693146000000000E-01     -8.958984000000000E+01      1.186562000000000E-01     -1.568594000000000E+02
4810000000.000000      6.196899000000000E-01      1.062061000000000E+01      4.888306000000000E-01     -1.027226000000000E+02      4.711456000000000E-01     -9.046484000000000E+01      1.109657000000000E-01     -1.562969000000000E+02
4811000000.000000      6.207581000000000E-01      1.064844000000000E+01      4.901428000000000E-01     -1.037773000000000E+02      4.736481000000000E-01     -9.144922000000000E+01      1.022606000000000E-01     -1.576328000000000E+02
4812000000.000000      6.200256000000000E-01      1.082959000000000E+01      4.902191000000000E-01     -1.044141000000000E+02      4.750671000000000E-01     -9.253906000000000E+01      9.287262000000000E-02     -1.585156000000000E+02
4813000000.000000      6.170044000000000E-01      1.069092000000000E+01      4.926605000000000E-01     -1.050078000000000E+02      4.774933000000000E-01     -9.337109000000000E+01      8.347321000000000E-02     -1.596016000000000E+02
4814000000.000000      6.154175000000000E-01      1.076758000000000E+01      4.934692000000000E-01     -1.058437000000000E+02      4.791718000000000E-01     -9.437891000000000E+01      7.356262000000000E-02     -1.604844000000000E+02
4815000000.000000      6.149292000000000E-01      1.094482000000000E+01      4.929810000000000E-01     -1.065586000000000E+02      4.792938000000000E-01     -9.547266000000000E+01      6.584167000000000E-02     -1.605469000000000E+02
4816000000.000000      6.145020000000000E-01      1.098047000000000E+01      4.949341000000000E-01     -1.072852000000000E+02      4.829712000000000E-01     -9.626171000000000E+01      5.523300000000000E-02     -1.608047000000000E+02
4817000000.000000      6.131287000000000E-01      1.116309000000000E+01      4.938202000000000E-01     -1.080430000000000E+02      4.817657000000000E-01     -9.721483000000000E+01      4.920578000000000E-02     -1.636016000000000E+02
4818000000.000000      6.105042000000000E-01      1.115381000000000E+01      4.959106000000000E-01     -1.089922000000000E+02      4.844818000000000E-01     -9.829687000000000E+01      4.005241000000000E-02     -1.641406000000000E+02
4819000000.000000      6.102905000000000E-01      1.123193000000000E+01      4.968567000000000E-01     -1.096406000000000E+02      4.872589000000000E-01     -9.914843000000000E+01      3.254128000000000E-02     -1.610000000000000E+02
4820000000.000000      6.080627000000000E-01      1.126611000000000E+01      4.967041000000000E-01     -1.101406000000000E+02      4.868317000000000E-01     -1.003164000000000E+02      2.135277000000000E-02     -1.606094000000000E+02
4821000000.000000      6.085205000000000E-01      1.136914000000000E+01      4.988251000000000E-01     -1.112344000000000E+02      4.869537000000000E-01     -1.014336000000000E+02      1.356936000000000E-02     -1.560390000000000E+02
4822000000.000000      6.069031000000000E-01      1.159570000000000E+01      4.956055000000000E-01     -1.118476000000000E+02      4.868622000000000E-01     -1.023789000000000E+02      5.880356000000000E-03     -1.044023000000000E+02
4823000000.000000      6.066284000000000E-01      1.166992000000000E+01      4.980774000000000E-01     -1.126992000000000E+02      4.868774000000000E-01     -1.032109000000000E+02      7.674932000000000E-03     -2.983203000000000E+01
4824000000.000000      6.037598000000000E-01      1.163428000000000E+01      4.987183000000000E-01     -1.132891000000000E+02      4.873810000000000E-01     -1.043750000000000E+02      1.594162000000000E-02     -1.238721000000000E+01
4825000000.000000      6.058960000000000E-01      1.185791000000000E+01      5.004578000000000E-01     -1.140430000000000E+02      4.885101000000000E-01     -1.052539000000000E+02      2.542114000000000E-02     -1.031641000000000E+01
4826000000.000000      6.054993000000000E-01      1.182373000000000E+01      4.999847000000000E-01     -1.149570000000000E+02      4.868011000000000E-01     -1.065156000000000E+02      3.390312000000000E-02     -8.645020000000000E+00
4827000000.000000      6.040344000000000E-01      1.206689000000000E+01      4.988556000000000E-01     -1.155469000000000E+02      4.860535000000000E-01     -1.073867000000000E+02      4.408073000000000E-02     -8.088867000000000E+00
4828000000.000000      6.044006000000000E-01      1.208496000000000E+01      5.007324000000000E-01     -1.162852000000000E+02      4.864655000000000E-01     -1.083750000000000E+02      5.366325000000000E-02     -9.789063000000000E+00
4829000000.000000      6.040955000000000E-01      1.236475000000000E+01      5.002136000000000E-01     -1.172305000000000E+02      4.865570000000000E-01     -1.091875000000000E+02      6.305313000000000E-02     -8.986816000000000E+00
4830000000.000000      6.038513000000000E-01      1.229199000000000E+01      5.010681000000000E-01     -1.179140000000000E+02      4.858551000000000E-01     -1.102070000000000E+02      6.967926000000000E-02     -9.023926000000000E+00
4831000000.000000      6.043396000000000E-01      1.252539000000000E+01      5.016479000000000E-01     -1.187656000000000E+02      4.856110000000000E-01     -1.111289000000000E+02      7.911682000000000E-02     -1.058008000000000E+01
4832000000.000000      6.029663000000000E-01      1.264893000000000E+01      5.003662000000000E-01     -1.193203000000000E+02      4.830017000000000E-01     -1.122187000000000E+02      8.705902000000000E-02     -1.077783000000000E+01
4833000000.000000      6.023560000000000E-01      1.271924000000000E+01      5.008545000000000E-01     -1.200742000000000E+02      4.817505000000000E-01     -1.131406000000000E+02      9.505081000000000E-02     -1.264014000000000E+01
4834000000.000000      6.016846000000000E-01      1.282471000000000E+01      4.997253000000000E-01     -1.210312000000000E+02      4.806671000000000E-01     -1.141523000000000E+02      1.039734000000000E-01     -1.295605000000000E+01
4835000000.000000      6.038208000000000E-01      1.295117000000000E+01      4.990692000000000E-01     -1.218203000000000E+02      4.788818000000000E-01     -1.150977000000000E+02      1.121140000000000E-01     -1.481543000000000E+01
4836000000.000000      6.021423000000000E-01      1.315332000000000E+01      4.993439000000000E-01     -1.225273000000000E+02      4.762726000000000E-01     -1.159766000000000E+02      1.208420000000000E-01     -1.570361000000000E+01
4837000000.000000      6.038208000000000E-01      1.323975000000000E+01      4.980164000000000E-01     -1.234375000000000E+02      4.737396000000000E-01     -1.170820000000000E+02      1.287003000000000E-01     -1.643066000000000E+01
4838000000.000000      6.033630000000000E-01      1.339893000000000E+01      4.992981000000000E-01     -1.239375000000000E+02      4.726257000000000E-01     -1.179688000000000E+02      1.366882000000000E-01     -1.797363000000000E+01
4839000000.000000      6.074829000000000E-01      1.343604000000000E+01      4.982910000000000E-01     -1.249023000000000E+02      4.697418000000000E-01     -1.187617000000000E+02      1.449814000000000E-01     -1.929688000000000E+01
4840000000.000000      6.065369000000000E-01      1.338135000000000E+01      4.990234000000000E-01     -1.255000000000000E+02      4.685669000000000E-01     -1.196562000000000E+02      1.527557000000000E-01     -2.050488000000000E+01
4841000000.000000      6.063232000000000E-01      1.354883000000000E+01      4.964294000000000E-01     -1.266289000000000E+02      4.653625000000000E-01     -1.206914000000000E+02      1.598587000000000E-01     -2.129297000000000E+01
4842000000.000000      6.069641000000000E-01      1.378076000000000E+01      4.964600000000000E-01     -1.272266000000000E+02      4.616089000000000E-01     -1.215195000000000E+02      1.678238000000000E-01     -2.255371000000000E+01
4843000000.000000      6.086731000000000E-01      1.373535000000000E+01      4.959106000000000E-01     -1.282969000000000E+02      4.608612000000000E-01     -1.225859000000000E+02      1.741562000000000E-01     -2.380469000000000E+01
4844000000.000000      6.075745000000000E-01      1.375732000000000E+01      4.942017000000000E-01     -1.293125000000000E+02      4.566650000000000E-01     -1.232539000000000E+02      1.803970000000000E-01     -2.525683000000000E+01
4845000000.000000      6.085510000000000E-01      1.400732000000000E+01      4.930725000000000E-01     -1.298203000000000E+02      4.547424000000000E-01     -1.242656000000000E+02      1.883774000000000E-01     -2.629199000000000E+01
4846000000.000000      6.109314000000000E-01      1.406641000000000E+01      4.920959000000000E-01     -1.306953000000000E+02      4.522095000000000E-01     -1.252226000000000E+02      1.945877000000000E-01     -2.748828000000000E+01
4847000000.000000      6.113892000000000E-01      1.415967000000000E+01      4.920197000000000E-01     -1.313984000000000E+02      4.504547000000000E-01     -1.260195000000000E+02      2.009430000000000E-01     -2.884277000000000E+01
4848000000.000000      6.113281000000000E-01      1.401270000000000E+01      4.884949000000000E-01     -1.324531000000000E+02      4.468994000000000E-01     -1.267109000000000E+02      2.076111000000000E-01     -2.987890000000000E+01
4849000000.000000      6.116638000000000E-01      1.409131000000000E+01      4.879761000000000E-01     -1.331563000000000E+02      4.441376000000000E-01     -1.276563000000000E+02      2.127151000000000E-01     -3.101855000000000E+01
4850000000.000000      6.139221000000000E-01      1.429004000000000E+01      4.855499000000000E-01     -1.341328000000000E+02      4.410248000000000E-01     -1.283672000000000E+02      2.192154000000000E-01     -3.212500000000000E+01
4851000000.000000      6.147156000000000E-01      1.440820000000000E+01      4.845428000000000E-01     -1.350234000000000E+02      4.361115000000000E-01     -1.290859000000000E+02      2.262878000000000E-01     -3.320508000000000E+01
4852000000.000000      6.154175000000000E-01      1.437402000000000E+01      4.833374000000000E-01     -1.358125000000000E+02      4.353333000000000E-01     -1.298828000000000E+02      2.313232000000000E-01     -3.448242000000000E+01
4853000000.000000      6.181946000000000E-01      1.444971000000000E+01      4.794617000000000E-01     -1.365781000000000E+02      4.314117000000000E-01     -1.306406000000000E+02      2.364578000000000E-01     -3.564062000000000E+01
4854000000.000000      6.173401000000000E-01      1.444824000000000E+01      4.780579000000000E-01     -1.374531000000000E+02      4.280853000000000E-01     -1.316484000000000E+02      2.424774000000000E-01     -3.659375000000000E+01
4855000000.000000      6.188660000000000E-01      1.440820000000000E+01      4.754639000000000E-01     -1.381328000000000E+02      4.239044000000000E-01     -1.322031000000000E+02      2.463913000000000E-01     -3.789063000000000E+01
4856000000.000000      6.202393000000000E-01      1.443701000000000E+01      4.729156000000000E-01     -1.391406000000000E+02      4.215240000000000E-01     -1.329766000000000E+02      2.519226000000000E-01     -3.891211000000000E+01
4857000000.000000      6.222839000000000E-01      1.456787000000000E+01      4.706573000000000E-01     -1.401016000000000E+02      4.176025000000000E-01     -1.336562000000000E+02      2.565308000000000E-01     -4.016992000000000E+01
4858000000.000000      6.231384000000000E-01      1.463086000000000E+01      4.686279000000000E-01     -1.408984000000000E+02      4.133453000000000E-01     -1.344219000000000E+02      2.609558000000000E-01     -4.120703000000000E+01
4859000000.000000      6.229248000000000E-01      1.454590000000000E+01      4.656219000000000E-01     -1.417109000000000E+02      4.112854000000000E-01     -1.352187000000000E+02      2.664948000000000E-01     -4.236133000000000E+01
4860000000.000000      6.250610000000000E-01      1.472412000000000E+01      4.621124000000000E-01     -1.426797000000000E+02      4.066772000000000E-01     -1.358516000000000E+02      2.698517000000000E-01     -4.331640000000000E+01
4861000000.000000      6.247559000000000E-01      1.472852000000000E+01      4.591522000000000E-01     -1.434922000000000E+02      4.038849000000000E-01     -1.364375000000000E+02      2.739868000000000E-01     -4.462110000000000E+01
4862000000.000000      6.257019000000000E-01      1.459766000000000E+01      4.555664000000000E-01     -1.441562000000000E+02      4.000702000000000E-01     -1.371094000000000E+02      2.790222000000000E-01     -4.568945000000000E+01
4863000000.000000      6.289673000000000E-01      1.471045000000000E+01      4.500427000000000E-01     -1.450859000000000E+02      3.961029000000000E-01     -1.379531000000000E+02      2.825928000000000E-01     -4.653516000000000E+01
4864000000.000000      6.307373000000000E-01      1.459082000000000E+01      4.488068000000000E-01     -1.457266000000000E+02      3.933411000000000E-01     -1.383672000000000E+02      2.860107000000000E-01     -4.773242000000000E+01
4865000000.000000      6.312561000000000E-01      1.466650000000000E+01      4.452667000000000E-01     -1.464141000000000E+02      3.890381000000000E-01     -1.390781000000000E+02      2.903137000000000E-01     -4.864062000000000E+01
4866000000.000000      6.339417000000000E-01      1.454980000000000E+01      4.404449000000000E-01     -1.475469000000000E+02      3.865204000000000E-01     -1.398672000000000E+02      2.935638000000000E-01     -4.971093000000000E+01
4867000000.000000      6.322327000000000E-01      1.450977000000000E+01      4.359589000000000E-01     -1.483438000000000E+02      3.828583000000000E-01     -1.403516000000000E+02      2.974548000000000E-01     -5.078906000000000E+01
4868000000.000000      6.344910000000000E-01      1.447168000000000E+01      4.326324000000000E-01     -1.490078000000000E+02      3.789215000000000E-01     -1.410859000000000E+02      2.996216000000000E-01     -5.184765000000000E+01
4869000000.000000      6.336060000000000E-01      1.430127000000000E+01      4.281158000000000E-01     -1.498281000000000E+02      3.757477000000000E-01     -1.415078000000000E+02      3.030701000000000E-01     -5.298633000000000E+01
4870000000.000000      6.367493000000000E-01      1.443018000000000E+01      4.244080000000000E-01     -1.504609000000000E+02      3.723145000000000E-01     -1.422422000000000E+02      3.063812000000000E-01     -5.388476000000000E+01
4871000000.000000      6.376648000000000E-01      1.435742000000000E+01      4.197693000000000E-01     -1.512734000000000E+02      3.677063000000000E-01     -1.428125000000000E+02      3.086548000000000E-01     -5.501171000000000E+01
4872000000.000000      6.406250000000000E-01      1.446191000000000E+01      4.163208000000000E-01     -1.518203000000000E+02      3.635559000000000E-01     -1.435391000000000E+02      3.120575000000000E-01     -5.599218000000000E+01
4873000000.000000      6.406860000000000E-01      1.437402000000000E+01      4.125061000000000E-01     -1.527891000000000E+02      3.610687000000000E-01     -1.439609000000000E+02      3.140259000000000E-01     -5.707617000000000E+01
4874000000.000000      6.407471000000000E-01      1.428467000000000E+01      4.067841000000000E-01     -1.532500000000000E+02      3.574677000000000E-01     -1.445000000000000E+02      3.162231000000000E-01     -5.796484000000000E+01
4875000000.000000      6.436157000000000E-01      1.416113000000000E+01      4.029388000000000E-01     -1.539063000000000E+02      3.535156000000000E-01     -1.450156000000000E+02      3.188324000000000E-01     -5.904882000000000E+01
4876000000.000000      6.451416000000000E-01      1.438916000000000E+01      3.987274000000000E-01     -1.547109000000000E+02      3.493195000000000E-01     -1.455156000000000E+02      3.217010000000000E-01     -6.028710000000000E+01
4877000000.000000      6.461792000000000E-01      1.404834000000000E+01      3.948517000000000E-01     -1.553359000000000E+02      3.468170000000000E-01     -1.460703000000000E+02      3.235168000000000E-01     -6.119141000000000E+01
4878000000.000000      6.465149000000000E-01      1.410889000000000E+01      3.896637000000000E-01     -1.558750000000000E+02      3.432007000000000E-01     -1.463281000000000E+02      3.254700000000000E-01     -6.231835000000000E+01
4879000000.000000      6.498108000000000E-01      1.398145000000000E+01      3.845215000000000E-01     -1.563281000000000E+02      3.391724000000000E-01     -1.470625000000000E+02      3.277588000000000E-01     -6.323047000000000E+01
4880000000.000000      6.501770000000000E-01      1.392773000000000E+01      3.815613000000000E-01     -1.570156000000000E+02      3.370209000000000E-01     -1.474688000000000E+02      3.289642000000000E-01     -6.421484000000000E+01
4881000000.000000      6.510010000000000E-01      1.396875000000000E+01      3.772736000000000E-01     -1.574609000000000E+02      3.335571000000000E-01     -1.480391000000000E+02      3.305054000000000E-01     -6.526562000000000E+01
4882000000.000000      6.535950000000000E-01      1.389600000000000E+01      3.723602000000000E-01     -1.582344000000000E+02      3.293457000000000E-01     -1.484453000000000E+02      3.316498000000000E-01     -6.621484000000000E+01
