! Network Analyzer HP8722D
! Hewlett-Packard
! Data name: Linha & Wilkinson
! Saver's name: Rodrigo Anjos
! Comments: Teste da utilização de aquisição
continua pelo VNA HP8722D
! Time and date: 8/5/2025 16:23
!              Frequency                     S11                                                   S21                                                   S12                                                   S22
# HZ  S  MA R 50
4800000000.000000      4.920654000000000E-01     -1.671172000000000E+02      2.671661000000000E-01     -2.149219000000000E+01      2.629089000000000E-01     -1.425625000000000E+02      6.538086000000000E-01     -8.012110000000000E+01
4801000000.000000      4.937592000000000E-01     -1.671641000000000E+02      2.710724000000000E-01     -2.176270000000000E+01      2.664032000000000E-01     -1.427109000000000E+02      6.520691000000000E-01     -7.985937000000000E+01
4802000000.000000      4.950562000000000E-01     -1.672812000000000E+02      2.743835000000000E-01     -2.192676000000000E+01      2.708435000000000E-01     -1.426953000000000E+02      6.516418000000000E-01     -7.966797000000000E+01
4803000000.000000      4.969940000000000E-01     -1.673750000000000E+02      2.795563000000000E-01     -2.224219000000000E+01      2.736511000000000E-01     -1.428125000000000E+02      6.523438000000000E-01     -7.950781000000000E+01
4804000000.000000      4.998169000000000E-01     -1.673125000000000E+02      2.829742000000000E-01     -2.257617000000000E+01      2.773895000000000E-01     -1.430391000000000E+02      6.512146000000000E-01     -7.924999000000000E+01
4805000000.000000      5.025940000000000E-01     -1.674141000000000E+02      2.867889000000000E-01     -2.293945000000000E+01      2.804871000000000E-01     -1.430391000000000E+02      6.519775000000000E-01     -7.906640000000000E+01
4806000000.000000      5.042114000000000E-01     -1.673437000000000E+02      2.903748000000000E-01     -2.334375000000000E+01      2.832031000000000E-01     -1.431015000000000E+02      6.516113000000000E-01     -7.889453000000000E+01
4807000000.000000      5.075684000000000E-01     -1.674062000000000E+02      2.947998000000000E-01     -2.362402000000000E+01      2.875977000000000E-01     -1.435000000000000E+02      6.507874000000000E-01     -7.873828000000000E+01
4808000000.000000      5.103455000000000E-01     -1.673359000000000E+02      2.988892000000000E-01     -2.393457000000000E+01      2.903748000000000E-01     -1.435859000000000E+02      6.503601000000000E-01     -7.848437000000000E+01
4809000000.000000      5.129089000000000E-01     -1.673984000000000E+02      3.020172000000000E-01     -2.445605000000000E+01      2.937317000000000E-01     -1.437891000000000E+02      6.519470000000000E-01     -7.828515000000000E+01
4810000000.000000      5.163269000000000E-01     -1.674062000000000E+02      3.065338000000000E-01     -2.468164000000000E+01      2.976227000000000E-01     -1.438437000000000E+02      6.532288000000000E-01     -7.818749000000000E+01
4811000000.000000      5.200806000000000E-01     -1.673672000000000E+02      3.104248000000000E-01     -2.522363000000000E+01      3.013306000000000E-01     -1.439375000000000E+02      6.538696000000000E-01     -7.787109000000000E+01
4812000000.000000      5.240784000000000E-01     -1.673359000000000E+02      3.134613000000000E-01     -2.562207000000000E+01      3.038788000000000E-01     -1.441015000000000E+02      6.536255000000000E-01     -7.778515000000000E+01
4813000000.000000      5.267944000000000E-01     -1.672734000000000E+02      3.173218000000000E-01     -2.596386000000000E+01      3.063354000000000E-01     -1.441797000000000E+02      6.550598000000000E-01     -7.753906000000000E+01
4814000000.000000      5.292969000000000E-01     -1.673750000000000E+02      3.200836000000000E-01     -2.647754000000000E+01      3.096313000000000E-01     -1.445625000000000E+02      6.572571000000000E-01     -7.739843000000000E+01
4815000000.000000      5.341492000000000E-01     -1.672344000000000E+02      3.235168000000000E-01     -2.690039000000000E+01      3.125153000000000E-01     -1.446094000000000E+02      6.569519000000000E-01     -7.718750000000000E+01
4816000000.000000      5.389709000000000E-01     -1.671875000000000E+02      3.276672000000000E-01     -2.711621000000000E+01      3.172302000000000E-01     -1.448828000000000E+02      6.591797000000000E-01     -7.703515000000000E+01
4817000000.000000      5.435791000000000E-01     -1.670781000000000E+02      3.307343000000000E-01     -2.778320000000000E+01      3.190613000000000E-01     -1.451172000000000E+02      6.603088000000000E-01     -7.690234000000000E+01
4818000000.000000      5.478821000000000E-01     -1.671641000000000E+02      3.336334000000000E-01     -2.823242000000000E+01      3.220520000000000E-01     -1.451953000000000E+02      6.619263000000000E-01     -7.688281000000000E+01
4819000000.000000      5.529480000000000E-01     -1.670703000000000E+02      3.367157000000000E-01     -2.870898000000000E+01      3.236237000000000E-01     -1.454609000000000E+02      6.645508000000000E-01     -7.674218000000000E+01
4820000000.000000      5.557251000000000E-01     -1.670391000000000E+02      3.398132000000000E-01     -2.910840000000000E+01      3.276215000000000E-01     -1.454922000000000E+02      6.659851000000000E-01     -7.653906000000000E+01
4821000000.000000      5.622864000000000E-01     -1.669141000000000E+02      3.431854000000000E-01     -2.961914000000000E+01      3.291779000000000E-01     -1.458359000000000E+02      6.670532000000000E-01     -7.645702000000000E+01
4822000000.000000      5.686035000000000E-01     -1.669219000000000E+02      3.463745000000000E-01     -3.008886000000000E+01      3.318024000000000E-01     -1.460391000000000E+02      6.706543000000000E-01     -7.628124000000000E+01
4823000000.000000      5.721436000000000E-01     -1.668359000000000E+02      3.488159000000000E-01     -3.064453000000000E+01      3.348236000000000E-01     -1.460625000000000E+02      6.725464000000000E-01     -7.621094000000000E+01
4824000000.000000      5.794678000000000E-01     -1.668437000000000E+02      3.518372000000000E-01     -3.113574000000000E+01      3.377228000000000E-01     -1.464375000000000E+02      6.755981000000000E-01     -7.603516000000000E+01
4825000000.000000      5.843506000000000E-01     -1.667031000000000E+02      3.544464000000000E-01     -3.149511000000000E+01      3.405762000000000E-01     -1.465625000000000E+02      6.786499000000000E-01     -7.599218000000000E+01
4826000000.000000      5.906372000000000E-01     -1.666406000000000E+02      3.587036000000000E-01     -3.216406000000000E+01      3.416901000000000E-01     -1.467656000000000E+02      6.799927000000000E-01     -7.591797000000000E+01
4827000000.000000      5.966492000000000E-01     -1.665547000000000E+02      3.605347000000000E-01     -3.248828000000000E+01      3.447418000000000E-01     -1.468906000000000E+02      6.833496000000000E-01     -7.588281000000000E+01
4828000000.000000      6.040039000000000E-01     -1.665390000000000E+02      3.630676000000000E-01     -3.322266000000000E+01      3.465424000000000E-01     -1.470781000000000E+02      6.872559000000000E-01     -7.568359000000000E+01
4829000000.000000      6.067810000000000E-01     -1.664375000000000E+02      3.642120000000000E-01     -3.375000000000000E+01      3.491821000000000E-01     -1.473438000000000E+02      6.900024000000000E-01     -7.564062000000000E+01
4830000000.000000      6.143494000000000E-01     -1.663828000000000E+02      3.672333000000000E-01     -3.421289000000000E+01      3.512268000000000E-01     -1.473984000000000E+02      6.921387000000000E-01     -7.566015000000000E+01
4831000000.000000      6.202393000000000E-01     -1.663203000000000E+02      3.687592000000000E-01     -3.487305000000000E+01      3.532410000000000E-01     -1.476797000000000E+02      6.969299000000000E-01     -7.569921000000000E+01
4832000000.000000      6.287842000000000E-01     -1.662109000000000E+02      3.717804000000000E-01     -3.533594000000000E+01      3.552704000000000E-01     -1.479453000000000E+02      6.986694000000000E-01     -7.557422000000000E+01
4833000000.000000      6.352539000000000E-01     -1.663359000000000E+02      3.740234000000000E-01     -3.589844000000000E+01      3.574371000000000E-01     -1.481797000000000E+02      7.030029000000000E-01     -7.563281000000000E+01
4834000000.000000      6.413269000000000E-01     -1.662578000000000E+02      3.752899000000000E-01     -3.642383000000000E+01      3.597412000000000E-01     -1.483750000000000E+02      7.058716000000000E-01     -7.546484000000000E+01
4835000000.000000      6.478271000000000E-01     -1.661953000000000E+02      3.774414000000000E-01     -3.701562000000000E+01      3.626099000000000E-01     -1.484922000000000E+02      7.090454000000000E-01     -7.549999000000000E+01
4836000000.000000      6.562500000000000E-01     -1.661094000000000E+02      3.797760000000000E-01     -3.741015000000000E+01      3.637390000000000E-01     -1.486406000000000E+02      7.131348000000000E-01     -7.537890000000000E+01
4837000000.000000      6.626282000000000E-01     -1.660156000000000E+02      3.807526000000000E-01     -3.842382000000000E+01      3.649445000000000E-01     -1.488672000000000E+02      7.160950000000000E-01     -7.536718000000000E+01
4838000000.000000      6.698914000000000E-01     -1.661016000000000E+02      3.829803000000000E-01     -3.862695000000000E+01      3.675232000000000E-01     -1.490547000000000E+02      7.212219000000000E-01     -7.537109000000000E+01
4839000000.000000      6.771851000000000E-01     -1.659688000000000E+02      3.834839000000000E-01     -3.911328000000000E+01      3.692780000000000E-01     -1.491641000000000E+02      7.238770000000000E-01     -7.528515000000000E+01
4840000000.000000      6.829834000000000E-01     -1.660078000000000E+02      3.843536000000000E-01     -3.969531000000000E+01      3.701782000000000E-01     -1.494453000000000E+02      7.282715000000000E-01     -7.535546000000000E+01
4841000000.000000      6.909485000000000E-01     -1.660469000000000E+02      3.859100000000000E-01     -4.047071000000000E+01      3.724823000000000E-01     -1.495625000000000E+02      7.326965000000000E-01     -7.532031000000000E+01
4842000000.000000      6.981201000000000E-01     -1.659531000000000E+02      3.881073000000000E-01     -4.080078000000000E+01      3.738708000000000E-01     -1.497500000000000E+02      7.367859000000000E-01     -7.536718000000000E+01
4843000000.000000      7.044678000000000E-01     -1.660391000000000E+02      3.880310000000000E-01     -4.141015000000000E+01      3.760071000000000E-01     -1.499141000000000E+02      7.407532000000000E-01     -7.533984000000000E+01
4844000000.000000      7.119141000000000E-01     -1.659688000000000E+02      3.891754000000000E-01     -4.189258000000000E+01      3.771362000000000E-01     -1.501250000000000E+02      7.446594000000000E-01     -7.529687000000000E+01
4845000000.000000      7.194519000000000E-01     -1.659375000000000E+02      3.893890000000000E-01     -4.248632000000000E+01      3.791046000000000E-01     -1.503047000000000E+02      7.496338000000000E-01     -7.532031000000000E+01
4846000000.000000      7.257996000000000E-01     -1.658828000000000E+02      3.905792000000000E-01     -4.297852000000000E+01      3.805542000000000E-01     -1.504219000000000E+02      7.534485000000000E-01     -7.533984000000000E+01
4847000000.000000      7.339478000000000E-01     -1.659531000000000E+02      3.912659000000000E-01     -4.345508000000000E+01      3.822937000000000E-01     -1.507344000000000E+02      7.576599000000000E-01     -7.546484000000000E+01
4848000000.000000      7.415466000000000E-01     -1.659375000000000E+02      3.906403000000000E-01     -4.377930000000000E+01      3.831787000000000E-01     -1.507578000000000E+02      7.619629000000000E-01     -7.541406000000000E+01
4849000000.000000      7.478638000000000E-01     -1.661719000000000E+02      3.925018000000000E-01     -4.467773000000000E+01      3.850555000000000E-01     -1.509297000000000E+02      7.681885000000000E-01     -7.544531000000000E+01
4850000000.000000      7.549744000000000E-01     -1.659765000000000E+02      3.923492000000000E-01     -4.506055000000000E+01      3.858643000000000E-01     -1.511094000000000E+02      7.704773000000000E-01     -7.544922000000000E+01
4851000000.000000      7.616882000000000E-01     -1.659688000000000E+02      3.929443000000000E-01     -4.572266000000000E+01      3.871460000000000E-01     -1.512891000000000E+02      7.770081000000000E-01     -7.548828000000000E+01
4852000000.000000      7.687683000000000E-01     -1.660625000000000E+02      3.932343000000000E-01     -4.619336000000000E+01      3.892975000000000E-01     -1.513203000000000E+02      7.806396000000000E-01     -7.551562000000000E+01
4853000000.000000      7.763367000000000E-01     -1.660234000000000E+02      3.914032000000000E-01     -4.662305000000000E+01      3.905792000000000E-01     -1.515156000000000E+02      7.847900000000000E-01     -7.566406000000000E+01
4854000000.000000      7.815247000000000E-01     -1.661094000000000E+02      3.924103000000000E-01     -4.722265000000000E+01      3.919525000000000E-01     -1.517187000000000E+02      7.891846000000000E-01     -7.564453000000000E+01
4855000000.000000      7.861938000000000E-01     -1.660547000000000E+02      3.915710000000000E-01     -4.753125000000000E+01      3.925171000000000E-01     -1.517578000000000E+02      7.929993000000000E-01     -7.567577000000000E+01
4856000000.000000      7.944031000000000E-01     -1.660781000000000E+02      3.914642000000000E-01     -4.792382000000000E+01      3.934479000000000E-01     -1.519844000000000E+02      7.985840000000000E-01     -7.571875000000000E+01
4857000000.000000      8.007813000000000E-01     -1.661875000000000E+02      3.919220000000000E-01     -4.843359000000000E+01      3.945770000000000E-01     -1.521172000000000E+02      8.034363000000000E-01     -7.573047000000000E+01
4858000000.000000      8.030396000000000E-01     -1.661562000000000E+02      3.904724000000000E-01     -4.894336000000000E+01      3.957672000000000E-01     -1.523281000000000E+02      8.075867000000000E-01     -7.598827000000000E+01
4859000000.000000      8.122253000000000E-01     -1.661719000000000E+02      3.905029000000000E-01     -4.940820000000000E+01      3.966980000000000E-01     -1.525000000000000E+02      8.150635000000000E-01     -7.602734000000000E+01
4860000000.000000      8.180542000000000E-01     -1.661406000000000E+02      3.903656000000000E-01     -4.975586000000000E+01      3.974762000000000E-01     -1.526094000000000E+02      8.165894000000000E-01     -7.592187000000000E+01
4861000000.000000      8.238831000000000E-01     -1.661172000000000E+02      3.889008000000000E-01     -5.030273000000000E+01      3.992004000000000E-01     -1.527500000000000E+02      8.217468000000000E-01     -7.601171000000000E+01
4862000000.000000      8.305054000000000E-01     -1.663750000000000E+02      3.881073000000000E-01     -5.066992000000000E+01      4.002380000000000E-01     -1.528437000000000E+02      8.284912000000000E-01     -7.615624000000000E+01
4863000000.000000      8.347778000000000E-01     -1.662578000000000E+02      3.860931000000000E-01     -5.126953000000000E+01      4.013062000000000E-01     -1.530234000000000E+02      8.326111000000000E-01     -7.619531000000000E+01
4864000000.000000      8.397827000000000E-01     -1.662578000000000E+02      3.859711000000000E-01     -5.140625000000000E+01      4.017029000000000E-01     -1.530859000000000E+02      8.363647000000000E-01     -7.626171000000000E+01
4865000000.000000      8.433838000000000E-01     -1.664375000000000E+02      3.849487000000000E-01     -5.188477000000000E+01      4.019470000000000E-01     -1.533516000000000E+02      8.412170000000000E-01     -7.634375000000000E+01
4866000000.000000      8.485107000000000E-01     -1.662500000000000E+02      3.829956000000000E-01     -5.216210000000000E+01      4.032745000000000E-01     -1.534453000000000E+02      8.457031000000000E-01     -7.637890000000000E+01
4867000000.000000      8.542175000000000E-01     -1.662422000000000E+02      3.832245000000000E-01     -5.264843000000000E+01      4.036865000000000E-01     -1.536094000000000E+02      8.525391000000000E-01     -7.645702000000000E+01
4868000000.000000      8.573914000000000E-01     -1.662891000000000E+02      3.829346000000000E-01     -5.300390000000000E+01      4.046936000000000E-01     -1.537891000000000E+02      8.554077000000000E-01     -7.663671000000000E+01
4869000000.000000      8.603821000000000E-01     -1.662812000000000E+02      3.801575000000000E-01     -5.338085000000000E+01      4.047241000000000E-01     -1.538906000000000E+02      8.607788000000000E-01     -7.675390000000000E+01
4870000000.000000      8.637695000000000E-01     -1.662969000000000E+02      3.797455000000000E-01     -5.341797000000000E+01      4.055634000000000E-01     -1.541563000000000E+02      8.654785000000000E-01     -7.670312000000000E+01
4871000000.000000      8.714294000000000E-01     -1.663203000000000E+02      3.777924000000000E-01     -5.400976000000000E+01      4.054565000000000E-01     -1.542734000000000E+02      8.687134000000000E-01     -7.696875000000000E+01
4872000000.000000      8.736877000000000E-01     -1.662812000000000E+02      3.759918000000000E-01     -5.416016000000000E+01      4.062347000000000E-01     -1.545781000000000E+02      8.724060000000000E-01     -7.710546000000000E+01
4873000000.000000      8.760071000000000E-01     -1.661484000000000E+02      3.748627000000000E-01     -5.444921000000000E+01      4.061737000000000E-01     -1.545234000000000E+02      8.763123000000000E-01     -7.716015000000000E+01
4874000000.000000      8.775330000000000E-01     -1.661719000000000E+02      3.730316000000000E-01     -5.473437000000000E+01      4.075775000000000E-01     -1.546719000000000E+02      8.804321000000000E-01     -7.707421000000000E+01
4875000000.000000      8.822937000000000E-01     -1.662656000000000E+02      3.719025000000000E-01     -5.486523000000000E+01      4.075775000000000E-01     -1.549219000000000E+02      8.842468000000000E-01     -7.733984000000000E+01
4876000000.000000      8.820801000000000E-01     -1.663203000000000E+02      3.700867000000000E-01     -5.529297000000000E+01      4.067383000000000E-01     -1.549922000000000E+02      8.890076000000000E-01     -7.755077000000000E+01
4877000000.000000      8.841553000000000E-01     -1.661172000000000E+02      3.689728000000000E-01     -5.541992000000000E+01      4.078369000000000E-01     -1.552422000000000E+02      8.928223000000000E-01     -7.767578000000000E+01
4878000000.000000      8.897400000000000E-01     -1.660391000000000E+02      3.674164000000000E-01     -5.565039000000000E+01      4.078827000000000E-01     -1.552422000000000E+02      8.980408000000000E-01     -7.778906000000000E+01
4879000000.000000      8.902283000000000E-01     -1.662031000000000E+02      3.653412000000000E-01     -5.583202000000000E+01      4.074554000000000E-01     -1.554609000000000E+02      9.003601000000000E-01     -7.776172000000000E+01
4880000000.000000      8.945007000000000E-01     -1.659297000000000E+02      3.642578000000000E-01     -5.597070000000000E+01      4.082184000000000E-01     -1.555000000000000E+02      9.038086000000000E-01     -7.792969000000000E+01
4881000000.000000      8.961487000000000E-01     -1.657969000000000E+02      3.640594000000000E-01     -5.604297000000000E+01      4.085693000000000E-01     -1.557422000000000E+02      9.079895000000000E-01     -7.789453000000000E+01
4882000000.000000      8.953857000000000E-01     -1.657578000000000E+02      3.618317000000000E-01     -5.636719000000000E+01      4.078827000000000E-01     -1.557734000000000E+02      9.118042000000000E-01     -7.813671000000000E+01
