! Network Analyzer HP8722D
! Hewlett-Packard
! Data name: Linha & Wilkinson
! Saver's name: Rodrigo Anjos
! Comments: Teste da utilização de aquisição
continua pelo VNA HP8722D
! Time and date: 8/5/2025 16:29
!              Frequency                     S11                                                   S21                                                   S12                                                   S22
# HZ  S  MA R 50
4800000000.000000      4.927673000000000E-01     -1.674531000000000E+02      2.618866000000000E-01     -2.066211000000000E+01      2.577362000000000E-01     -1.418203000000000E+02      6.520386000000000E-01     -8.020311000000000E+01
4801000000.000000      4.941559000000000E-01     -1.675078000000000E+02      2.655640000000000E-01     -2.089550000000000E+01      2.607117000000000E-01     -1.419688000000000E+02      6.503601000000000E-01     -7.997656000000000E+01
4802000000.000000      4.959412000000000E-01     -1.675859000000000E+02      2.692719000000000E-01     -2.115234000000000E+01      2.651367000000000E-01     -1.419688000000000E+02      6.499634000000000E-01     -7.967187000000000E+01
4803000000.000000      4.973602000000000E-01     -1.676250000000000E+02      2.742004000000000E-01     -2.158886000000000E+01      2.687683000000000E-01     -1.420312000000000E+02      6.494751000000000E-01     -7.951172000000000E+01
4804000000.000000      5.000916000000000E-01     -1.676563000000000E+02      2.773438000000000E-01     -2.176856000000000E+01      2.724457000000000E-01     -1.424062000000000E+02      6.489563000000000E-01     -7.921875000000000E+01
4805000000.000000      5.028992000000000E-01     -1.677187000000000E+02      2.813416000000000E-01     -2.216406000000000E+01      2.759094000000000E-01     -1.422734000000000E+02      6.484375000000000E-01     -7.919922000000000E+01
4806000000.000000      5.043945000000000E-01     -1.676563000000000E+02      2.859344000000000E-01     -2.238672000000000E+01      2.785034000000000E-01     -1.423437000000000E+02      6.484985000000000E-01     -7.900781000000000E+01
4807000000.000000      5.072937000000000E-01     -1.677109000000000E+02      2.895050000000000E-01     -2.276269000000000E+01      2.828369000000000E-01     -1.426953000000000E+02      6.485901000000000E-01     -7.873828000000000E+01
4808000000.000000      5.104065000000000E-01     -1.676172000000000E+02      2.938385000000000E-01     -2.298535000000000E+01      2.859802000000000E-01     -1.426875000000000E+02      6.473389000000000E-01     -7.848046000000000E+01
4809000000.000000      5.130005000000000E-01     -1.677031000000000E+02      2.974701000000000E-01     -2.363770000000000E+01      2.896271000000000E-01     -1.428750000000000E+02      6.488647000000000E-01     -7.839062000000000E+01
4810000000.000000      5.156555000000000E-01     -1.677187000000000E+02      3.012695000000000E-01     -2.377441000000000E+01      2.930908000000000E-01     -1.431250000000000E+02      6.502380000000000E-01     -7.808984000000000E+01
4811000000.000000      5.194092000000000E-01     -1.676328000000000E+02      3.053284000000000E-01     -2.433789000000000E+01      2.972565000000000E-01     -1.430547000000000E+02      6.492920000000000E-01     -7.791016000000000E+01
4812000000.000000      5.235901000000000E-01     -1.675625000000000E+02      3.086700000000000E-01     -2.477148000000000E+01      2.998505000000000E-01     -1.432812000000000E+02      6.508484000000000E-01     -7.773046000000000E+01
4813000000.000000      5.259705000000000E-01     -1.675469000000000E+02      3.120728000000000E-01     -2.502148000000000E+01      3.027496000000000E-01     -1.434219000000000E+02      6.517639000000000E-01     -7.752734000000000E+01
4814000000.000000      5.288086000000000E-01     -1.676641000000000E+02      3.157196000000000E-01     -2.549316000000000E+01      3.058777000000000E-01     -1.436094000000000E+02      6.522522000000000E-01     -7.741015000000000E+01
4815000000.000000      5.332947000000000E-01     -1.674766000000000E+02      3.185730000000000E-01     -2.591699000000000E+01      3.083801000000000E-01     -1.437891000000000E+02      6.536865000000000E-01     -7.716015000000000E+01
4816000000.000000      5.380859000000000E-01     -1.674062000000000E+02      3.230743000000000E-01     -2.619336000000000E+01      3.126068000000000E-01     -1.438672000000000E+02      6.552429000000000E-01     -7.708593000000000E+01
4817000000.000000      5.422668000000000E-01     -1.673047000000000E+02      3.267822000000000E-01     -2.678418000000000E+01      3.150940000000000E-01     -1.441172000000000E+02      6.563416000000000E-01     -7.686328000000000E+01
4818000000.000000      5.463867000000000E-01     -1.673047000000000E+02      3.288727000000000E-01     -2.721386000000000E+01      3.180695000000000E-01     -1.443203000000000E+02      6.570129000000000E-01     -7.678124000000000E+01
4819000000.000000      5.516663000000000E-01     -1.672734000000000E+02      3.323517000000000E-01     -2.764941000000000E+01      3.201141000000000E-01     -1.445937000000000E+02      6.606445000000000E-01     -7.674999000000000E+01
4820000000.000000      5.540466000000000E-01     -1.672188000000000E+02      3.356934000000000E-01     -2.819140000000000E+01      3.236389000000000E-01     -1.447109000000000E+02      6.624756000000000E-01     -7.649609000000000E+01
4821000000.000000      5.606995000000000E-01     -1.671719000000000E+02      3.393707000000000E-01     -2.863476000000000E+01      3.260193000000000E-01     -1.450156000000000E+02      6.641541000000000E-01     -7.645312000000000E+01
4822000000.000000      5.670471000000000E-01     -1.671328000000000E+02      3.420410000000000E-01     -2.915820000000000E+01      3.280334000000000E-01     -1.451719000000000E+02      6.665649000000000E-01     -7.626953000000000E+01
4823000000.000000      5.708618000000000E-01     -1.669922000000000E+02      3.452911000000000E-01     -2.963867000000000E+01      3.312225000000000E-01     -1.451406000000000E+02      6.679688000000000E-01     -7.617188000000000E+01
4824000000.000000      5.780640000000000E-01     -1.669609000000000E+02      3.481598000000000E-01     -3.023926000000000E+01      3.340302000000000E-01     -1.455000000000000E+02      6.717834000000000E-01     -7.601171000000000E+01
4825000000.000000      5.821533000000000E-01     -1.668516000000000E+02      3.509369000000000E-01     -3.051758000000000E+01      3.373260000000000E-01     -1.456328000000000E+02      6.736755000000000E-01     -7.586328000000000E+01
4826000000.000000      5.889587000000000E-01     -1.667891000000000E+02      3.535309000000000E-01     -3.124121000000000E+01      3.391266000000000E-01     -1.458594000000000E+02      6.762085000000000E-01     -7.587891000000000E+01
4827000000.000000      5.945435000000000E-01     -1.666484000000000E+02      3.567505000000000E-01     -3.164355000000000E+01      3.417664000000000E-01     -1.460078000000000E+02      6.793213000000000E-01     -7.570703000000000E+01
4828000000.000000      6.012878000000000E-01     -1.666484000000000E+02      3.594666000000000E-01     -3.212305000000000E+01      3.439941000000000E-01     -1.462344000000000E+02      6.827698000000000E-01     -7.558594000000000E+01
4829000000.000000      6.051636000000000E-01     -1.665625000000000E+02      3.607483000000000E-01     -3.266992000000000E+01      3.465118000000000E-01     -1.464531000000000E+02      6.856689000000000E-01     -7.554296000000000E+01
4830000000.000000      6.122742000000000E-01     -1.665078000000000E+02      3.637695000000000E-01     -3.320898000000000E+01      3.491516000000000E-01     -1.465234000000000E+02      6.881104000000000E-01     -7.548437000000000E+01
4831000000.000000      6.179504000000000E-01     -1.664219000000000E+02      3.661652000000000E-01     -3.382226000000000E+01      3.516083000000000E-01     -1.467500000000000E+02      6.914673000000000E-01     -7.539063000000000E+01
4832000000.000000      6.262817000000000E-01     -1.663281000000000E+02      3.689728000000000E-01     -3.440234000000000E+01      3.528900000000000E-01     -1.469844000000000E+02      6.947327000000000E-01     -7.534374000000000E+01
4833000000.000000      6.325684000000000E-01     -1.663516000000000E+02      3.713531000000000E-01     -3.481445000000000E+01      3.548584000000000E-01     -1.472656000000000E+02      6.987000000000000E-01     -7.533203000000000E+01
4834000000.000000      6.380310000000000E-01     -1.662969000000000E+02      3.722839000000000E-01     -3.540234000000000E+01      3.572540000000000E-01     -1.474141000000000E+02      7.017517000000000E-01     -7.522265000000000E+01
4835000000.000000      6.455994000000000E-01     -1.662422000000000E+02      3.744507000000000E-01     -3.599218000000000E+01      3.594971000000000E-01     -1.475937000000000E+02      7.047729000000000E-01     -7.528906000000000E+01
4836000000.000000      6.537781000000000E-01     -1.660938000000000E+02      3.768463000000000E-01     -3.651758000000000E+01      3.613892000000000E-01     -1.478203000000000E+02      7.085876000000000E-01     -7.518359000000000E+01
4837000000.000000      6.601257000000000E-01     -1.660312000000000E+02      3.787079000000000E-01     -3.735937000000000E+01      3.635712000000000E-01     -1.480547000000000E+02      7.124329000000000E-01     -7.507813000000000E+01
4838000000.000000      6.668396000000000E-01     -1.661016000000000E+02      3.804626000000000E-01     -3.759375000000000E+01      3.655396000000000E-01     -1.481562000000000E+02      7.158508000000000E-01     -7.510937000000000E+01
4839000000.000000      6.749268000000000E-01     -1.659531000000000E+02      3.818970000000000E-01     -3.816015000000000E+01      3.672180000000000E-01     -1.483359000000000E+02      7.203674000000000E-01     -7.505468000000000E+01
4840000000.000000      6.805420000000000E-01     -1.660234000000000E+02      3.824310000000000E-01     -3.867188000000000E+01      3.695374000000000E-01     -1.486641000000000E+02      7.238159000000000E-01     -7.512890000000000E+01
4841000000.000000      6.875610000000000E-01     -1.660469000000000E+02      3.851013000000000E-01     -3.946484000000000E+01      3.717804000000000E-01     -1.488594000000000E+02      7.285461000000000E-01     -7.502343000000000E+01
4842000000.000000      6.957703000000000E-01     -1.659297000000000E+02      3.857880000000000E-01     -3.983789000000000E+01      3.726501000000000E-01     -1.489141000000000E+02      7.335205000000000E-01     -7.497656000000000E+01
4843000000.000000      7.013855000000000E-01     -1.660469000000000E+02      3.859863000000000E-01     -4.039063000000000E+01      3.743286000000000E-01     -1.491094000000000E+02      7.364197000000000E-01     -7.505077000000000E+01
4844000000.000000      7.094727000000000E-01     -1.659219000000000E+02      3.870544000000000E-01     -4.087500000000000E+01      3.749695000000000E-01     -1.492812000000000E+02      7.405396000000000E-01     -7.507813000000000E+01
4845000000.000000      7.155762000000000E-01     -1.658594000000000E+02      3.878174000000000E-01     -4.151367000000000E+01      3.774567000000000E-01     -1.494844000000000E+02      7.454834000000000E-01     -7.505468000000000E+01
4846000000.000000      7.225952000000000E-01     -1.657969000000000E+02      3.888855000000000E-01     -4.182226000000000E+01      3.799133000000000E-01     -1.496016000000000E+02      7.495117000000000E-01     -7.510156000000000E+01
4847000000.000000      7.314148000000000E-01     -1.658437000000000E+02      3.898010000000000E-01     -4.245898000000000E+01      3.810883000000000E-01     -1.498203000000000E+02      7.548218000000000E-01     -7.510547000000000E+01
4848000000.000000      7.381897000000000E-01     -1.657734000000000E+02      3.900757000000000E-01     -4.293945000000000E+01      3.825684000000000E-01     -1.499219000000000E+02      7.579956000000000E-01     -7.512500000000000E+01
4849000000.000000      7.452087000000000E-01     -1.660469000000000E+02      3.913422000000000E-01     -4.367773000000000E+01      3.836517000000000E-01     -1.502187000000000E+02      7.633362000000000E-01     -7.506640000000000E+01
4850000000.000000      7.523193000000000E-01     -1.658281000000000E+02      3.912506000000000E-01     -4.406446000000000E+01      3.849182000000000E-01     -1.503125000000000E+02      7.681274000000000E-01     -7.500000000000000E+01
4851000000.000000      7.589417000000000E-01     -1.658281000000000E+02      3.920898000000000E-01     -4.466992000000000E+01      3.867798000000000E-01     -1.504453000000000E+02      7.733154000000000E-01     -7.510156000000000E+01
4852000000.000000      7.663574000000000E-01     -1.659062000000000E+02      3.915863000000000E-01     -4.525976000000000E+01      3.881531000000000E-01     -1.505703000000000E+02      7.767944000000000E-01     -7.516796000000000E+01
4853000000.000000      7.723083000000000E-01     -1.659141000000000E+02      3.903046000000000E-01     -4.571289000000000E+01      3.900452000000000E-01     -1.508125000000000E+02      7.821655000000000E-01     -7.536327000000000E+01
4854000000.000000      7.786255000000000E-01     -1.659062000000000E+02      3.921967000000000E-01     -4.634375000000000E+01      3.907623000000000E-01     -1.510078000000000E+02      7.873230000000000E-01     -7.522265000000000E+01
4855000000.000000      7.846375000000000E-01     -1.659375000000000E+02      3.907471000000000E-01     -4.664648000000000E+01      3.919983000000000E-01     -1.510859000000000E+02      7.904968000000000E-01     -7.524219000000000E+01
4856000000.000000      7.924500000000000E-01     -1.658750000000000E+02      3.912354000000000E-01     -4.703125000000000E+01      3.932037000000000E-01     -1.512891000000000E+02      7.969055000000000E-01     -7.540234000000000E+01
4857000000.000000      7.979736000000000E-01     -1.659297000000000E+02      3.911438000000000E-01     -4.758789000000000E+01      3.941040000000000E-01     -1.514141000000000E+02      8.006287000000000E-01     -7.546093000000000E+01
4858000000.000000      8.012390000000000E-01     -1.660391000000000E+02      3.904266000000000E-01     -4.809179000000000E+01      3.954010000000000E-01     -1.515547000000000E+02      8.048096000000000E-01     -7.558984000000000E+01
4859000000.000000      8.086548000000000E-01     -1.660469000000000E+02      3.898315000000000E-01     -4.857226000000000E+01      3.962860000000000E-01     -1.518047000000000E+02      8.110046000000000E-01     -7.564453000000000E+01
4860000000.000000      8.191223000000000E-01     -1.660234000000000E+02      3.895569000000000E-01     -4.893359000000000E+01      3.966980000000000E-01     -1.519219000000000E+02      8.147583000000000E-01     -7.554688000000000E+01
4861000000.000000      8.221436000000000E-01     -1.659297000000000E+02      3.897400000000000E-01     -4.958008000000000E+01      3.987732000000000E-01     -1.520859000000000E+02      8.193359000000000E-01     -7.570703000000000E+01
4862000000.000000      8.284912000000000E-01     -1.659922000000000E+02      3.883820000000000E-01     -4.983984000000000E+01      3.996429000000000E-01     -1.522109000000000E+02      8.249207000000000E-01     -7.571875000000000E+01
4863000000.000000      8.297424000000000E-01     -1.660000000000000E+02      3.863983000000000E-01     -5.034765000000000E+01      4.004364000000000E-01     -1.522656000000000E+02      8.302917000000000E-01     -7.578125000000000E+01
4864000000.000000      8.382874000000000E-01     -1.660078000000000E+02      3.864288000000000E-01     -5.065234000000000E+01      4.006805000000000E-01     -1.523828000000000E+02      8.337097000000000E-01     -7.594921000000000E+01
4865000000.000000      8.406677000000000E-01     -1.661875000000000E+02      3.848572000000000E-01     -5.102344000000000E+01      4.018402000000000E-01     -1.527031000000000E+02      8.390808000000000E-01     -7.599218000000000E+01
4866000000.000000      8.433838000000000E-01     -1.659844000000000E+02      3.835144000000000E-01     -5.140038000000000E+01      4.030762000000000E-01     -1.528203000000000E+02      8.436890000000000E-01     -7.594140000000000E+01
4867000000.000000      8.512573000000000E-01     -1.659531000000000E+02      3.835907000000000E-01     -5.206445000000000E+01      4.032898000000000E-01     -1.529766000000000E+02      8.489685000000000E-01     -7.612499000000000E+01
4868000000.000000      8.548584000000000E-01     -1.660000000000000E+02      3.821411000000000E-01     -5.226757000000000E+01      4.047089000000000E-01     -1.531172000000000E+02      8.526917000000000E-01     -7.616015000000000E+01
4869000000.000000      8.570557000000000E-01     -1.660703000000000E+02      3.807983000000000E-01     -5.266992000000000E+01      4.048004000000000E-01     -1.533281000000000E+02      8.574524000000000E-01     -7.641015000000000E+01
4870000000.000000      8.614807000000000E-01     -1.660859000000000E+02      3.797455000000000E-01     -5.276757000000000E+01      4.053192000000000E-01     -1.535000000000000E+02      8.618774000000000E-01     -7.629296000000000E+01
4871000000.000000      8.665161000000000E-01     -1.660469000000000E+02      3.783264000000000E-01     -5.331445000000000E+01      4.055786000000000E-01     -1.536328000000000E+02      8.657532000000000E-01     -7.649219000000000E+01
4872000000.000000      8.693237000000000E-01     -1.659688000000000E+02      3.761597000000000E-01     -5.338085000000000E+01      4.064636000000000E-01     -1.539453000000000E+02      8.722534000000000E-01     -7.667578000000000E+01
4873000000.000000      8.722534000000000E-01     -1.660234000000000E+02      3.749084000000000E-01     -5.377148000000000E+01      4.058228000000000E-01     -1.539922000000000E+02      8.738098000000000E-01     -7.667969000000000E+01
4874000000.000000      8.756409000000000E-01     -1.658906000000000E+02      3.737793000000000E-01     -5.420898000000000E+01      4.076538000000000E-01     -1.540234000000000E+02      8.800964000000000E-01     -7.666016000000000E+01
4875000000.000000      8.800964000000000E-01     -1.660156000000000E+02      3.727570000000000E-01     -5.432812000000000E+01      4.075317000000000E-01     -1.544062000000000E+02      8.842163000000000E-01     -7.694921000000000E+01
4876000000.000000      8.822021000000000E-01     -1.659062000000000E+02      3.711548000000000E-01     -5.452148000000000E+01      4.068909000000000E-01     -1.544531000000000E+02      8.876038000000000E-01     -7.708984000000000E+01
4877000000.000000      8.852234000000000E-01     -1.657500000000000E+02      3.695374000000000E-01     -5.471484000000000E+01      4.083099000000000E-01     -1.546641000000000E+02      8.922424000000000E-01     -7.718750000000000E+01
4878000000.000000      8.880615000000000E-01     -1.657187000000000E+02      3.684692000000000E-01     -5.504883000000000E+01      4.082947000000000E-01     -1.546719000000000E+02      8.970032000000000E-01     -7.737109000000000E+01
4879000000.000000      8.905029000000000E-01     -1.658281000000000E+02      3.662567000000000E-01     -5.522851000000000E+01      4.080505000000000E-01     -1.548594000000000E+02      8.996582000000000E-01     -7.730859000000000E+01
4880000000.000000      8.913574000000000E-01     -1.656875000000000E+02      3.650513000000000E-01     -5.535546000000000E+01      4.084320000000000E-01     -1.549844000000000E+02      9.026794000000000E-01     -7.753515000000000E+01
4881000000.000000      8.948975000000000E-01     -1.655781000000000E+02      3.648529000000000E-01     -5.547461000000000E+01      4.087067000000000E-01     -1.551641000000000E+02      9.069824000000000E-01     -7.765625000000000E+01
4882000000.000000      8.937683000000000E-01     -1.653672000000000E+02      3.618927000000000E-01     -5.583984000000000E+01      4.082184000000000E-01     -1.552578000000000E+02      9.092407000000000E-01     -7.769531000000000E+01
