! Network Analyzer HP8722D
! Hewlett-Packard
! Data name: Linha & Wilkinson
! Saver's name: Rodrigo Anjos
! Comments: Teste da utilização de aquisição
continua pelo VNA HP8722D
! Time and date: 8/5/2025 15:07
!              Frequency                     S11                                                   S21                                                   S12                                                   S22
# HZ  S  MA R 50
4800000000.000000      5.352783000000000E-01     -2.506445000000000E+01      3.687286000000000E-01     -1.498125000000000E+02      3.887482000000000E-01      9.252930000000000E+00      4.967194000000000E-01      8.775330000000000E-01
4801000000.000000      5.351257000000000E-01     -2.461133000000000E+01      3.730316000000000E-01     -1.500547000000000E+02      3.919373000000000E-01      8.895996000000000E+00      4.929199000000000E-01      7.621765000000000E-01
4802000000.000000      5.330200000000000E-01     -2.448047000000000E+01      3.762360000000000E-01     -1.503672000000000E+02      3.946075000000000E-01      9.121094000000000E+00      4.882660000000000E-01      1.185120000000000E+00
4803000000.000000      5.313110000000000E-01     -2.443554000000000E+01      3.819427000000000E-01     -1.508203000000000E+02      4.005890000000000E-01      8.809570000000000E+00      4.810486000000000E-01      9.928894000000000E-01
4804000000.000000      5.306396000000000E-01     -2.415234000000000E+01      3.850250000000000E-01     -1.512500000000000E+02      4.048767000000000E-01      8.591309000000000E+00      4.742737000000000E-01      1.352661000000000E+00
4805000000.000000      5.310059000000000E-01     -2.391797000000000E+01      3.887939000000000E-01     -1.517734000000000E+02      4.066620000000000E-01      8.477051000000000E+00      4.680786000000000E-01      1.307373000000000E+00
4806000000.000000      5.282288000000000E-01     -2.375195000000000E+01      3.926849000000000E-01     -1.521172000000000E+02      4.098358000000000E-01      8.365723000000000E+00      4.601593000000000E-01      1.443298000000000E+00
4807000000.000000      5.271606000000000E-01     -2.346972000000000E+01      3.955841000000000E-01     -1.526172000000000E+02      4.142914000000000E-01      8.159668000000000E+00      4.526978000000000E-01      1.660278000000000E+00
4808000000.000000      5.264587000000000E-01     -2.323242000000000E+01      4.001770000000000E-01     -1.528047000000000E+02      4.189758000000000E-01      8.275391000000000E+00      4.456329000000000E-01      1.925354000000000E+00
4809000000.000000      5.240784000000000E-01     -2.304590000000000E+01      4.041748000000000E-01     -1.534219000000000E+02      4.228363000000000E-01      7.789307000000000E+00      4.390717000000000E-01      2.221924000000000E+00
4810000000.000000      5.246887000000000E-01     -2.268066000000000E+01      4.082489000000000E-01     -1.536797000000000E+02      4.263916000000000E-01      7.823486000000000E+00      4.315491000000000E-01      2.135376000000000E+00
4811000000.000000      5.240173000000000E-01     -2.241211000000000E+01      4.116058000000000E-01     -1.542812000000000E+02      4.307861000000000E-01      7.632568000000000E+00      4.237213000000000E-01      2.587280000000000E+00
4812000000.000000      5.238647000000000E-01     -2.218554000000000E+01      4.150391000000000E-01     -1.546719000000000E+02      4.335632000000000E-01      7.591553000000000E+00      4.161987000000000E-01      2.544678000000000E+00
4813000000.000000      5.214539000000000E-01     -2.194531000000000E+01      4.181671000000000E-01     -1.551328000000000E+02      4.378815000000000E-01      7.436279000000000E+00      4.087219000000000E-01      3.109131000000000E+00
4814000000.000000      5.213623000000000E-01     -2.187988000000000E+01      4.223480000000000E-01     -1.555391000000000E+02      4.401245000000000E-01      7.218018000000000E+00      3.994904000000000E-01      3.283447000000000E+00
4815000000.000000      5.169983000000000E-01     -2.150586000000000E+01      4.243469000000000E-01     -1.560000000000000E+02      4.424744000000000E-01      7.226074000000000E+00      3.915710000000000E-01      3.592529000000000E+00
4816000000.000000      5.170288000000000E-01     -2.153809000000000E+01      4.285736000000000E-01     -1.564453000000000E+02      4.490356000000000E-01      7.147949000000000E+00      3.841553000000000E-01      3.898682000000000E+00
4817000000.000000      5.136414000000000E-01     -2.115918000000000E+01      4.315643000000000E-01     -1.569297000000000E+02      4.505005000000000E-01      6.712646000000000E+00      3.737793000000000E-01      4.335449000000000E+00
4818000000.000000      5.124207000000000E-01     -2.111621000000000E+01      4.340820000000000E-01     -1.574062000000000E+02      4.545593000000000E-01      6.649414000000000E+00      3.649292000000000E-01      4.685547000000000E+00
4819000000.000000      5.129395000000000E-01     -2.081641000000000E+01      4.368744000000000E-01     -1.578750000000000E+02      4.590759000000000E-01      6.583496000000000E+00      3.560944000000000E-01      4.721191000000000E+00
4820000000.000000      5.097351000000000E-01     -2.077441000000000E+01      4.399872000000000E-01     -1.581875000000000E+02      4.602814000000000E-01      6.394043000000000E+00      3.477631000000000E-01      5.478027000000000E+00
4821000000.000000      5.098877000000000E-01     -2.059570000000000E+01      4.433289000000000E-01     -1.588125000000000E+02      4.644775000000000E-01      6.102783000000000E+00      3.381958000000000E-01      6.020508000000000E+00
4822000000.000000      5.067749000000000E-01     -2.065722000000000E+01      4.448395000000000E-01     -1.591328000000000E+02      4.683380000000000E-01      5.983398000000000E+00      3.298950000000000E-01      6.269043000000000E+00
4823000000.000000      5.065918000000000E-01     -2.027442000000000E+01      4.485321000000000E-01     -1.596953000000000E+02      4.699402000000000E-01      5.966797000000000E+00      3.206787000000000E-01      6.875977000000000E+00
4824000000.000000      5.030823000000000E-01     -2.012890000000000E+01      4.504700000000000E-01     -1.601406000000000E+02      4.747314000000000E-01      5.753906000000000E+00      3.114014000000000E-01      7.440430000000000E+00
4825000000.000000      5.011902000000000E-01     -2.015332000000000E+01      4.529877000000000E-01     -1.606484000000000E+02      4.775391000000000E-01      5.775879000000000E+00      3.027496000000000E-01      8.246582000000000E+00
4826000000.000000      5.026855000000000E-01     -1.994336000000000E+01      4.559479000000000E-01     -1.610781000000000E+02      4.800873000000000E-01      5.361328000000000E+00      2.925262000000000E-01      8.872559000000000E+00
4827000000.000000      5.005188000000000E-01     -1.978320000000000E+01      4.574738000000000E-01     -1.613828000000000E+02      4.828033000000000E-01      5.269287000000000E+00      2.843170000000000E-01      9.653809000000000E+00
4828000000.000000      4.995728000000000E-01     -1.960156000000000E+01      4.605713000000000E-01     -1.619922000000000E+02      4.858551000000000E-01      5.326904000000000E+00      2.745514000000000E-01      1.024609000000000E+01
4829000000.000000      4.974670000000000E-01     -1.931738000000000E+01      4.630127000000000E-01     -1.625156000000000E+02      4.894104000000000E-01      5.130615000000000E+00      2.665100000000000E-01      1.155859000000000E+01
4830000000.000000      4.958801000000000E-01     -1.947949000000000E+01      4.644623000000000E-01     -1.629219000000000E+02      4.931946000000000E-01      4.826904000000000E+00      2.556305000000000E-01      1.260400000000000E+01
4831000000.000000      4.917755000000000E-01     -1.915332000000000E+01      4.666595000000000E-01     -1.634531000000000E+02      4.962616000000000E-01      4.782959000000000E+00      2.469330000000000E-01      1.344141000000000E+01
4832000000.000000      4.913177000000000E-01     -1.889453000000000E+01      4.687042000000000E-01     -1.637266000000000E+02      4.971466000000000E-01      4.471436000000000E+00      2.372742000000000E-01      1.513770000000000E+01
4833000000.000000      4.888153000000000E-01     -1.898730000000000E+01      4.705963000000000E-01     -1.641875000000000E+02      5.024109000000000E-01      4.316162000000000E+00      2.286911000000000E-01      1.629492000000000E+01
4834000000.000000      4.889832000000000E-01     -1.877344000000000E+01      4.719849000000000E-01     -1.646172000000000E+02      5.042725000000000E-01      4.285889000000000E+00      2.196884000000000E-01      1.800195000000000E+01
4835000000.000000      4.864197000000000E-01     -1.833105000000000E+01      4.738312000000000E-01     -1.652031000000000E+02      5.071106000000000E-01      3.953613000000000E+00      2.117615000000000E-01      1.938184000000000E+01
4836000000.000000      4.852142000000000E-01     -1.815820000000000E+01      4.748688000000000E-01     -1.655547000000000E+02      5.096436000000000E-01      3.971558000000000E+00      2.028961000000000E-01      2.147363000000000E+01
4837000000.000000      4.822235000000000E-01     -1.799609000000000E+01      4.762573000000000E-01     -1.662031000000000E+02      5.114746000000000E-01      3.595215000000000E+00      1.948547000000000E-01      2.355273000000000E+01
4838000000.000000      4.804535000000000E-01     -1.809375000000000E+01      4.790497000000000E-01     -1.663203000000000E+02      5.137939000000000E-01      3.592529000000000E+00      1.872253000000000E-01      2.556347000000000E+01
4839000000.000000      4.814453000000000E-01     -1.778613000000000E+01      4.802094000000000E-01     -1.668359000000000E+02      5.156860000000000E-01      3.507324000000000E+00      1.808243000000000E-01      2.782812000000000E+01
4840000000.000000      4.774323000000000E-01     -1.765723000000000E+01      4.820862000000000E-01     -1.673437000000000E+02      5.202332000000000E-01      3.291748000000000E+00      1.731262000000000E-01      3.019043000000000E+01
4841000000.000000      4.763184000000000E-01     -1.745215000000000E+01      4.834442000000000E-01     -1.677266000000000E+02      5.220032000000000E-01      3.173584000000000E+00      1.662979000000000E-01      3.349414000000000E+01
4842000000.000000      4.746704000000000E-01     -1.733594000000000E+01      4.841156000000000E-01     -1.681875000000000E+02      5.229187000000000E-01      3.050049000000000E+00      1.618958000000000E-01      3.678906000000000E+01
4843000000.000000      4.753876000000000E-01     -1.725000000000000E+01      4.861145000000000E-01     -1.686953000000000E+02      5.266418000000000E-01      2.852295000000000E+00      1.558762000000000E-01      4.018164000000000E+01
4844000000.000000      4.710541000000000E-01     -1.680566000000000E+01      4.866333000000000E-01     -1.690078000000000E+02      5.285645000000000E-01      2.481445000000000E+00      1.499557000000000E-01      4.360937000000000E+01
4845000000.000000      4.710236000000000E-01     -1.671191000000000E+01      4.873962000000000E-01     -1.693281000000000E+02      5.318298000000000E-01      2.341431000000000E+00      1.470184000000000E-01      4.724218000000000E+01
4846000000.000000      4.695587000000000E-01     -1.641016000000000E+01      4.883423000000000E-01     -1.698359000000000E+02      5.338745000000000E-01      2.142334000000000E+00      1.441193000000000E-01      5.140429000000000E+01
4847000000.000000      4.691010000000000E-01     -1.641113000000000E+01      4.903717000000000E-01     -1.701562000000000E+02      5.353394000000000E-01      2.070923000000000E+00      1.406097000000000E-01      5.541601000000000E+01
4848000000.000000      4.659424000000000E-01     -1.615137000000000E+01      4.896698000000000E-01     -1.705547000000000E+02      5.370789000000000E-01      1.852539000000000E+00      1.402740000000000E-01      5.973046000000000E+01
4849000000.000000      4.658356000000000E-01     -1.576563000000000E+01      4.916077000000000E-01     -1.709844000000000E+02      5.391541000000000E-01      1.663025000000000E+00      1.390839000000000E-01      6.414063000000000E+01
4850000000.000000      4.652710000000000E-01     -1.551709000000000E+01      4.920349000000000E-01     -1.713125000000000E+02      5.415955000000000E-01      1.439209000000000E+00      1.399765000000000E-01      6.823437000000000E+01
4851000000.000000      4.642487000000000E-01     -1.512451000000000E+01      4.942932000000000E-01     -1.717344000000000E+02      5.417786000000000E-01      1.358154000000000E+00      1.412735000000000E-01      7.205078000000000E+01
4852000000.000000      4.642944000000000E-01     -1.511621000000000E+01      4.941101000000000E-01     -1.720625000000000E+02      5.423889000000000E-01      1.088989000000000E+00      1.427994000000000E-01      7.601953000000000E+01
4853000000.000000      4.625702000000000E-01     -1.488281000000000E+01      4.939728000000000E-01     -1.724141000000000E+02      5.444031000000000E-01      1.047791000000000E+00      1.455994000000000E-01      7.980859000000000E+01
4854000000.000000      4.629669000000000E-01     -1.451465000000000E+01      4.953766000000000E-01     -1.728437000000000E+02      5.454407000000000E-01      8.692932000000000E-01      1.501083000000000E-01      8.305859000000000E+01
4855000000.000000      4.600830000000000E-01     -1.441553000000000E+01      4.960175000000000E-01     -1.732891000000000E+02      5.466614000000000E-01      7.868958000000000E-01      1.529236000000000E-01      8.698046000000000E+01
4856000000.000000      4.608612000000000E-01     -1.411475000000000E+01      4.967346000000000E-01     -1.735859000000000E+02      5.480042000000000E-01      4.367065000000000E-01      1.585999000000000E-01      8.994141000000000E+01
4857000000.000000      4.613342000000000E-01     -1.368115000000000E+01      4.987030000000000E-01     -1.737969000000000E+02      5.493164000000000E-01      3.337097000000000E-01      1.625519000000000E-01      9.280077000000000E+01
4858000000.000000      4.600830000000000E-01     -1.349561000000000E+01      4.994965000000000E-01     -1.742031000000000E+02      5.515137000000000E-01      1.936340000000000E-01      1.682968000000000E-01      9.543360000000000E+01
4859000000.000000      4.610748000000000E-01     -1.308496000000000E+01      4.997406000000000E-01     -1.744922000000000E+02      5.508118000000000E-01      8.514404000000000E-02      1.732254000000000E-01      9.748827000000000E+01
4860000000.000000      4.604797000000000E-01     -1.303125000000000E+01      5.001831000000000E-01     -1.748437000000000E+02      5.519714000000000E-01     -8.514404000000000E-02      1.801910000000000E-01      9.967577000000000E+01
4861000000.000000      4.621124000000000E-01     -1.256982000000000E+01      5.006409000000000E-01     -1.753125000000000E+02      5.532227000000000E-01     -2.815247000000000E-01      1.849899000000000E-01      1.018711000000000E+02
4862000000.000000      4.615936000000000E-01     -1.244629000000000E+01      5.026245000000000E-01     -1.755000000000000E+02      5.536804000000000E-01     -3.213501000000000E-01      1.920013000000000E-01      1.036875000000000E+02
4863000000.000000      4.623260000000000E-01     -1.174463000000000E+01      5.032043000000000E-01     -1.759844000000000E+02      5.525208000000000E-01     -5.603027000000000E-01      1.980667000000000E-01      1.047500000000000E+02
4864000000.000000      4.635620000000000E-01     -1.183252000000000E+01      5.033569000000000E-01     -1.762812000000000E+02      5.529785000000000E-01     -5.575562000000000E-01      2.048721000000000E-01      1.061055000000000E+02
4865000000.000000      4.669800000000000E-01     -1.139453000000000E+01      5.039063000000000E-01     -1.763828000000000E+02      5.543518000000000E-01     -6.468201000000000E-01      2.087708000000000E-01      1.074687000000000E+02
4866000000.000000      4.657898000000000E-01     -1.101660000000000E+01      5.042114000000000E-01     -1.771563000000000E+02      5.544739000000000E-01     -1.024475000000000E+00      2.173996000000000E-01      1.090664000000000E+02
4867000000.000000      4.663696000000000E-01     -1.078857000000000E+01      5.059509000000000E-01     -1.774688000000000E+02      5.532837000000000E-01     -1.032715000000000E+00      2.217789000000000E-01      1.099648000000000E+02
4868000000.000000      4.693146000000000E-01     -1.063770000000000E+01      5.056763000000000E-01     -1.777187000000000E+02      5.548706000000000E-01     -1.009399000000000E+00      2.291031000000000E-01      1.108594000000000E+02
4869000000.000000      4.703522000000000E-01     -1.040967000000000E+01      5.067749000000000E-01     -1.780937000000000E+02      5.551453000000000E-01     -1.171448000000000E+00      2.352905000000000E-01      1.118476000000000E+02
4870000000.000000      4.723511000000000E-01     -1.026855000000000E+01      5.084229000000000E-01     -1.782500000000000E+02      5.540466000000000E-01     -1.306030000000000E+00      2.414551000000000E-01      1.126172000000000E+02
4871000000.000000      4.740295000000000E-01     -9.905762000000000E+00      5.083923000000000E-01     -1.788516000000000E+02      5.542908000000000E-01     -1.330750000000000E+00      2.473221000000000E-01      1.130937000000000E+02
4872000000.000000      4.763031000000000E-01     -9.814941000000000E+00      5.097351000000000E-01     -1.790703000000000E+02      5.535278000000000E-01     -1.683655000000000E+00      2.538605000000000E-01      1.135234000000000E+02
4873000000.000000      4.800568000000000E-01     -9.246582000000000E+00      5.096436000000000E-01     -1.795391000000000E+02      5.526123000000000E-01     -1.661682000000000E+00      2.570801000000000E-01      1.143359000000000E+02
4874000000.000000      4.816284000000000E-01     -9.291992000000000E+00      5.091553000000000E-01     -1.799062000000000E+02      5.542603000000000E-01     -1.833374000000000E+00      2.635498000000000E-01      1.148320000000000E+02
4875000000.000000      4.833679000000000E-01     -9.018555000000000E+00      5.106506000000000E-01      1.797031000000000E+02      5.540771000000000E-01     -1.797668000000000E+00      2.691498000000000E-01      1.155156000000000E+02
4876000000.000000      4.863586000000000E-01     -8.607910000000000E+00      5.121765000000000E-01      1.793672000000000E+02      5.531311000000000E-01     -1.766052000000000E+00      2.759705000000000E-01      1.160820000000000E+02
4877000000.000000      4.878540000000000E-01     -8.700195000000000E+00      5.136719000000000E-01      1.790469000000000E+02      5.528870000000000E-01     -2.070923000000000E+00      2.791595000000000E-01      1.160586000000000E+02
4878000000.000000      4.901886000000000E-01     -8.472168000000000E+00      5.152893000000000E-01      1.788047000000000E+02      5.520325000000000E-01     -1.871826000000000E+00      2.830811000000000E-01      1.166328000000000E+02
4879000000.000000      4.953613000000000E-01     -8.249512000000000E+00      5.147400000000000E-01      1.784765000000000E+02      5.511475000000000E-01     -1.981689000000000E+00      2.895355000000000E-01      1.167656000000000E+02
4880000000.000000      4.985962000000000E-01     -7.951416000000000E+00      5.156250000000000E-01      1.778125000000000E+02      5.532532000000000E-01     -2.044922000000000E+00      2.940063000000000E-01      1.170000000000000E+02
4881000000.000000      4.993439000000000E-01     -8.190430000000000E+00      5.149231000000000E-01      1.776875000000000E+02      5.507813000000000E-01     -2.113525000000000E+00      2.978821000000000E-01      1.173438000000000E+02
4882000000.000000      5.039978000000000E-01     -7.845703000000000E+00      5.165100000000000E-01      1.771953000000000E+02      5.512695000000000E-01     -2.211060000000000E+00      3.032990000000000E-01      1.173476000000000E+02
