! Network Analyzer HP8722D
! Hewlett-Packard
! Data name: Linha & Wilkinson
! Saver's name: Rodrigo Anjos
! Comments: Teste da utilização de aquisição
continua pelo VNA HP8722D
! Time and date: 8/5/2025 15:37
!              Frequency                     S11                                                   S21                                                   S12                                                   S22
# HZ  S  MA R 50
4800000000.000000      9.515686000000000E-01      1.641016000000000E+02      4.441681000000000E-01      1.235469000000000E+02      4.394531000000000E-01      1.796582000000000E+01      9.517212000000000E-01     -3.726563000000000E+01
4801000000.000000      9.495850000000000E-01      1.640938000000000E+02      4.481354000000000E-01      1.229375000000000E+02      4.408569000000000E-01      1.746875000000000E+01      9.485168000000000E-01     -3.786328000000000E+01
4802000000.000000      9.495239000000000E-01      1.642812000000000E+02      4.491425000000000E-01      1.223867000000000E+02      4.419861000000000E-01      1.748535000000000E+01      9.449768000000000E-01     -3.816797000000000E+01
4803000000.000000      9.481506000000000E-01      1.641562000000000E+02      4.490051000000000E-01      1.221016000000000E+02      4.425964000000000E-01      1.711328000000000E+01      9.397278000000000E-01     -3.875586000000000E+01
4804000000.000000      9.485779000000000E-01      1.643203000000000E+02      4.516754000000000E-01      1.216484000000000E+02      4.448242000000000E-01      1.631836000000000E+01      9.350891000000000E-01     -3.912304000000000E+01
4805000000.000000      9.451904000000000E-01      1.641797000000000E+02      4.519958000000000E-01      1.210508000000000E+02      4.444885000000000E-01      1.631055000000000E+01      9.277649000000000E-01     -3.960742000000000E+01
4806000000.000000      9.445190000000000E-01      1.645000000000000E+02      4.549408000000000E-01      1.206992000000000E+02      4.417419000000000E-01      1.590527000000000E+01      9.233093000000000E-01     -4.022656000000000E+01
4807000000.000000      9.466248000000000E-01      1.645156000000000E+02      4.589081000000000E-01      1.201680000000000E+02      4.442139000000000E-01      1.568848000000000E+01      9.186401000000000E-01     -4.051367000000000E+01
4808000000.000000      9.450378000000000E-01      1.644844000000000E+02      4.617310000000000E-01      1.197109000000000E+02      4.447174000000000E-01      1.548242000000000E+01      9.136963000000000E-01     -4.101367000000000E+01
4809000000.000000      9.418640000000000E-01      1.645469000000000E+02      4.610748000000000E-01      1.190469000000000E+02      4.461975000000000E-01      1.499902000000000E+01      9.093933000000000E-01     -4.140234000000000E+01
4810000000.000000      9.391479000000000E-01      1.645547000000000E+02      4.626007000000000E-01      1.187773000000000E+02      4.464111000000000E-01      1.469531000000000E+01      9.037476000000000E-01     -4.199023000000000E+01
4811000000.000000      9.388123000000000E-01      1.647344000000000E+02      4.644165000000000E-01      1.180547000000000E+02      4.479523000000000E-01      1.462646000000000E+01      8.995361000000000E-01     -4.237500000000000E+01
4812000000.000000      9.378967000000000E-01      1.647500000000000E+02      4.668121000000000E-01      1.176172000000000E+02      4.476318000000000E-01      1.410645000000000E+01      8.922424000000000E-01     -4.297265000000000E+01
4813000000.000000      9.366760000000000E-01      1.647969000000000E+02      4.671021000000000E-01      1.171641000000000E+02      4.483795000000000E-01      1.402246000000000E+01      8.872986000000000E-01     -4.336328000000000E+01
4814000000.000000      9.318848000000000E-01      1.648594000000000E+02      4.708099000000000E-01      1.166758000000000E+02      4.492950000000000E-01      1.367920000000000E+01      8.815308000000000E-01     -4.388672000000000E+01
4815000000.000000      9.292297000000000E-01      1.649688000000000E+02      4.725037000000000E-01      1.160352000000000E+02      4.493103000000000E-01      1.344141000000000E+01      8.743286000000000E-01     -4.422071000000000E+01
4816000000.000000      9.298401000000000E-01      1.649453000000000E+02      4.738464000000000E-01      1.156211000000000E+02      4.512787000000000E-01      1.306104000000000E+01      8.700867000000000E-01     -4.472656000000000E+01
4817000000.000000      9.279785000000000E-01      1.650000000000000E+02      4.753723000000000E-01      1.148359000000000E+02      4.495697000000000E-01      1.281250000000000E+01      8.629761000000000E-01     -4.514844000000000E+01
4818000000.000000      9.252014000000000E-01      1.649922000000000E+02      4.767456000000000E-01      1.144180000000000E+02      4.504852000000000E-01      1.240039000000000E+01      8.569641000000000E-01     -4.563281000000000E+01
4819000000.000000      9.218445000000000E-01      1.650781000000000E+02      4.778748000000000E-01      1.137461000000000E+02      4.491730000000000E-01      1.187451000000000E+01      8.501892000000000E-01     -4.626172000000000E+01
4820000000.000000      9.162292000000000E-01      1.651719000000000E+02      4.780426000000000E-01      1.133555000000000E+02      4.505920000000000E-01      1.181689000000000E+01      8.439636000000000E-01     -4.654492000000000E+01
4821000000.000000      9.177551000000000E-01      1.650391000000000E+02      4.819183000000000E-01      1.124805000000000E+02      4.511414000000000E-01      1.154639000000000E+01      8.376465000000000E-01     -4.702148000000000E+01
4822000000.000000      9.186401000000000E-01      1.649688000000000E+02      4.850006000000000E-01      1.119023000000000E+02      4.499054000000000E-01      1.110156000000000E+01      8.325500000000000E-01     -4.764648000000000E+01
4823000000.000000      9.132080000000000E-01      1.651875000000000E+02      4.850769000000000E-01      1.114922000000000E+02      4.510345000000000E-01      1.106592000000000E+01      8.248901000000000E-01     -4.802539000000000E+01
4824000000.000000      9.113159000000000E-01      1.651953000000000E+02      4.855957000000000E-01      1.104961000000000E+02      4.523163000000000E-01      1.053418000000000E+01      8.180542000000000E-01     -4.848437000000000E+01
4825000000.000000      9.087830000000000E-01      1.653750000000000E+02      4.862671000000000E-01      1.101484000000000E+02      4.527740000000000E-01      1.016895000000000E+01      8.120728000000000E-01     -4.892383000000000E+01
4826000000.000000      9.055481000000000E-01      1.653437000000000E+02      4.903107000000000E-01      1.094258000000000E+02      4.513702000000000E-01      9.887695000000000E+00      8.053284000000000E-01     -4.941015000000000E+01
4827000000.000000      9.031067000000000E-01      1.654687000000000E+02      4.889069000000000E-01      1.088164000000000E+02      4.511108000000000E-01      9.724121000000000E+00      7.984314000000000E-01     -4.983398000000000E+01
4828000000.000000      9.012756000000000E-01      1.653984000000000E+02      4.910736000000000E-01      1.080664000000000E+02      4.514465000000000E-01      9.202148000000000E+00      7.918701000000000E-01     -5.051952000000000E+01
4829000000.000000      8.936157000000000E-01      1.655703000000000E+02      4.899597000000000E-01      1.073320000000000E+02      4.529419000000000E-01      8.895996000000000E+00      7.868042000000000E-01     -5.079492000000000E+01
4830000000.000000      8.927612000000000E-01      1.653828000000000E+02      4.907227000000000E-01      1.068789000000000E+02      4.527283000000000E-01      8.875488000000000E+00      7.774963000000000E-01     -5.115234000000000E+01
4831000000.000000      8.884583000000000E-01      1.654687000000000E+02      4.915619000000000E-01      1.058906000000000E+02      4.529724000000000E-01      8.483887000000000E+00      7.712708000000000E-01     -5.163671000000000E+01
4832000000.000000      8.881226000000000E-01      1.655547000000000E+02      4.930878000000000E-01      1.050430000000000E+02      4.512939000000000E-01      8.069336000000000E+00      7.648315000000000E-01     -5.214648000000000E+01
4833000000.000000      8.847961000000000E-01      1.653750000000000E+02      4.936676000000000E-01      1.046289000000000E+02      4.517975000000000E-01      7.673828000000000E+00      7.576904000000000E-01     -5.257813000000000E+01
4834000000.000000      8.780823000000000E-01      1.654063000000000E+02      4.938660000000000E-01      1.038594000000000E+02      4.533844000000000E-01      7.548828000000000E+00      7.492981000000000E-01     -5.293945000000000E+01
4835000000.000000      8.750610000000000E-01      1.655391000000000E+02      4.946899000000000E-01      1.030234000000000E+02      4.535370000000000E-01      7.309814000000000E+00      7.433167000000000E-01     -5.350976000000000E+01
4836000000.000000      8.753967000000000E-01      1.655937000000000E+02      4.916687000000000E-01      1.022031000000000E+02      4.523773000000000E-01      6.875977000000000E+00      7.351990000000000E-01     -5.377148000000000E+01
4837000000.000000      8.703613000000000E-01      1.656719000000000E+02      4.933472000000000E-01      1.013828000000000E+02      4.517212000000000E-01      6.291016000000000E+00      7.283020000000000E-01     -5.414648000000000E+01
4838000000.000000      8.660583000000000E-01      1.655156000000000E+02      4.933472000000000E-01      1.008476000000000E+02      4.518738000000000E-01      6.120605000000000E+00      7.215271000000000E-01     -5.465038000000000E+01
4839000000.000000      8.634644000000000E-01      1.656641000000000E+02      4.912415000000000E-01      1.000508000000000E+02      4.522552000000000E-01      5.606934000000000E+00      7.145081000000000E-01     -5.507813000000000E+01
4840000000.000000      8.574219000000000E-01      1.655937000000000E+02      4.897003000000000E-01      9.949219000000000E+01      4.518890000000000E-01      5.490234000000000E+00      7.066040000000000E-01     -5.545898000000000E+01
4841000000.000000      8.558044000000000E-01      1.655859000000000E+02      4.910736000000000E-01      9.842577000000000E+01      4.521332000000000E-01      5.026123000000000E+00      6.999512000000000E-01     -5.575195000000000E+01
4842000000.000000      8.513489000000000E-01      1.656328000000000E+02      4.897919000000000E-01      9.779686000000000E+01      4.512634000000000E-01      4.717041000000000E+00      6.931763000000000E-01     -5.614843000000000E+01
4843000000.000000      8.460388000000000E-01      1.656328000000000E+02      4.890594000000000E-01      9.700390000000000E+01      4.512939000000000E-01      4.214600000000000E+00      6.852722000000000E-01     -5.650195000000000E+01
4844000000.000000      8.423462000000000E-01      1.655313000000000E+02      4.880676000000000E-01      9.627342000000000E+01      4.505005000000000E-01      3.836914000000000E+00      6.765442000000000E-01     -5.683398000000000E+01
4845000000.000000      8.389893000000000E-01      1.656094000000000E+02      4.867096000000000E-01      9.581249000000000E+01      4.521027000000000E-01      3.525146000000000E+00      6.688843000000000E-01     -5.721289000000000E+01
4846000000.000000      8.373718000000000E-01      1.655547000000000E+02      4.838715000000000E-01      9.489061000000000E+01      4.517365000000000E-01      3.023926000000000E+00      6.616211000000000E-01     -5.750390000000000E+01
4847000000.000000      8.327332000000000E-01      1.656484000000000E+02      4.832611000000000E-01      9.421093000000000E+01      4.508972000000000E-01      2.614746000000000E+00      6.535645000000000E-01     -5.791992000000000E+01
4848000000.000000      8.301086000000000E-01      1.656094000000000E+02      4.812622000000000E-01      9.350000000000000E+01      4.507904000000000E-01      2.463623000000000E+00      6.448669000000000E-01     -5.825781000000000E+01
4849000000.000000      8.244019000000000E-01      1.654844000000000E+02      4.788666000000000E-01      9.250000000000000E+01      4.487915000000000E-01      2.029663000000000E+00      6.372070000000000E-01     -5.845312000000000E+01
4850000000.000000      8.200989000000000E-01      1.654219000000000E+02      4.778442000000000E-01      9.186327000000000E+01      4.484253000000000E-01      1.520203000000000E+00      6.293030000000000E-01     -5.865624000000000E+01
4851000000.000000      8.177185000000000E-01      1.654922000000000E+02      4.752350000000000E-01      9.108593000000000E+01      4.478149000000000E-01      1.248291000000000E+00      6.227722000000000E-01     -5.890625000000000E+01
4852000000.000000      8.132324000000000E-01      1.655156000000000E+02      4.729309000000000E-01      9.049608000000000E+01      4.475555000000000E-01      7.305908000000000E-01      6.146851000000000E-01     -5.926367000000000E+01
4853000000.000000      8.110657000000000E-01      1.657187000000000E+02      4.710541000000000E-01      8.985155000000000E+01      4.488373000000000E-01      1.318359000000000E-01      6.054993000000000E-01     -5.957617000000000E+01
4854000000.000000      8.066406000000000E-01      1.656406000000000E+02      4.686737000000000E-01      8.896093000000000E+01      4.462128000000000E-01     -3.158569000000000E-02      5.983582000000000E-01     -5.969336000000000E+01
4855000000.000000      8.013000000000000E-01      1.655469000000000E+02      4.651337000000000E-01      8.817577000000000E+01      4.465485000000000E-01     -5.644226000000000E-01      5.889893000000000E-01     -5.980663000000000E+01
4856000000.000000      7.979736000000000E-01      1.654922000000000E+02      4.631042000000000E-01      8.778124000000000E+01      4.457855000000000E-01     -1.128845000000000E+00      5.826416000000000E-01     -6.000586000000000E+01
4857000000.000000      7.940369000000000E-01      1.653359000000000E+02      4.623566000000000E-01      8.721483000000000E+01      4.431458000000000E-01     -1.532593000000000E+00      5.726929000000000E-01     -6.013281000000000E+01
4858000000.000000      7.895203000000000E-01      1.655078000000000E+02      4.582825000000000E-01      8.634375000000000E+01      4.430084000000000E-01     -2.002319000000000E+00      5.662537000000000E-01     -6.033593000000000E+01
4859000000.000000      7.873535000000000E-01      1.653828000000000E+02      4.548798000000000E-01      8.573828000000000E+01      4.424438000000000E-01     -2.392334000000000E+00      5.587769000000000E-01     -6.042969000000000E+01
4860000000.000000      7.843018000000000E-01      1.653516000000000E+02      4.516602000000000E-01      8.509766000000000E+01      4.412689000000000E-01     -2.975952000000000E+00      5.489807000000000E-01     -6.049999000000000E+01
4861000000.000000      7.828674000000000E-01      1.654609000000000E+02      4.514313000000000E-01      8.438671000000000E+01      4.413452000000000E-01     -3.445679000000000E+00      5.397034000000000E-01     -6.064062000000000E+01
4862000000.000000      7.764893000000000E-01      1.654375000000000E+02      4.478760000000000E-01      8.384766000000000E+01      4.410095000000000E-01     -3.808228000000000E+00      5.325928000000000E-01     -6.052734000000000E+01
4863000000.000000      7.734070000000000E-01      1.653516000000000E+02      4.425507000000000E-01      8.310938000000000E+01      4.400024000000000E-01     -4.452393000000000E+00      5.248108000000000E-01     -6.037695000000000E+01
4864000000.000000      7.709656000000000E-01      1.652891000000000E+02      4.431915000000000E-01      8.263281000000000E+01      4.369965000000000E-01     -4.850586000000000E+00      5.157166000000000E-01     -6.047852000000000E+01
4865000000.000000      7.639465000000000E-01      1.651016000000000E+02      4.384308000000000E-01      8.199610000000000E+01      4.359894000000000E-01     -5.375244000000000E+00      5.080872000000000E-01     -6.033789000000000E+01
4866000000.000000      7.613525000000000E-01      1.652969000000000E+02      4.351044000000000E-01      8.143749000000000E+01      4.353333000000000E-01     -6.026123000000000E+00      5.001831000000000E-01     -6.019726000000000E+01
4867000000.000000      7.583313000000000E-01      1.653359000000000E+02      4.322815000000000E-01      8.059765000000000E+01      4.338531000000000E-01     -6.505371000000000E+00      4.923096000000000E-01     -6.005664000000000E+01
4868000000.000000      7.572021000000000E-01      1.651406000000000E+02      4.286499000000000E-01      8.009375000000000E+01      4.327087000000000E-01     -6.940674000000000E+00      4.832916000000000E-01     -5.984375000000000E+01
4869000000.000000      7.528687000000000E-01      1.652422000000000E+02      4.256897000000000E-01      7.944140000000000E+01      4.298553000000000E-01     -7.700195000000000E+00      4.759979000000000E-01     -5.963281000000000E+01
4870000000.000000      7.492981000000000E-01      1.651797000000000E+02      4.232788000000000E-01      7.907031000000000E+01      4.290924000000000E-01     -8.132813000000000E+00      4.682007000000000E-01     -5.916016000000000E+01
4871000000.000000      7.464294000000000E-01      1.650469000000000E+02      4.195099000000000E-01      7.849999000000000E+01      4.258270000000000E-01     -8.798828000000000E+00      4.603729000000000E-01     -5.899414000000000E+01
4872000000.000000      7.471313000000000E-01      1.651484000000000E+02      4.165039000000000E-01      7.798437000000000E+01      4.244385000000000E-01     -9.536133000000000E+00      4.531097000000000E-01     -5.853125000000000E+01
4873000000.000000      7.402344000000000E-01      1.651250000000000E+02      4.122620000000000E-01      7.716797000000000E+01      4.232483000000000E-01     -9.930664000000000E+00      4.451447000000000E-01     -5.814843000000000E+01
4874000000.000000      7.380676000000000E-01      1.650703000000000E+02      4.107208000000000E-01      7.671875000000000E+01      4.219971000000000E-01     -1.041260000000000E+01      4.380798000000000E-01     -5.745898000000000E+01
4875000000.000000      7.376404000000000E-01      1.651562000000000E+02      4.066162000000000E-01      7.616796000000000E+01      4.195404000000000E-01     -1.110205000000000E+01      4.307556000000000E-01     -5.700000000000000E+01
4876000000.000000      7.327271000000000E-01      1.651172000000000E+02      4.035797000000000E-01      7.557812000000000E+01      4.169769000000000E-01     -1.158105000000000E+01      4.246063000000000E-01     -5.654491000000000E+01
4877000000.000000      7.331543000000000E-01      1.652812000000000E+02      4.008636000000000E-01      7.516406000000000E+01      4.144135000000000E-01     -1.221973000000000E+01      4.180450000000000E-01     -5.575390000000000E+01
4878000000.000000      7.301941000000000E-01      1.648516000000000E+02      3.972931000000000E-01      7.436328000000000E+01      4.122620000000000E-01     -1.271289000000000E+01      4.114075000000000E-01     -5.510742000000000E+01
4879000000.000000      7.274475000000000E-01      1.651641000000000E+02      3.942413000000000E-01      7.399219000000000E+01      4.090576000000000E-01     -1.324854000000000E+01      4.053650000000000E-01     -5.426758000000000E+01
4880000000.000000      7.256775000000000E-01      1.650391000000000E+02      3.897400000000000E-01      7.326172000000000E+01      4.069519000000000E-01     -1.400928000000000E+01      3.997040000000000E-01     -5.341601000000000E+01
4881000000.000000      7.232666000000000E-01      1.653281000000000E+02      3.880920000000000E-01      7.292969000000000E+01      4.048309000000000E-01     -1.457373000000000E+01      3.943787000000000E-01     -5.246679000000000E+01
4882000000.000000      7.213745000000000E-01      1.651484000000000E+02      3.852234000000000E-01      7.230469000000000E+01      4.025574000000000E-01     -1.519727000000000E+01      3.891449000000000E-01     -5.153906000000000E+01
