! Network Analyzer HP8722D
! Hewlett-Packard
! Data name: Linha & Wilkinson
! Saver's name: Rodrigo Anjos
! Comments: Teste da utilização de aquisição
continua pelo VNA HP8722D
! Time and date: 8/5/2025 15:47
!              Frequency                     S11                                                   S21                                                   S12                                                   S22
# HZ  S  MA R 50
4800000000.000000      5.373840000000000E-01     -1.098164000000000E+02      1.166077000000000E-01     -1.435703000000000E+02      1.166611000000000E-01     -8.773046000000000E+01      6.791992000000000E-01     -7.466797000000000E+01
4801000000.000000      5.373535000000000E-01     -1.105859000000000E+02      1.163673000000000E-01     -1.419453000000000E+02      1.164246000000000E-01     -8.595703000000000E+01      6.773682000000000E-01     -7.479687000000000E+01
4802000000.000000      5.356445000000000E-01     -1.111680000000000E+02      1.163445000000000E-01     -1.399531000000000E+02      1.163139000000000E-01     -8.399609000000000E+01      6.779480000000000E-01     -7.483203000000000E+01
4803000000.000000      5.364990000000000E-01     -1.120117000000000E+02      1.172905000000000E-01     -1.382422000000000E+02      1.167603000000000E-01     -8.224609000000000E+01      6.774597000000000E-01     -7.499609000000000E+01
4804000000.000000      5.354919000000000E-01     -1.125937000000000E+02      1.177406000000000E-01     -1.363594000000000E+02      1.177864000000000E-01     -8.042969000000000E+01      6.747437000000000E-01     -7.513281000000000E+01
4805000000.000000      5.374756000000000E-01     -1.132500000000000E+02      1.184998000000000E-01     -1.348594000000000E+02      1.184349000000000E-01     -7.855078000000000E+01      6.745605000000000E-01     -7.529687000000000E+01
4806000000.000000      5.372009000000000E-01     -1.141289000000000E+02      1.196823000000000E-01     -1.331563000000000E+02      1.192818000000000E-01     -7.673828000000000E+01      6.748047000000000E-01     -7.549999000000000E+01
4807000000.000000      5.382690000000000E-01     -1.147656000000000E+02      1.209793000000000E-01     -1.315312000000000E+02      1.204567000000000E-01     -7.534765000000000E+01      6.723938000000000E-01     -7.560156000000000E+01
4808000000.000000      5.400696000000000E-01     -1.154102000000000E+02      1.225700000000000E-01     -1.296719000000000E+02      1.221352000000000E-01     -7.362109000000000E+01      6.715698000000000E-01     -7.563281000000000E+01
4809000000.000000      5.404663000000000E-01     -1.162500000000000E+02      1.240082000000000E-01     -1.285391000000000E+02      1.243401000000000E-01     -7.212891000000000E+01      6.726379000000000E-01     -7.573828000000000E+01
4810000000.000000      5.428772000000000E-01     -1.170039000000000E+02      1.258240000000000E-01     -1.268828000000000E+02      1.259155000000000E-01     -7.053515000000000E+01      6.719666000000000E-01     -7.590234000000000E+01
4811000000.000000      5.451355000000000E-01     -1.175078000000000E+02      1.281281000000000E-01     -1.256289000000000E+02      1.282959000000000E-01     -6.912499000000000E+01      6.698303000000000E-01     -7.587500000000000E+01
4812000000.000000      5.474854000000000E-01     -1.181133000000000E+02      1.301651000000000E-01     -1.245586000000000E+02      1.301270000000000E-01     -6.776562000000000E+01      6.703186000000000E-01     -7.612499000000000E+01
4813000000.000000      5.485229000000000E-01     -1.188477000000000E+02      1.323929000000000E-01     -1.233281000000000E+02      1.324005000000000E-01     -6.640234000000000E+01      6.689758000000000E-01     -7.601563000000000E+01
4814000000.000000      5.495300000000000E-01     -1.198906000000000E+02      1.349945000000000E-01     -1.222461000000000E+02      1.349258000000000E-01     -6.528906000000000E+01      6.684265000000000E-01     -7.625390000000000E+01
4815000000.000000      5.538025000000000E-01     -1.201719000000000E+02      1.376724000000000E-01     -1.210938000000000E+02      1.370697000000000E-01     -6.411327000000000E+01      6.672668000000000E-01     -7.620703000000000E+01
4816000000.000000      5.565796000000000E-01     -1.207148000000000E+02      1.399307000000000E-01     -1.201523000000000E+02      1.401062000000000E-01     -6.309179000000000E+01      6.666260000000000E-01     -7.632421000000000E+01
4817000000.000000      5.624390000000000E-01     -1.215039000000000E+02      1.425400000000000E-01     -1.193125000000000E+02      1.425934000000000E-01     -6.216797000000000E+01      6.657715000000000E-01     -7.645702000000000E+01
4818000000.000000      5.627136000000000E-01     -1.221523000000000E+02      1.449890000000000E-01     -1.186016000000000E+02      1.455460000000000E-01     -6.126758000000000E+01      6.659851000000000E-01     -7.644921000000000E+01
4819000000.000000      5.664978000000000E-01     -1.226797000000000E+02      1.479340000000000E-01     -1.178711000000000E+02      1.481857000000000E-01     -6.033398000000000E+01      6.657715000000000E-01     -7.655859000000000E+01
4820000000.000000      5.698242000000000E-01     -1.231719000000000E+02      1.513138000000000E-01     -1.170391000000000E+02      1.514435000000000E-01     -5.956445000000000E+01      6.652527000000000E-01     -7.664063000000000E+01
4821000000.000000      5.735168000000000E-01     -1.237930000000000E+02      1.541595000000000E-01     -1.163906000000000E+02      1.542130000000000E-01     -5.892773000000000E+01      6.637878000000000E-01     -7.678124000000000E+01
4822000000.000000      5.793762000000000E-01     -1.242461000000000E+02      1.571732000000000E-01     -1.157773000000000E+02      1.574554000000000E-01     -5.815624000000000E+01      6.646118000000000E-01     -7.672265000000000E+01
4823000000.000000      5.830078000000000E-01     -1.248711000000000E+02      1.604691000000000E-01     -1.153867000000000E+02      1.603088000000000E-01     -5.731054000000000E+01      6.642761000000000E-01     -7.678124000000000E+01
4824000000.000000      5.880737000000000E-01     -1.253789000000000E+02      1.635666000000000E-01     -1.149766000000000E+02      1.640625000000000E-01     -5.683398000000000E+01      6.651917000000000E-01     -7.676952000000000E+01
4825000000.000000      5.934448000000000E-01     -1.258086000000000E+02      1.664200000000000E-01     -1.144023000000000E+02      1.675568000000000E-01     -5.639062000000000E+01      6.647949000000000E-01     -7.685547000000000E+01
4826000000.000000      6.004944000000000E-01     -1.262148000000000E+02      1.698227000000000E-01     -1.140078000000000E+02      1.703949000000000E-01     -5.593359000000000E+01      6.638489000000000E-01     -7.692577000000000E+01
4827000000.000000      6.033936000000000E-01     -1.266680000000000E+02      1.730804000000000E-01     -1.136601000000000E+02      1.735840000000000E-01     -5.541210000000000E+01      6.648560000000000E-01     -7.685937000000000E+01
4828000000.000000      6.116943000000000E-01     -1.270391000000000E+02      1.759262000000000E-01     -1.135586000000000E+02      1.771164000000000E-01     -5.486328000000000E+01      6.659851000000000E-01     -7.691406000000000E+01
4829000000.000000      6.148376000000000E-01     -1.274961000000000E+02      1.791916000000000E-01     -1.133633000000000E+02      1.805267000000000E-01     -5.458789000000000E+01      6.656494000000000E-01     -7.694921000000000E+01
4830000000.000000      6.221313000000000E-01     -1.278320000000000E+02      1.824951000000000E-01     -1.131758000000000E+02      1.838760000000000E-01     -5.422852000000000E+01      6.662903000000000E-01     -7.698437000000000E+01
4831000000.000000      6.278381000000000E-01     -1.281328000000000E+02      1.858215000000000E-01     -1.129688000000000E+02      1.874390000000000E-01     -5.381054000000000E+01      6.674500000000000E-01     -7.702343000000000E+01
4832000000.000000      6.344299000000000E-01     -1.285703000000000E+02      1.890106000000000E-01     -1.125664000000000E+02      1.906433000000000E-01     -5.359375000000000E+01      6.659241000000000E-01     -7.696094000000000E+01
4833000000.000000      6.409607000000000E-01     -1.288594000000000E+02      1.920853000000000E-01     -1.125430000000000E+02      1.942673000000000E-01     -5.346680000000000E+01      6.672974000000000E-01     -7.701172000000000E+01
4834000000.000000      6.452332000000000E-01     -1.291484000000000E+02      1.953201000000000E-01     -1.125117000000000E+02      1.976776000000000E-01     -5.317577000000000E+01      6.678772000000000E-01     -7.699219000000000E+01
4835000000.000000      6.531982000000000E-01     -1.292891000000000E+02      1.985168000000000E-01     -1.126406000000000E+02      2.016220000000000E-01     -5.293750000000000E+01      6.698303000000000E-01     -7.702343000000000E+01
4836000000.000000      6.593933000000000E-01     -1.297109000000000E+02      2.017822000000000E-01     -1.124609000000000E+02      2.046967000000000E-01     -5.263866000000000E+01      6.700745000000000E-01     -7.694921000000000E+01
4837000000.000000      6.666260000000000E-01     -1.297656000000000E+02      2.049637000000000E-01     -1.126680000000000E+02      2.083359000000000E-01     -5.257226000000000E+01      6.716614000000000E-01     -7.694140000000000E+01
4838000000.000000      6.744690000000000E-01     -1.301953000000000E+02      2.084122000000000E-01     -1.124805000000000E+02      2.117691000000000E-01     -5.236133000000000E+01      6.721191000000000E-01     -7.688671000000000E+01
4839000000.000000      6.821289000000000E-01     -1.301953000000000E+02      2.110291000000000E-01     -1.124766000000000E+02      2.154999000000000E-01     -5.215429000000000E+01      6.731262000000000E-01     -7.687500000000000E+01
4840000000.000000      6.864319000000000E-01     -1.304531000000000E+02      2.137909000000000E-01     -1.126484000000000E+02      2.192612000000000E-01     -5.210938000000000E+01      6.743469000000000E-01     -7.687109000000000E+01
4841000000.000000      6.944275000000000E-01     -1.305547000000000E+02      2.173462000000000E-01     -1.128828000000000E+02      2.226639000000000E-01     -5.214257000000000E+01      6.764832000000000E-01     -7.682031000000000E+01
4842000000.000000      7.012634000000000E-01     -1.307422000000000E+02      2.207870000000000E-01     -1.127500000000000E+02      2.255402000000000E-01     -5.194336000000000E+01      6.777954000000000E-01     -7.678515000000000E+01
4843000000.000000      7.087708000000000E-01     -1.308906000000000E+02      2.234344000000000E-01     -1.131367000000000E+02      2.294693000000000E-01     -5.189258000000000E+01      6.788025000000000E-01     -7.676952000000000E+01
4844000000.000000      7.154236000000000E-01     -1.311094000000000E+02      2.265320000000000E-01     -1.130937000000000E+02      2.331696000000000E-01     -5.178711000000000E+01      6.809692000000000E-01     -7.679688000000000E+01
4845000000.000000      7.241211000000000E-01     -1.310625000000000E+02      2.294235000000000E-01     -1.132578000000000E+02      2.368622000000000E-01     -5.178711000000000E+01      6.816101000000000E-01     -7.667578000000000E+01
4846000000.000000      7.308044000000000E-01     -1.310078000000000E+02      2.323380000000000E-01     -1.133945000000000E+02      2.405777000000000E-01     -5.171679000000000E+01      6.834412000000000E-01     -7.675390000000000E+01
4847000000.000000      7.394409000000000E-01     -1.312031000000000E+02      2.356491000000000E-01     -1.135195000000000E+02      2.446136000000000E-01     -5.177539000000000E+01      6.852722000000000E-01     -7.671484000000000E+01
4848000000.000000      7.480774000000000E-01     -1.311719000000000E+02      2.382736000000000E-01     -1.137617000000000E+02      2.476425000000000E-01     -5.164063000000000E+01      6.872559000000000E-01     -7.672656000000000E+01
4849000000.000000      7.553101000000000E-01     -1.313750000000000E+02      2.411880000000000E-01     -1.141055000000000E+02      2.512817000000000E-01     -5.174414000000000E+01      6.889343000000000E-01     -7.666406000000000E+01
4850000000.000000      7.634888000000000E-01     -1.312500000000000E+02      2.437820000000000E-01     -1.141445000000000E+02      2.547302000000000E-01     -5.166210000000000E+01      6.913757000000000E-01     -7.656250000000000E+01
4851000000.000000      7.697754000000000E-01     -1.313281000000000E+02      2.470932000000000E-01     -1.144727000000000E+02      2.584381000000000E-01     -5.169922000000000E+01      6.930542000000000E-01     -7.654687000000000E+01
4852000000.000000      7.792053000000000E-01     -1.313828000000000E+02      2.497635000000000E-01     -1.147930000000000E+02      2.621765000000000E-01     -5.173633000000000E+01      6.960754000000000E-01     -7.657812000000000E+01
4853000000.000000      7.868958000000000E-01     -1.313359000000000E+02      2.515259000000000E-01     -1.149922000000000E+02      2.665863000000000E-01     -5.176562000000000E+01      6.973572000000000E-01     -7.669922000000000E+01
4854000000.000000      7.946472000000000E-01     -1.312734000000000E+02      2.552338000000000E-01     -1.153125000000000E+02      2.696838000000000E-01     -5.192383000000000E+01      6.996765000000000E-01     -7.666016000000000E+01
4855000000.000000      7.996826000000000E-01     -1.313516000000000E+02      2.568054000000000E-01     -1.154453000000000E+02      2.731628000000000E-01     -5.189843000000000E+01      7.016602000000000E-01     -7.649609000000000E+01
4856000000.000000      8.088684000000000E-01     -1.312109000000000E+02      2.592468000000000E-01     -1.156133000000000E+02      2.768097000000000E-01     -5.188671000000000E+01      7.047729000000000E-01     -7.653515000000000E+01
4857000000.000000      8.185425000000000E-01     -1.312422000000000E+02      2.629700000000000E-01     -1.159844000000000E+02      2.805023000000000E-01     -5.202343000000000E+01      7.061157000000000E-01     -7.650391000000000E+01
4858000000.000000      8.210144000000000E-01     -1.313750000000000E+02      2.649384000000000E-01     -1.161055000000000E+02      2.839050000000000E-01     -5.210938000000000E+01      7.091675000000000E-01     -7.657031000000000E+01
4859000000.000000      8.304138000000000E-01     -1.311953000000000E+02      2.671509000000000E-01     -1.165703000000000E+02      2.876129000000000E-01     -5.225780000000000E+01      7.131653000000000E-01     -7.661327000000000E+01
4860000000.000000      8.399353000000000E-01     -1.309922000000000E+02      2.697296000000000E-01     -1.166953000000000E+02      2.911682000000000E-01     -5.225390000000000E+01      7.143860000000000E-01     -7.657031000000000E+01
4861000000.000000      8.463135000000000E-01     -1.310859000000000E+02      2.718353000000000E-01     -1.171680000000000E+02      2.948151000000000E-01     -5.246875000000000E+01      7.165527000000000E-01     -7.662109000000000E+01
4862000000.000000      8.520508000000000E-01     -1.309844000000000E+02      2.745514000000000E-01     -1.173086000000000E+02      2.989960000000000E-01     -5.236133000000000E+01      7.210388000000000E-01     -7.655859000000000E+01
4863000000.000000      8.598328000000000E-01     -1.309141000000000E+02      2.763519000000000E-01     -1.178008000000000E+02      3.025208000000000E-01     -5.244922000000000E+01      7.233582000000000E-01     -7.649219000000000E+01
4864000000.000000      8.671570000000000E-01     -1.309687000000000E+02      2.788086000000000E-01     -1.179766000000000E+02      3.053894000000000E-01     -5.268945000000000E+01      7.258606000000000E-01     -7.663671000000000E+01
4865000000.000000      8.739319000000000E-01     -1.309922000000000E+02      2.807617000000000E-01     -1.181602000000000E+02      3.092194000000000E-01     -5.292578000000000E+01      7.282104000000000E-01     -7.654687000000000E+01
4866000000.000000      8.800049000000000E-01     -1.307656000000000E+02      2.825470000000000E-01     -1.185508000000000E+02      3.127899000000000E-01     -5.301758000000000E+01      7.305298000000000E-01     -7.660937000000000E+01
4867000000.000000      8.875732000000000E-01     -1.307266000000000E+02      2.848053000000000E-01     -1.188359000000000E+02      3.166656000000000E-01     -5.307812000000000E+01      7.350159000000000E-01     -7.655468000000000E+01
4868000000.000000      8.941040000000000E-01     -1.306015000000000E+02      2.864990000000000E-01     -1.192734000000000E+02      3.206940000000000E-01     -5.326953000000000E+01      7.361755000000000E-01     -7.663671000000000E+01
4869000000.000000      8.983765000000000E-01     -1.306797000000000E+02      2.882690000000000E-01     -1.195234000000000E+02      3.243256000000000E-01     -5.352344000000000E+01      7.388916000000000E-01     -7.683203000000000E+01
4870000000.000000      9.049377000000000E-01     -1.304844000000000E+02      2.902985000000000E-01     -1.195976000000000E+02      3.271942000000000E-01     -5.374413000000000E+01      7.420349000000000E-01     -7.672265000000000E+01
4871000000.000000      9.119568000000000E-01     -1.305234000000000E+02      2.925110000000000E-01     -1.201015000000000E+02      3.303833000000000E-01     -5.392968000000000E+01      7.431030000000000E-01     -7.690234000000000E+01
4872000000.000000      9.186707000000000E-01     -1.303672000000000E+02      2.934570000000000E-01     -1.201719000000000E+02      3.342285000000000E-01     -5.427539000000000E+01      7.483521000000000E-01     -7.680859000000000E+01
4873000000.000000      9.229431000000000E-01     -1.302422000000000E+02      2.949982000000000E-01     -1.206836000000000E+02      3.380737000000000E-01     -5.419922000000000E+01      7.498474000000000E-01     -7.695313000000000E+01
4874000000.000000      9.274597000000000E-01     -1.301328000000000E+02      2.972717000000000E-01     -1.209453000000000E+02      3.416901000000000E-01     -5.441406000000000E+01      7.522278000000000E-01     -7.692577000000000E+01
4875000000.000000      9.325867000000000E-01     -1.301172000000000E+02      2.987976000000000E-01     -1.211562000000000E+02      3.445740000000000E-01     -5.476171000000000E+01      7.556458000000000E-01     -7.707421000000000E+01
4876000000.000000      9.375916000000000E-01     -1.300390000000000E+02      3.006744000000000E-01     -1.215508000000000E+02      3.478394000000000E-01     -5.488867000000000E+01      7.576904000000000E-01     -7.720312000000000E+01
4877000000.000000      9.410095000000000E-01     -1.298203000000000E+02      3.020935000000000E-01     -1.216875000000000E+02      3.517303000000000E-01     -5.522851000000000E+01      7.602539000000000E-01     -7.727734000000000E+01
4878000000.000000      9.477234000000000E-01     -1.297266000000000E+02      3.034821000000000E-01     -1.220391000000000E+02      3.545227000000000E-01     -5.521484000000000E+01      7.634888000000000E-01     -7.739843000000000E+01
4879000000.000000      9.484558000000000E-01     -1.295703000000000E+02      3.043671000000000E-01     -1.222383000000000E+02      3.585663000000000E-01     -5.560741000000000E+01      7.662964000000000E-01     -7.741405000000000E+01
4880000000.000000      9.543457000000000E-01     -1.295625000000000E+02      3.062439000000000E-01     -1.225508000000000E+02      3.619995000000000E-01     -5.580273000000000E+01      7.677917000000000E-01     -7.748047000000000E+01
4881000000.000000      9.569702000000000E-01     -1.292734000000000E+02      3.080750000000000E-01     -1.226601000000000E+02      3.658905000000000E-01     -5.616601000000000E+01      7.704163000000000E-01     -7.759766000000000E+01
4882000000.000000      9.596252000000000E-01     -1.291797000000000E+02      3.089294000000000E-01     -1.231406000000000E+02      3.689117000000000E-01     -5.629687000000000E+01      7.723389000000000E-01     -7.773046000000000E+01
