! Network Analyzer HP8722D
! Hewlett-Packard
! Data name: Linha & Wilkinson
! Saver's name: Rodrigo Anjos
! Comments: Teste da utilização de aquisição
continua pelo VNA HP8722D
! Time and date: 8/5/2025 16:46
!              Frequency                     S11                                                   S21                                                   S12                                                   S22
# HZ  S  MA R 50
4800000000.000000      4.935608000000000E-01     -1.673984000000000E+02      2.635651000000000E-01     -2.080566000000000E+01      2.593384000000000E-01     -1.419531000000000E+02      6.519775000000000E-01     -8.021875000000000E+01
4801000000.000000      4.950867000000000E-01     -1.674297000000000E+02      2.668457000000000E-01     -2.105762000000000E+01      2.625732000000000E-01     -1.420312000000000E+02      6.506348000000000E-01     -7.989062000000000E+01
4802000000.000000      4.964905000000000E-01     -1.675390000000000E+02      2.705841000000000E-01     -2.118652000000000E+01      2.667694000000000E-01     -1.420000000000000E+02      6.505737000000000E-01     -7.968359000000000E+01
4803000000.000000      4.981079000000000E-01     -1.676484000000000E+02      2.754974000000000E-01     -2.160547000000000E+01      2.700500000000000E-01     -1.421250000000000E+02      6.499023000000000E-01     -7.953906000000000E+01
4804000000.000000      5.003357000000000E-01     -1.676016000000000E+02      2.791443000000000E-01     -2.184863000000000E+01      2.737122000000000E-01     -1.423750000000000E+02      6.495972000000000E-01     -7.923828000000000E+01
4805000000.000000      5.032349000000000E-01     -1.676250000000000E+02      2.826385000000000E-01     -2.233984000000000E+01      2.773132000000000E-01     -1.424609000000000E+02      6.499329000000000E-01     -7.907031000000000E+01
4806000000.000000      5.044861000000000E-01     -1.676172000000000E+02      2.861328000000000E-01     -2.254199000000000E+01      2.800293000000000E-01     -1.424609000000000E+02      6.489868000000000E-01     -7.895312000000000E+01
4807000000.000000      5.082703000000000E-01     -1.676563000000000E+02      2.906189000000000E-01     -2.285449000000000E+01      2.839508000000000E-01     -1.427891000000000E+02      6.501160000000000E-01     -7.872656000000000E+01
4808000000.000000      5.110779000000000E-01     -1.675000000000000E+02      2.954407000000000E-01     -2.300488000000000E+01      2.870636000000000E-01     -1.428594000000000E+02      6.490784000000000E-01     -7.849609000000000E+01
4809000000.000000      5.130920000000000E-01     -1.675937000000000E+02      2.984009000000000E-01     -2.382031000000000E+01      2.909393000000000E-01     -1.430703000000000E+02      6.500854000000000E-01     -7.829687000000000E+01
4810000000.000000      5.164795000000000E-01     -1.676484000000000E+02      3.029480000000000E-01     -2.392969000000000E+01      2.943420000000000E-01     -1.432266000000000E+02      6.511536000000000E-01     -7.823437000000000E+01
4811000000.000000      5.202637000000000E-01     -1.675703000000000E+02      3.063202000000000E-01     -2.445508000000000E+01      2.981720000000000E-01     -1.432188000000000E+02      6.512756000000000E-01     -7.785937000000000E+01
4812000000.000000      5.241394000000000E-01     -1.675469000000000E+02      3.096466000000000E-01     -2.493261000000000E+01      3.009033000000000E-01     -1.434062000000000E+02      6.517334000000000E-01     -7.777734000000000E+01
4813000000.000000      5.268250000000000E-01     -1.674922000000000E+02      3.137054000000000E-01     -2.529785000000000E+01      3.033142000000000E-01     -1.434531000000000E+02      6.532288000000000E-01     -7.756640000000000E+01
4814000000.000000      5.297852000000000E-01     -1.675547000000000E+02      3.169708000000000E-01     -2.566308000000000E+01      3.064423000000000E-01     -1.438594000000000E+02      6.543274000000000E-01     -7.743359000000000E+01
4815000000.000000      5.337524000000000E-01     -1.673828000000000E+02      3.196411000000000E-01     -2.605859000000000E+01      3.099365000000000E-01     -1.439219000000000E+02      6.551819000000000E-01     -7.719140000000000E+01
4816000000.000000      5.390625000000000E-01     -1.673828000000000E+02      3.237915000000000E-01     -2.633105000000000E+01      3.136749000000000E-01     -1.440391000000000E+02      6.567078000000000E-01     -7.699609000000000E+01
4817000000.000000      5.439453000000000E-01     -1.672656000000000E+02      3.269653000000000E-01     -2.701074000000000E+01      3.156128000000000E-01     -1.442656000000000E+02      6.568298000000000E-01     -7.694921000000000E+01
4818000000.000000      5.471497000000000E-01     -1.673047000000000E+02      3.302612000000000E-01     -2.736425000000000E+01      3.193970000000000E-01     -1.445078000000000E+02      6.591187000000000E-01     -7.683594000000000E+01
4819000000.000000      5.523987000000000E-01     -1.672266000000000E+02      3.335876000000000E-01     -2.785351000000000E+01      3.207855000000000E-01     -1.446172000000000E+02      6.622925000000000E-01     -7.673437000000000E+01
4820000000.000000      5.553589000000000E-01     -1.671484000000000E+02      3.363037000000000E-01     -2.822558000000000E+01      3.248138000000000E-01     -1.447813000000000E+02      6.646729000000000E-01     -7.652734000000000E+01
4821000000.000000      5.612488000000000E-01     -1.670703000000000E+02      3.395844000000000E-01     -2.881445000000000E+01      3.267670000000000E-01     -1.451797000000000E+02      6.657104000000000E-01     -7.639062000000000E+01
4822000000.000000      5.679626000000000E-01     -1.670391000000000E+02      3.431396000000000E-01     -2.933300000000000E+01      3.294373000000000E-01     -1.453750000000000E+02      6.687012000000000E-01     -7.621094000000000E+01
4823000000.000000      5.712891000000000E-01     -1.669609000000000E+02      3.460541000000000E-01     -2.975586000000000E+01      3.319702000000000E-01     -1.452578000000000E+02      6.696777000000000E-01     -7.616796000000000E+01
4824000000.000000      5.788269000000000E-01     -1.669219000000000E+02      3.491516000000000E-01     -3.040918000000000E+01      3.348083000000000E-01     -1.456250000000000E+02      6.729431000000000E-01     -7.601953000000000E+01
4825000000.000000      5.829773000000000E-01     -1.668672000000000E+02      3.514252000000000E-01     -3.080566000000000E+01      3.376770000000000E-01     -1.457344000000000E+02      6.753235000000000E-01     -7.593750000000000E+01
4826000000.000000      5.895081000000000E-01     -1.667344000000000E+02      3.547821000000000E-01     -3.143652000000000E+01      3.400879000000000E-01     -1.461797000000000E+02      6.785889000000000E-01     -7.583984000000000E+01
4827000000.000000      5.952759000000000E-01     -1.665937000000000E+02      3.571625000000000E-01     -3.166894000000000E+01      3.421173000000000E-01     -1.461719000000000E+02      6.806641000000000E-01     -7.576172000000000E+01
4828000000.000000      6.021729000000000E-01     -1.666016000000000E+02      3.609009000000000E-01     -3.232226000000000E+01      3.439941000000000E-01     -1.464609000000000E+02      6.842346000000000E-01     -7.572266000000000E+01
4829000000.000000      6.057434000000000E-01     -1.665078000000000E+02      3.619537000000000E-01     -3.282812000000000E+01      3.469391000000000E-01     -1.466953000000000E+02      6.871948000000000E-01     -7.559375000000000E+01
4830000000.000000      6.133728000000000E-01     -1.664063000000000E+02      3.646088000000000E-01     -3.353320000000000E+01      3.495636000000000E-01     -1.469219000000000E+02      6.907043000000000E-01     -7.557812000000000E+01
4831000000.000000      6.185608000000000E-01     -1.663281000000000E+02      3.670349000000000E-01     -3.402344000000000E+01      3.524933000000000E-01     -1.469219000000000E+02      6.932678000000000E-01     -7.547656000000000E+01
4832000000.000000      6.277161000000000E-01     -1.662969000000000E+02      3.694305000000000E-01     -3.450976000000000E+01      3.535614000000000E-01     -1.471719000000000E+02      6.968994000000000E-01     -7.540625000000000E+01
4833000000.000000      6.332397000000000E-01     -1.663125000000000E+02      3.716431000000000E-01     -3.511523000000000E+01      3.557892000000000E-01     -1.474219000000000E+02      6.999512000000000E-01     -7.539063000000000E+01
4834000000.000000      6.395264000000000E-01     -1.661953000000000E+02      3.731079000000000E-01     -3.550586000000000E+01      3.577423000000000E-01     -1.476406000000000E+02      7.029724000000000E-01     -7.535156000000000E+01
4835000000.000000      6.463318000000000E-01     -1.661484000000000E+02      3.757782000000000E-01     -3.611914000000000E+01      3.604431000000000E-01     -1.477422000000000E+02      7.075195000000000E-01     -7.528515000000000E+01
4836000000.000000      6.547546000000000E-01     -1.661016000000000E+02      3.774109000000000E-01     -3.666601000000000E+01      3.621979000000000E-01     -1.479063000000000E+02      7.110291000000000E-01     -7.524219000000000E+01
4837000000.000000      6.618042000000000E-01     -1.660312000000000E+02      3.773193000000000E-01     -3.745117000000000E+01      3.640747000000000E-01     -1.482500000000000E+02      7.145691000000000E-01     -7.521874000000000E+01
4838000000.000000      6.685486000000000E-01     -1.660859000000000E+02      3.802032000000000E-01     -3.781250000000000E+01      3.660583000000000E-01     -1.482891000000000E+02      7.183228000000000E-01     -7.514453000000000E+01
4839000000.000000      6.757202000000000E-01     -1.659219000000000E+02      3.819733000000000E-01     -3.834961000000000E+01      3.672638000000000E-01     -1.484062000000000E+02      7.222290000000000E-01     -7.507813000000000E+01
4840000000.000000      6.803894000000000E-01     -1.659922000000000E+02      3.823547000000000E-01     -3.887500000000000E+01      3.694763000000000E-01     -1.487344000000000E+02      7.266541000000000E-01     -7.520312000000000E+01
4841000000.000000      6.894836000000000E-01     -1.660156000000000E+02      3.848572000000000E-01     -3.942187000000000E+01      3.719330000000000E-01     -1.489844000000000E+02      7.300720000000000E-01     -7.513281000000000E+01
4842000000.000000      6.964417000000000E-01     -1.658984000000000E+02      3.859406000000000E-01     -3.998437000000000E+01      3.727112000000000E-01     -1.491172000000000E+02      7.357483000000000E-01     -7.515234000000000E+01
4843000000.000000      7.028503000000000E-01     -1.659453000000000E+02      3.866882000000000E-01     -4.075000000000000E+01      3.746033000000000E-01     -1.492422000000000E+02      7.385559000000000E-01     -7.511328000000000E+01
4844000000.000000      7.102051000000000E-01     -1.658906000000000E+02      3.871002000000000E-01     -4.103711000000000E+01      3.757324000000000E-01     -1.494688000000000E+02      7.428284000000000E-01     -7.507030000000000E+01
4845000000.000000      7.172546000000000E-01     -1.658203000000000E+02      3.878326000000000E-01     -4.168750000000000E+01      3.778687000000000E-01     -1.497578000000000E+02      7.461548000000000E-01     -7.505077000000000E+01
4846000000.000000      7.241516000000000E-01     -1.657578000000000E+02      3.895416000000000E-01     -4.219922000000000E+01      3.800964000000000E-01     -1.498359000000000E+02      7.506104000000000E-01     -7.519140000000000E+01
4847000000.000000      7.322388000000000E-01     -1.658281000000000E+02      3.904114000000000E-01     -4.264257000000000E+01      3.814087000000000E-01     -1.500391000000000E+02      7.553711000000000E-01     -7.519140000000000E+01
4848000000.000000      7.397461000000000E-01     -1.657891000000000E+02      3.906403000000000E-01     -4.303906000000000E+01      3.825989000000000E-01     -1.501641000000000E+02      7.592468000000000E-01     -7.519140000000000E+01
4849000000.000000      7.463379000000000E-01     -1.660469000000000E+02      3.913727000000000E-01     -4.391797000000000E+01      3.840637000000000E-01     -1.502266000000000E+02      7.637939000000000E-01     -7.514453000000000E+01
4850000000.000000      7.535706000000000E-01     -1.658281000000000E+02      3.914795000000000E-01     -4.429688000000000E+01      3.855591000000000E-01     -1.503828000000000E+02      7.691650000000000E-01     -7.518359000000000E+01
4851000000.000000      7.602844000000000E-01     -1.658516000000000E+02      3.919678000000000E-01     -4.490820000000000E+01      3.866119000000000E-01     -1.505859000000000E+02      7.738647000000000E-01     -7.520702000000000E+01
4852000000.000000      7.677917000000000E-01     -1.659062000000000E+02      3.921661000000000E-01     -4.528320000000000E+01      3.884277000000000E-01     -1.506562000000000E+02      7.773132000000000E-01     -7.519531000000000E+01
4853000000.000000      7.748108000000000E-01     -1.658594000000000E+02      3.903961000000000E-01     -4.591016000000000E+01      3.896027000000000E-01     -1.509219000000000E+02      7.830811000000000E-01     -7.540625000000000E+01
4854000000.000000      7.803345000000000E-01     -1.658594000000000E+02      3.919373000000000E-01     -4.650586000000000E+01      3.904724000000000E-01     -1.511719000000000E+02      7.873230000000000E-01     -7.538671000000000E+01
4855000000.000000      7.843933000000000E-01     -1.658750000000000E+02      3.905182000000000E-01     -4.683789000000000E+01      3.919220000000000E-01     -1.512109000000000E+02      7.909241000000000E-01     -7.536327000000000E+01
4856000000.000000      7.932739000000000E-01     -1.658516000000000E+02      3.918915000000000E-01     -4.734179000000000E+01      3.935699000000000E-01     -1.513750000000000E+02      7.984009000000000E-01     -7.542969000000000E+01
4857000000.000000      7.991638000000000E-01     -1.659141000000000E+02      3.910522000000000E-01     -4.780859000000000E+01      3.941498000000000E-01     -1.514609000000000E+02      8.012695000000000E-01     -7.557422000000000E+01
4858000000.000000      8.025208000000000E-01     -1.660156000000000E+02      3.905029000000000E-01     -4.821094000000000E+01      3.950348000000000E-01     -1.517344000000000E+02      8.069458000000000E-01     -7.565234000000000E+01
4859000000.000000      8.101196000000000E-01     -1.660391000000000E+02      3.902435000000000E-01     -4.877148000000000E+01      3.961945000000000E-01     -1.520000000000000E+02      8.122864000000000E-01     -7.576172000000000E+01
4860000000.000000      8.185730000000000E-01     -1.659609000000000E+02      3.893280000000000E-01     -4.909961000000000E+01      3.966522000000000E-01     -1.519687000000000E+02      8.148193000000000E-01     -7.561718000000000E+01
4861000000.000000      8.220520000000000E-01     -1.659375000000000E+02      3.894043000000000E-01     -4.980273000000000E+01      3.985138000000000E-01     -1.521641000000000E+02      8.206482000000000E-01     -7.581249000000000E+01
4862000000.000000      8.281250000000000E-01     -1.659765000000000E+02      3.888550000000000E-01     -4.996875000000000E+01      3.997803000000000E-01     -1.523047000000000E+02      8.258667000000000E-01     -7.585938000000000E+01
4863000000.000000      8.307190000000000E-01     -1.661328000000000E+02      3.869629000000000E-01     -5.060351000000000E+01      4.009399000000000E-01     -1.524453000000000E+02      8.299255000000000E-01     -7.592578000000000E+01
4864000000.000000      8.378906000000000E-01     -1.659453000000000E+02      3.869324000000000E-01     -5.079296000000000E+01      4.003296000000000E-01     -1.526094000000000E+02      8.354187000000000E-01     -7.611328000000000E+01
4865000000.000000      8.412170000000000E-01     -1.660859000000000E+02      3.845215000000000E-01     -5.126953000000000E+01      4.017334000000000E-01     -1.528828000000000E+02      8.388062000000000E-01     -7.600390000000000E+01
4866000000.000000      8.461609000000000E-01     -1.661094000000000E+02      3.835754000000000E-01     -5.159180000000000E+01      4.024658000000000E-01     -1.529453000000000E+02      8.443604000000000E-01     -7.602734000000000E+01
4867000000.000000      8.520813000000000E-01     -1.659531000000000E+02      3.835449000000000E-01     -5.195898000000000E+01      4.030457000000000E-01     -1.530859000000000E+02      8.497620000000000E-01     -7.618750000000000E+01
4868000000.000000      8.571472000000000E-01     -1.661484000000000E+02      3.821411000000000E-01     -5.247070000000000E+01      4.044952000000000E-01     -1.532578000000000E+02      8.527222000000000E-01     -7.621484000000000E+01
4869000000.000000      8.572693000000000E-01     -1.659922000000000E+02      3.800812000000000E-01     -5.265625000000000E+01      4.049835000000000E-01     -1.534453000000000E+02      8.580933000000000E-01     -7.649609000000000E+01
4870000000.000000      8.627625000000000E-01     -1.660234000000000E+02      3.795166000000000E-01     -5.290234000000000E+01      4.050293000000000E-01     -1.536094000000000E+02      8.633423000000000E-01     -7.639453000000000E+01
4871000000.000000      8.689575000000000E-01     -1.661641000000000E+02      3.774109000000000E-01     -5.334961000000000E+01      4.051666000000000E-01     -1.537578000000000E+02      8.663635000000000E-01     -7.664844000000000E+01
4872000000.000000      8.729553000000000E-01     -1.660547000000000E+02      3.757935000000000E-01     -5.340625000000000E+01      4.058380000000000E-01     -1.540547000000000E+02      8.716736000000000E-01     -7.674609000000000E+01
4873000000.000000      8.738403000000000E-01     -1.658750000000000E+02      3.749084000000000E-01     -5.383203000000000E+01      4.057922000000000E-01     -1.540234000000000E+02      8.756104000000000E-01     -7.682031000000000E+01
4874000000.000000      8.767090000000000E-01     -1.659297000000000E+02      3.735962000000000E-01     -5.416016000000000E+01      4.070740000000000E-01     -1.541328000000000E+02      8.800049000000000E-01     -7.673828000000000E+01
4875000000.000000      8.828125000000000E-01     -1.659141000000000E+02      3.715363000000000E-01     -5.447266000000000E+01      4.075012000000000E-01     -1.544688000000000E+02      8.844910000000000E-01     -7.707812000000000E+01
4876000000.000000      8.826599000000000E-01     -1.659375000000000E+02      3.704224000000000E-01     -5.474218000000000E+01      4.068756000000000E-01     -1.545547000000000E+02      8.879700000000000E-01     -7.722265000000000E+01
4877000000.000000      8.875122000000000E-01     -1.658359000000000E+02      3.697205000000000E-01     -5.484570000000000E+01      4.076080000000000E-01     -1.548203000000000E+02      8.919983000000000E-01     -7.738281000000000E+01
4878000000.000000      8.884888000000000E-01     -1.657344000000000E+02      3.681335000000000E-01     -5.511328000000000E+01      4.080505000000000E-01     -1.547656000000000E+02      8.955994000000000E-01     -7.746484000000000E+01
4879000000.000000      8.912964000000000E-01     -1.657578000000000E+02      3.652496000000000E-01     -5.535742000000000E+01      4.075012000000000E-01     -1.549766000000000E+02      8.992615000000000E-01     -7.749218000000000E+01
4880000000.000000      8.912048000000000E-01     -1.654453000000000E+02      3.642578000000000E-01     -5.557031000000000E+01      4.076996000000000E-01     -1.550156000000000E+02      9.032593000000000E-01     -7.762109000000000E+01
4881000000.000000      8.967896000000000E-01     -1.654844000000000E+02      3.635712000000000E-01     -5.556250000000000E+01      4.080505000000000E-01     -1.552969000000000E+02      9.086304000000000E-01     -7.770312000000000E+01
4882000000.000000      8.950195000000000E-01     -1.655313000000000E+02      3.623047000000000E-01     -5.590038000000000E+01      4.082184000000000E-01     -1.553906000000000E+02      9.118347000000000E-01     -7.788671000000000E+01
